# GHZ S RI R 50
0.2	0.00103927804825064	0.00241460161028078	4.79188796011962E-06	-2.98518612356598E-06	-1.37208731543175E-05	1.31191117339619E-05	0.999316517000142	-0.00728729133892329
0.3	0.00146151479061784	0.00161414834744969	2.86632513913322E-06	6.62402401222448E-06	-1.66493175080645E-06	-9.31805875538637E-06	0.999166765997995	-0.010258619601602
0.4	0.00169234393578261	0.00106038012172045	-1.86311478961576E-06	-4.01449095185762E-06	-9.01226634660661E-06	4.40484674444466E-06	0.999083916314021	-0.012980746864803
0.5	0.00162164215679503	0.000684625477204928	-5.35675260944255E-06	3.26374314843612E-06	-2.12444246734882E-06	6.75641044074292E-06	0.998834298021216	-0.0159759629352439
0.6	0.00174622018976213	0.000505491787980629	-1.38829791319138E-07	2.80543976593458E-06	-5.81425791243152E-07	-1.33920133720107E-07	0.999125149463767	-0.0190102429810186
0.7	0.00176736237741932	0.000268722721259184	8.86248384745117E-08	2.21874036140923E-06	4.90163371254127E-06	-3.40265332854056E-06	0.998743727638961	-0.0222031745643917
0.8	0.00182596395165436	6.02092177646166E-05	4.52799347047627E-06	8.24320071119053E-07	2.74419091947809E-06	1.99928092219141E-06	0.998343895540055	-0.0245160488179876
0.9	0.00185209316515537	-0.000214485163458666	-1.53238541764657E-07	-4.21731602290041E-06	-3.41823535709078E-06	-3.10763034255694E-06	0.997974055910669	-0.0270228484412584
1	0.00164571139435268	-0.000649590741290686	1.06095655058215E-06	4.28970338555997E-06	3.32592206803215E-06	9.32084292231189E-07	0.997242707070042	-0.0284930471459906
1.1	0.00127966531591513	-0.000850200107950343	9.03779740101085E-06	5.15648295380459E-07	-3.57616090667251E-06	-4.98037784713306E-07	0.996882627693721	-0.030140072745152
1.2	0.000881973499815703	-0.00145238910512901	3.75732644176839E-06	-1.1995668367358E-06	-4.09374793750474E-06	-2.43471779867638E-06	0.996190805289261	-0.0311246569956957
1.3	9.72667704130964E-05	-0.00232658693095658	-7.6131300479841E-07	-1.42521369733249E-06	-2.58722259291675E-06	-8.6974770765221E-06	0.996246741070299	-0.0320331480071343
1.4	-0.000759820958824974	-0.00314889366198718	1.57511981489994E-08	3.44439064713157E-06	-4.27953669574806E-06	-4.12162980405009E-06	0.996132313303715	-0.0342696591571504
1.5	-0.00134352308891041	-0.00335630619214725	-1.29499636397356E-06	4.42683222816863E-06	6.54385229513914E-06	-7.410731206034E-06	0.996824194937627	-0.0376702061537777
1.6	-0.00134794616282697	-0.00313469676831899	1.62839631401525E-06	-4.89351773882887E-07	4.23772958130025E-06	-5.39223999660929E-06	0.996726861196197	-0.0411505112992002
1.7	-0.00122587233147574	-0.00302872770351374	5.32182790172101E-07	3.95542439967102E-06	-8.28007926929615E-06	3.13025447928444E-06	0.997111544982732	-0.0437064970606935
1.8	-0.0011444318240082	-0.00293437916024467	1.83199599880843E-06	1.07769296621826E-06	5.64930487504147E-07	-1.76138354717628E-06	0.997146043786181	-0.0463960068547585
1.9	-0.00116913687150309	-0.00304313741653816	3.23586960753518E-06	3.01641557934238E-06	-1.83441555667465E-07	-2.32967482999185E-06	0.996994572929886	-0.0486882592146755
2	-0.00150505067650628	-0.00308100674386741	-1.72665234781355E-07	2.00357995542442E-07	-1.21578322340115E-05	5.41649229289926E-06	0.996229985978764	-0.0512035718162734
2.1	-0.00164272683666833	-0.00295554115212794	6.6771214570844E-07	-1.3817906292432E-06	1.38031159137121E-05	4.96192323994196E-06	0.996268786419135	-0.0530813840474261
2.2	-0.0018168399795118	-0.00297938800200786	1.64357006036807E-06	-1.51638259631326E-06	2.68452328985748E-06	-6.2082129715188E-06	0.99642533454497	-0.0555596541099464
2.3	-0.00210682298430225	-0.00306283639158709	-1.68720814752881E-06	-3.42517540177395E-06	-1.79053193562939E-06	-4.589488043191E-06	0.996109538914434	-0.0574483381227779
2.4	-0.00247575167093685	-0.00322130931938308	-1.20295225178972E-06	-4.39878231677083E-06	3.04490649098716E-06	1.08595584249409E-06	0.996026015337901	-0.0605210989478458
2.5	-0.00318920607686555	-0.00335574319819087	5.38073397815849E-06	5.66755638381504E-06	-2.60790701329009E-06	1.61429050662804E-05	0.995654850068573	-0.0626215575764624
2.6	-0.0038298618087559	-0.00301834074918782	-2.2761956663979E-06	2.7111782978196E-06	4.3372487482499E-07	-4.31054983631884E-06	0.99583930867892	-0.0654210813248535
2.7	-0.00414480978750941	-0.00261004153748856	-2.40590502935012E-06	-3.6358780912335E-06	2.15427728561725E-06	-2.56990746966128E-06	0.995513014951251	-0.0683725371810976
2.8	-0.00423674027930337	-0.00222463488427976	4.00060136801325E-06	2.31167501885645E-06	9.82876325908859E-06	-6.86105774704552E-07	0.99571004657812	-0.0702814943027494
2.9	-0.00413982064167603	-0.00200445390947108	1.28759632872749E-05	7.13395386683395E-07	2.44257691507954E-06	-1.17114071056726E-05	0.995462874741663	-0.0722298274887094
3	-0.00416758938004317	-0.00184945675913014	-3.85271493004489E-06	1.04509664574212E-06	-4.14371514162491E-06	-1.59937394990311E-06	0.995333680601004	-0.0745571605665632
3.1	-0.0039717520737212	-0.00161732143684247	4.78157993509119E-06	-9.83672284997717E-06	1.06769305248383E-05	2.4137277664504E-06	0.995128002424807	-0.0764484973847939
3.2	-0.00385873322852603	-0.00163078990393982	-5.36307042941597E-06	-7.4080716337428E-06	1.56249282307579E-05	5.39286388991236E-06	0.994910935394745	-0.0782406997835212
3.3	-0.00384874731026718	-0.00172690742335264	-8.78958418598723E-06	2.53702679928881E-06	-8.55954626188463E-06	-1.74608302634747E-06	0.994698007005404	-0.0814570942999743
3.4	-0.00401799732382614	-0.00189612007481336	9.06245035253756E-06	-7.54986704848557E-06	-7.3456295184951E-06	4.22620060702255E-06	0.994703388762337	-0.0833673851140525
3.5	-0.00448262175925281	-0.00199731735073788	3.22577528911521E-07	-5.31927296468172E-06	-4.39021577848597E-06	-8.92939013072394E-06	0.994634031975153	-0.0862431280567307
3.6	-0.00480312072188092	-0.00174955031345184	4.06567259971759E-06	4.90080956733142E-06	-7.11149512841248E-06	8.9818601536237E-06	0.994368032820433	-0.088846053865332
3.7	-0.00502215055338274	-0.0015821403997841	1.53147496272647E-06	-4.52263039960109E-06	-5.09377649254979E-06	-6.58739596277875E-06	0.994194681305368	-0.0916331507290232
3.8	-0.00522371900194642	-0.00142112195278386	7.28054812766219E-06	-5.18564108275404E-06	-5.87405621378359E-06	-2.42316802959605E-06	0.993739594124166	-0.0937371294478108
3.9	-0.00538505643946531	-0.00129898819658111	-4.02733046635114E-06	-3.54215809592197E-07	-2.53060708976599E-06	1.12977768386939E-06	0.993441119322895	-0.0968542936686452
4	-0.00574958997623529	-0.00111578260409072	-3.38225986915511E-06	-8.57696333956701E-08	1.19434094419978E-06	8.6664087801042E-06	0.992768802091528	-0.0978504941557444
4.1	-0.00583586318123589	-0.000635881118592639	-2.89450651718194E-06	-3.86289245505838E-06	5.87304334665138E-06	3.04391098152755E-06	0.993023975324297	-0.0991468125697278
4.2	-0.00578391035107521	-0.00037189018704536	-7.70514016877502E-07	-2.15731346980199E-06	5.70032093013501E-06	-1.83652075951503E-06	0.992776534255607	-0.101823389146431
4.3	-0.00574046701614484	-0.000199082223096445	-5.14427476921623E-07	3.23342816061681E-06	2.12688359576061E-06	1.78191901877638E-06	0.992722547671845	-0.103848567970503
4.4	-0.00583617580119239	-0.000160958579356878	2.57165692410359E-06	3.4438091764273E-06	7.17542848642972E-06	3.91879769372612E-06	0.99244947826158	-0.106169485932041
4.5	-0.00624585938145448	-7.2936133139968E-06	-6.47096565815063E-06	-2.37791793801528E-07	-8.57646900004938E-06	-2.12311821414828E-06	0.99260386194933	-0.108109758934709
4.6	-0.00655900180128321	0.000490122726113923	-9.93618036813485E-06	-9.23628313551121E-06	3.23876959448029E-06	-2.7275247004966E-06	0.992871882736512	-0.111175245785448
4.7	-0.00663727801945126	0.000942672236414529	1.2456817100081E-07	1.86555704050879E-06	6.06735322451063E-06	-6.73013200807691E-06	0.992991794366709	-0.113608225538427
4.8	-0.00664759538298116	0.00136401715209801	-6.39725444481039E-06	2.07530345649622E-06	7.93251188963055E-07	-1.2750286795668E-05	0.992711364858463	-0.11644277073168
4.9	-0.00650018810087243	0.0016703455475113	-3.43201162647144E-06	8.14330590357733E-06	5.58117375346206E-07	9.37989246684121E-06	0.992275089375646	-0.118515031354502
5	-0.0064285989854788	0.00191233271241396	9.64986856281367E-06	-4.0584363221972E-06	-6.94120121296097E-06	3.57563223052932E-06	0.992143890118709	-0.120123546865303
5.1	-0.0059815134817999	0.00224477381499478	-3.65479830351986E-07	-3.25358175812428E-06	-3.87525180484832E-06	-1.79486625258417E-06	0.992279312492659	-0.121703306232171
5.2	-0.00548264784771205	0.00219205243284026	-1.06573992645181E-06	-4.48884271462188E-06	8.78711319854931E-06	5.58290250828855E-06	0.992010004824261	-0.124110644097277
5.3	-0.00517686016280864	0.00197508102658814	2.28379998534828E-06	6.79624941990351E-06	8.7955198380493E-06	3.13889607028513E-06	0.991704695282732	-0.126469216216436
5.4	-0.00513347234834635	0.00170237853016404	2.70957062867522E-06	-3.14132432141823E-06	-2.67590181927205E-06	1.51950437998257E-07	0.991721839776666	-0.129225439126221
5.5	-0.00556988868236575	0.00174686358740536	2.10412984275042E-06	9.32749870101052E-06	-3.9224292149475E-06	-5.04060961080954E-06	0.991669378058612	-0.132121379817413
5.6	-0.0056395535647217	0.00223133397604391	-5.86033124035955E-06	-1.13722887442243E-06	4.87601971606013E-06	1.94785247576652E-06	0.991562294794577	-0.134775702293518
5.7	-0.00563212716069133	0.00256177803885924	3.34085731510163E-06	-1.42306926252358E-06	-5.05139448921755E-06	-4.2991148552293E-06	0.991351238061494	-0.137489719452658
5.8	-0.00560929795610463	0.00284966357540936	-2.05510675614397E-06	-4.75231017106934E-06	9.47697238132163E-07	-5.82511891609247E-07	0.991063918027955	-0.139880725046158
5.9	-0.00561828950111874	0.00303584664086554	-3.88332464449496E-06	6.19813119587575E-07	3.86629958302904E-06	1.25083816354129E-06	0.990444543972323	-0.14224004051716
6	-0.00609881514648182	0.00315526537987834	-5.94084266170929E-06	5.04917178062128E-06	-1.48573598024502E-06	1.96233348861305E-07	0.989434516578025	-0.143235642824936
6.1	-0.0064285802868685	0.00385402046691117	-5.93096901586321E-06	-4.70550640132234E-06	-4.01059149575547E-06	4.30470528100707E-07	0.99001383779616	-0.143744408684337
6.2	-0.00641048832724309	0.00435378211589015	2.82174144468252E-06	3.13120866050746E-06	1.05354445905703E-06	7.24402396589782E-07	0.990373846444816	-0.145246020728691
6.3	-0.00619232137026593	0.00465545458983799	1.64394623774109E-06	-7.48176457402846E-07	-1.34318659361463E-07	1.37730940056361E-06	0.990314490798296	-0.147558240337873
6.4	-0.00604112202724832	0.00459118532868235	-5.18736179042397E-06	-5.63019718763528E-06	3.81642410087751E-06	6.91988966714556E-06	0.989843280003618	-0.150063922624118
6.5	-0.00618369149938697	0.00469409847712923	9.08159356130763E-06	-2.40997315181671E-07	-7.33422021383905E-06	-9.05535172549975E-07	0.989817829450894	-0.152710692282673
6.6	-0.00588624778775706	0.0050723762535003	-1.49154970237367E-06	4.66158481329103E-07	3.38723525653553E-06	-9.39581783586672E-06	0.990035672101794	-0.156079338690275
6.7	-0.00553905316427665	0.00526202284120139	4.30843584665861E-08	7.76660403928629E-06	-4.91347275114598E-07	-6.09811153262553E-06	0.989540863883036	-0.159038929707948
6.8	-0.00524368815483538	0.00542227616592399	4.25551377935553E-06	1.66222489193827E-06	2.17324712277478E-07	-5.24599029947404E-06	0.98893091620615	-0.161681216602515
6.9	-0.00506827095173898	0.00546154069837839	-7.571060743994E-07	2.48204465125307E-07	5.77247064484572E-06	-2.68468255080591E-06	0.988276869394506	-0.164041097158308
7	-0.0053167218137476	0.00577703703785891	8.03857603834137E-06	-4.76594737915042E-06	4.36028172388439E-07	-3.02639048963266E-06	0.987325420466101	-0.165665347020831
7.1	-0.0051035879044333	0.00650952843208334	3.85364624215097E-06	2.047856474205E-06	7.74104381123003E-07	7.24423307841568E-06	0.987127680374279	-0.167246479610252
7.2	-0.00468697693351435	0.00694834948407563	-2.45425839474328E-06	3.69915881355104E-06	-1.33482033690329E-06	-3.83574882464954E-06	0.98662843067567	-0.169285700541337
7.3	-0.00431491138536687	0.00721778868278364	3.44765119131522E-06	-4.94640655079946E-07	-2.45538640201941E-06	-1.92233332432271E-06	0.985580609673191	-0.171366160783853
7.4	-0.00406975574883152	0.00717933848819185	-6.20489231984862E-06	-2.70554340980239E-06	3.78013258932756E-06	2.47251067981419E-07	0.984564142211241	-0.174040699134795
7.5	-0.00439466185733204	0.00704027884905711	6.76808279189688E-06	-6.45602737335777E-06	-2.48417758765377E-06	8.03657778146178E-07	0.982937727570857	-0.176902497845589
7.6	-0.00444822293161185	0.00745988038228844	3.4925900174779E-06	5.21336553699198E-06	-1.02617214852032E-05	4.94002416570243E-06	0.981988458617612	-0.179386508457974
7.7	-0.00436762061269598	0.00758989308324958	6.04064868994048E-06	1.09594962429565E-05	3.32021417315799E-07	-1.13807382900206E-05	0.981669673866934	-0.182408899554735
7.8	-0.00416008869278532	0.00744127449877926	2.16056398682849E-06	9.8541221138638E-07	-3.11020446291621E-06	8.83908318649041E-06	0.981486531781692	-0.185702217745516
7.9	-0.00408127731399089	0.00714936486147617	2.55648560859624E-06	-2.31963910154627E-06	3.69533606383463E-06	3.41341017853795E-07	0.981053489130464	-0.189164920284974
8	-0.0042966055840594	0.00728044274995112	-2.81619931507633E-06	1.33379204781035E-06	6.8864261967891E-06	-1.86736131252202E-06	0.97996182432842	-0.191901310624389
8.1	-0.00387024070131592	0.0077023978285677	-1.79266810415425E-06	7.57930646929587E-07	-3.71365344670059E-06	-1.25190666253514E-06	0.979610693837515	-0.194212749612963
8.2	-0.00342451560688843	0.00778241534716794	-7.88417460347932E-07	6.33981042559906E-06	4.88438959364146E-06	4.35243680628517E-06	0.979211238908494	-0.196741098074522
8.3	-0.00306351718846778	0.00778987766518948	-8.72395869133264E-07	-1.42190105725417E-05	6.83518386140415E-06	5.42112569905673E-06	0.978401259945932	-0.199599472902356
8.4	-0.00287142177451723	0.00771313898992966	3.75667633734826E-06	-3.43356810417986E-06	-6.97378502913285E-06	-1.21109916281903E-06	0.977367616399681	-0.202291758179576
8.5	-0.00316684695650103	0.00787822576330079	4.6760441632236E-06	5.82162113765122E-07	8.41089556675067E-06	-6.84260584170944E-06	0.97647127216759	-0.204879219091749
8.6	-0.00297987031559288	0.00864390051125138	-3.26401058912406E-06	4.12281265125118E-06	1.02468585866733E-06	1.1098993770194E-05	0.975863998308425	-0.207585381740311
8.7	-0.00238013978346685	0.0090921750310648	2.68051873235702E-06	-2.00432402495462E-06	4.7775322916063E-07	-5.54745001323206E-07	0.975262087523347	-0.210222945884206
8.8	-0.00164187319276409	0.00931027839142681	1.1961717960637E-07	-1.25335651691017E-06	-9.5326242908814E-07	9.7701818080744E-06	0.974606339156424	-0.212434559176698
8.9	-0.000846197620034862	0.00908043693941524	-3.65909042952437E-06	2.29919505921309E-06	4.82945768515635E-06	-1.81181508408364E-06	0.974489673289705	-0.214317511962969
9	-0.000520505177429354	0.00864041196809192	-1.88910221380523E-06	5.00019043019915E-07	-3.22327835371045E-06	-1.05297797261149E-05	0.974368132771243	-0.216620861200034
9.1	2.13263381120859E-05	0.00840817618922771	5.25061263877904E-06	5.82633776060562E-07	9.13120745558524E-07	3.8051609606626E-07	0.97404486971729	-0.218790904876734
9.2	0.000528740095457258	0.00781814311636079	-8.72619212444476E-06	-4.56475491047695E-06	-8.88923711024237E-07	-6.12473763368226E-06	0.973571639916411	-0.22144968316379
9.3	0.000738277761887414	0.00715229913313823	1.95512585713191E-07	6.21438819419866E-06	4.63549002159952E-06	-2.19906438170625E-06	0.973094542352104	-0.224138765967876
9.4	0.000661954879805322	0.0064543290406319	-1.92166840606008E-06	5.88684178007303E-06	-1.04951271271886E-05	7.75393242303425E-06	0.972302056608674	-0.227378146904128
9.5	6.41287175791157E-05	0.00633742167732981	3.17729822357915E-06	-7.57336905339496E-06	3.68057294637047E-06	-2.74714582257017E-06	0.971105903257833	-0.230482174624676
9.6	-3.97967257424111E-05	0.00666351722148312	4.50913131352281E-06	5.57242552607696E-06	-6.30813528498416E-07	7.07560532349868E-06	0.969964218442026	-0.233440532990366
9.7	4.47679430802375E-05	0.00680519674710984	-2.61242327548268E-06	-3.93588056080041E-06	3.68183053453933E-06	-7.53241148720392E-06	0.968998843712695	-0.235951898721595
9.8	0.000112317143424269	0.00686366416401574	-5.32458046263713E-07	-4.21564877450799E-06	6.28022107895872E-06	8.78717849137315E-07	0.968495332505658	-0.238048762969211
9.9	0.000123850532103352	0.00678768009781318	-2.69071903733583E-06	-5.89546499897731E-07	-8.49649177628799E-06	5.50584232289869E-06	0.967714240216566	-0.240039195896079
10	-0.000378432213133808	0.00684726826255344	4.2573689978853E-07	-1.7518483831507E-06	-3.09692457607703E-06	-7.96387986756127E-06	0.966711973856976	-0.241418954242765
10.1	-0.000455974391692645	0.00748503828658838	2.25023515143733E-06	4.76651786472914E-06	-3.08938750192991E-06	9.85049476776827E-06	0.966191313006981	-0.242794221281636
10.2	-0.000194145688511794	0.00786526041592212	-5.38984294277222E-07	-1.047949982036E-06	-1.21316276260652E-06	-3.11481194364107E-06	0.965511529828387	-0.244177513230046
10.3	0.000156709352405647	0.00809143884456886	1.13023117357553E-05	-2.94502658304169E-06	1.0049508400207E-05	-4.85644658304805E-06	0.964671708432738	-0.245820967642891
10.4	0.0004923602876559	0.00801336812327405	-6.25425495977659E-07	2.14857559821603E-06	3.02781087382595E-06	-2.18930235098139E-06	0.963689970890783	-0.247604091381799
10.5	0.000311497287252884	0.00809985438396503	-6.10563043016442E-06	4.65278566341635E-06	1.57756038514729E-06	4.30532664824874E-06	0.963193307951521	-0.249768359418595
10.6	0.000536453995702112	0.00860980538600938	-7.08587429294534E-06	1.07030560262629E-05	7.03700181834914E-06	4.25709556490084E-06	0.962629420871361	-0.252532134325149
10.7	0.000975675786764918	0.00900182707548543	-3.21187204300744E-06	1.573888397096E-06	-5.36219571006016E-06	3.18194061504092E-06	0.961775627603049	-0.255275397660245
10.8	0.00150964020812525	0.009295133934107	-1.91731265308878E-06	4.99494115292084E-06	8.44389857587177E-07	-3.20464952931448E-06	0.960876187848741	-0.257413179475517
10.9	0.00210387136174393	0.0093420704245571	-5.77047640116406E-06	-1.05143809030454E-05	4.95218467838935E-06	1.06947539851626E-05	0.960523639408185	-0.259222943306109
11	0.00230992076843908	0.00951850775380188	2.96949189070936E-06	2.60901966726981E-06	7.68289658636383E-07	-1.12329775967731E-05	0.95980184855379	-0.261115828478249
11.1	0.00306100869405866	0.0100370876322991	3.85745224861736E-06	1.45159890051657E-06	2.45411061862149E-07	-7.36936245375175E-06	0.958571817069123	-0.262673625138956
11.2	0.00410826113855783	0.0100546888679328	-4.41480360499473E-06	-1.96535540810738E-06	-7.32248729952276E-06	-4.83962640670803E-06	0.957315987069368	-0.264013287941257
11.3	0.00517983348106946	0.00961654037677929	6.5772130459251E-07	-6.37413090038961E-06	3.77491073316613E-06	1.41268022421158E-05	0.956470467879731	-0.265184121101194
11.4	0.00591099198603806	0.00877376605896499	-5.10969693970619E-06	8.13846128989187E-06	-1.45585099444843E-06	4.07423489972605E-06	0.955552096106738	-0.267038342254846
11.5	0.00591763634848218	0.00804333248448808	4.52188354223242E-06	8.08335037557823E-06	-9.27831059647991E-06	1.58258980968178E-06	0.95464620927297	-0.269457569018931
11.6	0.00626317029957101	0.007667440249347	-3.8369508774938E-06	1.40034446280744E-06	5.07481682725964E-06	8.12578904414362E-06	0.953414265428001	-0.272483782528188
11.7	0.00665368106130843	0.00693970374774769	2.24747083202126E-06	1.05156710845678E-05	5.3961235691117E-07	-3.64488240996276E-06	0.952346433191492	-0.275448853275137
11.8	0.00688059300595507	0.00609128536634306	1.42786849613123E-06	4.45612562784539E-06	2.24798429089174E-06	4.52993701438659E-06	0.951657022639733	-0.278401366670963
11.9	0.00678206156108155	0.00507484752589593	7.43593312972289E-06	1.05522862364921E-05	3.87732018886139E-06	4.04090154781842E-07	0.9518231618578	-0.280595428033281
12	0.00595088496304237	0.00453300773860045	2.34999157223147E-06	-5.14713072034967E-06	-4.0361712296575E-07	1.74837716832536E-06	0.951750066068952	-0.283199498385658
