# GHZ S RI R 50
0.2	0.000996308226192712	0.00263743055082639	4.78991029271985E-06	-2.98598735160427E-06	-1.37138129859397E-05	1.31203897741526E-05	0.999211610362001	-0.00722693406024997
0.3	0.00142270561550867	0.00178497938062242	2.86714152130071E-06	6.62158038263556E-06	-1.66670935726074E-06	-9.31518528957021E-06	0.999024668610431	-0.0101927539359723
0.4	0.00167421074227502	0.00117439102776381	-1.86311215053602E-06	-4.01271820221582E-06	-9.00824928065008E-06	4.4047600037929E-06	0.998825398246471	-0.0129421192484987
0.5	0.00157087461912924	0.000845210854248145	-5.35483764102207E-06	3.26294863947187E-06	-2.12340620772745E-06	6.75431138619893E-06	0.998358172633386	-0.0157780763840575
0.6	0.00189410176441691	0.000662326445507515	-1.3824271575313E-07	2.80445826633297E-06	-5.81242509851351E-07	-1.33760679748685E-07	0.998664338254937	-0.0186532441685357
0.7	0.00197543490946898	0.000261230545970134	8.89959059873174E-08	2.21753442023845E-06	4.89836457058274E-06	-3.40175424382033E-06	0.998262095435766	-0.0217454178020134
0.8	0.00200819505238111	-7.2011102794526E-05	4.52509276963623E-06	8.23235589990781E-07	2.74261132416854E-06	1.99763046774628E-06	0.997900140188652	-0.023950684690101
0.9	0.00195204030821692	-0.000451795588016395	-1.53133251804634E-07	-4.21415955895692E-06	-3.41568416309098E-06	-3.10529706746291E-06	0.997671655774428	-0.0264354133926762
1	0.00150607331791745	-0.000817424611916649	1.05949171936845E-06	4.28712641416447E-06	3.32360510998544E-06	9.32087035584719E-07	0.997012594697718	-0.0280553857096229
1.1	0.00126057267718384	-0.000682560559601006	9.03405984663775E-06	5.16308906571414E-07	-3.57465366144773E-06	-4.98179214876117E-07	0.996701363973193	-0.0297538577971437
1.2	0.00114691105116804	-0.00114766438090442	3.75641036479941E-06	-1.19929750494269E-06	-4.09277074553738E-06	-2.43410565610875E-06	0.996177128472784	-0.0307430068813526
1.3	0.000727291432835277	-0.00202253471780751	-7.61453871192217E-07	-1.42504522328433E-06	-2.58818701299327E-06	-8.69670840139155E-06	0.996488313527849	-0.0316858942185931
1.4	4.39236667100037E-05	-0.00313777043565026	1.66269305857969E-08	3.44418379303698E-06	-4.28033369736609E-06	-4.12029785543492E-06	0.996366611887576	-0.0340876413090481
1.5	-0.000665057326852428	-0.00355842867873799	-1.2930616678348E-06	4.42579535905737E-06	6.53915400445374E-06	-7.41048094528891E-06	0.99644311945361	-0.0375265564839936
1.6	-0.000806597608201638	-0.00364499048927612	1.62704563794033E-06	-4.89477900994127E-07	4.23298038967353E-06	-5.38952281300731E-06	0.995849914641993	-0.0407370545248304
1.7	-0.00103434568188755	-0.00366999676649777	5.32353080422947E-07	3.95119554547152E-06	-8.27085668029353E-06	3.12850516748606E-06	0.99591346505661	-0.0431009366327715
1.8	-0.00122256698465639	-0.00352389442699171	1.82977074089611E-06	1.07613200318912E-06	5.64030388301047E-07	-1.75919591808329E-06	0.995697005194898	-0.0456939814068566
1.9	-0.00144157748500687	-0.00348338393999451	3.23090864893049E-06	3.01159850548154E-06	-1.83229052377016E-07	-2.32602818306839E-06	0.995198798187209	-0.0479589993473484
2	-0.00176653376503416	-0.00318213428004029	-1.72423567332199E-07	1.99916227761629E-07	-1.21373547556766E-05	5.4015668682204E-06	0.993945959860078	-0.0499693452323381
2.1	-0.00159086475707525	-0.00308338333258239	6.67551606983993E-07	-1.37914213850506E-06	1.37777809951251E-05	4.96305140708515E-06	0.994242802170503	-0.0514139452090028
2.2	-0.00174301156383175	-0.00328096282295436	1.64197833501691E-06	-1.51291454041005E-06	2.68437562636233E-06	-6.19667228164251E-06	0.994479106379926	-0.0537652690111283
2.3	-0.00213236832253318	-0.0034610232335022	-1.68190009747009E-06	-3.42078838697855E-06	-1.78419303361542E-06	-4.5832620946457E-06	0.994214943410245	-0.055501132708274
2.4	-0.00270153050147774	-0.00360323815482153	-1.19691092805933E-06	-4.39224051631672E-06	3.03865244485079E-06	1.08681240693983E-06	0.994169395894312	-0.0584874411948626
2.5	-0.00356076454340067	-0.00335536998944297	5.36508141866447E-06	5.66347547258951E-06	-2.62096723393528E-06	1.61116796592359E-05	0.993629812474369	-0.0604680756175681
2.6	-0.00380776559309896	-0.00276996662303505	-2.27555161039856E-06	2.70325893617944E-06	4.38530895805561E-07	-4.30209667935182E-06	0.993741979296796	-0.0628972959746238
2.7	-0.00380934656348342	-0.00246744173813812	-2.39602251967327E-06	-3.63324792499635E-06	2.15450121794405E-06	-2.56204479963207E-06	0.993587328805823	-0.065569797744441
2.8	-0.00376335610739236	-0.00231972585551634	3.99038937308447E-06	2.31482457216953E-06	9.81446994511318E-06	-6.68357388215909E-07	0.994010756078491	-0.0674213709249243
2.9	-0.00372933314898868	-0.00227999117796728	1.28572642829865E-05	7.3504622119936E-07	2.45983923432829E-06	-1.16912485657873E-05	0.993951238402478	-0.0694582390683106
3	-0.0037212862918156	-0.00207800746548879	-3.8501691141537E-06	1.0373961288095E-06	-4.13636148200067E-06	-1.60460448271016E-06	0.99388352803317	-0.0719248577678588
3.1	-0.00335795954177156	-0.00213695071717699	4.79357566384607E-06	-9.81878850469582E-06	1.06621930554028E-05	2.42951120627682E-06	0.993712759602497	-0.0737789415260396
3.2	-0.00338177668285409	-0.00242022622179467	-5.34612584958035E-06	-7.41152252970942E-06	1.56034410982949E-05	5.41555954666385E-06	0.993654380177074	-0.0755289959123155
3.3	-0.00357181542060314	-0.00267667423165086	-8.78904457117338E-06	2.52061454367447E-06	-8.55182166241177E-06	-1.75972892022113E-06	0.993669432191967	-0.0787677023560232
3.4	-0.0040204399281105	-0.00289412083421408	9.07139676595292E-06	-7.53333291655302E-06	-7.34992272318366E-06	4.21339420369102E-06	0.993846285775852	-0.0809262313502885
3.5	-0.00460938826239036	-0.00275515314288207	3.29342192816894E-07	-5.31620903165614E-06	-4.37640868618006E-06	-8.93066721100439E-06	0.993323444925311	-0.0839617142197744
3.6	-0.00483641547438489	-0.00262702070916268	4.05510559212009E-06	4.90449667342139E-06	-7.12192151173737E-06	8.96463434396677E-06	0.992963273720092	-0.0859748879499171
3.7	-0.00531320131222341	-0.00254218552697139	1.53904257543617E-06	-4.51793427824631E-06	-5.0796541205716E-06	-6.59386135424208E-06	0.993098503037989	-0.0884406977583395
3.8	-0.00580234237224481	-0.00222152273754752	7.28812360337926E-06	-5.17056489869461E-06	-5.86784296767717E-06	-2.43342760588586E-06	0.992978403347559	-0.0904250831815071
3.9	-0.00615182244328289	-0.00170422674613064	-4.02536388020358E-06	-3.61931228953497E-07	-2.5319999055637E-06	1.12450045547232E-06	0.992900321417801	-0.093537102850701
4	-0.00621412232844091	-0.000891931201408292	-3.38134910083712E-06	-9.42082654181539E-08	1.17242739479506E-06	8.66761064821467E-06	0.992509489713662	-0.094177663175436
4.1	-0.00563173134141011	-0.000524197139781077	-2.88578497542776E-06	-3.87208397697462E-06	5.86775287920571E-06	3.06044959230144E-06	0.993446291476205	-0.0956382565411182
4.2	-0.00538785453323215	-0.000592154866444314	-7.65653085070052E-07	-2.16085722197549E-06	5.70918238622509E-06	-1.82352840888338E-06	0.993504148179611	-0.0985334440427448
4.3	-0.00534434490521862	-0.000666837499529887	-5.23039133156747E-07	3.23536386045791E-06	2.1245412574965E-06	1.78902300029688E-06	0.993735563632982	-0.10074590974378
4.4	-0.00558081353815222	-0.000747924564069334	2.56624794255242E-06	3.45452378858338E-06	7.17456123291982E-06	3.94161251161852E-06	0.993642163240187	-0.103306929724873
4.5	-0.00593416204746655	-0.000352603551607405	-6.48039129790802E-06	-2.52940336743538E-07	-8.58483145208799E-06	-2.14598098945034E-06	0.993868850491912	-0.105510320214887
4.6	-0.0058661186245813	-0.000139716788211065	-9.92995971906048E-06	-9.27005098337446E-06	3.24899479619766E-06	-2.7243151779717E-06	0.993886482083963	-0.108725104694746
4.7	-0.00600412812048534	-5.50934347997211E-05	1.20481080707266E-07	1.86831907940378E-06	6.09075411348181E-06	-6.72524127575953E-06	0.993870455566938	-0.11097934282575
4.8	-0.00620866130037588	0.000122082154268632	-6.41126979809857E-06	2.06278742087497E-06	8.25137375100378E-07	-1.27663245978437E-05	0.993635683896323	-0.113619260628428
4.9	-0.00638678722140915	0.000340821539060982	-3.45818838512337E-06	8.14791103859535E-06	5.35321873511004E-07	9.39659818855491E-06	0.993425416823216	-0.115607525956889
5	-0.00638728204887578	0.000842976843525562	9.67754603250367E-06	-4.04331388483447E-06	-6.9626565517434E-06	3.565986653145E-06	0.99344301523667	-0.117417818863221
5.1	-0.00590883814536689	0.000907581528660929	-3.58470491328639E-07	-3.26076402043844E-06	-3.8785155651528E-06	-1.80754366338693E-06	0.993518559961884	-0.118989273675052
5.2	-0.00580338540845677	0.000854440670329081	-1.0574609658989E-06	-4.50152957069917E-06	8.79368698470619E-06	5.61644870275115E-06	0.993512107103545	-0.121272241021844
5.3	-0.00570719942487588	0.000937401145124709	2.27485580607078E-06	6.81967646991869E-06	8.81228835653077E-06	3.16692619574049E-06	0.993726572163419	-0.123764338540156
5.4	-0.00566557808572675	0.0010066547006706	2.72344075704209E-06	-3.14664262034136E-06	-2.68460051460769E-06	1.47895697633634E-07	0.994159546050589	-0.127185410505621
5.5	-0.00560665948393579	0.00144521162330952	2.1013521277499E-06	9.35561057936407E-06	-3.92873826042176E-06	-5.05839266832652E-06	0.993661860786685	-0.130662301346532
5.6	-0.00527418088016485	0.00128389774702844	-5.87394764358102E-06	-1.14702165365029E-06	4.88617129912616E-06	1.95855628303513E-06	0.993443800693614	-0.133212121882533
5.7	-0.00568150873738283	0.00121568684706239	3.35180626765983E-06	-1.42316871238352E-06	-5.06048962903491E-06	-4.31692808486634E-06	0.993330419838178	-0.136024936328163
5.8	-0.00618354555606974	0.00153876346322409	-2.05655222692905E-06	-4.76846992253494E-06	9.51089463466217E-07	-5.83313971073671E-07	0.993168749585992	-0.138580774373064
5.9	-0.00674783505585665	0.00219098861243714	-3.89584389118025E-06	6.18199567568889E-07	3.87706980580326E-06	1.258196176724E-06	0.992617750332979	-0.141105982670675
6	-0.00713028673682019	0.00359919651055524	-5.96947730060114E-06	5.06229124930652E-06	-1.49172798059588E-06	1.95367562205947E-07	0.99224888219568	-0.141927505013807
6.1	-0.0062047481228952	0.00462630370269881	-5.95899907907117E-06	-4.72684382954487E-06	-4.02920895812847E-06	4.32847036001949E-07	0.993575820027426	-0.143652852564288
6.2	-0.00538683944943642	0.00471119350773517	2.83747029429226E-06	3.14233900838995E-06	1.05897048319612E-06	7.26574926919269E-07	0.99375878390499	-0.146162127609072
6.3	-0.00485025198398936	0.00428682822945249	1.64955911479084E-06	-7.53618892482949E-07	-1.32861830119414E-07	1.38311959922889E-06	0.993262060966921	-0.149143812200212
6.4	-0.00501474635126082	0.00374098839789516	-5.21531699375992E-06	-5.64405114654108E-06	3.84104469738568E-06	6.94065179919756E-06	0.992204439186992	-0.15173933643821
6.5	-0.00506844940821532	0.00390752825014553	9.11743590217421E-06	-2.59416554568941E-07	-7.36528082434888E-06	-8.9505807614938E-07	0.992166607886193	-0.15441947201025
6.6	-0.00487803796144821	0.00358556670510103	-1.49494356127381E-06	4.71241031026756E-07	3.37446233539258E-06	-9.43273117296386E-06	0.991556198327385	-0.157970986505022
6.7	-0.00500443512808424	0.00362004612260715	6.06095283701013E-08	7.78477174432572E-06	-5.06183453815932E-07	-6.1113498739312E-06	0.990693421583199	-0.160407524862946
6.8	-0.0050104107391102	0.0037383780372664	4.26722177206273E-06	1.65705859153445E-06	2.07337031789603E-07	-5.25678594302319E-06	0.990123987145691	-0.162831416365154
6.9	-0.00525367034759028	0.0039077896658525	-7.58089060863449E-07	2.49945225100403E-07	5.77862497131979E-06	-2.69942283819222E-06	0.989484937846068	-0.16523974841975
7	-0.0051747117988187	0.00484787057152305	8.04813078208615E-06	-4.78946536456432E-06	4.31998006954127E-07	-3.03365277678194E-06	0.988706805045207	-0.166940589932027
7.1	-0.00452375138514493	0.00480230457335704	3.86670226005692E-06	2.04434057325965E-06	7.91181113006719E-07	7.25899532275519E-06	0.988400604742562	-0.169126405520594
7.2	-0.00464841805776752	0.00470211855715608	-2.44988966281292E-06	3.71324168842423E-06	-1.34749534510311E-06	-3.84036586179838E-06	0.987524035671582	-0.171412257070923
7.3	-0.00500688047262454	0.00480987794980492	3.45252747940877E-06	-5.06240373281191E-07	-2.46590562996728E-06	-1.91830023028967E-06	0.986234717313702	-0.173734875441986
7.4	-0.00576917308648498	0.0050010428237327	-6.2239744870658E-06	-2.68445341160317E-06	3.78617800279765E-06	2.32527036142736E-07	0.984705558724794	-0.177002253391343
7.5	-0.00660531601866919	0.00626895761371832	6.73813158827904E-06	-6.48177482875931E-06	-2.47976455942138E-06	8.13761284112898E-07	0.981734599146912	-0.179354677535447
7.6	-0.00605174543019398	0.00726110882744562	3.50698257695938E-06	5.1970153049168E-06	-1.02360304861937E-05	4.97007193828108E-06	0.981076933990645	-0.181141039434186
7.7	-0.00585611634471972	0.00775303182928243	6.07033195391706E-06	1.09283793634769E-05	2.94376481067356E-07	-1.13700737717993E-05	0.980708674233145	-0.184199624811754
7.8	-0.00528259959368893	0.00804204796741279	2.16080392237999E-06	9.77414186183212E-07	-3.07868657618665E-06	8.83720321139905E-06	0.980379518737899	-0.187358371397875
7.9	-0.0046872393117759	0.00817517275974847	2.5461860452322E-06	-2.3223316565676E-06	3.68998913195998E-06	3.31222239453557E-07	0.979670628316199	-0.190340581339223
8	-0.00346960752354986	0.00852103700714915	-2.81189771728557E-06	1.3349943855919E-06	6.87721747561331E-06	-1.87181046216364E-06	0.979515203948545	-0.191687071165672
8.1	-0.00236517945216421	0.00757583376553665	-1.79289919989529E-06	7.60454768063388E-07	-3.71737260175299E-06	-1.24841157092385E-06	0.980663974206025	-0.195038738611595
8.2	-0.00212980230518737	0.00690398469718665	-7.78189579391173E-07	6.34829270999618E-06	4.89748797869935E-06	4.34875131060638E-06	0.980358488157651	-0.198322347919085
8.3	-0.00201368468970747	0.00647545325402069	-9.03379794697967E-07	-1.42354187837969E-05	6.85533844556668E-06	5.41372384251576E-06	0.979556483603455	-0.201593330659707
8.4	-0.00223610276175429	0.00625694006977836	3.75412178438161E-06	-3.44738446306232E-06	-6.98681068539185E-06	-1.19653265482594E-06	0.978509584307006	-0.204552957548446
8.5	-0.00214997442977298	0.00685762585061959	4.6841507925082E-06	5.68592180563122E-07	8.40125353346723E-06	-6.87767662541985E-06	0.977792010628458	-0.207506837351001
8.6	-0.00152266508434902	0.00651498876358046	-3.25392765632173E-06	4.13458825395215E-06	1.05737891028015E-06	1.1102305838171E-05	0.976826401655464	-0.210739679678412
8.7	-0.00162499928826414	0.006170102850238	2.67684059477574E-06	-2.01190546014473E-06	4.76609389805665E-07	-5.56190337767128E-07	0.975807935809986	-0.213499903553017
8.8	-0.00183485216486703	0.00613439099396189	1.16946330193215E-07	-1.25436019804752E-06	-9.32454913955645E-07	9.77805126199894E-06	0.974781643032911	-0.215762232563108
8.9	-0.00215771483602636	0.00627407562421551	-3.65818294665329E-06	2.30895468961153E-06	4.83073479815058E-06	-1.82344453132115E-06	0.974223526700693	-0.217666921555942
9	-0.00204430896985865	0.00716315958545837	-1.8903188730126E-06	5.05733717815014E-07	-3.25572064462874E-06	-1.05353977011649E-05	0.973554610711994	-0.219726658830259
9.1	-0.00108304664785775	0.00719829116732596	5.25797102374707E-06	5.68008451779628E-07	9.15211528332932E-07	3.78273907475585E-07	0.97303279210132	-0.221501715105351
9.2	-0.00044576075832079	0.00702379787104775	-8.75016896808512E-06	-4.54084171899204E-06	-9.09930931504769E-07	-6.12814141628263E-06	0.972552327998391	-0.223946109827223
9.3	0.000250516224438757	0.00664862646078514	2.1956173279071E-07	6.21813107333091E-06	4.63038285969995E-06	-2.21848848661577E-06	0.972145006284249	-0.226692623386558
9.4	0.000585392526639874	0.00595764977271171	-1.89478307579511E-06	5.89649530587696E-06	-1.04607872221802E-05	7.80336943007695E-06	0.971068482729987	-0.230361241040565
9.5	0.000916452535796505	0.00588632369583316	3.13593089337408E-06	-7.57618961878953E-06	3.66144187742025E-06	-2.7602468443226E-06	0.96904257939483	-0.232932485202719
9.6	0.00106078008871771	0.00487007037873109	4.51939489086976E-06	5.54332409050532E-06	-6.03446083206043E-07	7.06196091114728E-06	0.96821697796523	-0.235526686306697
9.7	0.000410255315268522	0.00438937670224655	-2.61929701411226E-06	-3.9181105316739E-06	3.64845281563041E-06	-7.52698792138349E-06	0.967158521546171	-0.238172365952108
9.8	-0.000337251462262585	0.00436007558779032	-5.4433540866829E-07	-4.20303094240507E-06	6.26668256610229E-06	8.56683597465261E-07	0.966166326012448	-0.240376672161026
9.9	-0.00121384109671949	0.00486828694348137	-2.68398594849558E-06	-5.80487688326737E-07	-8.4554172938252E-06	5.51167030818649E-06	0.964251451322254	-0.241799006305443
10	-0.00137677019620594	0.00629493712719659	4.21800399232288E-07	-1.74835174368264E-06	-3.10274080959441E-06	-7.93961175895148E-06	0.963803226074528	-0.241015284248147
10.1	-0.000647075660580351	0.00668938619579943	2.25803899478142E-06	4.75092736852811E-06	-3.05745038746497E-06	9.83841068666681E-06	0.964391125862795	-0.242905159816216
10.2	-0.000346045111459929	0.0068672827114664	-5.40367744368086E-07	-1.04345461246334E-06	-1.2183851047484E-06	-3.10253481128761E-06	0.963523070046768	-0.244459630332934
10.3	-0.000123124372302789	0.00700093806494769	1.12545153584418E-05	-2.9607678679854E-06	1.00017822304421E-05	-4.86234152377691E-06	0.962365076694822	-0.246013869630769
10.4	-0.000205357564305576	0.00727895576566055	-6.19731145856202E-07	2.14094390789152E-06	3.0124805890792E-06	-2.1850881108031E-06	0.960852614551005	-0.247370443816606
10.5	0.000299044466018946	0.0084257429626252	-6.0752159700058E-06	4.64250112978511E-06	1.57705921270787E-06	4.28615556331153E-06	0.960195307145874	-0.24885612364593
10.6	0.00154990706912384	0.00855384130399009	-7.04444358205649E-06	1.06571558703682E-05	7.00653541782629E-06	4.23176931693662E-06	0.959381362426882	-0.250716394347258
10.7	0.00258559888158505	0.00840413169027809	-3.1969182764741E-06	1.56608874626911E-06	-5.33729619840227E-06	3.16630605751559E-06	0.959187894736732	-0.25257023073907
10.8	0.00339470239825769	0.00779405550225088	-1.91155088890734E-06	4.9719914177077E-06	8.4238671503442E-07	-3.19013057286098E-06	0.959112821866819	-0.254573873356471
10.9	0.00344451409393164	0.00728988996623945	-5.73908223654783E-06	-1.04756369025088E-05	4.92400478480653E-06	1.06546661033316E-05	0.958685226080596	-0.256604502798737
11	0.00398998122015323	0.00764909559800962	2.95727451369827E-06	2.60007512032454E-06	7.69179055046347E-07	-1.11898574029022E-05	0.958042554026342	-0.257806707283334
11.1	0.00484108709144593	0.00684298174034499	3.84168183641693E-06	1.44644266893595E-06	2.45726575529246E-07	-7.33968107858058E-06	0.957772427895561	-0.259286339728823
11.2	0.00497027178002011	0.00612275345976768	-4.39671942421361E-06	-1.95782818887592E-06	-7.29233617604699E-06	-4.82073972914652E-06	0.957183487547123	-0.261114518654183
11.3	0.00498018331743098	0.00549972091317432	6.54335783064027E-07	-6.34846628323299E-06	3.76128378344565E-06	1.40693236174691E-05	0.956712194946387	-0.263298685037383
11.4	0.00458422895789874	0.00506540804957001	-5.08159311488266E-06	8.10787958882483E-06	-1.44646625059204E-06	4.05806043569646E-06	0.955196531529062	-0.266559202702857
11.5	0.00465669211614203	0.00539151865777121	4.5009322737587E-06	8.03465787983548E-06	-9.22455732804758E-06	1.57907807226486E-06	0.952676336992456	-0.268260285483872
11.6	0.00498141470418608	0.00454282742973133	-3.81661982774776E-06	1.39070504831582E-06	5.0428336672638E-06	8.08380909584514E-06	0.952105982890166	-0.270757902050443
11.7	0.00443671945554412	0.00399194789322354	2.22887597816653E-06	1.04622558091836E-05	5.39175579092001E-07	-3.62550706398955E-06	0.950945222733976	-0.274242633179615
11.8	0.00383462195430127	0.0040301844738989	1.41675383981744E-06	4.4332728633388E-06	2.2324039961887E-06	4.50732036674626E-06	0.949211420325086	-0.277477607627987
11.9	0.00340171191109684	0.00473729294589543	7.37488707380716E-06	1.05001647140866E-05	3.8533392811244E-06	4.07626155058336E-07	0.947210128201268	-0.278436475310195
12	0.00433821123750769	0.00613420921670968	2.35657882283435E-06	-5.11290114419199E-06	-4.07835548759344E-07	1.73815950058137E-06	0.947619625739161	-0.276978125334389
