# GHZ S RI R 50
0.2	0.000910373103508772	0.00284363130422866	4.78953811664522E-06	-2.98650327282918E-06	-1.37122333854948E-05	1.31218321433459E-05	0.999004986184451	-0.00722980521552277
0.3	0.00134329575548247	0.00197530470071238	2.86714910826186E-06	6.62130012375389E-06	-1.66680339903827E-06	-9.3148298340259E-06	0.998796665102515	-0.0101076243004661
0.4	0.00162081296530935	0.00135750812002818	-1.86274320611172E-06	-4.01247514461324E-06	-9.00771530140012E-06	4.40391287465481E-06	0.998602499203173	-0.0127654651490198
0.5	0.00146401778968396	0.00101468436543391	-5.35490173229597E-06	3.26151867255159E-06	-2.12452400461169E-06	6.75314406381688E-06	0.998213326923098	-0.015464165915203
0.6	0.00180689197161653	0.000969785239907567	-1.38856208417876E-07	2.80443132062886E-06	-5.8121393801284E-07	-1.33887953385321E-07	0.998752589181209	-0.0183923590311648
0.7	0.00200116523837769	0.000604018958776061	8.86204644508405E-08	2.21752440351781E-06	4.89888364559944E-06	-3.40088872418785E-06	0.998384694469317	-0.0216758321631824
0.8	0.0021253882061836	0.000260093236612677	4.52475818812893E-06	8.23863309678545E-07	2.74218778861654E-06	1.99794027148447E-06	0.99794892186205	-0.024021838089938
0.9	0.0021675667596123	-0.000167333250853404	-1.52625731179479E-07	-4.21378689477324E-06	-3.41500406009212E-06	-3.10540910667458E-06	0.997561971033239	-0.0265880607166918
1	0.0017124276516846	-0.00069568045654014	1.05862693861554E-06	4.28647038184338E-06	3.32282567188882E-06	9.32422202424142E-07	0.996657468954584	-0.0280550809606738
1.1	0.00129703001824457	-0.000457625594400221	9.03288972618399E-06	5.18949268747783E-07	-3.57410287970703E-06	-4.99190922207025E-07	0.996471803639268	-0.0293056097457921
1.2	0.00122020507107262	-0.000694730470532023	3.75715729890288E-06	-1.19792291141533E-06	-4.09212679641016E-06	-2.43588174701995E-06	0.996364353374424	-0.0299592945836956
1.3	0.000935799017985202	-0.00134029488064875	-7.60942323020221E-07	-1.42589068759913E-06	-2.58442217994533E-06	-8.70078545961876E-06	0.997255331408708	-0.0306094587488864
1.4	0.00044618827175689	-0.00237503400010162	1.43966326709087E-08	3.44586180579783E-06	-4.27972790751777E-06	-4.12507409864085E-06	0.997618566548097	-0.0329875268419066
1.5	-0.000268370956306342	-0.00289557306537234	-1.29675482372288E-06	4.42698122289795E-06	6.54740012704184E-06	-7.40941909107355E-06	0.997831848093774	-0.0366467505400808
1.6	-0.000361361487817118	-0.00301337684894943	1.62799300958463E-06	-4.88571444810947E-07	4.23820909960107E-06	-5.3887296771665E-06	0.997160397975897	-0.040275433603526
1.7	-0.000554976681343775	-0.00321351224940208	5.30112822783068E-07	3.95266270268313E-06	-8.27514841174653E-06	3.12439918031882E-06	0.996939777812401	-0.0430096368004259
1.8	-0.000786446890597325	-0.00323050704723053	1.82964079928873E-06	1.07733824986004E-06	5.65079375916721E-07	-1.75931609518741E-06	0.996455329496753	-0.0458155625511267
1.9	-0.00108988181299583	-0.00335106591117251	3.23046244384168E-06	3.0134174472409E-06	-1.82406035784888E-07	-2.32657725237162E-06	0.995746888150365	-0.0482478638899527
2	-0.00168129216548616	-0.00314634765350377	-1.72454781711408E-07	1.99881376432887E-07	-1.2138028039964E-05	5.39931081441967E-06	0.994142236152354	-0.0503435366333226
2.1	-0.00163032596933862	-0.00283603611807535	6.67916220305051E-07	-1.37866457055188E-06	1.37736070722202E-05	4.96699565415517E-06	0.994397287439311	-0.0515402817120646
2.2	-0.00171863174772644	-0.00293558806487876	1.64244495695617E-06	-1.51208434918512E-06	2.68668390038393E-06	-6.19494919974876E-06	0.994757704586589	-0.0539364728699116
2.3	-0.0020260334556954	-0.00309844165348063	-1.68046291485304E-06	-3.42138222407751E-06	-1.78227991811007E-06	-4.58386670765633E-06	0.994498597033068	-0.0557769038518731
2.4	-0.00250569515398204	-0.00332813840206619	-1.19521905037431E-06	-4.39286684665287E-06	3.03832987635597E-06	1.08804996350293E-06	0.994386924184992	-0.0587964509563682
2.5	-0.00349885827197286	-0.00329515997958041	5.36376433976481E-06	5.66639985622982E-06	-2.62750454551243E-06	1.61131966609037E-05	0.993841455665174	-0.0606955590514707
2.6	-0.00400811350845762	-0.00259166946708326	-2.27659542493851E-06	2.70343825326555E-06	4.39462996904056E-07	-4.30299734727649E-06	0.994035338859183	-0.0631323136886534
2.7	-0.0040933907899551	-0.00208707338659856	-2.39612547582778E-06	-3.63384077220923E-06	2.15491581970381E-06	-2.56225049024071E-06	0.993852835337327	-0.0658197665664788
2.8	-0.00401292010656982	-0.00173198776010579	3.99038484536228E-06	2.31495098843518E-06	9.81461273766733E-06	-6.68128539738238E-07	0.99426974897858	-0.0676007681350579
2.9	-0.00385099689055795	-0.00159804980935737	1.28569348036007E-05	7.35724150137337E-07	2.46041530672819E-06	-1.1690852199792E-05	0.994289138660652	-0.0695456433849412
3	-0.00385467369499306	-0.00137365566462319	-3.85044232301084E-06	1.03728735877755E-06	-4.13653491197208E-06	-1.6048819301926E-06	0.994434196073414	-0.0719313340902073
3.1	-0.0033840788865263	-0.00124240785347853	4.79360043909681E-06	-9.81974050755834E-06	1.06631263844233E-05	2.42931801300834E-06	0.994567779584947	-0.0738915188661145
3.2	-0.00319855300979092	-0.00151873060783328	-5.34703036715698E-06	-7.41197924415043E-06	1.56052534433336E-05	5.4152962811606E-06	0.994683310097387	-0.0758720630349498
3.3	-0.00323546878110438	-0.00186139510003221	-8.7901526311498E-06	2.52124038045231E-06	-8.55303623589371E-06	-1.75969015744085E-06	0.994754267960414	-0.0792990089455585
3.4	-0.00358808189409368	-0.00224940151541487	9.07370880399949E-06	-7.53460972828607E-06	-7.3517166785972E-06	4.21401279993464E-06	0.994966113728314	-0.0815367190718921
3.5	-0.0043280894982412	-0.00228575258914598	3.29410379828126E-07	-5.31854414266044E-06	-4.37845508846543E-06	-8.93451930689249E-06	0.994590202409471	-0.0847127665968296
3.6	-0.00461715814763766	-0.00200309005002786	4.0575041142117E-06	4.90569598174939E-06	-7.12313892752938E-06	8.96930285506267E-06	0.994176458441166	-0.0869681139734382
3.7	-0.00495462332510777	-0.00189409161753626	1.53881325192034E-06	-4.51964052053216E-06	-5.0823543260453E-06	-6.59517392529422E-06	0.994144169855742	-0.0895679087352085
3.8	-0.00531577090261621	-0.00168458560635921	7.28964105010787E-06	-5.17335672475949E-06	-5.87009739291221E-06	-2.43328590298967E-06	0.993818557759072	-0.0916069998217049
3.9	-0.00563197942187182	-0.00142268348953667	-4.02683687878067E-06	-3.61052379333779E-07	-2.53258946019045E-06	1.12551775802825E-06	0.993496014696767	-0.0947460672404969
4	-0.00602598388421945	-0.000850164349391256	-3.38186923357024E-06	-9.29120848635482E-08	1.17595220718951E-06	8.66839630031643E-06	0.992688503193284	-0.0951823215848821
4.1	-0.00570899695735513	-0.000261872443149426	-2.88686383310329E-06	-3.87190397397709E-06	5.86897724544328E-06	3.05958491510033E-06	0.993780866688797	-0.0961797695030214
4.2	-0.00547955351458523	-0.000165726162696998	-7.66295977549683E-07	-2.16121000792859E-06	5.71015693763131E-06	-1.82517939133264E-06	0.99408714274735	-0.0990831182693024
4.3	-0.00540233566845695	-0.000161160440425828	-5.22255372748981E-07	3.23649919892911E-06	2.1257079753666E-06	1.78894751457077E-06	0.994390084335092	-0.101372447862331
4.4	-0.00560079439826246	-0.000271421617503954	2.56811706982091E-06	3.45474452847126E-06	7.1779686255772E-06	3.94051369661847E-06	0.9942800385651	-0.103929115105346
4.5	-0.00617089273681957	5.47724889449596E-05	-6.483088826571E-06	-2.51710672261104E-07	-8.58877745146232E-06	-2.14509127163682E-06	0.994590461190586	-0.105925530810408
4.6	-0.00621335338009982	0.00060039862963803	-9.93898442333475E-06	-9.27178810639083E-06	3.24987567877928E-06	-2.72704510463114E-06	0.994949791553704	-0.10916423037038
4.7	-0.00618819774418748	0.000871947269779084	1.21404803742553E-07	1.86921698194434E-06	6.09075883738242E-06	-6.73148443418468E-06	0.995070122468382	-0.111603932673681
4.8	-0.00621056699446509	0.00109319654607079	-6.41314910492462E-06	2.06677054189015E-06	8.19409787511899E-07	-1.27724221822143E-05	0.994855584341354	-0.114431859267695
4.9	-0.00623784711763179	0.00121525393999233	-3.45574694949123E-06	8.15274249360799E-06	5.39922859295858E-07	9.40005689245227E-06	0.994531568517619	-0.116561992287424
5	-0.00638712106807736	0.0016029555436199	9.67976609820385E-06	-4.04970022448842E-06	-6.96393831322926E-06	3.57086392781709E-06	0.994439675691047	-0.118328631273841
5.1	-0.00588144644498736	0.00191009806664464	-3.60588292129446E-07	-3.26169881003337E-06	-3.88099145214788E-06	-1.80581501394659E-06	0.99455879628107	-0.119966275116065
5.2	-0.00555619341026562	0.00184799793543285	-1.0604788348132E-06	-4.5018827226858E-06	8.79912356007601E-06	5.61227106316415E-06	0.994410652368087	-0.122360681813233
5.3	-0.00535471754948054	0.00175941056725833	2.2787633228226E-06	6.81921382847281E-06	8.81496341005379E-06	3.16255444082167E-06	0.994415092966888	-0.124780283296454
5.4	-0.00537307146693702	0.00157473628945147	2.72270239369598E-06	-3.14777948510791E-06	-2.68479704903814E-06	1.48749178018773E-07	0.99477754865977	-0.127945405328651
5.5	-0.00577464356393744	0.00192777813182932	2.10436988506525E-06	9.35872076845044E-06	-3.93144628929725E-06	-5.05941527429424E-06	0.994465332054713	-0.131297690895162
5.6	-0.00554328430318233	0.00223804114058239	-5.87662378973951E-06	-1.14484402646203E-06	4.88884218268625E-06	1.9571156103255E-06	0.994306594128706	-0.133912715508025
5.7	-0.00570952878332275	0.0023505921677419	3.35203827038453E-06	-1.42511569687359E-06	-5.06386095016843E-06	-4.31571882803563E-06	0.994136575406119	-0.136804965254346
5.8	-0.00597907554574689	0.00266258423082395	-2.0593366172977E-06	-4.76841883195105E-06	9.50993361579362E-07	-5.83904525428477E-07	0.993803916557969	-0.139397729710634
5.9	-0.00633783409564564	0.00310656672943197	-3.89573947942643E-06	6.20776099026177E-07	3.87818222864628E-06	1.25577486281803E-06	0.99294317752941	-0.141899961991807
6	-0.00697187525717525	0.00414064749429083	-5.96378098743005E-06	5.0636591003446E-06	-1.4909505870047E-06	1.96182202897866E-07	0.99200913963459	-0.142161689737767
6.1	-0.00632520750400432	0.00547725972431309	-5.95728578434886E-06	-4.72407668320215E-06	-4.0275241661237E-06	4.33257182870287E-07	0.993918046480679	-0.142956868097673
6.2	-0.00533529990991361	0.00577195966784887	2.83733341003819E-06	3.14131240876744E-06	1.05885759833321E-06	7.26281752843013E-07	0.994921855521909	-0.145482885548104
6.3	-0.00458231985654911	0.00534854679186896	1.64914003684847E-06	-7.5386634246569E-07	-1.32536970127226E-07	1.38293655783179E-06	0.994883532845924	-0.148866175882141
6.4	-0.00464081280378343	0.00457059126046961	-5.2150067912557E-06	-5.6415992738492E-06	3.84133649592026E-06	6.93811740155925E-06	0.993825776898702	-0.151894179437506
6.5	-0.00508385165868237	0.0046482274824744	9.11551692510089E-06	-2.56732134054197E-07	-7.36341227147511E-06	-8.96985063428919E-07	0.993664845443833	-0.154476955394033
6.6	-0.00485792819569982	0.00469160488032559	-1.49553189216565E-06	4.70893021641797E-07	3.37850687046006E-06	-9.43438292188947E-06	0.993382260458354	-0.158336774204313
6.7	-0.00481138079544772	0.00472107763284605	5.9712246769943E-08	7.7882434383393E-06	-5.05683146925908E-07	-6.11412973727856E-06	0.99228187182071	-0.161257698642304
6.8	-0.00474689669021199	0.00474657050758915	4.26935163319431E-06	1.65752296598306E-06	2.07046310876875E-07	-5.25927425986748E-06	0.991306040115481	-0.163933164645308
6.9	-0.00499501332717047	0.00467583136695283	-7.58314935155968E-07	2.50281585946279E-07	5.78009926619492E-06	-2.70230500657901E-06	0.990200908188008	-0.166467819568689
7	-0.00547684043384661	0.00547483515136381	8.04679727205026E-06	-4.79378105762421E-06	4.30624742076402E-07	-3.03419901148204E-06	0.988869477075306	-0.16794207751162
7.1	-0.00498891254738762	0.00605451649799369	3.86709774102769E-06	2.0428855895713E-06	7.9356285532872E-07	7.25818081625657E-06	0.988618899182183	-0.169794696769675
7.2	-0.00481163207257465	0.00626047592880798	-2.4488616800803E-06	3.71356552872358E-06	-1.34830043641303E-06	-3.83979656898266E-06	0.987785502919692	-0.17217038791327
7.3	-0.00481459285024494	0.00644804620511951	3.45245667537086E-06	-5.06796017633235E-07	-2.46622096732945E-06	-1.91791026858303E-06	0.986364424955657	-0.174627937482613
7.4	-0.00517939077530721	0.00642178096792318	-6.22577265751341E-06	-2.68472921744133E-06	3.78717705354426E-06	2.32331095095444E-07	0.984688442793323	-0.178031614136025
7.5	-0.00618608066893494	0.00717843432998328	6.73873374913897E-06	-6.48926035869704E-06	-2.48082283190043E-06	8.1557081881578E-07	0.98113943899193	-0.180718209262635
7.6	-0.00578663719838314	0.0084635808118599	3.51127858086979E-06	5.19509758573142E-06	-1.02336851569444E-05	4.97828200714785E-06	0.979810576943419	-0.181792957955255
7.7	-0.00533977035883201	0.00899638394757044	6.07653853773055E-06	1.09244683486041E-05	2.87704810712663E-07	-1.13698777499E-05	0.979588497160859	-0.184271445979136
7.8	-0.00464478452693113	0.00901796217063709	2.16139525846734E-06	9.76067758041663E-07	-3.07318623619643E-06	8.83905200343169E-06	0.97957645763528	-0.187378524199113
7.9	-0.0042447407666355	0.00874241282238592	2.54381872849712E-06	-2.32495743427911E-06	3.69035076143501E-06	3.27438786310376E-07	0.978994231137365	-0.190743339187306
8	-0.00381108312953592	0.00916989411137259	-2.80771412005444E-06	1.33844024719426E-06	6.86918186403341E-06	-1.8812683221558E-06	0.978105899732643	-0.192246763801621
8.1	-0.00274261244748005	0.00888254516862031	-1.78956977553484E-06	7.61604482198489E-07	-3.71389075541876E-06	-1.24223264330813E-06	0.97929526867406	-0.195028470451443
8.2	-0.00222300192881488	0.00843816980386641	-7.71140883364028E-07	6.33943034612589E-06	4.89411936141952E-06	4.33765546154469E-06	0.979207766202132	-0.198246488403828
8.3	-0.00184619430146699	0.00800479547889778	-9.11970914708573E-07	-1.42116332483675E-05	6.84801733199129E-06	5.40007639704266E-06	0.978476773760467	-0.201553112645067
8.4	-0.00189946821952408	0.00750800174306635	3.74636251637216E-06	-3.44285204375009E-06	-6.97522227829394E-06	-1.19185332968233E-06	0.9773780770082	-0.204542302567804
8.5	-0.00232059406116998	0.00786058400374297	4.67770979797681E-06	5.67961319235591E-07	8.38995216357868E-06	-6.86797904647506E-06	0.976538844193201	-0.207342352007167
8.6	-0.00186010602343013	0.00813290915313004	-3.2491996877161E-06	4.13073830418883E-06	1.05899897160253E-06	1.10894837303567E-05	0.975619843963469	-0.210453206397883
8.7	-0.00161134553810988	0.00811345626228357	2.67253280759011E-06	-2.01021601875106E-06	4.75769219692851E-07	-5.5562593718026E-07	0.974530921479364	-0.213114288581878
8.8	-0.00136614777870216	0.00812474920742394	1.16389286983511E-07	-1.25241049425625E-06	-9.28079671507633E-07	9.76285901139166E-06	0.973450411301155	-0.215165182340956
8.9	-0.00124919502373399	0.00794604272716008	-3.65139616360735E-06	2.30501809764485E-06	4.82185580693904E-06	-1.82046743422818E-06	0.973003537991587	-0.21679861989717
9	-0.00133013964377549	0.00833868660082065	-1.88722398163072E-06	5.04310381761962E-07	-3.24703791222626E-06	-1.05182772682192E-05	0.972659864503134	-0.218753398251792
9.1	-0.000446930553265731	0.00850174403313324	5.24983951780971E-06	5.68852570563526E-07	9.13705665010354E-07	3.77998507291917E-07	0.972470571294341	-0.220617858900524
9.2	0.000310175426619636	0.00814051312820848	-8.7364223884607E-06	-4.5381116358383E-06	-9.06258923921261E-07	-6.12013572336006E-06	0.972270674808421	-0.223311752283801
9.3	0.000875518576593655	0.00747934743443675	2.15896263713331E-07	6.21109504351747E-06	4.62627128694504E-06	-2.21339384773539E-06	0.97196670405159	-0.22633319041718
9.4	0.000895512370373468	0.00654404932959906	-1.89813415043638E-06	5.89030070143529E-06	-1.04589651882701E-05	7.78864101617801E-06	0.970953722621922	-0.230188999576777
9.5	0.00046559475331294	0.00655018273026813	3.14075064741741E-06	-7.5735314005559E-06	3.6630096112499E-06	-2.75759798213773E-06	0.968818583525703	-0.233156007716239
9.6	0.000510891135779845	0.00629484499351356	4.51782802200485E-06	5.54476319660657E-06	-6.05553642554688E-07	7.06190543845824E-06	0.967607571774473	-0.235693782206802
9.7	0.000182149943883716	0.00612973010744153	-2.61849374958442E-06	-3.91876598194957E-06	3.65017732744918E-06	-7.52634625588942E-06	0.966422111838789	-0.238168802334059
9.8	-0.000221764208522928	0.00614631269778157	-5.43784292375858E-07	-4.20341174733735E-06	6.26701594729775E-06	8.57626100868715E-07	0.965423147311044	-0.240254576096524
9.9	-0.000822591541938393	0.00634120256612574	-2.6840667267313E-06	-5.80160772737879E-07	-8.45477200171051E-06	5.51272651498869E-06	0.963568498981967	-0.241821846100897
10	-0.00144499245626535	0.00743453929377365	4.21321445694259E-07	-1.74721594000827E-06	-3.10152167790475E-06	-7.93389798945779E-06	0.962494559845716	-0.241172785552725
10.1	-0.000890411727528637	0.00834425287002763	2.25393084355576E-06	4.74922069192232E-06	-3.06109888202278E-06	9.83049856882337E-06	0.96298978590827	-0.242400453090725
10.2	-0.000292175967171785	0.00875156769977221	-5.39458943279457E-07	-1.04355021698662E-06	-1.21579298813604E-06	-3.10253786846728E-06	0.962375329650866	-0.243661040291028
10.3	0.000272637407851788	0.00884796921817479	1.12560877383544E-05	-2.95263515804918E-06	1.00047641847966E-05	-4.8550089091454E-06	0.961486686111956	-0.245013513004167
10.4	0.000430415088104124	0.008736504860696	-6.21276500678714E-07	2.14058824024319E-06	3.01415182421115E-06	-2.1830344370418E-06	0.960284525156867	-0.246201518056752
10.5	0.000358927346390164	0.00949503992409323	-6.08102896786763E-06	4.63723312741452E-06	1.57302711875596E-06	4.28854302830243E-06	0.959901532657279	-0.24752124403064
10.6	0.00150761585232267	0.00999178021819003	-7.05544703680411E-06	1.06588682774811E-05	7.00791882641743E-06	4.23876905173795E-06	0.959728041429519	-0.249731863875936
10.7	0.00259729880918116	0.00995858395058124	-3.19899447856433E-06	1.56507112511982E-06	-5.34104562197608E-06	3.16482670035107E-06	0.959519350162867	-0.251980675795454
10.8	0.00348851985338018	0.00940265396387982	-1.9150624175222E-06	4.97197911675306E-06	8.44549745615714E-07	-3.19035934163561E-06	0.959286279829497	-0.254220732261285
10.9	0.00360203444193212	0.00871801492273292	-5.73189067573804E-06	-1.0481031665159E-05	4.91659277639884E-06	1.06594727370077E-05	0.958760722376317	-0.25648366079339
11	0.0035743450597286	0.00897027928228708	2.95504354155153E-06	2.60305245733989E-06	7.79775895220304E-07	-1.11899582439525E-05	0.957849576917212	-0.258256754004751
11.1	0.0043362657956534	0.00886821287632599	3.84055619128178E-06	1.45084512045897E-06	2.5383229471542E-07	-7.34030080253048E-06	0.956821477129626	-0.259920394546143
11.2	0.00486450205785137	0.0084807611946012	-4.39528104040119E-06	-1.96379648352831E-06	-7.28797669020054E-06	-4.83100280417645E-06	0.955655677605521	-0.261508631878248
11.3	0.00535812483739026	0.00783041773451934	6.63563639421587E-07	-6.35039642250073E-06	3.74317355902257E-06	1.40809350059557E-05	0.954948152371773	-0.263213850184062
11.4	0.00533726454955776	0.00703032953919138	-5.0989886560715E-06	8.10645448882811E-06	-1.4542522714382E-06	4.05912362176799E-06	0.953613577268317	-0.265908199530073
11.5	0.00505378370584721	0.00701369850608308	4.49682271763641E-06	8.05146362232513E-06	-9.23925458944452E-06	1.56942954262853E-06	0.95137563102603	-0.267764207759128
11.6	0.00539079025162168	0.00654017620999679	-3.82258556216384E-06	1.38849598356912E-06	5.04065822320358E-06	8.09857095475113E-06	0.950455383749989	-0.270090066931169
11.7	0.00523675354030909	0.00593248493886385	2.22011955990763E-06	1.04766686561648E-05	5.43714613484015E-07	-3.62908331828799E-06	0.949287583567948	-0.27302647044112
11.8	0.00489928616334451	0.0055719120216188	1.41373495802072E-06	4.44028889269362E-06	2.23031555498298E-06	4.51530635140727E-06	0.94798466151024	-0.275774629093648
11.9	0.00431877131945228	0.00557836662376727	7.37656107167306E-06	1.05199396458741E-05	3.85817033696657E-06	4.11172650692944E-07	0.946851327759541	-0.27680141433199
12	0.00424228681581029	0.00660962417994475	2.36076923613988E-06	-5.11502429320354E-06	-4.09002864772232E-07	1.73908505029622E-06	0.947496548868047	-0.276064173350333
