# GHZ S RI R 50
0.2	0.000936704351386019	0.00284369643047415	4.7893467528053E-06	-2.986296816462E-06	-1.37117454032148E-05	1.31210210711097E-05	0.998994083501689	-0.00720700623646757
0.3	0.00139698298364972	0.00199859941224089	2.86708653419909E-06	6.6207510501279E-06	-1.66688879576438E-06	-9.31411012890968E-06	0.998787753563478	-0.0100972373501497
0.4	0.00167369179426484	0.00135793056237423	-1.86251717302356E-06	-4.01202868932198E-06	-9.00671389686708E-06	4.40338032745195E-06	0.998550821522293	-0.0127539748027508
0.5	0.00148495663438313	0.00107953355316307	-5.35479406841374E-06	3.26122788874825E-06	-2.12464875770258E-06	6.75281693710617E-06	0.998189516099346	-0.015362774051857
0.6	0.00191965261388647	0.00102984645385532	-1.38669218969173E-07	2.8042182870913E-06	-5.81176384013857E-07	-1.33840888980594E-07	0.998769028889505	-0.0183681669946162
0.7	0.0021167543377817	0.000623928075214159	8.87019999446221E-08	2.21721425295305E-06	4.89806292481153E-06	-3.40062598885624E-06	0.998351619394899	-0.0216529510452433
0.8	0.00224273882048693	0.000264799232899785	4.52403199792884E-06	8.23647208663394E-07	2.74177457723868E-06	1.9975638879499E-06	0.997904959332001	-0.0239785913165057
0.9	0.00228590582527036	-0.000202072057746051	-1.52537391492064E-07	-4.21297641460697E-06	-3.41430207686416E-06	-3.10485797943607E-06	0.997510875181409	-0.0265508677845488
1	0.00173926578790142	-0.000726175265546756	1.0580826797465E-06	4.2858340777968E-06	3.32218319845761E-06	9.32547021589767E-07	0.996553789815131	-0.0279693374929118
1.1	0.0013771981768305	-0.00041028615337378	9.03174017170751E-06	5.19470583327562E-07	-3.5736289830765E-06	-4.99360891412329E-07	0.996446262781624	-0.0291824713176429
1.2	0.00132781633577108	-0.00065605414738133	3.75684615620915E-06	-1.19750437539723E-06	-4.09149932565071E-06	-2.43593581290971E-06	0.996366372719608	-0.0298305778578596
1.3	0.00108273783148404	-0.00128399925567273	-7.60786218162688E-07	-1.42588635859096E-06	-2.58356811701131E-06	-8.70058620343253E-06	0.997339532365397	-0.0304530471586442
1.4	0.00063435534588498	-0.00235797311612721	1.4219311918652E-08	3.44586200797064E-06	-4.27951496884224E-06	-4.12529368172186E-06	0.997779571303845	-0.0328911779302196
1.5	-9.11950168817234E-05	-0.0028859486513873	-1.29679697688982E-06	4.42685125874864E-06	6.54736357864394E-06	-7.40912852132573E-06	0.997935621020752	-0.0365754421432858
1.6	-0.00017448877984035	-0.0030766373682225	1.62791092530578E-06	-4.88489597667185E-07	4.23812813172786E-06	-5.3882691980897E-06	0.997247141996981	-0.0402280646696995
1.7	-0.000439023892391488	-0.00330364365936316	5.29885849042608E-07	3.95238095971423E-06	-8.27465328564433E-06	3.12376769555729E-06	0.996958606930158	-0.0429594510317315
1.8	-0.000718483205677506	-0.00331352380941629	1.82942296520142E-06	1.07732140388632E-06	5.65106699152069E-07	-1.75912792527616E-06	0.996427042583122	-0.0457609483354468
1.9	-0.00107467210312222	-0.00341955125815255	3.22990545635662E-06	3.01306784422015E-06	-1.82313919447991E-07	-2.32624229749003E-06	0.995620478634657	-0.0482070898033429
2	-0.00169042021240576	-0.00311095842093601	-1.72448445110517E-07	1.99810427762075E-07	-1.2136217633401E-05	5.39621711264226E-06	0.993910495930698	-0.0500850235541643
2.1	-0.00155327281173127	-0.00280267401225425	6.68107744622801E-07	-1.37842625132214E-06	1.37715337654023E-05	4.96905492619954E-06	0.994364712712572	-0.0512534422503897
2.2	-0.00164270751168625	-0.00292837386008953	1.6425006897083E-06	-1.51173734713732E-06	2.68726355309046E-06	-6.19405814583089E-06	0.994722517899838	-0.0537050154104135
2.3	-0.00195552179767445	-0.00309970411914235	-1.67982658020713E-06	-3.42122673108763E-06	-1.78147908153061E-06	-4.58359652187346E-06	0.994448968698825	-0.0555414840725858
2.4	-0.00246119019781453	-0.00334245822312262	-1.19436833539494E-06	-4.39253541811134E-06	3.03779199513045E-06	1.08840992343256E-06	0.994325597790929	-0.0585514135761308
2.5	-0.00350427195883851	-0.00322819582372493	5.36237246830622E-06	5.66677586402333E-06	-2.62989559849794E-06	1.61113571321223E-05	0.993760750773072	-0.0604005102966296
2.6	-0.00390892978921059	-0.00247538110402737	-2.27673941377375E-06	2.70270051452382E-06	4.40117012240828E-07	-4.30235045354367E-06	0.993986226887501	-0.0627880721908815
2.7	-0.00392566561774476	-0.00201011869197951	-2.39501775179019E-06	-3.63394728737958E-06	2.15523684208096E-06	-2.56145702032314E-06	0.993873537039246	-0.0654459423897285
2.8	-0.00382203069635412	-0.00173085989353101	3.98957168517387E-06	2.31574876575283E-06	9.8141270613808E-06	-6.65748446551396E-07	0.9943614126951	-0.0672819540267654
2.9	-0.00371156832808488	-0.00165702954724141	1.28564795715929E-05	7.38387029537789E-07	2.46279461147628E-06	-1.16900648171813E-05	0.994374421758813	-0.0693157269819416
3	-0.0037537787933051	-0.00138899716164411	-3.85043949923662E-06	1.03673082209844E-06	-4.13616593841772E-06	-1.60537924187891E-06	0.994449039330248	-0.0717384752904605
3.1	-0.00325893493758045	-0.00129279497979858	4.79476390082267E-06	-9.81799169754842E-06	1.0661687877653E-05	2.43085098126823E-06	0.994530302939817	-0.0736761620715475
3.2	-0.00311314130703507	-0.00158385272287732	-5.34508749999465E-06	-7.41252626271964E-06	1.56029468301948E-05	5.41812247249836E-06	0.994635793160799	-0.0756106234601205
3.3	-0.00317517038539799	-0.00192157302181121	-8.79041815194938E-06	2.51921202245794E-06	-8.55236262014442E-06	-1.76152374409279E-06	0.994738763388277	-0.0790104051042698
3.4	-0.00356650072277863	-0.00230334628007733	9.07529278693199E-06	-7.53312819572415E-06	-7.35265512063202E-06	4.2127688016993E-06	0.994980021937926	-0.0812869176804421
3.5	-0.00431394084775868	-0.00225402716210503	3.2997443593913E-07	-5.31820261562055E-06	-4.37722432912E-06	-8.93448616611744E-06	0.994503048507175	-0.0844533231115467
3.6	-0.00453481544469836	-0.00200532958830626	4.05615356811034E-06	4.90628153735945E-06	-7.12467271021914E-06	8.96714384816216E-06	0.994153594959383	-0.0866064379643758
3.7	-0.00490924288454563	-0.00192588621731521	1.53982893524865E-06	-4.51931072260062E-06	-5.08089548249291E-06	-6.5963315119669E-06	0.994176039765558	-0.0892238663746887
3.8	-0.00531413202423849	-0.00169864005953822	7.2907906253373E-06	-5.17212466881873E-06	-5.86979015677844E-06	-2.43444372288502E-06	0.993857387713302	-0.0912891196299485
3.9	-0.00567028217432228	-0.00137585540494413	-4.0266696220555E-06	-3.61690559879177E-07	-2.53270191685187E-06	1.12507972265675E-06	0.993468853482368	-0.0944194810280683
4	-0.00599955553813325	-0.0006563087057791	-3.38172155668026E-06	-9.39566211407734E-08	1.1732251422012E-06	8.66845590647148E-06	0.992719608943175	-0.0946129533564428
4.1	-0.0055096760710376	-0.000125338935011186	-2.88613168726769E-06	-3.87307025270065E-06	5.86876817775667E-06	3.06146040740366E-06	0.994076708687014	-0.0957293184213227
4.2	-0.00524978344580967	-0.000136315387747652	-7.65847960855199E-07	-2.1615812059539E-06	5.71109016360423E-06	-1.82397827253609E-06	0.994383455825622	-0.0987516983227064
4.3	-0.00519187394345281	-0.000215153291268306	-5.23198941643264E-07	3.23665819401097E-06	2.12541272361113E-06	1.78970276969228E-06	0.994681150840258	-0.10108040900379
4.4	-0.00546161532460166	-0.000385701020762265	2.56736382716358E-06	3.45618695678595E-06	7.17780851354558E-06	3.94360494523702E-06	0.994582651286717	-0.103647062410887
4.5	-0.00608471136676892	1.94165168843863E-06	-6.48512909760948E-06	-2.53577177789227E-07	-8.5909817103331E-06	-2.14815350527812E-06	0.994977847544148	-0.105681738677574
4.6	-0.00609543194614939	0.000491505439292416	-9.94009992588927E-06	-9.27634308118872E-06	3.2513291918255E-06	-2.72721771672882E-06	0.995294315789378	-0.10904320025288
4.7	-0.00614736385773799	0.000738339659418664	1.2108063206752E-07	1.8698078050235E-06	6.0939077281274E-06	-6.73235130753745E-06	0.995348702161499	-0.11147975585268
4.8	-0.00622893079703782	0.00098685975611626	-6.41565443599524E-06	2.0662825631011E-06	8.22018707879743E-07	-1.2776508669411E-05	0.995110914342242	-0.114272702196407
4.9	-0.00631413234300024	0.00115108774540631	-3.45842296489004E-06	8.15526803601189E-06	5.38559127010221E-07	9.40372409987837E-06	0.994796362362543	-0.116377736712268
5	-0.00644365964139979	0.00166539210768448	9.6837233359873E-06	-4.05055412738171E-06	-6.96683161274686E-06	3.5717276149203E-06	0.994711035947908	-0.118131968586817
5.1	-0.00587429698973156	0.00192598724274948	-3.60315305300109E-07	-3.26278858939516E-06	-3.88202180505762E-06	-1.80685708829885E-06	0.994830569309647	-0.119743069861225
5.2	-0.00560052311891799	0.00187935491378405	-1.06018623381469E-06	-4.50373453954959E-06	8.80156427631624E-06	5.6157264749087E-06	0.994711292133318	-0.12208451507109
5.3	-0.00539859392907362	0.00186727312024976	2.27887843780982E-06	6.82262350277226E-06	8.81854564684563E-06	3.16518401313683E-06	0.994814186671303	-0.124470688386843
5.4	-0.00537388466103494	0.00175052241260069	2.72421339725719E-06	-3.14942637513235E-06	-2.6862405574305E-06	1.48786817067743E-07	0.99528881676644	-0.127726314642189
5.5	-0.00561032498833921	0.00220170394946014	2.10650695350881E-06	9.36199521863136E-06	-3.93366861415129E-06	-5.06078743047428E-06	0.994933449889238	-0.131136210758263
5.6	-0.0052283889959947	0.002312987462098	-5.87861405770117E-06	-1.14509415335893E-06	4.89052057866156E-06	1.95765954737168E-06	0.99487374559397	-0.133794136470117
5.7	-0.00544949480243772	0.00229222541284219	3.35324914199917E-06	-1.42582938325706E-06	-5.06601523855207E-06	-4.31711555514375E-06	0.994711195982757	-0.136831795529233
5.8	-0.00577978506101653	0.00253261983089341	-2.0606123483186E-06	-4.76987908796857E-06	9.51264841014695E-07	-5.84220519929879E-07	0.994313431304472	-0.139556408649187
5.9	-0.00624919851374759	0.00292468254419522	-3.89660168360547E-06	6.21335845980115E-07	3.87923865965956E-06	1.25566390601397E-06	0.993260890909158	-0.142121460394957
6	-0.00696049431860259	0.00409567387648465	-5.96627817447494E-06	5.06488313727811E-06	-1.49148146972454E-06	1.96119603851194E-07	0.992364927851071	-0.142146680287638
6.1	-0.00622351146904611	0.00537559534700999	-5.96066314563912E-06	-4.72544384411091E-06	-4.02931742813905E-06	4.34000558187933E-07	0.994375502470471	-0.14325437181322
6.2	-0.00532252047510451	0.00562403342297362	2.83898730830347E-06	3.1418037434994E-06	1.05938019104771E-06	7.26309885844449E-07	0.995124311093573	-0.145869310617663
6.3	-0.00464458485567472	0.00522780470780461	1.64945812258547E-06	-7.54408262062163E-07	-1.32299547121553E-07	1.38335538339494E-06	0.99492793050687	-0.1491723412113
6.4	-0.00478602126293465	0.00454269866622176	-5.21745557240138E-06	-5.64259961635231E-06	3.84354559625593E-06	6.93972233217928E-06	0.993822715974305	-0.152035692531667
6.5	-0.00511400795755009	0.00480326872270237	9.1199829079832E-06	-2.59905049326129E-07	-7.36738871860893E-06	-8.94973473742575E-07	0.993918702837456	-0.15462793244838
6.6	-0.00480597493670482	0.00474688006347194	-1.4956481968815E-06	4.71807718012801E-07	3.37429824935546E-06	-9.43850813099243E-06	0.993452671620289	-0.158687386031911
6.7	-0.00476630630456461	0.00479042765325398	6.33664647368547E-08	7.78898068903014E-06	-5.08596955561375E-07	-6.11449358838559E-06	0.992257719664487	-0.161480626269847
6.8	-0.00466981484074765	0.00480581288223466	4.2701794637696E-06	1.65589160077697E-06	2.04964055963722E-07	-5.25956474218098E-06	0.991311100871296	-0.164089005541442
6.9	-0.00496524882017971	0.00473820502633278	-7.58255481989441E-07	2.50545139455647E-07	5.77937852394307E-06	-2.70433990436758E-06	0.990194736144941	-0.166591274848881
7	-0.00532436020015584	0.00570255135984519	8.04576745596712E-06	-4.79667643712529E-06	4.29675675549822E-07	-3.03453104082162E-06	0.988987984505383	-0.167936081412284
7.1	-0.00467652756342293	0.00607209849480065	3.86800098557489E-06	2.04176644074525E-06	7.95955333087951E-07	7.25838257977328E-06	0.988858954445306	-0.169955567869636
7.2	-0.00456647377743344	0.00615393515828516	-2.44786088524402E-06	3.71464628470374E-06	-1.34964169182366E-06	-3.83966622582718E-06	0.988000207168041	-0.172409183082835
7.3	-0.00462782000433439	0.00626827353765244	3.45271379187538E-06	-5.08062278778999E-07	-2.46719881151502E-06	-1.9172921041848E-06	0.986614060412645	-0.174947682202429
7.4	-0.00512527889472979	0.0061796573062217	-6.22799442819159E-06	-2.68187640914369E-06	3.78780556276205E-06	2.3040759396317E-07	0.984869966977064	-0.178592988037927
7.5	-0.00621870247800292	0.00708622838194014	6.73427560169597E-06	-6.49163702277808E-06	-2.47998960586193E-06	8.16708594628726E-07	0.980995779128694	-0.18113557435501
7.6	-0.00578650130152322	0.00826201805425508	3.51304137163133E-06	5.19389086546162E-06	-1.02319684815096E-05	4.98175839563648E-06	0.979886539353442	-0.182222814994721
7.7	-0.00553667332809837	0.00879346079221195	6.08211715921071E-06	1.09219742611972E-05	2.82180202799136E-07	-1.13705018553473E-05	0.979485645909625	-0.184893739932051
7.8	-0.00495358568323868	0.00899927374040402	2.16174765388258E-06	9.7477619137687E-07	-3.0679858439551E-06	8.839981093602E-06	0.979198333900258	-0.187894678171691
7.9	-0.00455085967680178	0.00898169661406903	2.54193627976433E-06	-2.3253185275109E-06	3.68926965859179E-06	3.25684547515041E-07	0.978373095339184	-0.190871786853951
8	-0.00376101046061033	0.0096056729344553	-2.8071718608139E-06	1.33804299742775E-06	6.86779910087416E-06	-1.88059226680307E-06	0.977950122829772	-0.191749309475753
8.1	-0.00251045932249485	0.00908223153407806	-1.78979942929034E-06	7.61876296441753E-07	-3.71459983299086E-06	-1.24212973121975E-06	0.979622100764228	-0.194906978081349
8.2	-0.0020094784228411	0.00852345858388488	-7.69779798462816E-07	6.34079311413206E-06	4.89605963357782E-06	4.33730112101585E-06	0.979499671424824	-0.198351089555868
8.3	-0.00165940387696926	0.00802414146861123	-9.16135319405279E-07	-1.42137719908435E-05	6.85069586860777E-06	5.39905429105963E-06	0.978725406190571	-0.201737770643187
8.4	-0.00180382112751369	0.00752086924602324	3.74623760929006E-06	-3.44473835605139E-06	-6.97719111870603E-06	-1.19011086822107E-06	0.97761449305485	-0.204744757097833
8.5	-0.00210584808284208	0.00805437068889168	4.67926810565024E-06	5.65537775299752E-07	8.38840601616762E-06	-6.87442615232077E-06	0.976873579567521	-0.207634952510238
8.6	-0.00148188048031268	0.00808722314484026	-3.24695109283353E-06	4.13249878653945E-06	1.06502354973063E-06	1.10888946161408E-05	0.975852161473167	-0.210903799532786
8.7	-0.00132546962516549	0.00791326590696161	2.67155978805584E-06	-2.01132398637814E-06	4.75509049298961E-07	-5.55816580563391E-07	0.97468050446567	-0.213592849381093
8.8	-0.00119114306196281	0.00784063182701303	1.15880052761307E-07	-1.25243832874981E-06	-9.24109740109741E-07	9.76308441406986E-06	0.973540607158161	-0.215700902574306
8.9	-0.00125525237037235	0.00763567731125962	-3.65056164306395E-06	2.30669772667447E-06	4.82128240458205E-06	-1.82263137754576E-06	0.972979500101266	-0.217430403591829
9	-0.00138721092825804	0.00820594747122577	-1.88678598965452E-06	5.05511673802389E-07	-3.25370796613559E-06	-1.05155516858472E-05	0.972402018824982	-0.219424819492621
9.1	-0.000523135734172453	0.00829715505994981	5.24868021784463E-06	5.65800198969867E-07	9.1365762711089E-07	3.77388992204895E-07	0.971977863992588	-0.221192182355088
9.2	9.11296721345435E-05	0.00805197415785429	-8.73607764935665E-06	-4.53255353744957E-06	-9.08962382057135E-07	-6.11791335814862E-06	0.971637916665015	-0.223692283099383
9.3	0.00068206902735233	0.00757158702749244	2.19089479406273E-07	6.20908489703926E-06	4.62369699566161E-06	-2.21514542551912E-06	0.971336438866386	-0.226558118438368
9.4	0.00077538196064689	0.00673976061338968	-1.89348483521129E-06	5.88928159339057E-06	-1.04497398654219E-05	7.7925760714567E-06	0.970288495784107	-0.230413619161621
9.5	0.000610481069981108	0.0068645418026564	3.13358205169107E-06	-7.56929783795716E-06	3.65835393997053E-06	-2.75759294737426E-06	0.968018880471319	-0.233090122335947
9.6	0.000768006595012382	0.00634206613876992	4.51560667352973E-06	5.53921446576794E-06	-6.03310335622349E-07	7.05642371032776E-06	0.967047339703096	-0.235515845577229
9.7	0.000350786790743162	0.00608228934681741	-2.61734586123381E-06	-3.91549048079015E-06	3.64619224282183E-06	-7.52164895226214E-06	0.965911748855175	-0.238034027580719
9.8	-0.000128256397514851	0.00606615951445138	-5.44061166282613E-07	-4.20022067665279E-06	6.26252750659375E-06	8.55981565081332E-07	0.964855287886379	-0.24013838029816
9.9	-0.000857122861470667	0.00630868351728854	-2.68174312555768E-06	-5.79635501653323E-07	-8.44739253520172E-06	5.50801366308231E-06	0.962794439322189	-0.241515264476787
10	-0.00136560137803496	0.00764068496775846	4.21707997183544E-07	-1.74610243734412E-06	-3.09699897488393E-06	-7.93061848271809E-06	0.962182316895748	-0.24035667018509
10.1	-0.00064382240656027	0.00836765786956351	2.25300812714442E-06	4.74755922699451E-06	-3.06022120549149E-06	9.82688127376364E-06	0.962960372199156	-0.24208465217701
10.2	-0.000101797527339631	0.00866660817616124	-5.39218687929712E-07	-1.04297840289061E-06	-1.21528293241572E-06	-3.10085407001866E-06	0.9621550736301	-0.243473437015215
10.3	0.00038268153831126	0.00869758251364103	1.12491183537182E-05	-2.94991964235614E-06	9.99873410102257E-06	-4.85117099651183E-06	0.961137008037728	-0.244780341924592
10.4	0.000368257494188293	0.00861123318256007	-6.21554973774574E-07	2.13915321404306E-06	3.01304681109454E-06	-2.18085812383107E-06	0.959876199915092	-0.245794920976541
10.5	0.000447248090640791	0.00962801707602039	-6.08018721938251E-06	4.63515746393318E-06	1.57199119711675E-06	4.28769636061207E-06	0.959857567118449	-0.247059288137149
10.6	0.0015809398619485	0.0100240033748592	-7.05496952939794E-06	1.06514478876E-05	7.00315582809926E-06	4.23865697868929E-06	0.959428951123067	-0.249201473597347
10.7	0.00268856790150644	0.0100034935735113	-3.19852662420664E-06	1.56313138318321E-06	-5.34050259759432E-06	3.16139091559435E-06	0.959403283706152	-0.251300622961084
10.8	0.00355788912381826	0.0094059702212699	-1.91682431591082E-06	4.96985862525626E-06	8.45777343390639E-07	-3.18917224607442E-06	0.959259089517232	-0.253630714051472
10.9	0.00360651277997903	0.00870234765272318	-5.72804654499479E-06	-1.04824786655559E-05	4.91272713341066E-06	1.06606335811066E-05	0.95884729272765	-0.255967705689652
11	0.00371891857147817	0.00915480294224506	2.95453651793224E-06	2.60328090295956E-06	7.81169867740956E-07	-1.11892059281957E-05	0.957984206137661	-0.25767726309267
11.1	0.00459476111247722	0.00883432816154884	3.8397655325763E-06	1.45122502749535E-06	2.54929859298375E-07	-7.33917916573032E-06	0.957066434359684	-0.259415396309889
11.2	0.0050360755369061	0.00836557375038273	-4.39453254665664E-06	-1.96427222212841E-06	-7.28649361957309E-06	-4.83163157973833E-06	0.955963643045194	-0.261080375515569
11.3	0.00546081248945633	0.00769548354095405	6.64057846652054E-07	-6.35007388150543E-06	3.74185769517937E-06	1.40806486276142E-05	0.955314371526852	-0.262925616284009
11.4	0.00531780606215591	0.00693260678372117	-5.09744974105608E-06	8.10653829002429E-06	-1.45356757887806E-06	4.05901098194691E-06	0.953822899323477	-0.265865181433287
11.5	0.00516853307937829	0.00710102505224225	4.49501474345869E-06	8.04737742886216E-06	-9.23472678264358E-06	1.56908717236661E-06	0.951347265490049	-0.267396010525397
11.6	0.00558653298270859	0.00638351785432566	-3.82183864702304E-06	1.38725482154425E-06	5.03744766199728E-06	8.09745900500014E-06	0.950786746112806	-0.269770281697132
11.7	0.00526492435467061	0.00568727643629065	2.21851641801487E-06	1.04752839109588E-05	5.4406314204959E-07	-3.62844659082992E-06	0.949571493307187	-0.272979041043044
11.8	0.00474785200648717	0.00536710271876461	1.41343931915652E-06	4.43927953765581E-06	2.22983605547972E-06	4.51427577332027E-06	0.947982304459182	-0.275875801766954
11.9	0.00401703781611152	0.00557829510662521	7.37200581245737E-06	1.05145531333691E-05	3.85604028210526E-06	4.11139161987173E-07	0.946309577208733	-0.276634203265819
12	0.00421315656966681	0.00697672692769543	2.36254061380782E-06	-5.11234453439846E-06	-4.09723271730699E-07	1.73836479715254E-06	0.947387363376243	-0.275160370610762
