# GHZ S RI R 50
0.2	0.000296575505351266	0.0012878262919359	4.81268410229392E-06	-2.98174649617586E-06	-1.37916877419729E-05	1.3122082900516E-05	1.00157841397186	-0.00582317210081018
0.3	0.000869168956378031	0.000988605992036036	2.86140408671326E-06	6.65163181484854E-06	-1.65034033426188E-06	-9.35181778143654E-06	1.00201579210928	-0.008637640104359
0.4	0.00123638305810186	0.00117635403936926	-1.86475395250989E-06	-4.03458218193403E-06	-9.05771993515379E-06	4.40947649923265E-06	1.0030513586462	-0.0112560690473636
0.5	0.00273342170038286	0.000565005744797206	-5.37627825241943E-06	3.27776315922413E-06	-2.13060711258914E-06	6.78284215342056E-06	1.00364215307972	-0.0163544728262181
0.6	0.00189741888208584	-0.00111413313129248	-1.41961866465005E-07	2.81300134140066E-06	-5.8288981062258E-07	-1.34857764607532E-07	1.00175691889471	-0.0192766313846106
0.7	0.000991612821819582	-0.000999802071323509	8.52846503485143E-08	2.22723692817897E-06	4.92571411022609E-06	-3.40734264293428E-06	1.00158778361098	-0.0211891119349237
0.8	0.000529243061183845	-0.000810452730436332	4.54794027661036E-06	8.35864242467588E-07	2.75374296356132E-06	2.01334559303572E-06	1.00182660354995	-0.0229219729735793
0.9	-0.000198090049788903	-0.000159902397863715	-1.47373321971462E-07	-4.24237442225992E-06	-3.43336022408612E-06	-3.13139869574145E-06	1.00221398785361	-0.0246219819810817
1	0.00100101795727871	0.00151268892258123	1.06781979035306E-06	4.32069206734788E-06	3.34963963778428E-06	9.39362365276767E-07	1.00436319448551	-0.0258996145841898
1.1	0.00206340715997863	-0.000404819837229695	9.09709649220264E-06	5.11959788865787E-07	-3.59985423090812E-06	-4.98494209505169E-07	1.00437704138166	-0.030539901365429
1.2	0.00108476794450193	-0.0014875615737144	3.78074384078002E-06	-1.21123729659055E-06	-4.12305247528552E-06	-2.44653247318009E-06	1.0028379696772	-0.0322983932241113
1.3	8.63716995309674E-05	-0.00263852850749152	-7.68634354951083E-07	-1.43282088802007E-06	-2.61895723054597E-06	-8.74756177358794E-06	1.00205184627501	-0.0341229147547495
1.4	-0.00116788929315613	-0.00342349507118982	2.39819142046805E-08	3.46274527775024E-06	-4.31213638293553E-06	-4.13351603550318E-06	1.00039282156883	-0.0365749885154617
1.5	-0.000726835855268988	-0.00417758036893747	-1.29213479032714E-06	4.45078606763206E-06	6.5601116429293E-06	-7.45981754289283E-06	1.00136403534953	-0.0399556441382399
1.6	-0.00229960794832298	-0.00489925478749758	1.6358088453655E-06	-4.9526166093698E-07	4.24847750378731E-06	-5.42893569242851E-06	1.00009876973758	-0.0437946342732606
1.7	-0.00272118363149887	-0.00384244425485792	5.44523092349613E-07	3.9758679079759E-06	-8.31807335590818E-06	3.1671537471002E-06	1.00062594446359	-0.0455438465019688
1.8	-0.00263883366328876	-0.00305470372603666	1.84476169403793E-06	1.07895574287925E-06	5.63563226969998E-07	-1.77246349352853E-06	1.00090381944319	-0.0477735397293841
1.9	-0.002318842158709	-0.00205982694386383	3.25864787802331E-06	3.02823671617241E-06	-1.88092498241415E-07	-2.34240874096729E-06	1.00139393304392	-0.0482363120523418
2	-0.000260452678430551	-0.00214972084988822	-1.7400067301858E-07	2.02429072938698E-07	-1.22630501501578E-05	5.48212190159624E-06	1.00642039705331	-0.0510328702773349
2.1	-0.000948558496711844	-0.00419877821259977	6.66536334544618E-07	-1.39812962709542E-06	1.3957240626173E-05	4.9343735181137E-06	1.00536469229755	-0.0588951036794722
2.2	-0.0021737925040331	-0.00426586554227433	1.64710827442454E-06	-1.53829529621664E-06	2.6674323040209E-06	-6.27313725761204E-06	1.00301517191267	-0.0618381311161246
2.3	-0.00318519059729178	-0.00404363222703844	-1.72158079713078E-06	-3.43937191602766E-06	-1.83314997627432E-06	-4.61153506320495E-06	1.00170470604488	-0.0635340794604624
2.4	-0.00427035130889871	-0.00310169603400808	-1.24303743564354E-06	-4.42208442495015E-06	3.07471813273738E-06	1.07211369495518E-06	1.00113332979113	-0.0663559994784582
2.5	-0.00325977659901317	-0.00157695880689966	5.46130280910983E-06	5.65566698168383E-06	-2.48593621528197E-06	1.62619120780705E-05	1.0011282191819	-0.0686489942124878
2.6	-0.00284794613202847	-0.00284314846940973	-2.2667429619553E-06	2.74142969190248E-06	4.03317936717899E-07	-4.33463083262969E-06	1.00077938894713	-0.0721137769671854
2.7	-0.00346123581306626	-0.00309602337017957	-2.44580827836562E-06	-3.63760948525657E-06	2.1468190436205E-06	-2.59970935112552E-06	1.00042977381167	-0.0755113044548999
2.8	-0.00405336644162526	-0.00302098446883279	4.0424978058279E-06	2.29211838773954E-06	9.87948937340979E-06	-7.70649358561322E-07	1.00029671424859	-0.0783747566366522
2.9	-0.00433684208172349	-0.00222936648427583	1.29534502211642E-05	5.95259360360415E-07	2.34497797856853E-06	-1.17988887725863E-05	0.999341893490735	-0.0809608826665845
3	-0.00288494365110118	-0.00213107940482645	-3.85733906050734E-06	1.08765838089558E-06	-4.17588658845368E-06	-1.56424398985234E-06	0.998813947179539	-0.0838675456839313
3.1	-0.00352844889583224	-0.00347687806387556	4.70716734464581E-06	-9.92412971637117E-06	1.07451157297785E-05	2.32126255219456E-06	0.997772407709568	-0.0866851677439321
3.2	-0.00430129888121761	-0.00330326271052332	-5.46409584674896E-06	-7.38069978503963E-06	1.57459806732017E-05	5.24749343065176E-06	0.996519041130122	-0.0889751118728885
3.3	-0.00483869750480904	-0.00305387049651733	-8.78746559345748E-06	2.64904100379697E-06	-8.60735883077698E-06	-1.65038017880105E-06	0.994979869697164	-0.0927248431287169
3.4	-0.00534755042358555	-0.00223963499400365	8.97579581173516E-06	-7.67571243628775E-06	-7.29981507753573E-06	4.32596248437808E-06	0.992801633667102	-0.0946127356191105
3.5	-0.00407142220508542	-0.00195625691566133	2.64769523002476E-07	-5.3157709672466E-06	-4.48078399172494E-06	-8.87030769708312E-06	0.991982770469574	-0.0949771619062043
3.6	-0.00500206806166606	-0.00342335453569414	4.11583284784607E-06	4.86105631150958E-06	-7.02283754241989E-06	9.05533962467705E-06	0.992545342659645	-0.0982920685804343
3.7	-0.00639627453625606	-0.00288300692763904	1.48143231984815E-06	-4.53875605533804E-06	-5.1654742253071E-06	-6.53024266525093E-06	0.991094696814007	-0.101360039615228
3.8	-0.00717175810613873	-0.00178330491766596	7.21363625330186E-06	-5.2599559672277E-06	-5.89350576921228E-06	-2.35479266810533E-06	0.98945320510081	-0.102621077830292
3.9	-0.00716575298698502	-1.40679357940194E-05	-4.02259474288534E-06	-3.14144618965739E-07	-2.51441778659271E-06	1.15220435534311E-06	0.989113983284273	-0.103202688108614
4	-0.00473905657243135	0.000726099840904148	-3.38596895328664E-06	-5.37346633846258E-08	1.27763489646544E-06	8.66248822720743E-06	0.993915407980783	-0.104540499430885
4.1	-0.0046239371980721	-0.00107621466772144	-2.94281078911567E-06	-3.82435764319302E-06	5.90971298483485E-06	2.96758239700376E-06	0.992073583863304	-0.111377532387256
4.2	-0.00537003041662373	-0.00123822220708427	-7.96138673240461E-07	-2.14244158102045E-06	5.66356086515502E-06	-1.90469832380398E-06	0.988842200018361	-0.113954281787069
4.3	-0.00589337965857202	-0.000932845654574414	-4.7267507991469E-07	3.22965341992018E-06	2.14231902752404E-06	1.74991917973376E-06	0.987468745669532	-0.115370189869572
4.4	-0.00630376622309677	7.08180114458138E-05	2.60736906932763E-06	3.39899060476143E-06	7.20168880322387E-06	3.81299847112364E-06	0.986626852364737	-0.117277554338274
4.5	-0.00445481191431169	0.000822956871544114	-6.43577506230841E-06	-1.39316218281287E-07	-8.55694384159861E-06	-1.98177244892914E-06	0.985881447384105	-0.120706412379285
4.6	-0.00469686775361434	-0.00109212239676283	-9.95951201012973E-06	-9.02585466069011E-06	3.17446392586018E-06	-2.74274399060962E-06	0.982622184432246	-0.123023163329284
4.7	-0.00575800652687046	-0.00116958819521014	1.43376971986738E-07	1.84621354218733E-06	5.93659623291027E-06	-6.73025181226101E-06	0.981507928299819	-0.123667960810163
4.8	-0.00654933378700356	-0.000804734931704014	-6.31391405934395E-06	2.11804345273272E-06	6.59628818128555E-07	-1.26328296426613E-05	0.980522520833109	-0.125301633723203
4.9	-0.00706557100313207	0.000299101404603895	-3.31642963573003E-06	8.09348837012366E-06	6.44899568039418E-07	9.2780138283475E-06	0.979302827974434	-0.126389164923383
5	-0.00534346595216501	0.000731326540028537	9.49008540415901E-06	-4.0957591675364E-06	-6.82022731043061E-06	3.59415107835544E-06	0.978467794517383	-0.127130361493467
5.1	-0.00619631594039664	-0.000658800614078558	-3.82957154599093E-07	-3.21055678097667E-06	-3.83910810602934E-06	-1.74625431762104E-06	0.977626918974297	-0.12770092631374
5.2	-0.00701372540633917	0.00013401524757099	-1.08191053010108E-06	-4.42812268390722E-06	8.71771962409294E-06	5.45925316820001E-06	0.976913016474079	-0.128787243096039
5.3	-0.00697285683263703	0.00109311234679146	2.30127928015944E-06	6.697838954511E-06	8.70889009220996E-06	3.04171236221273E-06	0.976407317535675	-0.130379981419439
5.4	-0.00638157436732977	0.00237423314135358	2.64872447659114E-06	-3.11749241408946E-06	-2.63750908276338E-06	1.69512849093476E-07	0.975208403007322	-0.132450565814776
5.5	-0.00351091094983331	0.0019702282806203	2.10722419964952E-06	9.15939296845416E-06	-3.87653135173016E-06	-4.93810969504841E-06	0.975171760892738	-0.13246311226782
5.6	-0.00494514787668168	-0.000554443540203342	-5.77473735839962E-06	-1.11002236482045E-06	4.80654774421268E-06	1.91024739988231E-06	0.975817824804403	-0.13540216131198
5.7	-0.00679665569885576	6.06897765771839E-05	3.28989359408894E-06	-1.40724987332321E-06	-4.98396185596516E-06	-4.22872866359089E-06	0.97441989621056	-0.137195167641429
5.8	-0.00790186562316325	0.00129912399053027	-2.02613551371536E-06	-4.6811541636732E-06	9.33452339492107E-07	-5.74172705316847E-07	0.973485155441886	-0.137391421907239
5.9	-0.00871479033737162	0.00378346453883107	-3.83151885988546E-06	6.02029258942007E-07	3.81025767952556E-06	1.24291237083047E-06	0.974144747717435	-0.135463603111958
6	-0.00566980759169512	0.00662883156194282	-5.89885909653796E-06	5.0008229532359E-06	-1.47391612437818E-06	1.92800892267345E-07	0.981767265984518	-0.136979174777919
6.1	-0.00396076983612042	0.00463380978055718	-5.88446387697981E-06	-4.63909067118411E-06	-3.96811006160224E-06	4.38302404316809E-07	0.980399217386026	-0.14440460084035
6.2	-0.00406429907322058	0.00386252152265519	2.79402626618503E-06	3.08585546117958E-06	1.04216550328792E-06	7.12980843652135E-07	0.977896322116632	-0.145779707432712
6.3	-0.00438375587167663	0.00331697939166328	1.6220822818659E-06	-7.40000960550317E-07	-1.31354994767982E-07	1.35967244295153E-06	0.976699620176321	-0.146893114519723
6.4	-0.00476081242426329	0.00385235119643652	-5.12726803563423E-06	-5.56332883932519E-06	3.77261647527359E-06	6.83807648600214E-06	0.976968209170346	-0.147809932762718
6.5	-0.00271032464152129	0.00286949254715891	8.95998109498488E-06	-2.68615670323423E-07	-7.23974105243022E-06	-8.68597526832909E-07	0.976853049043843	-0.15406208257559
6.6	-0.00484330200672343	0.00110434727346882	-1.46506359773244E-06	4.57720883717493E-07	3.32790044958172E-06	-9.22835488196656E-06	0.971065493578336	-0.154336356917231
6.7	-0.0059086822879468	0.00208019439208931	1.48159967538985E-08	7.63029530416174E-06	-4.61113051696081E-07	-5.99270653128574E-06	0.970778007546186	-0.152663321130366
6.8	-0.00637216672000032	0.0029275482859163	4.17459331994499E-06	1.65803464082168E-06	2.42991715132339E-07	-5.15647514613557E-06	0.97124935054309	-0.152710395595023
6.9	-0.00651350161811448	0.00488143819870107	-7.46724562256964E-07	2.3891718770917E-07	5.69887763581608E-06	-2.60118634152538E-06	0.971932115438528	-0.152366248504988
7	-0.0028160404310283	0.0053229162634676	7.95322027681159E-06	-4.62901379562824E-06	4.53391923591892E-07	-2.97653321582865E-06	0.975285686921787	-0.153822350425218
7.1	-0.00403377343637271	0.00218963165079405	3.7795087159388E-06	2.05137240226907E-06	6.99878400527421E-07	7.14501700063277E-06	0.973852006697883	-0.157896730786524
7.2	-0.00596854173451825	0.00263372298318368	-2.45221291106897E-06	3.62438491203976E-06	-1.28149936253413E-06	-3.7928523670738E-06	0.971854221470357	-0.15890845493997
7.3	-0.00740409014066877	0.00364609530185577	3.4011550930579E-06	-4.57021924229807E-07	-2.40226604512554E-06	-1.91557859011508E-06	0.969469100054148	-0.159823556265298
7.4	-0.009022804887789	0.00615768082638896	-6.07009430150238E-06	-2.71454601025584E-06	3.71087032867559E-06	2.77564909683223E-07	0.965015797176783	-0.159005898710341
7.5	-0.00624249077381875	0.0095032974027536	6.74238893985425E-06	-6.22105613051327E-06	-2.44925028023019E-06	7.47679191928894E-07	0.96726425489883	-0.152130640604981
7.6	-0.00524809642311981	0.00785272875380183	3.34950982811147E-06	5.20163161509993E-06	-1.02039909430164E-05	4.68594917577385E-06	0.972868075949444	-0.156824800495748
7.7	-0.0055115556047637	0.00829461344127682	5.76527198975066E-06	1.09223780078444E-05	5.30666486823232E-07	-1.12243616717082E-05	0.973192939372637	-0.160363550434807
7.8	-0.00500826978539037	0.00878252957860067	2.11432971586486E-06	1.01451058526057E-06	-3.24088323006726E-06	8.66764739065742E-06	0.973954797761803	-0.162310527806385
7.9	-0.00367313802937013	0.00969851473225125	2.58106818164435E-06	-2.23561849667515E-06	3.64659949874836E-06	4.21851609840673E-07	0.976653762296768	-0.161984148771795
8	0.000144635472723928	0.00770596770360548	-2.84209688426477E-06	1.26071329247343E-06	6.91524462824278E-06	-1.69218580969909E-06	0.986830004051801	-0.166908565585936
8.1	-0.00155212757788024	0.00443662700177831	-1.80757088777235E-06	7.23171316108998E-07	-3.68969084624106E-06	-1.32418943101826E-06	0.984979229782264	-0.177835314764687
8.2	-0.00294196092585212	0.00451941529397577	-9.05268233331951E-07	6.32543203212358E-06	4.80429771056971E-06	4.44255140772656E-06	0.98243724971922	-0.180542154652642
8.3	-0.00374660839051711	0.00497463569415069	-6.13252045139974E-07	-1.42527298566773E-05	6.74450162360026E-06	5.55299010284197E-06	0.981880361662225	-0.182891690226072
8.4	-0.00421554362275217	0.00679204734077568	3.82699004230374E-06	-3.38163128421767E-06	-6.97647909115495E-06	-1.33264365882483E-06	0.982271109984708	-0.185387792160053
8.5	-0.000590222813992552	0.0074349208815908	4.67278919838074E-06	6.48048504374713E-07	8.51518548540182E-06	-6.73231553414226E-06	0.98259272251827	-0.189995426180949
8.6	-0.00145703015022132	0.00414781105029978	-3.33770088162117E-06	4.06518532234552E-06	8.27347700774264E-07	1.11184023342879E-05	0.980814712853626	-0.192551882952518
8.7	-0.00333063771318065	0.00435518292961053	2.72680342317717E-06	-1.95835689606476E-06	4.89810658737449E-07	-5.47115232183593E-07	0.981128351568032	-0.194322209715137
8.8	-0.00450831790896501	0.00538509546617556	1.44513159755303E-07	-1.25804181563454E-06	-1.14744815772548E-06	9.80630223057638E-06	0.981740223494786	-0.196354126175406
8.9	-0.00518965904684932	0.00777861030471766	-3.73029632249571E-06	2.2532241798655E-06	4.90170558044212E-06	-1.74100117184199E-06	0.982741915054926	-0.198272699721734
9	-0.00163510710255896	0.0097283369853948	-1.91106667957629E-06	4.73424262174518E-07	-3.07826070317088E-06	-1.06592019356844E-05	0.984019731435359	-0.200160975589805
9.1	-0.000807550652456099	0.0077585366533706	5.28924672944995E-06	6.79049764379513E-07	9.15000299453812E-07	3.99874835314324E-07	0.98580731002292	-0.202902617784578
9.2	-0.000264378585639297	0.00769971000652317	-8.75203543379973E-06	-4.75235055317332E-06	-8.02909330145764E-07	-6.20698155669508E-06	0.986838906568304	-0.206935009463391
9.3	0.000600619814345812	0.00713616294150288	1.12982286452326E-07	6.28710318089782E-06	4.71772626201576E-06	-2.1606468174843E-06	0.986716528008846	-0.211388452427078
9.4	0.00119979968340245	0.00720489849234961	-2.01058140201552E-06	5.9185206011613E-06	-1.06864536892371E-05	7.69959912563366E-06	0.984438857366633	-0.214848121429456
9.5	0.00399946942353905	0.0052282710240863	3.32133755289938E-06	-7.57498018124843E-06	3.75043153659693E-06	-2.70703690243177E-06	0.985347033265141	-0.215049371389403
9.6	0.00145495494626212	0.00202191654838506	4.46405795379006E-06	5.71439953447634E-06	-7.60769381684009E-07	7.14561633347564E-06	0.986913384059204	-0.220911024872744
9.7	-0.000750405134777194	0.00237821764937371	-2.58355924738898E-06	-4.02925315265073E-06	3.85070333932992E-06	-7.57201662020779E-06	0.985682188811213	-0.224824612538902
9.8	-0.00228157186649609	0.00334457133941271	-4.73152285397053E-07	-4.28206931456259E-06	6.35274390947111E-06	9.90072850965263E-07	0.984832570062199	-0.226679642768283
9.9	-0.00331607384513458	0.00578052080565788	-2.72264646258052E-06	-6.47238545376159E-07	-8.72976286193164E-06	5.44010953381657E-06	0.985705443340736	-0.22526662263388
10	-6.02776090013297E-05	0.00725076395763379	4.6239832450806E-07	-1.78728605187136E-06	-3.05054884676312E-06	-8.20105956216469E-06	0.994808249508613	-0.23009638551891
10.1	-0.00059248126016763	0.00508174488331793	2.25981129541785E-06	4.8903730355764E-06	-3.24005945295828E-06	1.00415297801333E-05	0.990567739546026	-0.239576339585564
10.2	-0.00173322529974883	0.00570846705278046	-5.41891070392254E-07	-1.07336585734119E-06	-1.21390581732434E-06	-3.18737244308057E-06	0.987312810283982	-0.241018734501352
10.3	-0.00231120289112194	0.0069216488681496	1.15566967532076E-05	-2.92180756145101E-06	1.02922911762577E-05	-4.88184543629098E-06	0.986216922656497	-0.242550602928404
10.4	-0.00211782946989087	0.00948885295561037	-6.51809225655525E-07	2.19304765841695E-06	3.1081871556345E-06	-2.22083357533999E-06	0.986423532011704	-0.244749351920921
10.5	0.00213536599698716	0.0105048860388951	-6.23260628413209E-06	4.74176286064101E-06	1.60592589650345E-06	4.39348859598194E-06	0.985931758454352	-0.250912285108031
10.6	0.0028885804766673	0.00831724353317512	-7.24160255724465E-06	1.08668359274049E-05	7.14591738449492E-06	4.35251922302763E-06	0.982930253088906	-0.252969466450376
10.7	0.00341061682485335	0.00771162964948034	-3.2779951062278E-06	1.59233356900823E-06	-5.474530052513E-06	3.22319523623048E-06	0.983627812458205	-0.255985187397078
10.8	0.00344995787679467	0.00688098090001965	-1.96660538188274E-06	5.09241901773327E-06	8.68180823774918E-07	-3.26798858071078E-06	0.983377307368629	-0.260262114840534
10.9	0.00315318346869166	0.00771560428177467	-5.8975705809903E-06	-1.07322854287644E-05	5.06217283495833E-06	1.09168997806985E-05	0.982296225241942	-0.263735283944555
11	0.0066329739086797	0.00727476541832139	3.03345385623171E-06	2.65088406576936E-06	7.52401063976791E-07	-1.14501412406875E-05	0.981968890490562	-0.266825305289191
11.1	0.00539613194358423	0.00403020937291804	3.93696298552667E-06	1.46815841239987E-06	2.2783009002931E-07	-7.51359211776029E-06	0.98015688851602	-0.270871622465691
11.2	0.00393442463135141	0.00389643498295201	-4.51210782284651E-06	-1.9812151228787E-06	-7.49207871288746E-06	-4.89710149298856E-06	0.977840806656962	-0.274175162162093
11.3	0.00291683099488996	0.00439083955884244	6.19956338657344E-07	-6.49771470879924E-06	3.95582549539259E-06	1.4359664285162E-05	0.974535773872851	-0.277246566702065
11.4	0.00236657042219632	0.00610560468702147	-5.10396680143014E-06	8.31280321411595E-06	-1.43639729067018E-06	4.15032417862537E-06	0.969373470828923	-0.279193992679409
11.5	0.00575373349600877	0.00607234428822747	4.6254873408904E-06	8.16444845233584E-06	-9.39119448957204E-06	1.65423898567491E-06	0.970942069736381	-0.277145898244705
11.6	0.00432098036219714	0.00319082195037124	-3.89322777698759E-06	1.45071949916946E-06	5.21771783058382E-06	8.23049738485349E-06	0.971549745268704	-0.285094874826692
11.7	0.0025938514348413	0.00373391861156393	2.38632541959196E-06	1.06699945104117E-05	5.13548273104796E-07	-3.71106902357118E-06	0.967771211788072	-0.29020952013074
11.8	0.0018273659526981	0.0052687475965101	1.49612019666679E-06	4.50896730750785E-06	2.32947664852201E-06	4.57533544304107E-06	0.964273967710513	-0.292646463779781
11.9	0.00282868082935614	0.00838744083774059	7.63501992890962E-06	1.06534288191392E-05	3.93986787191241E-06	3.78886881115234E-07	0.964545047140519	-0.290132533672317
12	0.00859121919245994	0.00817467745911637	2.35041836098931E-06	-5.28759645693111E-06	-3.94837955689367E-07	1.79204885083009E-06	0.974180682805462	-0.296056703543301
