# GHZ S RI R 50
0.2	0.000852372637317578	0.00282431042368643	4.78908013636962E-06	-2.9865354526392E-06	-1.37107038246118E-05	1.31216233038866E-05	0.999082142725764	-0.00712213525372239
0.3	0.00121827745288822	0.00189161850278009	2.86667221509278E-06	6.62130203818784E-06	-1.66619408779602E-06	-9.31468873390679E-06	0.998849936552162	-0.00996999414673163
0.4	0.00153785339924596	0.00124210040139075	-1.86239994755873E-06	-4.01228515742798E-06	-9.00730041362375E-06	4.40312636938706E-06	0.998602842127488	-0.0127197257522877
0.5	0.00127226935239737	0.000721661918023547	-5.35466928265308E-06	3.25906475161087E-06	-2.12615126838688E-06	6.75088622018785E-06	0.99767005023226	-0.0153374724422507
0.6	0.00155059892411658	0.00087511379212821	-1.40048992095503E-07	2.80459807350042E-06	-5.81204209718749E-07	-1.34143598632618E-07	0.998279428505229	-0.0175937062147901
0.7	0.00187809121928186	0.000508580406769928	8.79732289235731E-08	2.21781896670288E-06	4.90048536631354E-06	-3.399846616091E-06	0.998201527769196	-0.0206855203259546
0.8	0.00206290497024565	0.00013022653558502	4.52498768420656E-06	8.25088879849188E-07	2.74194737293678E-06	1.99882812728393E-06	0.998034059912289	-0.0229127810269641
0.9	0.00225698606124096	-0.00029407532516506	-1.51819372165154E-07	-4.21407481789572E-06	-3.41461230391104E-06	-3.10626060832078E-06	0.998141035645473	-0.0255258618650946
1	0.00196150962991158	-0.00123033521232641	1.05744544443131E-06	4.28617597390904E-06	3.32217005370087E-06	9.33112124814985E-07	0.997458117170791	-0.0278419517108427
1.1	0.00121630129621337	-0.00101839300066681	9.03242376891539E-06	5.22548817870219E-07	-3.57380092932001E-06	-5.00606776352573E-07	0.996672658590906	-0.0293299408860236
1.2	0.00115144556319994	-0.00131966839525061	3.75725067159049E-06	-1.19631242706047E-06	-4.09074615534547E-06	-2.4372561503506E-06	0.996147540068515	-0.030105433670917
1.3	0.000563744930517585	-0.00205392703790488	-7.59743170293001E-07	-1.42603934766871E-06	-2.57765707096428E-06	-8.70025576867794E-06	0.996201924110537	-0.0304179555225047
1.4	-0.00010969781343321	-0.00280981544309422	1.03955128280751E-08	3.44556015640925E-06	-4.274544320539E-06	-4.12966068770993E-06	0.996366423567809	-0.0317357585182231
1.5	-0.000891596258259078	-0.00322211609185043	-1.30225747129618E-06	4.42720346544725E-06	6.55827997296651E-06	-7.40483970549272E-06	0.996748775802748	-0.0350321562398337
1.6	-0.000662539418795582	-0.00300936321982757	1.62921384340778E-06	-4.87500771557045E-07	4.2447210626391E-06	-5.38802908899354E-06	0.996565605336308	-0.0380032227450185
1.7	-0.000536791459975007	-0.00340482985520245	5.2770372310141E-07	3.95504991679006E-06	-8.28151265385231E-06	3.12038901946901E-06	0.997073989719384	-0.0408250196445746
1.8	-0.000615106866675919	-0.00361520263558021	1.8301382867622E-06	1.07921824424106E-06	5.66580508830191E-07	-1.76009773476273E-06	0.997185445694306	-0.0439307499100722
1.9	-0.000739905104779661	-0.00403682549765728	3.23269229080992E-06	3.01791264255419E-06	-1.81669872591103E-07	-2.32912370797271E-06	0.997221794212797	-0.0471838476740444
2	-0.00170779672677549	-0.00436693909064693	-1.72475237173194E-07	2.00113931958378E-07	-1.21439478666468E-05	5.4094580984587E-06	0.994579454982283	-0.0510641622491753
2.1	-0.00195204503313062	-0.00368879942568448	6.68191959915353E-07	-1.3788869116649E-06	1.37759967588442E-05	4.96939376155643E-06	0.99365126678219	-0.0509941798127716
2.2	-0.00195133992594057	-0.00370471164143393	1.64375147804342E-06	-1.51262504534077E-06	2.68963311265218E-06	-6.19804644420962E-06	0.99453168841831	-0.0528399537138522
2.3	-0.00219066945860178	-0.00379651064575785	-1.6817106617766E-06	-3.42404166497885E-06	-1.78359011161575E-06	-4.58742328771034E-06	0.99477376632377	-0.0546249743649661
2.4	-0.00237791611871242	-0.00402262473404565	-1.1969804839033E-06	-4.39557138060601E-06	3.04061667852157E-06	1.08812373795591E-06	0.99523872719014	-0.0579808138896161
2.5	-0.0033307126675118	-0.00464241321461991	5.36661197616879E-06	5.6700032535106E-06	-2.62988986927633E-06	1.61225059416841E-05	0.994652754287827	-0.0608284153653778
2.6	-0.00436389480254303	-0.00390847231991512	-2.27850315307603E-06	2.70697218149694E-06	4.38957094669309E-07	-4.30788607455732E-06	0.994330820179118	-0.0636770772443008
2.7	-0.00467094336813796	-0.00323901255438944	-2.40116837858418E-06	-3.63553660535694E-06	2.15506235066642E-06	-2.56634012256511E-06	0.993443161568681	-0.0665668833745026
2.8	-0.00460717899442331	-0.00257007339922501	3.99501155528738E-06	2.31282825875661E-06	9.82025860166673E-06	-6.77399551335419E-07	0.993371469559173	-0.0679598986472719
2.9	-0.00413085906667195	-0.00236076306330247	1.28623146395982E-05	7.26675731303213E-07	2.45286279248388E-06	-1.16970435017378E-05	0.993476691280827	-0.069574788142896
3	-0.00428289349446569	-0.00244686518024986	-3.85298048553166E-06	1.03935239916594E-06	-4.14017113613794E-06	-1.604700950735E-06	0.993611679446143	-0.0720380899554621
3.1	-0.0038139001952925	-0.00193425266674796	4.79065529473558E-06	-9.83212336336148E-06	1.06745204230626E-05	2.42362122089291E-06	0.993548784471133	-0.0736507778820445
3.2	-0.00338925103719247	-0.00221174014695391	-5.35577683081687E-06	-7.41353775148906E-06	1.56198117023676E-05	5.40852244273916E-06	0.99379667330119	-0.0751618699016038
3.3	-0.00327049255222285	-0.00256318489483146	-8.79472520811203E-06	2.52657743117868E-06	-8.55926814667913E-06	-1.75719992486278E-06	0.994227283798526	-0.0781327598564817
3.4	-0.00330588384322064	-0.00305544213322049	9.08192088519239E-06	-7.54041098184802E-06	-7.35824475017947E-06	4.21710618949757E-06	0.995272084185483	-0.0800507285650032
3.5	-0.00421415660354097	-0.0035879749521061	3.28904822671203E-07	-5.32895340678057E-06	-4.38889094525896E-06	-8.95094307442232E-06	0.995642031725768	-0.0842925210888793
3.6	-0.00455063692929176	-0.00289618059910844	4.06869977400293E-06	4.90792101372275E-06	-7.12288452356574E-06	8.98983765199514E-06	0.994421034329101	-0.0865721046457228
3.7	-0.00447885290855948	-0.00287912996399234	1.53600449399602E-06	-4.52586035811881E-06	-5.09410036040179E-06	-6.59709240848019E-06	0.994899441603485	-0.0887759983245427
3.8	-0.00456053995855985	-0.00298817127691508	7.29316450661593E-06	-5.18586596051002E-06	-5.87896051652734E-06	-2.43067881235229E-06	0.995532293259377	-0.091175492386043
3.9	-0.00467102329891613	-0.00333865772589554	-4.03349216463379E-06	-3.5614617235031E-07	-2.53494148964379E-06	1.13067447456656E-06	0.996292533714729	-0.0959889797122273
4	-0.00584318480719164	-0.00368157434519045	-3.38387745768691E-06	-8.41099196367795E-08	1.19925193776368E-06	8.66984293527486E-06	0.993349400161842	-0.0995135151435179
4.1	-0.00629136903790822	-0.00252684680749318	-2.89196982746148E-06	-3.86587272803731E-06	5.87168736267335E-06	3.04910006464802E-06	0.992089553347577	-0.0989299863717159
4.2	-0.00611902953351018	-0.00207942248744759	-7.69157486590021E-07	-2.15962328804355E-06	5.70624536914266E-06	-1.8327867207296E-06	0.992262505911889	-0.101047189075316
4.3	-0.00599713010671565	-0.00181829532015652	-5.17168765325577E-07	3.23574431438496E-06	2.12737394949531E-06	1.78492058486776E-06	0.992390113653372	-0.103024680081511
4.4	-0.00587285007274149	-0.00184962982164154	2.57015373674498E-06	3.44703889704666E-06	7.17538713926408E-06	3.92557399956402E-06	0.992008970836226	-0.105488733682609
4.5	-0.0067195433291963	-0.00207372806063996	-6.4724028133308E-06	-2.51177912730624E-07	-8.57465353894567E-06	-2.14139811112615E-06	0.991368622590785	-0.106867461470425
4.6	-0.00710156948959789	-0.000878156314729096	-9.93369619999385E-06	-9.27043041860883E-06	3.24925424017006E-06	-2.72545834755926E-06	0.992161235585084	-0.109054339260541
4.7	-0.00682747102806286	-0.00034554761341641	1.22056649403234E-07	1.8688989669006E-06	6.08745266931561E-06	-6.73267793190842E-06	0.992589294507376	-0.11130875372601
4.8	-0.00663242149071713	7.07864073541158E-05	-6.40972250864119E-06	2.07049658164703E-06	8.10437191769821E-07	-1.27689654585926E-05	0.992565274879586	-0.1138420583151
4.9	-0.00618421330602658	0.00020806293582437	-3.44842140309359E-06	8.14926019392823E-06	5.45270250701833E-07	9.39329005582434E-06	0.99273695848173	-0.115737554906495
5	-0.00650817782537192	0.000108377777875573	9.67952495567439E-06	-4.05007630445513E-06	-6.9637372606333E-06	3.5711296482977E-06	0.993190643852144	-0.117824136954232
5.1	-0.00580789137033891	0.000944379110477271	-3.64135372597114E-07	-3.26244143591587E-06	-3.88422056672456E-06	-1.802362591224E-06	0.99354270795837	-0.119642996050756
5.2	-0.00494777068498132	0.000533483433869367	-1.06635742176643E-06	-4.49962894266348E-06	8.80508467464438E-06	5.59937565805523E-06	0.993769834693956	-0.122426846660537
5.3	-0.00470488876246233	-8.26369602265553E-05	2.28512803188986E-06	6.81177726528201E-06	8.8124812182135E-06	3.15004866779717E-06	0.993692288220328	-0.125388395978587
5.4	-0.0048225958371263	-0.000698174932085991	2.71928012495155E-06	-3.14597699880776E-06	-2.68242302596579E-06	1.49529480502342E-07	0.993926600017499	-0.128640036286117
5.5	-0.00624609919638673	-0.000742148863622732	2.11024852328025E-06	9.36295686338883E-06	-3.93620366686067E-06	-5.06030555596494E-06	0.993387974513594	-0.133043019706283
5.6	-0.00594964960783551	0.000847357855070946	-5.87647486899573E-06	-1.13378866931332E-06	4.89053449812148E-06	1.94753922953634E-06	0.991814137663837	-0.134964300525471
5.7	-0.0052533998448278	0.00100513902335509	3.34618794611581E-06	-1.42860370067241E-06	-5.06478861736164E-06	-4.30331172372322E-06	0.992153383008277	-0.136969792665274
5.8	-0.00491201270789107	0.000972651462130786	-2.06326791456679E-06	-4.75987734433523E-06	9.49056612413552E-07	-5.84479064592048E-07	0.992939728587606	-0.139718756986715
5.9	-0.00449751932585504	0.000630291075570318	-3.89005008908958E-06	6.28189320606747E-07	3.87642100892581E-06	1.24628045385923E-06	0.993473880959822	-0.144401149938617
6	-0.00571360669475008	-0.000536284962306995	-5.92562333320744E-06	5.06188867913239E-06	-1.48460351910734E-06	1.99873472551169E-07	0.988732426891814	-0.148818030115623
6.1	-0.00691922044283695	0.000864773104411226	-5.92916664641855E-06	-4.70173473565542E-06	-4.00849740639352E-06	4.31228749826781E-07	0.987008988568149	-0.1467185092172
6.2	-0.00698443238878025	0.00171509993673378	2.82325982537242E-06	3.13257252832013E-06	1.05408869821931E-06	7.2469749359532E-07	0.98730526564734	-0.147359571098793
6.3	-0.00670373162727258	0.00247614122709913	1.64508800253991E-06	-7.49525317630777E-07	-1.33861962051488E-07	1.37858403511595E-06	0.987190319142862	-0.148956405422164
6.4	-0.00603675895735381	0.0024065544849156	-5.19478383256528E-06	-5.62715548389655E-06	3.82461290077134E-06	6.91866490623086E-06	0.986652237979895	-0.151400575635055
6.5	-0.0067198740828613	0.00227806742743596	9.07982606836819E-06	-2.33721762245337E-07	-7.33191772388857E-06	-9.11173509644489E-07	0.985439012201755	-0.15180616918639
6.6	-0.00579124822839089	0.00309312645881123	-1.49453638794939E-06	4.66385979984315E-07	3.39761267298115E-06	-9.41190541489448E-06	0.988781830755361	-0.154025729679725
6.7	-0.00539546305676883	0.00269142022284321	4.94473662412969E-08	7.78108044608309E-06	-4.97198159671406E-07	-6.10910789284916E-06	0.989321455138507	-0.158255426715074
6.8	-0.00534292870692591	0.00279925219987805	4.26388407807184E-06	1.65846845920826E-06	2.10115902606531E-07	-5.2536848361462E-06	0.988957010064045	-0.161577217530761
6.9	-0.00496646772499368	0.00263637511405839	-7.57418530750842E-07	2.49586494978755E-07	5.77364384253062E-06	-2.69594303319843E-06	0.988782195143164	-0.164910956143317
7	-0.00635260341317303	0.00253349947206899	8.04185921810867E-06	-4.78174674377916E-06	4.3267698182828E-07	-3.0304704095666E-06	0.986242189355861	-0.167808630111284
7.1	-0.00587410147755685	0.00461252970869286	3.8627567885405E-06	2.04314047845727E-06	7.8914894353414E-07	7.25241731245754E-06	0.98552426898027	-0.167698418403046
7.2	-0.00481936768116581	0.00494669315209748	-2.4484536336104E-06	3.70791503273916E-06	-1.3444114537355E-06	-3.83637038898854E-06	0.985842026362205	-0.168907407193163
7.3	-0.00425156278534798	0.00511279880847377	3.44883290688358E-06	-5.01419085485378E-07	-2.4605003270679E-06	-1.91889838886022E-06	0.98600195429486	-0.170117117756837
7.4	-0.00349063288343108	0.00490882685977538	-6.21603192242666E-06	-2.7024282199336E-06	3.7854064973581E-06	2.43497523538387E-07	0.988162990343108	-0.172359680069487
7.5	-0.00440696476895088	0.00368778644289157	6.76835425465857E-06	-6.49748243121759E-06	-2.48926795524188E-06	8.14050135908481E-07	0.988810003998729	-0.180290944878699
7.6	-0.00489498691950109	0.00525136387688291	3.51682904897738E-06	5.20017728352281E-06	-1.02442337997367E-05	4.98695377641792E-06	0.984578278985301	-0.183513075610325
7.7	-0.0043438137966851	0.00544617832759355	6.08103036296077E-06	1.09336588186136E-05	2.88432882938454E-07	-1.13791562499517E-05	0.984113148257706	-0.186610567666435
7.8	-0.00386756320282728	0.00514851443150171	2.16410410139173E-06	9.76773928483552E-07	-3.07500546862753E-06	8.84994732863156E-06	0.983868457592623	-0.190985893727814
7.9	-0.00348273906260794	0.004369098409116	2.5456027436415E-06	-2.33292578625638E-06	3.69796199646769E-06	3.23065023190666E-07	0.982854348153396	-0.197026269266636
8	-0.00521091594755052	0.00409941288723211	-2.79910093970255E-06	1.35038432590537E-06	6.85459914481931E-06	-1.91167043580578E-06	0.975067631403345	-0.202104040852996
8.1	-0.00396581891760911	0.00549520270184428	-1.78237889154925E-06	7.62025081933176E-07	-3.70361618159488E-06	-1.23199556062803E-06	0.973393136553792	-0.198647323682115
8.2	-0.00315635193261054	0.00515006022864974	-7.66797934797433E-07	6.3217023959759E-06	4.8817050797108E-06	4.32368267796456E-06	0.974304043136522	-0.199719546038851
8.3	-0.00277345800337024	0.00494906383546434	-9.10796440418644E-07	-1.4173855207899E-05	6.83032502710706E-06	5.38515226073813E-06	0.974037208674072	-0.202095368523775
8.4	-0.00227122744271534	0.00446832335796526	3.73331329752806E-06	-3.43027517216858E-06	-6.9502830207288E-06	-1.18819953094377E-06	0.972999046686485	-0.204525289095466
8.5	-0.00377743325521962	0.00392352293364881	4.65926251453754E-06	5.79069616628596E-07	8.37904323838016E-06	-6.81964567409015E-06	0.971699707880066	-0.205669804001564
8.6	-0.00349759240119793	0.00603458762533567	-3.25478937240031E-06	4.11704501552808E-06	1.03039269785476E-06	1.10766568379637E-05	0.972625175056231	-0.207468219852582
8.7	-0.00230604200704755	0.00639865346578502	2.67240379903436E-06	-2.00326848669256E-06	4.76070009058435E-07	-5.54136056871124E-07	0.972789228513105	-0.210283664510774
8.8	-0.00135696906185171	0.00647978886754226	1.17746658012722E-07	-1.25026725200807E-06	-9.38627518719322E-07	9.74612626759134E-06	0.972520466906557	-0.212650765056327
8.9	-0.000103051771974073	0.00594265014796992	-3.64571169274485E-06	2.29376098747514E-06	4.81251188832315E-06	-1.80866628959542E-06	0.97265329430575	-0.214733513999281
9	-0.000495723823226636	0.00465205745746267	-1.88559524226719E-06	4.97626473840894E-07	-3.20904887700085E-06	-1.05105479821375E-05	0.972549162776577	-0.21745050493883
9.1	2.01307558977771E-05	0.00504969514751829	5.24136924200767E-06	5.79494229494095E-07	9.11624282994069E-07	3.7946628401045E-07	0.971748281699263	-0.219683614213515
9.2	0.000546637488899666	0.00403607277354896	-8.70365509530251E-06	-4.55491258745222E-06	-8.85636399691372E-07	-6.10963635132627E-06	0.970764474646638	-0.221810885389305
9.3	0.000278975532151966	0.00329972992283843	1.86415015835749E-07	6.20012637656763E-06	4.62770647576567E-06	-2.18747634362405E-06	0.970292861918161	-0.223223724096104
9.4	5.49285011483773E-05	0.00267613150232204	-1.93483174216898E-06	5.87559060402199E-06	-1.05039634045577E-05	7.71852951053899E-06	0.970923935446	-0.225262553338267
9.5	-0.00152175409707963	0.00285000965476475	3.1868410727956E-06	-7.57953098614639E-06	3.68691994779888E-06	-2.74740606282178E-06	0.97048134510599	-0.229986251957559
9.6	-0.000745916184737921	0.00441930931193563	4.50832949284561E-06	5.56441238129978E-06	-6.25860801697269E-07	7.06934751893614E-06	0.968535155139251	-0.231835306231533
9.7	9.95647254874034E-05	0.00425331653781699	-2.60737968936012E-06	-3.92954187400224E-06	3.67665156780588E-06	-7.51900011259894E-06	0.968749489607743	-0.233574767681539
9.8	0.000477523593840941	0.00405412955597283	-5.29589723204506E-07	-4.20983477227426E-06	6.27072667102788E-06	8.80579830374538E-07	0.969758182451243	-0.236016460694254
9.9	0.000982683835698431	0.00349507986755117	-2.68872378654334E-06	-5.87235194036853E-07	-8.48529485186257E-06	5.50660470522736E-06	0.969925009944673	-0.24067596352502
10	-0.000588435499444943	0.00264955947863561	4.21395543485522E-07	-1.74516658952089E-06	-3.09567504445896E-06	-7.92613351499578E-06	0.963391004634851	-0.242991133366391
10.1	-0.000679873258768533	0.00434770844706246	2.23233036083247E-06	4.75188262774357E-06	-3.09573261149692E-06	9.80564921067942E-06	0.964158555463791	-0.23899475267686
10.2	-7.33584663678174E-05	0.00467363930930864	-5.35326104565686E-07	-1.04653981294438E-06	-1.20325546327157E-06	-3.10975987924915E-06	0.966268995240947	-0.240463883500971
10.3	0.000466939032539502	0.00500020722033393	1.12845919996037E-05	-2.91934901993767E-06	1.00376576406348E-05	-4.8290892567942E-06	0.96662698330515	-0.243278156357616
10.4	0.00150280661405645	0.00458435436879275	-6.26420161016095E-07	2.14122592716134E-06	3.02158280158497E-06	-2.17859874626861E-06	0.965301068051717	-0.246854049505054
10.5	0.000546464098092308	0.00380852684031966	-6.10280714678703E-06	4.61255978094193E-06	1.5551037460732E-06	4.29661627059185E-06	0.96283481784503	-0.248033718672484
10.6	0.000906161441991252	0.00466976165834704	-7.11167599405717E-06	1.06629193411919E-05	7.01197955169905E-06	4.27466115165625E-06	0.963194635035365	-0.250690418230169
10.7	0.00101193743410609	0.00470028435615194	-3.20946702124535E-06	1.56242452711113E-06	-5.35961199731531E-06	3.16168523139628E-06	0.961028338186288	-0.253485079188166
10.8	0.00135361494672459	0.00538757543799153	-1.92608601776918E-06	4.97621891835223E-06	8.51052104394447E-07	-3.19371191462359E-06	0.959603035842577	-0.253839910483172
10.9	0.00246505506216131	0.00543716711230341	-5.71271636710882E-06	-1.05007463086653E-05	4.89647327394604E-06	1.0677514591468E-05	0.959516160920799	-0.254306656782302
11	0.00173698530780484	0.00502904096783765	2.95216252524563E-06	2.6194079645166E-06	8.21773304221183E-07	-1.12117275944883E-05	0.959209648705806	-0.254579288130737
11.1	0.00292148640179413	0.00648086170857901	3.84967956920028E-06	1.46405754112933E-06	2.7098277109441E-07	-7.36334363396896E-06	0.960598697472687	-0.254434288668479
11.2	0.00434650983676542	0.00606467855265472	-4.40399400152803E-06	-1.97775875648546E-06	-7.29941662819942E-06	-4.85861954763333E-06	0.961911728891723	-0.255884452079466
11.3	0.00530175344251746	0.00537380866297197	6.81240433750583E-07	-6.36555655527641E-06	3.7177925778557E-06	1.41276215479854E-05	0.963422887156507	-0.257778850897714
11.4	0.00617008885235982	0.00423371082895877	-5.15088417727516E-06	8.11679051198328E-06	-1.47606309731283E-06	4.0687084741942E-06	0.965609094783091	-0.261218679948006
11.5	0.004866854526008	0.00318311832568123	4.51579374134624E-06	8.11269231946538E-06	-9.30434016969387E-06	1.56678330682528E-06	0.964096486490947	-0.268569227780188
11.6	0.00548803138319398	0.00419254093565134	-3.83788076917622E-06	1.39588244553332E-06	5.06502841262647E-06	8.13008747596762E-06	0.960666320010797	-0.270506901852916
11.7	0.0065653295472378	0.00352621986133264	2.22406674179504E-06	1.05152072351301E-05	5.47069090359269E-07	-3.64192695389584E-06	0.961082905227539	-0.273567824182967
11.8	0.00738134394316362	0.0025198131796864	1.4176002928319E-06	4.4614433282597E-06	2.23787464297222E-06	4.53728338710728E-06	0.961748332516123	-0.278726354970418
11.9	0.00776368785533124	0.000445844867902839	7.43734413291009E-06	1.05748908937165E-05	3.88274274792861E-06	4.08258464299031E-07	0.960639218277957	-0.285972596518021
12	0.00520498839878803	-0.00100372476066411	2.34189447895598E-06	-5.14306725199791E-06	-4.01359051255689E-07	1.74660087804331E-06	0.951392876902404	-0.289638940452986
