# GHZ S RI R 50
0.2	0.000697605645051228	0.00188093226227503	4.80105321294482E-06	-2.98334256741964E-06	-1.37523076658509E-05	1.3119342730224E-05	1.000427411521	-0.00649290838105548
0.3	0.00120893385760794	0.00132155736025526	2.86386573994485E-06	6.63595954296694E-06	-1.6581998567484E-06	-9.33255370757425E-06	1.00054606620606	-0.00941046630062871
0.4	0.00153329670239796	0.00105272954083446	-1.8634608543476E-06	-4.02292959170282E-06	-9.03137318403634E-06	4.4060153886031E-06	1.00087525455045	-0.0121555095448716
0.5	0.00208733692323449	0.000576155181754497	-5.36533458017555E-06	3.2686710062895E-06	-2.12806978265225E-06	6.76697909041098E-06	1.00072869632418	-0.0159488297112219
0.6	0.00189619791634801	-0.000215837689711219	-1.40459193760309E-07	2.80862837543786E-06	-5.82031607573151E-07	-1.34380058139997E-07	1.00008286828559	-0.0186695722753553
0.7	0.00155959980343465	-0.000375626007405375	8.69784080155695E-08	2.22223335491071E-06	4.91192764412153E-06	-3.4039617055732E-06	0.999869136697439	-0.0211406175486666
0.8	0.0014016554864162	-0.000452788576039267	4.53597488578799E-06	8.29702529679145E-07	2.74776834843353E-06	2.00541578942112E-06	0.999902511721376	-0.023065214160608
0.9	0.00115138884791256	-0.000361870948608618	-1.50124396976377E-07	-4.22750273467319E-06	-3.42382535714988E-06	-3.11786386966863E-06	1.00017541470567	-0.0252264496055941
1	0.0015172663088448	-2.60238056420136E-05	1.06272707755853E-06	4.30259774030921E-06	3.33537259328747E-06	9.3585065693341E-07	1.00084012688687	-0.0270439460634111
1.1	0.00173459924746761	-0.00087402253562296	9.06283199888554E-06	5.16247941100528E-07	-3.58609370258105E-06	-4.9908790515203E-07	1.00042843108653	-0.0301739688921501
1.2	0.00114557109269349	-0.00175211542189643	3.76747924371906E-06	-1.20364257719157E-06	-4.10556381746961E-06	-2.44062840865068E-06	0.999134252878269	-0.0316059044428815
1.3	0.000189428608226027	-0.0027723336181023	-7.63888852540751E-07	-1.42869049438238E-06	-2.59748818872863E-06	-8.7195021263229E-06	0.998456796304852	-0.0327026155189073
1.4	-0.000860870743288159	-0.00351803487538539	1.74348736368475E-08	3.45254417741178E-06	-4.29164659315406E-06	-4.12934995845534E-06	0.997626467301985	-0.0345560065385349
1.5	-0.00102595076347374	-0.00396291245401735	-1.29602814723916E-06	4.43763160289913E-06	6.55568814644697E-06	-7.43074705618297E-06	0.998376024890861	-0.0378155056797643
1.6	-0.00158213283639771	-0.00415723500333073	1.63205460366523E-06	-4.91501561859085E-07	4.24481307121051E-06	-5.40781991238372E-06	0.997902451029946	-0.0410802732502025
1.7	-0.0016999413526384	-0.00378319754831008	5.36557805582809E-07	3.96488077634253E-06	-8.29832132370793E-06	3.14444214329735E-06	0.998601415470513	-0.0432822041215429
1.8	-0.00164774471871373	-0.00344356661368909	1.83748115259366E-06	1.07885325111094E-06	5.64867455359659E-07	-1.76626240609377E-06	0.99896482210281	-0.0458793489162625
1.9	-0.00151131765659563	-0.00315621035420713	3.24605968751876E-06	3.02274439712233E-06	-1.85150797003169E-07	-2.33577667007428E-06	0.999340724741846	-0.0477797581050451
2	-0.000962794509060146	-0.00331175461659789	-1.73227711797018E-07	2.01274802205497E-07	-1.22031035114759E-05	5.4461599425109E-06	1.00048024462251	-0.0510229349579943
2.1	-0.00134234011339102	-0.00401562272049435	6.67428568272261E-07	-1.38870103805946E-06	1.38685155259517E-05	4.95230278830229E-06	0.999679439625215	-0.0548957493017525
2.2	-0.00196015864092982	-0.00408403233363471	1.64552161178901E-06	-1.52581283140698E-06	2.67835384182641E-06	-6.23667940392018E-06	0.99894619774216	-0.0573492363392757
2.3	-0.00257593711258927	-0.00401401588905544	-1.70219011891337E-06	-3.43188075234583E-06	-1.80905064378231E-06	-4.59976294564617E-06	0.998416458416853	-0.0590822643773817
2.4	-0.00318604413793222	-0.00366856226756793	-1.22052742940298E-06	-4.40902671502505E-06	3.05799337138108E-06	1.07989804877715E-06	0.998399583352161	-0.0621869756333875
2.5	-0.00315553536558719	-0.00321943240995739	5.41481586523315E-06	5.66284802678408E-06	-2.5568457422672E-06	1.61936540894196E-05	0.998109341411675	-0.0648043685437441
2.6	-0.00339050209044975	-0.00351668560365644	-2.27254473299711E-06	2.72458678008681E-06	4.20792408890785E-07	-4.32159470531E-06	0.997784222465157	-0.0680133426745765
2.7	-0.00383093200195819	-0.00340542118001454	-2.42384697124763E-06	-3.63672797861077E-06	2.15097643048906E-06	-2.58332309931341E-06	0.997159084393909	-0.0711983993064475
2.8	-0.00411848628531149	-0.00313123261641207	4.01922752926656E-06	2.30258089319411E-06	9.85083808833314E-06	-7.24398356935E-07	0.997043784236715	-0.0733844403278998
2.9	-0.00410343759778766	-0.0027141343360657	1.29090236799699E-05	6.60658796703329E-07	2.39879568208554E-06	-1.17490558279995E-05	0.996530452736907	-0.0755575376200485
3	-0.00357427583944362	-0.00269962062617711	-3.85521979680861E-06	1.06365362272422E-06	-4.15818030002831E-06	-1.58437903840831E-06	0.996123550945209	-0.0782484717950924
3.1	-0.00371446911927804	-0.00308214058374543	4.74859072006212E-06	-9.87673349284696E-06	1.07083874402475E-05	2.37244750277724E-06	0.995331216579163	-0.0803090882792147
3.2	-0.00396000372462198	-0.00308060196777146	-5.40770789630976E-06	-7.3965280753987E-06	1.56789860153126E-05	5.32944733925699E-06	0.994712403562894	-0.0819791009335529
3.3	-0.00419350274220925	-0.00303119259764413	-8.78989532695208E-06	2.58513912517676E-06	-8.58111578304861E-06	-1.70551751829832E-06	0.994158159254429	-0.0851296253875228
3.4	-0.00443926648850546	-0.00279065636320762	9.0293850106078E-06	-7.60407211181943E-06	-7.32891065182647E-06	4.26864550335047E-06	0.993678570567311	-0.0869166039222197
3.5	-0.00420840944896169	-0.00282472293894026	2.97933979439996E-07	-5.32119836370068E-06	-4.43198264017641E-06	-8.90975005726366E-06	0.993455437157976	-0.0892218285679431
3.6	-0.00472625896663298	-0.00322525396932311	4.08990901585161E-06	4.88459903268576E-06	-7.07393347220823E-06	9.01848059236126E-06	0.99321666007195	-0.0919030532076909
3.7	-0.00536626294014068	-0.00299494038004023	1.50983971377578E-06	-4.53112143952282E-06	-5.12698147339756E-06	-6.5641519945753E-06	0.992865269134165	-0.0945527824506559
3.8	-0.00579400691730801	-0.00251685249539909	7.25385126669156E-06	-5.22034958744758E-06	-5.88486147947251E-06	-2.39397538444462E-06	0.992458590869355	-0.0964538656101175
3.9	-0.00584613346543074	-0.00180797412623556	-4.02741299682193E-06	-3.35933742769471E-07	-2.52456465209269E-06	1.14075707640252E-06	0.992708521449583	-0.0992688113587436
4	-0.00518703203564246	-0.00156857842946447	-3.38421341803443E-06	-6.97324389585475E-08	1.2360795809842E-06	8.66469290592476E-06	0.993582941054627	-0.101724867960843
4.1	-0.00526253319619402	-0.00194099581131683	-2.91600340399699E-06	-3.84499917440298E-06	5.88891931441377E-06	3.00902401252586E-06	0.992047619915531	-0.104941814582212
4.2	-0.00553684778762105	-0.00187418022289158	-7.81954907723696E-07	-2.15054526874819E-06	5.68357330347272E-06	-1.86697117380163E-06	0.990393626246936	-0.107328171619183
4.3	-0.0057517956483655	-0.00165813440216721	-4.95749283755094E-07	3.23125456103778E-06	2.13343614989608E-06	1.76739253710503E-06	0.989677941279774	-0.108961965734265
4.4	-0.005933381376559	-0.00122476419937562	2.5862617442629E-06	3.42280737859227E-06	7.18405070198495E-06	3.87090762467999E-06	0.989058348554218	-0.111092929029059
4.5	-0.00547673474106229	-0.000981658067697122	-6.45211951297549E-06	-1.98395766977298E-07	-8.562289722465E-06	-2.06524127574694E-06	0.98839724829905	-0.113501142685529
4.6	-0.00584785013078066	-0.0013933150708565	-9.94071024278715E-06	-9.1512198137538E-06	3.21258861639748E-06	-2.73215836423482E-06	0.987160942067476	-0.115817683614091
4.7	-0.00637285353315805	-0.00115135650115011	1.31989673353295E-07	1.85745297208201E-06	6.01411961651031E-06	-6.72858750383645E-06	0.986752795241322	-0.117284627716431
4.8	-0.00675487784467407	-0.00066048118172604	-6.36216466072564E-06	2.09231458073166E-06	7.38729584303976E-07	-1.270014624806E-05	0.986216880636709	-0.119321389260963
4.9	-0.00679284934860431	7.91197351972767E-05	-3.38424500617804E-06	8.12036962348414E-06	5.9287724451476E-07	9.3355498496331E-06	0.985740944149031	-0.120743948063599
5	-0.00603482402164158	0.00033671755991723	9.58555834488535E-06	-4.07077813819294E-06	-6.89266600949055E-06	3.58109286167564E-06	0.985621095467735	-0.122124041591907
5.1	-0.00599696848538002	5.16762661085911E-05	-3.72785837409025E-07	-3.23641055976564E-06	-3.86105085992722E-06	-1.77509641577084E-06	0.985426565280209	-0.12327688781076
5.2	-0.0059605203703042	0.000214201083992738	-1.07286631069268E-06	-4.46390514961334E-06	8.75939808755032E-06	5.53135660786922E-06	0.985242471909369	-0.12517666104792
5.3	-0.00580719898123296	0.000416812250799294	2.29112709302533E-06	6.75512407961668E-06	8.75933580763346E-06	3.09826027826072E-06	0.985012560993436	-0.127432148242008
5.4	-0.00549701143070987	0.000805386613243561	2.68480233487138E-06	-3.13086496663752E-06	-2.65992129614925E-06	1.58758987713985E-07	0.984625661001223	-0.130101254675116
5.5	-0.00463972081794343	0.000598793698804531	2.1067280200825E-06	9.26101883510078E-06	-3.90510910712123E-06	-4.99968395797124E-06	0.984365560149788	-0.132405187176039
5.6	-0.00504544876562563	1.28287641549979E-05	-5.82462486767935E-06	-1.12336652392382E-06	4.84745267276315E-06	1.92999400149418E-06	0.983979173699444	-0.134810643512146
5.7	-0.00557735010620338	0.000258930372031381	3.31816109192716E-06	-1.41692683491977E-06	-5.02283913370761E-06	-4.26703264273117E-06	0.983573411926018	-0.136813448054917
5.8	-0.00592899380395861	0.000725293758572049	-2.04339356595683E-06	-4.72056258053223E-06	9.41304479619642E-07	-5.79049132390657E-07	0.983573038246755	-0.138450435939688
5.9	-0.00612849911488503	0.00159811225896482	-3.8602352908885E-06	6.141250338151E-07	3.84237200447356E-06	1.24524506214006E-06	0.984152197114921	-0.140091231666862
6	-0.00530534340109119	0.00219070112230352	-5.91207978149852E-06	5.02788479060127E-06	-1.47887196283101E-06	1.95793431519365E-07	0.985355096114978	-0.143339511220994
6.1	-0.00537306324674076	0.0016061661537141	-5.90226048710779E-06	-4.6712093840641E-06	-3.98687228412652E-06	4.32760584101076E-07	0.983262332242521	-0.146177389922843
6.2	-0.00598426334202091	0.00169169326421175	2.80523597431043E-06	3.10976264398334E-06	1.04716078070273E-06	7.19241645346873E-07	0.981542729551557	-0.146860711277751
6.3	-0.00631795153942198	0.00215952478479812	1.63367751464435E-06	-7.43142978502096E-07	-1.33718474925759E-07	1.3685680834879E-06	0.980680397844644	-0.147665536460619
6.4	-0.00617045021318512	0.00281430505340959	-5.15561541127614E-06	-5.59867685319387E-06	3.79234592836354E-06	6.8804839812536E-06	0.980722168497576	-0.148918368099475
6.5	-0.00523097355324367	0.00251222832557955	9.01999277394466E-06	-2.45471465239446E-07	-7.28521144181592E-06	-8.94479066398335E-07	0.980399417533122	-0.152160009063055
6.6	-0.00562452612463953	0.00204440728098282	-1.47998902299384E-06	4.61373705695313E-07	3.36694799839905E-06	-9.31846733209437E-06	0.979390180077643	-0.153455491863388
6.7	-0.00584808118518879	0.00235618277495927	2.90821713318585E-08	7.70561896051102E-06	-4.76756162943514E-07	-6.05103271636011E-06	0.979721388439452	-0.15471864374074
6.8	-0.00593274637748763	0.00287559153637162	4.21868003766902E-06	1.65994213392587E-06	2.2859990078921E-07	-5.20510417810288E-06	0.980017435390719	-0.156374877760577
6.9	-0.00566573524808425	0.00380521975634744	-7.52243944595171E-07	2.43946931815836E-07	5.7379166820514E-06	-2.64630838605841E-06	0.980566830613358	-0.157864928179278
7	-0.00433423729835918	0.00392399483914758	8.0013236598586E-06	-4.7024021033331E-06	4.44570001613713E-07	-3.00385444823603E-06	0.981202236695903	-0.16016464402262
7.1	-0.00455841802890732	0.00329191997571407	3.82103681974395E-06	2.04973705169352E-06	7.4099411793421E-07	7.20090543091899E-06	0.98025059107343	-0.162145678411002
7.2	-0.00494844937811264	0.00355085318796053	-2.4532528334656E-06	3.66583963259685E-06	-1.31111266669616E-06	-3.81656567850551E-06	0.979580668705917	-0.163221279694544
7.3	-0.0053323256173179	0.00404954535480223	3.42676564628266E-06	-4.76986346612268E-07	-2.43103634889048E-06	-1.9197677061647E-06	0.978750079899176	-0.164212447490006
7.4	-0.00568232010374455	0.00507820094299837	-6.14463581805162E-06	-2.71516782585376E-06	3.7502339040751E-06	2.63750189960155E-07	0.978079850883234	-0.164994125530068
7.5	-0.00468656043986682	0.005927553273366	6.76601276393582E-06	-6.35879842925762E-06	-2.47187814899544E-06	7.79457121890234E-07	0.979895783366953	-0.165892596084944
7.6	-0.00456670325275969	0.00543076879379884	3.43396089203236E-06	5.21039767978569E-06	-1.02413721236418E-05	4.83544199864424E-06	0.980967375825543	-0.170590941902049
7.7	-0.00485252207629768	0.00560181605247138	5.92795967354531E-06	1.09469432556673E-05	4.1452915034127E-07	-1.13188122995946E-05	0.980577463106053	-0.174509678625568
7.8	-0.00472240596143577	0.00590624010788804	2.14220265003431E-06	9.97458629282342E-07	-3.1640290759387E-06	8.77117278162201E-06	0.980355871930984	-0.177736593330899
7.9	-0.00395470712536112	0.00626270748474057	2.56699138523544E-06	-2.28723000889051E-06	3.67728048332559E-06	3.73207463946832E-07	0.980909545422724	-0.180484764572497
8	-0.00262931041687817	0.00531651272041873	-2.82473458313869E-06	1.30658459561271E-06	6.89466162280304E-06	-1.80259031889188E-06	0.982254767269215	-0.185137075134379
8.1	-0.00293239440485971	0.00443427259225614	-1.79726902565335E-06	7.43459499188714E-07	-3.70126090012245E-06	-1.27985832910751E-06	0.980142306244377	-0.188910322876033
8.2	-0.00321678916230603	0.00432645289857323	-8.36986771411124E-07	6.33130258270188E-06	4.84896578419337E-06	4.38842058554633E-06	0.979275068487207	-0.19072674823493
8.3	-0.00344955422589861	0.00452569121241919	-7.64293479198679E-07	-1.42299709067147E-05	6.79594060063679E-06	5.47486230736424E-06	0.978804816294604	-0.193038366298331
8.4	-0.00340585941391346	0.00532533742621853	3.78368673135931E-06	-3.41058921985005E-06	-6.97148905050097E-06	-1.26036576164998E-06	0.978473335494077	-0.195452028094568
8.5	-0.00220381227271609	0.00544944397772136	4.67088953246665E-06	6.12738048906265E-07	8.45349254488877E-06	-6.78536862404553E-06	0.977996604830286	-0.198340258167486
8.6	-0.00237903251701898	0.00485084459546937	-3.29787574926048E-06	4.09643660153304E-06	9.34153834574971E-07	1.11080776233097E-05	0.977641563681915	-0.200586516628626
8.7	-0.00263767647596794	0.00506053859504012	2.7011208119322E-06	-1.98410500972353E-06	4.83108766644911E-07	-5.5140048763504E-07	0.977935814021818	-0.20304367714176
8.8	-0.00271533236922204	0.00554571181747218	1.30345377787772E-07	-1.25539598094136E-06	-1.03694145513343E-06	9.78590646023478E-06	0.978124100126164	-0.205504864922119
8.9	-0.00238200823105423	0.00638470232354692	-3.68853033420627E-06	2.27869444160091E-06	4.85897044978642E-06	-1.78079021421677E-06	0.978543434453399	-0.207852024692287
9	-0.000843515693498614	0.00650554027956502	-1.89870084255536E-06	4.87678956808471E-07	-3.15586162265443E-06	-1.05864930839065E-05	0.978728018038177	-0.210421838641289
9.1	-0.000330310243241636	0.00556279671497967	5.26619927857278E-06	6.24113406059942E-07	9.13743450878603E-07	3.88790191236666E-07	0.978629205573095	-0.212897735176448
9.2	-9.78533855161265E-05	0.00504840364861055	-8.72919247221935E-06	-4.64633599429251E-06	-8.48484189187389E-07	-6.15630835787124E-06	0.978138955230342	-0.215606357179096
9.3	2.83074170565452E-05	0.00467483847747565	1.52719275825047E-07	6.24153125978916E-06	4.67014355216295E-06	-2.17565840644881E-06	0.977629075523504	-0.218002324297629
9.4	0.000356803271008992	0.00466895505409703	-1.96983564571955E-06	5.89601916664071E-06	-1.05890142027791E-05	7.71079543076919E-06	0.976997362735975	-0.220368563123207
9.5	0.0011616200741708	0.00390418480955784	3.25004482798932E-06	-7.57602330440523E-06	3.71637724482859E-06	-2.72777575904067E-06	0.977404726901926	-0.222653734528655
9.6	0.000509445209304081	0.00304852368811241	4.48607506503501E-06	5.63534712473813E-06	-6.90601748977303E-07	7.10451037999818E-06	0.97739195276801	-0.226400523784663
9.7	-7.67634756886086E-05	0.00305545569547991	-2.59535374118458E-06	-3.9767761485027E-06	3.75976760295958E-06	-7.54297853916021E-06	0.977049162335133	-0.229236390487265
9.8	-0.000580822922604351	0.00338044165680861	-5.02141963538248E-07	-4.24376732073802E-06	6.30888930608784E-06	9.33362960803906E-07	0.977273675018795	-0.231427870116243
9.9	-0.000719423192762786	0.00426727489783952	-2.70455264198108E-06	-6.16262192080094E-07	-8.6020545844047E-06	5.47291810238979E-06	0.97795083273205	-0.233194363730593
10	0.000249839881252219	0.00441594715054305	4.41306360714347E-07	-1.7653229766978E-06	-3.07295718252002E-06	-8.0584835423443E-06	0.97919825201737	-0.236861496754734
10.1	-6.37589056914667E-05	0.00390275547452318	2.24592188038844E-06	4.81850483149744E-06	-3.1646275703533E-06	9.91961527458392E-06	0.97757819892165	-0.239799134996351
10.2	-0.000515997135910807	0.00417365721542729	-5.38599445853855E-07	-1.05934286639781E-06	-1.2087338378163E-06	-3.14684253250172E-06	0.976887204739665	-0.241493379631644
10.3	-0.000741883429207377	0.00488382026531419	1.14144129934084E-05	-2.92195574970309E-06	1.01588772914958E-05	-4.85560329952446E-06	0.976344986117097	-0.243792061328457
10.4	-0.000262918660077516	0.00597634289529368	-6.38277809744164E-07	2.16623301200538E-06	3.06285535406962E-06	-2.19938379927134E-06	0.975655959988941	-0.246768345653097
10.5	0.0012855979433546	0.00601169515383457	-6.16401152224816E-06	4.67630582907074E-06	1.58067878027809E-06	4.34279278953858E-06	0.974009369617144	-0.250574914280519
10.6	0.00154039261473071	0.00534416971647433	-7.17202922141104E-06	1.07639985640072E-05	7.07826539446376E-06	4.31066176810518E-06	0.97245641610292	-0.252975345549228
10.7	0.0015851440961867	0.00529635421605302	-3.24265724351643E-06	1.57850043665496E-06	-5.41504898984893E-06	3.19423941534405E-06	0.971433942877839	-0.255732173120684
10.8	0.00170348507961694	0.00558727538396009	-1.94324859193126E-06	5.03484545810866E-06	8.57674001944467E-07	-3.23096598059119E-06	0.970525571167973	-0.25773116172957
10.9	0.00225968998719816	0.00627282479890677	-5.81149941165707E-06	-1.06118359696914E-05	4.98586792621177E-06	1.07930453478337E-05	0.970193010760504	-0.259535365095321
11	0.00386173270709819	0.00598897117620377	2.99428869241297E-06	2.63300530276486E-06	7.7968176481912E-07	-1.13305822518949E-05	0.970043831467595	-0.260974290056937
11.1	0.00404576115599757	0.00512346118241759	3.89350060194024E-06	1.46323114886972E-06	2.44428949668409E-07	-7.43712040611482E-06	0.970048777298861	-0.262660371288468
11.2	0.00414041462774914	0.00481782633622369	-4.45791570459399E-06	-1.97636813867313E-06	-7.39643690526374E-06	-4.87223256320915E-06	0.969818503725328	-0.26490713303695
11.3	0.00423197150270105	0.00474547674890117	6.47379836423666E-07	-6.42975310921336E-06	3.84214335098743E-06	1.42370142083779E-05	0.969262682889205	-0.267315606491099
11.4	0.00453314229956519	0.00501780933892695	-5.12272165870263E-06	8.21342250596871E-06	-1.45429574767887E-06	4.10845521521794E-06	0.968054951554193	-0.270068133701221
11.5	0.005661355068424	0.00439462557348043	4.57256151257458E-06	8.13346111998865E-06	-9.34352738213949E-06	1.61408763932492E-06	0.968032697685912	-0.273031574299065
11.6	0.00544419042624517	0.00336448983779011	-3.86336440373999E-06	1.42372665428963E-06	5.14128768745582E-06	8.17506059082949E-06	0.966813373633479	-0.277886635686539
11.7	0.00516960507053333	0.00310489029920558	2.30706135713644E-06	1.05878766149792E-05	5.29143433636666E-07	-3.67520525369319E-06	0.965330589450853	-0.282272973601183
11.8	0.00519011346959596	0.00321728087976758	1.45787698302683E-06	4.48308226019563E-06	2.28441790287351E-06	4.55387611643196E-06	0.963901907066461	-0.286485240463177
11.9	0.00614152461404677	0.00353795917033355	7.54266560099976E-06	1.06073572394914E-05	3.91104542351521E-06	3.90746721601332E-07	0.96363133480652	-0.28967865899675
12	0.00736190431075585	0.0024676803667168	2.34167742635049E-06	-5.21263089996081E-06	-3.96878180169691E-07	1.76820147377393E-06	0.962555409395268	-0.29425389776751
