# GHZ S RI R 50
0.2	0.00108517779072065	0.00242736994871719	4.79024967296891E-06	-2.98533566993732E-06	-1.37153779438448E-05	1.31184780089349E-05	0.999375929446415	-0.00723470164460132
0.3	0.00149869075487205	0.00157421765861134	2.86672059039908E-06	6.62185154278313E-06	-1.66609043721839E-06	-9.31540471529916E-06	0.999197894619274	-0.0102684361829795
0.4	0.00175419268898841	0.000920467795179088	-1.86303313273639E-06	-4.01268087028421E-06	-9.00816828340545E-06	4.40457924270873E-06	0.998954815082756	-0.0131382498149822
0.5	0.00152532717955648	0.000496817857025527	-5.35494347781818E-06	3.26202600236574E-06	-2.12418221716198E-06	6.75360616263984E-06	0.99820178413403	-0.0159490081305035
0.6	0.00176613176188696	0.000439437080166513	-1.38696044142947E-07	2.80481081779894E-06	-5.81299279013296E-07	-1.33868651877177E-07	0.998544732318697	-0.0185256996386514
0.7	0.00187351179239511	8.65271529793368E-05	8.88530881599885E-08	2.21798243389662E-06	4.8995862381249E-06	-3.40207700552746E-06	0.998281924302582	-0.0215209697453559
0.8	0.00193714801267283	-0.000204540476103055	4.52611054078577E-06	8.23482024270491E-07	2.74320854113022E-06	1.99812048064154E-06	0.998074624797968	-0.0236620863194841
0.9	0.00202364927267094	-0.000555526857245629	-1.53477045364672E-07	-4.21502718582386E-06	-3.41662637847999E-06	-3.10569198212405E-06	0.998125856471782	-0.0262012517139101
1	0.00171011011473282	-0.00126473632269941	1.05979322254851E-06	4.28711771528348E-06	3.32371541340726E-06	9.3187866287816E-07	0.997509707963972	-0.0283606016619451
1.1	0.0011855582742205	-0.00128209142017734	9.03358210819995E-06	5.16797667769163E-07	-3.57444789369251E-06	-4.9835802620994E-07	0.996702044370691	-0.0302380700787952
1.2	0.000894121319528609	-0.00194152443550947	3.75547410907763E-06	-1.19859502541422E-06	-4.09138594398125E-06	-2.43382223479291E-06	0.99561442139772	-0.0314050683307307
1.3	1.23052079370275E-05	-0.00290533812708914	-7.60551572636018E-07	-1.42450784423826E-06	-2.583826268358E-06	-8.69273756786941E-06	0.995034940035767	-0.0321372543954316
1.4	-0.000887032657076903	-0.00369974671282779	1.45278239510845E-08	3.4427116042301E-06	-4.27598893888422E-06	-4.12112440264989E-06	0.994749331503907	-0.0338114159806383
1.5	-0.00158701934675663	-0.00389089529772532	-1.29538452177228E-06	4.42533298996561E-06	6.5432403018133E-06	-7.40746859591323E-06	0.995217147544454	-0.0370047418431395
1.6	-0.00138016531556797	-0.00357022919201529	1.62770478930057E-06	-4.8921667390643E-07	4.23576128348881E-06	-5.39019000777402E-06	0.995263471925835	-0.0397949006937818
1.7	-0.00121104083432321	-0.00361701091220292	5.31981457576821E-07	3.95330612936533E-06	-8.27560310156657E-06	3.12875890392767E-06	0.996077511778943	-0.0421848764669287
1.8	-0.00113199302944641	-0.00357760109510866	1.83101394526268E-06	1.07721606721223E-06	5.64713241049915E-07	-1.7604586089637E-06	0.996507229772083	-0.0449449749776317
1.9	-0.00110678147404095	-0.00379816792426418	3.23496640106098E-06	3.015020126136E-06	-1.83587919973949E-07	-2.32880901731465E-06	0.996748302876954	-0.0478014632424246
2	-0.00169491178973733	-0.00397114639757259	-1.7243362818963E-07	2.00262803922934E-07	-1.21452473346068E-05	5.41712743023874E-06	0.994899959499895	-0.0511922095000386
2.1	-0.00178135740261985	-0.00359665784068193	6.67341570960408E-07	-1.38027318771856E-06	1.37883211952985E-05	4.95992156084959E-06	0.994367881743306	-0.0518505861716617
2.2	-0.00185720574744514	-0.0036909605882503	1.64282269585867E-06	-1.51479835840097E-06	2.68439984621461E-06	-6.20291624944189E-06	0.994945530677362	-0.0538787056367187
2.3	-0.00214218689034441	-0.00380336807074076	-1.68531613490944E-06	-3.42321992574663E-06	-1.78831576291915E-06	-4.58676524263569E-06	0.995007028755051	-0.0556301407249339
2.4	-0.00241486887389145	-0.00399292922839611	-1.20115485998492E-06	-4.3953435658245E-06	3.04217834534167E-06	1.08560500205461E-06	0.995343918550588	-0.0589036472795331
2.5	-0.0032329116994353	-0.00439032486955549	5.37285926033103E-06	5.66518601581498E-06	-2.61394950180568E-06	1.612679332824E-05	0.994793537677152	-0.0616188001347449
2.6	-0.00401470976198625	-0.00387735997340812	-2.27604666667312E-06	2.70843260355925E-06	4.35466296354911E-07	-4.30767027232016E-06	0.994509828541113	-0.0644624502985692
2.7	-0.00430464211907429	-0.00341963209377571	-2.40297713445752E-06	-3.63410339143747E-06	2.1536096227898E-06	-2.56736008541688E-06	0.993746656158054	-0.067302011999534
2.8	-0.00431607750531215	-0.00296377737050203	3.99628698084822E-06	2.31142099848641E-06	9.82083433590146E-06	-6.81408352228905E-07	0.993742303215501	-0.0687963996422881
2.9	-0.00403824434854841	-0.00282474721693256	1.28641715884422E-05	7.21772030153759E-07	2.44862276357883E-06	-1.16994278155646E-05	0.993686137846034	-0.0704704567186783
3	-0.0041790648953579	-0.00286006729192749	-3.85214343397819E-06	1.04068392804535E-06	-4.14029708432249E-06	-1.60295553051238E-06	0.993601023900768	-0.0728518252540052
3.1	-0.00387798837932002	-0.00253205673456715	4.78838712502561E-06	-9.83067910118525E-06	1.06725952646692E-05	2.42174073219001E-06	0.993294186931815	-0.0744050139689748
3.2	-0.00370068898585114	-0.00270800616447814	-5.35537561677898E-06	-7.41119008291667E-06	1.5616781006904E-05	5.40546556768735E-06	0.993273934046492	-0.0758044761660876
3.3	-0.00371283443607895	-0.00289226544027867	-8.791228925459E-06	2.52742950613515E-06	-8.55668760908956E-06	-1.75493075406476E-06	0.993454254758768	-0.078684165031965
3.4	-0.00383134260031152	-0.00316054852761778	9.07410660589267E-06	-7.53929749689969E-06	-7.35257639210991E-06	4.2172817921133E-06	0.994170110046122	-0.0805135316247389
3.5	-0.00451561611564118	-0.00345062453431995	3.27718527179935E-07	-5.32351093258518E-06	-4.38578844993885E-06	-8.94101591447295E-06	0.994322005755411	-0.0842788140409686
3.6	-0.00479860099923824	-0.00297686334723471	4.06472063486837E-06	4.90461896248563E-06	-7.11855482569262E-06	8.98160369464179E-06	0.99341583195245	-0.0864948676942695
3.7	-0.00489861775692426	-0.00293283685814751	1.53518132173911E-06	-4.52270018302527E-06	-5.09030291106086E-06	-6.59284826738296E-06	0.99381944835558	-0.0887873397696179
3.8	-0.00509826909994877	-0.00289893351868663	7.28803081984666E-06	-5.18195269383428E-06	-5.87466400317722E-06	-2.42906722855764E-06	0.994278780792163	-0.0910616363486906
3.9	-0.00526008947827202	-0.00296566942240179	-4.03011828977476E-06	-3.5673111609932E-07	-2.53311527886047E-06	1.12919983420667E-06	0.994897254965392	-0.0953714570289138
4	-0.00604127240627447	-0.00299828958706144	-3.38253839928286E-06	-8.59302409020675E-08	1.19404749669603E-06	8.6671866165464E-06	0.992820087457149	-0.0982716211276478
4.1	-0.00624544921060511	-0.00211637868807732	-2.89093987482239E-06	-3.86500345410076E-06	5.86989846289298E-06	3.04864055969041E-06	0.991887689846168	-0.0984551326533374
4.2	-0.00608608815900041	-0.0017544874272501	-7.68681444926364E-07	-2.15847565491533E-06	5.70320752758745E-06	-1.83163689118073E-06	0.991779480065837	-0.100672972603587
4.3	-0.00596022957899855	-0.00150981928175069	-5.17195256636081E-07	3.23364513867777E-06	2.12583620102354E-06	1.78402582026142E-06	0.991827419222919	-0.102578156217637
4.4	-0.00585293596639554	-0.00147679274005863	2.56849513124639E-06	3.44536696011504E-06	7.17119431046678E-06	3.92399630048244E-06	0.991512823061801	-0.105016483109932
4.5	-0.00638207959114805	-0.00155396344535103	-6.46838582017418E-06	-2.483810375201E-07	-8.57006870029055E-06	-2.13654170652522E-06	0.991053572783378	-0.106713297714911
4.6	-0.00661731131733243	-0.000773693391070485	-9.92506643467388E-06	-9.25662571332002E-06	3.24464976406761E-06	-2.7233090424103E-06	0.99149299848525	-0.109164873651393
4.7	-0.00649143927663543	-0.000417390288413975	1.22086743696277E-07	1.86666007216913E-06	6.0795649248639E-06	-6.72522551838439E-06	0.991763489123871	-0.11138578649611
4.8	-0.0064306126828522	-8.38312598902587E-05	-6.40252456493607E-06	2.06820865955694E-06	8.09461382891152E-07	-1.27546521864299E-05	0.991680033179156	-0.113932282848442
4.9	-0.00614217400209717	9.34874755910589E-05	-3.44456481740017E-06	8.14098379214083E-06	5.4505439067554E-07	9.38358351245393E-06	0.991768628727084	-0.115827938856247
5	-0.00628085505377107	8.27101000667337E-05	9.66653764071886E-06	-4.04571221058364E-06	-6.95433195788718E-06	3.5671338329956E-06	0.992132176084283	-0.117841397416323
5.1	-0.00570445721572286	0.000577626106310092	-3.62589323899281E-07	-3.25822929027685E-06	-3.87847734234687E-06	-1.80123523587995E-06	0.992387253319473	-0.119584511847015
5.2	-0.00512135112062093	0.000235613550555773	-1.06322337332164E-06	-4.49496016755759E-06	8.79266930366321E-06	5.59675635606099E-06	0.992530075336513	-0.122221653695066
5.3	-0.0049767377368174	-0.000186165452266408	2.28035031347368E-06	6.80574555139966E-06	8.80245862722617E-06	3.1500780957346E-06	0.9924705128551	-0.125059485354939
5.4	-0.00506258050978826	-0.000554366801368501	2.71682473241848E-06	-3.14238581611123E-06	-2.67965229487674E-06	1.49057455492989E-07	0.992673305293629	-0.128289995914852
5.5	-0.00599503247963162	-0.000522817198971655	2.10399502947387E-06	9.34944800048406E-06	-3.92858476608776E-06	-5.05391636415445E-06	0.992190639783798	-0.132336406481938
5.6	-0.00580459733717938	0.000511250795949446	-5.86917709317216E-06	-1.13727665233438E-06	4.88365468153564E-06	1.94935080053206E-06	0.991014062833721	-0.134404381267286
5.7	-0.00549707579400939	0.000674147112433103	3.34467790343441E-06	-1.42498525633709E-06	-5.057642876753E-06	-4.3037958679978E-06	0.991266896283372	-0.136510121610929
5.8	-0.00541980001611931	0.000820925444522789	-2.05818409957886E-06	-4.75849439150095E-06	9.48918147034574E-07	-5.83355623109727E-07	0.991919646620732	-0.139054923391418
5.9	-0.00524868804136738	0.00085007857952549	-3.8890541009186E-06	6.23406689707986E-07	3.87326059103675E-06	1.25021687319119E-06	0.992442001481155	-0.143009668143471
6	-0.00607393395879245	0.000358114419042151	-5.93610976235086E-06	5.05757933224338E-06	-1.48584793210482E-06	1.98084497911514E-07	0.989229345968283	-0.146746952168716
6.1	-0.00679034607567902	0.00146553045395475	-5.93198324466751E-06	-4.70733671628291E-06	-4.01166070607419E-06	4.30154749342784E-07	0.987975307576615	-0.14589206231
6.2	-0.0067980543909362	0.00211578649581848	2.82367782594071E-06	3.13449901962293E-06	1.05434806688241E-06	7.25236277068477E-07	0.987982608964411	-0.146809109199399
6.3	-0.00654531875464144	0.00266365463067144	1.64574311089694E-06	-7.49225464799239E-07	-1.34312108772733E-07	1.37890352360616E-06	0.987716079718495	-0.148540461893106
6.4	-0.00603587655422399	0.00258641703758973	-5.19478208980441E-06	-5.63141514478137E-06	3.82356391523285E-06	6.92293501713119E-06	0.987174081244877	-0.150948293675908
6.5	-0.00638696948195649	0.00244340002910492	9.08404596835565E-06	-2.37574497038859E-07	-7.33577852426982E-06	-9.08585297026976E-07	0.986246615813134	-0.15217460737295
6.6	-0.00574684268657843	0.00288240494302284	-1.49378290272171E-06	4.66635257742642E-07	3.3934330032144E-06	-9.40903131830587E-06	0.988427423351319	-0.154542608122955
6.7	-0.00552125081567026	0.00267670345320869	4.79285641249E-08	7.7775539104055E-06	-4.95797407936657E-07	-6.10642727527127E-06	0.988809570745178	-0.158091500658249
6.8	-0.00544511130388145	0.00289864597513472	4.26186196970626E-06	1.66007524872049E-06	2.12617472374635E-07	-5.25208714846489E-06	0.988668145431267	-0.161030820036796
6.9	-0.00508032616159401	0.00294184973246402	-7.57541825085836E-07	2.49066264960777E-07	5.77511364490356E-06	-2.69193194746837E-06	0.988728021356603	-0.164001193030323
7	-0.00581312354275617	0.00299465734318392	8.04591263729292E-06	-4.77653866430101E-06	4.34835972032445E-07	-3.03043392644947E-06	0.98701269718586	-0.166723153327814
7.1	-0.00535162747559441	0.00432525162511008	3.86184637113864E-06	2.04664252198552E-06	7.83455064634119E-07	7.25443512063509E-06	0.986404826128461	-0.167296184837417
7.2	-0.00468394854761147	0.00452107098325758	-2.45222538261233E-06	3.70718487915157E-06	-1.34179107721169E-06	-3.83871281415059E-06	0.986460502753001	-0.168693672119789
7.3	-0.00440724160026635	0.00470041804123096	3.45048285865837E-06	-4.9937914565705E-07	-2.46020365944203E-06	-1.92122862863279E-06	0.986332761430222	-0.170061925520862
7.4	-0.00402060905973581	0.00471465772473692	-6.2153060782423E-06	-2.70485223917858E-06	3.78548423299403E-06	2.449114612402E-07	0.987698317005838	-0.172294436568683
7.5	-0.00464373750653217	0.00411766327323808	6.7717299447631E-06	-6.48538555643209E-06	-2.48865140038933E-06	8.10599026870905E-07	0.988081823213946	-0.178631412036211
7.6	-0.0048607397118467	0.00520595764270173	3.5097566900818E-06	5.20819609528096E-06	-1.02568301986588E-05	4.97219258037503E-06	0.985266636850187	-0.182062283173087
7.7	-0.00447970109960677	0.00533724587715552	6.06980375128665E-06	1.09508027884743E-05	3.05155281288828E-07	-1.13874020145646E-05	0.984931693855187	-0.185462373693962
7.8	-0.00408076866516744	0.00510819650954613	2.16440463658628E-06	9.80929476837729E-07	-3.09123119733292E-06	8.85259519366499E-06	0.984712629770886	-0.18967947673199
7.9	-0.00370459771572318	0.00453022854665607	2.55244902105972E-06	-2.32974986893727E-06	3.70041758179616E-06	3.30797931509964E-07	0.983884576565983	-0.195034539938262
8	-0.00463785490100217	0.00427752568701867	-2.80895838828156E-06	1.34505421362012E-06	6.87466051474754E-06	-1.89567167388196E-06	0.978295467946868	-0.199476141200746
8.1	-0.00377017159651643	0.00503254128961804	-1.7887065795071E-06	7.61118739307174E-07	-3.7119412669126E-06	-1.24181185310727E-06	0.976732971530159	-0.198039509887667
8.2	-0.00329627493826674	0.00476445821865617	-7.76553035216007E-07	6.33745185822935E-06	4.88930359977817E-06	4.34106575992206E-06	0.977026941752485	-0.199496932504049
8.3	-0.00308349777145127	0.0047144951155477	-8.99101039275447E-07	-1.42117142331572E-05	6.8427877212263E-06	5.40597305928011E-06	0.976504740630251	-0.201954669624068
8.4	-0.00273221874122958	0.00456642289738371	3.74611505906415E-06	-3.43762958011858E-06	-6.96926651120245E-06	-1.19602486601116E-06	0.975458087356801	-0.204452864069536
8.5	-0.00359063349433787	0.00435528803392845	4.67110636652797E-06	5.79070329594144E-07	8.39789821644188E-06	-6.83932330482274E-06	0.97427820137766	-0.206117242839147
8.6	-0.00327633812536176	0.00575333349406479	-3.26079376542055E-06	4.12499654189563E-06	1.03281501996517E-06	1.10976376781088E-05	0.974708157314814	-0.208257179212442
8.7	-0.00246937241949379	0.00598383825736231	2.67810337485596E-06	-2.00711519542674E-06	4.77105470383725E-07	-5.55226960907565E-07	0.974657541683251	-0.211110688621469
8.8	-0.00186015560594507	0.00612101795879858	1.18063328800083E-07	-1.2531649781845E-06	-9.41144235648397E-07	9.76871400177814E-06	0.974278082776326	-0.213548735544583
8.9	-0.00097601143065937	0.00591137078227297	-3.65466118050239E-06	2.30085375925513E-06	4.82467591793748E-06	-1.81481579095472E-06	0.974270899534336	-0.215677792412492
9	-0.0010329593614721	0.00517178111747938	-1.88946211465205E-06	5.00270140082162E-07	-3.22476995926179E-06	-1.05317521715576E-05	0.974036951818833	-0.218265236305017
9.1	-0.000411666205491631	0.00537643791888541	5.2529928535199E-06	5.77871193099095E-07	9.13798717288846E-07	3.79785112353929E-07	0.973297473902371	-0.220428915545471
9.2	0.000148085306245176	0.00458067248259298	-8.72726313831143E-06	-4.5577804089631E-06	-8.92869820354584E-07	-6.12271462717208E-06	0.972377577847727	-0.222668462207506
9.3	0.000158397215506956	0.00397089516136684	1.95482192996345E-07	6.21252725934881E-06	4.63409260441059E-06	-2.19842715259238E-06	0.971837609782971	-0.224437328081135
9.4	0.000229400666042681	0.0034017380748557	-1.92593428904084E-06	5.88763569655733E-06	-1.05034190737948E-05	7.75007965434848E-06	0.972010949916025	-0.22683957044339
9.5	-0.000650682049375178	0.00335260561211392	3.17688337045312E-06	-7.58710647617757E-06	3.684272394171E-06	-2.75388256695732E-06	0.971389703406691	-0.23107752066169
9.6	-0.000108080460747721	0.00410130957284522	4.51786752219409E-06	5.56456643239435E-06	-6.19176227055462E-07	7.07603192370317E-06	0.969751737587246	-0.233433927645525
9.7	0.000301853147210822	0.00381955560863864	-2.61506897358093E-06	-3.93014656684068E-06	3.67067643627793E-06	-7.53131629145656E-06	0.969590246960351	-0.235584717241096
9.8	0.000363157377954727	0.00366734156383615	-5.36008098192337E-07	-4.2127459095059E-06	6.27742555071925E-06	8.72471025543346E-07	0.970097503369407	-0.238061508651095
9.9	0.000564811480470882	0.00342244958081217	-2.69136061782483E-06	-5.84892772212195E-07	-8.48599175355891E-06	5.51954964567651E-06	0.969930599318933	-0.241993969898163
10	-0.000476730147499572	0.00298166871347047	4.20521600378876E-07	-1.74899024243138E-06	-3.10944312330987E-06	-7.93862489255539E-06	0.965113384414445	-0.244130094828044
10.1	-0.000521564600043161	0.0041074824983747	2.24742150339059E-06	4.7549020864047E-06	-3.07801460117517E-06	9.83003498695486E-06	0.96538358117839	-0.242006879212905
10.2	-0.000208241291085964	0.00434756098661406	-5.38603932228205E-07	-1.04622852572144E-06	-1.21259476524911E-06	-3.10984346862801E-06	0.966435332154656	-0.243628270677662
10.3	7.76457276481978E-05	0.00469786554847066	1.12846761894975E-05	-2.95025798634328E-06	1.00320056850402E-05	-4.85808101948312E-06	0.966176927976612	-0.246274670800652
10.4	0.00080138198074423	0.00461701440943825	-6.21339035932683E-07	2.14450255666695E-06	3.01824913562776E-06	-2.18812750493552E-06	0.964621254153457	-0.249534018688086
10.5	0.000336428800098505	0.00425506707289844	-6.08963579291605E-06	4.6366491498747E-06	1.57117489605593E-06	4.2933514503191E-06	0.962209434706585	-0.251145518477637
10.6	0.000722657014786519	0.00485185511237048	-7.07479816175465E-06	1.06823735149057E-05	7.02347183973925E-06	4.25054430642489E-06	0.961846349508142	-0.253570702038313
10.7	0.000894324693284177	0.00497666368126857	-3.20419007086995E-06	1.57142907246124E-06	-5.34918909157672E-06	3.17659793622493E-06	0.959928222458855	-0.255999422097688
10.8	0.00120611965404911	0.00560067778201357	-1.91067676800871E-06	4.98132634687775E-06	8.41220194732346E-07	-3.19581966624736E-06	0.958408884022783	-0.256683111210715
10.9	0.00230794233954023	0.00569537600637129	-5.74666199506493E-06	-1.04839586726592E-05	4.93087771992227E-06	1.06633326179823E-05	0.95864904600111	-0.257192236240917
11	0.0021791853044888	0.00542350193314598	2.96014071424351E-06	2.60815202892456E-06	7.82500413972813E-07	-1.1210314183861E-05	0.958385596766212	-0.2575429102013
11.1	0.00324553167942196	0.00619652796030489	3.85158818095054E-06	1.45108241987003E-06	2.47901942430165E-07	-7.35912981131281E-06	0.959408553140731	-0.257684856209633
11.2	0.0043089301591565	0.00571086906295078	-4.40676485200403E-06	-1.96286083850851E-06	-7.30883028005097E-06	-4.83275631218925E-06	0.960266700800326	-0.259134656683529
11.3	0.00498973560184835	0.00512754017232417	6.60284365229556E-07	-6.36145948132366E-06	3.75915258734039E-06	1.4101862867587E-05	0.961192067360747	-0.260945555078562
11.4	0.00560268432543482	0.0043042543038113	-5.11426658334478E-06	8.12124177822935E-06	-1.45953254879293E-06	4.06710856140192E-06	0.96238216055546	-0.26412650516905
11.5	0.00482553623264689	0.00350793370805201	4.52467711532391E-06	8.08174047727337E-06	-9.27771850246822E-06	1.58581238564352E-06	0.960882800371385	-0.27001210689952
11.6	0.00533026091347229	0.00398789452223825	-3.82866085836998E-06	1.4012429084141E-06	5.07285714456784E-06	8.10632915874397E-06	0.958198978981015	-0.272235682232362
11.7	0.00601870707877719	0.00339871519251226	2.24402246223041E-06	1.04936283578283E-05	5.38075915473295E-07	-3.63739350868481E-06	0.958236624008715	-0.275429602592873
11.8	0.00657287476897741	0.00270204242205681	1.42472256131749E-06	4.45003801533931E-06	2.24363609669886E-06	4.52394231382479E-06	0.958387028558139	-0.280109331439406
11.9	0.00693047367649796	0.00131005168416844	7.43717832179775E-06	1.05412182526317E-05	3.87504962938163E-06	4.01608777776267E-07	0.95724162054913	-0.285891263181599
12	0.00549625470379838	0.000266501043721277	2.3355489543283E-06	-5.14001945510757E-06	-3.9958077670598E-07	1.74525129765472E-06	0.950521310091789	-0.288844949176104
