# GHZ S RI R 50
0.2	0.000313247635622523	0.0020169251406094	4.80549859749666E-06	-2.98390656133095E-06	-1.3766552051861E-05	1.31242543313093E-05	1.00056478305881	-0.00620619540873048
0.3	0.000848399192525513	0.00155032897448373	2.86327187333077E-06	6.64246691055751E-06	-1.65548310588243E-06	-9.3406813486453E-06	1.00078004545005	-0.0089183329231584
0.4	0.00123069845723598	0.00151937141740312	-1.86384534160744E-06	-4.02781498045664E-06	-9.04242633247882E-06	4.40710922742685E-06	1.00145948831041	-0.0114259058483851
0.5	0.00222556835461021	0.000999947980745813	-5.36987769790934E-06	3.27163627058941E-06	-2.12972486705777E-06	6.77287686714357E-06	1.00185092333137	-0.0156677032813544
0.6	0.00180787688418817	-6.41925316650541E-05	-1.415471113974E-07	2.81028564436572E-06	-5.82337466396254E-07	-1.34669503925099E-07	1.00091441113523	-0.0186478679600519
0.7	0.00137352599620916	-7.81034804113809E-05	8.59626231402133E-08	2.22413020547387E-06	4.91769332525845E-06	-3.40439633816303E-06	1.00071502091836	-0.0211659442540562
0.8	0.00119470872501088	-8.01173777762208E-05	4.54016418240562E-06	8.32702233510869E-07	2.74959011636731E-06	2.00875184117958E-06	1.00067198613801	-0.0232315027876761
0.9	0.000790858693739014	0.000189906381298599	-1.48466275876413E-07	-4.23291235199739E-06	-3.42679056586806E-06	-3.1233017649717E-06	1.00066611987264	-0.0252713601160864
1	0.0014748070016293	0.00109367793876477	1.06417478902536E-06	4.30939531596513E-06	3.34055292706397E-06	9.37486445268722E-07	1.00168643448242	-0.0264204209133641
1.1	0.00199237680085357	-2.14362611329291E-06	9.07629126851703E-06	5.16323490968751E-07	-3.5914418428013E-06	-4.99554350967502E-07	1.00186537751846	-0.0295591082550829
1.2	0.00141655648478143	-0.000544225453994791	3.77452474649404E-06	-1.2060685852367E-06	-4.11339980446817E-06	-2.44505233499826E-06	1.00134585243715	-0.0305940776086264
1.3	0.000893788130293438	-0.00125296252921839	-7.65935167123508E-07	-1.43179217283385E-06	-2.6052617334716E-06	-8.73886806864836E-06	1.0018646815199	-0.0316807883295843
1.4	0.00012816311607291	-0.00205869885154099	1.8641662236445E-08	3.45990105358058E-06	-4.30219770460745E-06	-4.13670220712849E-06	1.00136320487677	-0.0340315845164564
1.5	0.000231133491525164	-0.00290536791843334	-1.29791178519001E-06	4.44490669922872E-06	6.56596780146747E-06	-7.44314862136013E-06	1.00214540970187	-0.0376916000331832
1.6	-0.000884215834160222	-0.00362544694066609	1.6344226787126E-06	-4.92028229113337E-07	4.25140482827426E-06	-5.4150512071068E-06	1.00085068259641	-0.0419802610474179
1.7	-0.00129542484620613	-0.00322885908091525	5.37202332596333E-07	3.96988065418953E-06	-8.30880191719975E-06	3.1483380667802E-06	1.00068360931276	-0.044494447141274
1.8	-0.0014369487721775	-0.00290349274905898	1.83947477694001E-06	1.07971759912242E-06	5.65220360853746E-07	-1.76812025083714E-06	1.00029708116282	-0.0471654724200033
1.9	-0.00147834617045253	-0.00243016428346667	3.24814316774582E-06	3.02518674994793E-06	-1.85090377645609E-07	-2.33747145717707E-06	1.00004709800889	-0.0484042984025735
2	-0.000509954651198814	-0.00249472629502856	-1.73566697876005E-07	2.01521026101037E-07	-1.22238162772609E-05	5.45009643860451E-06	1.00271582323248	-0.0509700261392873
2.1	-0.00112889632234886	-0.00367727523616248	6.67409126664185E-07	-1.39136062116088E-06	1.3893775516509E-05	4.9494527833794E-06	1.0020414372575	-0.0567164639606206
2.2	-0.00202656635172108	-0.00364947143714682	1.64591423697803E-06	-1.52900259586801E-06	2.67552748330896E-06	-6.24598009571079E-06	1.00051763124269	-0.0595855133424774
2.3	-0.00279825046199736	-0.00348509333741651	-1.70696801040158E-06	-3.43369492173736E-06	-1.81499225259109E-06	-4.60262290786524E-06	0.999444511543066	-0.0613999012540975
2.4	-0.00366169317728511	-0.00291225586362654	-1.22618110522163E-06	-4.41263473470906E-06	3.06238489083328E-06	1.07807618646753E-06	0.99888901795849	-0.0642453836222838
2.5	-0.00336384339323494	-0.00190335047662191	5.42840808621971E-06	5.66026527005676E-06	-2.53530864738742E-06	1.62129991869262E-05	0.998712247562466	-0.0662265186060621
2.6	-0.00336627231064405	-0.0024293644994765	-2.27010237911349E-06	2.72891212911985E-06	4.15341623971746E-07	-4.32428611418956E-06	0.998669267226089	-0.0693412871552898
2.7	-0.00383660746952667	-0.00228989004142946	-2.42967404580332E-06	-3.63596231717213E-06	2.14913630853936E-06	-2.58745211957226E-06	0.998416963791622	-0.0725571150202946
2.8	-0.00418238630667051	-0.00197971097053154	4.02534451297105E-06	2.29856836105505E-06	9.85686384216482E-06	-7.38787371630071E-07	0.998483461746569	-0.0751272188135131
2.9	-0.00424469068720636	-0.00130714896650023	1.29200474846019E-05	6.37435205515767E-07	2.37902481818354E-06	-1.17623927122344E-05	0.997872961103448	-0.0775404848422181
3	-0.00322309515231767	-0.00110386463459701	-3.85392380283366E-06	1.07255056822745E-06	-4.16287591469502E-06	-1.57554583463125E-06	0.997694719546461	-0.0802618854936401
3.1	-0.00339752764083469	-0.00186091078581219	4.73006967006791E-06	-9.889682260137E-06	1.07167770625933E-05	2.35144367672165E-06	0.997261689862764	-0.0829195651893667
3.2	-0.00367317686777685	-0.00183586390385618	-5.4276139989366E-06	-7.38709680164497E-06	1.56986465252549E-05	5.29482938268743E-06	0.99659537465339	-0.0852783812622857
3.3	-0.00391029317093862	-0.00185788136404789	-8.78591576877668E-06	2.61006185653886E-06	-8.58878595715105E-06	-1.68267042227003E-06	0.995649507751756	-0.089070541660016
3.4	-0.0042891008968651	-0.00157022786929469	9.00438074838649E-06	-7.63166878023117E-06	-7.31461587677229E-06	4.29126251278666E-06	0.994252599720653	-0.091136764375835
3.5	-0.00370453209031146	-0.001490762959242	2.84377491690095E-07	-5.3164134245697E-06	-4.44956024709961E-06	-8.88946295480223E-06	0.993679428172001	-0.0923827102713159
3.6	-0.00443413607733436	-0.00237902309890539	4.09807057011693E-06	4.87468316948637E-06	-7.0534397355686E-06	9.02915204967499E-06	0.994064439357208	-0.0955484376281067
3.7	-0.00540436776744532	-0.002005213313381	1.49898411609552E-06	-4.53299627887777E-06	-5.14017621239185E-06	-6.55018819784433E-06	0.992928726142288	-0.098660764914022
3.8	-0.00596822077581331	-0.00129555811499831	7.23674415500783E-06	-5.23382864313677E-06	-5.88651026293406E-06	-2.37858092025451E-06	0.991457166289944	-0.100258404535681
3.9	-0.00605359887388617	-0.000191373415379326	-4.02375003536071E-06	-3.27944074312364E-07	-2.51970806548424E-06	1.14432273856946E-06	0.990797260780027	-0.101604383786758
4	-0.00467788630972262	0.000329837119857696	-3.38410334464662E-06	-6.51864366228284E-08	1.24763370323049E-06	8.66251258539208E-06	0.993679567463081	-0.102320685552321
4.1	-0.00466512954593854	-0.000723908754999076	-2.92553079028548E-06	-3.83780060402676E-06	5.89639128220326E-06	2.99446525860392E-06	0.992970239124294	-0.107261108808721
4.2	-0.00522028908730666	-0.000803335518157956	-7.87049994433492E-07	-2.14771340263186E-06	5.67659123261444E-06	-1.88051701791527E-06	0.99085023089398	-0.11005254490865
4.3	-0.00567753090991958	-0.000593395784828642	-4.87738559638516E-07	3.23123624080341E-06	2.13691086774317E-06	1.7615603329105E-06	0.989886240032788	-0.111713695245953
4.4	-0.00616153178150481	7.10779786134701E-05	2.59474468624895E-06	3.41620300918706E-06	7.19348998151339E-06	3.85276627612716E-06	0.989209688171172	-0.113626941958192
4.5	-0.00529912766890463	0.00076274747487655	-6.45143826974909E-06	-1.75370125073712E-07	-8.56780440339684E-06	-2.03429745366894E-06	0.988973190148553	-0.116303653506198
4.6	-0.00560322845023304	-9.02704543173498E-05	-9.9553677205126E-06	-9.10645317320075E-06	3.19927632849876E-06	-2.73839933453205E-06	0.98717363550377	-0.118865238264739
4.7	-0.0062745267197704	0.00017386591872482	1.36427812490843E-07	1.8540884646468E-06	5.98743861748047E-06	-6.73266552541917E-06	0.986584860544821	-0.120123315117091
4.8	-0.00670852676531702	0.000635502218468109	-6.34762591981889E-06	2.10249286525871E-06	7.10609099229123E-07	-1.26815537970949E-05	0.985897716563123	-0.122198589131189
4.9	-0.00694928400061927	0.00147751528064912	-3.36179194201867E-06	8.11559781115621E-06	6.1204345913676E-07	9.32043692076399E-06	0.984929906633116	-0.123656727971336
5	-0.00582979816852011	0.00193237310714368	9.55364431871818E-06	-4.08365264231495E-06	-6.86819023624108E-06	3.58882198977571E-06	0.984305734221969	-0.124584923623884
5.1	-0.00615546291121419	0.00124993854324733	-3.7623827392618E-07	-3.22779969908102E-06	-3.85378645377926E-06	-1.76541803656705E-06	0.98391116909321	-0.125471511448935
5.2	-0.00642392780835669	0.00181310648671799	-1.07555931726122E-06	-4.45291758170584E-06	8.74646394214201E-06	5.50934855033315E-06	0.983355638159409	-0.126979980025873
5.3	-0.00618229910917716	0.00238020560329434	2.29458216811675E-06	6.73860606634633E-06	8.74521513512313E-06	3.08141476653685E-06	0.982981144327574	-0.12869511778267
5.4	-0.00571614019457403	0.00305742472902842	2.67349278390795E-06	-3.12773320755863E-06	-2.65338808700365E-06	1.62606149853644E-07	0.982340055986261	-0.13090084801686
5.5	-0.00399749879858804	0.0028386132147777	2.10484846686038E-06	9.22637962055918E-06	-3.89412993482663E-06	-4.97927849321509E-06	0.982454925174618	-0.131770207555759
5.6	-0.00484073601242881	0.00135421764500708	-5.80904430815735E-06	-1.12307577974087E-06	4.83403892649586E-06	1.92717644648733E-06	0.983144527627149	-0.134748815084318
5.7	-0.00592242092857122	0.00180615010910921	3.31103522748036E-06	-1.41258915337881E-06	-5.009936292148E-06	-4.25892538145814E-06	0.982115076537983	-0.137139165686909
5.8	-0.00653731053054649	0.00254434789343165	-2.03596315031694E-06	-4.71010434528783E-06	9.3930793268534E-07	-5.7714885346096E-07	0.981140224749744	-0.138295903939145
5.9	-0.0071066406615801	0.00396792148338617	-3.85169868311119E-06	6.0695087341554E-07	3.83114678602996E-06	1.24784644261077E-06	0.980835323824591	-0.137790294533964
6	-0.00551080867583092	0.00576130324696315	-5.91986755194294E-06	5.01610582726756E-06	-1.4789019741557E-06	1.93079381590704E-07	0.985418283733287	-0.13837167751825
6.1	-0.00467190853332714	0.0047243329537126	-5.90193013089472E-06	-4.6689067421623E-06	-3.98588615734452E-06	4.33511308041996E-07	0.985283166389591	-0.143362951800143
6.2	-0.00484441631997184	0.00451795199399863	2.8042796311414E-06	3.10549502538741E-06	1.04657725890209E-06	7.18050262076493E-07	0.984071127926679	-0.144905770685599
6.3	-0.00499250394661258	0.00440010839989089	1.63153837120124E-06	-7.42794957466183E-07	-1.33128819067202E-07	1.36701581755107E-06	0.983531009781356	-0.146609114468523
6.4	-0.00520487378458473	0.00482725803073013	-5.15128681831947E-06	-5.59551317636035E-06	3.78878406954752E-06	6.87624803962053E-06	0.983742629935252	-0.148146586301455
6.5	-0.00390248214034288	0.00441210326417085	9.01593779432608E-06	-2.56418437613428E-07	-7.28327490527292E-06	-8.85182666576993E-07	0.984110832240477	-0.15337262006999
6.6	-0.00508558590808984	0.00347188271205435	-1.47649256847131E-06	4.61203151818225E-07	3.35431165552993E-06	-9.30000383860826E-06	0.980298168741719	-0.155319756792755
6.7	-0.00555158148900048	0.00416085708775948	2.48272736177477E-08	7.68869098264628E-06	-4.72416779589638E-07	-6.03798647059549E-06	0.979616067817777	-0.155554350278036
6.8	-0.00571612352523984	0.00464814324913603	4.20889779686228E-06	1.66116973796671E-06	2.3358751258142E-07	-5.19493060099642E-06	0.979365953033548	-0.156737798575506
6.9	-0.00587282739955321	0.00580120735975479	-7.51283557086652E-07	2.427605240349E-07	5.73141785246185E-06	-2.6359877697189E-06	0.979139572814098	-0.157453655962518
7	-0.00375631198955564	0.00630746151001383	7.98945571004518E-06	-4.68740220800962E-06	4.45955136622196E-07	-2.99775151319206E-06	0.98077288236425	-0.158737640794317
7.1	-0.00448848836932396	0.00468534100498355	3.81056694155577E-06	2.04978095509083E-06	7.31137565654564E-07	7.18647041443277E-06	0.979901613823754	-0.162083700973768
7.2	-0.00551269886322201	0.00526500017417241	-2.45294567328688E-06	3.65606835158023E-06	-1.30416687830853E-06	-3.81093103958057E-06	0.97834886746513	-0.163753935319658
7.3	-0.006153645870615	0.0060460370835375	3.42086426956156E-06	-4.73627748398093E-07	-2.42520961121238E-06	-1.9180332213969E-06	0.976241835572983	-0.165423640366974
7.4	-0.00702869360987811	0.00750709535403917	-6.12755368071742E-06	-2.70737514694755E-06	3.73976183842538E-06	2.62888239912549E-07	0.972445681020768	-0.166295739291316
7.5	-0.00548413859120505	0.00967246272035073	6.74792237950347E-06	-6.31670098963667E-06	-2.46222880313465E-06	7.71061900530109E-07	0.972294547969914	-0.162350042573325
7.6	-0.00481377992796884	0.00882670806013614	3.40850677793493E-06	5.20517284319832E-06	-1.02254647250992E-05	4.79104537508815E-06	0.975634880571669	-0.165773228423747
7.7	-0.00494174236182648	0.00923200156894913	5.88024579019665E-06	1.09333534334669E-05	4.45639051809387E-07	-1.1286107491024E-05	0.975587968881405	-0.168922504143636
7.8	-0.00452302476708649	0.00953854553294719	2.13284436932792E-06	1.00129457090274E-06	-3.18240784836098E-06	8.73574753242989E-06	0.975901225198578	-0.171189022598686
7.9	-0.00371061066603583	0.0100737403861891	2.56847706704884E-06	-2.26954809981075E-06	3.66434552413875E-06	3.87227994005505E-07	0.977352911760308	-0.171937394681707
8	-0.00117537631073058	0.00895617351254719	-2.83102656889565E-06	1.29071373580053E-06	6.9024250840114E-06	-1.76427664690809E-06	0.984292471458896	-0.175631942188141
8.1	-0.00206260935495639	0.00704369844103631	-1.80097032326292E-06	7.38759219756695E-07	-3.70056144047532E-06	-1.29188439579174E-06	0.983496058066857	-0.184225977578122
8.2	-0.0026748651056076	0.00703989239849306	-8.51408775537892E-07	6.33147967396085E-06	4.84072549855675E-06	4.40067808938013E-06	0.981712459407548	-0.18742218034924
8.3	-0.00301322666645952	0.00716897956335007	-7.32425639684943E-07	-1.4236441410564E-05	6.78584786345321E-06	5.49202912032851E-06	0.980937271254488	-0.190281849482741
8.4	-0.00336216861326845	0.00813787150929104	3.79546215029067E-06	-3.40642143349628E-06	-6.97692372180897E-06	-1.27686618770308E-06	0.980659199541435	-0.192992021563237
8.5	-0.00129277003977857	0.0086861819169107	4.67543836155902E-06	6.15327526237786E-07	8.46503612042879E-06	-6.78880448849418E-06	0.980461714129359	-0.196993881204987
8.6	-0.00181164603160247	0.00695086326337775	-3.30199394452197E-06	4.09193378053249E-06	9.21249638262831E-07	1.110719533937E-05	0.978819063334337	-0.199696757156432
8.7	-0.0026976578617574	0.00737805402063837	2.70495744421246E-06	-1.97955162240151E-06	4.84143349556096E-07	-5.50609341387721E-07	0.978552324428659	-0.201682580224564
8.8	-0.00298696457472673	0.00812244393711025	1.32997334595214E-07	-1.25586775529982E-06	-1.05762595811672E-06	9.78954112625972E-06	0.978544506079822	-0.203660426806464
8.9	-0.00301899500945456	0.00940680879516253	-3.697757876949E-06	2.2754849490719E-06	4.86899136459816E-06	-1.77482656166921E-06	0.979061484751803	-0.205473570446521
9	-0.000694613404612635	0.0104165669688195	-1.9005626453572E-06	4.86616397207344E-07	-3.15028001321733E-06	-1.05972063150995E-05	0.979833059103704	-0.207486361181561
9.1	-5.06159277160141E-06	0.00902176530069331	5.27168126862071E-06	6.33392060280154E-07	9.14241387843611E-07	3.90745849186605E-07	0.980914755459576	-0.210075216479769
9.2	0.000487015907383821	0.00875833679760272	-8.74481737446205E-06	-4.66385559283046E-06	-8.45316477366902E-07	-6.1707169158265E-06	0.981476872974842	-0.213732815835668
9.3	0.00107870846527491	0.00810491732421598	1.5515821505864E-07	6.25590321814994E-06	4.68020822722886E-06	-2.18224679003165E-06	0.981217679692281	-0.217735127547688
9.4	0.0012663622565312	0.00777796288768282	-1.96482830673594E-06	5.90647295011875E-06	-1.0593200802912E-05	7.73485856530325E-06	0.979204076907118	-0.221321456264485
9.5	0.00265834039701554	0.00663697095956243	3.25248649168978E-06	-7.57213717227975E-06	3.71645062025267E-06	-2.72521027734284E-06	0.978962979310268	-0.222215575170434
9.6	0.000929262457438313	0.00483844966461715	4.48434355787608E-06	5.65189484859606E-06	-7.03241152709011E-07	7.11509825619446E-06	0.979533159761439	-0.226814569593036
9.7	-0.000395794970457629	0.00527740098113782	-2.59717071790799E-06	-3.98873581686136E-06	3.77644898856692E-06	-7.55649421673318E-06	0.978192263466501	-0.230057549451992
9.8	-0.00121585653427666	0.00593460466599667	-4.9951980760955E-07	-4.25333870181292E-06	6.32165261737516E-06	9.40876442604855E-07	0.977213205486131	-0.231773415996202
9.9	-0.00183683072783316	0.00737708774602132	-2.70834603040609E-06	-6.22740694896634E-07	-8.6287876830996E-06	5.46608039648765E-06	0.977200809265926	-0.231104540557253
10	2.4625931792608E-05	0.00838012526910128	4.47797425855427E-07	-1.77276884886536E-06	-3.06792365717647E-06	-8.10503056601023E-06	0.983262042036126	-0.23409821747392
10.1	-0.000370990656376905	0.00720236497199627	2.25716222152306E-06	4.84001417211655E-06	-3.17700521700062E-06	9.96550848030865E-06	0.98042698441371	-0.24115326197432
10.2	-0.00102331227237893	0.00780726316436554	-5.40848987291749E-07	-1.06298228448714E-06	-1.21401267064751E-06	-3.15777077503302E-06	0.977814826191637	-0.242393790976411
10.3	-0.00124015925141337	0.0086909214406845	1.14547771737787E-05	-2.9306253548573E-06	1.01951099582327E-05	-4.87121475801293E-06	0.976756355444319	-0.243527812490104
10.4	-0.00106547126340116	0.0103071190803641	-6.42010886475101E-07	2.17574774847928E-06	3.0775330562545E-06	-2.20809068164268E-06	0.97676454156755	-0.244941021573933
10.5	0.00156320016111587	0.0111885104544599	-6.18493000717835E-06	4.70950825523639E-06	1.59593395158096E-06	4.36058966079709E-06	0.977003637129142	-0.249420028234525
10.6	0.00225890254173344	0.0101145385252792	-7.18044286772032E-06	1.08042725765614E-05	7.10426838824991E-06	4.3149972800528E-06	0.975137278210883	-0.251817460536325
10.7	0.00300737074840409	0.00982246455948627	-3.2524885955386E-06	1.58494180125318E-06	-5.43123636848851E-06	3.20680078465576E-06	0.975584468663103	-0.25494503158588
10.8	0.00335146299360313	0.00921330198473471	-1.94828255397113E-06	5.05464761481E-06	8.5944085210207E-07	-3.24349785031576E-06	0.975081059581742	-0.258811427117241
10.9	0.00318814330718872	0.00948741263189488	-5.84928701148005E-06	-1.06484526747216E-05	5.02045830726957E-06	1.08314763749822E-05	0.97407863788868	-0.262207095648527
11	0.005292114878375	0.0093632469713952	3.00879789438062E-06	2.63300851134958E-06	7.54593110355934E-07	-1.13634236561562E-05	0.973313341913227	-0.265339272775389
11.1	0.00470094652413238	0.00758784280158182	3.90433618387465E-06	1.46075076249523E-06	2.34006441494781E-07	-7.45405664790316E-06	0.970977575070711	-0.268810638649268
11.2	0.00421685019553752	0.00768029556230141	-4.47270117518927E-06	-1.97435097819744E-06	-7.42352868342981E-06	-4.87303453454681E-06	0.968471100904161	-0.271301876108195
11.3	0.0042841084943057	0.00787096872868389	6.34727951860329E-07	-6.44862831547197E-06	3.8844545868106E-06	1.42669881093352E-05	0.965805804644848	-0.273347514282768
11.4	0.0042962560464879	0.00847395690687887	-5.1038225448115E-06	8.24461138259557E-06	-1.44295763112552E-06	4.120331018592E-06	0.961843501785257	-0.274981194487215
11.5	0.00637160538668414	0.00817778593766543	4.58234631716055E-06	8.12865948641294E-06	-9.34225527864286E-06	1.62509047097998E-06	0.962442055578574	-0.273888042144128
11.6	0.00562707840745861	0.00608162165690692	-3.87131093363359E-06	1.42972521836824E-06	5.15890810104264E-06	8.19038652600376E-06	0.962715315424613	-0.279991256318032
11.7	0.00462463549023765	0.00603951272922743	2.33067703206413E-06	1.06096770394469E-05	5.24177420367996E-07	-3.6850347988492E-06	0.959648602468667	-0.284193674047053
11.8	0.00408104153387341	0.00658713386906644	1.46924578417918E-06	4.48723880631488E-06	2.29723924279507E-06	4.55647460583844E-06	0.956886219514047	-0.286375077291264
11.9	0.00434518486289363	0.00818175711008143	7.55037564796624E-06	1.06069739789105E-05	3.91248945597725E-06	3.88916647603828E-07	0.957021307011285	-0.284651667900521
12	0.00763418724328752	0.00816697842508782	2.35178007633296E-06	-5.2293839751019E-06	-3.98954320008123E-07	1.77404783837229E-06	0.964733020445766	-0.2889038840987
