# GHZ S RI R 50
0.2	0.00043643946245482	0.000842734036880237	4.81494736649445E-06	-2.98021195219674E-06	-1.38001919451404E-05	1.31185874313971E-05	1.00198888581234	-0.00576793977268769
0.3	0.00104994488335959	0.000638077647718878	2.86059721442448E-06	6.65381927549801E-06	-1.64865197316243E-06	-9.3543671203174E-06	1.00250353302974	-0.00871270893315122
0.4	0.00139719225215059	0.000835167707372825	-1.86489781761047E-06	-4.03598211319065E-06	-9.06088573227999E-06	4.40986628460464E-06	1.00356738655981	-0.011460620063203
0.5	0.00291986779044483	0.000233573632508703	-5.37797756059944E-06	3.27930718891856E-06	-2.13090278191264E-06	6.78541767574595E-06	1.00414400076602	-0.016725418777421
0.6	0.00200362943641794	-0.00157910819438456	-1.41765390952087E-07	2.81378951341755E-06	-5.83061962987375E-07	-1.3484615013211E-07	1.00203163205612	-0.019665396257081
0.7	0.000938568026930983	-0.00142966619368159	8.53890151423405E-08	2.22805678947518E-06	4.92742199871669E-06	-3.40876232239764E-06	1.00183874131929	-0.0213831603947833
0.8	0.000399008280420754	-0.00114906095669323	4.55017383438997E-06	8.36036117694984E-07	2.75517186584866E-06	2.01417582716015E-06	1.00219355015592	-0.0229776320743452
0.9	-0.000334424679640387	-0.00039895794084148	-1.47872793499521E-07	-4.24473674370528E-06	-3.43559150287556E-06	-3.13281566991474E-06	1.00278464920117	-0.0246250966895734
1	0.00100700963841144	0.00129928141062603	1.06926106398662E-06	4.32290736042175E-06	3.35170157666087E-06	9.39236226742547E-07	1.00516394060858	-0.0261491551673941
1.1	0.00214387496128933	-0.000937067269567575	9.10056272171305E-06	5.09604104694883E-07	-3.60130857541087E-06	-4.97670123821349E-07	1.0049148457142	-0.0313161318262271
1.2	0.000891431031451671	-0.00240822138149723	3.78048971552577E-06	-1.21231220571921E-06	-4.12382033864364E-06	-2.44544179737997E-06	1.00263542927821	-0.0334648448454188
1.3	-0.000609042639481273	-0.00379238337542767	-7.68706586407833E-07	-1.43210479409456E-06	-2.62015944080919E-06	-8.74370282235257E-06	1.00083299256702	-0.0354354157620299
1.4	-0.00218683584971704	-0.00439125731014624	2.47835010587206E-08	3.46119950428986E-06	-4.3111880413961E-06	-4.13066605007462E-06	0.998708898502646	-0.037576410444711
1.5	-0.00164735593128847	-0.00489359071382326	-1.29047726747891E-06	4.45068963589973E-06	6.55680753504057E-06	-7.46113974085378E-06	1.00000355502857	-0.0407224441281398
1.6	-0.00308461436991088	-0.00535325677011804	1.63602769172857E-06	-4.96125978001915E-07	4.24719452240716E-06	-5.43229522107233E-06	0.99928392291582	-0.0441895315115414
1.7	-0.00329132251064703	-0.00407282885894542	5.46838783837893E-07	3.97783096679185E-06	-8.32115556121571E-06	3.17314013073376E-06	1.00045972080235	-0.0457064364096036
1.8	-0.00297758673153685	-0.00315684880387024	1.84677562581653E-06	1.07891515816237E-06	5.63143923786434E-07	-1.77416565550207E-06	1.00131132944012	-0.0478292172679854
1.9	-0.00240412440646144	-0.00212719240294585	3.2636666107922E-06	3.03005740595286E-06	-1.89397030903892E-07	-2.3449091486244E-06	1.00241382369292	-0.0483370667911987
2	-0.000154730061068304	-0.00239215164103442	-1.74100941124292E-07	2.02835785181481E-07	-1.22763390383535E-05	5.49848481146225E-06	1.00782314209555	-0.0516881857674725
2.1	-0.000901100817816684	-0.00455788257686043	6.66162082949982E-07	-1.4006184890397E-06	1.3980522343642E-05	4.92832210856766E-06	1.00649859354211	-0.0597814565411881
2.2	-0.00216626658300484	-0.00462174222953546	1.64774948512895E-06	-1.54194833427235E-06	2.66472508853414E-06	-6.28402368913514E-06	1.00408453785107	-0.0626753016847356
2.3	-0.00316742878691476	-0.00435583627907847	-1.72753664582453E-06	-3.44195981502691E-06	-1.84052038417536E-06	-4.6155197952857E-06	1.00285276330645	-0.0643545518123531
2.4	-0.004141159148309	-0.00336565256787625	-1.2499795309059E-06	-4.42608539004158E-06	3.07986092192872E-06	1.06970242999273E-06	1.00246704183055	-0.0673105530840679
2.5	-0.00291415553954213	-0.00202402027047405	5.47461044202725E-06	5.65500997525294E-06	-2.46796497468207E-06	1.62832259448277E-05	1.00253419294149	-0.0700377507361039
2.6	-0.0025831229770765	-0.00357285215673458	-2.26586036710549E-06	2.74753420538326E-06	3.9821857111092E-07	-4.34019647877015E-06	1.00197115676473	-0.0738408150340771
2.7	-0.00336793131020335	-0.0039506838300807	-2.45375002799969E-06	-3.63843786313844E-06	2.14569138889015E-06	-2.60574657650699E-06	1.00133663857988	-0.0774267498820793
2.8	-0.00408993827553913	-0.00388263288625366	4.05027646506144E-06	2.28866673163389E-06	9.88912127029736E-06	-7.86029123582961E-07	1.00094025210762	-0.0802958848153454
2.9	-0.0044048559655145	-0.00308626757011819	1.29662395100471E-05	5.76579591316292E-07	2.32962012893103E-06	-1.18132140014766E-05	0.999790730657711	-0.0828562394247838
3	-0.00302610497310049	-0.00311388933743824	-3.8587206278884E-06	1.09362798581425E-06	-4.18105632035092E-06	-1.55979937608105E-06	0.998926527243138	-0.0857791994526395
3.1	-0.00389266505787493	-0.00438774219847557	4.69689835687784E-06	-9.93656510835762E-06	1.07548889821737E-05	2.3084170946986E-06	0.997422603574964	-0.0883679377122549
3.2	-0.00478505916162454	-0.00405541125214752	-5.47561850786244E-06	-7.37683482590924E-06	1.57590162470977E-05	5.22981362719295E-06	0.995883173957234	-0.0902750829958223
3.3	-0.00533934682610553	-0.00358718504360913	-8.78609750651025E-06	2.66002009503095E-06	-8.61106345526699E-06	-1.64048595635824E-06	0.994210196365092	-0.0936464604585451
3.4	-0.00569990006633127	-0.0025657258579087	8.96782710551154E-06	-7.68511927631063E-06	-7.29533489181597E-06	4.33360353228933E-06	0.992091154673144	-0.0951850117878389
3.5	-0.00423777944385606	-0.00234655546769201	2.60018423495113E-07	-5.31673086199512E-06	-4.4893801444694E-06	-8.86747648233564E-06	0.991541711040896	-0.0955551213490271
3.6	-0.00515114443736977	-0.00380114794394574	4.1216608166481E-06	4.8568809714433E-06	-7.01331725386075E-06	9.06404219173456E-06	0.99200551704728	-0.0989192254152412
3.7	-0.00645290361590168	-0.00324960590321422	1.47606723504189E-06	-4.54033541977063E-06	-5.17294378984035E-06	-6.52397107268817E-06	0.990668658882024	-0.101907188384425
3.8	-0.0071256821194996	-0.00217926700556086	7.20692913487854E-06	-5.26787480895385E-06	-5.89573811761318E-06	-2.34776132409005E-06	0.989282883703999	-0.103216800568316
3.9	-0.00698355973527207	-0.00050182122680041	-4.0230577037277E-06	-3.09407496698269E-07	-2.51311663873463E-06	1.1551963995704E-06	0.989359626747421	-0.104124831829725
4	-0.0045692211734427	-6.6757208606026E-05	-3.38590175300856E-06	-4.82908862344191E-08	1.29149780000576E-06	8.6600421918594E-06	0.993950859036679	-0.106537456427971
4.1	-0.00470027537071863	-0.00186528685837814	-2.94746938213009E-06	-3.81767947484034E-06	5.9114856296743E-06	2.95656553913794E-06	0.991119076461383	-0.113351571391289
4.2	-0.00548821122502452	-0.00191671350069341	-7.9882051990463E-07	-2.13957009533135E-06	5.65627741988507E-06	-1.91194151777374E-06	0.987512128664182	-0.115621552777991
4.3	-0.00596422021949155	-0.00153246167513559	-4.67445085812437E-07	3.22701071436817E-06	2.14267488780673E-06	1.74496600331921E-06	0.985940442262416	-0.116822354149545
4.4	-0.00622059361324004	-0.000492699893233506	2.6088459120039E-06	3.39078615883076E-06	7.1977440149625E-06	3.79763955269091E-06	0.985000884763428	-0.118663596230683
4.5	-0.00426315770136514	-1.47287309274267E-05	-6.42506923946566E-06	-1.31712488021936E-07	-8.54476639932555E-06	-1.96862955931231E-06	0.98391150744876	-0.122122565043796
4.6	-0.0047437754621853	-0.00203212177759173	-9.95267590045972E-06	-9.00378295853968E-06	3.16736641118011E-06	-2.74146430811659E-06	0.980455203674174	-0.124174621833077
4.7	-0.00595636506926069	-0.0020440190736707	1.45040486440824E-07	1.84355623253092E-06	5.92173999583956E-06	-6.72706761557332E-06	0.979264661442997	-0.124719151237591
4.8	-0.00682665774559356	-0.00151279084973277	-6.30259985896373E-06	2.122416267957E-06	6.44014228765502E-07	-1.26158871325947E-05	0.978214604760174	-0.126198318182755
4.9	-0.00721893036221247	-0.000218319293559901	-3.30115532131916E-06	8.08461221664211E-06	6.55289397658059E-07	9.26236413482934E-06	0.977049420625381	-0.127097477418878
5	-0.00533613594971402	8.09915526978242E-05	9.47026703670258E-06	-4.0980197260242E-06	-6.80535946974537E-06	3.59468662788687E-06	0.976340445646338	-0.127813417710613
5.1	-0.0061963983908764	-0.00128142838184319	-3.85689304125941E-07	-3.20512609495478E-06	-3.83490213169093E-06	-1.7395317814069E-06	0.975508681694186	-0.128331776122642
5.2	-0.00690720492422169	-0.000556061463978601	-1.08480544337296E-06	-4.41915607115444E-06	8.70829212314774E-06	5.44019593560357E-06	0.974844186507157	-0.129431596783781
5.3	-0.00686563914914418	0.000306325189694432	2.30335019814729E-06	6.6818515234849E-06	8.69419712142826E-06	3.02671092760205E-06	0.974201993694499	-0.131094686216196
5.4	-0.00622995453275827	0.00159484128619742	2.64037542939117E-06	-3.11209139264654E-06	-2.63125115775229E-06	1.70965820122905E-07	0.972824659119164	-0.132981001127173
5.5	-0.00338484633852749	0.000966792561305608	2.10612183558145E-06	9.1399073812555E-06	-3.87032800260428E-06	-4.92664381889055E-06	0.972880667568703	-0.133025900148284
5.6	-0.00492100544975563	-0.00137445572869221	-5.76341469802053E-06	-1.10439648435749E-06	4.79769160912977E-06	1.90352161577846E-06	0.973235162124566	-0.135791879657058
5.7	-0.00660209958924871	-0.000715024653859499	3.2820014156354E-06	-1.40577524167349E-06	-4.97511303675053E-06	-4.21703318712311E-06	0.972029769684661	-0.137282660920823
5.8	-0.00752544624245018	0.000476007922541315	-2.02337331983583E-06	-4.67019269956706E-06	9.31205871595942E-07	-5.73249749000932E-07	0.97149770929079	-0.137395571823841
5.9	-0.00804315441915984	0.00279430443057356	-3.82352425378845E-06	6.0235874784744E-07	3.8030512062048E-06	1.23885900676364E-06	0.972823386067795	-0.13592499049139
6	-0.00487263459602407	0.00484127208902054	-5.87928912253778E-06	4.99300224928384E-06	-1.46994037878622E-06	1.93577623827883E-07	0.979821127018328	-0.139107429444265
6.1	-0.00391974110844174	0.00236355404079112	-5.86532154649872E-06	-4.62352362744673E-06	-3.95502378170525E-06	4.37057289838621E-07	0.976654424255936	-0.146196432429974
6.2	-0.00480846790029742	0.00170194420174177	2.78292746331995E-06	3.0777416442628E-06	1.03831836560192E-06	7.1137117308038E-07	0.973264196356203	-0.146631070796907
6.3	-0.00557261979230128	0.00175180402381175	1.61804154053566E-06	-7.36115486524147E-07	-1.32382175431675E-07	1.3555021394697E-06	0.971828320461293	-0.146633887549514
6.4	-0.00573653028194336	0.00286431424884241	-5.10774532663336E-06	-5.55238929011354E-06	3.75573340059567E-06	6.82230933732091E-06	0.972445628879505	-0.146969984641798
6.5	-0.00344957344764334	0.00183969657084222	8.93159755461845E-06	-2.57490991131065E-07	-7.21556320256528E-06	-8.74109968467232E-07	0.972141222385088	-0.152805712219932
6.6	-0.00545438667254727	0.000252338528269512	-1.46186443770255E-06	4.54288597928137E-07	3.33302186596165E-06	-9.19880703991521E-06	0.967199089431443	-0.15225576142724
6.7	-0.00639821262346435	0.00124378303805278	4.16825536644109E-09	7.61265599604782E-06	-4.51710203189354E-07	-5.97947811866389E-06	0.967660802846743	-0.150580193579962
6.8	-0.00677743108598701	0.00226211876765677	4.16336898938085E-06	1.66004993896217E-06	2.4937402514639E-07	-5.14502838075879E-06	0.968647030662464	-0.150540993013281
6.9	-0.00652341232557478	0.00438819855491123	-7.45509548613536E-07	2.37350357734783E-07	5.69071802308947E-06	-2.58760679978193E-06	0.970039821921919	-0.150134302073916
7	-0.00260274794027892	0.00437617153673017	7.94602825096465E-06	-4.60656014719965E-06	4.57635972951104E-07	-2.97009137626071E-06	0.973653552867531	-0.152110138487251
7.1	-0.00392744150757937	0.00135805308073061	3.76938100680522E-06	2.05473555566387E-06	6.85752654300731E-07	7.13416064519448E-06	0.972064002399004	-0.155726522524486
7.2	-0.00569501100055561	0.00180201106153632	-2.45548961381581E-06	3.61333526550607E-06	-1.27163800893856E-06	-3.78911974835377E-06	0.970461380859206	-0.156199989495726
7.3	-0.0069879179676317	0.00282018527677326	3.39672726208406E-06	-4.47823762625547E-07	-2.3935770983514E-06	-1.91841396044098E-06	0.968673301395084	-0.156484699538808
7.4	-0.00819197737929485	0.00539194369910169	-6.05292001161721E-06	-2.73134555354924E-06	3.7050154096237E-06	2.89668081203502E-07	0.965635107896617	-0.154819269531449
7.5	-0.00492080574571795	0.0079232436984807	6.76625365565529E-06	-6.19806778859202E-06	-2.45246691443385E-06	7.39006907763272E-07	0.970290334379127	-0.149214195857015
7.6	-0.00436564156551972	0.00571367358817986	3.33636400611127E-06	5.21489726506134E-06	-1.02244590258828E-05	4.65893155093196E-06	0.975814097728754	-0.155473814022168
7.7	-0.00503912868898484	0.00584387411605287	5.7407625831205E-06	1.09482356680377E-05	5.61825875842137E-07	-1.12332962697422E-05	0.975953995429031	-0.1598174140067
7.8	-0.00496463912680492	0.00636814957678017	2.11423353410072E-06	1.02119342081099E-06	-3.26718152467496E-06	8.66962813141526E-06	0.97644107334536	-0.162135753055385
7.9	-0.00375183394586545	0.00739227318848228	2.590592843477E-06	-2.23319858290785E-06	3.65159967669512E-06	4.31158198762896E-07	0.979131860925694	-0.162311932491793
8	-0.000311206998738407	0.00511422631878662	-2.8478596580865E-06	1.25874677188983E-06	6.92743753325336E-06	-1.68542353345248E-06	0.988111955853889	-0.168580389821042
8.1	-0.00235442808601231	0.00240888975840575	-1.80967370436867E-06	7.20459266630266E-07	-3.6892377974768E-06	-1.33108460722763E-06	0.984569679044297	-0.178055736187022
8.2	-0.00375903321832703	0.00277901429213571	-9.1897845517388E-07	6.32666553690513E-06	4.79736179879998E-06	4.45482357443451E-06	0.982087706449357	-0.179777605007718
8.3	-0.0045729960515439	0.0035586962284332	-5.83169617230836E-07	-1.42625755590691E-05	6.73667724055706E-06	5.57072465302336E-06	0.981713944354957	-0.18160890888762
8.4	-0.00473466686973908	0.00571130543278136	3.83516166366677E-06	-3.37552649788594E-06	-6.97671642854596E-06	-1.34682774613092E-06	0.982325980307973	-0.183841649196421
8.5	-0.000948687797054315	0.0060523360834213	4.67146389275307E-06	6.60021899539204E-07	8.53296978099055E-06	-6.71105350778127E-06	0.982643376278453	-0.188161336805821
8.6	-0.00193442804534876	0.00306344171490807	-3.35130501622766E-06	4.05951116219051E-06	7.98179412678344E-07	1.11296005368485E-05	0.981459013321564	-0.190345444976825
8.7	-0.00359130155382521	0.00340100540280645	2.73442970117129E-06	-1.95420187681138E-06	4.9163576877748E-07	-5.46588264712584E-07	0.982359276472919	-0.192283001991802
8.8	-0.00458393760425475	0.00449531801621315	1.47125141243195E-07	-1.25933066603349E-06	-1.16783443251459E-06	9.81630812087015E-06	0.983386031206378	-0.194679567181471
8.9	-0.00484022480268689	0.00691020986429902	-3.73743876949891E-06	2.24953415080996E-06	4.90917324423027E-06	-1.73497517634239E-06	0.984579462874341	-0.19707690020434
9	-0.00103473520552086	0.00812733073396935	-1.91343971122781E-06	4.70025840202351E-07	-3.05963599265092E-06	-1.06732979691259E-05	0.985754678278532	-0.199455797227913
9.1	-0.000535979034450347	0.00586171789013255	5.29167142075292E-06	6.89353486932501E-07	9.14894886563884E-07	4.01854145991938E-07	0.986998478840781	-0.202430684933544
9.2	-0.000359502755240265	0.0055770931482987	-8.74410654886589E-06	-4.77377991179184E-06	-7.89076756744191E-07	-6.21083536017596E-06	0.987399789654914	-0.206128678966363
9.3	3.47250072988784E-05	0.00519144088391622	9.49940234673098E-08	6.28954759740541E-06	4.72551242712888E-06	-2.14784889116155E-06	0.986977788423274	-0.209755458893833
9.4	0.000708438455656679	0.00572914431795597	-2.03270345928509E-06	5.91591770952494E-06	-1.07212384932387E-05	7.66808619895923E-06	0.985342351522503	-0.212207504619542
9.5	0.00347569168425327	0.00366986309344818	3.35299815532919E-06	-7.57802878008024E-06	3.76655164255554E-06	-2.69951899823095E-06	0.987310429623301	-0.212734027447046
9.6	0.00105880019863765	0.000914825062318959	4.45793901929764E-06	5.73597602839739E-06	-7.79998907130384E-07	7.15676021124572E-06	0.988964101777114	-0.218770442442526
9.7	-0.000807022094154765	0.00131590056268387	-2.57837094872789E-06	-4.04252232721614E-06	3.87567690045309E-06	-7.57598141201394E-06	0.988264446833917	-0.222669854904007
9.8	-0.00208492500722467	0.00228896457900695	-4.63777119437027E-07	-4.29185686202281E-06	6.36318238214262E-06	1.00739797755161E-06	0.988183237532215	-0.224680439635741
9.9	-0.00263568639556804	0.00465466014996681	-2.72880721135762E-06	-6.54447367428933E-07	-8.76452427874714E-06	5.43756890654166E-06	0.990235486397158	-0.224171058575062
10	0.000743994463459757	0.00531613465931415	4.64842754084472E-07	-1.79084220205002E-06	-3.05069343850111E-06	-8.22151190793178E-06	0.998366731869642	-0.230914172642743
10.1	-0.000115674413961154	0.00300833110003604	2.25696538321018E-06	4.90259111844319E-06	-3.26038042168154E-06	1.00553417687649E-05	0.993656548797123	-0.239538859648394
10.2	-0.00143846615575506	0.0034911128400626	-5.41612770624556E-07	-1.0766141965429E-06	-1.21216743983899E-06	-3.19645553916322E-06	0.990934981190353	-0.241245170150391
10.3	-0.00217633250353998	0.00476196591139383	1.15900205548593E-05	-2.91807924380206E-06	1.03242224311251E-05	-4.8845288801682E-06	0.990085558246941	-0.243431346706352
10.4	-0.00171063938945595	0.00731595904899281	-6.54023131643693E-07	2.19839210573657E-06	3.11658583947743E-06	-2.22560421157944E-06	0.990283838029559	-0.246718836787115
10.5	0.0024127144072096	0.00749260011669093	-6.24753979375161E-06	4.74804671357411E-06	1.60687623664956E-06	4.40311941266896E-06	0.988802818962498	-0.25360967095111
10.6	0.00238646655811744	0.00517483305641806	-7.26558898799494E-06	1.08952201492722E-05	7.16471488263657E-06	4.36713469297498E-06	0.985463841668579	-0.255966411595744
10.7	0.00213444375602954	0.0048595890439045	-3.2870247262345E-06	1.59839710012038E-06	-5.48937685282632E-06	3.23498846712571E-06	0.985103896100492	-0.259171413954156
10.8	0.00176822235583307	0.00493756435939962	-1.9675474475781E-06	5.10817248005835E-06	8.67700610170542E-07	-3.27775208624813E-06	0.984225130537732	-0.26263358855516
10.9	0.00204792542695286	0.00649272976453858	-5.92252887622032E-06	-1.07531317702057E-05	5.08524324245748E-06	1.09390100362178E-05	0.983626388594071	-0.265386891237093
11	0.00583443996000957	0.00584117539483785	3.04313807141043E-06	2.65633343389042E-06	7.47983209399673E-07	-1.14814831686244E-05	0.983707306566904	-0.267980244823967
11.1	0.00470351358137387	0.00297200893338414	3.95024371186126E-06	1.46859022174555E-06	2.20938528242696E-07	-7.53634307666582E-06	0.9826060160555	-0.271481594981144
11.2	0.00354994515148212	0.00289029139511332	-4.52697364104764E-06	-1.98133216614167E-06	-7.51867703385757E-06	-4.90175105454899E-06	0.981014521663877	-0.274698147630987
11.3	0.00263998186522215	0.00348986185982667	6.1398942030931E-07	-6.5139989490416E-06	3.98177678380326E-06	1.43895430162962E-05	0.978198065675984	-0.277737168103902
11.4	0.00255720227210062	0.00532507371087624	-5.11099331512105E-06	8.3347773754006E-06	-1.43735191089234E-06	4.16066718501033E-06	0.973999485553948	-0.27954934019678
11.5	0.00610636983896395	0.00472472724296103	4.64880328716255E-06	8.18828442023459E-06	-9.42194738903092E-06	1.66846503269751E-06	0.976448946061637	-0.279155974846505
11.6	0.00469131574904709	0.00210416646700835	-3.90158836211459E-06	1.46154173272147E-06	5.2466085256714E-06	8.24443356094125E-06	0.976326669182258	-0.287467886319253
11.7	0.0033927477927988	0.00258900680638724	2.41026886068155E-06	1.06931512309287E-05	5.08639695749542E-07	-3.72137322422624E-06	0.972978425117608	-0.29285758084359
11.8	0.00307613213604952	0.00383602113412889	1.50766556576055E-06	4.51894639499724E-06	2.34343044021154E-06	4.58412671397568E-06	0.970101615000969	-0.296197335598893
11.9	0.00496222354215305	0.00619593716019333	7.69131474079706E-06	1.06759320855448E-05	3.95616732287937E-06	3.7054953781175E-07	0.971412214383034	-0.296270107895354
12	0.00971965816254471	0.00442576901511122	2.33571604946466E-06	-5.31182885259186E-06	-3.8873233669666E-07	1.79864540347349E-06	0.977293969461643	-0.304636681836424
