# GHZ S RI R 50
0.2	0.000736272395645483	0.00248881450852969	4.79473268388822E-06	-2.98512870629433E-06	-1.37302760389234E-05	1.31208778589835E-05	0.999630836304605	-0.00677578685618698
0.3	0.00121768448418674	0.00177759247615683	2.86550907256956E-06	6.62792274661901E-06	-1.66271656371014E-06	-9.32278969911689E-06	0.999571789165198	-0.00962918016941469
0.4	0.00153632551298147	0.0013255916869987	-1.86275927351014E-06	-4.01717331791576E-06	-9.01836098921484E-06	4.40416331699564E-06	0.999594837988538	-0.0122920897978491
0.5	0.00173546511038714	0.000976793804589729	-5.3598553742928E-06	3.26431810817484E-06	-2.12665120615994E-06	6.75920621397161E-06	0.999302913505914	-0.0154151870311153
0.6	0.00195286596416294	0.000559179180747912	-1.39641229630884E-07	2.8061343071134E-06	-5.81540681170603E-07	-1.34115772950965E-07	0.999305373627627	-0.0182307756360042
0.7	0.00193152236835536	0.000211591150560779	8.77329777581988E-08	2.21933931424693E-06	4.90427844170273E-06	-3.40149594455457E-06	0.998990419618372	-0.021094864391286
0.8	0.00192186319151698	-6.31253752723462E-05	4.52891597952778E-06	8.26832311199855E-07	2.74399846674045E-06	2.00124582430091E-06	0.998789584432588	-0.0231986748698129
0.9	0.001787942842577	-0.000291812707404703	-1.50753682391594E-07	-4.21921100389805E-06	-3.41781688988985E-06	-3.11102553737979E-06	0.998759033604932	-0.025551679415114
1	0.0016078125027771	-0.000327643504528999	1.05936158759107E-06	4.29365164947413E-06	3.32799205310075E-06	9.34690766599591E-07	0.998646635161138	-0.0271478825475235
1.1	0.0015975168330101	-0.000408265821594293	9.04685679434173E-06	5.19511210384469E-07	-3.57963711888157E-06	-4.99867193219693E-07	0.998512464437546	-0.0292297565461864
1.2	0.00142879346894776	-0.000812989584231177	3.76288570867961E-06	-1.20004415586737E-06	-4.09863235166642E-06	-2.43935950433331E-06	0.998073305189004	-0.0301290132588643
1.3	0.00106655735917453	-0.00151663830888225	-7.62303192605775E-07	-1.42791672776659E-06	-2.58963308016181E-06	-8.713462640221E-06	0.998580251087676	-0.0308323319052853
1.4	0.000488116249157623	-0.00250574059769196	1.50619147548693E-08	3.4504678386969E-06	-4.28622527432952E-06	-4.12978889621341E-06	0.998545145639683	-0.0329686104587217
1.5	6.2578618994565E-05	-0.00314348269851876	-1.29775312055583E-06	4.43272071829085E-06	6.55456354805433E-06	-7.41964711701304E-06	0.998780369021371	-0.0364943791809572
1.6	-0.00030388336378526	-0.00359002073846068	1.63001495634047E-06	-4.89490932354191E-07	4.24274751762758E-06	-5.39645413508421E-06	0.997913783971252	-0.0400214013418893
1.7	-0.000647598208373666	-0.00368901049521208	5.3176777514696E-07	3.95783718304986E-06	-8.28550038122921E-06	3.13056575939053E-06	0.997878535071664	-0.042556704698184
1.8	-0.000896906593247817	-0.00362106880472433	1.83240358513353E-06	1.07835195426148E-06	5.6541211137812E-07	-1.76185553289097E-06	0.997609690184189	-0.0453376773425189
1.9	-0.00115182164946892	-0.00357464435888884	3.23529938872935E-06	3.01767999172959E-06	-1.82768179231589E-07	-2.32996368720549E-06	0.997169697313804	-0.0475853853388142
2	-0.00126609518137625	-0.00342937797197901	-1.72853273397825E-07	2.00342817653532E-07	-1.21660662904279E-05	5.41176766161466E-06	0.996697922217443	-0.049988326862259
2.1	-0.00137852381552801	-0.00367598373556877	6.68265728362428E-07	-1.38268965258585E-06	1.3812215930714E-05	4.96628414559157E-06	0.996609807664006	-0.0525061344123477
2.2	-0.00183080825806987	-0.00380900243540652	1.64410971109675E-06	-1.51749978191306E-06	2.6846452281976E-06	-6.21196363134491E-06	0.996345330692157	-0.0550064182701413
2.3	-0.00240004061390744	-0.00383558059470642	-1.68895025807559E-06	-3.42591926165966E-06	-1.7926892590601E-06	-4.59063673914382E-06	0.995861225596093	-0.0567608871903559
2.4	-0.00307601197031425	-0.00370740559121312	-1.20511121270998E-06	-4.39940432265582E-06	3.04614418841765E-06	1.08495341228404E-06	0.995718792228868	-0.0597587898075675
2.5	-0.00364836878160089	-0.00319097558952912	5.38385931648341E-06	5.66452973476038E-06	-2.59890612547606E-06	1.61442677464807E-05	0.995206490033642	-0.0618768092817072
2.6	-0.00379750223068752	-0.00281386943883319	-2.2746640575066E-06	2.7112454653786E-06	4.3212958041792E-07	-4.30956230405849E-06	0.99515195083205	-0.0645192894097426
2.7	-0.00389430030088433	-0.00251728579345699	-2.40637686361384E-06	-3.63474380465641E-06	2.15333762786261E-06	-2.57000708183994E-06	0.994872990373012	-0.0673305580675297
2.8	-0.0039163553290805	-0.00228022485776774	4.00150584487474E-06	2.31029438377779E-06	9.828715080731E-06	-6.89625028213862E-07	0.995183508792089	-0.0693276296349927
2.9	-0.00384514690888029	-0.00204437225975517	1.28784840861369E-05	7.05753670049565E-07	2.43591763523576E-06	-1.17147805918647E-05	0.995062196077348	-0.0714598127782822
3	-0.00350465817292901	-0.00182984010007546	-3.8525184442089E-06	1.04836160649392E-06	-4.14568865936236E-06	-1.59631615678329E-06	0.995042944005617	-0.0740575608039947
3.1	-0.00317220327339708	-0.00209471323700771	4.77528816653264E-06	-9.84426033223406E-06	1.06828390109293E-05	2.40587604120925E-06	0.994858576195625	-0.0761030746814798
3.2	-0.00319675138465591	-0.00237569539609756	-5.37360210920965E-06	-7.40690680507379E-06	1.56393006372586E-05	5.38020765754464E-06	0.994787625587622	-0.0779904616191319
3.3	-0.00336098494604194	-0.00263172756170227	-8.79251948796621E-06	2.54945938419545E-06	-8.56753524948744E-06	-1.73686487364614E-06	0.994728042915952	-0.0813866792291353
3.4	-0.00374925412014002	-0.00277705070053832	9.05678452760467E-06	-7.56836679338561E-06	-7.34390076991438E-06	4.23999369571605E-06	0.994699343359354	-0.0836107754183344
3.5	-0.0040062315429893	-0.00272153350822874	3.14857070425309E-07	-5.32055992522328E-06	-4.40393233803657E-06	-8.92434670468401E-06	0.99420591237017	-0.0864295918449911
3.6	-0.00431003505987226	-0.00294259830434107	4.07222092201274E-06	4.89762857390089E-06	-7.1034566702036E-06	8.9922010702724E-06	0.993973333560105	-0.0887413506106037
3.7	-0.00493254018697038	-0.00290327956405264	1.52671897271905E-06	-4.52604633845948E-06	-5.10332692642336E-06	-6.58378079701063E-06	0.993895728999546	-0.0914325540250283
3.8	-0.00549336312016046	-0.00255736787464614	7.2759087352766E-06	-5.19619577047375E-06	-5.87865708064442E-06	-2.4163852419236E-06	0.993541992793961	-0.0935265390420225
3.9	-0.00581598704838061	-0.00193818649860694	-4.02791423963359E-06	-3.49567601264032E-07	-2.52940794228369E-06	1.13275672074976E-06	0.993369412326199	-0.0965820715051792
4	-0.00555425289505141	-0.00125924216240861	-3.38366977443366E-06	-8.29470267036057E-08	1.20213253629706E-06	8.66882709775123E-06	0.993478567556412	-0.0977709459541923
4.1	-0.00516356379085664	-0.00133503194778955	-2.9012356977637E-06	-3.86102265188647E-06	5.88023519699771E-06	3.0375956553218E-06	0.993526639586855	-0.100227875797876
4.2	-0.005268552017642	-0.00148224783312563	-7.7375382554709E-07	-2.15682465487769E-06	5.69930924814823E-06	-1.8450265913381E-06	0.992641748010968	-0.103090863631162
4.3	-0.00553294819228391	-0.00144798318867252	-5.10351335646038E-07	3.23473011609831E-06	2.12960502498799E-06	1.77952234367874E-06	0.992243708182037	-0.105023083045544
4.4	-0.00594865006078517	-0.00120209832922394	2.57666267854338E-06	3.4414175372872E-06	7.18219116769949E-06	3.91069634853449E-06	0.99178328582078	-0.107219539995241
4.5	-0.00601536648600822	-0.000577261321203507	-6.47139511441537E-06	-2.27366435678878E-07	-8.57995145807056E-06	-2.10931361694931E-06	0.991685519930043	-0.109308561298222
4.6	-0.00596945845692778	-0.000511695607821873	-9.94146051834702E-06	-9.21782449338994E-06	3.23325153817249E-06	-2.72986148362743E-06	0.991173027052131	-0.112066356666848
4.7	-0.00617494319456338	-0.0003293018021721	1.26002964811206E-07	1.86403531953313E-06	6.05721821864535E-06	-6.72998541219718E-06	0.991012428866423	-0.113835241273962
4.8	-0.00637190963908099	-3.04789571494317E-05	-6.39115636941332E-06	2.07713079082535E-06	7.85770900148273E-07	-1.2740786031575E-05	0.990728492925119	-0.116127009485398
4.9	-0.0064790347399714	0.000376544740048959	-3.42621495581153E-06	8.13880326922095E-06	5.61526851055841E-07	9.37287187727125E-06	0.990474166615746	-0.117867000001466
5	-0.00611326127736216	0.00084774638120829	9.63969962464441E-06	-4.058480407824E-06	-6.93363691403399E-06	3.57507728512546E-06	0.990459476277166	-0.119505287919963
5.1	-0.00576326566162531	0.000656134283041438	-3.65153231175998E-07	-3.25092394555338E-06	-3.87206717469364E-06	-1.79343131643625E-06	0.990429977295286	-0.120905732765738
5.2	-0.00577908461405469	0.000687494467927176	-1.06469230324318E-06	-4.48665400017516E-06	8.78197477784255E-06	5.58101114875327E-06	0.990356157135781	-0.122971244902581
5.3	-0.00568357519803874	0.000908703661548951	2.28323846479925E-06	6.79467910519007E-06	8.79346031711325E-06	3.13820543599113E-06	0.990472040234716	-0.125286779667739
5.4	-0.00549019663542361	0.00119913575423595	2.70761963781699E-06	-3.14196188663114E-06	-2.67532190128966E-06	1.53142995350878E-07	0.990653070994351	-0.128432634817121
5.5	-0.00488368894187808	0.00149170954149832	2.10715896926307E-06	9.31660243427937E-06	-3.9211640845882E-06	-5.03316202376651E-06	0.99019338302124	-0.131368438134249
5.6	-0.00464684713540352	0.000906149108403119	-5.85357937323999E-06	-1.13642621734415E-06	4.87031829830827E-06	1.9460468448637E-06	0.990032340384995	-0.133868043401535
5.7	-0.00511376301875549	0.000764100627954199	3.3375548625191E-06	-1.4207509654556E-06	-5.04491131530238E-06	-4.29560887068891E-06	0.989747024094219	-0.136487551026309
5.8	-0.0056045726053022	0.000952366915654568	-2.05071142629265E-06	-4.74762805273914E-06	9.46836107788436E-07	-5.81433864862688E-07	0.989463031306869	-0.138766069644883
5.9	-0.00621110507903825	0.00151236451904132	-3.87965871875676E-06	6.15413171597492E-07	3.86086032501526E-06	1.25316985518949E-06	0.989019188466134	-0.14085054539954
6	-0.00631247362028322	0.00268764341707956	-5.94795405013641E-06	5.0433269919008E-06	-1.48627527727008E-06	1.94548179487589E-07	0.989381328110114	-0.14216981377826
6.1	-0.00584806677062131	0.00302393211271336	-5.93408611933699E-06	-4.70732986492498E-06	-4.0124565106798E-06	4.30943383926698E-07	0.989541229539954	-0.144589097163259
6.2	-0.00581511493907961	0.00321152034319731	2.82356673951064E-06	3.13075919535861E-06	1.05405116774012E-06	7.24140893253453E-07	0.98884428047809	-0.14633717245856
6.3	-0.00569269185324088	0.00340049421161837	1.64391285432462E-06	-7.49023710443816E-07	-1.33743917072033E-07	1.37761222741206E-06	0.988292899594528	-0.148263608160872
6.4	-0.00566538318278847	0.00356906374321541	-5.19239379232327E-06	-5.63031160671372E-06	3.8214408226203E-06	6.92124149688044E-06	0.987976533187976	-0.150193839335384
6.5	-0.0050132438758779	0.00371204448092066	9.0856470563632E-06	-2.55215730626157E-07	-7.33920199643722E-06	-8.94588877284539E-07	0.988351606900261	-0.15340697740103
6.6	-0.00491402999671757	0.00308963856486431	-1.48939326672464E-06	4.68237540469946E-07	3.36831911564722E-06	-9.39286701556046E-06	0.987318642880499	-0.15660579532656
6.7	-0.00512654356622605	0.00313333292285737	5.2000484663319E-08	7.7546045425233E-06	-4.9764402091161E-07	-6.08816073653877E-06	0.986634598359419	-0.158656273248914
6.8	-0.00522879147567125	0.00333363533158982	4.24887775861901E-06	1.65612364600019E-06	2.13171783084095E-07	-5.23649916537588E-06	0.986202926964565	-0.160826369951221
6.9	-0.0054338739230269	0.00381804991881134	-7.55609087749836E-07	2.47940265049874E-07	5.76084295953073E-06	-2.68117184342169E-06	0.985799349457301	-0.162858595087647
7	-0.00476909492911869	0.00466663562847794	8.02602801718091E-06	-4.75915748259514E-06	4.35182036884799E-07	-3.02179973130619E-06	0.985610925472101	-0.16462365272575
7.1	-0.0043363491670734	0.00419690890788746	3.84928043165369E-06	2.04372184042854E-06	7.75736350528159E-07	7.2343282705782E-06	0.985107429519829	-0.166959103430356
7.2	-0.0046679053585621	0.00416905867397763	-2.4481517736064E-06	3.69550291315484E-06	-1.33553955413735E-06	-3.82927721755289E-06	0.984172774132203	-0.168904946908483
7.3	-0.00512939185060496	0.00442821691888629	3.44109963124156E-06	-4.97450811815101E-07	-2.45314470635078E-06	-1.91635733207074E-06	0.982905529478658	-0.170834424917181
7.4	-0.00591273440539248	0.00499674982461399	-6.19284477200642E-06	-2.68845077392025E-06	3.77054680258645E-06	2.40537585307006E-07	0.981266480961181	-0.173309623822353
7.5	-0.0060463347619708	0.00652434122929834	6.73528912247725E-06	-6.43240511679265E-06	-2.47306880258975E-06	8.0168999084753E-07	0.979523237954096	-0.174383271849146
7.6	-0.00536073445596495	0.00699491704469871	3.4768036020073E-06	5.19433154294498E-06	-1.02234785912483E-05	4.9165350320834E-06	0.979875376670227	-0.176822546810084
7.7	-0.00525864700951317	0.00736023096195905	6.01162029941437E-06	1.09192607489582E-05	3.36171666554656E-07	-1.13357893378784E-05	0.979547522446711	-0.180129374032394
7.8	-0.00478176337649099	0.00764621861333114	2.1508638652973E-06	9.83065202653644E-07	-3.10440415228908E-06	8.80013215262549E-06	0.979208450319686	-0.183245855689364
7.9	-0.00406786473063442	0.00790887137292235	2.54979043130029E-06	-2.30541976484529E-06	3.6792033556754E-06	3.4636268837522E-07	0.978876893824964	-0.18589055635355
8	-0.00241381002685228	0.00772148841463486	-2.81378690410129E-06	1.32132662042085E-06	6.8759487826369E-06	-1.84024235238993E-06	0.980146460141156	-0.188105467314997
8.1	-0.00181155197073231	0.00633131571378625	-1.79320899651003E-06	7.53172814568085E-07	-3.70811456580733E-06	-1.25979880926422E-06	0.980471600436766	-0.192483894918706
8.2	-0.00199763374765078	0.00558894443573701	-7.99314072565026E-07	6.33713177481825E-06	4.87579334603817E-06	4.36006196691394E-06	0.979725635243108	-0.195710017708741
8.3	-0.002307229451615	0.00527111092548103	-8.51836996023034E-07	-1.4222809128776E-05	6.82850154816857E-06	5.43204674769207E-06	0.978768355872507	-0.19877881226792
8.4	-0.00277394181218027	0.00553168722405325	3.76267076127838E-06	-3.43182443043283E-06	-6.9769674412455E-06	-1.21917728124401E-06	0.977782876089821	-0.201451901426048
8.5	-0.00224197314603308	0.00632255212857643	4.67670490700999E-06	5.83057655941498E-07	8.41343533937803E-06	-6.84227809822727E-06	0.977147839020944	-0.204302576239672
8.6	-0.00179326136920919	0.00578604651548676	-3.26633421498368E-06	4.11744907312616E-06	1.01327513520526E-06	1.10941658497955E-05	0.976235437417011	-0.207087926329396
8.7	-0.0020470101324206	0.00565142031764071	2.68338582035883E-06	-1.99970708412221E-06	4.78583750214156E-07	-5.53894461120986E-07	0.975646399908582	-0.20948912313047
8.8	-0.00227148309599432	0.00585816560203714	1.22053637156605E-07	-1.25366101630058E-06	-9.72263976889978E-07	9.77251581483073E-06	0.975130697403811	-0.211616229158899
8.9	-0.00247681297739321	0.00637718451753104	-3.66780701080341E-06	2.29524770785077E-06	4.83870434930711E-06	-1.80511106355582E-06	0.975050136319332	-0.213524198122569
9	-0.00172007023614605	0.00732127914139958	-1.8924785156896E-06	4.9852508602415E-07	-3.21559431575082E-06	-1.05491143014128E-05	0.974861182201293	-0.215612631864496
9.1	-0.000716813435320753	0.00694685087561276	5.25845479927276E-06	5.89904483951184E-07	9.14148360409898E-07	3.82234824908918E-07	0.974802351694048	-0.217583978420615
9.2	-0.0001548420334182	0.00667430307621215	-8.7392864042215E-06	-4.58079889512927E-06	-8.85575521800167E-07	-6.13731408950735E-06	0.974597655935963	-0.220183454571795
9.3	0.000461166411684089	0.00627461810853128	1.94107547478186E-07	6.22566566430156E-06	4.64448308392489E-06	-2.20172411020777E-06	0.974303877769795	-0.222951391288153
9.4	0.000830967381370831	0.00578663056170477	-1.92175452180882E-06	5.89432031190092E-06	-1.0504417932574E-05	7.76666218320435E-06	0.97324644349501	-0.226267347968529
9.5	0.00158415448173517	0.005480956252886	3.17753492408887E-06	-7.56868155305774E-06	3.67935645857905E-06	-2.74482009638313E-06	0.971935271856326	-0.228301117448977
9.6	0.00147437894356485	0.00416571500318917	4.498786892843E-06	5.57692238765312E-06	-6.41278180175667E-07	7.07167635669051E-06	0.971680830833868	-0.231132199810063
9.7	0.000737158711567705	0.00374053551932753	-2.60445910993513E-06	-3.94000562589308E-06	3.69529435410754E-06	-7.52391930401892E-06	0.970945868152264	-0.233784236960915
9.8	2.05599614063928E-05	0.00373948208378328	-5.22957085274184E-07	-4.21590308516321E-06	6.27687844837578E-06	8.9250262959475E-07	0.970388190215321	-0.235885094325491
9.9	-0.000734327994749389	0.00432452918913544	-2.68861265449189E-06	-5.97815388375029E-07	-8.51265014504924E-06	5.4789618326195E-06	0.969332912086334	-0.23710383025189
10	-0.000392825999367108	0.00534781754721188	4.32888513804411E-07	-1.7535202520713E-06	-3.07366229880965E-06	-7.98977604817602E-06	0.970353029675019	-0.237526249354798
10.1	-0.000135587827155557	0.00502186280116317	2.24533744840838E-06	4.78190543297653E-06	-3.11687106902503E-06	9.86614555680891E-06	0.97039521607924	-0.240618430531759
10.2	-0.00055503227776494	0.0051588135508292	-5.38073826078005E-07	-1.05084810375022E-06	-1.20974357238285E-06	-3.12272144354714E-06	0.969286826655367	-0.24240280448391
10.3	-0.00089615534499052	0.00573756645676625	1.13274266868368E-05	-2.92824117747132E-06	1.00761650605233E-05	-4.84536741260965E-06	0.968196419998132	-0.244091241086326
10.4	-0.00101810322084344	0.00680566933516324	-6.30970980658978E-07	2.15155826859476E-06	3.03817651836713E-06	-2.18754408197229E-06	0.967055202890039	-0.245736295437768
10.5	0.000193033450895774	0.00816707071712813	-6.12147308848298E-06	4.6539462354482E-06	1.57542667264091E-06	4.31457208866719E-06	0.966421651558101	-0.248060959695196
10.6	0.00153423604382255	0.00804370312718823	-7.10903979755208E-06	1.06992899682839E-05	7.0351952665148E-06	4.27202440713522E-06	0.965368908510369	-0.250137044215572
10.7	0.00255672158488056	0.00783071033986048	-3.21839386125328E-06	1.5685010089643E-06	-5.37427839818112E-06	3.17348666880036E-06	0.965192718764191	-0.252325623212863
10.8	0.00327301931365798	0.00725948725143526	-1.93047881287378E-06	4.99791594000336E-06	8.52296623943678E-07	-3.20736738341115E-06	0.965031041373921	-0.254659901107902
10.9	0.00336958193014105	0.00702131253920458	-5.76213535814992E-06	-1.05425148928187E-05	4.94212118073418E-06	1.07217761484747E-05	0.964569455586508	-0.256928791405424
11	0.00445118506167451	0.0072416713927921	2.97221639266544E-06	2.61672307562107E-06	7.81010835468102E-07	-1.12524676722567E-05	0.964107360800448	-0.258372890250384
11.1	0.00509472829020803	0.0060799421739488	3.86341566379367E-06	1.45654802557798E-06	2.50373905828853E-07	-7.38230780049269E-06	0.963932757210484	-0.260206170041206
11.2	0.00504547244977763	0.00540942666922326	-4.42277002024345E-06	-1.96939329800192E-06	-7.33555378773006E-06	-4.84923987575442E-06	0.963435663520675	-0.262384894076351
11.3	0.00499318910196808	0.00497065717444651	6.55405099946805E-07	-6.38578500409926E-06	3.78931614123867E-06	1.41497727475441E-05	0.962929074598089	-0.264866366949417
11.4	0.00468798696088728	0.00485967277895243	-5.10366067063974E-06	8.1555680891686E-06	-1.45153561641473E-06	4.08116922681925E-06	0.961243612643799	-0.268186209175821
11.5	0.00532131536657243	0.00504604357503303	4.52802080848186E-06	8.07828737714557E-06	-9.27554824728132E-06	1.59018837115672E-06	0.959463633846313	-0.269858344948504
11.6	0.00547824567756662	0.00381805838637318	-3.83880094057187E-06	1.40220774717367E-06	5.07999017544385E-06	8.12913072490532E-06	0.959099915501495	-0.273395836997506
11.7	0.00476153235398704	0.00331596736425246	2.25686828166296E-06	1.05224988279193E-05	5.37414686492476E-07	-3.64820093345521E-06	0.957657769964714	-0.277543402926666
11.8	0.00413225437052185	0.00354772839282806	1.4331521754071E-06	4.45705302767961E-06	2.25378024157153E-06	4.53007150124694E-06	0.955639617434363	-0.281205491521357
11.9	0.00403614580621791	0.00457197203662368	7.44211441752094E-06	1.05507093465844E-05	3.87818906971137E-06	4.02370802663362E-07	0.953882222000779	-0.282427084313617
12	0.00577065433247839	0.00552412561095359	2.35600011507744E-06	-5.15656866062263E-06	-4.04885273316799E-07	1.75169087303591E-06	0.954933493966996	-0.28276215441884
