# GHZ S RI R 50
0.2	0.000870302906279845	0.0025682671045744	4.79254446914526E-06	-2.98575154844202E-06	-1.37226454534568E-05	1.31214240366646E-05	0.99929299625605	-0.00716353833501054
0.3	0.00129477670804122	0.00176510796614112	2.86630655062471E-06	6.62526134320276E-06	-1.66453558929239E-06	-9.31963256364413E-06	0.999151103365623	-0.0100436984275601
0.4	0.00157956364583034	0.0012427208960549	-1.86304393298625E-06	-4.01525649609063E-06	-9.01400435634732E-06	4.40472105342053E-06	0.999118028588416	-0.0127163278882583
0.5	0.00154462315888716	0.000793373491310664	-5.3575127734978E-06	3.26299265987792E-06	-2.12564641876924E-06	6.75633805032444E-06	0.998805249638048	-0.0157060121910442
0.6	0.00163322454813344	0.000686000482943118	-1.39617489446508E-07	2.80578747469208E-06	-5.8146904624977E-07	-1.34097841378985E-07	0.999164156169707	-0.0185732324043161
0.7	0.00174243807410306	0.000479389086084055	8.81287789143091E-08	2.21914339330616E-06	4.90326315955406E-06	-3.40211043762487E-06	0.998901997826486	-0.0217902161076819
0.8	0.00186356340851034	0.00025757844644325	4.52859083915155E-06	8.2536740269203E-07	2.74425206279008E-06	2.00016828742111E-06	0.998553672628432	-0.0241525481981065
0.9	0.0019571178570255	-1.15030794562568E-05	-1.52599995007449E-07	-4.21808043573386E-06	-3.41834498600787E-06	-3.10871515930384E-06	0.998246342727287	-0.0266976681886811
1	0.00185416352860629	-0.00054760280977571	1.06058379949425E-06	4.29039106625378E-06	3.3262460029205E-06	9.32602835875461E-07	0.9975652614755	-0.0282920518122526
1.1	0.00136699061945947	-0.000729033463456006	9.03959587787289E-06	5.17581764107813E-07	-3.57681318006458E-06	-4.9886472970321E-07	0.99717896000516	-0.0298296583508136
1.2	0.00102418570219516	-0.00115585109648311	3.75904916556297E-06	-1.19913919834751E-06	-4.09474139572583E-06	-2.43661721034782E-06	0.996722588650185	-0.0306155050696598
1.3	0.000334268800237985	-0.00187389293724945	-7.61225307083013E-07	-1.42628393601594E-06	-2.5855372808476E-06	-8.7032672397698E-06	0.997062263520747	-0.0312511464096425
1.4	-0.000401867449953376	-0.00260297656000752	1.38991102852336E-08	3.44675726831952E-06	-4.28023740560863E-06	-4.12676611213373E-06	0.997209137591343	-0.0332246776076494
1.5	-0.000972435514594853	-0.00294994064681003	-1.29851404659258E-06	4.42923223019558E-06	6.55286350149383E-06	-7.41218507933348E-06	0.997960698837675	-0.0367305177476985
1.6	-0.00099618705156198	-0.00278448798546026	1.62962102911459E-06	-4.88875097025133E-07	4.24287637798102E-06	-5.39350832169317E-06	0.997730868397769	-0.0403958226572741
1.7	-0.000870691008437442	-0.00284370473927585	5.31000739765301E-07	3.95750110670472E-06	-8.28515824896254E-06	3.12874015482778E-06	0.997969790887568	-0.0432330378408426
1.8	-0.0008490471924071	-0.00287746475207883	1.83242285335224E-06	1.07861240790844E-06	5.65629566044296E-07	-1.76192166291032E-06	0.997848041159466	-0.0461370821953137
1.9	-0.000912217042222257	-0.00308940122469173	3.23674290649319E-06	3.01811921576509E-06	-1.83173541607338E-07	-2.33064998112523E-06	0.997662176092287	-0.0486495285304518
2	-0.00140850906604131	-0.00329019473643266	-1.7267675557798E-07	2.00446902428562E-07	-1.2160263860561E-05	5.42029225547825E-06	0.996605487823823	-0.0516450173160504
2.1	-0.0017096354523841	-0.00302172337690249	6.67600736486756E-07	-1.38187207369425E-06	1.38037784022343E-05	4.96078267292015E-06	0.996230823521576	-0.0532762302135945
2.2	-0.00185166676648404	-0.00296725100305728	1.64365265298259E-06	-1.51654560484521E-06	2.68455173257984E-06	-6.20876495448523E-06	0.996481720012923	-0.0556298681626746
2.3	-0.00210230314747735	-0.00301956099912755	-1.68769413801234E-06	-3.42550548113448E-06	-1.79112021615373E-06	-4.58996605244079E-06	0.996252417046306	-0.0575436142009595
2.4	-0.00238524087025913	-0.00318428236588863	-1.20378612109842E-06	-4.39921332348153E-06	3.04549541381533E-06	1.08564608545631E-06	0.996242788180088	-0.0606943257127941
2.5	-0.00310094286871827	-0.00352108685567781	5.38215693584598E-06	5.66754118445063E-06	-2.6060770069761E-06	1.61452539367002E-05	0.995856860784219	-0.0629596312558238
2.6	-0.00398102877160459	-0.00315256201143063	-2.27605398027292E-06	2.71241862223575E-06	4.3272684627801E-07	-4.3117066118552E-06	0.995929860579826	-0.0658558022977969
2.7	-0.0044006649485997	-0.00259327576357112	-2.40797890758936E-06	-3.63533593204325E-06	2.15342354577916E-06	-2.57131797529731E-06	0.995410809898279	-0.0688672035169003
2.8	-0.00448434662780317	-0.00200846268026127	4.00195753840686E-06	2.30943483590193E-06	9.82848816176504E-06	-6.91683128520077E-07	0.995464986281634	-0.0706761457625251
2.9	-0.00423294676688175	-0.00168286534274753	1.28751842471974E-05	7.05937037168567E-07	2.43562754715098E-06	-1.17117283467732E-05	0.995264431452794	-0.0725180376617024
3	-0.0042206192930725	-0.00159977323518386	-3.85211853421022E-06	1.04707473041659E-06	-4.14448265179043E-06	-1.59720707345437E-06	0.995267593869745	-0.0748615766750812
3.1	-0.00397986638729378	-0.00124573506846687	4.77539633415405E-06	-9.84045700624029E-06	1.06791575783597E-05	2.40684971598924E-06	0.995179597498304	-0.0767939098626928
3.2	-0.00370982931493156	-0.00127965059271925	-5.36834657907535E-06	-7.40453609010559E-06	1.56290640625463E-05	5.38215591995558E-06	0.995077229363288	-0.0786522770273304
3.3	-0.00360253368139389	-0.00144796795088011	-8.78803064983807E-06	2.54279714818172E-06	-8.56078733076529E-06	-1.74051330366228E-06	0.994941465403839	-0.0819062569753481
3.4	-0.00367675339212922	-0.00172677324612881	9.05896933694498E-06	-7.55487703666655E-06	-7.34378350258054E-06	4.23017604635539E-06	0.995076587119867	-0.0837908040287661
3.5	-0.00422815578373946	-0.00203850145418436	3.19979935264143E-07	-5.32123655561978E-06	-4.39624466629006E-06	-8.93017687154781E-06	0.995217089359509	-0.0868933550326162
3.6	-0.00464841699793268	-0.00166294111631219	4.07034670637138E-06	4.89888836274735E-06	-7.10637228062751E-06	8.98937150805815E-06	0.994727957939231	-0.0896195873956306
3.7	-0.00474983315259555	-0.00146589521655854	1.52841608146686E-06	-4.52413379184423E-06	-5.09891122701687E-06	-6.58440179046405E-06	0.994517239141165	-0.0923232971323264
3.8	-0.00483498249773534	-0.0013814975586726	7.27772117423309E-06	-5.19066256095096E-06	-5.87601086127448E-06	-2.4195679533943E-06	0.9941410004103	-0.094431797621439
3.9	-0.00491054858016728	-0.00146127781348717	-4.02824257196836E-06	-3.51504856701956E-07	-2.53025015468304E-06	1.1317056113621E-06	0.994004010827726	-0.0977900482003414
4	-0.00551494877251399	-0.00159435687114735	-3.38227123403315E-06	-8.23853591010366E-08	1.20298140488115E-06	8.66502373755351E-06	0.992880505638878	-0.0993674141847608
4.1	-0.00589894282019864	-0.000936517454270977	-2.89669031945274E-06	-3.85986400516358E-06	5.8739350920668E-06	3.03887259783504E-06	0.992675949095203	-0.100203110107092
4.2	-0.00586036383331996	-0.000523779657042191	-7.71898357604594E-07	-2.15657610196238E-06	5.69850765043715E-06	-1.84019855256778E-06	0.992554337183959	-0.102690027370621
4.3	-0.00578161014815396	-0.000282626301013905	-5.12022318967634E-07	3.23360168634021E-06	2.12805701461606E-06	1.78024589636502E-06	0.992562804290713	-0.104707184541372
4.4	-0.0057913135634672	-0.000255608757052051	2.5738314615094E-06	3.44125117322735E-06	7.17716297218936E-06	3.91265129265132E-06	0.992258124254053	-0.107049304775776
4.5	-0.00632160775357477	-0.000292424474975093	-6.46914697341838E-06	-2.34934128471992E-07	-8.574837250032E-06	-2.11879398409033E-06	0.992213873581608	-0.108825770102545
4.6	-0.0068128247010105	0.000429816143083481	-9.93948462569852E-06	-9.23308944010753E-06	3.23790565274515E-06	-2.72866965529973E-06	0.992642979592498	-0.111618099805451
4.7	-0.00681461564268909	0.00102113577000895	1.25394878109698E-07	1.86559888523426E-06	6.06470831446836E-06	-6.7331482740434E-06	0.992863469634641	-0.114031286674129
4.8	-0.00673581911792324	0.00151248722556353	-6.39621417547038E-06	2.07834227251564E-06	7.87156593146382E-07	-1.27505673766124E-05	0.992602866302025	-0.116837498742628
4.9	-0.00644904186421958	0.00181339650980322	-3.42802508806466E-06	8.14385611188589E-06	5.62177732024396E-07	9.37854175581803E-06	0.99218856477838	-0.118866254239476
5	-0.00646690473708295	0.00190819611649957	9.64874716489855E-06	-4.06110546384257E-06	-6.94021306052276E-06	3.57755222518852E-06	0.992107737069828	-0.120462909261044
5.1	-0.00602128194725369	0.0024770258044952	-3.67150649803599E-07	-3.25368683353285E-06	-3.8764999653012E-06	-1.79307435899783E-06	0.992308319521802	-0.12205544887099
5.2	-0.00531598734756866	0.00240316689220942	-1.06826196726555E-06	-4.48797388312672E-06	8.7898249942276E-06	5.5775287422369E-06	0.992078480710519	-0.124543106070941
5.3	-0.00493669895599556	0.00203083840403641	2.28672430332978E-06	6.79367907326532E-06	8.7952456301021E-06	3.13383222091282E-06	0.991691781290066	-0.126955907132503
5.4	-0.00491641848795636	0.00157806862643918	2.70814135872087E-06	-3.14103074920418E-06	-2.67512364872502E-06	1.52482528695926E-07	0.991652145345898	-0.129582977587242
5.5	-0.00572652752761662	0.00145894425566787	2.10544244087702E-06	9.32869125700699E-06	-3.92356155901397E-06	-5.04095753220459E-06	0.991687309624194	-0.132583814672851
5.6	-0.00590395671786667	0.00240144197859103	-5.86110296853398E-06	-1.13455567583615E-06	4.87712680657153E-06	1.94566994209367E-06	0.991323537053417	-0.135137680354866
5.7	-0.00564651338040418	0.00287335598086183	3.33979789284771E-06	-1.42430387925224E-06	-5.05254795835129E-06	-4.2963761431697E-06	0.99118106611816	-0.137661135008755
5.8	-0.00541173028568543	0.00315018223148757	-2.05674711025071E-06	-4.75075229607519E-06	9.47315730647701E-07	-5.82813032864094E-07	0.991073070066848	-0.140044184587821
5.9	-0.00515129841086499	0.00320339262156264	-3.88253057926715E-06	6.22281317889104E-07	3.86672619271573E-06	1.24819310478598E-06	0.990717034178502	-0.142764041703994
6	-0.00569576290524875	0.00279983249252505	-5.93111160584862E-06	5.0513016499748E-06	-1.48438639330253E-06	1.9759160077587E-07	0.988928250978915	-0.14450398665108
6.1	-0.00638778711153851	0.00363200799107585	-5.9265131128202E-06	-4.69847849484721E-06	-4.00627282947452E-06	4.31473132203829E-07	0.989016617747301	-0.144180563736814
6.2	-0.00634937327929044	0.00426542693995468	2.82006400935334E-06	3.1281444420167E-06	1.05283321032869E-06	7.23616938169742E-07	0.989674924397341	-0.145422557477218
6.3	-0.0060683812658916	0.00464475878031708	1.64268685304538E-06	-7.48005161373807E-07	-1.33949227217121E-07	1.37640841596763E-06	0.989820240019754	-0.147703918364882
6.4	-0.00576602650653016	0.00450479446711719	-5.18484320838089E-06	-5.62446035575322E-06	3.81530948798695E-06	6.91351899049609E-06	0.989391602616483	-0.150344637976772
6.5	-0.00620299175563811	0.0044148439226764	9.07231523337266E-06	-2.37477648338707E-07	-7.32633083921345E-06	-9.07243115310545E-07	0.988921810515897	-0.152532794261609
6.6	-0.0058974422960587	0.0051066894736728	-1.49137456931316E-06	4.6508721275296E-07	3.39201395816302E-06	-9.39078830866997E-06	0.989892965453185	-0.155474956477538
6.7	-0.00546690954103015	0.00522930035795283	4.02740728829768E-08	7.7660599771705E-06	-4.89107753364801E-07	-6.09784971739639E-06	0.989649861960869	-0.158810368779098
6.8	-0.00520193337523943	0.00537749539296072	4.25504891826014E-06	1.66281907909169E-06	2.18144129111747E-07	-5.24570696488452E-06	0.988975067536119	-0.161667307586123
6.9	-0.004936265528695	0.00533032622279293	-7.57019920777217E-07	2.48163011983789E-07	5.77182625718758E-06	-2.68427224841628E-06	0.988298104108866	-0.164223878342754
7	-0.00560585691218728	0.00535699295114835	8.03703892383771E-06	-4.76503045087141E-06	4.35946222184404E-07	-3.02581064236027E-06	0.986870954881086	-0.166113020630454
7.1	-0.00558314072198062	0.00667093864596634	3.85294650389615E-06	2.04730428293476E-06	7.74213173212168E-07	7.2427489483335E-06	0.986485098743385	-0.167173731617453
7.2	-0.00490451255159255	0.00733079807477703	-2.45360152906022E-06	3.69828513381826E-06	-1.33454783076598E-06	-3.83478665633014E-06	0.986191317641963	-0.168986655127912
7.3	-0.00429770545499762	0.00768316553330132	3.4468110333677E-06	-4.9407718771724E-07	-2.45450171779363E-06	-1.92213924021973E-06	0.98535744204917	-0.170854986628934
7.4	-0.00367750515271528	0.00760194599446255	-6.2035010672622E-06	-2.70853283415946E-06	3.77996726125353E-06	2.49088929694521E-07	0.984982729578701	-0.173260903467135
7.5	-0.00400406337363363	0.00690139190978525	6.77405612063348E-06	-6.46074237525498E-06	-2.48625098043786E-06	8.04119878527776E-07	0.984059720531663	-0.177211198834246
7.6	-0.00436126366677358	0.00755622279991899	3.49628772726403E-06	5.21314936547816E-06	-1.02622801820643E-05	4.94672342283476E-06	0.982195476974425	-0.179902758784145
7.7	-0.00411144687414258	0.00773566273187543	6.04575964204668E-06	1.09583439042197E-05	3.27483506064775E-07	-1.13821977008466E-05	0.981882378845212	-0.182717782700578
7.8	-0.00382151344599279	0.00746684501650054	2.16149320776785E-06	9.84572838892121E-07	-3.10657765408164E-06	8.84243887490126E-06	0.981867119297422	-0.186206676061213
7.9	-0.00375467763331177	0.00690648901831518	2.55543504292726E-06	-2.32300134964765E-06	3.69723779953148E-06	3.38066249824069E-07	0.981555808884568	-0.190421711462368
8	-0.00465691170515563	0.00687042146152775	-2.81275009847622E-06	1.33885944565316E-06	6.8807013852171E-06	-1.88017682440387E-06	0.978937449273356	-0.194150447734793
8.1	-0.00424210302136254	0.00793251363964484	-1.78966140687385E-06	7.59390987524592E-07	-3.71107276726217E-06	-1.24569063221975E-06	0.977893153317773	-0.195047161745546
8.2	-0.0035297565048302	0.00814972350093843	-7.81988137581597E-07	6.33362057121614E-06	4.88291299692554E-06	4.34341759455148E-06	0.977888640564309	-0.197062977992043
8.3	-0.00295925637749255	0.00816205739809128	-8.81848234991682E-07	-1.42035652218607E-05	6.83201497271747E-06	5.41049877318129E-06	0.977353663524168	-0.199788896793201
8.4	-0.00249667975274607	0.00789484634802452	3.7500799755136E-06	-3.4315352392162E-06	-6.96593587963554E-06	-1.20557228941823E-06	0.976428846467185	-0.202487074297744
8.5	-0.0031724297093132	0.00759854687326616	4.67061857069889E-06	5.82287030219742E-07	8.4024663159172E-06	-6.83339227586818E-06	0.97539561557509	-0.204810823847097
8.6	-0.00320493701597143	0.00890549985518461	-3.26253667643011E-06	4.12052070887243E-06	1.02359376030897E-06	1.10933219308494E-05	0.975155470208764	-0.207233774591556
8.7	-0.0023204383809728	0.00956118772040374	2.67872222824757E-06	-2.00376492676741E-06	4.77395973147932E-07	-5.54540691681307E-07	0.974761110588544	-0.209900257672285
8.8	-0.00127850146194823	0.00981778704143409	1.19184945780573E-07	-1.25251975455144E-06	-9.49878620034489E-07	9.76366486763692E-06	0.974215197286176	-0.212121853880529
8.9	-6.78924341810389E-05	0.00940276383904698	-3.65503488150095E-06	2.29759019356529E-06	4.82433099531337E-06	-1.81091013956716E-06	0.974237349573963	-0.214013439180725
9	0.000146728123251981	0.00837037661107824	-1.88771070336876E-06	4.99065256862107E-07	-3.21760725032748E-06	-1.05221498373572E-05	0.974304533303269	-0.216475207689631
9.1	0.000534047905661057	0.00821187310338828	5.24749117531272E-06	5.82663663871893E-07	9.12558136130592E-07	3.80357508734248E-07	0.974004429430682	-0.218844128579343
9.2	0.00102446092148268	0.00739332648243276	-8.71951424981911E-06	-4.56340168392349E-06	-8.87153653573654E-07	-6.12083865159287E-06	0.973466916205501	-0.221599285244535
9.3	0.000958354654384026	0.00656130128963459	1.91995344678789E-07	6.21130549191785E-06	4.63431947635417E-06	-2.1953867323854E-06	0.972941374809454	-0.224145107353679
9.4	0.000629086921369066	0.0058294352814921	-1.92750074488116E-06	5.88464087008207E-06	-1.05024461276661E-05	7.74302468048098E-06	0.972461538158444	-0.227085872923717
9.5	-0.000592351418741958	0.00574574642556673	3.18571534541909E-06	-7.5788851747023E-06	3.68619423598665E-06	-2.74741443109959E-06	0.971600883592836	-0.230732914607838
9.6	-0.000716905359139099	0.00683563602090762	4.51301179769063E-06	5.5769591804391E-06	-6.31175875703408E-07	7.08150802105139E-06	0.970078322164355	-0.233592463994153
9.7	-0.000302210638544235	0.00720733501981902	-2.61437900336644E-06	-3.9384541527135E-06	3.68401586526639E-06	-7.53771576522892E-06	0.969271073752024	-0.235862961004837
9.8	3.73296713705735E-05	0.00733748431681405	-5.33202739939339E-07	-4.21895842533133E-06	6.2852791219899E-06	8.78937175584665E-07	0.969120306199926	-0.237939891704942
9.9	0.000398886634977253	0.00710822542265563	-2.69379834172739E-06	-5.88749211805226E-07	-8.50236951381615E-06	5.51594873558804E-06	0.968803017308616	-0.240546153461807
10	-0.000421506511018377	0.00672085232369933	4.23834603276543E-07	-1.75240784127535E-06	-3.10583592322354E-06	-7.96089461943598E-06	0.966421993458447	-0.242693393398047
10.1	-0.000658549679778113	0.00786990422648751	2.25039873252333E-06	4.76538546966268E-06	-3.08764835482822E-06	9.84908161959344E-06	0.965749576325485	-0.242582666746054
10.2	-8.57267089123683E-05	0.00842816964058488	-5.39038445700489E-07	-1.04825829452235E-06	-1.21322507250687E-06	-3.11569769680326E-06	0.96582656934964	-0.243706742804303
10.3	0.000598623793935593	0.0086566819426577	1.1307605492311E-05	-2.9468016282782E-06	1.00541420111903E-05	-4.85909215419877E-06	0.965490567760948	-0.245497187493014
10.4	0.00135884682304598	0.00825673492823473	-6.25174139169792E-07	2.14935842883224E-06	3.02828265538901E-06	-2.19059156696873E-06	0.964721962291973	-0.247696272154578
10.5	0.000853147105189315	0.00769403966419966	-6.1085677646981E-06	4.65057340075592E-06	1.57577956114925E-06	4.30661240722907E-06	0.963937562333026	-0.249810307260686
10.6	0.00081903604604548	0.00832326733300889	-7.09495623302166E-06	1.07086669040584E-05	7.0408308892044E-06	4.26276341832325E-06	0.963702118782781	-0.252745974540598
10.7	0.00107061508737489	0.00867873838074969	-3.21386233114179E-06	1.57471696008651E-06	-5.36553890070743E-06	3.18365739716579E-06	0.96243144464824	-0.255801252367353
10.8	0.00153463295271434	0.00915673345087962	-1.91840650422516E-06	4.9968248635995E-06	8.44936607170894E-07	-3.20588303420487E-06	0.961245366005216	-0.257597604393782
10.9	0.00222524594411	0.00922891903190931	-5.76919698772878E-06	-1.05158902045433E-05	4.95082920015948E-06	1.06961478617282E-05	0.96072216210831	-0.259340726829342
11	0.00198635897697491	0.00912212502148113	2.96894001917448E-06	2.61139214256333E-06	7.74613368851251E-07	-1.12358322170279E-05	0.959898006563145	-0.261250721105333
11.1	0.00264305028414243	0.0102582358253077	3.85907182210931E-06	1.45353900702849E-06	2.47768766628858E-07	-7.37322032183061E-06	0.958687200979429	-0.26253888576483
11.2	0.00397656014448675	0.0104501516526976	-4.41643580731269E-06	-1.96735981179181E-06	-7.32481287654477E-06	-4.8437049313437E-06	0.957586307265384	-0.263752894429379
11.3	0.00534083173823904	0.010005830250959	6.60728312224105E-07	-6.37711897887701E-06	3.77092552573224E-06	1.41356166728767E-05	0.957068370379761	-0.264702883636111
11.4	0.00638826801146126	0.00897010336384699	-5.12079136022942E-06	8.14120816101192E-06	-1.4604616149693E-06	4.07652015340838E-06	0.956877899462304	-0.266413180538457
11.5	0.00600114765328434	0.00788437722596846	4.52835750055324E-06	8.09824735385694E-06	-9.29477766717615E-06	1.58372560432876E-06	0.956229672436675	-0.270064339260184
11.6	0.0063241875582929	0.0080173714795028	-3.84066583056403E-06	1.40349813671067E-06	5.08385602886625E-06	8.13278433923623E-06	0.954210681338862	-0.272959412005104
11.7	0.00711774575813486	0.00732108861894562	2.25173485267816E-06	1.05245760072765E-05	5.39311529982995E-07	-3.64825208689991E-06	0.953369078078868	-0.275602926438132
11.8	0.00769607944887132	0.00621563350114322	1.42989498784283E-06	4.46073118745457E-06	2.25089612793005E-06	4.53452958997341E-06	0.953239423904793	-0.2787070376065
11.9	0.00775767172469402	0.00451837882714766	7.453316978281E-06	1.05641898327838E-05	3.88348058059356E-06	4.02499564830555E-07	0.953931427589952	-0.282098340043149
12	0.00592410496988414	0.00327359358943387	2.3437583786805E-06	-5.15346319024113E-06	-4.01278625057535E-07	1.74994929068872E-06	0.951805414900942	-0.286007047312053
