# GHZ S RI R 50
0.2	0.000781973151623895	0.00205277174103985	4.79931882158779E-06	-2.98371713235451E-06	-1.37463414777184E-05	1.31193836047147E-05	1.00005586799014	-0.00673416846744825
0.3	0.00129634567218855	0.00146341470493462	2.86426751173765E-06	6.63355813249596E-06	-1.6594355218268E-06	-9.3296093359102E-06	1.00011766305971	-0.00962956001440718
0.4	0.00158836754880794	0.00114325960351275	-1.86318925388013E-06	-4.02129923806004E-06	-9.02769105122756E-06	4.40532564795284E-06	1.00039543937047	-0.0122811206417487
0.5	0.00199348423280495	0.000733689755604886	-5.36401606076734E-06	3.26756203984222E-06	-2.1277741346341E-06	6.76505638176906E-06	1.00050376970466	-0.0158608039696334
0.6	0.0018561597521503	0.000109793652819638	-1.40253366483359E-07	2.80809973240578E-06	-5.81928764061503E-07	-1.34317254620987E-07	1.00019783225908	-0.0189430800149607
0.7	0.00160680834371531	9.87568240520115E-07	8.72159934526099E-08	2.22167883561738E-06	4.9103277911138E-06	-3.40370007359687E-06	0.999882773656796	-0.0217763117848123
0.8	0.00154164969645519	-6.29580100696538E-05	4.5347245219524E-06	8.28813658024759E-07	2.74722254791593E-06	2.00442436842927E-06	0.999687595684842	-0.0239339141244222
0.9	0.00139413836582025	-6.11100722607859E-05	-1.50768633503523E-07	-4.22579554636166E-06	-3.42298215742841E-06	-3.11605307983194E-06	0.99953492235011	-0.0262181099224025
1	0.00162712926212447	9.58604977902269E-05	1.06249863290667E-06	4.30015031194779E-06	3.33362030574688E-06	9.35062602124125E-07	0.999630851064063	-0.0275614705032338
1.1	0.00167562300617147	-0.000632537966266056	9.05771226009143E-06	5.16602256370774E-07	-3.58404691610569E-06	-4.99062753780933E-07	0.999479234125643	-0.0300007164192159
1.2	0.00105503280634428	-0.00135575480756604	3.76585100204587E-06	-1.20237991516744E-06	-4.10311847506723E-06	-2.44016833668644E-06	0.998626351910476	-0.0311191574254811
1.3	0.000183191358735012	-0.0021974907498011	-7.63294312736376E-07	-1.42839390052566E-06	-2.59455020578455E-06	-8.71720202488938E-06	0.998611396757725	-0.032120526145722
1.4	-0.000721226585194545	-0.00291627903840767	1.67158813739063E-08	3.4518417208204E-06	-4.28991324889961E-06	-4.12939478075346E-06	0.998287833280568	-0.0343459300305832
1.5	-0.000937635280722587	-0.0033065178777263	-1.29681723888484E-06	4.43629113417716E-06	6.55599870834045E-06	-7.42742744172547E-06	0.999253366576511	-0.0378498210560737
1.6	-0.00138024308493276	-0.0034101588593482	1.6319115734652E-06	-4.90843146058418E-07	4.24586855378757E-06	-5.40531564264286E-06	0.99886942163912	-0.041674406241848
1.7	-0.00140608706520538	-0.00308328282085345	5.35084562577611E-07	3.96452687289962E-06	-8.29829424910118E-06	3.14108170279415E-06	0.999246239968445	-0.0441841441331186
1.8	-0.00132753740426573	-0.00284219175281288	1.83695130977085E-06	1.07927602034352E-06	5.65327653553645E-07	-1.76589333360052E-06	0.999314936634083	-0.0468610145746912
1.9	-0.00127019576748014	-0.00269034437597034	3.24491648252643E-06	3.02272573912501E-06	-1.84712266335571E-07	-2.33536134806041E-06	0.999342677891406	-0.0487253272295552
2	-0.000972844760462943	-0.00279488110650306	-1.73198959188089E-07	2.01142037532736E-07	-1.21989466626764E-05	5.44073319264999E-06	1.00028776361369	-0.0514384100791291
2.1	-0.00135303207396738	-0.00327953690914524	6.67732496337795E-07	-1.38782609200287E-06	1.38605036900582E-05	4.95606843797967E-06	0.999982954944723	-0.0552109317903914
2.2	-0.00185417469751284	-0.00325530425794279	1.64565289339539E-06	-1.52440497696554E-06	2.68044339630737E-06	-6.23294791842637E-06	0.999366455833531	-0.057914855245122
2.3	-0.00232756665675548	-0.00320788260136444	-1.69966378791712E-06	-3.43175633719467E-06	-1.80581676512276E-06	-4.59932391649864E-06	0.998739629004989	-0.0598204807723388
2.4	-0.00285336066544965	-0.0030487467141503	-1.21732932583633E-06	-4.40898763918529E-06	3.05667277816736E-06	1.08174103179093E-06	0.998500837702874	-0.062882720036033
2.5	-0.00305365144873819	-0.00277957965465368	5.4117046728079E-06	5.66661330734165E-06	-2.56705795155866E-06	1.6193251743988E-05	0.998259297003963	-0.0650996937538971
2.6	-0.00348583456487107	-0.00294113936040864	-2.27386529850955E-06	2.72376528324072E-06	4.22694086121845E-07	-4.32167390491695E-06	0.998290846481808	-0.0682236918571228
2.7	-0.00396578908987843	-0.00266831188597666	-2.42217237266597E-06	-3.63777586099277E-06	2.15211566492669E-06	-2.58231770839903E-06	0.997893983780462	-0.0714003770240383
2.8	-0.00422075776696172	-0.00228630886882868	4.01787581298493E-06	2.30458175973601E-06	9.85083558973387E-06	-7.19249321149585E-07	0.997941999549095	-0.073642040537545
2.9	-0.00420034606130388	-0.0018466141936874	1.29087011793018E-05	6.68015582066749E-07	2.40549890801074E-06	-1.17477383031976E-05	0.997450537015852	-0.0758133018310108
3	-0.00379540418951882	-0.00169993714221574	-3.85566339537158E-06	1.06188698018092E-06	-4.15741496233266E-06	-1.58625566091293E-06	0.997189593846325	-0.0783321836652764
3.1	-0.00384989340021905	-0.00184920036602304	4.75301745486515E-06	-9.87305351675867E-06	1.07058121025071E-05	2.37760121740468E-06	0.996746655861883	-0.0805522601241856
3.2	-0.0039288351632473	-0.00175728034043017	-5.40314029630125E-06	-7.39878903292969E-06	1.56745753421432E-05	5.33753401967349E-06	0.996208042203112	-0.0825377334686988
3.3	-0.00400538408193948	-0.00173258455211941	-8.79092122097558E-06	2.5802191211697E-06	-8.5798048968177E-06	-1.71013418089744E-06	0.995581631182876	-0.0859545601949585
3.4	-0.00419384926458969	-0.0016375301414757	9.03370955080911E-06	-7.59969853914273E-06	-7.33143221304647E-06	4.2650164934451E-06	0.99492965264838	-0.0878639497266567
3.5	-0.00413364144666951	-0.00169074850408381	3.00303329735884E-07	-5.32129954749559E-06	-4.42823144075475E-06	-8.91210292040252E-06	0.994717656204541	-0.0900391344855254
3.6	-0.0046407597325662	-0.00193264026957334	4.08799416061212E-06	4.88714561167877E-06	-7.07912914939347E-06	9.01605887212481E-06	0.994712375322263	-0.0930245192686042
3.7	-0.00514438666715433	-0.00164995204562104	1.51207332710383E-06	-4.53127404464264E-06	-5.12504876166647E-06	-6.56754442236224E-06	0.99405459958967	-0.0960285338180415
3.8	-0.00544229567602616	-0.0012636456592877	7.25723187439286E-06	-5.21866094378181E-06	-5.88512266779882E-06	-2.39664900144353E-06	0.993120113461519	-0.0979684966595043
3.9	-0.00551477030956455	-0.000773303206306558	-4.02779923030161E-06	-3.37186549065223E-07	-2.52521348081416E-06	1.14013528061048E-06	0.992679258020804	-0.100403758332134
4	-0.00514568356780974	-0.000573332041390727	-3.38433780573256E-06	-7.1368001692316E-08	1.23195805943516E-06	8.6656936911144E-06	0.993475500477205	-0.101568978747768
4.1	-0.0053232084747984	-0.000753098481607453	-2.91493669874442E-06	-3.84739048825107E-06	5.88902688731749E-06	3.01261073497058E-06	0.992953732686045	-0.104518874535021
4.2	-0.00556080635699565	-0.000558641008520894	-7.81395412725336E-07	-2.15164137937984E-06	5.68639161725849E-06	-1.86541932635789E-06	0.991691960508843	-0.107172327166226
4.3	-0.00570483898797279	-0.000320709656878207	-4.97027100324168E-07	3.23264246063801E-06	2.1338888393298E-06	1.76892589910185E-06	0.991111586698147	-0.108994842076352
4.4	-0.00590281240984111	4.54327985477906E-06	2.58689187333857E-06	3.42588103693733E-06	7.1875751741898E-06	3.87572419019011E-06	0.99056650409466	-0.111139062987415
4.5	-0.0057198054550472	0.000285198757846217	-6.45908463944868E-06	-1.99121804528404E-07	-8.57138997812543E-06	-2.06815438951467E-06	0.990393739129654	-0.11344068570051
4.6	-0.00614702249305305	0.000170142803673018	-9.95398185694422E-06	-9.15735025372868E-06	3.21499184518182E-06	-2.73603716603629E-06	0.989633107976842	-0.116248515355466
4.7	-0.00653704718647005	0.000602754562346434	1.32891910778987E-07	1.8591312989429E-06	6.01691093017828E-06	-6.73739015376153E-06	0.989344625788148	-0.118171158894349
4.8	-0.00673482353731273	0.0011211962555452	-6.36715889436183E-06	2.09711034325788E-06	7.33737840468649E-07	-1.2712314208423E-05	0.988775379671289	-0.120653100460655
4.9	-0.00668981344100888	0.00172357412506646	-3.38344311718678E-06	8.13027616194335E-06	5.98302242684996E-07	9.34461939231282E-06	0.988005561863258	-0.122412445185675
5	-0.00610812997834206	0.00199547989567721	9.59096618918706E-06	-4.08207507876429E-06	-6.89603442834277E-06	3.5898059634166E-06	0.987584951448833	-0.123667766099165
5.1	-0.00601713008389201	0.00191570494325929	-3.75414453824701E-07	-3.23819351350578E-06	-3.86481825597598E-06	-1.773372322089E-06	0.987420695775474	-0.124908602606751
5.2	-0.00578755419365061	0.0021314646692219	-1.07650370686004E-06	-4.46579345373784E-06	8.76825229405585E-06	5.52868694144933E-06	0.986923432468328	-0.126911673567765
5.3	-0.00547831968015676	0.00220913235220868	2.29670321037499E-06	6.75754763004352E-06	8.76630910053847E-06	3.09450644727845E-06	0.98641559632367	-0.12895086745499
5.4	-0.00522880347350229	0.00231525136559795	2.68462231876181E-06	-3.1344307587392E-06	-2.66149682431598E-06	1.60443797496926E-07	0.985984819656896	-0.13130125092073
5.5	-0.0047763844442731	0.00213197701039132	2.11328901005942E-06	9.26574322194824E-06	-3.91041772099287E-06	-5.00067551897917E-06	0.986027300855528	-0.133195999757113
5.6	-0.00528839372699043	0.00185573141375686	-5.83019505470444E-06	-1.12135966164061E-06	4.85259588618934E-06	1.92917756161943E-06	0.986175231735509	-0.135946893134092
5.7	-0.00569814815245099	0.00232459720907173	3.32034208852128E-06	-1.42050349073219E-06	-5.03046396936792E-06	-4.26767916092522E-06	0.985552505280309	-0.138400929829253
5.8	-0.00585616688366314	0.00282824233958077	-2.04906795172592E-06	-4.72295765866655E-06	9.41640101054478E-07	-5.80329146323544E-07	0.984974415752588	-0.140149093914568
5.9	-0.00596783623205715	0.00349939211768505	-3.86181659792105E-06	6.17840153984018E-07	3.84557062289203E-06	1.24256610452999E-06	0.984587260708372	-0.141257448105232
6	-0.00547793610402935	0.004047080374229	-5.9127558602762E-06	5.03240238002749E-06	-1.47945202202461E-06	1.96452562820278E-07	0.985820645146062	-0.142410570826262
6.1	-0.00558759349660353	0.00382476957190945	-5.90882719637046E-06	-4.67206424911335E-06	-3.9896849056543E-06	4.34890601503128E-07	0.985515264796237	-0.144661088821507
6.2	-0.00588902832356281	0.00408402885038475	2.80927390083678E-06	3.11018481363349E-06	1.04838176493304E-06	7.19081000550383E-07	0.984941416599073	-0.145781730993535
6.3	-0.00593604565069935	0.00437320922480191	1.63406097888031E-06	-7.44769404459294E-07	-1.32786832679201E-07	1.36944623940671E-06	0.984611962254115	-0.147457869319854
6.4	-0.00586758169247863	0.00466339489377503	-5.16093431686347E-06	-5.59864272091813E-06	3.79768680891034E-06	6.88175741592916E-06	0.984498178490751	-0.149339107188733
6.5	-0.00536441177988972	0.00447924938590843	9.02801176602935E-06	-2.49135195502917E-07	-7.29210527237756E-06	-8.92502790954676E-07	0.984482750575229	-0.152947577876628
6.6	-0.00574676287470265	0.00441128793998916	-1.48117230924167E-06	4.62642595049484E-07	3.36505689734938E-06	-9.32939390158428E-06	0.983103060955539	-0.155289681696005
6.7	-0.00568711996790867	0.00489123831038938	3.34455546876348E-08	7.7137797904153E-06	-4.80664317528088E-07	-6.05718599702225E-06	0.982741365698202	-0.156917908185362
6.8	-0.00552242657548193	0.00526769660302758	4.22472737750854E-06	1.65907809033552E-06	2.25402302480792E-07	-5.21135417230719E-06	0.982430052416182	-0.158773111389907
6.9	-0.0053263119404142	0.00582963278066532	-7.52908618938861E-07	2.44964809303659E-07	5.74222852104807E-06	-2.65501243693845E-06	0.9821542402928	-0.160264870814383
7	-0.00451042505523968	0.00601652493551136	8.00111912423348E-06	-4.71617253951761E-06	4.41019723857212E-07	-3.00662928425393E-06	0.982404104677253	-0.16174813299753
7.1	-0.00483170981498746	0.00582757310398213	3.82446327688748E-06	2.04693576542376E-06	7.48073163225826E-07	7.20302204899128E-06	0.981882892063484	-0.163812268549317
7.2	-0.00495568735664529	0.00642552504677173	-2.4518135053604E-06	3.6695957561873E-06	-1.31464508634028E-06	-3.81759748915696E-06	0.981077252783724	-0.16539615005837
7.3	-0.00488847563970234	0.00696134536270411	3.42903668068715E-06	-4.79989832282806E-07	-2.4343847311861E-06	-1.91937532691767E-06	0.979787601637186	-0.166991069848446
7.4	-0.0048888398151883	0.00757444691681001	-6.15394724656451E-06	-2.71135947442174E-06	3.75441378339723E-06	2.59978543917768E-07	0.977990064342911	-0.168502601034121
7.5	-0.00419409975720252	0.00806830428371709	6.76203261590101E-06	-6.37297479801861E-06	-2.47259461437123E-06	7.83504415842363E-07	0.977825650693504	-0.168611372772794
7.6	-0.00415448289917902	0.00765484447613842	3.44308018974574E-06	5.20993017401654E-06	-1.02428678801857E-05	4.8519469105878E-06	0.978809682546652	-0.172001200554415
7.7	-0.00429166453574891	0.00781020905152001	5.94572658719688E-06	1.09473191745405E-05	4.00779649888621E-07	-1.13273193632289E-05	0.978581911951105	-0.175178753634665
7.8	-0.00414645265648939	0.00783159289132939	2.1448344125652E-06	9.95246154719588E-07	-3.15440488878293E-06	8.78073501850476E-06	0.978611799828865	-0.17801762018808
7.9	-0.00384329621461861	0.00787911071732906	2.56394155819822E-06	-2.29178049181161E-06	3.67867183441514E-06	3.67485091687947E-07	0.979121632555772	-0.180386035177158
8	-0.00311016105909019	0.00737786423616479	-2.82243670440611E-06	1.31017870983172E-06	6.89093596337628E-06	-1.81161982444915E-06	0.981231830768704	-0.18392361790541
8.1	-0.00348490745304553	0.0071103389720132	-1.7953388040875E-06	7.46033597216852E-07	-3.70178980928499E-06	-1.27340153503324E-06	0.980094523455081	-0.188492208835254
8.2	-0.0034573836460637	0.00737922057563344	-8.26065315906502E-07	6.32710932055407E-06	4.85178501565225E-06	4.37677697501E-06	0.979143639330956	-0.190832862566556
8.3	-0.00332092974147221	0.00759771704564362	-7.8317120957433E-07	-1.42117310991241E-05	6.79535552807636E-06	5.45879765495134E-06	0.978507009276645	-0.193406018497233
8.4	-0.00318767371331122	0.00806510484421401	3.77603345033281E-06	-3.41025221949896E-06	-6.96460618731848E-06	-1.25223317556172E-06	0.977987141867856	-0.195946340960724
8.5	-0.00241732956726084	0.00821293517920904	4.66888343806896E-06	6.06686586442761E-07	8.44024450712201E-06	-6.7916685646134E-06	0.977477389967065	-0.199016842972196
8.6	-0.00267202704398285	0.00805110388396259	-3.28788476507255E-06	4.09799662198674E-06	9.51761226061197E-07	1.10958544932359E-05	0.976676721155107	-0.201514775752576
8.7	-0.00260589948011777	0.00863560989458411	2.6942356956694E-06	-1.98589871832967E-06	4.81553542421576E-07	-5.51458177782061E-07	0.976515377752788	-0.203831709320045
8.8	-0.0021473766607754	0.00914337124762683	1.28274634078247E-07	-1.25352679492425E-06	-1.02076554122671E-06	9.77136690823484E-06	0.976397321539297	-0.205974577650533
8.9	-0.00145294049953905	0.00952380325129609	-3.67912067941469E-06	2.27933523980597E-06	4.84812117422597E-06	-1.78379389895007E-06	0.976769120540442	-0.207897405456005
9	-0.000168364967192942	0.00933418336846686	-1.89429626685967E-06	4.89153979950917E-07	-3.16321715970227E-06	-1.05613723079935E-05	0.977199538306497	-0.210189822316257
9.1	0.000259927760835663	0.00846476980211797	5.25608277427188E-06	6.18223963484996E-07	9.12234501578588E-07	3.87200262499148E-07	0.977489016801699	-0.21262426029822
9.2	0.000624280059487496	0.00793633626839791	-8.71849979734778E-06	-4.63066026729885E-06	-8.52529255276244E-07	-6.14509051124272E-06	0.977437845359096	-0.215650502726512
9.3	0.000821220140355301	0.00731008513759755	1.5915337208137E-07	6.2320236785328E-06	4.6608291285427E-06	-2.17738641175615E-06	0.977112557367543	-0.218706488269224
9.4	0.00082581137452707	0.00689604261059364	-1.95991576466423E-06	5.89000563443025E-06	-1.05646372416307E-05	7.71260242054836E-06	0.976119867046433	-0.221819792822679
9.5	0.000965605229232474	0.00629743857556896	3.23730412679126E-06	-7.56855906176655E-06	3.70811979076761E-06	-2.7277957404901E-06	0.975858284786774	-0.22416587206221
9.6	0.000104038961167356	0.00598833454812879	4.48715879085962E-06	5.62607482180698E-06	-6.83438615931233E-07	7.09865583308506E-06	0.975584369042458	-0.22800848759364
9.7	-0.000268572654391651	0.00640214343390089	-2.59820254727113E-06	-3.9709402379447E-06	3.74827516869407E-06	-7.54210286227064E-06	0.974709289721901	-0.230874073428531
9.8	-0.000416769122767019	0.00677845329378433	-5.07666327421104E-07	-4.23973205127371E-06	6.30523334723281E-06	9.23830209334527E-07	0.974373051737361	-0.232880862146677
9.9	-0.0004230874518403	0.00730853220134048	-2.70193200929108E-06	-6.1166606019762E-07	-8.58327138319923E-06	5.47795342335606E-06	0.974483237135233	-0.234055613162169
10	0.000128484106836524	0.0074313710973739	4.39472561006666E-07	-1.76325785859233E-06	-3.0744834348169E-06	-8.04548283162098E-06	0.976416599766698	-0.236973442238172
10.1	-0.000265275245172204	0.00729389022308055	2.24715761046079E-06	4.8112341080672E-06	-3.1531941231664E-06	9.91078815335865E-06	0.974653503784208	-0.240672143997391
10.2	-0.000393133034261616	0.007803008611694	-5.38689933948999E-07	-1.0576522053059E-06	-1.20948524510061E-06	-3.1420991083334E-06	0.973371266278283	-0.242050809420411
10.3	-0.000229960860272235	0.00831876554530604	1.1399096743717E-05	-2.92412681371446E-06	1.01441162643824E-05	-4.85479879066605E-06	0.97267134434643	-0.243707957136403
10.4	0.000196407526527205	0.00886153623141012	-6.37446897287792E-07	2.16440574813808E-06	3.05988637912844E-06	-2.19782860141896E-06	0.972308749034348	-0.245748388251153
10.5	0.00111347223425016	0.0088696825097668	-6.16127577313207E-06	4.67851224784569E-06	1.58242069258708E-06	4.34162103401028E-06	0.971998751727982	-0.249316921818571
10.6	0.00114497809391725	0.00867605680847545	-7.1615555206607E-06	1.07655749227694E-05	7.07900128002996E-06	4.30391536541308E-06	0.970865543762472	-0.252180173322994
10.7	0.00142374527142125	0.0089548405077899	-3.24052908298409E-06	1.57955504712139E-06	-5.41120413118437E-06	3.19577581768753E-06	0.970346147970978	-0.255296576143457
10.8	0.00178893594270997	0.00917620556276195	-1.9410485001632E-06	5.03396418546795E-06	8.56378622521016E-07	-3.23027526567156E-06	0.969571343366268	-0.258071563321897
10.9	0.00219550550943773	0.00956994480493482	-5.81424690306414E-06	-1.06080569237462E-05	4.98881482527321E-06	1.07895247371453E-05	0.969053201444843	-0.260564995581404
11	0.00325000320836953	0.00952550294499335	2.99367492555652E-06	2.6297467202196E-06	7.73368853847837E-07	-1.13235570088906E-05	0.968465820030709	-0.263108347705391
11.1	0.00337406591876612	0.00932105760086969	3.88957230259528E-06	1.46267475395238E-06	2.45741054591243E-07	-7.430144852209E-06	0.966821202120533	-0.265500683633475
11.2	0.00393541084189628	0.00953437428987111	-4.45379018329743E-06	-1.97777332617697E-06	-7.38862603341475E-06	-4.87351792613331E-06	0.965149540065067	-0.267367054411333
11.3	0.00479077674870289	0.00945982382024886	6.52246893409051E-07	-6.42748153151883E-06	3.82991944238543E-06	1.42361234990138E-05	0.963590542683523	-0.268879795366918
11.4	0.00550389841030215	0.00921262276577498	-5.1282204294343E-06	8.21011140013058E-06	-1.4570347917571E-06	4.1075336738596E-06	0.961706115016567	-0.270565144500266
11.5	0.00643325573935553	0.00838256305415602	4.56459840826723E-06	8.1357988137813E-06	-9.34305912709471E-06	1.60566697874595E-06	0.961959475170597	-0.272137152303959
11.6	0.00629852676444801	0.00737805633946577	-3.86633829991051E-06	1.41989267464702E-06	5.13393203919897E-06	8.18374497516971E-06	0.961167016349123	-0.276872794120104
11.7	0.00631839271397846	0.00692406588570112	2.2979894317021E-06	1.05956639525973E-05	5.3298922440775E-07	-3.67661698521665E-06	0.959331664449806	-0.280547867173366
11.8	0.00644933481575767	0.00649374679124452	1.45469642090258E-06	4.48616027592031E-06	2.28151838490591E-06	4.55768052915161E-06	0.958029884388023	-0.283503679221838
11.9	0.00671173910613081	0.00614517079861637	7.52922200326364E-06	1.06117787689846E-05	3.90938137054857E-06	3.94683123853092E-07	0.958557333500478	-0.284897022675166
12	0.00721330930566079	0.00523367592729388	2.34987478989782E-06	-5.20759112955895E-06	-3.99744957597869E-07	1.76715562641407E-06	0.96100606445586	-0.289503819864271
