# GHZ S RI R 50
0.2	0.000872111966336567	0.0024958260553785	4.79292571313597E-06	-2.98537658644226E-06	-1.37241580229215E-05	1.31204518676689E-05	0.999294112407886	-0.00716470292728257
0.3	0.00127595116517462	0.00170989791858392	2.86582957925801E-06	6.62583332811875E-06	-1.66375458822181E-06	-9.32021911206329E-06	0.999155736489798	-0.010026403204331
0.4	0.0015436944917164	0.0012242909660672	-1.86287576158712E-06	-4.01580749033948E-06	-9.01526061273259E-06	4.40436506555597E-06	0.999161850069986	-0.0126621703894234
0.5	0.00156576695728356	0.000801125136475986	-5.35814354451026E-06	3.26333847165287E-06	-2.12592520784777E-06	6.75710092093066E-06	0.998954893913501	-0.0157068968278914
0.6	0.00164318445471838	0.000631623635419736	-1.39701519417454E-07	2.80592271324156E-06	-5.81494182835002E-07	-1.34120468365696E-07	0.999259797970471	-0.0186568392495128
0.7	0.00171500150359108	0.000430723291951587	8.79826804559407E-08	2.21930574637532E-06	4.90384201508334E-06	-3.40201353990666E-06	0.998968212819451	-0.0218650565541452
0.8	0.00181620147473734	0.000220911946594601	4.52897514648542E-06	8.25840108762376E-07	2.74435586016882E-06	2.0006055609637E-06	0.998603273288877	-0.024221963165779
0.9	0.00187266321382334	-2.31395736007129E-05	-1.52197499514614E-07	-4.21869032565161E-06	-3.41851432088151E-06	-3.1094969563812E-06	0.998255341813279	-0.0267300062333794
1	0.00180571071624382	-0.000445334534103635	1.06056654192397E-06	4.29131452100129E-06	3.3268672920957E-06	9.32970529306979E-07	0.997639877708272	-0.0282004743611032
1.1	0.00144441178780158	-0.00069927097690051	9.04096039964286E-06	5.17620258022975E-07	-3.57735438308821E-06	-4.98924276657296E-07	0.99737050989728	-0.0298242853836703
1.2	0.00109889871148134	-0.00122310955388767	3.75943907206288E-06	-1.1993145690226E-06	-4.09521220295024E-06	-2.43682910400427E-06	0.996918117423999	-0.0306976512040129
1.3	0.00036872674370119	-0.0020435911590994	-7.61318120646944E-07	-1.42631733302476E-06	-2.58601043145532E-06	-8.70355530607799E-06	0.997203014196198	-0.0314786027311977
1.4	-0.000484827537672514	-0.00279939340356267	1.39689928213658E-08	3.44668109663055E-06	-4.28022720190985E-06	-4.12658809018019E-06	0.997187619443782	-0.0335010172621878
1.5	-0.00105536224338968	-0.00307383870689996	-1.29885677186764E-06	4.42906561675768E-06	6.55337681838671E-06	-7.41154969782593E-06	0.997964316989758	-0.0368712832437601
1.6	-0.00111376015452266	-0.00290763721521941	1.62989629161037E-06	-4.88689583887088E-07	4.24421497472938E-06	-5.39353477853773E-06	0.997846365539902	-0.040552913605572
1.7	-0.00100753858882051	-0.00289618578955385	5.3056225540821E-07	3.95844530876587E-06	-8.28741793212025E-06	3.12826545055449E-06	0.99810998029608	-0.0433591878628579
1.8	-0.000977988055378672	-0.00287972069748228	1.83273562037765E-06	1.07912045940892E-06	5.66001157191373E-07	-1.76228430021075E-06	0.99798511896413	-0.0462128940855898
1.9	-0.00103533036122676	-0.00302588000351411	3.23690904885456E-06	3.01950101889259E-06	-1.82745019803025E-07	-2.33124739013438E-06	0.99778182346761	-0.0485584745062639
2	-0.00139764029700228	-0.00316252058924834	-1.72828127986964E-07	2.0047816835063E-07	-1.21678251387233E-05	5.41846832607447E-06	0.997121618727123	-0.0513069593021523
2.1	-0.00166935380333345	-0.00302593208838711	6.68201277328336E-07	-1.38265092322265E-06	1.38117832186503E-05	4.96571034646667E-06	0.996978053223699	-0.0533346350850274
2.2	-0.00186918719038785	-0.00298524634477802	1.64467929766283E-06	-1.51736719806514E-06	2.68638264211877E-06	-6.21229559529214E-06	0.997121567111882	-0.0558350955103227
2.3	-0.00215112216780652	-0.00301799031075348	-1.68859660567904E-06	-3.42754448966104E-06	-1.79205509104094E-06	-4.59268691646388E-06	0.996825434761915	-0.0577710907184191
2.4	-0.00247084819125805	-0.00312528159872056	-1.20450648427959E-06	-4.40201900331532E-06	3.047418509343E-06	1.08636601150859E-06	0.996785966025043	-0.0608724495121689
2.5	-0.00308298004546292	-0.00330774464685898	5.38630232080642E-06	5.67075140329353E-06	-2.60616207725855E-06	1.61562243254032E-05	0.99652433590785	-0.0630326758842915
2.6	-0.00377290732088918	-0.00303942374732557	-2.27722211611433E-06	2.71425110354904E-06	4.32645451865601E-07	-4.31436489623234E-06	0.996791153979408	-0.0659907685914483
2.7	-0.00413740598118361	-0.00263559074217303	-2.40993919744341E-06	-3.63775993592197E-06	2.15478178706385E-06	-2.57329402454251E-06	0.996463686164581	-0.0691696492627929
2.8	-0.00427929030086627	-0.00222097580973715	4.00569409831869E-06	2.31057134144513E-06	9.83644841634153E-06	-6.94131448741833E-07	0.996578172366833	-0.0713023642782972
2.9	-0.00419503437554199	-0.00195196652535271	1.28860867831063E-05	7.01020793871396E-07	2.43263226552086E-06	-1.17224114712773E-05	0.996198707158578	-0.0734435192074366
3	-0.00423044062529908	-0.00181654645715168	-3.85367838342487E-06	1.05013555160829E-06	-4.14789705628855E-06	-1.59548880300423E-06	0.995922660889003	-0.0759154393057141
3.1	-0.00409945974856848	-0.00151836245319916	4.77151694366607E-06	-9.84685172164206E-06	1.06845032309053E-05	2.40160960236279E-06	0.995559105220002	-0.0778726607484649
3.2	-0.00395435159368957	-0.00145778745476208	-5.3738369981685E-06	-7.40384428092433E-06	1.56364689683304E-05	5.37543282003574E-06	0.995239432145079	-0.0796340403892133
3.3	-0.00389416669388681	-0.00150998969860222	-8.78880641569464E-06	2.54804813135541E-06	-8.56376900367871E-06	-1.73641448659101E-06	0.994974414867422	-0.0827904206727331
3.4	-0.00398704398455637	-0.0016493207243425	9.05578043337299E-06	-7.56143545998571E-06	-7.34233521605678E-06	4.23521145848384E-06	0.994958068378665	-0.0845934633496828
3.5	-0.00438217195968767	-0.00180636594398669	3.17354025534084E-07	-5.32087759682739E-06	-4.40017405797542E-06	-8.9271687298347E-06	0.995039030518313	-0.0873840931576609
3.6	-0.00471041954982528	-0.00153283454957962	4.07208077825018E-06	4.89777771318879E-06	-7.10377138413646E-06	8.9920099575068E-06	0.994806642995996	-0.0901094262281241
3.7	-0.0048400056270743	-0.00133696230752718	1.52671883745957E-06	-4.5252435341104E-06	-5.10216065682724E-06	-6.58300625517996E-06	0.994573813915725	-0.092948088433721
3.8	-0.00493357366159337	-0.00120219018205657	7.27555404560996E-06	-5.19459002799699E-06	-5.87755626088775E-06	-2.41677865911036E-06	0.994061720956353	-0.0950786698406322
3.9	-0.00497926737925692	-0.00116537493713132	-4.0281401640475E-06	-3.49587275578814E-07	-2.52954983834645E-06	1.13282021646372E-06	0.993768873416734	-0.0982119480770678
4	-0.00530741216623813	-0.00119153824010048	-3.38264639854166E-06	-8.12849647898619E-08	1.20594605436908E-06	8.66552127653111E-06	0.993129635490198	-0.0994364441098622
4.1	-0.00550636536971856	-0.000801924603025332	-2.89944214475991E-06	-3.85851787049302E-06	5.87652981102375E-06	3.03557230597968E-06	0.993190284776525	-0.100824010470133
4.2	-0.00549746672524706	-0.000591181373468223	-7.73205644058521E-07	-2.15589367210356E-06	5.69683160879702E-06	-1.84367049552944E-06	0.992857455964871	-0.103536249619333
4.3	-0.00550556249114505	-0.000491808127425389	-5.10278090731685E-07	3.2333031624834E-06	2.12859944535853E-06	1.77884776508945E-06	0.992705359403289	-0.105576245300121
4.4	-0.00566050972726299	-0.000536833773138971	2.57493350936118E-06	3.44008509267209E-06	7.17814522160292E-06	3.90976167526701E-06	0.992369749270738	-0.107846827764478
4.5	-0.00620594113981038	-0.000547305519554772	-6.4698519030192E-06	-2.31516970939242E-07	-8.57673222399507E-06	-2.11442661335995E-06	0.992481723063453	-0.109740654029188
4.6	-0.0068317407033335	-3.10275469897256E-05	-9.94438598131107E-06	-9.22792328953583E-06	3.2364912854838E-06	-2.73038430245058E-06	0.992756569119951	-0.112762707042343
4.7	-0.00711513261966053	0.000598495355846172	1.26401319444394E-07	1.86574168576759E-06	6.06180782932249E-06	-6.73713036062621E-06	0.992809543375101	-0.115216263593471
4.8	-0.0072182860684903	0.00126490584051082	-6.39607924330496E-06	2.08279430631903E-06	7.79196160096741E-07	-1.27534328983564E-05	0.992402921445185	-0.118006162897539
4.9	-0.00702482438076753	0.00181437654446462	-3.42219544462902E-06	8.14827861119361E-06	5.69817293737402E-07	9.38001657186485E-06	0.991847578306406	-0.119968174242141
5	-0.00685794088963547	0.00216862934796811	9.64431911069002E-06	-4.07031245366144E-06	-6.93638817255358E-06	3.58414273361807E-06	0.991675134528617	-0.12140860585868
5.1	-0.00632581500259418	0.00267650622576561	-3.69606579123627E-07	-3.25273496517411E-06	-3.87710104789907E-06	-1.78969158327536E-06	0.991852336626977	-0.122884004911163
5.2	-0.00562718317368419	0.00269795997902769	-1.07127686678626E-06	-4.48634569534009E-06	8.7921390083588E-06	5.57015130845233E-06	0.991586551598553	-0.125239382051452
5.3	-0.00515815170790567	0.00245615225242551	2.29143337701016E-06	6.79056142253025E-06	8.79584939391935E-06	3.12650084530917E-06	0.991227988717426	-0.127531232099411
5.4	-0.00498344395116895	0.0021310611688226	2.70429498221413E-06	-3.14249062191446E-06	-2.67407459731015E-06	1.54924771079773E-07	0.991179068469133	-0.130121905858791
5.5	-0.00536828539189083	0.00204703626240074	2.11144533540279E-06	9.31949307533749E-06	-3.92457660707193E-06	-5.0336914277178E-06	0.991263457613142	-0.132879467850398
5.6	-0.00540229667432611	0.00259979669795725	-5.8573982269819E-06	-1.13065388731131E-06	4.87456858520788E-06	1.94168856205823E-06	0.99119244423734	-0.135601563118301
5.7	-0.00517647774078783	0.00289872151881963	3.33654189134949E-06	-1.42514724041276E-06	-5.05126992180917E-06	-4.29036666473636E-06	0.99096790611806	-0.13839093338574
5.8	-0.00492578789594467	0.00301237082857149	-2.05766001916692E-06	-4.74517466205295E-06	9.46101664463183E-07	-5.82836423329831E-07	0.990618377818184	-0.140933895886597
5.9	-0.00473044197351092	0.00286414352556396	-3.87764516963843E-06	6.23032487788936E-07	3.86258030408139E-06	1.24520989252363E-06	0.989873496128614	-0.14353189692587
6	-0.00523575121399049	0.00233886939378788	-5.92465206084146E-06	5.04710382407943E-06	-1.48290562213225E-06	1.97586926195275E-07	0.988418521413129	-0.144995847815809
6.1	-0.00616216658149291	0.00260521309223291	-5.92105290237685E-06	-4.69040880006973E-06	-4.00118346300379E-06	4.32495856301692E-07	0.988146817444393	-0.145422816692709
6.2	-0.00683609324662496	0.00315074680130833	2.81592357267423E-06	3.12299635991908E-06	1.05124821354895E-06	7.22390702416595E-07	0.987896311379964	-0.146447418861422
6.3	-0.00707696623842751	0.00391299641854085	1.64033678144333E-06	-7.46369115640344E-07	-1.34132946971061E-07	1.37422222401141E-06	0.987626221406201	-0.148035478663571
6.4	-0.0069400551020766	0.00441431584034569	-5.17587786124236E-06	-5.62001533198594E-06	3.80741405490236E-06	6.90685848236391E-06	0.987396284396926	-0.149956245610484
6.5	-0.00692094943232903	0.00480133980662422	9.06410677713639E-06	-2.37814275920884E-07	-7.31976887790738E-06	-9.05978650090714E-07	0.987645999632982	-0.152298100308603
6.6	-0.00639973998686184	0.00544564486626285	-1.48926032970564E-06	4.64758568473369E-07	3.38552136796903E-06	-9.37875275287611E-06	0.988315833810126	-0.155480971207019
6.7	-0.00580356617252805	0.00566421315126072	4.03401766551017E-08	7.75485687743939E-06	-4.8849974040244E-07	-6.08904581464875E-06	0.98807205250931	-0.158568900868015
6.8	-0.00537320878404829	0.00580921404431707	4.24882608275337E-06	1.66097879990581E-06	2.18468015725779E-07	-5.23825624901513E-06	0.987516230375774	-0.161287470346314
6.9	-0.00504843357498316	0.00584193681592156	-7.56042227094807E-07	2.47680175582631E-07	5.76452531363708E-06	-2.67951752580799E-06	0.986894761764504	-0.163631068311305
7	-0.00526322404492059	0.00599512296748752	8.02699207316458E-06	-4.75663454812845E-06	4.36022715813973E-07	-3.02152740783447E-06	0.985964317762263	-0.165252711194679
7.1	-0.0050777703048878	0.00685837696109014	3.84662442375706E-06	2.04599965132228E-06	7.7010193350676E-07	7.2327871326968E-06	0.985823503702566	-0.166657073757286
7.2	-0.00446124196513561	0.00736218774021682	-2.45252017800507E-06	3.69183705502894E-06	-1.33045086250339E-06	-3.83042847605541E-06	0.985517649165973	-0.168558114432292
7.3	-0.00383823660326876	0.00758859630480556	3.44297364694224E-06	-4.90920725566731E-07	-2.45008417691657E-06	-1.92161381095201E-06	0.984730738460695	-0.170490648216824
7.4	-0.0032480436854861	0.00738461418690682	-6.19384433759045E-06	-2.7101625939685E-06	3.77519225832612E-06	2.51779072943918E-07	0.984184373277895	-0.172989223233847
7.5	-0.00338873832162838	0.00661906126173026	6.77443974098909E-06	-6.44320072454992E-06	-2.48422236013295E-06	7.99661976828217E-07	0.983360647455458	-0.176260647525467
7.6	-0.00392765252694555	0.00658871913565119	3.48718526709425E-06	5.21665596816092E-06	-1.02662492589624E-05	4.92947035155957E-06	0.98226035080499	-0.179529481345264
7.7	-0.00438485640650273	0.00662403038214906	6.03366747271018E-06	1.0963753662643E-05	3.39460258772386E-07	-1.13808477144953E-05	0.981408587525203	-0.182935588715343
7.8	-0.00461152465246403	0.00678496388785114	2.15993693422521E-06	9.86134549718086E-07	-3.11326466123684E-06	8.8368737480023E-06	0.980648379491086	-0.186056437910975
7.9	-0.00463233286222739	0.00687606013552845	2.556467040405E-06	-2.3184112595295E-06	3.694349432223E-06	3.42218128809828E-07	0.980084306915038	-0.189140360883132
8	-0.00489178087642934	0.00719871871789211	-2.81496924158912E-06	1.33338718588921E-06	6.88349016925435E-06	-1.86694621647182E-06	0.978943207845764	-0.191886573854894
8.1	-0.00437983395936783	0.007976530270094	-1.7912673617064E-06	7.57189585130489E-07	-3.71055293208156E-06	-1.25115274319132E-06	0.978470074304945	-0.193804733069781
8.2	-0.00370906998743814	0.00817279939985367	-7.89594195764139E-07	6.33405081661795E-06	4.87885101860631E-06	4.35007806215032E-06	0.978291210233867	-0.196109112988388
8.3	-0.00319028973900398	0.00820789687868035	-8.65232225923991E-07	-1.42075675772382E-05	6.82703897773265E-06	5.41970684784807E-06	0.977679522763888	-0.198863228171921
8.4	-0.00282457932956706	0.00812920605802422	3.75561187777103E-06	-3.42878606870989E-06	-6.96761859266941E-06	-1.21399716112159E-06	0.976832604950959	-0.201495114338342
8.5	-0.00307677913944654	0.00813112100526405	4.67215239121823E-06	5.85275036722758E-07	8.40987257309183E-06	-6.83118424730143E-06	0.976060754445202	-0.204032256410758
8.6	-0.00290243271387075	0.00904556198701863	-3.26553787951978E-06	4.11829243966204E-06	1.01573041763045E-06	1.10942945139826E-05	0.975693169206931	-0.206679937591757
8.7	-0.00208578384775666	0.00955991790063282	2.68067504080208E-06	-2.00179789285437E-06	4.77905997421741E-07	-5.54212882852051E-07	0.975313270152406	-0.20943144267166
8.8	-0.00108222199580544	0.00971234116270188	1.20113208382948E-07	-1.25277295569246E-06	-9.57120251970084E-07	9.76562374115467E-06	0.974802209945711	-0.211890480524054
8.9	7.01273798054677E-06	0.00924733741297217	-3.65715483117043E-06	2.29713047653736E-06	4.82669973247111E-06	-1.80986468413593E-06	0.974678031589059	-0.21414513814683
9	0.000368683610685021	0.00824766803678894	-1.88722931684113E-06	4.99191044815782E-07	-3.21821169711608E-06	-1.05194119712821E-05	0.974293902193252	-0.21685561590971
9.1	0.000547080329041034	0.00768211866902218	5.2434464906339E-06	5.83626206461823E-07	9.11780601554005E-07	3.80318059605652E-07	0.97340565037426	-0.219177717817397
9.2	0.000599312973557525	0.00700066708921162	-8.70978368734908E-06	-4.56464266064795E-06	-8.82938347332988E-07	-6.11634045024882E-06	0.972421889632957	-0.221502568560615
9.3	0.000395370530708803	0.00652872452085425	1.87568173667434E-07	6.20624962380541E-06	4.6319569423838E-06	-2.1903696042164E-06	0.971767212493423	-0.223586407743806
9.4	0.000138122916103241	0.00616861191636065	-1.92942228396672E-06	5.87737929792359E-06	-1.04968662114721E-05	7.72821278458269E-06	0.971168136987192	-0.226158006095175
9.5	-0.000561723666820947	0.00625506097310876	3.19011936652198E-06	-7.56331768099916E-06	3.68389739569367E-06	-2.73866360389397E-06	0.970456727619072	-0.228998290972365
9.6	-0.000597696964948271	0.00700647078893424	4.49801822077338E-06	5.57919178171282E-06	-6.43389782126214E-07	7.07276223332049E-06	0.96956013613735	-0.23179748146059
9.7	-0.000229892214446525	0.00734946061844348	-2.60496705407755E-06	-3.94021497969103E-06	3.69515903625083E-06	-7.52488493729314E-06	0.968902450259985	-0.234136242665078
9.8	0.000124199182453261	0.00746606432478467	-5.24548876626549E-07	-4.21685594680465E-06	6.27887238050206E-06	8.90581734369411E-07	0.968755853219671	-0.236113356903256
9.9	0.00046539667521838	0.00730251579672505	-2.69037357275568E-06	-5.94780935043876E-07	-8.5092745339653E-06	5.49140737891518E-06	0.968514126750117	-0.238138478365535
10	6.66430459496659E-05	0.00702793077582606	4.28801098267403E-07	-1.75164572074439E-06	-3.08446489268279E-06	-7.97140344079959E-06	0.967704570047629	-0.240046819347582
10.1	-6.88992720470325E-05	0.00761151255796849	2.24172006972454E-06	4.7723873172283E-06	-3.10944068188947E-06	9.84763864801401E-06	0.967186812975158	-0.241367366015061
10.2	0.000244232388131398	0.00790771360098551	-5.37150700532279E-07	-1.04970340877707E-06	-1.20747499475651E-06	-3.11922095625647E-06	0.966768102781249	-0.242792713963904
10.3	0.00063925915063188	0.0080353787088384	1.131882061657E-05	-2.92374348914777E-06	1.00689310728147E-05	-4.83955531120522E-06	0.966194809009788	-0.244480893157375
10.4	0.0010731790326361	0.00776094733562509	-6.30768946170674E-07	2.14978685353194E-06	3.03609338967026E-06	-2.18541742560297E-06	0.965580734389999	-0.246362537385006
10.5	0.000704340800926705	0.00741215887739257	-6.12531232214786E-06	4.64546397024914E-06	1.56990869882386E-06	4.31526595437892E-06	0.965373606603033	-0.248774560365425
10.6	0.00047441300454306	0.00783392100837234	-7.12449481054636E-06	1.07092410782071E-05	7.04196925584654E-06	4.28165905092715E-06	0.965041990582915	-0.251945956004239
10.7	0.000464941266750773	0.00837686912747721	-3.22257501619902E-06	1.57167154655493E-06	-5.38110269476913E-06	3.17957799084465E-06	0.964017650549699	-0.25511196540789
10.8	0.000804537369351808	0.00909799155912535	-1.92994587217857E-06	5.005136098177E-06	8.5148251682343E-07	-3.21177728259771E-06	0.962965243886355	-0.257239959654091
10.9	0.00143705081789047	0.00953085771967475	-5.77332069782989E-06	-1.05474823879017E-05	4.95275377205639E-06	1.07273960108042E-05	0.962471986187042	-0.259163759278233
11	0.00170734025555293	0.0098349965268397	2.97431345140195E-06	2.61841905797093E-06	7.81221833861653E-07	-1.12601470007121E-05	0.961815363596469	-0.261222606040813
11.1	0.00257734672660925	0.01071407462465	3.86612240766806E-06	1.45850576387036E-06	2.52137442895114E-07	-7.38801790945446E-06	0.960535786024341	-0.262866778782966
11.2	0.00394693814771368	0.0109072980704756	-4.42492970848143E-06	-1.97350194816074E-06	-7.33819593630709E-06	-4.8572458630592E-06	0.959307533441754	-0.264236676053527
11.3	0.00538297698275181	0.0105287051123585	6.63459967014338E-07	-6.39053526065026E-06	3.77599794378747E-06	1.41664451383743E-05	0.958539451361619	-0.265322468323842
11.4	0.00649226194939904	0.0095943762903862	-5.1289527885194E-06	8.1568675206545E-06	-1.4625285608703E-06	4.0841972253847E-06	0.957882073334749	-0.267002783332254
11.5	0.0066402262176447	0.00855159525141075	4.53114902098738E-06	8.11050697412528E-06	-9.30746722340683E-06	1.58223140312177E-06	0.95751727198129	-0.269779264546981
11.6	0.00709925333536131	0.00812055726242014	-3.84888447900172E-06	1.40381872806442E-06	5.08857855331644E-06	8.15148909315994E-06	0.956260332260617	-0.27320071682719
11.7	0.00772882438794518	0.00716415503766704	2.25410435461002E-06	1.05471167475624E-05	5.41253992303878E-07	-3.65577146746236E-06	0.955232976568632	-0.276431992170938
11.8	0.00810157404185439	0.00593909025934582	1.43317483263009E-06	4.46904848093991E-06	2.25574881893537E-06	4.54288500538902E-06	0.954629015084206	-0.279751304941995
11.9	0.00818803995506598	0.00429062521586126	7.46753735313744E-06	1.05788320273476E-05	3.88963570814802E-06	4.02172520777422E-07	0.9551874546704	-0.282872497953958
12	0.00662397474226363	0.00317473920658724	2.34924977057731E-06	-5.1638844760042E-06	-4.02323701750353E-07	1.7535357236882E-06	0.954267707320668	-0.28652241612261
