# GHZ S RI R 50
0.2	0.000900994212501031	0.00259862585668436	4.7920033678219E-06	-2.98541902707291E-06	-1.37210929500649E-05	1.31199576541639E-05	0.999199707954085	-0.00714302641047237
0.3	0.00132832328891402	0.00179382488855747	2.8657382359181E-06	6.62449467280546E-06	-1.66404092454528E-06	-9.31848287811012E-06	0.999044629440244	-0.00999295320220869
0.4	0.0016115801696474	0.00123706810436649	-1.86233646835193E-06	-4.01472286030589E-06	-9.01282732649847E-06	4.40309357389339E-06	0.998965972968144	-0.0126319900983989
0.5	0.00149233142919477	0.000819985812887861	-5.35762997175292E-06	3.26139257945368E-06	-2.12693583686695E-06	6.75506568080866E-06	0.998646832321136	-0.0154565878085271
0.6	0.0016550822867587	0.000793608078161349	-1.40088381246542E-07	2.80562935425002E-06	-5.81418377438249E-07	-1.34190392811498E-07	0.999158461807242	-0.0183221571412935
0.7	0.00181852909198232	0.000567989460042318	8.775103532347E-08	2.21897246423912E-06	4.90342079436436E-06	-3.40100749494293E-06	0.998908571472857	-0.0215786321517252
0.8	0.00198004577091049	0.000330069141031625	4.52795924909473E-06	8.26136591382508E-07	2.74358583881918E-06	2.00047686924738E-06	0.998566898910416	-0.0239455920447337
0.9	0.00213728737474871	7.17377389241621E-06	-1.51694422242798E-07	-4.21752006948226E-06	-3.4172133306573E-06	-3.1089951090406E-06	0.998266987291089	-0.0265233806773167
1	0.00197286698541666	-0.000660973815077563	1.05907672330142E-06	4.28993204471455E-06	3.32535294877291E-06	9.33450698603157E-07	0.997471069421541	-0.0281240657559704
1.1	0.00143063343089718	-0.00077569542818355	9.03833482046248E-06	5.20823582815242E-07	-3.57620674527514E-06	-5.00112591070763E-07	0.997117224345122	-0.0295165816230505
1.2	0.00110710691328762	-0.00122504674263916	3.75915355378496E-06	-1.19748664981286E-06	-4.09333156380474E-06	-2.43803526265442E-06	0.996719263622621	-0.0302715521357348
1.3	0.000374880772694848	-0.00194975168178337	-7.60467695132379E-07	-1.42658789181678E-06	-2.58102711228333E-06	-8.70408824605817E-06	0.997089935804658	-0.0308277678206085
1.4	-0.000382592138315112	-0.00264701262137426	1.18402868880993E-08	3.44703325017417E-06	-4.27810350907119E-06	-4.1296446166166E-06	0.99736277914581	-0.032701950876681
1.5	-0.00101505001099248	-0.00293267173215798	-1.30144004469206E-06	4.42940927886145E-06	6.55870239937711E-06	-7.40986425775616E-06	0.998197854377954	-0.036171506274404
1.6	-0.000932292944202849	-0.00269681980366171	1.63040488022866E-06	-4.88102819100537E-07	4.24725427544929E-06	-5.39277857086604E-06	0.998176805356003	-0.0398399736059919
1.7	-0.000771901479134057	-0.00280832103244109	5.29103158966677E-07	3.95924506124774E-06	-8.28987649127214E-06	3.12551317739681E-06	0.998484177316232	-0.0427816097103776
1.8	-0.000747521631636694	-0.00287773986653414	1.8326838208693E-06	1.07995974002E-06	5.66723642051051E-07	-1.76240069939132E-06	0.99840331698202	-0.0457661460134104
1.9	-0.000823544792037816	-0.00315105460957201	3.23716382997978E-06	3.02078336138742E-06	-1.82386517495507E-07	-2.33183770563117E-06	0.998245007154648	-0.048437386694758
2	-0.00145923518799209	-0.00335150137218801	-1.7279144767513E-07	2.00459841666738E-07	-1.2165762289804E-05	5.4184209329789E-06	0.996901658915092	-0.051485663885685
2.1	-0.00172930142870173	-0.00294729388616633	6.68496733154363E-07	-1.38205737600535E-06	1.380643760302E-05	4.96911347270973E-06	0.996633573843346	-0.0528227709646649
2.2	-0.00180269216944608	-0.00287552504132685	1.64515337139437E-06	-1.51652648095597E-06	2.68872442800474E-06	-6.21055254987496E-06	0.997075837915266	-0.0551996197572967
2.3	-0.00198891585002738	-0.00293154079081642	-1.68719438544486E-06	-3.42812747102775E-06	-1.79018811929533E-06	-4.59328143675339E-06	0.99696445787564	-0.0571739366727514
2.4	-0.00219141410918728	-0.0031614092222871	-1.20275757900065E-06	-4.40235367689644E-06	3.04690327712364E-06	1.08751835177459E-06	0.997061916672161	-0.0604075509187491
2.5	-0.00297219795170533	-0.00362888055159915	5.38371427560062E-06	5.67383880755915E-06	-2.61458263752445E-06	1.61558328862757E-05	0.99672969955255	-0.0627688410959573
2.6	-0.00390440524978597	-0.00321127521466964	-2.27866461972454E-06	2.71406563048272E-06	4.34232155445539E-07	-4.31517137475297E-06	0.996879650940012	-0.0657642279303898
2.7	-0.00431756665161522	-0.00265529938921035	-2.40941728505076E-06	-3.63872353109406E-06	2.15560654673752E-06	-2.57312012233708E-06	0.996374408297889	-0.0689023731323191
2.8	-0.00439796392239495	-0.00208944515626255	4.00510375830865E-06	2.31160678689545E-06	9.83664008925202E-06	-6.91597055114475E-07	0.996426198366888	-0.0708290841172638
2.9	-0.00417051678862654	-0.00182417356522475	1.2885481822823E-05	7.06269558321846E-07	2.43736268035479E-06	-1.17211276223832E-05	0.996168019409379	-0.0728155775273218
3	-0.00430732595496423	-0.00174294664358928	-3.85504765929883E-06	1.04834478971975E-06	-4.14794609962641E-06	-1.59799655312529E-06	0.996023788380271	-0.0752509924240746
3.1	-0.00408072846736193	-0.00126400939236932	4.7766004987934E-06	-9.84785804201377E-06	1.06866443716819E-05	2.40633350413188E-06	0.995803199988648	-0.0771541544445344
3.2	-0.00378856129217701	-0.00124161548812656	-5.37255519144782E-06	-7.40806023824489E-06	1.56389490952442E-05	5.38300095922967E-06	0.99564067894999	-0.0789243705903668
3.3	-0.00364411731743261	-0.0013667202007442	-8.79296301127453E-06	2.54505816848706E-06	-8.56596141709028E-06	-1.740784738612E-06	0.99553577565454	-0.0820891926241595
3.4	-0.00366604396949087	-0.0016536590037295	9.06476929916241E-06	-7.56036272226063E-06	-7.34856533111186E-06	4.23334356144174E-06	0.995800388618613	-0.0839406706575171
3.5	-0.00428337073738696	-0.00196893628537319	3.19177879917947E-07	-5.32566213270727E-06	-4.40163424005317E-06	-8.93661721653148E-06	0.996017329872223	-0.0872072546263838
3.6	-0.00463210870235704	-0.00146887372899872	4.07476548681676E-06	4.90101078735733E-06	-7.10846189248508E-06	8.99793984322735E-06	0.995475145312271	-0.0899457652722088
3.7	-0.00461732457797329	-0.0012819553016203	1.52792101250413E-06	-4.52771728509794E-06	-5.10459522846215E-06	-6.58713896139151E-06	0.995331474688727	-0.0926951310067385
3.8	-0.00461595018459235	-0.00125784599705363	7.28064324240618E-06	-5.19720639894168E-06	-5.88105515154469E-06	-2.41885367596852E-06	0.995014598949877	-0.0949284411779737
3.9	-0.00464709442407252	-0.00146286580515263	-4.03120316783794E-06	-3.49470012385849E-07	-2.53134566013063E-06	1.1339111050559E-06	0.994870507118874	-0.0985384078221749
4	-0.00538835157327061	-0.00168511496423036	-3.38379260277847E-06	-8.00953860984274E-08	1.20946043872716E-06	8.66794902743436E-06	0.993359524156609	-0.100245250436417
4.1	-0.00577246678285549	-0.000930550845764086	-2.89993025435453E-06	-3.8597920262222E-06	5.87789107412018E-06	3.03685422433591E-06	0.99317193085206	-0.100834200223183
4.2	-0.00567067646876371	-0.000542720313105261	-7.73449080056254E-07	-2.15699072484637E-06	5.69971821177229E-06	-1.84421666343707E-06	0.993129920397044	-0.103392537768222
4.3	-0.0055532615303031	-0.000373596607329041	-5.10287540040849E-07	3.2350297225038E-06	2.12985063289802E-06	1.77960641576766E-06	0.993123953434352	-0.105500733619497
4.4	-0.00556042892590822	-0.000493047236792602	2.57637681093054E-06	3.440937865113E-06	7.18131681987139E-06	3.9100932262007E-06	0.992772622840078	-0.107905822538639
4.5	-0.00631345666475092	-0.000676266347545609	-6.47216606060384E-06	-2.32881245938967E-07	-8.57944242538671E-06	-2.11689447202288E-06	0.992701094607563	-0.109645970839394
4.6	-0.00697878746799916	0.000153715367223141	-9.95136419279922E-06	-9.23472811199609E-06	3.23886444842564E-06	-2.73228777001573E-06	0.993236401365362	-0.112558593853552
4.7	-0.00708037580252105	0.000850695622426111	1.26854490156444E-07	1.86693803755657E-06	6.0644387476873E-06	-6.74274446049829E-06	0.993376907459891	-0.11512623393628
4.8	-0.00703899845972422	0.00149575058438618	-6.39893524180541E-06	2.08565067982352E-06	7.76140382453499E-07	-1.27604706498951E-05	0.992995024536642	-0.117974196061289
4.9	-0.00670634262040932	0.00189842576090031	-3.421984092661E-06	8.1523919554101E-06	5.71953874061521E-07	9.383839589054E-06	0.992493721790245	-0.119992702143217
5	-0.00676769926861762	0.00208398502215342	9.65044188619983E-06	-4.07414267796121E-06	-6.94071977263824E-06	3.58734481117332E-06	0.99236691428631	-0.121562342929668
5.1	-0.00616693849814521	0.0028322327278631	-3.71421388964501E-07	-3.25479686523393E-06	-3.88062860309453E-06	-1.78906373368127E-06	0.992559724738154	-0.123150876386129
5.2	-0.00528913638920024	0.00273859775865012	-1.0743395955439E-06	-4.48795209913474E-06	8.7996202046215E-06	5.5679299922836E-06	0.992289530723037	-0.125670569326719
5.3	-0.00481085927510025	0.00229590489523191	2.29557431911471E-06	6.79183490953003E-06	8.80048929693126E-06	3.12328910556609E-06	0.991830803799232	-0.128088224035218
5.4	-0.00474592795942711	0.00173732368256037	2.70471222453774E-06	-3.14445856976823E-06	-2.67517609729355E-06	1.5561464667123E-07	0.991778789077548	-0.130697126436469
5.5	-0.00568885504064418	0.00161038464306006	2.11791058792503E-06	9.32741134685372E-06	-3.93073491170976E-06	-5.03664091015796E-06	0.991765221797216	-0.133834052706246
5.6	-0.0057149793456057	0.00271514064021086	-5.86210405052642E-06	-1.12593204050364E-06	4.87941218542662E-06	1.93838399644246E-06	0.991282173588718	-0.136371237396092
5.7	-0.00525474581141322	0.00310973164380304	3.33676411984174E-06	-1.428747237049E-06	-5.05733486103034E-06	-4.28779283799066E-06	0.991138701255346	-0.13897627443235
5.8	-0.00484930702801515	0.00322668365029674	-2.06307076794137E-06	-4.74542907495206E-06	9.45990130308051E-07	-5.83994841979622E-07	0.990984195882679	-0.141568673361948
5.9	-0.00444780734970236	0.00294908037481507	-3.87851220847709E-06	6.28443494681305E-07	3.8659167413808E-06	1.24063441098914E-06	0.990402217319296	-0.144712821928145
6	-0.0052466442703769	0.00205213062286335	-5.91425751627279E-06	5.05346382843586E-06	-1.48188979014812E-06	1.99697509020851E-07	0.987691552254103	-0.146661268620652
6.1	-0.00636547447165451	0.00278974265689442	-5.92162722260276E-06	-4.68392794702685E-06	-3.99897902758811E-06	4.35171016930039E-07	0.987271781123829	-0.145876323881375
6.2	-0.00674180278838603	0.00349897182799733	2.81763439082752E-06	3.12024767262576E-06	1.05155876741262E-06	7.21459025202408E-07	0.987523465672376	-0.146772670747875
6.3	-0.00670487978834385	0.00418430691834823	1.63924883970328E-06	-7.4766207757072E-07	-1.32858108060149E-07	1.37399657251935E-06	0.987441282984898	-0.148558554092312
6.4	-0.00640751649351011	0.00433814100341976	-5.17797028693302E-06	-5.61134181615742E-06	3.81164421016457E-06	6.89867723950388E-06	0.986965048226699	-0.150802493102511
6.5	-0.00687352767720848	0.00452694280969306	9.056050011618E-06	-2.38556931815707E-07	-7.31337808610253E-06	-9.04405946892128E-07	0.98661214945887	-0.152413226829694
6.6	-0.0062704706875279	0.00547721504167385	-1.48904537884829E-06	4.64792322676637E-07	3.38451924921693E-06	-9.37778854801125E-06	0.988147726837262	-0.155300023086324
6.7	-0.00562090271252586	0.00559412233762746	4.31762845615642E-08	7.75443152303962E-06	-4.90702440501794E-07	-6.08854463410924E-06	0.988036630281453	-0.158775352536769
6.8	-0.00520342894230585	0.00571869426292997	4.24903284298432E-06	1.65852645595935E-06	2.15725411831075E-07	-5.2375650968649E-06	0.98739415654464	-0.161650147705311
6.9	-0.00480795429934219	0.00556513314986481	-7.5566901992088E-07	2.48024476035392E-07	5.76123889955966E-06	-2.6818966166016E-06	0.986720015179976	-0.164229503646122
7	-0.00563794326613994	0.00553787201846091	8.0217924932164E-06	-4.75859235829402E-06	4.3445649877336E-07	-3.02060463348848E-06	0.985099967280005	-0.165982914270982
7.1	-0.00546205774104062	0.0070721248883928	3.84607028000417E-06	2.04330422352448E-06	7.73310275959176E-07	7.22949904826865E-06	0.984868486360489	-0.166686726532434
7.2	-0.00454383660799455	0.0077006269155132	-2.44974862655406E-06	3.69104750606892E-06	-1.33141065395476E-06	-3.82797288778263E-06	0.984812765497085	-0.168326827563274
7.3	-0.00370027734885155	0.00794184810967699	3.44108565395484E-06	-4.91474457589625E-07	-2.44927263184086E-06	-1.92005031140116E-06	0.984319597118708	-0.170021157658241
7.4	-0.00279991865894783	0.00757452214589983	-6.19281215305986E-06	-2.71006537088301E-06	3.7746303748837E-06	2.51923712873854E-07	0.984591805224096	-0.17247692484359
7.5	-0.0032502219796233	0.00628556747415015	6.77252359362873E-06	-6.4516790565702E-06	-2.48476759445176E-06	8.02026266485085E-07	0.983995552814928	-0.177302384729283
7.6	-0.00396204509164842	0.00671719430174559	3.49159514760426E-06	5.21038058040781E-06	-1.02561034226472E-05	4.93900117089791E-06	0.981746867506019	-0.180322811256034
7.7	-0.00412523518913571	0.00681290761395207	6.03874339790927E-06	1.09514084523614E-05	3.29776071905124E-07	-1.13735195016564E-05	0.981015931865257	-0.183360209258486
7.8	-0.00417849025383703	0.00675787655565349	2.15950090129062E-06	9.83890533416957E-07	-3.10459930796846E-06	8.8343680472397E-06	0.980526491068208	-0.186703580114426
7.9	-0.00423080687517632	0.00645012747414918	2.55264290480877E-06	-2.32059740913851E-06	3.69330448587854E-06	3.37599370078413E-07	0.979905503539003	-0.190708516398541
8	-0.00535808773055713	0.00673927040951717	-2.8078228312173E-06	1.33679987952611E-06	6.86876359837141E-06	-1.87752732682902E-06	0.976551380298027	-0.194004660760716
8.1	-0.00467688847519498	0.00817253385815769	-1.78658547866072E-06	7.57025189326629E-07	-3.70327803944926E-06	-1.24514793081916E-06	0.97571926398749	-0.193964209429933
8.2	-0.0037371532344767	0.00845353458126588	-7.85473829848786E-07	6.3209780092119E-06	4.8702304888341E-06	4.3390008438113E-06	0.976039688322783	-0.195687710838486
8.3	-0.00299834880685496	0.00847071915749236	-8.66172197769797E-07	-1.41774319008617E-05	6.81369379483101E-06	5.40694671580191E-06	0.975705734251786	-0.1982334931121
8.4	-0.00238780895393555	0.00809826651269799	3.74703035010899E-06	-3.42023138016444E-06	-6.95090565074387E-06	-1.2118357967435E-06	0.974925264024113	-0.20078863351782
8.5	-0.0032270282472386	0.00772602940413849	4.66176895258135E-06	5.88778556129319E-07	8.39916471626275E-06	-6.80835486019446E-06	0.974049818446699	-0.202870772361768
8.6	-0.00312949907881437	0.00927058209961871	-3.26388532287544E-06	4.10964760941216E-06	1.00561854996981E-06	1.1078616618613E-05	0.974151726801045	-0.205232201662294
8.7	-0.00200446215897791	0.00990156432053713	2.67766441893485E-06	-1.99695288547213E-06	4.77491995360334E-07	-5.53035852810889E-07	0.973967971551873	-0.20797486313745
8.8	-0.000750946118324986	0.0100295486167463	1.20778263811468E-07	-1.25044318066867E-06	-9.62267192724179E-07	9.74744803851813E-06	0.973559326696445	-0.210332929951557
8.9	0.00064374522272148	0.00930390410342105	-3.65217489881479E-06	2.28842314705492E-06	4.8187905215863E-06	-1.80087622707603E-06	0.973600573721239	-0.212440091838791
9	0.000646849575322763	0.00785091314798869	-1.8851554306108E-06	4.95174885067396E-07	-3.19514889629858E-06	-1.05086003784562E-05	0.973446331309403	-0.215139216549605
9.1	0.000765283370709503	0.00757964046961598	5.23585394141768E-06	5.90509514735409E-07	9.10054391284335E-07	3.81156428983245E-07	0.972683774408044	-0.217457706145429
9.2	0.000909151858215522	0.00674124157660237	-8.69100865919332E-06	-4.57274847849217E-06	-8.71896493605316E-07	-6.1097644649409E-06	0.971812193475728	-0.219767780869696
9.3	0.000568394515439166	0.00612484182572643	1.75189174716168E-07	6.19988263933431E-06	4.63122746981824E-06	-2.17890564167169E-06	0.971318798734712	-0.221702329506793
9.4	0.000148761331620178	0.00562757642850658	-1.94224670675817E-06	5.87014374193753E-06	-1.05100301929902E-05	7.70011602960787E-06	0.971255299818876	-0.224177111090852
9.5	-0.00121398758037307	0.00581503901537413	3.20420606782464E-06	-7.56238615135171E-06	3.69042026236897E-06	-2.73421629846962E-06	0.970718816776287	-0.227828469100358
9.6	-0.00108047044313218	0.00726996479917288	4.49312600831564E-06	5.5841576429097E-06	-6.50295929348905E-07	7.07292547907609E-06	0.96943195649417	-0.230422940614561
9.7	-0.00038219312776911	0.00769924741303247	-2.60088181187691E-06	-3.94283770337008E-06	3.70284126858578E-06	-7.52098365575154E-06	0.969046709159107	-0.232576442991322
9.8	0.0001961161970528	0.00779788004021488	-5.2056908212189E-07	-4.21805542580295E-06	6.27904653390729E-06	8.96782611724415E-07	0.969324379626525	-0.234690907085883
9.9	0.000780273399206721	0.00737915874816326	-2.69098993677363E-06	-5.95965774228248E-07	-8.51396359070649E-06	5.48995462410949E-06	0.96933555929257	-0.237625553272321
10	-0.000167202114417778	0.00678250049571719	4.28514319883638E-07	-1.74994011938798E-06	-3.08095330044514E-06	-7.96399622345218E-06	0.966622861851265	-0.239841661572972
10.1	-0.000334362820262363	0.0080182071885715	2.23383618768108E-06	4.770765254762E-06	-3.11863760752937E-06	9.83483480867161E-06	0.966410346829707	-0.239348720934495
10.2	0.000363449214277896	0.00846073608754058	-5.35522365749666E-07	-1.04997217588483E-06	-1.2028019962363E-06	-3.11950142890457E-06	0.966921954740954	-0.240636457385368
10.3	0.00112831001792642	0.00851665205944385	1.13192056611171E-05	-2.90958469843619E-06	1.00719172436133E-05	-4.82635329613865E-06	0.966866615368932	-0.242610888501069
10.4	0.00191075923561482	0.00778881925604797	-6.32780274242955E-07	2.14786729178937E-06	3.03677446751084E-06	-2.18082533281684E-06	0.96630256127271	-0.245004616143462
10.5	0.000993275585107958	0.00692448983954384	-6.13113732909325E-06	4.63082065753869E-06	1.56052446248416E-06	4.31600566921542E-06	0.965732898471739	-0.247138047454179
10.6	0.000613917788557212	0.00761436219758723	-7.14408263109583E-06	1.06985978297942E-05	7.03566656553232E-06	4.29447691010216E-06	0.965815424562919	-0.250426685250054
10.7	0.000512042378762036	0.0081594980054848	-3.22489261817788E-06	1.56684476704408E-06	-5.38580173252079E-06	3.17151309027953E-06	0.96446959857387	-0.253720055117434
10.8	0.000839394925775579	0.00902506689675925	-1.93772857189999E-06	5.00096733400643E-06	8.56555245975644E-07	-3.20973420450697E-06	0.963283301483106	-0.255473806884249
10.9	0.00166801757614217	0.00933066221687227	-5.75059473231739E-06	-1.05555935186947E-05	4.92993035196505E-06	1.07338241332824E-05	0.96298081449724	-0.25715750676742
11	0.00133800445005239	0.00942118090972351	2.96867775478366E-06	2.62623634178216E-06	8.08660984858436E-07	-1.1260914030458E-05	0.962340292871212	-0.259104167809224
11.1	0.00225205966935149	0.0109287283322043	3.86521830230894E-06	1.46750604339701E-06	2.6790663756291E-07	-7.39165219910378E-06	0.961406271052307	-0.260385602860867
11.2	0.00390674241050669	0.0111964424839373	-4.42338613706489E-06	-1.98395276053935E-06	-7.3323092368533E-06	-4.87550830390833E-06	0.960606066487019	-0.261674043185786
11.3	0.0055378975880639	0.0107622412707033	6.78571122962044E-07	-6.3937705715165E-06	3.74640197991154E-06	1.41856185378663E-05	0.960362566547852	-0.262730363383766
11.4	0.00686217552576855	0.00955061236584662	-5.15738706980113E-06	8.15467053432505E-06	-1.47524251517896E-06	4.0859933067278E-06	0.960690160353419	-0.264641573383463
11.5	0.0064375307969244	0.00826496757731454	4.52841786831458E-06	8.13589528300329E-06	-9.33085228061278E-06	1.57098535972958E-06	0.960241396988303	-0.26896167667482
11.6	0.0069654456470194	0.00844522535147334	-3.85608069948698E-06	1.40163752220054E-06	5.08706394312859E-06	8.16906117474333E-06	0.958199583828771	-0.272021399470332
11.7	0.00799624892702966	0.00751697094130721	2.24291726882304E-06	1.05647114563894E-05	5.469547959092E-07	-3.66007757069766E-06	0.957606256194155	-0.275013683388113
11.8	0.00869906335366399	0.00605221690208526	1.42934088982772E-06	4.47871604398193E-06	2.25321927532323E-06	4.55383627633114E-06	0.9576675182913	-0.278717768605494
11.9	0.00878606615569012	0.003739700538109	7.47423790385257E-06	1.06068812293545E-05	3.89734735397103E-06	4.0621880107964E-07	0.958294807118015	-0.283284278885948
12	0.00618064981181537	0.0022287576090577	2.35258952201464E-06	-5.16816142519129E-06	-4.03090058837599E-07	1.75507651853024E-06	0.954899884340903	-0.287546785377726
