# GHZ S RI R 50
0.2	0.000358835163738701	0.00149837906712336	4.80916273153711E-06	-2.98239252247467E-06	-1.37796531326602E-05	1.31217891409817E-05	1.00120152828975	-0.00600605325149218
0.3	0.000881639146302137	0.001107499445062	2.86205780060077E-06	6.64721125722718E-06	-1.65250535236332E-06	-9.34637188349721E-06	1.0015327797783	-0.0088121485911472
0.4	0.00124108583976698	0.00118881692224023	-1.86436594439155E-06	-4.03136726910904E-06	-9.05045237327157E-06	4.40845078298404E-06	1.00238396349414	-0.0114420486613893
0.5	0.00250312426204807	0.000594324899066051	-5.37307849707677E-06	3.27501098473798E-06	-2.12993496915913E-06	6.77812437101879E-06	1.00273140289215	-0.0161887246485573
0.6	0.00184221742437801	-0.000829571597246628	-1.41695822033031E-07	2.81170992535878E-06	-5.82629722980818E-07	-1.34753850844172E-07	1.00118733483663	-0.0189770187384888
0.7	0.00112278276109031	-0.000800183822582428	8.56500664411477E-08	2.22578748086004E-06	4.92190113462874E-06	-3.40607935565525E-06	1.00103999527794	-0.0210349383882684
0.8	0.00075340725980909	-0.000705815365608055	4.5443795317846E-06	8.34341271920999E-07	2.75186539893111E-06	2.01119220276236E-06	1.00123567301186	-0.0228213632042272
0.9	0.000153544375668486	-0.0002112394701798	-1.47896008789248E-07	-4.2380704435375E-06	-3.43039145189354E-06	-3.12769568371943E-06	1.00161927768066	-0.0246426847963543
1	0.00115074445451549	0.0011030157718724	1.06619038986689E-06	4.31556249007807E-06	3.34552349413561E-06	9.38493076889916E-07	1.00341631085096	-0.0261140762759821
1.1	0.00200523747520802	-0.000508284032648549	9.08740465070881E-06	5.13416185915729E-07	-3.59595411877252E-06	-4.98758930138659E-07	1.00332256317786	-0.0303691170290176
1.2	0.00120662899146841	-0.00154153602410381	3.77707043604876E-06	-1.20912177669799E-06	-4.1181981806235E-06	-2.4449072883492E-06	1.00191655327713	-0.0320700308066405
1.3	0.000251392832676629	-0.00271844728487411	-7.6729558163825E-07	-1.4316679697134E-06	-2.61288665999073E-06	-8.73971356074136E-06	1.0011526681753	-0.0337375965375938
1.4	-0.00100781879477624	-0.00352097061588796	2.18117064428349E-08	3.45979391789352E-06	-4.30587645449767E-06	-4.13265215841992E-06	0.999621568446806	-0.0359356158466342
1.5	-0.000778567546068666	-0.00418426973012596	-1.2939743965948E-06	4.44681347183346E-06	6.56006387318588E-06	-7.4504338998278E-06	1.00047083384947	-0.0391809152191502
1.6	-0.00208610975074352	-0.00475055557645894	1.63487942234496E-06	-4.93891882302834E-07	4.24858850229082E-06	-5.42225995839228E-06	0.999454681564772	-0.0427755034247972
1.7	-0.00245344988720276	-0.00391314618638492	5.41629512580086E-07	3.97286484954766E-06	-8.31303334396772E-06	3.15939801817419E-06	1.00000981277157	-0.0446879421548926
1.8	-0.00242121854777512	-0.00324555569006833	1.84246467618713E-06	1.07916199560281E-06	5.64177284896147E-07	-1.77055263673115E-06	1.00024890684729	-0.0470253535586575
1.9	-0.00216810939858078	-0.00242381232418759	3.25434975240776E-06	3.02703821382027E-06	-1.86846502804674E-07	-2.34040784137063E-06	1.00068012452816	-0.0478680037411596
2	-0.00050812474510134	-0.00251736327654184	-1.73814564325819E-07	2.02061874312136E-07	-1.22467013692845E-05	5.46939909353104E-06	1.00464503002481	-0.0507851702769353
2.1	-0.00109949673832899	-0.00420243685796464	6.6703298908194E-07	-1.39531577695204E-06	1.39309925418033E-05	4.94191404996977E-06	1.00365608059251	-0.0575226653895061
2.2	-0.00215579977876954	-0.00427906529636935	1.64694466314957E-06	-1.53447770969923E-06	2.67166180505986E-06	-6.26238160088678E-06	1.00178837626233	-0.0603108098997221
2.3	-0.00306541450606983	-0.00409632480673902	-1.7155359211345E-06	-3.43764424371653E-06	-1.8255700908092E-06	-4.60864632576855E-06	1.00073182313606	-0.0620022507382746
2.4	-0.00402102679208217	-0.00329188571152301	-1.23595714123877E-06	-4.41882281078735E-06	3.069948993056E-06	1.07490533526184E-06	1.00036827539052	-0.0648875982443554
2.5	-0.00323413294519107	-0.00202344534863997	5.44746604578613E-06	5.65899396037696E-06	-2.50902202495607E-06	1.6243103885648E-05	1.00034467111622	-0.0672709873379005
2.6	-0.00292292136202693	-0.00303865268364457	-2.26912090442891E-06	2.73651254608488E-06	4.09111397726254E-07	-4.3312965170443E-06	1.0000834787009	-0.0706892250636821
2.7	-0.00344389134679955	-0.00326678811718089	-2.43944869623295E-06	-3.63827390411785E-06	2.14870108068488E-06	-2.59516552143411E-06	0.999726654710743	-0.0741380495285664
2.8	-0.00397173884864688	-0.00321911708256495	4.03657301562895E-06	2.2957150092444E-06	9.87330721320249E-06	-7.57224747050938E-07	0.999594730523788	-0.0769735403632468
2.9	-0.00423228784786218	-0.0025816047346686	1.29432720520358E-05	6.12865619804045E-07	2.35971378367196E-06	-1.1787107683512E-05	0.998688964624428	-0.0796117347067622
3	-0.00309334600686248	-0.00251539444767981	-3.85688974660463E-06	1.08167575014315E-06	-4.17154444020153E-06	-1.56931411117115E-06	0.998023774159992	-0.0825772446465397
3.1	-0.0036474362366948	-0.00359513851935043	4.71685192084038E-06	-9.91146190268907E-06	1.07349825786803E-05	2.33359159382537E-06	0.996859994290651	-0.085154521567401
3.2	-0.00432139595153438	-0.00345060549502639	-5.44872437546848E-06	-7.3838009687569E-06	1.57264579188878E-05	5.2680386546138E-06	0.995683163380991	-0.0871559730561179
3.3	-0.00480983047239277	-0.00321178754940494	-8.7871324113931E-06	2.63150181813459E-06	-8.59930981942529E-06	-1.66507087943955E-06	0.994405255158509	-0.0906189284312822
3.4	-0.00525648985122282	-0.0024975598988469	8.9896902204305E-06	-7.65537984188955E-06	-7.30714206034221E-06	4.30985724931291E-06	0.992726452295828	-0.0923979591860128
3.5	-0.00422668820562396	-0.00224179787154058	2.73909337043919E-07	-5.31672131312708E-06	-4.46683099074539E-06	-8.8802926499459E-06	0.992087707875614	-0.0932407051036436
3.6	-0.00499604483048081	-0.00340977556845872	4.10808310625477E-06	4.86727070991001E-06	-7.03666277892704E-06	9.04401409224558E-06	0.992476890223651	-0.0962975216652668
3.7	-0.00616155531510808	-0.00295716767980107	1.48942157902619E-06	-4.53620833510508E-06	-5.15406658104973E-06	-6.53939291110501E-06	0.991407402301812	-0.0992118358067123
3.8	-0.00682490418163094	-0.00201393016957047	7.22447538665917E-06	-5.2482573041829E-06	-5.89055962730554E-06	-2.36574047174617E-06	0.990177863413876	-0.100650073315143
3.9	-0.0067959761753052	-0.000503325884892856	-4.02355127546456E-06	-3.20357695890872E-07	-2.51706109527431E-06	1.14880113682195E-06	0.990071301722718	-0.101859765273692
4	-0.00475093149466267	0.000110497089680997	-3.38523466770286E-06	-5.84307000668612E-08	1.26534513258425E-06	8.66257667054288E-06	0.993893023866165	-0.10355493536464
4.1	-0.00459284228067583	-0.00138860194256106	-2.93494828338647E-06	-3.8300932749233E-06	5.90342462581623E-06	2.97934402221106E-06	0.992182952380552	-0.109498480352853
4.2	-0.00518288718503977	-0.00160498940977392	-7.91955784779539E-07	-2.14464000477997E-06	5.66896250991604E-06	-1.89358802430264E-06	0.989389418481063	-0.112094481082996
4.3	-0.00564538846757092	-0.00144529201818438	-4.79613479875183E-07	3.22982495933298E-06	2.13942262073231E-06	1.75503846145109E-06	0.98818664588022	-0.113599320932566
4.4	-0.00606112679702763	-0.000694998574500814	2.60057600215053E-06	3.40636635464215E-06	7.195783083078E-06	3.83113529286974E-06	0.987424356530864	-0.115572964684866
4.5	-0.00467699140954985	-0.000149017701963879	-6.4411551241058E-06	-1.58005314705809E-07	-8.55891501922078E-06	-2.00823530509596E-06	0.986735995481214	-0.118755079582077
4.6	-0.00508378014119885	-0.00171722710127107	-9.95391926206929E-06	-9.06707142544381E-06	3.18702068021828E-06	-2.73944612134488E-06	0.984021292684864	-0.121116170122669
4.7	-0.00617453024336252	-0.00167508362415466	1.397321408472E-07	1.85017607715142E-06	5.96267928316774E-06	-6.73095122137588E-06	0.983040462006906	-0.122006812997552
4.8	-0.00698389443529369	-0.00115323903325035	-6.33080452550649E-06	2.11074412479376E-06	6.84302046502257E-07	-1.26575845828136E-05	0.982109260252601	-0.123706926194949
4.9	-0.00741417072782317	1.86078497403239E-05	-3.33769681439058E-06	8.10473699577817E-06	6.29911083967157E-07	9.29874510563584E-06	0.981087026970491	-0.124807625161328
5	-0.00589313065361057	0.000554014670374325	9.52126086071785E-06	-4.09051088372091E-06	-6.8437131058883E-06	3.5920502174034E-06	0.980482710227327	-0.125665870049388
5.1	-0.00640963678365031	-0.000479355070830416	-3.80273373014318E-07	-3.21917987244606E-06	-3.84690646166116E-06	-1.75508389965311E-06	0.979858702104119	-0.126335815661455
5.2	-0.00693587724623594	0.000176823195452115	-1.07986417727063E-06	-4.44000843185955E-06	8.73311295850124E-06	5.48169632415511E-06	0.979371506219401	-0.127599849093348
5.3	-0.00679667870242306	0.000970713894206943	2.29963079963832E-06	6.7166379736467E-06	8.72680084310646E-06	3.05854693904794E-06	0.97903791198547	-0.129382007467719
5.4	-0.0061896630278617	0.00204575454978925	2.65956712674983E-06	-3.12273733117994E-06	-2.64481422693689E-06	1.66831465423083E-07	0.978127747908687	-0.131683128694375
5.5	-0.00371496311081346	0.0017000857627735	2.10907275412262E-06	9.19015162842277E-06	-3.88638909833735E-06	-4.95617815660613E-06	0.978027653334867	-0.132397557095005
5.6	-0.0047319485368199	-0.000404347988773647	-5.79005961100548E-06	-1.11328522330065E-06	4.81924876056459E-06	1.91559032097391E-06	0.978411023572709	-0.1352210662527
5.7	-0.00616212281193848	-1.7477648875935E-05	3.29816045066493E-06	-1.41068906795012E-06	-4.99632712705606E-06	-4.23943372240405E-06	0.977331871207031	-0.137181001118317
5.8	-0.00701382647756377	0.000878280880525603	-2.03210480114238E-06	-4.69217598435282E-06	9.35613465365987E-07	-5.75779518458819E-07	0.976659042376602	-0.137951552211023
5.9	-0.00764071098943949	0.00275422587180809	-3.83920959280852E-06	6.06294141172397E-07	3.81933941940694E-06	1.24259293603981E-06	0.977221435933317	-0.137247289712262
6	-0.00522179922430339	0.00476988676886635	-5.90028823247743E-06	5.0089095123486E-06	-1.47498979964752E-06	1.93957927633985E-07	0.982884601274593	-0.139553660535555
6.1	-0.00420400076135682	0.0028653579912126	-5.8880967095857E-06	-4.64498494430255E-06	-3.97169250392331E-06	4.37422533431347E-07	0.980795461477388	-0.145963785971269
6.2	-0.00487603950215927	0.00226628031850748	2.79575401407491E-06	3.09083148287691E-06	1.04302661686191E-06	7.14326721036123E-07	0.977911927477482	-0.146974912946154
6.3	-0.00554346399215839	0.00223190675330577	1.62464433817537E-06	-7.40252587704424E-07	-1.32170794385266E-07	1.36146823178312E-06	0.976503550004961	-0.147547567200047
6.4	-0.00587609753840127	0.0031891816448133	-5.13213854437054E-06	-5.57259451041566E-06	3.77522145464584E-06	6.84856323594122E-06	0.976774867878308	-0.148078612415001
6.5	-0.00394929427254947	0.00269481976475592	8.97513147811198E-06	-2.60989975223726E-07	-7.25100456493265E-06	-8.76565534776583E-07	0.976896801253786	-0.153288252520985
6.6	-0.00539609643415347	0.00134666287853669	-1.46893900814681E-06	4.58628981930398E-07	3.33824474467995E-06	-9.25159682385268E-06	0.972638321574177	-0.15380708358393
6.7	-0.00610540700006696	0.00213987234097792	1.89682231544646E-08	7.64953050894037E-06	-4.65507697178011E-07	-6.00757114636089E-06	0.972685256495061	-0.152942895026969
6.8	-0.00638362292459127	0.00288363146366177	4.1858810610085E-06	1.65802801015165E-06	2.38768888775752E-07	-5.1687410055419E-06	0.973236018225159	-0.153456796035402
6.9	-0.00635582072153767	0.00457776584819097	-7.48075831336382E-07	2.40272204118776E-07	5.70831846326931E-06	-2.6132140687905E-06	0.973999848709862	-0.15363312674232
7	-0.00316220064645681	0.00495211580693471	7.96490128299166E-06	-4.64842627130894E-06	4.50844219455072E-07	-2.98349438595292E-06	0.976736779454964	-0.155365389199764
7.1	-0.00397347169548241	0.00239475827510475	3.79027953066561E-06	2.05051497560285E-06	7.11141327001509E-07	7.15910695399038E-06	0.975509655966357	-0.158908365504241
7.2	-0.00543951978379168	0.00266984667135117	-2.45219396365381E-06	3.63507198703227E-06	-1.28929265837816E-06	-3.79875665061851E-06	0.973971379453007	-0.159931813825533
7.3	-0.00655522159569638	0.00343555297114612	3.40783651785043E-06	-4.62059243254764E-07	-2.40966118838136E-06	-1.91677746417928E-06	0.972190597579801	-0.160851002037423
7.4	-0.00781702499490331	0.00543544373140773	-6.0898758045944E-06	-2.7157025923589E-06	3.72150458408724E-06	2.744208729787E-07	0.96902677032016	-0.160543070306251
7.5	-0.00547164680928372	0.00792384544100344	6.75144993411613E-06	-6.25773720518304E-06	-2.45597271849076E-06	7.55806160550515E-07	0.971472335326201	-0.156012312376976
7.6	-0.00489848858860816	0.00625722593809091	3.37318944223591E-06	5.20705673166129E-06	-1.021980368866E-05	4.72710615465289E-06	0.97596199600654	-0.161242591379266
7.7	-0.00562237456895346	0.00655783835105768	5.81467450002817E-06	1.09342164296823E-05	4.97423715164385E-07	-1.12564745142664E-05	0.975659368682669	-0.165369771387309
7.8	-0.00556057355207682	0.00730473989895843	2.12316235615182E-06	1.00947017439501E-06	-3.21795627667529E-06	8.70058168526089E-06	0.975597101092404	-0.167585761472222
7.9	-0.004405530157992	0.00848750072670823	2.57689086344521E-06	-2.2510591341287E-06	3.65580306815157E-06	4.07325701729402E-07	0.97742668143108	-0.167694285624158
8	-0.000972290885481376	0.00700317603312704	-2.83767176062809E-06	1.27399534807651E-06	6.91064190087856E-06	-1.72391001034675E-06	0.985393165049234	-0.172182525030194
8.1	-0.00209601329770731	0.004392533594021	-1.80503400288411E-06	7.29222588995924E-07	-3.69394923414119E-06	-1.31168253654218E-06	0.983593309327974	-0.181081235291263
8.2	-0.00309001938620496	0.00435426137737255	-8.85556108179903E-07	6.32887678606769E-06	4.81866774880015E-06	4.42794241976872E-06	0.981621834570538	-0.183558020887841
8.3	-0.00370583253720863	0.00469780736922757	-6.57737261209827E-07	-1.42503890816688E-05	6.76163904940178E-06	5.53176474081692E-06	0.981155840683787	-0.185907333703844
8.4	-0.00401857351809135	0.00625582849942492	3.81554391656605E-06	-3.39153314419511E-06	-6.97763264027548E-06	-1.311626397923E-06	0.981423279050589	-0.188379307490964
8.5	-0.000928097243498441	0.00680246212684957	4.67383963139621E-06	6.3710780884084E-07	8.49867947676417E-06	-6.75147693818504E-06	0.981624783576343	-0.192554890953195
8.6	-0.00146421686849802	0.00414264058260332	-3.32627777064927E-06	4.0758764836533E-06	8.60510000852976E-07	1.11180903951042E-05	0.980323401855375	-0.195126264908691
8.7	-0.00285253552087679	0.00421370218578352	2.71972215256239E-06	-1.96693829879007E-06	4.87892754134124E-07	-5.4861329879891E-07	0.980696597093381	-0.197239823991012
8.8	-0.0037342024783326	0.00497115495197539	1.40032276748842E-07	-1.2577116923723E-06	-1.11250624290746E-06	9.80380209595851E-06	0.98120541008305	-0.19964296019382
8.9	-0.00417230249005843	0.00682939528340832	-3.71782608058932E-06	2.26327658143866E-06	4.88953239094781E-06	-1.75574319941648E-06	0.981902205597392	-0.202035640498464
9	-0.00120883618260834	0.00815083928737761	-1.90699157475281E-06	4.79045526454127E-07	-3.10903512525744E-06	-1.06350417498049E-05	0.982452397093043	-0.20442339852256
9.1	-0.000654115169219148	0.00627481559605775	5.28068321893782E-06	6.59042447319365E-07	9.14512040322831E-07	3.95828988639028E-07	0.98311156639285	-0.207095988699841
9.2	-0.000532412950713409	0.0061305964131588	-8.74185281474663E-06	-4.71440690011126E-06	-8.18481965866552E-07	-6.18782312565568E-06	0.983213614522255	-0.210389818801045
9.3	-5.80880694533082E-05	0.00587542866888602	1.26001969963246E-07	6.26942734532253E-06	4.70006036186856E-06	-2.16465947551364E-06	0.982804353542296	-0.213753796737191
9.4	0.000481541935687936	0.00621291113016951	-1.99646789315077E-06	5.90809354676715E-06	-1.06494835803847E-05	7.69895838870243E-06	0.981055661010015	-0.216493447892902
9.5	0.00292592687667327	0.0047529961498607	3.2979753385559E-06	-7.56874895755098E-06	3.73740639960063E-06	-2.71066586596621E-06	0.981943953502779	-0.216904002368788
9.6	0.00107833049522099	0.00216027435301132	4.46557312034616E-06	5.68786765775057E-06	-7.41401760130594E-07	7.12777094018698E-06	0.983330558058537	-0.221980733112016
9.7	-0.000615078060840453	0.00237776170702368	-2.58378257152709E-06	-4.01180617701515E-06	3.82378890586083E-06	-7.55670018593525E-06	0.98253520077048	-0.22552953536586
9.8	-0.00182696090439265	0.00314785066110291	-4.79545205596737E-07	-4.26795380911172E-06	6.33490710425528E-06	9.75353917561161E-07	0.982100475586252	-0.22743898859588
9.9	-0.0025745632520604	0.00518316713730356	-2.71507448973084E-06	-6.39233953033237E-07	-8.68927398013435E-06	5.44102036315773E-06	0.983009339629091	-0.226816045684597
10	0.000217392368018617	0.00632088630228546	4.57196067261488E-07	-1.77968986109731E-06	-3.05016528715835E-06	-8.15742402005683E-06	0.990194845424576	-0.23119352047798
10.1	-0.0001173438297937	0.00443048097626823	2.25211843921027E-06	4.8686010031451E-06	-3.22222553303642E-06	9.99996883534281E-06	0.986924423890059	-0.239023941962069
10.2	-0.00108325957584654	0.00477930312938549	-5.40054558264092E-07	-1.06909803626051E-06	-1.20997668983832E-06	-3.17479244382876E-06	0.984422598697059	-0.240669170235397
10.3	-0.00164445828509739	0.00572569214003145	1.15119502313441E-05	-2.91209065223981E-06	1.02521443908222E-05	-4.86443962552685E-06	0.983481808409377	-0.242445261762018
10.4	-0.00148150687001324	0.00782732535231309	-6.49670511027364E-07	2.183859288665E-06	3.09594482130011E-06	-2.21092135021982E-06	0.983491795056748	-0.244821315819757
10.5	0.00198802926947588	0.00853252665069922	-6.21652137482713E-06	4.71566664930258E-06	1.59387283462152E-06	4.37970414660103E-06	0.982811075874741	-0.250358964819835
10.6	0.00243234766706426	0.00660816305006822	-7.23335761477855E-06	1.08295918512776E-05	7.12185856052928E-06	4.34821265264439E-06	0.980289212829799	-0.252607823244706
10.7	0.00260577693973725	0.00624216682220563	-3.27049592392789E-06	1.58561164708002E-06	-5.46243431044363E-06	3.21047092308566E-06	0.98046791424784	-0.255611416077526
10.8	0.00245745305585759	0.00593878540429685	-1.9649134092294E-06	5.07680957817444E-06	8.6818959312377E-07	-3.25826328392711E-06	0.979833073638416	-0.259160952540773
10.9	0.0024236549756803	0.00697881742300339	-5.86967930763132E-06	-1.07071207813206E-05	5.03651658395292E-06	1.08903593907889E-05	0.979116933606165	-0.262116599376015
11	0.0055888739740613	0.00679653463863283	3.02273589156337E-06	2.64846817976151E-06	7.65472042543512E-07	-1.14217067087485E-05	0.97896106383172	-0.264611346114348
11.1	0.00494349224808809	0.00416934975363943	3.92591439695167E-06	1.46876446017538E-06	2.35198951299358E-07	-7.49521906958489E-06	0.977876330112726	-0.267958100631894
11.2	0.003984938568916	0.00393162761550309	-4.49814822419508E-06	-1.98202462146727E-06	-7.46682723140825E-06	-4.89438255763978E-06	0.976354234566764	-0.271027040144516
11.3	0.00330056494134348	0.0042579631587754	6.2953096262945E-07	-6.48103039533083E-06	3.92185596566602E-06	1.43318628226642E-05	0.973993430260267	-0.274027764472409
11.4	0.00301550253150708	0.00559310487154222	-5.11236128168347E-06	8.28675273232166E-06	-1.44261814565252E-06	4.13968700667625E-06	0.969989369437925	-0.276370155162311
11.5	0.00595292608883422	0.00542351929447586	4.60989133991322E-06	8.15823278323914E-06	-9.37994025003929E-06	1.64141620428792E-06	0.971101927749034	-0.275738114922451
11.6	0.00499947276652245	0.00285829893448687	-3.88615044696905E-06	1.44230746845941E-06	5.19498060412061E-06	8.21833686301948E-06	0.971417535703012	-0.282929644858108
11.7	0.00364106345645996	0.00299977786769121	2.36227218584565E-06	1.0650320310163E-05	5.18909708397394E-07	-3.70186949297128E-06	0.968324190120978	-0.28817688027148
11.8	0.00300197791800228	0.00401855890026901	1.4852399904836E-06	4.50276684582444E-06	2.31684607096106E-06	4.57047382677018E-06	0.965212371004113	-0.291467185994277
11.9	0.00415881251798259	0.00632973563299149	7.61325930093881E-06	1.06427358688068E-05	3.93311365883279E-06	3.81713579579399E-07	0.965367359630337	-0.291017008906796
12	0.00840109948225097	0.00576619031987334	2.34818146517297E-06	-5.26634407462727E-06	-3.95491268347191E-07	1.78530352936812E-06	0.971202257655361	-0.296313986161701
