# GHZ S RI R 50
0.2	0.000826269088403047	0.00260240063293164	4.79224959552616E-06	-2.98582472511794E-06	-1.37216245827433E-05	1.31214622381076E-05	0.999218454579648	-0.00716145824953572
0.3	0.00120772146475143	0.00178705040555385	2.86611973343984E-06	6.62522474614872E-06	-1.66430814028492E-06	-9.31952961739688E-06	0.999056664900858	-0.00999426774356713
0.4	0.00147557387455773	0.00131192067931132	-1.86295325528962E-06	-4.01546177018771E-06	-9.01447365411008E-06	4.40452492239857E-06	0.999053266929485	-0.012605868277704
0.5	0.00153078177590633	0.000894583779332526	-5.35752330416267E-06	3.26333306162903E-06	-2.12540223924189E-06	6.75663510580717E-06	0.998815246348664	-0.0156470018398582
0.6	0.00163950027075953	0.000707159317610773	-1.39556247165007E-07	2.80560758988849E-06	-5.81433722154689E-07	-1.34078310038627E-07	0.999093446001923	-0.0185517462192009
0.7	0.00172847213323066	0.000470352578835133	8.80562286814976E-08	2.21895934130229E-06	4.90295063725946E-06	-3.40168038162147E-06	0.998797459570258	-0.0217385099089297
0.8	0.00181864560866451	0.000221866801034445	4.52812535878552E-06	8.25606781569296E-07	2.74386605152425E-06	2.00017810903641E-06	0.998421976228578	-0.0240798964501705
0.9	0.00182092275871338	-3.93846800581926E-05	-1.52062596615555E-07	-4.21784276675166E-06	-3.41774768003006E-06	-3.1089538980243E-06	0.998068683986374	-0.026561417451175
1	0.00170189654704546	-0.000365541404507657	1.06021342331454E-06	4.29075853785219E-06	3.32635311383544E-06	9.32996335550859E-07	0.997501457160103	-0.0279910850096883
1.1	0.00141044135963117	-0.000518647046971437	9.04026352304853E-06	5.17683672383211E-07	-3.5770752909944E-06	-4.98926890416785E-07	0.997306541252831	-0.0296083712894513
1.2	0.00117759113730406	-0.000942205911863098	3.7594858398124E-06	-1.19942980663637E-06	-4.0953538075891E-06	-2.43677906226262E-06	0.997009549508397	-0.0304254331038843
1.3	0.000641214935351794	-0.00173755265377062	-7.61536109015912E-07	-1.42640308245111E-06	-2.58711348941855E-06	-8.70427210500301E-06	0.997517073698293	-0.0312368201926158
1.4	-0.000130721586036909	-0.00261396629135425	1.44671809536015E-08	3.44686267399402E-06	-4.28105076759556E-06	-4.12619015403979E-06	0.997490473691406	-0.0333778062416632
1.5	-0.000717449640776542	-0.00298868788381291	-1.29821663639273E-06	4.42864170840232E-06	6.55174867876462E-06	-7.41131003343849E-06	0.998033047213737	-0.0367575706304532
1.6	-0.000873367243443807	-0.00297210965911832	1.62939398594034E-06	-4.88594905513144E-07	4.24277723966605E-06	-5.39205711865383E-06	0.99765704590716	-0.0404055969470511
1.7	-0.000896363716197619	-0.00300759632353744	5.30219115805412E-07	3.95678790963462E-06	-8.28400857203861E-06	3.12669421543863E-06	0.997734687980476	-0.0431553604589445
1.8	-0.000965492985785488	-0.00299727161794709	1.83168757900632E-06	1.07867851281641E-06	5.6582619660933E-07	-1.76131001448865E-06	0.997453679276676	-0.0459799446325738
1.9	-0.00111676749204763	-0.00309877275595692	3.23430038185272E-06	3.01796229826345E-06	-1.82278376252906E-07	-2.32971703787768E-06	0.99704779806342	-0.0482368062697951
2	-0.00144222110915574	-0.00312195914472991	-1.7278790003289E-07	2.00281096441676E-07	-1.21617664334538E-05	5.41036043124145E-06	0.996398507769062	-0.0507012766622671
2.1	-0.0016584213411284	-0.00306451600428112	6.68300499374335E-07	-1.38166779625331E-06	1.38025379784956E-05	4.96763866469799E-06	0.996361166633234	-0.0528067081651624
2.2	-0.00191236297153355	-0.00306714999080305	1.64419588344557E-06	-1.51594715582131E-06	2.68678760972775E-06	-6.20777655415626E-06	0.996415426899896	-0.0553070477641903
2.3	-0.00226732201548314	-0.00310806651424132	-1.68630955324406E-06	-3.42597853939085E-06	-1.78928805855548E-06	-4.59042121369606E-06	0.99604666248667	-0.0571811640154968
2.4	-0.00270536694020714	-0.00316366432873696	-1.20188271779927E-06	-4.39962967020659E-06	3.04496495294382E-06	1.08692137022951E-06	0.995929219051734	-0.0601856444963697
2.5	-0.00334370899338895	-0.00310871923070365	5.38015078021573E-06	5.66922850991012E-06	-2.61142949656945E-06	1.61440552093685E-05	0.995614444650516	-0.0621743710470835
2.6	-0.00384613744368568	-0.00275939483140151	-2.27697387074401E-06	2.71090721419644E-06	4.34698728705957E-07	-4.31081194965679E-06	0.995912675978349	-0.0649441337697565
2.7	-0.00408460736711066	-0.00238885661275061	-2.40572086425428E-06	-3.6367971615744E-06	2.15499528111079E-06	-2.56997286074063E-06	0.995726142023798	-0.0680008547114473
2.8	-0.00418029464305429	-0.00205994061438447	4.00150394917449E-06	2.312070824301E-06	9.83083075704716E-06	-6.86482811169344E-07	0.995966773456381	-0.070142470677248
2.9	-0.0041306900799313	-0.00182004989623052	1.28789512037063E-05	7.10061949424978E-07	2.43993427994196E-06	-1.17146107213674E-05	0.995666277971456	-0.0723178984925438
3	-0.00408382517443182	-0.00162468896410511	-3.85257653932868E-06	1.0470495407612E-06	-4.14487686180485E-06	-1.597531231279E-06	0.995471873720833	-0.0748091077637123
3.1	-0.00387675315628358	-0.00147119706306561	4.77664465639132E-06	-9.83944145314509E-06	1.06784529620693E-05	2.40829797880937E-06	0.995203239335777	-0.0768026180759826
3.2	-0.0037696891025665	-0.00150953559738081	-5.36708373984912E-06	-7.40544096790505E-06	1.56281350413114E-05	5.3848056309066E-06	0.994975261407098	-0.078629540721316
3.3	-0.00376930547123477	-0.00163470862373709	-8.78872173081595E-06	2.54177049720738E-06	-8.56091734205402E-06	-1.7416878977195E-06	0.994780557353281	-0.0818761799059331
3.4	-0.0039731222885539	-0.00179380982171033	9.05858774206383E-06	-7.55535729292136E-06	-7.34357263586273E-06	4.2305630392288E-06	0.994740812016317	-0.0838182163738687
3.5	-0.00435474055956343	-0.0018482847587451	3.20084214909091E-07	-5.31896198319303E-06	-4.39397433020264E-06	-8.92658232485794E-06	0.994629579297322	-0.0865334927835986
3.6	-0.00465547502207396	-0.00170114383488914	4.06740858725258E-06	4.89948259203066E-06	-7.10851275530212E-06	8.98442138616911E-06	0.994491077926453	-0.0891218008950827
3.7	-0.00491613868280594	-0.00154711977348089	1.52985715622009E-06	-4.52336537222749E-06	-5.09640479544804E-06	-6.58575435856589E-06	0.9942996591442	-0.0919504341289562
3.8	-0.00514108223256245	-0.00135533829343415	7.27830372230833E-06	-5.18855174821016E-06	-5.87496023028019E-06	-2.4207165550067E-06	0.993768247497267	-0.094060778170627
3.9	-0.0052826760519081	-0.00114746838434381	-4.02695424113391E-06	-3.52640728034801E-07	-2.52985686922302E-06	1.13059587392212E-06	0.993382841900574	-0.0970550426838661
4	-0.00542775900179976	-0.000916310034030006	-3.38224168849038E-06	-8.48296466703537E-08	1.19673192844696E-06	8.66596963597841E-06	0.993050954256819	-0.0979182580501617
4.1	-0.00539941514080061	-0.000685382646629778	-2.89620359468281E-06	-3.86161568041511E-06	5.87437756356173E-06	3.04132444859787E-06	0.993410418525984	-0.0996264212074383
4.2	-0.00542019063053675	-0.000621662476046906	-7.71330895461151E-07	-2.15683683192342E-06	5.69914242609416E-06	-1.83869437437265E-06	0.993016432772365	-0.102459106868064
4.3	-0.00552345929657295	-0.000578730679225177	-5.13476582941172E-07	3.23335625193782E-06	2.12724535351063E-06	1.78119635717098E-06	0.992838392677013	-0.104492559423879
4.4	-0.00581544661971443	-0.000569262191164441	2.572276321532E-06	3.44370162670732E-06	7.17641450395364E-06	3.9181210566914E-06	0.992518503761174	-0.106704973553026
4.5	-0.00628578096887958	-0.000335501810821895	-6.47234416232916E-06	-2.36783301093503E-07	-8.57859155956851E-06	-2.12215586836562E-06	0.992745824527419	-0.108616300855386
4.6	-0.00670891654794095	8.04662368738871E-05	-9.93885039368416E-06	-9.23771082715716E-06	3.23931329427424E-06	-2.7282976697313E-06	0.992921061379915	-0.111655657459794
4.7	-0.00697262035904428	0.000604459644566439	1.24611450131855E-07	1.86619431967124E-06	6.0694233966629E-06	-6.7324335646988E-06	0.992986894707585	-0.113972083775056
4.8	-0.00710078863567374	0.00117448407106045	-6.39994055126408E-06	2.07631963966878E-06	7.93328420794452E-07	-1.2755741391432E-05	0.992670083190149	-0.116686081234451
4.9	-0.00702147862129872	0.00168550164934516	-3.43284508669269E-06	8.14759821001609E-06	5.59341822401602E-07	9.38437765082381E-06	0.992216066047097	-0.118642077890837
5	-0.0068090399874964	0.00215219049045439	9.65256820695536E-06	-4.0619698881387E-06	-6.94300447508248E-06	3.57841586455221E-06	0.992095565749012	-0.12012442448448
5.1	-0.00629117223530224	0.0024795269905155	-3.65922693783828E-07	-3.25462210738732E-06	-3.87671160918519E-06	-1.79507666977379E-06	0.992275691006531	-0.121589980804309
5.2	-0.00577557239044417	0.00253231205368786	-1.06648247690936E-06	-4.49055232016987E-06	8.79100431102539E-06	5.58449904455447E-06	0.992095783632035	-0.123870650709777
5.3	-0.00536963816627089	0.00243634889967886	2.28560592113353E-06	6.79910654726492E-06	8.79989899193373E-06	3.13935002560904E-06	0.991948605971153	-0.126158199261778
5.4	-0.0051749720864505	0.00226547570197935	2.70984815042101E-06	-3.14334083599312E-06	-2.67696313883581E-06	1.52727024346812E-07	0.992051561669183	-0.12896538827165
5.5	-0.00524649309276041	0.00233214746924858	2.10645513770261E-06	9.32767574251677E-06	-3.92388517315195E-06	-5.04005588443198E-06	0.992024724307831	-0.131763145273125
5.6	-0.00515736190361286	0.00250071439888049	-5.86070903192913E-06	-1.13705524337497E-06	4.87637472827459E-06	1.94776468620718E-06	0.992085061386855	-0.134536865763166
5.7	-0.00512749565217732	0.00263987836682436	3.34074577546533E-06	-1.42327208899754E-06	-5.05163497868549E-06	-4.29876708688727E-06	0.991832714612472	-0.137453990861135
5.8	-0.00508410912168951	0.00272717750523831	-2.05509058045253E-06	-4.75121189016312E-06	9.47464176806879E-07	-5.82474830500817E-07	0.991379018617184	-0.140035948987028
5.9	-0.00517474175768352	0.00270554465062422	-3.88162633975859E-06	6.19311040846023E-07	3.86450036291427E-06	1.25050383742221E-06	0.990453855370433	-0.142432927991325
6	-0.00565391624049698	0.00272733433817693	-5.94013245527227E-06	5.04635329533604E-06	-1.48532750793711E-06	1.95852183131177E-07	0.989608080047212	-0.143398971735887
6.1	-0.00616039856662529	0.00300731749504482	-5.92817345166075E-06	-4.70326055353765E-06	-4.00869067085722E-06	4.30278219940603E-07	0.989800299525094	-0.144520482193282
6.2	-0.00666986424182067	0.00344123002233948	2.81938907579137E-06	3.12963510862626E-06	1.0527393881383E-06	7.24104345198678E-07	0.989476793874036	-0.145892589453968
6.3	-0.00685236149796283	0.00404943525625903	1.64330389179923E-06	-7.47102103324192E-07	-1.34784846256351E-07	1.37647129220437E-06	0.989130354337067	-0.147677518564059
6.4	-0.00683508933803134	0.00450427379802463	-5.18325802157214E-06	-5.63150716788523E-06	3.81198779214043E-06	6.92019408020228E-06	0.988874578088564	-0.14959756106781
6.5	-0.00661401921249897	0.00499615196266006	9.08214421091888E-06	-2.40049377967704E-07	-7.33454839042552E-06	-9.06364334075607E-07	0.989440281290766	-0.152300247246496
6.6	-0.00613085453764002	0.00531431329107845	-1.49116947159947E-06	4.6610973421707E-07	3.3860148703718E-06	-9.39369333136344E-06	0.989524428569436	-0.155818497209111
6.7	-0.00567999055499392	0.00550839007649024	4.2963340738151E-08	7.76395502612714E-06	-4.910961709929E-07	-6.09603786763277E-06	0.989050469990946	-0.158696561338496
6.8	-0.00533738160226962	0.00560964554473476	4.25381867558206E-06	1.66176670237149E-06	2.17459787444083E-07	-5.24397681814983E-06	0.988458393742077	-0.161362834353264
6.9	-0.00522874947683168	0.00571035036418693	-7.56824118026734E-07	2.48085753899768E-07	5.77034572887172E-06	-2.68347425645059E-06	0.987740322581561	-0.163675031244169
7	-0.00519378931185625	0.0061851432381143	8.03526377491409E-06	-4.76426719616095E-06	4.35776254432774E-07	-3.0252016993246E-06	0.987042740991919	-0.165200278003353
7.1	-0.00486520369698599	0.0066267625557061	3.8520681086199E-06	2.0468709088635E-06	7.73990528399558E-07	7.24112896800234E-06	0.986926989476764	-0.167062027205982
7.2	-0.00449529868585215	0.00697031996717424	-2.45315126775437E-06	3.69771888563281E-06	-1.33438480068051E-06	-3.83414519010174E-06	0.986402297727353	-0.169189825469308
7.3	-0.00413319793968977	0.00715892693344155	3.44637380229606E-06	-4.94638155987501E-07	-2.45459351593691E-06	-1.92150910378296E-06	0.985391648855566	-0.171375187833136
7.4	-0.00396896393129611	0.0070675703049907	-6.20258258971252E-06	-2.70337485148226E-06	3.77850511070684E-06	2.46547541313805E-07	0.984217705539292	-0.174209645584455
7.5	-0.00418910899514536	0.00701807239838972	6.76478988070138E-06	-6.45043149823027E-06	-2.48267156049353E-06	8.02649432232265E-07	0.982539204697457	-0.176605066299155
7.6	-0.00434313621588583	0.0071036987504662	3.49051438465552E-06	5.21303256322275E-06	-1.02605915743879E-05	4.93638004196052E-06	0.981938770821001	-0.179434056473099
7.7	-0.00469068710369145	0.00721592588036226	6.04038385214048E-06	1.09567336257296E-05	3.30951985325736E-07	-1.13784509136286E-05	0.981154582626167	-0.182823285770062
7.8	-0.00476680251444287	0.0074419192181309	2.15976777072434E-06	9.8432305163011E-07	-3.10620496337827E-06	8.83556953608217E-06	0.98036192638655	-0.185879094143208
7.9	-0.00464491503813023	0.00765894812809171	2.55408146398629E-06	-2.31793512930421E-06	3.69223933482003E-06	3.40673235177266E-07	0.979661429128933	-0.188581786887922
8	-0.00424868199988247	0.00800731171735197	-2.81543170049179E-06	1.3320724564459E-06	6.88400084626534E-06	-1.86379610337746E-06	0.979632383403573	-0.190697320545308
8.1	-0.00363069060912323	0.00808640202115149	-1.79249078081707E-06	7.57827679615952E-07	-3.71324871947728E-06	-1.2518250174562E-06	0.979746384369718	-0.19378840654923
8.2	-0.00318984705664955	0.00798147515965913	-7.8740241422394E-07	6.3391620841728E-06	4.88443365869535E-06	4.35120420042474E-06	0.979292226403986	-0.19664721790473
8.3	-0.00291049008995156	0.00785794798574208	-8.74367654777944E-07	-1.42176432935075E-05	6.83536780668969E-06	5.41966784544596E-06	0.978434101917954	-0.199638021025363
8.4	-0.00288665842411311	0.00783413159063576	3.7564952076242E-06	-3.43450804116405E-06	-6.97466492710621E-06	-1.210100116151E-06	0.97741277806902	-0.202331652981809
8.5	-0.00293173483153524	0.00822338261608256	4.67665136583708E-06	5.797582325552E-07	8.4078680600567E-06	-6.847441369673E-06	0.976654915133558	-0.205045086351183
8.6	-0.0026039354456036	0.00868560548294094	-3.26170479601621E-06	4.12313198863501E-06	1.0286898878324E-06	1.10961104028177E-05	0.975932863279008	-0.207849866509571
8.7	-0.00208102570498954	0.00901223412094852	2.6795232948499E-06	-2.00463437456875E-06	4.77525966546877E-07	-5.54764238074517E-07	0.975329342603785	-0.210487143259095
8.8	-0.0013947701580537	0.00914027923187727	1.19255051681166E-07	-1.25325482457977E-06	-9.50437321536624E-07	9.7693948963203E-06	0.974694505225088	-0.212831171052948
8.9	-0.000735878754709769	0.00888130837139778	-3.65784231633657E-06	2.30094211555446E-06	4.82841681938923E-06	-1.81415696057641E-06	0.974472445271127	-0.214978874652225
9	-0.000315506805965609	0.00853302854058973	-1.88795048285568E-06	5.01494931470952E-07	-3.2313406684677E-06	-1.05229757736856E-05	0.974015689180224	-0.217494006918439
9.1	0.000108616854587545	0.00801919855604832	5.24723871263369E-06	5.78578566980756E-07	9.12727334932298E-07	3.79610008577072E-07	0.97327422287643	-0.219680040337813
9.2	0.000297539506883741	0.00752000112096078	-8.72185176985773E-06	-4.55666814903794E-06	-8.91443453353404E-07	-6.1195493393278E-06	0.972467089356511	-0.222067069932264
9.3	0.00038657439281433	0.00709422647922139	1.98038313532388E-07	6.20939659722529E-06	4.63088113933614E-06	-2.19932703622645E-06	0.971873217386492	-0.2244173116504
9.4	0.000288042309642267	0.00666110647802786	-1.91739727220962E-06	5.88221879215178E-06	-1.04821448731537E-05	7.75121996142988E-06	0.970930390208098	-0.227347633985095
9.5	5.869607523982E-05	0.00672248430623332	3.17304780248459E-06	-7.56280629507074E-06	3.6755267890713E-06	-2.74326292714824E-06	0.969757465764126	-0.229730978250606
9.6	2.68658267961496E-05	0.00680775633433172	4.5008442152106E-06	5.56862664968387E-06	-6.34095041756467E-07	7.06718821046233E-06	0.969062165088158	-0.232452301504617
9.7	7.57341461496019E-05	0.00693218725019689	-2.60702078242983E-06	-3.93380031500858E-06	3.68349400969867E-06	-7.52227245210899E-06	0.968238888120292	-0.234871826830958
9.8	0.000144139844175757	0.00697588444160892	-5.28272305890556E-07	-4.21175220913372E-06	6.27297432246181E-06	8.83226004974748E-07	0.967748199965656	-0.236826870178351
9.9	9.93655720068807E-05	0.00697212496578062	-2.68697399958436E-06	-5.92325754864948E-07	-8.49407118035744E-06	5.48887267310166E-06	0.966940563443057	-0.238329544656543
10	-8.61962810589752E-05	0.00719591925598905	4.2852947493532E-07	-1.75039954038657E-06	-3.0821405228727E-06	-7.96582301644971E-06	0.967028971994036	-0.239310556200418
10.1	-4.43392638205233E-05	0.00743871801022839	2.24371510169385E-06	4.76842904390608E-06	-3.10131242008091E-06	9.84458882743706E-06	0.966737270774037	-0.241535014412351
10.2	4.10237900984291E-05	0.00764479656229141	-5.37456505896621E-07	-1.04839017136963E-06	-1.20872314027957E-06	-3.11560556579067E-06	0.965844343293752	-0.243030307129286
10.3	0.000185557517908875	0.00783421591495348	1.13049362197031E-05	-2.92695694518194E-06	1.00553190893808E-05	-4.83999349346743E-06	0.964948860840582	-0.244517688090615
10.4	0.000294475116588839	0.00792098710439397	-6.29469501272236E-07	2.14780388129348E-06	3.03234740104726E-06	-2.18413765245477E-06	0.964147941850695	-0.245967840187109
10.5	0.00033041282118604	0.00827288221551644	-6.11626880333809E-06	4.64542341540191E-06	1.57148160240832E-06	4.31009811125257E-06	0.964137723783423	-0.248180809028879
10.6	0.00060894574502446	0.00859732071358064	-7.10807562601145E-06	1.06960064552645E-05	7.03306800015152E-06	4.27149282348995E-06	0.963644702135891	-0.250986505484222
10.7	0.000950707803863265	0.00894427975660047	-3.21708549728753E-06	1.56941170313E-06	-5.37187812086733E-06	3.17488708318726E-06	0.962982337790096	-0.253885461063263
10.8	0.00148774177578889	0.0092249202008059	-1.92744297203033E-06	4.99775701949961E-06	8.50438019132389E-07	-3.20706520199863E-06	0.962365072840862	-0.25617222109131
10.9	0.00183413533353066	0.00941632146038534	-5.76490076016895E-06	-1.05344606057773E-05	4.94537227756706E-06	1.07140654680487E-05	0.961767954591643	-0.258285044316252
11	0.00233484901613059	0.00989252498161474	2.97061672128004E-06	2.61421175459579E-06	7.78094330977593E-07	-1.12445037272623E-05	0.961072943551627	-0.26021826227692
11.1	0.00320523099237102	0.0101766353989467	3.86005673408246E-06	1.45602252801892E-06	2.51411541920798E-07	-7.37631473153458E-06	0.959866546785156	-0.261989375266591
11.2	0.00421655075064262	0.0101662767012925	-4.41811637377813E-06	-1.97036438685979E-06	-7.3269263874029E-06	-4.84958978559423E-06	0.958632301808719	-0.263486982781036
11.3	0.00530116715885385	0.00972926064344005	6.61393975777246E-07	-6.38100762688172E-06	3.77266463312238E-06	1.41444497411049E-05	0.957820254870471	-0.26491111470492
11.4	0.00598293562590807	0.00896395356650969	-5.11553264280383E-06	8.14564683752118E-06	-1.45771857979129E-06	4.07796072559422E-06	0.956599108127138	-0.266977694404564
11.5	0.00634333459154936	0.00835991364060879	4.52050279245958E-06	8.08908353650264E-06	-9.28333166945038E-06	1.57931858064255E-06	0.955688895879	-0.268818897977885
11.6	0.00676638652843209	0.00755128223273505	-3.84112236675994E-06	1.39909510254477E-06	5.07397334695481E-06	8.13596789570604E-06	0.954962286678504	-0.272197195354298
11.7	0.00694556376348313	0.00664818632405926	2.24572615867605E-06	1.05263425322305E-05	5.41452067298724E-07	-3.6480985650513E-06	0.953691995198357	-0.275634514240664
11.8	0.00692288179837284	0.00579441763546395	1.42848175730228E-06	4.45952263971677E-06	2.2491901908417E-06	4.53346732668142E-06	0.952479708993351	-0.278809805947385
11.9	0.00677723442544239	0.00498864797621817	7.43850129661194E-06	1.05564907055834E-05	3.87878670293595E-06	4.04340932769265E-07	0.95222869280409	-0.280758642102747
12	0.0062826306635917	0.00472808299120315	2.35349109656317E-06	-5.1499453328271E-06	-4.04525900932535E-07	1.74947373204149E-06	0.952832466099583	-0.282856426810582
