# GHZ S RI R 50
0.2	0.000957234222240613	0.00264481818259397	4.78994198567993E-06	-2.98536529541022E-06	-1.37143448286389E-05	1.3118364054831E-05	0.999219643457516	-0.00703666797432655
0.3	0.00139790276863814	0.00180510750131346	2.86596883656807E-06	6.62157242797511E-06	-1.66521486657587E-06	-9.31482216014071E-06	0.99903692892579	-0.00994411497122327
0.4	0.00169878948278026	0.00113399845633956	-1.86189231917822E-06	-4.01244783732539E-06	-9.00769218443747E-06	4.40198345580544E-06	0.99875844609122	-0.0127029419721776
0.5	0.00143742831091265	0.000774036156149305	-5.35575854135004E-06	3.25953996480299E-06	-2.12672339021899E-06	6.75209997474463E-06	0.998016429998475	-0.015257481756156
0.6	0.00186710607256117	0.000789125658587386	-1.39626556842927E-07	2.80460710706564E-06	-5.81221892804444E-07	-1.34055605325063E-07	0.99857299643965	-0.0178051653643322
0.7	0.0020935965924248	0.000348981739267083	8.80478039834807E-08	2.21766174780069E-06	4.90002136094266E-06	-3.39978879077074E-06	0.998337174506024	-0.0208389923140955
0.8	0.00222026144493251	-2.14640920539985E-05	4.52476353078349E-06	8.25204131723092E-07	2.74176149505495E-06	1.99883284242981E-06	0.99815098549402	-0.0229790729715105
0.9	0.00235007705335247	-0.000470948556608382	-1.51357212341864E-07	-4.21400295474918E-06	-3.41420235795707E-06	-3.10656735012764E-06	0.998237659366983	-0.0255421577764416
1	0.0019064798545623	-0.00124085787256891	1.05678871184693E-06	4.28690924947187E-06	3.32241552811119E-06	9.33841348517116E-07	0.997568146823371	-0.0276459757103458
1.1	0.00141189128330452	-0.00100087024060288	9.03359133139826E-06	5.23097970919692E-07	-3.57424727527726E-06	-5.0086294407886E-07	0.997014380173801	-0.0292560426258734
1.2	0.00131880955457901	-0.00147428564747684	3.75757202708179E-06	-1.19616582335131E-06	-4.0908710761504E-06	-2.43766399867361E-06	0.996384046202403	-0.0301898622943486
1.3	0.000701629888948624	-0.00227457962033014	-7.59817132838367E-07	-1.42614560946009E-06	-2.57794461017384E-06	-8.70092356969651E-06	0.996409454090558	-0.0306337168679835
1.4	9.82095401924965E-06	-0.00312938947041245	1.10420112401513E-08	3.44586184043764E-06	-4.27569476440438E-06	-4.12922369806028E-06	0.996549608888974	-0.0322208735017526
1.5	-0.000744159012759849	-0.0034894129719039	-1.30117785510426E-06	4.42774697378539E-06	6.55667996937141E-06	-7.40687742546274E-06	0.996877745443416	-0.0355162229918935
1.6	-0.000551706696287338	-0.00343475119629124	1.62930058969737E-06	-4.87872026892295E-07	4.24414603401884E-06	-5.38945529448992E-06	0.996738988819994	-0.0385622662658823
1.7	-0.000584868714224421	-0.00373635267049115	5.28414081709998E-07	3.95583086651593E-06	-8.28284440497753E-06	3.12231489678548E-06	0.997214004607976	-0.041231571763182
1.8	-0.000716401703742635	-0.0038184273803034	1.83078086769961E-06	1.07925637097378E-06	5.66490088446931E-07	-1.76065060012953E-06	0.997340395449568	-0.0441944424263873
1.9	-0.000888686861297693	-0.00409372253462476	3.23357910309159E-06	3.01828814222352E-06	-1.81881186758672E-07	-2.32958647543429E-06	0.997275745258796	-0.0472496997433541
2	-0.00168031157924448	-0.0041455522987556	-1.72604620234534E-07	2.00129982201499E-07	-1.21501817746955E-05	5.40741324701669E-06	0.994975415536893	-0.050473417717967
2.1	-0.00169374498281897	-0.00366380461261364	6.68817231312098E-07	-1.37994208315486E-06	1.3786652812619E-05	4.97427959357952E-06	0.994675372522357	-0.0508718542268076
2.2	-0.00175885159663059	-0.00377590713217549	1.64470385338349E-06	-1.51392227657583E-06	2.69067536068393E-06	-6.20280106333805E-06	0.995391714574173	-0.0529969438752148
2.3	-0.00205563825341515	-0.00388742640151725	-1.68331817995718E-06	-3.42593565044166E-06	-1.78544735702089E-06	-4.59003561249918E-06	0.995513201900971	-0.0548092833419396
2.4	-0.00235563701105877	-0.00408782345524547	-1.19835448153137E-06	-4.39824346315243E-06	3.04272738638539E-06	1.08840953299785E-06	0.995898981183491	-0.0581324319053547
2.5	-0.00329423763948503	-0.00438987644407501	5.37180015283093E-06	5.67240781505549E-06	-2.62731157716889E-06	1.61341899889084E-05	0.995352667473772	-0.0608290465550003
2.6	-0.00395688976857058	-0.00369642899369131	-2.27903679209567E-06	2.70876278508743E-06	4.38262854489346E-07	-4.31006476098768E-06	0.995180724228326	-0.0636521915051404
2.7	-0.00411210963444497	-0.00324028306048046	-2.40271644940372E-06	-3.6376105945032E-06	2.15625274226634E-06	-2.56793560111774E-06	0.994548586075962	-0.0665766403455344
2.8	-0.00406000993864382	-0.00285273464547534	3.99834930212996E-06	2.31441477607954E-06	9.82805072916093E-06	-6.78576727060186E-07	0.994661566576803	-0.0682855840649723
2.9	-0.00381320777805846	-0.00278076691486616	1.28739151908286E-05	7.23885200341549E-07	2.45191426189772E-06	-1.17080716622184E-05	0.994617861787503	-0.070242793336102
3	-0.00401140684954168	-0.00275309048688277	-3.85504560617739E-06	1.04207410142395E-06	-4.1438154442688E-06	-1.60361953035014E-06	0.99446710565015	-0.0728424517186447
3.1	-0.00359914555198005	-0.00243442671994832	4.78905382934863E-06	-9.83867244467718E-06	1.06805365301327E-05	2.42056557602297E-06	0.994132465606182	-0.0744902516246624
3.2	-0.00339409898342598	-0.00267949582108922	-5.36108497193254E-06	-7.41516301430131E-06	1.56293522657783E-05	5.40541666968689E-06	0.994173440726017	-0.0759173986947042
3.3	-0.00340040274381833	-0.00293035330281183	-8.797936112646E-06	2.53165744334359E-06	-8.56423424682657E-06	-1.75432413876217E-06	0.994494149251645	-0.0788476588030395
3.4	-0.00355757956783369	-0.00327289862127192	9.08091901932655E-06	-7.54959113123622E-06	-7.35866781147999E-06	4.22372755913691E-06	0.9953572945297	-0.0808296636406982
3.5	-0.00432472715943437	-0.00350453883518668	3.25249494512866E-07	-5.32902269566663E-06	-4.39488633231464E-06	-8.94767891608606E-06	0.995398196349584	-0.0847787394030308
3.6	-0.00449947925812553	-0.00302041964179096	4.07064438128331E-06	4.90705378319175E-06	-7.12063364633452E-06	8.99293735451246E-06	0.994477718900613	-0.0868915950775537
3.7	-0.00460223170278005	-0.00304424703326897	1.53445715352157E-06	-4.52768132613687E-06	-5.0982385455659E-06	-6.59660068222067E-06	0.994962160650868	-0.0892417827232917
3.8	-0.00483424178405504	-0.00302126614838672	7.29190575635795E-06	-5.19118493998084E-06	-5.88168704800498E-06	-2.42791043093423E-06	0.995437556658273	-0.0916487720644861
3.9	-0.00502237461504605	-0.00306477755469229	-4.03381724471485E-06	-3.54008004077054E-07	-2.53442375728718E-06	1.13206366849372E-06	0.995954984349166	-0.0961368177951587
4	-0.00577463677384038	-0.00296195983202207	-3.38484549035731E-06	-8.37682690509126E-08	1.20052820410276E-06	8.67217033026267E-06	0.993710224383175	-0.0988712318495875
4.1	-0.00572239059968455	-0.00213715316129623	-2.89583102007466E-06	-3.86652849964394E-06	5.87684353413035E-06	3.04760991975728E-06	0.993167176376767	-0.0991080427027017
4.2	-0.00549976882410721	-0.00200539427933094	-7.70931459656942E-07	-2.15987320217397E-06	5.70704384250292E-06	-1.83740169836199E-06	0.99313249445571	-0.101641735270368
4.3	-0.00543564753324288	-0.00196307749414826	-5.15343415805211E-07	3.23697730479879E-06	2.12906519537721E-06	1.78413032756396E-06	0.993131136857146	-0.103731931598949
4.4	-0.00549348154804713	-0.00210974667983966	2.57313107170168E-06	3.4472318020699E-06	7.18068906031568E-06	3.92354921365441E-06	0.992745341510824	-0.106252770889583
4.5	-0.00628192695648397	-0.00216802252101669	-6.47696704381365E-06	-2.44961386436146E-07	-8.58248418619963E-06	-2.134368633611E-06	0.992316498479053	-0.10796226790016
4.6	-0.00659153527680081	-0.00136171458114507	-9.94651119657458E-06	-9.26146860775523E-06	3.24696448155433E-06	-2.72976881692616E-06	0.992702637482616	-0.11062195959929
4.7	-0.00663374416665089	-0.000966796331478261	1.24027992085343E-07	1.86912961869989E-06	6.08160081523035E-06	-6.74031216868328E-06	0.992767918753183	-0.112897877419064
4.8	-0.0066919514698533	-0.000495141037507547	-6.40882029631587E-06	2.07780100848487E-06	7.96901882900382E-07	-1.27724639363929E-05	0.992508872794156	-0.115383161743959
4.9	-0.00647521559232885	-0.000172920098268964	-3.43954419307008E-06	8.15535537893721E-06	5.56602821211719E-07	9.39492626367982E-06	0.992491430471567	-0.117211561060244
5	-0.00662159117238308	8.22743045446351E-05	9.67288198377125E-06	-4.06381655417486E-06	-6.95800332569594E-06	3.58096313189749E-06	0.992771252877911	-0.119182738407298
5.1	-0.00585172925914285	0.000655351975737481	-3.67604265669452E-07	-3.26093655106634E-06	-3.88489070450458E-06	-1.79747598300466E-06	0.992960555541024	-0.120865987519953
5.2	-0.00523438253703822	0.000340547450767067	-1.07046044478397E-06	-4.49752286952154E-06	8.8084065543708E-06	5.58951310062076E-06	0.9930812484337	-0.123420518907524
5.3	-0.00502637428649613	1.25718036922531E-05	2.29192117312696E-06	6.80849873441388E-06	8.81459959616661E-06	3.14045481366242E-06	0.993085954583954	-0.126194690505592
5.4	-0.00500377863774676	-0.000291457180579528	2.71441768139283E-06	-3.14930822011588E-06	-2.68178698693865E-06	1.53284014746693E-07	0.993386376163458	-0.129526847633181
5.5	-0.00574119444096146	-0.000107323525144856	2.12242130037567E-06	9.35131371902621E-06	-3.94025368221142E-06	-5.04980824574608E-06	0.992736343566224	-0.13371834603076
5.6	-0.00517232504011408	0.000737975152394913	-5.87252713932352E-06	-1.12735292507056E-06	4.88818371480589E-06	1.9413284825307E-06	0.991538526333297	-0.135783008377457
5.7	-0.00477479467141196	0.000597565738726277	3.3424543887152E-06	-1.43085807192923E-06	-5.06542704815567E-06	-4.29537059413116E-06	0.991743090141481	-0.138124647410429
5.8	-0.00468094002755918	0.00048937704862358	-2.0665197506973E-06	-4.75391958665417E-06	9.47690109988213E-07	-5.84988206387951E-07	0.992196024803283	-0.140991490083766
5.9	-0.0045990610124803	0.000223882393719034	-3.88552666198272E-06	6.30430869748488E-07	3.87330749957221E-06	1.24209476964436E-06	0.992230442528948	-0.145306070509252
6	-0.00569048024187067	-0.000361123801087268	-5.92253247274532E-06	5.06207611386682E-06	-1.48412387551069E-06	2.00225906041771E-07	0.988417961677536	-0.148856557729761
6.1	-0.0064900117743871	0.000626636060679972	-5.93388570655853E-06	-4.69369013200942E-06	-4.00728202562831E-06	4.3604685883231E-07	0.987003855379212	-0.148144749384345
6.2	-0.00684103501290652	0.00123125458959039	2.82536415907098E-06	3.12660431464839E-06	1.05428795473322E-06	7.22788279700069E-07	0.986408879072069	-0.149029636804062
6.3	-0.00684135260625048	0.002001673165354	1.64268452914683E-06	-7.50606555276049E-07	-1.32222969374861E-07	1.37740465323103E-06	0.98578351192953	-0.150318916814639
6.4	-0.0064488212826149	0.00225181619376591	-5.19529664712952E-06	-5.6182049611424E-06	3.82732751286022E-06	6.90981760109411E-06	0.985154502401262	-0.152186386315715
6.5	-0.00663114261327605	0.00253947561408384	9.07529132901315E-06	-2.48563103453928E-07	-7.33006671827051E-06	-8.98686481393466E-07	0.984662043364495	-0.153003620163121
6.6	-0.00565959153816523	0.00292588804976276	-1.49128304217381E-06	4.68483948554554E-07	3.37436349206943E-06	-9.40344191687477E-06	0.986902780930775	-0.15566957940552
6.7	-0.00535918678955409	0.00263532863854771	6.01821383430525E-08	7.76542758199474E-06	-5.04708240208678E-07	-6.09618025514716E-06	0.987053488952519	-0.159186439034959
6.8	-0.00524213086456859	0.00277094091809643	4.25652550087713E-06	1.65078845610203E-06	2.04516917936369E-07	-5.24281875903731E-06	0.986757273134906	-0.162050125624799
6.9	-0.00496466025529062	0.00275397679290843	-7.55679766245366E-07	2.49571705275697E-07	5.75986218645744E-06	-2.69418273145733E-06	0.986599027109012	-0.164950609009265
7	-0.00567709441771904	0.00304686954116199	8.0230692776236E-06	-4.77619892829426E-06	4.30232992347024E-07	-3.02454438833878E-06	0.984783654921445	-0.167357455795722
7.1	-0.00489869981434862	0.00423277400650145	3.85547336032583E-06	2.03772781956312E-06	7.89818176636395E-07	7.23728273528086E-06	0.984330016127677	-0.167893891265224
7.2	-0.00421456633072078	0.00420966931561675	-2.4429528372384E-06	3.70092554168498E-06	-1.34236751994907E-06	-3.82849395910978E-06	0.984382212363576	-0.169265851891114
7.3	-0.00395907033887136	0.00422220001029747	3.44213418697966E-06	-5.00966122733737E-07	-2.45605802937471E-06	-1.91484858389027E-06	0.984357235214153	-0.170587855258195
7.4	-0.00366019187690751	0.00400615703827808	-6.20388180022366E-06	-2.69417067970472E-06	3.77744291030494E-06	2.41455119501032E-07	0.985891647625404	-0.173063054205856
7.5	-0.00458030515137124	0.0033849994063049	6.74977225172021E-06	-6.47589515472803E-06	-2.48197969224201E-06	8.10872430252191E-07	0.985823400536584	-0.179602275418024
7.6	-0.00491237704504956	0.00439427787694334	3.50437167988936E-06	5.19344317746383E-06	-1.02289435023619E-05	4.96629572796532E-06	0.982916648686359	-0.182852848896297
7.7	-0.00502790042773736	0.00460227263818359	6.06349233879234E-06	1.09193956783562E-05	2.95583866428186E-07	-1.13598720930273E-05	0.982022164984113	-0.186407183337003
7.8	-0.00490749186498777	0.00486182220827941	2.15926431879699E-06	9.76386969038936E-07	-3.0751929015706E-06	8.83078982181688E-06	0.981166713566246	-0.190175995466102
7.9	-0.00445011753030742	0.00480758250776121	2.54283087232063E-06	-2.32410733323858E-06	3.68895948412848E-06	3.27273306025915E-07	0.980031240561669	-0.194767774519636
8	-0.00484486154460287	0.00507496076524773	-2.79980323692338E-06	1.3400579554866E-06	6.85200653834591E-06	-1.88811303100121E-06	0.974829080983943	-0.197850697951253
8.1	-0.00344454966113941	0.00555897112128153	-1.78414098157371E-06	7.58203548762432E-07	-3.70116798605985E-06	-1.24010763648616E-06	0.974389211422163	-0.196459321803793
8.2	-0.00281324607618716	0.00501540518659026	-7.77711039940385E-07	6.32103299772722E-06	4.8747925831822E-06	4.3324905559325E-06	0.975048230979409	-0.198136031953782
8.3	-0.00254739860887199	0.00474713308803877	-8.87814024079664E-07	-1.4177833188251E-05	6.82273271659424E-06	5.39725089949221E-06	0.974728801297145	-0.200643713805091
8.4	-0.00227697553200176	0.00444399945589051	3.74073861646008E-06	-3.42660069315704E-06	-6.95255890308738E-06	-1.19949468073978E-06	0.973857349037535	-0.203076687020434
8.5	-0.00309054708125619	0.00441261295290526	4.66155203091978E-06	5.81797015193377E-07	8.38721945548033E-06	-6.8191080999499E-06	0.973014520607432	-0.204689714077921
8.6	-0.00244648864754817	0.00556139320726555	-3.25725527659E-06	4.11345042738386E-06	1.02135163104165E-06	1.10747505188723E-05	0.973579640165285	-0.207000535305108
8.7	-0.00167011185898117	0.00548508958641886	2.67444720862334E-06	-1.99990498478905E-06	4.76665379473633E-07	-5.53514286223558E-07	0.973553590269333	-0.209896303868894
8.8	-0.00115987712427509	0.00539329275595195	1.19323607838523E-07	-1.25037086196002E-06	-9.5092436271477E-07	9.74690813201203E-06	0.973193788517514	-0.2124388986865
8.9	-0.000494613432183112	0.00498843368679069	-3.65005125973861E-06	2.29158915449087E-06	4.81706585149589E-06	-1.8050870579856E-06	0.973069196741706	-0.21477098278833
9	-0.000771529240309809	0.00431988342619288	-1.88595330960983E-06	4.97206237145454E-07	-3.20675975778085E-06	-1.05126549649308E-05	0.972446475087411	-0.217481317226225
9.1	-0.000275526378911926	0.00437690922144325	5.23901120612372E-06	5.83171442836117E-07	9.11007308093449E-07	3.80003352704965E-07	0.971238539772705	-0.21945298016241
9.2	-0.000103197284735319	0.00369413371920195	-8.69761480263852E-06	-4.56138017150751E-06	-8.80118459885643E-07	-6.10894212219279E-06	0.970056865965114	-0.221149596616738
9.3	-0.000258984411904421	0.00341581058605075	1.82511366603742E-07	6.19863752701814E-06	4.62786892482035E-06	-2.18403253484342E-06	0.96961683174381	-0.222332031012821
9.4	-0.000215702424492085	0.00315640108589565	-1.93465655074692E-06	5.87132908506424E-06	-1.04984527382194E-05	7.71142985486577E-06	0.970046613503089	-0.224333101440214
9.5	-0.000835238857482023	0.00342555533835592	3.18652843086149E-06	-7.56249168158203E-06	3.68193274695296E-06	-2.73928489799705E-06	0.969469728311157	-0.228061970376598
9.6	2.3165160093505E-05	0.00400901640238034	4.491683394839E-06	5.56507509964488E-06	-6.38169101782873E-07	7.05834491498084E-06	0.968415049832654	-0.229928560461305
9.7	0.000427791870146141	0.00360124066341693	-2.59739621344086E-06	-3.93092589247389E-06	3.68773072239421E-06	-7.50495600970442E-06	0.968697795022833	-0.231954256450747
9.8	0.000451194914730339	0.00340262171968729	-5.20798929885269E-07	-4.20726923510887E-06	6.26359946963589E-06	8.92240860359792E-07	0.969471036700227	-0.234371406276503
9.9	0.000559546597314714	0.00318187799207499	-2.68459034838539E-06	-5.9370315164997E-07	-8.49150751749818E-06	5.4790840479377E-06	0.969308624639758	-0.238081499203329
10	-0.00040097084337961	0.00306615865083871	4.27555578904551E-07	-1.74488407274252E-06	-3.07096580942343E-06	-7.94174381075505E-06	0.96509384334552	-0.239352816487906
10.1	-9.08615906910164E-05	0.00405251106436941	2.22600562292756E-06	4.76153281977499E-06	-3.11765245660212E-06	9.81114479347012E-06	0.966383944673127	-0.237590725930315
10.2	0.000250546806859329	0.00408385941367712	-5.33997922974288E-07	-1.04803045901602E-06	-1.19907075940253E-06	-3.11357579894721E-06	0.967683750935777	-0.239499611635563
10.3	0.000473077270119544	0.00428402115882295	1.12945097981141E-05	-2.89954636130132E-06	1.00506268975728E-05	-4.81236378183147E-06	0.967619649612239	-0.242150748036464
10.4	0.000995141946935301	0.00414117591248916	-6.31851209458509E-07	2.14158997497704E-06	3.02911174827577E-06	-2.17350775401506E-06	0.966330138656023	-0.245205865499761
10.5	0.000502244128408572	0.00402273651307712	-6.11786140345945E-06	4.60984985861657E-06	1.55090047511176E-06	4.30472872517221E-06	0.964572383188616	-0.246708425575764
10.6	0.000996586790962443	0.00450787482227431	-7.13571933400753E-06	1.06596008956878E-05	7.01048247091341E-06	4.29014030650727E-06	0.96455479234493	-0.249377057410605
10.7	0.00110365831809501	0.00461878843533463	-3.21710348232173E-06	1.55822528289363E-06	-5.37346623131871E-06	3.15545104508091E-06	0.96299510462413	-0.251924508109042
10.8	0.00150997186922348	0.0052012587981602	-1.9385265365114E-06	4.98304277562339E-06	8.58252998773358E-07	-3.19875097158399E-06	0.962158287346179	-0.252763285438221
10.9	0.00239198248118749	0.00533138514851425	-5.71484320497555E-06	-1.05345126611313E-05	4.89629442716229E-06	1.07107603210659E-05	0.962263669166598	-0.253739886006625
11	0.00237551481498347	0.00538122613158586	2.95796986742809E-06	2.6265481066128E-06	8.27887495786297E-07	-1.12372202002898E-05	0.962181393803388	-0.254228372238487
11.1	0.00373136178320715	0.00596022423271373	3.85683842911298E-06	1.46889882390759E-06	2.75076692770934E-07	-7.37825266047053E-06	0.963577671546065	-0.254701124230552
11.2	0.00476674325749421	0.00530237838890501	-4.41309761735339E-06	-1.9836372714722E-06	-7.31397077359787E-06	-4.87187028051851E-06	0.964726075578772	-0.256558267141141
11.3	0.00538542599172265	0.00464099455448515	6.82233102226181E-07	-6.38005052538447E-06	3.7274486761677E-06	1.41593356225986E-05	0.965903402834195	-0.258867910025693
11.4	0.00587094417715272	0.00378999632710963	-5.15341328400147E-06	8.1359998053321E-06	-1.47530908788572E-06	4.07739911099232E-06	0.967157325225074	-0.262708192179981
11.5	0.00520911871528749	0.00320603993724372	4.51996326641535E-06	8.11783848424669E-06	-9.3106858604187E-06	1.56902692376098E-06	0.965387415026228	-0.268678857171303
11.6	0.00592792271095173	0.00338870977899605	-3.84511142150783E-06	1.39627757662562E-06	5.0694427197723E-06	8.14648880351673E-06	0.963177173067511	-0.271100280193691
11.7	0.00643495867286772	0.00254182535086251	2.229003357724E-06	1.05371323444355E-05	5.48113722953564E-07	-3.64955656899783E-06	0.963283582735264	-0.275007346246125
11.8	0.00669690469693906	0.00176845092315402	1.42229232535731E-06	4.46900340919406E-06	2.2441135225764E-06	4.5446008142613E-06	0.963043547075759	-0.280356602844478
11.9	0.00706127139082716	0.000561174225588265	7.45325253210778E-06	1.05896920963084E-05	3.8892692909654E-06	4.07578990632662E-07	0.961663370878167	-0.286685165659641
