# GHZ S RI R 50
0.2	0.00097266095928707	0.00228605698090701	4.79387727878949E-06	-2.98465918802006E-06	-1.3727783157892E-05	1.31187445365885E-05	0.999686616237495	-0.00699346939135611
0.3	0.00145006868167112	0.00155689589700809	2.86590757939465E-06	6.62637002516031E-06	-1.66369260759025E-06	-9.32092766217924E-06	0.999619193393981	-0.00999017420387514
0.4	0.00170763695356926	0.00104668738786356	-1.86319947081495E-06	-4.01612485027708E-06	-9.01596502753718E-06	4.40511307323222E-06	0.999584619455523	-0.0127625557369519
0.5	0.00181426470162502	0.000714966478776749	-5.35855340996536E-06	3.26532395317955E-06	-2.1247970240671E-06	6.75909268036791E-06	0.999288996468793	-0.0159238908933411
0.6	0.00198776679964157	0.000278321149933139	-1.38696539886176E-07	2.80588423423304E-06	-5.81523711455757E-07	-1.33908888848789E-07	0.99924100853478	-0.0188594601475307
0.7	0.00187427426888337	-5.24724335238247E-05	8.84745769494121E-08	2.21910485756845E-06	4.90267680112782E-06	-3.40283869658255E-06	0.998841485498008	-0.0217259737928832
0.8	0.00181187249208085	-0.000282746927313774	4.52888882092065E-06	8.25171038006413E-07	2.74451299643138E-06	2.00013334792659E-06	0.998598968981067	-0.0238096268901744
0.9	0.00166285986690962	-0.000501649930537183	-1.5229900760336E-07	-4.21878217033994E-06	-3.41866389479653E-06	-3.10948779445361E-06	0.998518876814267	-0.0261682098024307
1	0.0014394635492667	-0.000578165151512407	1.06076844507022E-06	4.29260864656852E-06	3.32782511281526E-06	9.33332075531003E-07	0.998288213262432	-0.0277791953999279
1.1	0.00140936105549199	-0.000786833786405625	9.04417324025092E-06	5.15722805451624E-07	-3.57869313805839E-06	-4.98274139650082E-07	0.997980854840368	-0.0300037858098373
1.2	0.00108374613314037	-0.00146306503350684	3.75999313945582E-06	-1.20099270714824E-06	-4.09717259284939E-06	-2.43598561644551E-06	0.997091430686723	-0.0312177830656849
1.3	0.000435109700955689	-0.00241103962646395	-7.62392055939002E-07	-1.42610336383513E-06	-2.59215995980985E-06	-8.70358492557795E-06	0.996985954082442	-0.0322848773039962
1.4	-0.000385147822230112	-0.00342017963501135	1.76605497303879E-08	3.44671939130116E-06	-4.28471284719664E-06	-4.12206779494951E-06	0.996590401859879	-0.0346315350352407
1.5	-0.000878391882065079	-0.00380390682451487	-1.29270953034898E-06	4.42973795974883E-06	6.54206078276058E-06	-7.41845191768952E-06	0.996917146047807	-0.0380214821222617
1.6	-0.00114906296553612	-0.00394108555264183	1.62852177565935E-06	-4.90543671794787E-07	4.23537854095521E-06	-5.39646375097822E-06	0.996407767553881	-0.0412530528856448
1.7	-0.00134583531309712	-0.0037668438704303	5.3461460908017E-07	3.95574503783426E-06	-8.27955453722355E-06	3.13566946980904E-06	0.996742257899769	-0.0434639639282204
1.8	-0.0014241954894276	-0.00350845214497604	1.83269331405466E-06	1.0767869046717E-06	5.64027950212569E-07	-1.76180245817789E-06	0.996802780332149	-0.0459831405396817
1.9	-0.00150933676577661	-0.00335239212223174	3.23674006254783E-06	3.01511703203113E-06	-1.84244035065397E-07	-2.32947984629094E-06	0.996625635616155	-0.0480567671250285
2	-0.00147562172771393	-0.00314276615187231	-1.72716223374485E-07	2.00411731573969E-07	-1.21613059917198E-05	5.41784460831756E-06	0.996331315498562	-0.0502980989321534
2.1	-0.00143158481441703	-0.00338972215365891	6.67529167362831E-07	-1.38284861415614E-06	1.38129887489488E-05	4.95912379749851E-06	0.996444697383972	-0.0527430288270665
2.2	-0.00177265711107224	-0.00357211051630311	1.64330104586319E-06	-1.51795436083006E-06	2.6818519083207E-06	-6.21222872708192E-06	0.996280530721162	-0.0552246924910885
2.3	-0.00226271126464133	-0.00367323078067047	-1.68978482490864E-06	-3.42495360108662E-06	-1.79386878267352E-06	-4.58948757046004E-06	0.995866017907991	-0.056974879778854
2.4	-0.00288572788238629	-0.0036463936254582	-1.20599051968462E-06	-4.39861900159251E-06	3.04604458215949E-06	1.08412362513412E-06	0.995777193740677	-0.0599950944907954
2.5	-0.00345276802006887	-0.00324539100167716	5.38437159706516E-06	5.66318990783084E-06	-2.5960266120046E-06	1.61434210285371E-05	0.995309541277455	-0.0621409434730084
2.6	-0.00361597474211553	-0.00297126295931287	-2.27426956722291E-06	2.71132144949939E-06	4.31678246590655E-07	-4.30936730009682E-06	0.995288760416112	-0.0648157211718927
2.7	-0.00374336362244739	-0.00276897374146373	-2.40627515835907E-06	-3.63466112806155E-06	2.15329892935028E-06	-2.56991399086052E-06	0.995024566302358	-0.0676204797536777
2.8	-0.00380803473302975	-0.00262609905773438	4.00115417478701E-06	2.31081833664442E-06	9.82871848196037E-06	-6.88279423036702E-07	0.995326342854063	-0.0695937463280917
2.9	-0.00382104671405302	-0.00247859461964059	1.28780674605508E-05	7.09156691709797E-07	2.43898119773194E-06	-1.17139258300086E-05	0.995121790322423	-0.0716880863557131
3	-0.00362223797956396	-0.0023013935929327	-3.85270884128671E-06	1.04688207455866E-06	-4.14488526171407E-06	-1.59776854742127E-06	0.994945559923548	-0.0742102512421052
3.1	-0.00342397861763113	-0.00252983500096762	4.77912440518873E-06	-9.84102166807907E-06	1.06805589008203E-05	2.41035360252472E-06	0.994584361885447	-0.0761571016857058
3.2	-0.0035707742522735	-0.00271831880331178	-5.36902561061551E-06	-7.40817652690543E-06	1.56338478031638E-05	5.38683704355889E-06	0.994322255353006	-0.0779199254747027
3.3	-0.00380207181153351	-0.00285545452625515	-8.79151963002341E-06	2.54439681133232E-06	-8.5644474299397E-06	-1.74070505653814E-06	0.994111192071473	-0.0811844832387018
3.4	-0.00421368766804572	-0.00289064507153645	9.05773472558175E-06	-7.56134472956784E-06	-7.3437072953774E-06	4.23490621459712E-06	0.993989440999591	-0.0832834410284814
3.5	-0.00448638072506608	-0.00274190909495689	3.17365386483337E-07	-5.31857828788221E-06	-4.39803164778796E-06	-8.92344821082199E-06	0.99346379699847	-0.0860132281734643
3.6	-0.00478307017410764	-0.0028706979416002	4.06839641158445E-06	4.89781232070674E-06	-7.10520485043782E-06	8.98553785938846E-06	0.993226187476362	-0.0882607331895123
3.7	-0.00538166961095166	-0.00275665688433764	1.52840645090703E-06	-4.52369055355811E-06	-5.09827653216694E-06	-6.58396027246067E-06	0.993164837196567	-0.0908768733655969
3.8	-0.00591194362496041	-0.00235624295459062	7.27643809471168E-06	-5.19057153101858E-06	-5.87547105988058E-06	-2.41882987454022E-06	0.992861060146392	-0.0928609933436507
3.9	-0.00621357566386978	-0.00169517422161829	-4.02672748301733E-06	-3.51979270805114E-07	-2.52950062137721E-06	1.13091656115814E-06	0.992774509816156	-0.0957838322841935
4	-0.00595248701033664	-0.00094546871545298	-3.38306109621927E-06	-8.52540196055367E-08	1.19599141957308E-06	8.66823784769923E-06	0.992978535221477	-0.0968028502381477
4.1	-0.00550085385058015	-0.000894596834145078	-2.89822254076831E-06	-3.86287705113524E-06	5.87762062827566E-06	3.0416789017157E-06	0.993221113028083	-0.0990967276174243
4.2	-0.00545151811863931	-0.000948578581770839	-7.72232949770576E-07	-2.1573954545392E-06	5.70067608448885E-06	-1.84100568233212E-06	0.992576309137611	-0.101907808425564
4.3	-0.00552121461603448	-0.000913745607791551	-5.12415375837764E-07	3.23457672701461E-06	2.12859477639077E-06	1.780956223052E-06	0.992405592898235	-0.103924059906637
4.4	-0.00576573506943038	-0.000768630336307576	2.57499329186249E-06	3.44291917823122E-06	7.18049354446042E-06	3.91461569675749E-06	0.992097545721927	-0.10632684834516
4.5	-0.00575776211590666	-0.000306700115886723	-6.47149550533189E-06	-2.30106989508573E-07	-8.57932087915075E-06	-2.11300199434029E-06	0.992061286193673	-0.108662546998119
4.6	-0.00571455205784379	-0.000380526909970509	-9.93869496777012E-06	-9.22113127820457E-06	3.23417097295258E-06	-2.72887912807472E-06	0.991541675353703	-0.111675155383016
4.7	-0.00596019517109353	-0.000307239139415285	1.25565933668753E-07	1.8640815308598E-06	6.05885406365607E-06	-6.72862153627306E-06	0.991328741652002	-0.113654972976519
4.8	-0.00621783021321753	-8.80595798851326E-05	-6.39157003635893E-06	2.07607562573002E-06	7.87923692191535E-07	-1.27407812895436E-05	0.99096959528384	-0.116111943195128
4.9	-0.00638674508622999	0.000261370374313303	-3.42731870295984E-06	8.13837231471937E-06	5.60271595379215E-07	9.37298015827352E-06	0.99062820008055	-0.117946692071603
5	-0.00609811820957877	0.000692349819561894	9.64021471105114E-06	-4.05734337184972E-06	-6.93408565536486E-06	3.57426154094291E-06	0.990535056319427	-0.119626839897248
5.1	-0.00579847315857857	0.000504394372291586	-3.64861851009366E-07	-3.250919299914E-06	-3.87186475590331E-06	-1.7937530705091E-06	0.990444577093185	-0.121065967928885
5.2	-0.00583385906797011	0.000521320374922407	-1.06442029857162E-06	-4.48650544761056E-06	8.78130110188035E-06	5.58119890711038E-06	0.990295809104015	-0.123187326356918
5.3	-0.00577617202580974	0.000706226022889159	2.28293575637055E-06	6.79420633862922E-06	8.79273257432597E-06	3.13813429284265E-06	0.990323786367758	-0.125554201435187
5.4	-0.00565716569736748	0.000960644207973186	2.7074825367004E-06	-3.14173975525933E-06	-2.67515715385939E-06	1.53106934610917E-07	0.990442435341198	-0.128725530717153
5.5	-0.00519446024316211	0.00124957105848197	2.1074312750734E-06	9.31695452722115E-06	-3.92142874443286E-06	-5.03329748775377E-06	0.989964566282869	-0.131695348735058
5.6	-0.00510576901087181	0.000763078837348701	-5.85464942100539E-06	-1.13604942916644E-06	4.87130488463386E-06	1.94589755179153E-06	0.989781566261114	-0.134212615543114
5.7	-0.00568504694015035	0.000777787221945824	3.33829900475046E-06	-1.42171548692411E-06	-5.04709477833165E-06	-4.296038159318E-06	0.989489709125696	-0.136780017478121
5.8	-0.00624076562858686	0.00119014680254091	-2.05283688006305E-06	-4.74930127705162E-06	9.4712686414058E-07	-5.81937078008227E-07	0.989271404411862	-0.138944204440873
5.9	-0.00680309106448552	0.00202164530360848	-3.88186262421351E-06	6.17307306610131E-07	3.86377804088857E-06	1.25245960619329E-06	0.988994114904164	-0.140895862376106
6	-0.00673532253410152	0.00343397798592369	-5.94919469542879E-06	5.05018430543901E-06	-1.48719038604767E-06	1.95526335902131E-07	0.989572624549818	-0.142109730004789
6.1	-0.00594668824779013	0.00392733054019034	-5.94140190958043E-06	-4.70626404998149E-06	-4.01483559336742E-06	4.3408259598924E-07	0.990067318537394	-0.144502722327738
6.2	-0.00551593853759905	0.0039852530643916	2.82767966505355E-06	3.12998981508616E-06	1.05521012202426E-06	7.23623450259835E-07	0.989623973771171	-0.146511228372088
6.3	-0.00520686598858375	0.00378635202022205	1.64366955629786E-06	-7.50696483133029E-07	-1.32541137355194E-07	1.37809246182416E-06	0.989009682699488	-0.148857171693459
6.4	-0.00527906210534723	0.00358253936845408	-5.19686514780683E-06	-5.62587775982163E-06	3.8270136602363E-06	6.91789561070489E-06	0.988312112374528	-0.151054585484289
6.5	-0.00489861149502012	0.00356523954467421	9.08353461230728E-06	-2.60674566331583E-07	-7.33816361954647E-06	-8.89942176574271E-07	0.988273358763979	-0.154203239762262
6.6	-0.00497968009441286	0.00301969693576005	-1.48891504069373E-06	4.68744712786305E-07	3.36388935975617E-06	-9.39239070297902E-06	0.987097953499415	-0.157168410909111
6.7	-0.00522563775308833	0.00317263167498015	5.40831896094003E-08	7.75377166721522E-06	-4.99230919343803E-07	-6.08738382987097E-06	0.986452416804428	-0.159010300248089
6.8	-0.00527893074119663	0.00344222748971035	4.24912281175998E-06	1.65535523256599E-06	2.12245095665923E-07	-5.23647852855802E-06	0.986144703075664	-0.161032319805479
6.9	-0.00539930969224656	0.00390926661006846	-7.55624696110163E-07	2.48028270566576E-07	5.76088364240281E-06	-2.68188484164495E-06	0.985877551737284	-0.162992040588437
7	-0.00475047195072755	0.00467920317467381	8.02664516038655E-06	-4.75981717315875E-06	4.3514066165353E-07	-3.02209238917756E-06	0.985746354477019	-0.164736434183812
7.1	-0.00436531384483849	0.00420878049671541	3.84966811426544E-06	2.04417306123616E-06	7.75475198150644E-07	7.23528646914251E-06	0.985270582866658	-0.167034970504588
7.2	-0.00472006942264972	0.00417681890698872	-2.4489423094195E-06	3.69582366104819E-06	-1.33533536939673E-06	-3.83003053851437E-06	0.984334370966755	-0.168968756895921
7.3	-0.00520629084336591	0.00442716792775553	3.44183744669811E-06	-4.97007616090761E-07	-2.45331523743732E-06	-1.9171088279468E-06	0.983043146984459	-0.170886968555255
7.4	-0.00599240329447842	0.00497921710386061	-6.19389875752265E-06	-2.69050973460312E-06	3.77149234719293E-06	2.41421650864722E-07	0.981418833660159	-0.173329641075137
7.5	-0.00618492217984412	0.00642992112189054	6.73920940633926E-06	-6.434046644376E-06	-2.47425355141954E-06	8.01627881947164E-07	0.979715359760192	-0.174513570566612
7.6	-0.00558454661455432	0.0068807877951773	3.47823984786264E-06	5.19738460615009E-06	-1.02293320757251E-05	4.91833362830083E-06	0.980083158685927	-0.177035761920022
7.7	-0.00547436186100524	0.00725758694059844	6.01424151935592E-06	1.09268381861522E-05	3.37620063434828E-07	-1.13429391075736E-05	0.979860706781745	-0.180299095509971
7.8	-0.00498599658716672	0.00749750418743014	2.15236152342608E-06	9.84212845560705E-07	-3.10838591945429E-06	8.80642319643309E-06	0.979697523596292	-0.183399648248126
7.9	-0.00432623812620963	0.00768811918185795	2.55253118134163E-06	-2.30698931199435E-06	3.68243803311607E-06	3.47394890744177E-07	0.979494549020786	-0.186080530856994
8	-0.00284425033555865	0.0075630883280999	-2.81640386419025E-06	1.32199614086958E-06	6.88211757010964E-06	-1.8406931491379E-06	0.980564340648109	-0.188258498604399
8.1	-0.00230449595103891	0.00637388156870827	-1.79477269111717E-06	7.53342865915383E-07	-3.7106980691208E-06	-1.26163082951303E-06	0.980828691322319	-0.192392888902729
8.2	-0.00240262688290999	0.00584717609915168	-8.0164474164076E-07	6.34154443436196E-06	4.87815642853139E-06	4.36459311534807E-06	0.980140837472667	-0.195388282902171
8.3	-0.00252079433114397	0.00564731727630018	-8.48663306564874E-07	-1.42329106720084E-05	6.83180510499466E-06	5.43762635503933E-06	0.97932963009637	-0.198365965374601
8.4	-0.00277757233949741	0.00586489762003456	3.76589575583409E-06	-3.43315298090045E-06	-6.98117310166382E-06	-1.22159462665606E-06	0.978483766329113	-0.201112741709774
8.5	-0.0021887652189832	0.00648562663635842	4.67956326828959E-06	5.84558904563382E-07	8.42047981038123E-06	-6.84463753239872E-06	0.977900084434686	-0.204123742132783
8.6	-0.00178855046596787	0.00586844782097777	-3.26934868669618E-06	4.11977547460678E-06	1.01205457655478E-06	1.11021442667027E-05	0.976987541463641	-0.207081670646588
8.7	-0.00207967240775484	0.00567625580130992	2.68549063704956E-06	-2.00092413830759E-06	4.78975757371706E-07	-5.54253861233181E-07	0.976344159588736	-0.209644554229294
8.8	-0.00236929312796402	0.005852580577008	1.22164047723556E-07	-1.25456385602837E-06	-9.73139687073363E-07	9.77955324423391E-06	0.975729100025242	-0.211867606184584
8.9	-0.0026223087195268	0.00635481798588285	-3.67029476172725E-06	2.29685152735018E-06	4.84199754827859E-06	-1.80639040232456E-06	0.97554660891539	-0.21379029288742
9	-0.001948840546029	0.00727458538665382	-1.89373854241105E-06	4.9882191212716E-07	-3.21753765648592E-06	-1.05561455557155E-05	0.975282166344664	-0.215853405313742
9.1	-0.00100273748930194	0.00699057489130887	5.26183345984695E-06	5.90208349505636E-07	9.14739666568394E-07	3.82466909393295E-07	0.975154701678806	-0.217777313508036
9.2	-0.000392260067712354	0.00677780306117457	-8.74477850746426E-06	-4.58257686975564E-06	-8.86692611270888E-07	-6.1407656449092E-06	0.974916716508616	-0.2203948666328
9.3	0.000289360446720931	0.00638791876894641	1.95511832082932E-07	6.22886184885982E-06	4.64643688511227E-06	-2.20384116018242E-06	0.974606291998715	-0.22325671928609
9.4	0.000716264744257286	0.00585404311034446	-1.92081909535255E-06	5.89793279522222E-06	-1.05072290093455E-05	7.77400573536163E-06	0.973561999899505	-0.226738708901103
9.5	0.00142572875441578	0.00546191191491289	3.17525810176652E-06	-7.57491114368349E-06	3.68002768937495E-06	-2.74846791883126E-06	0.97223307321459	-0.22910198915084
9.6	0.0012421344809051	0.0041700104129624	4.5061051664317E-06	5.57649204245133E-06	-6.35771164464679E-07	7.07641457481396E-06	0.971819212975266	-0.232210473452698
9.7	0.000442307390708548	0.00377324191260278	-2.61012003680801E-06	-3.93953956507167E-06	3.68950015207139E-06	-7.53216877146552E-06	0.97091967185883	-0.235052504755694
9.8	-0.000350771080983024	0.0038447587650098	-5.28591135150523E-07	-4.21768202779897E-06	6.28164029530724E-06	8.85081611261937E-07	0.970204952402385	-0.237274817538311
9.9	-0.00112847039299376	0.0045387869910243	-2.6909707946591E-06	-5.94102518439979E-07	-8.50904602420986E-06	5.49472160548914E-06	0.969018516783245	-0.238576242456584
10	-0.00081437407467159	0.00569406223308895	4.29907419194672E-07	-1.75483170381184E-06	-3.08880643585187E-06	-7.98678754829535E-06	0.969751542409462	-0.239073269162318
10.1	-0.000439634007751659	0.00559843594115646	2.25427216994286E-06	4.77782174798973E-06	-3.09858491937817E-06	9.8721299335402E-06	0.969598717615746	-0.241979265572963
10.2	-0.000553117497567468	0.00579576844058019	-5.39935638199644E-07	-1.04953456952983E-06	-1.21538187282141E-06	-3.11956181010556E-06	0.968469662309079	-0.243682513394277
10.3	-0.000620097568257116	0.00619143187478115	1.13153892327381E-05	-2.94798928944215E-06	1.00612188088903E-05	-4.86164874375639E-06	0.967337888507577	-0.245436223371556
10.4	-0.000654708356800472	0.00693717127412087	-6.26575359591592E-07	2.15091131041399E-06	3.03172159134627E-06	-2.19120029347111E-06	0.966052203773176	-0.247204035139363
10.5	0.000377465000404424	0.00801734029753152	-6.10809080513224E-06	4.65927868951508E-06	1.58083141237608E-06	4.30787658416625E-06	0.96519418902116	-0.249550438379564
10.6	0.00147948141298796	0.00786189177406237	-7.08658657451288E-06	1.06998907019297E-05	7.03499396214885E-06	4.25763416405044E-06	0.964005596676312	-0.251560760446269
10.7	0.00235256574232071	0.0077306197125069	-3.21329999155174E-06	1.57161802294065E-06	-5.36499302036175E-06	3.17819414046251E-06	0.963742983803906	-0.253631743648973
10.8	0.00303034004194394	0.00727468001681379	-1.92221246603298E-06	4.99610560923025E-06	8.47328514452776E-07	-3.20569631769102E-06	0.96358255885742	-0.255803266293324
10.9	0.0031840991130308	0.00709360185636501	-5.77000327245001E-06	-1.05265678624817E-05	4.95090375044018E-06	1.07066698549129E-05	0.963218837391175	-0.257938892608174
11	0.00422883694690857	0.00727423397615943	2.97249985730471E-06	2.6113034027776E-06	7.68255248108076E-07	-1.12437350175962E-05	0.962774737049366	-0.259334634023917
11.1	0.00482874161626576	0.00617685297114154	3.86154951680404E-06	1.45152975800663E-06	2.42942046002184E-07	-7.37626524890108E-06	0.962527725345319	-0.2610835650765
11.2	0.00478833787294892	0.00553649230793673	-4.42053460527335E-06	-1.96364989854519E-06	-7.33326420775196E-06	-4.83828249044459E-06	0.961929220692703	-0.263153853777825
11.3	0.00470319487435261	0.00510523638800019	6.49479794592493E-07	-6.37990627163213E-06	3.79717652049215E-06	1.41324236955934E-05	0.961242789476369	-0.265491813154634
11.4	0.00439433602969856	0.00499148292236769	-5.09250679801691E-06	8.15072896002281E-06	-1.44710208878088E-06	4.07795837976231E-06	0.959499063514051	-0.268639043932058
11.5	0.00494858594055636	0.00515496804609905	4.52926669856256E-06	8.0673608773686E-06	-9.26550785282822E-06	1.59509587609437E-06	0.957734292234052	-0.270284689943332
11.6	0.0050628820111772	0.00406698403816705	-3.83387182984927E-06	1.40352228974208E-06	5.08061571848434E-06	8.11718165323361E-06	0.957257666353077	-0.27368448924397
11.7	0.00443588961544481	0.00365099927634789	2.26081574955596E-06	1.05100025672063E-05	5.34649084929368E-07	-3.64466319541772E-06	0.955872584743378	-0.277583466191409
11.8	0.00391968938283527	0.00386458294259687	1.43356169579527E-06	4.45189038153795E-06	2.2533809913519E-06	4.5244888187846E-06	0.954060586390301	-0.281030866409364
11.9	0.00382096810698783	0.0047819935631308	7.4369162860175E-06	1.05388606379401E-05	3.87446125512392E-06	4.01200164697896E-07	0.952486336769995	-0.282087746492265
12	0.00538935194531253	0.00562599064085128	2.3534536344341E-06	-5.15152282156761E-06	-4.04414177975236E-07	1.74996150238623E-06	0.953529836046211	-0.28240666076211
