# GHZ S RI R 50
0.2	0.000878772380983295	0.00291134397738074	4.78885035028836E-06	-2.98656320350275E-06	-1.37099284099954E-05	1.31215567192232E-05	0.998845499532902	-0.00726012942738963
0.3	0.00128988540521849	0.00203922475817216	2.86701124406313E-06	6.62049692537179E-06	-1.66686918193486E-06	-9.3137630867032E-06	0.998603592130326	-0.0100926026895898
0.4	0.00156804950078524	0.00141996295663041	-1.86239780201473E-06	-4.01190078662975E-06	-9.00642949776479E-06	4.4031039968116E-06	0.998377326500913	-0.0127006448104718
0.5	0.00136662618222321	0.0011097797473042	-5.35453680588865E-06	3.26050899836244E-06	-2.12496474868887E-06	6.75201482323239E-06	0.998002992689893	-0.0152750235435355
0.6	0.00178278831772795	0.00114540096994023	-1.38996056310089E-07	2.8041655765836E-06	-5.8115314234742E-07	-1.3390725979136E-07	0.998683133990058	-0.0182308942887944
0.7	0.00205195970975834	0.000764548657040493	8.85483028766605E-08	2.21719558555201E-06	4.8982424016159E-06	-3.40025064454492E-06	0.998315309926595	-0.0216027603006077
0.8	0.00222640600982944	0.00039604318876307	4.52383284057622E-06	8.23825209895427E-07	2.74158519073563E-06	1.99761830791513E-06	0.997845790376551	-0.0239997619561736
0.9	0.00231998530012564	-7.62480414813658E-05	-1.52453723885047E-07	-4.21274128570642E-06	-3.41405400573549E-06	-3.10474351996744E-06	0.997404873063508	-0.0266067392032714
1	0.00182318522365456	-0.00068211236289873	1.0579265804837E-06	4.28531238569822E-06	3.3217682817121E-06	9.32452074377481E-07	0.996380820665414	-0.0280176663479075
1.1	0.00137786726593548	-0.000339583717677246	9.03076632237881E-06	5.20136859005988E-07	-3.57322023590358E-06	-4.99594185579274E-07	0.996289418457994	-0.0290578374399272
1.2	0.00136437278290576	-0.000497541706697689	3.75682692143485E-06	-1.19699270868236E-06	-4.09102151269909E-06	-2.43632828210636E-06	0.99637723786138	-0.0295679630881804
1.3	0.00113404326199245	-0.00105715497666219	-7.60434292600457E-07	-1.42607195199522E-06	-2.5814231570251E-06	-8.70121187685083E-06	0.997487190122111	-0.030022806911659
1.4	0.000696529785427286	-0.00203752705359846	1.26948429560334E-08	3.44599841313166E-06	-4.27785086279948E-06	-4.12734339723549E-06	0.998026259472047	-0.0322371744619041
1.5	-1.86787974395134E-05	-0.00254879033363815	-1.29940533484021E-06	4.42643290369387E-06	6.55204395376556E-06	-7.40594160198279E-06	0.998281525970363	-0.0358429149922173
1.6	-3.96353900137831E-06	-0.00271247483579646	1.62832621449463E-06	-4.87602299820174E-07	4.24155677480996E-06	-5.38630493312082E-06	0.99769441392747	-0.0396014946826528
1.7	-0.000164851081061475	-0.00307045398884032	5.27809933543778E-07	3.95293698444585E-06	-8.2768940423961E-06	3.11956062790682E-06	0.997409582714113	-0.0425456891938242
1.8	-0.000414479792834352	-0.00323766093002422	1.82900898866338E-06	1.07832729126927E-06	5.66039849426317E-07	-1.75896865724158E-06	0.996848040587094	-0.0455175783468995
1.9	-0.000792266308670605	-0.00351700109542733	3.22897255032751E-06	3.01493079809517E-06	-1.8128566062425E-07	-2.32663478284775E-06	0.996045571606131	-0.0481424844760882
2	-0.00158274876882905	-0.00338148823284752	-1.725243765281E-07	1.99783764122918E-07	-1.21391021062146E-05	5.39337451764199E-06	0.994186622978412	-0.0502906627757672
2.1	-0.0016229391562081	-0.00300083824140613	6.68608113737541E-07	-1.37827451249893E-06	1.37705929080671E-05	4.97396302015792E-06	0.994490968015084	-0.0513825855027557
2.2	-0.00176607855861345	-0.0030539708407918	1.64321035662142E-06	-1.51144126733288E-06	2.68958877656557E-06	-6.1941098635459E-06	0.994877474566408	-0.0538641944929851
2.3	-0.00208889142511976	-0.00315436056956306	-1.67934034957616E-06	-3.42230013722963E-06	-1.7807354445125E-06	-4.58492268040274E-06	0.994589740990479	-0.0557468713486606
2.4	-0.00254034200007925	-0.00336138461794009	-1.19388476506643E-06	-4.39370544570524E-06	3.03827580640254E-06	1.08916582046674E-06	0.994461861064575	-0.0587664931109408
2.5	-0.00358709946772398	-0.00334106542712045	5.36297992073494E-06	5.66901168962031E-06	-2.63284613495357E-06	1.61152037362318E-05	0.993936463358049	-0.0606271271033528
2.6	-0.00410188548009033	-0.00254970315944134	-2.27755466508376E-06	2.70360458065391E-06	4.40318514340437E-07	-4.30382659598794E-06	0.994228321138651	-0.0630871119410303
2.7	-0.00416131549301701	-0.00202152960052975	-2.39625686892021E-06	-3.63478121825966E-06	2.15558050045151E-06	-2.56255323899171E-06	0.994095866341871	-0.0658553499062772
2.8	-0.00407302680420983	-0.00165350290691961	3.99115380079225E-06	2.31547441402804E-06	9.8165962765423E-06	-6.68120604989846E-07	0.994538935153641	-0.0677313233602792
2.9	-0.00391952815580096	-0.00151625629520824	1.28595417594566E-05	7.34941495773645E-07	2.46005947074611E-06	-1.16933521262864E-05	0.994544336708085	-0.0697652800621859
3	-0.00398087862690394	-0.00123522900709402	-3.85095559740206E-06	1.03814926163233E-06	-4.13756278325467E-06	-1.60444682467535E-06	0.994646742359981	-0.0721790071186486
3.1	-0.00344299604902271	-0.000994803663613943	4.79203156327704E-06	-9.82139933036652E-06	1.06643846506671E-05	2.42741053497388E-06	0.994781194482988	-0.0741003248135556
3.2	-0.00317336380476674	-0.00124558394421678	-5.34812902194278E-06	-7.4118714392298E-06	1.56067669901835E-05	5.41399627732686E-06	0.994961448784327	-0.0760240379089611
3.3	-0.0031201092073864	-0.00158376956919518	-8.79112987232971E-06	2.52172391058034E-06	-8.55407711618671E-06	-1.7597138544437E-06	0.995148483366036	-0.0793992678424741
3.4	-0.00338520275149734	-0.00201613306474647	9.07601705109972E-06	-7.53599933399474E-06	-7.35352186168339E-06	4.21471170052419E-06	0.995519873179261	-0.0816276479718756
3.5	-0.00411517759965656	-0.00208683990080649	3.29354387671891E-07	-5.32031095185953E-06	-4.38017802630235E-06	-8.93733452808747E-06	0.995277458870475	-0.0848865292168634
3.6	-0.00429486572241969	-0.00179938475094267	4.0590142314435E-06	4.90706737099153E-06	-7.12499019045207E-06	8.97247175778748E-06	0.994976233098139	-0.0872124536892939
3.7	-0.00453740062245727	-0.00178880144282029	1.53905008907408E-06	-4.5214325593701E-06	-5.08472955044031E-06	-6.59724653954911E-06	0.995025435764447	-0.0899910043900626
3.8	-0.0048512370768314	-0.00170574161293113	7.2915792716916E-06	-5.17680751247011E-06	-5.87290760122312E-06	-2.43314844729956E-06	0.994677846331288	-0.0922616529521205
3.9	-0.00516933138760962	-0.00160398268117229	-4.02834988816616E-06	-3.59642256129224E-07	-2.53302595446214E-06	1.12686665284412E-06	0.994198172529279	-0.0956620262205598
4	-0.00568501957365987	-0.0011574221131309	-3.38226562062066E-06	-9.12646272692833E-08	1.18032167500386E-06	8.6687194151997E-06	0.993054727705051	-0.0961611254532343
4.1	-0.00543516261650655	-0.000625765601833363	-2.88862863230928E-06	-3.8705445163192E-06	5.87034580537667E-06	3.05685600023776E-06	0.994089270607657	-0.0971617242098
4.2	-0.00533565767327081	-0.000621736781775762	-7.67155314428645E-07	-2.1605540635858E-06	5.70851337912955E-06	-1.82747865174249E-06	0.994163356843002	-0.100170838659328
4.3	-0.00543171582001463	-0.000633581228582533	-5.21066420874238E-07	3.23583400127278E-06	2.12574203553854E-06	1.78779344158778E-06	0.994185676831038	-0.102360914816609
4.4	-0.00579038953467658	-0.000713346606292697	2.56785335706961E-06	3.45358188188331E-06	7.17659159629713E-06	3.93871186284339E-06	0.99392905687823	-0.104657135213937
4.5	-0.00657351850050798	-0.000285335083825571	-6.48292375157401E-06	-2.52207347032264E-07	-8.58841839108956E-06	-2.14570858654745E-06	0.994324663423857	-0.106339171784175
4.6	-0.0066922167629648	0.000487478720787738	-9.94107148961115E-06	-9.27364272216495E-06	3.25052950366382E-06	-2.72762125796615E-06	0.99490966432957	-0.109505521929858
4.7	-0.00667140122688213	0.000946775487283016	1.21631933698319E-07	1.86978390859276E-06	6.09196378342394E-06	-6.73418790070201E-06	0.995132154563545	-0.111939042027736
4.8	-0.0066306901574687	0.0013503110380027	-6.41512189547692E-06	2.06876963893198E-06	8.17252975268847E-07	-1.27773016929642E-05	0.995002897234236	-0.114741369506119
4.9	-0.00653969856348212	0.00158266280541211	-3.45496700370511E-06	8.15700342536568E-06	5.4267107440678E-07	9.40375316458379E-06	0.994770213633457	-0.116859205081623
5	-0.00661863332408264	0.00206295769162968	9.6826782008364E-06	-4.05511515787755E-06	-6.96579082591042E-06	3.57505884982753E-06	0.994784651931181	-0.118593470069848
5.1	-0.00592603592268149	0.00244848571807811	-3.62122588864151E-07	-3.26280948810641E-06	-3.88326847984824E-06	-1.80485605236167E-06	0.995044071168152	-0.120253253965055
5.2	-0.00545842888011347	0.00234712348476663	-1.0626439074538E-06	-4.50309560771461E-06	8.80453373062404E-06	5.61082581654039E-06	0.994955875981054	-0.122681507292578
5.3	-0.00515804893850812	0.00221310094323963	2.28203905512336E-06	6.8208004524447E-06	8.81922662731787E-06	3.16048047555835E-06	0.99499825492705	-0.125073163135251
5.4	-0.005093162183386	0.0019683279961681	2.72262878391948E-06	-3.1497975599576E-06	-2.68570142065476E-06	1.49689570777949E-07	0.99544490164473	-0.128192673499895
5.5	-0.00546288422257166	0.0023329941378554	2.10889761310011E-06	9.36099295194286E-06	-3.93482897701161E-06	-5.05950223346831E-06	0.995223178603533	-0.131564271179548
5.6	-0.00497735250470478	0.00265357026858607	-5.87797249700836E-06	-1.14255582878023E-06	4.89038436905899E-06	1.9553607550533E-06	0.99518327199621	-0.134242438965227
5.7	-0.00487666922226147	0.0025688289470468	3.35149165371929E-06	-1.42644917153806E-06	-5.06559435549643E-06	-4.31373756441791E-06	0.995089610683119	-0.137353608726005
5.8	-0.00492605668511939	0.00251642859870126	-2.06073738646341E-06	-4.76655888828462E-06	9.50554951489135E-07	-5.8414547042475E-07	0.994662475653303	-0.140275463168793
5.9	-0.00522556316592322	0.00234960174086728	-3.89324237256409E-06	6.21697766277884E-07	3.87631534148951E-06	1.25375493374896E-06	0.993404638979522	-0.143179095760931
6	-0.00631543179974408	0.00268353296383796	-5.95789119493177E-06	5.05789943480036E-06	-1.48939904038482E-06	1.95865902427724E-07	0.991664107276322	-0.143454350856948
6.1	-0.00648576174736039	0.00371951600425988	-5.94797992955259E-06	-4.7227198289476E-06	-4.02348397652923E-06	4.30293882074692E-07	0.993016236761154	-0.143953473215437
6.2	-0.00642764013125509	0.00427160504426273	2.83162838781429E-06	3.14142412419208E-06	1.05718253532877E-06	7.26717631498018E-07	0.993456115337158	-0.145903553258254
6.3	-0.00616848098767277	0.0046640574618466	1.64921232475195E-06	-7.51476155842835E-07	-1.34149980549372E-07	1.38206773359948E-06	0.993385328572619	-0.148419304860102
6.4	-0.00609441630958075	0.00464780496337133	-5.2082376276564E-06	-5.64689019740358E-06	3.83324927000916E-06	6.94175763672266E-06	0.992863831964469	-0.150919548549394
6.5	-0.00616427583971918	0.00520837200092047	9.1189150926745E-06	-2.48810841898755E-07	-7.36518676088647E-06	-9.03768158558138E-07	0.993518669872409	-0.153397859386841
6.6	-0.00541726320024445	0.00539721177684897	-1.49657519195323E-06	4.70650574909887E-07	3.38377114660922E-06	-9.43875920493028E-06	0.993853429546914	-0.15784819615047
6.7	-0.00506348153887546	0.00534737918606686	5.98357986069638E-08	7.79267692932342E-06	-5.06041358395987E-07	-6.11760495619006E-06	0.992841261929493	-0.161270025769456
6.8	-0.00482278483919907	0.00528779220239523	4.27200297232395E-06	1.65737913679632E-06	2.0589979449784E-07	-5.26210221181142E-06	0.991836723197687	-0.16424071244992
6.9	-0.00498512242079068	0.00512642969929998	-7.58578505389108E-07	2.50718916345466E-07	5.78177724071688E-06	-2.70602390207106E-06	0.990651389288906	-0.166944995808911
7	-0.0054930790624685	0.00596649396851407	8.04744328693541E-06	-4.7999130113659E-06	4.29195127761024E-07	-3.03562243083336E-06	0.989267623931922	-0.16834707021334
7.1	-0.00478220141711068	0.00665956561275573	3.86938923675578E-06	2.04159743013499E-06	7.9748789274717E-07	7.26014390401106E-06	0.989274878304401	-0.170172089498474
7.2	-0.00436039033927145	0.00682357133284548	-2.44814588098013E-06	3.71592321741231E-06	-1.35041379160228E-06	-3.84058088747383E-06	0.988650594227796	-0.172646156694111
7.3	-0.00409272512916439	0.00690031723191221	3.45394628430995E-06	-5.08115384752821E-07	-2.46799660153738E-06	-1.91805595320029E-06	0.987488317728856	-0.175193631052471
7.4	-0.00417665774531599	0.00660562783585655	-6.23098780513634E-06	-2.68520236353075E-06	3.79001255932686E-06	2.31590779571942E-07	0.986170255258599	-0.178852536885042
7.5	-0.00514659831981477	0.00690632159929195	6.74286026215359E-06	-6.49843455799694E-06	-2.4829719941069E-06	8.17378065419394E-07	0.982705995809655	-0.182020991994059
7.6	-0.00489756917373242	0.00785593665518349	3.51777710186103E-06	5.19904688575948E-06	-1.0242445576439E-05	4.98894672953577E-06	0.981285001496098	-0.183393267627537
7.7	-0.00480480802757509	0.00811705071151025	6.09194481403882E-06	1.09322560156197E-05	2.79231214479084E-07	-1.13831019554985E-05	0.980718977986015	-0.186329374151306
7.8	-0.00450495385675483	0.00820759333843675	2.16446605139969E-06	9.74668639161896E-07	-3.06660367620857E-06	8.85062676127266E-06	0.980098132599029	-0.189523666409331
7.9	-0.00436815387987374	0.00815494167664534	2.54230514940966E-06	-2.32953126195105E-06	3.69287644897769E-06	3.22917034510539E-07	0.978916010538844	-0.192718911950632
8	-0.00398964896664333	0.00879856338288472	-2.80651796108601E-06	1.3423709062701E-06	6.86807532645833E-06	-1.89061085112431E-06	0.97789415254059	-0.193870862718686
8.1	-0.00282867664344188	0.00865091411855396	-1.78864951991512E-06	7.63773749304101E-07	-3.71540098645622E-06	-1.23773469413143E-06	0.979118669632115	-0.196549307151661
8.2	-0.00234444064113089	0.00813529250514841	-7.63172866534406E-07	6.33961940282302E-06	4.89891382900619E-06	4.33105020361168E-06	0.978877061486812	-0.199969509501675
8.3	-0.00213050691567094	0.00771397997380806	-9.29228088433919E-07	-1.42068876083213E-05	6.85291705833506E-06	5.39027204639723E-06	0.977819281212325	-0.203297420298318
8.4	-0.00235366592861336	0.0073430197235781	3.74112893649264E-06	-3.4460378465708E-06	-6.97427374306341E-06	-1.1833851132004E-06	0.976434489125821	-0.206099015604462
8.5	-0.00293220064801678	0.00800717654075508	4.67732138767022E-06	5.62380110122808E-07	8.38006059188444E-06	-6.87621821803829E-06	0.975525820344438	-0.208601019375742
8.6	-0.00225964898420283	0.00864362643036821	-3.24244978718652E-06	4.13387691617957E-06	1.07394421462678E-06	1.10844234654532E-05	0.974678751120219	-0.211575438610506
8.7	-0.00172147826476027	0.00875873981054468	2.66836354474191E-06	-2.01310015996324E-06	4.7474248580641E-07	-5.5604486260538E-07	0.973658895583912	-0.214165315869479
8.8	-0.0011592072694957	0.00874598778283285	1.14429909814536E-07	-1.25182730858456E-06	-9.12793228954676E-07	9.75834429393442E-06	0.972680208163865	-0.216265992731214
8.9	-0.00078574150550175	0.00834848494820605	-3.64486882741688E-06	2.30903895174041E-06	4.81518665815982E-06	-1.82673289634572E-06	0.972258532342371	-0.218079052990754
9	-0.000875158386531589	0.00844926964945777	-1.8844346032725E-06	5.06910715300419E-07	-3.26107868608645E-06	-1.05020089668216E-05	0.971731563776384	-0.220258278152353
9.1	-8.5849348541331E-05	0.0083972619252388	5.24328946796391E-06	5.60162961572391E-07	9.12984818801208E-07	3.76092620687916E-07	0.971164399937923	-0.222149483981676
9.2	0.000401956710043566	0.00795920092513864	-8.72771599864609E-06	-4.52130680262237E-06	-9.1161044056475E-07	-6.10951357241503E-06	0.970626028243637	-0.224520625238721
9.3	0.000762248027214491	0.00744194365292768	2.20178283145059E-07	6.20130718771086E-06	4.61745522846731E-06	-2.21340169783425E-06	0.970218827771539	-0.22706688343916
9.4	0.00071541800912344	0.00668594995292744	-1.89267198776117E-06	5.88256017395108E-06	-1.04401274267212E-05	7.78203418507305E-06	0.969285483422922	-0.230510203997854
9.5	0.000310278220378944	0.0069542989259598	3.13380328714977E-06	-7.56360252540429E-06	3.65684393622609E-06	-2.75478602461613E-06	0.967226480119872	-0.233121842775669
9.6	0.000661775218935793	0.00688048601118182	4.51116660279825E-06	5.53610050964081E-06	-6.04325018624387E-07	7.05114605996397E-06	0.966233635580159	-0.235273219690892
9.7	0.000653557017886892	0.00668404289049707	-2.61368465971004E-06	-3.91333539894276E-06	3.64617835161262E-06	-7.51410893909941E-06	0.965318802055157	-0.237553081422988
9.8	0.000570610148794442	0.00651744953938945	-5.41133075866376E-07	-4.19717030450064E-06	6.25699059262515E-06	8.59008492796668E-07	0.964580187336379	-0.239559048848617
9.9	0.00018524382488735	0.00631258694461766	-2.67942008013348E-06	-5.80975097316753E-07	-8.4448867934194E-06	5.49848110571846E-06	0.962924459605075	-0.241196803708405
10	-0.000534393752701593	0.00695743257840697	4.22616002187356E-07	-1.74397553500496E-06	-3.08770074635327E-06	-7.92481445718537E-06	0.962009335547649	-0.240533334458813
10.1	-0.000183403561984373	0.00749886076084427	2.24460650262689E-06	4.74715134160244E-06	-3.07177577233639E-06	9.81513805987217E-06	0.962798675339753	-0.242076188853178
10.2	-3.70776467717897E-05	0.00767629343912369	-5.37556596681264E-07	-1.04362010214062E-06	-1.21040526133822E-06	-3.10217681595176E-06	0.962043587648975	-0.243645409787596
10.3	8.72602405635176E-05	0.00786296153724093	1.12567971826704E-05	-2.9361502514737E-06	1.00084857587113E-05	-4.83968638332958E-06	0.960993243683189	-0.24500382057452
10.4	-1.89280627717187E-07	0.00794218611674368	-6.23999070386026E-07	2.13987766236873E-06	3.01701003721924E-06	-2.17930568911758E-06	0.959831921828806	-0.246054732940818
10.5	-0.000183698271791414	0.00894292443259474	-6.08931089117494E-06	4.63386228065582E-06	1.56964190799752E-06	4.29267420539385E-06	0.959964934625125	-0.247363286698183
10.6	0.00078723992992609	0.0096189211922557	-7.06735460255619E-06	1.06616763389187E-05	7.01002726491845E-06	4.2463190095218E-06	0.959752516080256	-0.249906927364624
10.7	0.00175497590918032	0.00982127806710928	-3.20201287759143E-06	1.5650857713712E-06	-5.34628862767586E-06	3.16527223378059E-06	0.959447276760738	-0.252329192575533
10.8	0.00263274879363974	0.00958414719933449	-1.91729482528144E-06	4.9755650092699E-06	8.45682989324842E-07	-3.19271758528147E-06	0.959126987716995	-0.254578310724866
10.9	0.00282490658064399	0.00915072854427199	-5.73623578279821E-06	-1.04886169556348E-05	4.92034397238422E-06	1.06672003659263E-05	0.958572123078482	-0.256796955106145
11	0.00288600137304197	0.00971643636805242	2.95741168290917E-06	2.60447282501646E-06	7.78894269422187E-07	-1.11977743437701E-05	0.957756873276908	-0.258526636826827
11.1	0.00400149222503035	0.00987455320004308	3.84304203969369E-06	1.45136312800921E-06	2.53283122146407E-07	-7.34481020751496E-06	0.956816031323919	-0.260155424099875
11.2	0.0048834195795489	0.00955502162329331	-4.39814467446424E-06	-1.9650810895565E-06	-7.29272345039023E-06	-4.83415953794293E-06	0.955768799135749	-0.261654057435178
11.3	0.00576801693994005	0.00886784524786023	6.64717482198532E-07	-6.35524330721881E-06	3.74464998588593E-06	1.40922080028553E-05	0.955325802043672	-0.263199987106262
11.4	0.00604718420419924	0.00789501230981586	-5.10469674614782E-06	8.1130879546747E-06	-1.45611738033557E-06	4.06259434054661E-06	0.954259714027608	-0.265844294141103
11.5	0.00589600175938472	0.00773956093422778	4.5004788696267E-06	8.05890983031871E-06	-9.24762843412044E-06	1.57039964233509E-06	0.952191132898037	-0.267765816476256
11.6	0.00650899062131206	0.00706921172062755	-3.82626203698007E-06	1.3892065119512E-06	5.0440721940839E-06	8.10666310756061E-06	0.951549269833799	-0.270201320309151
11.7	0.00649870628956137	0.00611978458229611	2.22182622155374E-06	1.0487571506993E-05	5.4447424715062E-07	-3.63278762684219E-06	0.950512338760926	-0.273459966209802
11.8	0.00618748667682927	0.00540484830617185	1.41619984864549E-06	4.444688791511E-06	2.23366248643171E-06	4.51960811685525E-06	0.949196173721914	-0.276585486099278
11.9	0.00545329771167221	0.00496445977642732	7.38790377523582E-06	1.0523741368735E-05	3.86128785862235E-06	4.09347323870031E-07	0.947722613783027	-0.278102452009157
12	0.00518797189214055	0.00576228553437925	2.35734354119643E-06	-5.12024038400154E-06	-4.07607522835909E-07	1.74048841888238E-06	0.948440076493244	-0.277914933637626
