# GHZ S RI R 50
0.2	0.000854572649691486	0.00261596526447131	4.79228442813541E-06	-2.9855256768454E-06	-1.37219447635675E-05	1.31205018588355E-05	0.99939384812995	-0.00695319445794988
0.3	0.00133918688529774	0.00184962593099102	2.86623303831332E-06	6.62451659750706E-06	-1.66466592066136E-06	-9.31865979859347E-06	0.999275140844116	-0.00984908189659943
0.4	0.00164026113620421	0.00129404897400152	-1.86264337347536E-06	-4.01467579321801E-06	-9.01270668735505E-06	4.4037869001435E-06	0.999157213460237	-0.0125415744008389
0.5	0.0016434876352144	0.000982758230830061	-5.3574676926433E-06	3.26287824985474E-06	-2.12569319223946E-06	6.75620731835695E-06	0.998780858527868	-0.0154152302972291
0.6	0.00197893981003098	0.00072620488147945	-1.39108175310094E-07	2.80522247862471E-06	-5.81369948217058E-07	-1.33970219691199E-07	0.999028739067793	-0.0182825166248072
0.7	0.00204664601914747	0.000334037704299899	8.8233995933787E-08	2.2183071349614E-06	4.90121566428765E-06	-3.40114218414586E-06	0.998666499334678	-0.0212927193053134
0.8	0.00208802906062555	1.74618274607271E-05	4.52657025297279E-06	8.25256447245476E-07	2.74294513145772E-06	1.99944680393939E-06	0.998383757825605	-0.0234580039434494
0.9	0.00203526028327441	-0.000326011955944428	-1.51621833420782E-07	-4.21620798845122E-06	-3.41613079086863E-06	-3.10804777101816E-06	0.998251897705914	-0.0259079367465201
1	0.001667701015585	-0.000605017209766972	1.05869368951172E-06	4.2899345285653E-06	3.32520699208989E-06	9.33712115769331E-07	0.997780905518687	-0.027512133014799
1.1	0.00149873277031705	-0.000501311140790836	9.03968131709706E-06	5.19459695238529E-07	-3.57678625430517E-06	-4.99614051690031E-07	0.997595555695962	-0.0292752808084213
1.2	0.00137608746841693	-0.000882227025408546	3.75984740749888E-06	-1.19885651520896E-06	-4.09512533086787E-06	-2.43756503412409E-06	0.997205265663974	-0.0301299817332473
1.3	0.00102490734837581	-0.00158821286556265	-7.61557174649544E-07	-1.42682260721405E-06	-2.5867579190309E-06	-8.70660410981924E-06	0.99777555441558	-0.0308147458160659
1.4	0.000481150460891938	-0.0026216986260564	1.48070708672093E-08	3.44802828117281E-06	-4.28290122783252E-06	-4.12717110459418E-06	0.997902011079717	-0.0330531162657045
1.5	-9.57680434895892E-05	-0.00319257368507715	-1.29684820482602E-06	4.42990018278002E-06	6.55023928836523E-06	-7.41499808242686E-06	0.998076681321391	-0.0366277614960243
1.6	-0.000316925236668919	-0.00350087797101525	1.62891546109193E-06	-4.89204323431454E-07	4.23978458386316E-06	-5.39295781394176E-06	0.997325135871606	-0.0400992923356462
1.7	-0.000629737091317531	-0.00363911507382389	5.31341307368448E-07	3.95512023143851E-06	-8.27984335481404E-06	3.12828399036434E-06	0.997254332730524	-0.0426550990050365
1.8	-0.000888745031631056	-0.00357399277961472	1.83110679078696E-06	1.07766156252925E-06	5.65073744393184E-07	-1.76062256915984E-06	0.996943262360184	-0.045414216800741
1.9	-0.0011684396385817	-0.00357328126979839	3.2331509675089E-06	3.01518742190735E-06	-1.82821233435057E-07	-2.32822616437277E-06	0.996406913514981	-0.0477860278997965
2	-0.00150061294249032	-0.00333731040159474	-1.72633559229079E-07	2.00110855719477E-07	-1.21510888047246E-05	5.4059218097893E-06	0.995281908606282	-0.050011978772027
2.1	-0.00145377869767998	-0.00331598218022346	6.68064296635755E-07	-1.38070588836694E-06	1.37931582922465E-05	4.96635748930974E-06	0.995408088660314	-0.0517880093837004
2.2	-0.0017146750214112	-0.00346831566580708	1.64322015203651E-06	-1.5148917714031E-06	2.68538418689877E-06	-6.20366195843601E-06	0.995475658347113	-0.0542095343264737
2.3	-0.00215856582019016	-0.00357800843070521	-1.6848801878158E-06	-3.42352501699366E-06	-1.78772164417938E-06	-4.58710927989403E-06	0.995141892564368	-0.0559779350026148
2.4	-0.00274592202095405	-0.00363275942351019	-1.20032399718739E-06	-4.39590400030658E-06	3.04216690027217E-06	1.08631536655968E-06	0.995070440925549	-0.0590106267218856
2.5	-0.00353620762756156	-0.00332659839290978	5.3735852042172E-06	5.66505297161069E-06	-2.6128073833476E-06	1.6127832737905E-05	0.994513994431095	-0.0610936999188913
2.6	-0.00379959303793268	-0.00277965935953929	-2.27549957316373E-06	2.7071402099659E-06	4.35803602590565E-07	-4.30598618414436E-06	0.994518744564356	-0.06363133175102
2.7	-0.00385572784088046	-0.00242356961247187	-2.4009557154525E-06	-3.63417720649383E-06	2.15410654299153E-06	-2.56588573959723E-06	0.994259867635422	-0.0663548236265329
2.8	-0.00381619528563749	-0.00218307180462466	3.99565932160393E-06	2.31276941518993E-06	9.82133337284928E-06	-6.78276249104239E-07	0.994623814692768	-0.0682345926638248
2.9	-0.00372239944275681	-0.00204802771046391	1.28673014235904E-05	7.21595120633856E-07	2.44889516453269E-06	-1.17023232275744E-05	0.994567239724693	-0.0702990143085115
3	-0.00358107298368568	-0.00183878547818778	-3.85151610836826E-06	1.04253244977319E-06	-4.14095154464592E-06	-1.60088449698181E-06	0.994558057259881	-0.0728292756798608
3.1	-0.0031855199363652	-0.00194705642808511	4.7850663641157E-06	-9.83140318429276E-06	1.0672542737367E-05	2.41833953524975E-06	0.994434715133381	-0.0747757775576014
3.2	-0.003159156425359	-0.00224556907720254	-5.3594676607737E-06	-7.40977847796742E-06	1.56213698030269E-05	5.39912917500766E-06	0.994426021415061	-0.0766117854839872
3.3	-0.00330287749603302	-0.00253250337024565	-8.791489281376E-06	2.53433246563732E-06	-8.55996481149297E-06	-1.7492061092089E-06	0.994459118754175	-0.079945240333497
3.4	-0.00370307153851272	-0.00277416034924187	9.06617685552153E-06	-7.5506049081578E-06	-7.348358178231E-06	4.22626328044722E-06	0.994614432134978	-0.0821671126128883
3.5	-0.0042054365710438	-0.00271685347867929	3.22379109391615E-07	-5.31954496830074E-06	-4.39078900935538E-06	-8.92964821308869E-06	0.994123217093334	-0.0852249499188786
3.6	-0.00446944855118443	-0.00269794918632276	4.06430325402548E-06	4.90172173860668E-06	-7.11361080295557E-06	8.97978973234778E-06	0.993752833275926	-0.0873819309343103
3.7	-0.00498086820367082	-0.00263848015671263	1.5331524567047E-06	-4.5225434442461E-06	-5.09203212690638E-06	-6.58974933270239E-06	0.993791284474861	-0.0899449103998571
3.8	-0.00547781187551495	-0.00233397993964217	7.28319214029954E-06	-5.18396342410406E-06	-5.8740455873336E-06	-2.42539402176809E-06	0.993579488772675	-0.0920047423760548
3.9	-0.00581223403278944	-0.00183479278228927	-4.02731651314737E-06	-3.55689545550862E-07	-2.531089803523E-06	1.12889019130782E-06	0.993453614991293	-0.0951920317849847
4	-0.00583133167105655	-0.00112250288184236	-3.38266163069889E-06	-8.8380483926239E-08	1.18784665806516E-06	8.66852484695882E-06	0.993077698107775	-0.0961234904749835
4.1	-0.00536548905634783	-0.000873934490210362	-2.89350006511732E-06	-3.86705035700992E-06	5.87427737301272E-06	3.04964220951192E-06	0.993626944502695	-0.097857817403907
4.2	-0.00525376588625711	-0.000950955900063259	-7.69723016080294E-07	-2.1592278825915E-06	5.70525852229827E-06	-1.83429689005358E-06	0.993342901487147	-0.100739250980465
4.3	-0.0053232644090585	-0.000979851851841322	-5.1683273672046E-07	3.23565808840201E-06	2.12745757248969E-06	1.78463872940529E-06	0.99332486603657	-0.102863027882335
4.4	-0.00562400272734432	-0.000956539813466475	2.57188460234963E-06	3.44860029289713E-06	7.17961737580761E-06	3.92690328614502E-06	0.993056424226169	-0.105301003905764
4.5	-0.00593469070835025	-0.000502275938170837	-6.47742370485201E-06	-2.40804683122979E-07	-8.58425391175014E-06	-2.12894423181075E-06	0.993103185560528	-0.10741594923522
4.6	-0.0059115221282014	-0.000274083772502508	-9.93902022927996E-06	-9.2471570534513E-06	3.2422462272806E-06	-2.727991564164E-06	0.992931915269016	-0.110421101133805
4.7	-0.00606154973044575	-0.000107945528369996	1.23385177748141E-07	1.86676768106292E-06	6.07555647429472E-06	-6.73010427854229E-06	0.992841086625977	-0.112479340055261
4.8	-0.00623649813417507	0.000146384701971451	-6.40287257458808E-06	2.07105250048843E-06	8.04679192297609E-07	-1.27572498007412E-05	0.992562408318068	-0.114962965818243
4.9	-0.00634924574220187	0.000434993603754797	-3.4425895845725E-06	8.14563972504613E-06	5.4912823942114E-07	9.38709415572229E-06	0.992318684527709	-0.116834027499832
5	-0.00623820973038566	0.000909730768100684	9.66145778402572E-06	-4.05274436318991E-06	-6.95014807911461E-06	3.57206943315384E-06	0.992311291526437	-0.118564824838463
5.1	-0.00578781335056087	0.000931350335851924	-3.62392395172479E-07	-3.25673706474325E-06	-3.87668015678771E-06	-1.80044471267641E-06	0.992339566167321	-0.120062400917359
5.2	-0.00568504046199463	0.000904125453995189	-1.0620176706927E-06	-4.49500014721298E-06	8.79078220332775E-06	5.59871826264233E-06	0.992289208658567	-0.122261303978385
5.3	-0.00557100452367906	0.00101435469148548	2.28035519420087E-06	6.80831980797061E-06	8.80509706994428E-06	3.15214733573058E-06	0.992432972599103	-0.124663608739308
5.4	-0.00546971421862078	0.00113012075843732	2.71603383998275E-06	-3.14522058145417E-06	-2.68061394135719E-06	1.50697764729227E-07	0.992768807632334	-0.127929514983323
5.5	-0.00528083445140124	0.0015003776986194	2.10634707344883E-06	9.33936341189117E-06	-3.92714098044968E-06	-5.04715183770687E-06	0.992289188483986	-0.131223645442103
5.6	-0.00496469107829559	0.00126594664238155	-5.86574091134242E-06	-1.14065406525655E-06	4.88012950255093E-06	1.95170290182556E-06	0.992041356404896	-0.133719099853461
5.7	-0.00533291136912426	0.00117325454612855	3.34519926816055E-06	-1.42313082257398E-06	-5.0550374424035E-06	-4.30616088111323E-06	0.991864759430432	-0.136436200922581
5.8	-0.00578185062984837	0.00141982718315186	-2.05551749101564E-06	-4.75869218171277E-06	9.49041840030063E-07	-5.82794606352883E-07	0.991662859637228	-0.13890767352547
5.9	-0.0063138589282871	0.00197342220248018	-3.888337296628E-06	6.18572800192083E-07	3.87033318671619E-06	1.25433144503867E-06	0.991135771824735	-0.141372235867008
6	-0.00665781600468142	0.0031803919377526	-5.95624451028962E-06	5.05518287789415E-06	-1.48884994918139E-06	1.9559880823909E-07	0.99077736720645	-0.142455598431457
6.1	-0.00598627174651191	0.00400478622239503	-5.94778253865959E-06	-4.71533054315142E-06	-4.02064699408261E-06	4.33025475778125E-07	0.991595029041084	-0.144225668047999
6.2	-0.00545614124315467	0.00417812471064262	2.83161289152778E-06	3.13569446706059E-06	1.05677330100611E-06	7.2502850580822E-07	0.991501666168401	-0.146381260097045
6.3	-0.00503697468276658	0.00401209249757576	1.64642413020884E-06	-7.51931465698374E-07	-1.32778570654918E-07	1.38039310866793E-06	0.991031785169157	-0.14894581330473
6.4	-0.00508523290020006	0.00370293175458936	-5.20514223410034E-06	-5.63450379839841E-06	3.83319117059863E-06	6.92857860203808E-06	0.990241430404716	-0.151306115079688
6.5	-0.00494663572294547	0.00382908062142759	9.10002439467422E-06	-2.58252826429053E-07	-7.35113449087886E-06	-8.93886374328526E-07	0.99027613003485	-0.154042472099583
6.6	-0.00478094700488262	0.00344710240764187	-1.49213124273861E-06	4.69913744431948E-07	3.37035877073228E-06	-9.41328364583253E-06	0.989634841305572	-0.157400003950506
6.7	-0.00493539071991052	0.00347020853026635	5.76492245165149E-08	7.76972780304764E-06	-5.02971953670542E-07	-6.09970727442181E-06	0.98882977892905	-0.159733952800822
6.8	-0.00498385520137008	0.00361713743419722	4.25824512989771E-06	1.65568500145285E-06	2.0919661085675E-07	-5.24651648397582E-06	0.988262836166375	-0.162062361220913
6.9	-0.00520426555603207	0.00387090354902319	-7.56733039956675E-07	2.49081186665379E-07	5.76868251720713E-06	-2.69128611737575E-06	0.987669218073817	-0.164337288352504
7	-0.00502541426874479	0.00474026192025635	8.03515432832242E-06	-4.77529720136437E-06	4.32943676065067E-07	-3.02743817562266E-06	0.986975138429156	-0.16604240880797
7.1	-0.00447633516905598	0.00466836767146521	3.85777127658952E-06	2.04301715710456E-06	7.84654897830509E-07	7.2454087522594E-06	0.986575973647614	-0.168125954261583
7.2	-0.00462127733906024	0.00464326385767015	-2.44805838368485E-06	3.70410867380802E-06	-1.34185836771235E-06	-3.83397473860219E-06	0.985726178911341	-0.170198242941371
7.3	-0.0049567352871381	0.00482644150741271	3.44625439088437E-06	-5.02091119538099E-07	-2.45933751828966E-06	-1.91681521898983E-06	0.984516510356804	-0.172290619177903
7.4	-0.00563679356297582	0.00513022100824149	-6.20843240119196E-06	-2.68617947540729E-06	3.77832267055389E-06	2.36384459265345E-07	0.983117906748938	-0.175209568415412
7.5	-0.00624633656955863	0.00636757025107256	6.73559526242233E-06	-6.46002026992917E-06	-2.47649124672239E-06	8.08597646179817E-07	0.980686399691929	-0.177334971390721
7.6	-0.00572601848750312	0.00722555145059314	3.4937314441766E-06	5.19373752319606E-06	-1.02267470570752E-05	4.94710241077707E-06	0.980195065572065	-0.179346386658141
7.7	-0.00554248981852785	0.00770094467073621	6.04411899294461E-06	1.09198246159431E-05	3.10964299537505E-07	-1.13512532177583E-05	0.979820880773334	-0.18241002896664
7.8	-0.00498927044228747	0.0079947307051739	2.15586478124727E-06	9.79215238727003E-07	-3.08750822837946E-06	8.8184274854936E-06	0.979510275707857	-0.185540197672842
7.9	-0.00434350158524876	0.00812888729635925	2.54627347396418E-06	-2.31484753979416E-06	3.68412098440259E-06	3.36727525715196E-07	0.978961979291898	-0.188526924280306
8	-0.00309013227791369	0.00828390195349863	-2.81047771170714E-06	1.32931701560356E-06	6.87172146021015E-06	-1.85958905757151E-06	0.979027706840275	-0.190268513766445
8.1	-0.00213613028991943	0.00730287355576035	-1.7915883707207E-06	7.5699932912836E-07	-3.71078259286243E-06	-1.25186814897826E-06	0.979831451807706	-0.19367501387685
8.2	-0.00198224354950332	0.00662317632535452	-7.86585536531554E-07	6.33894969413184E-06	4.88472985407823E-06	4.35039220632542E-06	0.979493647734684	-0.196822739229375
8.3	-0.00195946839525545	0.0062199426060026	-8.79883196967575E-07	-1.42199575102491E-05	6.83867919115603E-06	5.41810196666444E-06	0.978735221367907	-0.199973932144386
8.4	-0.00221008859473346	0.00610554831572762	3.75552332388608E-06	-3.43756716185693E-06	-6.97720328105884E-06	-1.20642796415227E-06	0.977770938345177	-0.202808757993771
8.5	-0.00205728075668139	0.00668210354912034	4.6777256796922E-06	5.76091973476274E-07	8.40348666791488E-06	-6.85506254405225E-06	0.977101837552327	-0.205642225715855
8.6	-0.00152351286404067	0.00637117473490315	-3.25884966091646E-06	4.12406773507283E-06	1.03443831387146E-06	1.10933689015419E-05	0.976260433553049	-0.208642678456847
8.7	-0.00162091706921717	0.00613653329116836	2.67879347825017E-06	-2.0047881116966E-06	4.77362834083893E-07	-5.547625804163E-07	0.975463959949687	-0.211246278679032
8.8	-0.00176295768799613	0.00618664499910104	1.19470217779791E-07	-1.25328169917111E-06	-9.52115367706025E-07	9.76960088963469E-06	0.974677527490548	-0.213432522172594
8.9	-0.00195133269828849	0.00639493118374299	-3.66084304651304E-06	2.30007539862732E-06	4.83171795143029E-06	-1.81242457623748E-06	0.974355956005963	-0.215320648590491
9	-0.00165432756597157	0.00716278449913243	-1.89042729514882E-06	5.01333060623308E-07	-3.23096361290977E-06	-1.05369578163051E-05	0.973926414336123	-0.217411705743535
9.1	-0.000730183085430674	0.00704976451472153	5.25510499373864E-06	5.79854648473434E-07	9.14074161294407E-07	3.80252553887848E-07	0.973604028837536	-0.219277447270413
9.2	-0.000161323966327656	0.0067966296355376	-8.73842809223488E-06	-4.56094343297845E-06	-8.95370654830428E-07	-6.12956508427805E-06	0.973253663178472	-0.221764313462081
9.3	0.000424181790855503	0.0064011839077678	2.04211491204008E-07	6.21903694316269E-06	4.63613466614457E-06	-2.2071778999406E-06	0.972941206368522	-0.224458544327771
9.4	0.000703996393710382	0.00579938507205852	-1.91072961682856E-06	5.8927925353981E-06	-1.04836286122449E-05	7.7775188234967E-06	0.972013099175838	-0.227916904917128
9.5	0.00105099746723019	0.00567906377868963	3.15905238795677E-06	-7.57131154009842E-06	3.67119768602092E-06	-2.75133350232989E-06	0.970355720461812	-0.230409234230611
9.6	0.00111265006492762	0.00472658369568745	4.50762733885508E-06	5.56039008563753E-06	-6.23588075373957E-07	7.06599976812924E-06	0.969732778231295	-0.233036968447584
9.7	0.000503495112969266	0.00432804969039928	-2.61087507550613E-06	-3.92917472113993E-06	3.67295234647692E-06	-7.52402257077824E-06	0.968898765088203	-0.235628630988175
9.8	-0.000161963702909365	0.00433364639543111	-5.32976956746297E-07	-4.20937077853836E-06	6.27138061179811E-06	8.75519613629507E-07	0.968210260837894	-0.237799906346632
9.9	-0.000911853674580985	0.00482609642801978	-2.68617909283063E-06	-5.89102241232054E-07	-8.4835941515836E-06	5.49512944983737E-06	0.966739646815072	-0.239304861665431
10	-0.00097124565894967	0.00603182733987785	4.27144957620928E-07	-1.7502786358919E-06	-3.08719395142578E-06	-7.96159773869065E-06	0.966581142774969	-0.23907132980981
10.1	-0.000426723959673965	0.00628265631505779	2.24974303880081E-06	4.76534559789981E-06	-3.08853944099606E-06	9.84815356169432E-06	0.967044463644589	-0.241125579314933
10.2	-0.000308930817805513	0.00649186972650984	-5.38789530732568E-07	-1.04703202566037E-06	-1.21288262783889E-06	-3.11216489945807E-06	0.966297369365276	-0.242733458505805
10.3	-0.000196018335569479	0.00678775002298507	1.12889462311859E-05	-2.94039639538464E-06	1.00378371636939E-05	-4.84962781226838E-06	0.965331891515689	-0.244379235622217
10.4	-0.000190965143958549	0.00726186745270301	-6.25965490421654E-07	2.14529951435647E-06	3.02516204618171E-06	-2.18443215508608E-06	0.964059715672721	-0.245939918453889
10.5	0.000494349330795595	0.00834686691763976	-6.09991790430354E-06	4.64303968439333E-06	1.57300701564732E-06	4.30034677445331E-06	0.963435014087817	-0.24773885929111
10.6	0.00172078595183799	0.00839801033578402	-7.08300664477791E-06	1.06732388107061E-05	7.01783799056261E-06	4.2560377454738E-06	0.96264054344756	-0.249764748329472
10.7	0.00270904967217522	0.00822563211350735	-3.20837849455746E-06	1.56528457608263E-06	-5.35732243265854E-06	3.16650362382399E-06	0.962409895668695	-0.251829322189938
10.8	0.00347381882682422	0.00766482861114679	-1.92401108841499E-06	4.9832958105385E-06	8.49298167402686E-07	-3.19792981708699E-06	0.962277469657282	-0.253954144703958
10.9	0.00357318059123655	0.00723253238795623	-5.74250523574031E-06	-1.0512158215593E-05	4.92491192769887E-06	1.06906995881067E-05	0.96186277247907	-0.256093808119671
11	0.00419713349060254	0.00748849815154023	2.96276577689527E-06	2.61081655930067E-06	7.83990072507076E-07	-1.12208636959026E-05	0.961283445724575	-0.257454022025477
11.1	0.00495138328023245	0.00668268818122651	3.85182272845169E-06	1.4544331548749E-06	2.53444854891975E-07	-7.36145057712079E-06	0.961063591489341	-0.259074011592071
11.2	0.00507073906078092	0.00602846311440073	-4.40878769582575E-06	-1.9670749938498E-06	-7.31119575088418E-06	-4.84091044986498E-06	0.960555807483675	-0.261053439903079
11.3	0.00512858180610679	0.00547614615857974	6.5991787891743E-07	-6.36781355334639E-06	3.76509528354661E-06	1.41151149687911E-05	0.960166260939935	-0.263373154426964
11.4	0.00484148839582429	0.00510543426763035	-5.10127758987726E-06	8.13060569332381E-06	-1.45291264623082E-06	4.06996353998678E-06	0.958786126119685	-0.266711999546879
11.5	0.00503326426353774	0.00530642664710252	4.51262602303844E-06	8.06355230448748E-06	-9.25620367723749E-06	1.5804543771468E-06	0.956597481422687	-0.268725349010774
11.6	0.00530439376492042	0.00441346016491889	-3.82989397865298E-06	1.39525711829998E-06	5.05971904904692E-06	8.11206261876983E-06	0.955971195811352	-0.271639671226779
11.7	0.00477512454729109	0.00387033399109128	2.23843202946316E-06	1.04977041074147E-05	5.40359114462384E-07	-3.63803136984603E-06	0.954756386337792	-0.275393388129994
11.8	0.00422233697221521	0.00391061373653889	1.42342064828487E-06	4.44795995844776E-06	2.24190816215068E-06	4.52193293376595E-06	0.953012554305471	-0.27891269960106
11.9	0.00390215412159038	0.0045855107485967	7.4086404583467E-06	1.05331873927004E-05	3.86755505220039E-06	4.06505922233475E-07	0.951120724536623	-0.280294083288463
12	0.00488083969446659	0.00570246006649504	2.35810594096624E-06	-5.13482831300057E-06	-4.06918887081674E-07	1.74506945586018E-06	0.95127081793852	-0.279758258393338
