# GHZ S RI R 50
0.2	0.000909126119027897	0.00287072264308809	4.78895335597851E-06	-2.98660812016067E-06	-1.37102365835422E-05	1.31217753561112E-05	0.998886331524799	-0.00730583789721377
0.3	0.00131727600167242	0.00198569319186918	2.86716927059788E-06	6.62064244776233E-06	-1.66702709454104E-06	-9.31399640583633E-06	0.99864869900055	-0.0101656973304235
0.4	0.0015938592860857	0.00135970465866815	-1.8626430941818E-06	-4.0119822063394E-06	-9.00660282635907E-06	4.40366355682078E-06	0.998435391052797	-0.0128086795488092
0.5	0.00138248711346369	0.000999620273562603	-5.35436908279465E-06	3.26079794269629E-06	-2.12460737893353E-06	6.75213560581599E-06	0.998024524095383	-0.0154427990098654
0.6	0.00172584164257583	0.00104544164826317	-1.38976778802028E-07	2.80427284419498E-06	-5.81176292718085E-07	-1.33907239430302E-07	0.99867735008252	-0.0183616148332095
0.7	0.00197906265346122	0.000698061019411636	8.86189129566077E-08	2.21736801852199E-06	4.89853138513283E-06	-3.40065953569631E-06	0.998328691345929	-0.0217351684707781
0.8	0.00214972768082457	0.000352079484137265	4.52431050300103E-06	8.23664005686196E-07	2.74195423452013E-06	1.99766433178841E-06	0.997861112577646	-0.0241432032617612
0.9	0.00226291581051852	-9.57369303836426E-05	-1.52837362297291E-07	-4.21314286324276E-06	-3.41466193080062E-06	-3.10475057310165E-06	0.997424174942334	-0.0267604635379526
1	0.00183314973563118	-0.00076277049705361	1.05852790951007E-06	4.2853199742141E-06	3.32200523240119E-06	9.32046100811632E-07	0.996390337139821	-0.0282526190311106
1.1	0.00132197286314971	-0.000526724196785774	9.03035476200361E-06	5.19084375211752E-07	-3.57309075079013E-06	-4.99162437073848E-07	0.996164833962295	-0.0293619426310222
1.2	0.00124150720464763	-0.000777798287097871	3.75605391571456E-06	-1.19728561286012E-06	-4.0906670290845E-06	-2.43539507770573E-06	0.996088010509194	-0.0299726284803942
1.3	0.000873701620099845	-0.00143779656027453	-7.60407586140234E-07	-1.42551713089862E-06	-2.58189974162234E-06	-8.69812909827761E-06	0.996930233158051	-0.0305444324482645
1.4	0.000318753425015422	-0.00238665071155295	1.3189116990518E-08	3.4448009087815E-06	-4.27696384337643E-06	-4.12529226368423E-06	0.99732485541084	-0.0327395396931103
1.5	-0.000439570666341615	-0.00282507532369646	-1.29836729703731E-06	4.42560886164743E-06	6.54927935847354E-06	-7.40528783226113E-06	0.997660265901317	-0.036314987709925
1.6	-0.000417030518712896	-0.00281177522886179	1.62804332615417E-06	-4.87881822698542E-07	4.23997492928659E-06	-5.38657097363387E-06	0.99720053863988	-0.0399653674709004
1.7	-0.000501085484560703	-0.00306196476000432	5.28705040571003E-07	3.95264037805982E-06	-8.2758050087198E-06	3.12134619322123E-06	0.997039990444703	-0.0428424818329877
1.8	-0.000684627091614065	-0.00314464789689722	1.82924863080137E-06	1.07788861422076E-06	5.65621599636634E-07	-1.75908829663211E-06	0.99656572697942	-0.0457340564665799
1.9	-0.000960906218534785	-0.00336359316130989	3.22982492671017E-06	3.01430420500088E-06	-1.81841252133062E-07	-2.32669502064718E-06	0.995908648464484	-0.0482891287759168
2	-0.00168945126929026	-0.00326693167463303	-1.72454912459307E-07	1.99848833820142E-07	-1.21373359015508E-05	5.39782664769911E-06	0.994087936975598	-0.0505832913596777
2.1	-0.00170473088653986	-0.00282067676798458	6.68140065531405E-07	-1.37823257038057E-06	1.37697252073682E-05	4.96955622892394E-06	0.994267518912838	-0.0515159377041146
2.2	-0.00173841739450067	-0.0028696298850413	1.64274781724447E-06	-1.51143582698399E-06	2.688316602537E-06	-6.19352756704787E-06	0.994771202038795	-0.0538855006592851
2.3	-0.00197894852318193	-0.00301417015753806	-1.67938503804329E-06	-3.42174967434977E-06	-1.78085370345524E-06	-4.5842199918913E-06	0.99458651223774	-0.055758244207639
2.4	-0.00234670651316092	-0.00328749182779067	-1.19394380267333E-06	-4.3931818534174E-06	3.03799543679696E-06	1.08891901732808E-06	0.994544783775065	-0.0588058830761236
2.5	-0.00335098299773745	-0.00345753097493177	5.36226786110298E-06	5.66855477470866E-06	-2.63298880941929E-06	1.61134391994582E-05	0.994069108616249	-0.0607622657498389
2.6	-0.00399766905586388	-0.00275655966130096	-2.27760563545577E-06	2.70346785920536E-06	4.4046428126194E-07	-4.30372344613173E-06	0.994337875020048	-0.0633033281039127
2.7	-0.0041398972802194	-0.00223436293311532	-2.39618100007423E-06	-3.63462832807374E-06	2.15548437389216E-06	-2.56246382874883E-06	0.994114638849955	-0.0661256232904565
2.8	-0.00409162969866917	-0.00184005009064852	3.99069022472317E-06	2.31525493567875E-06	9.81551507578977E-06	-6.67955568160391E-07	0.994451788798049	-0.0679667621445977
2.9	-0.00392510717737196	-0.00171054388153425	1.28569938777682E-05	7.3562020686011E-07	2.46032816893055E-06	-1.16909208211844E-05	0.99438444670592	-0.0699518866995129
3	-0.00406240944656924	-0.00151522874369799	-3.85025236897306E-06	1.03727354563696E-06	-4.13635544268363E-06	-1.60476924794544E-06	0.994396655019466	-0.0723391756786921
3.1	-0.00363470812390678	-0.00120126076824201	4.79233637235271E-06	-9.81806580173869E-06	1.06612059009986E-05	2.42846857443829E-06	0.994406383215974	-0.0742083248414823
3.2	-0.00338939321822947	-0.00138740545460066	-5.34476266092304E-06	-7.41022222069377E-06	1.56000744198231E-05	5.4150508584447E-06	0.99445981038694	-0.0760436335172894
3.3	-0.00335150807153807	-0.00166850572523615	-8.78783787091399E-06	2.51831732221393E-06	-8.54978347467315E-06	-1.76113800138966E-06	0.994539091682686	-0.0792979663762322
3.4	-0.00359288732093183	-0.00205705220530306	9.07426411716875E-06	-7.52873252337611E-06	-7.35138489640036E-06	4.20978436368708E-06	0.994872678910486	-0.081354870383736
3.5	-0.00436494399140695	-0.00216992281760854	3.31660785751752E-07	-5.31813208354354E-06	-4.37442279062017E-06	-8.93592947323804E-06	0.9947276207019	-0.0845758661135596
3.6	-0.00461735828854921	-0.00173784442032982	4.05554684236916E-06	4.90636789908247E-06	-7.12505074474023E-06	8.9661081003447E-06	0.994302606351615	-0.0868813953798993
3.7	-0.00478238938600869	-0.00162594038184207	1.5401923338376E-06	-4.51843043730362E-06	-5.07926599354108E-06	-6.59601041672719E-06	0.994330975110278	-0.0894838046645934
3.8	-0.00499871862449731	-0.00151155175339282	7.29079171421689E-06	-5.1700163269864E-06	-5.86852122542251E-06	-2.43524131865947E-06	0.99407420800504	-0.0915785151171251
3.9	-0.00521996993261522	-0.00145507788485669	-4.02658780127576E-06	-3.62258478007734E-07	-2.53284214144576E-06	1.12471224668549E-06	0.993815574171563	-0.0948939993730722
4	-0.0058032085218562	-0.00113633176266663	-3.38107419794616E-06	-9.32693203447014E-08	1.17470845545608E-06	8.66651685673005E-06	0.99264874285532	-0.0955606584674969
4.1	-0.00564830943936948	-0.000437040709539786	-2.88454370774506E-06	-3.87151613649359E-06	5.86588268434442E-06	3.0604879759066E-06	0.993634451992851	-0.0961918849836796
4.2	-0.00540653689237546	-0.000302496117236774	-7.65197632472826E-07	-2.16086489790294E-06	5.70916510398389E-06	-1.82233766271473E-06	0.994053779676342	-0.0990474416967813
4.3	-0.0053043604388309	-0.000317823566683823	-5.23574045861332E-07	3.23525355094545E-06	2.12422814431536E-06	1.78936387951434E-06	0.994373420070953	-0.101322194014051
4.4	-0.00547425084767174	-0.000536116424355464	2.56524365858113E-06	3.45514296622453E-06	7.17331484799327E-06	3.94347885349502E-06	0.994277487326885	-0.103829723655595
4.5	-0.0062684936054094	-0.000418023592342495	-6.48183407114272E-06	-2.57549478356188E-07	-8.58547242983934E-06	-2.15253965800171E-06	0.994626784192031	-0.105672011092957
4.6	-0.00656663180182565	0.000302175094878904	-9.93389677890874E-06	-9.28281513163818E-06	3.2530986971116E-06	-2.72505017707282E-06	0.995272232262466	-0.108905523805886
4.7	-0.00662124079151559	0.000746633365197157	1.20261792823827E-07	1.87012853180715E-06	6.09778698995892E-06	-6.73058621229668E-06	0.995475166738581	-0.111495178239313
4.8	-0.00665082908169054	0.00116161835553769	-6.41730678564453E-06	2.06476974584724E-06	8.25843734963813E-07	-1.27783735000454E-05	0.995252419736183	-0.114380017281572
4.9	-0.00656692469384462	0.00140904180584027	-3.4604451332241E-06	8.15525953044437E-06	5.36626806536439E-07	9.40466727608123E-06	0.994928315691545	-0.116498463135205
5	-0.00674330404640403	0.0018175451127702	9.68663435618322E-06	-4.04833196904879E-06	-6.96912471692646E-06	3.57024343637112E-06	0.994897917700561	-0.118199082979312
5.1	-0.00609971632674145	0.00236843683828432	-3.60162496080658E-07	-3.26351588508454E-06	-3.88272932604208E-06	-1.80751979097423E-06	0.995153669287715	-0.119840735183785
5.2	-0.00551864117088102	0.00228143670321902	-1.06019284549754E-06	-4.5039038291055E-06	8.80184135695488E-06	5.61598986692772E-06	0.995054277710742	-0.122313494947957
5.3	-0.00518473466060656	0.00205585164483076	2.27796083463827E-06	6.82171048494407E-06	8.8168718901353E-06	3.16538741994493E-06	0.995008406069102	-0.12474960390722
5.4	-0.00516248793181565	0.00170364449370874	2.72466471307811E-06	-3.14744142981904E-06	-2.6855211807678E-06	1.47685850830318E-07	0.995384786680511	-0.127784478664803
5.5	-0.0058060224998762	0.00195411571660517	2.1014445719243E-06	9.36472457666231E-06	-3.93138394892086E-06	-5.0638758500438E-06	0.995251011544491	-0.13119543709475
5.6	-0.00550949702671974	0.00259020812413992	-5.87901448106576E-06	-1.14640329990793E-06	4.89065090922563E-06	1.95885660847421E-06	0.995092746437809	-0.133842313188078
5.7	-0.00536328541168366	0.00270851058941555	3.35337803902768E-06	-1.42504516499875E-06	-5.06483871499061E-06	-4.31796601474254E-06	0.99505576292797	-0.13681922859215
5.8	-0.00534699352814873	0.00284732475405762	-2.05942232457616E-06	-4.76984042078188E-06	9.51293047799929E-07	-5.83966270072392E-07	0.994810761500437	-0.139646590095668
5.9	-0.0054353120686777	0.00287019715170718	-3.89605119824358E-06	6.21327534444503E-07	3.87872790204982E-06	1.25541334532516E-06	0.993904504784193	-0.142639132463872
6	-0.00631939330583894	0.00310764213834978	-5.95891597780042E-06	5.06151924362926E-06	-1.48994183976331E-06	1.96343694778621E-07	0.992027910569837	-0.143374583303141
6.1	-0.00638100803820887	0.00426693578097394	-5.94932103735953E-06	-4.72283634504896E-06	-4.02403668703118E-06	4.30750938988475E-07	0.993324081647299	-0.143529635790018
6.2	-0.00599058278073156	0.0047149762450372	2.8322400823565E-06	3.14141152038737E-06	1.05736209204483E-06	7.26670711898442E-07	0.994077442708258	-0.145604508651863
6.3	-0.00558313398276836	0.00477667076756919	1.64902178840821E-06	-7.51613181761433E-07	-1.33986017268474E-07	1.38199391802628E-06	0.994013896117382	-0.148449682323674
6.4	-0.00556463529826272	0.0044316592133073	-5.20671041908734E-06	-5.6448070835841E-06	3.83223029555075E-06	6.9392937385768E-06	0.993180022463938	-0.151182746328026
6.5	-0.00603092961427716	0.00476192279945232	9.11314511026624E-06	-2.44068987523471E-07	-7.35997147302154E-06	-9.06883912224728E-07	0.99322447366833	-0.153324413849541
6.6	-0.00545987912139319	0.00520134528953089	-1.49664227928358E-06	4.69201369308135E-07	3.39140995029338E-06	-9.43350336059087E-06	0.993841026908406	-0.157249211410454
6.7	-0.0050978575532541	0.00521282868461697	5.28648034971029E-08	7.79264571037047E-06	-5.00563819100595E-07	-6.11799107170142E-06	0.993023062470633	-0.160667845995496
6.8	-0.00484932935829212	0.00520870246501081	4.27096685308335E-06	1.66124551445351E-06	2.10489012320368E-07	-5.2624200539128E-06	0.992092261991091	-0.163625447250307
6.9	-0.00489055376874982	0.00501042326199937	-7.58882567602309E-07	2.50110925716527E-07	5.78476420826819E-06	-2.70148731697659E-06	0.9910217654694	-0.166374370804996
7	-0.005608163167233	0.0056010164843875	8.05261061593668E-06	-4.79334474790594E-06	4.31929327276465E-07	-3.03559050430606E-06	0.989456450165379	-0.167944125660605
7.1	-0.00507055464760358	0.00658446791404043	3.86804416060711E-06	2.04544812037428E-06	7.90905283606307E-07	7.26188693630791E-06	0.989353659381344	-0.169485493039023
7.2	-0.00454268460183301	0.00685949005826464	-2.4521300906473E-06	3.71403723629464E-06	-1.34683403762878E-06	-3.84243798414485E-06	0.988824149264818	-0.171831969285618
7.3	-0.00418723763343909	0.00697117780742055	3.45504380767989E-06	-5.04370250678645E-07	-2.46625541218646E-06	-1.92108534725894E-06	0.987742957805461	-0.174246846490165
7.4	-0.0040904762899518	0.00665730031971184	-6.22936440084818E-06	-2.69476842184206E-06	3.79097273142837E-06	2.36935238672945E-07	0.986776027610814	-0.177676663700904
7.5	-0.00507654425682477	0.00656304694873348	6.75751284485384E-06	-6.49697611674872E-06	-2.48648018647796E-06	8.15236195823218E-07	0.983882768460171	-0.181516084514078
7.6	-0.00518018279167627	0.00757222218320124	3.51744711326585E-06	5.20632060111639E-06	-1.02554301596039E-05	4.98649078300284E-06	0.981936907278863	-0.183262071846844
7.7	-0.00510202311122587	0.00792308769316345	6.09015257584287E-06	1.09465463738513E-05	2.87241212539526E-07	-1.13934723392035E-05	0.981339546851834	-0.186095128809798
7.8	-0.00480437872686336	0.00805683549104407	2.16614300641934E-06	9.77075682099488E-07	-3.07547175290895E-06	8.8580669761362E-06	0.980852846517836	-0.189291189104523
7.9	-0.00461896591559213	0.00792310633619906	2.54661925069776E-06	-2.33155178475462E-06	3.69761133773365E-06	3.24868659832185E-07	0.979954699370145	-0.192793691410429
8	-0.00468133464139187	0.00857398878831893	-2.80884229434351E-06	1.34414503338657E-06	6.87403123967017E-06	-1.89366951807379E-06	0.978054945570575	-0.194466589949863
8.1	-0.00349851456158135	0.0089445950709663	-1.78955659241584E-06	7.63788959068947E-07	-3.7167882081886E-06	-1.23892314846077E-06	0.97894675778308	-0.19620235128532
8.2	-0.002713671557528	0.00868275596415256	-7.66308175350319E-07	6.34209719150941E-06	4.89917818000829E-06	4.33513393288543E-06	0.979077887840324	-0.199151281535064
8.3	-0.00214622602479177	0.00833164248604409	-9.2243889890309E-07	-1.42141228599962E-05	6.85343522514401E-06	5.39632595665949E-06	0.978410979424207	-0.202372410626793
8.4	-0.00197422192930142	0.00777524781758938	3.74432431371286E-06	-3.44530123702546E-06	-6.97618232967517E-06	-1.18752710893273E-06	0.97730192527997	-0.20532114326833
8.5	-0.00264285205567357	0.00794846885529528	4.67856362317244E-06	5.66905697703374E-07	8.38955740312869E-06	-6.87107809701334E-06	0.976400445202509	-0.207927852076815
8.6	-0.00214236464559313	0.00871352368903717	-3.24831488157602E-06	4.13444161806359E-06	1.06577384490774E-06	1.10938698503717E-05	0.975751622198131	-0.210986688025649
8.7	-0.00149927106899018	0.00882506848853869	2.67159948191081E-06	-2.0131562183525E-06	4.75430935073302E-07	-5.56209766000325E-07	0.97477789497555	-0.213834385865243
8.8	-0.000861684098363587	0.00876532812134921	1.15004390168173E-07	-1.25263344309701E-06	-9.17285599373826E-07	9.76462009397467E-06	0.97371293338637	-0.21612721316599
8.9	-0.000323862496677872	0.00823696418362535	-3.64714296886619E-06	2.30887845444805E-06	4.8178073812226E-06	-1.82600037969375E-06	0.97317762562005	-0.218070351034777
9	-0.000539775093249729	0.00793839468965579	-1.88537715948039E-06	5.06104172380044E-07	-3.25674036960252E-06	-1.05074906081431E-05	0.972537872353544	-0.220410104380955
9.1	2.71901495415178E-05	0.0079497384776935	5.24492494041901E-06	5.62330819897398E-07	9.13164902367092E-07	3.76568168477767E-07	0.971725032052105	-0.222401854538527
9.2	0.000447125139652697	0.00743527303269687	-8.72731143776078E-06	-4.52570944296699E-06	-9.09219453729153E-07	-6.1109288576639E-06	0.970951374375455	-0.224777990109337
9.3	0.000627792221161939	0.00688309380078252	2.16638798160075E-07	6.20246523132912E-06	4.61949935696872E-06	-2.21110697671269E-06	0.970397105614799	-0.22721208332955
9.4	0.000460726375183433	0.00615239050873943	-1.89798622738128E-06	5.88327552823826E-06	-1.04501225676918E-05	7.77676489675415E-06	0.969589050613997	-0.230488051175628
9.5	-0.000311434739336268	0.00640105001390436	3.14096512798412E-06	-7.56991458535349E-06	3.66208632909412E-06	-2.75579444185752E-06	0.967749662897403	-0.23355896509381
9.6	-5.78360898321148E-05	0.00679178642698928	4.51617099454444E-06	5.5410138357578E-06	-6.04148894715236E-07	7.0580937995389E-06	0.966416510158297	-0.235858203067908
9.7	4.28895452330304E-05	0.00677945566464311	-2.61714296293015E-06	-3.9159367886001E-06	3.64705770772655E-06	-7.52173883873724E-06	0.96542242612768	-0.238122976032987
9.8	1.85144118959874E-05	0.00676895460592194	-5.43672951777119E-07	-4.20072847182175E-06	6.26310740321676E-06	8.56738993389261E-07	0.964706934285301	-0.240148010239809
9.9	-0.000194682058254407	0.00666954936603235	-2.68268245384033E-06	-5.79102230528399E-07	-8.4484276758293E-06	5.51184646553107E-06	0.96321393432439	-0.242092415577977
10	-0.00102770598992005	0.00725032407261025	4.20048483685935E-07	-1.74515766813707E-06	-3.10088662552402E-06	-7.92244509668138E-06	0.961379500947475	-0.241917616844465
10.1	-0.000583216730617049	0.00830953338409501	2.24944909411018E-06	4.74388897383465E-06	-3.06047180702156E-06	9.81687125097072E-06	0.961905643371178	-0.242435523286768
10.2	0.000103969765770102	0.00863434154677321	-5.38444326261928E-07	-1.04281691598376E-06	-1.21314556001004E-06	-3.10017122750777E-06	0.961593242367302	-0.243721833408994
10.3	0.000732056464921611	0.00861241100866948	1.12487754293913E-05	-2.94519251335941E-06	9.99928908490865E-06	-4.84667588468114E-06	0.960835261449068	-0.245150521606912
10.4	0.00100805645210857	0.00817211940529076	-6.21745096531256E-07	2.13864397314349E-06	3.01277497314964E-06	-2.17999217700487E-06	0.959736147918108	-0.246477285484438
10.5	0.000534146452193645	0.00845955566412245	-6.08211564661886E-06	4.62994557331909E-06	1.56867669137181E-06	4.28787699669438E-06	0.959564427188145	-0.247778690613704
10.6	0.0010951268722969	0.00906703217279732	-7.06288442789791E-06	1.06548607940808E-05	7.00554730382041E-06	4.24363504580544E-06	0.959427369149601	-0.250364232441263
10.7	0.00173914616703437	0.00928318938094424	-3.19980455871475E-06	1.56437772315817E-06	-5.34254979440354E-06	3.16373452408033E-06	0.958780289474741	-0.252896510235416
10.8	0.00244552865176486	0.00927339605105275	-1.91552851623012E-06	4.97186301439857E-06	8.44844557429621E-07	-3.19031922291771E-06	0.958174133492352	-0.254889194461824
10.9	0.00278887267791028	0.00893101215025143	-5.72995085817574E-06	-1.04792149846204E-05	4.91481286094596E-06	1.06575616805126E-05	0.957624371497492	-0.256841621022456
11	0.00260798777311814	0.00929155888514981	2.95377609968371E-06	2.60335172127876E-06	7.82645398745715E-07	-1.11876075126401E-05	0.956733200924938	-0.258547842367692
11.1	0.00361060449587765	0.00981333594867613	3.83952222657183E-06	1.45150592999572E-06	2.55545484815202E-07	-7.33892814362973E-06	0.955686440839238	-0.259973186355193
11.2	0.0046287989912291	0.00960268611956924	-4.39342349458635E-06	-1.96489205500184E-06	-7.28432154479134E-06	-4.83241082610555E-06	0.954579197365354	-0.261313768721534
11.3	0.00556672217580946	0.00894836454562531	6.67108146086328E-07	-6.3483516409574E-06	3.73395415018109E-06	1.40794536704192E-05	0.954046723913399	-0.262685915418271
11.4	0.00601361506028714	0.00791037736107767	-5.10667627441057E-06	8.1009523720319E-06	-1.45816641982821E-06	4.05745145911233E-06	0.953261171693191	-0.264995270368367
11.5	0.0056364076327773	0.00750689932870549	4.49331146500293E-06	8.05843268527688E-06	-9.24473499778815E-06	1.5636978730521E-06	0.951428078132227	-0.267413166371087
11.6	0.00617905412310419	0.00722199500254591	-3.82355230937747E-06	1.38676469851046E-06	5.03715421004362E-06	8.10162929809293E-06	0.950244501844312	-0.269650722383826
11.7	0.00644876987910818	0.00636209623440477	2.21340390726186E-06	1.04781175585522E-05	5.46043985139969E-07	-3.62874306752036E-06	0.949345998298136	-0.27248722916982
11.8	0.00640727367568772	0.00549356667647786	1.41105719048152E-06	4.44172443888666E-06	2.22768704328488E-06	4.51727428157724E-06	0.94847385310399	-0.275459221402669
11.9	0.00591685880586201	0.00460566846469375	7.37667707567895E-06	1.05240938195666E-05	3.85913840832349E-06	4.11971282273697E-07	0.947783160441468	-0.277501010935611
12	0.00477650297061269	0.00486276658051326	2.3574278278178E-06	-5.11293828373398E-06	-4.08096989761382E-07	1.73822490497475E-06	0.947051591856226	-0.277945441440146
