# GHZ S RI R 50
0.2	0.000925373387582804	0.00242345921799189	4.79276310937503E-06	-2.98519103389618E-06	-1.37237503378645E-05	1.31197293666184E-05	0.999562655288309	-0.00700232058765404
0.3	0.00137184351876528	0.00163204111609324	2.86606114048346E-06	6.62529967589366E-06	-1.66421079503682E-06	-9.31960762584711E-06	0.999455640717815	-0.00995802423024699
0.4	0.00166228289022257	0.001074811034014	-1.86297767580074E-06	-4.01521096503957E-06	-9.01390419794513E-06	4.40456883534593E-06	0.999363253010527	-0.0127501861730707
0.5	0.00164227249262172	0.000640433386901994	-5.35762217430082E-06	3.26320645723261E-06	-2.12558038953861E-06	6.75660105655788E-06	0.998792832215417	-0.0157615949774406
0.6	0.00180882761901403	0.00041210941151	-1.39362094316748E-07	2.80568790601918E-06	-5.8145777529036E-07	-1.34040715638209E-07	0.998943840181134	-0.0183846547969275
0.7	0.00184111676782684	8.83440569077932E-05	8.8188411064379E-08	2.21895082948915E-06	4.90274059643609E-06	-3.40196773465568E-06	0.998696913584966	-0.0212899677899913
0.8	0.00186489833005196	-0.000177243686359659	4.528194304863E-06	8.25448450632401E-07	2.74396261817646E-06	2.00009501491149E-06	0.998526088286249	-0.0234051548780266
0.9	0.00185899561006517	-0.000443604199905678	-1.52103050738695E-07	-4.21786339909887E-06	-3.41779478945016E-06	-3.10893802414491E-06	0.998586699451532	-0.0258545381501124
1	0.00167513609433031	-0.000872433205275476	1.05983557523382E-06	4.29095686851259E-06	3.32634233021708E-06	9.33329718288591E-07	0.998257021321521	-0.0278412454921046
1.1	0.0013429079544505	-0.0010049018957329	9.04110574437745E-06	5.18154119551053E-07	-3.57739485309132E-06	-4.99141220393963E-07	0.997665650294622	-0.0298969299198559
1.2	0.00105873082653119	-0.00159902871245578	3.7592848153261E-06	-1.19943935528226E-06	-4.09520141357284E-06	-2.43658974292148E-06	0.996768911295615	-0.0310102963874799
1.3	0.000327943052221359	-0.00249741426182235	-7.61422741097826E-07	-1.42611169916369E-06	-2.58681717900779E-06	-8.70254143371085E-06	0.996516786594683	-0.0317902318678973
1.4	-0.000490109907909843	-0.00335151606546399	1.48619239405472E-08	3.44638847124362E-06	-4.28093878487065E-06	-4.1251317464442E-06	0.99626751548013	-0.0336364638131863
1.5	-0.00107670169054401	-0.00372157797573241	-1.29641059264528E-06	4.42934042500336E-06	6.54888042736961E-06	-7.41431039785779E-06	0.996703680591401	-0.0369758653465899
1.6	-0.00114478257489335	-0.00365257552565868	1.62905240198542E-06	-4.89607658940435E-07	4.23930075321553E-06	-5.39460631223684E-06	0.996399753401761	-0.0400380024460025
1.7	-0.00116346336365962	-0.0036572036428717	5.32560187055917E-07	3.95632864193212E-06	-8.28184412381228E-06	3.13152265142278E-06	0.996932450208015	-0.0424620306399025
1.8	-0.00119480097333624	-0.00355270225908524	1.83235203059734E-06	1.07777246931456E-06	5.6492995456817E-07	-1.76170102627294E-06	0.997125105543271	-0.0452009902830172
1.9	-0.00122638928882165	-0.00360985689089701	3.23676310381992E-06	3.01677259275834E-06	-1.83662071216411E-07	-2.33013278425333E-06	0.997190527793413	-0.0477600249832184
2	-0.00154523532280253	-0.00368466473563506	-1.72630761848767E-07	2.0042660297996E-07	-1.21577347396873E-05	5.4203548484899E-06	0.996033271379037	-0.0508913166532802
2.1	-0.00165000040515279	-0.00356349545806591	6.67542694731774E-07	-1.38190782865611E-06	1.38040600904616E-05	4.96019515237212E-06	0.995558477606788	-0.0523382267127722
2.2	-0.00183728138748573	-0.00366946666122606	1.64350067091476E-06	-1.51678138929754E-06	2.68384236260828E-06	-6.20923047045351E-06	0.995823618725039	-0.0545066138813724
2.3	-0.0022075655603874	-0.00376629134494656	-1.6881704453555E-06	-3.42508722488457E-06	-1.7917787200881E-06	-4.58948099922143E-06	0.995717998807286	-0.0562684923209763
2.4	-0.00261264123897068	-0.00384019304161923	-1.20432247206902E-06	-4.39826052307544E-06	3.0451592818777E-06	1.08494766753733E-06	0.995911648994988	-0.0594700186065753
2.5	-0.00327299240365611	-0.0039476315528855	5.38062097617767E-06	5.66539004218356E-06	-2.60444501237566E-06	1.61399694729369E-05	0.995409155378973	-0.0620370502565871
2.6	-0.0038707751690413	-0.00356790653155104	-2.27562618787707E-06	2.71118435743064E-06	4.33144751260173E-07	-4.31016352548231E-06	0.995179011843077	-0.0648796545161411
2.7	-0.00414368666968288	-0.00317388877075341	-2.40641968240326E-06	-3.63495794162071E-06	2.15348614983065E-06	-2.57008552940585E-06	0.99454344258221	-0.0677633378098227
2.8	-0.00418835131819761	-0.00277419167018416	4.00056047753861E-06	2.31031526960889E-06	9.82706900596114E-06	-6.88460429575243E-07	0.994591537858669	-0.0694604392297958
2.9	-0.00397169047775322	-0.00257219562708513	1.28738591631894E-05	7.10777382366438E-07	2.43988332846191E-06	-1.17098406855372E-05	0.994476191440145	-0.0713018303476855
3	-0.00390928702012179	-0.00256458658145843	-3.85293564472142E-06	1.0453390380448E-06	-4.14407270442018E-06	-1.59930186781589E-06	0.994398496738694	-0.0737946089690232
3.1	-0.0036641422519989	-0.00246986911290011	4.78072091072491E-06	-9.84065025350448E-06	1.06805614488123E-05	2.41199409822424E-06	0.994082781512818	-0.0755814566247288
3.2	-0.00358410346428579	-0.00266403836094825	-5.36706633316242E-06	-7.40882233447484E-06	1.56316194632379E-05	5.38982642851727E-06	0.993970520629341	-0.0771916309890164
3.3	-0.00367458272395107	-0.00285644293381042	-8.79195937285563E-06	2.54067768772175E-06	-8.56317246020454E-06	-1.74404619362487E-06	0.993969533781341	-0.0802778674218172
3.4	-0.00389694946501421	-0.00304610326194133	9.06450477190451E-06	-7.55552929103661E-06	-7.34778198617E-06	4.22995503085986E-06	0.994314401281673	-0.0822155334941372
3.5	-0.00440995592429236	-0.00323295878130475	3.20532977196311E-07	-5.32299121151022E-06	-4.39696811779429E-06	-8.93353496415324E-06	0.99423569560075	-0.0855861709346071
3.6	-0.00477364110322603	-0.0029900410286398	4.07041891473888E-06	4.9002963363376E-06	-7.10882360715197E-06	8.99002312290144E-06	0.993502489614916	-0.0878775274316209
3.7	-0.00506984313878712	-0.00287833252398946	1.52963705587016E-06	-4.52478500957312E-06	-5.09867969438546E-06	-6.58680388509066E-06	0.99364746054813	-0.0902493381023169
3.8	-0.00537398663920818	-0.00267866525531712	7.28073348042411E-06	-5.190522114062E-06	-5.87706493733285E-06	-2.4214346228884E-06	0.993792281075557	-0.0923505652849579
3.9	-0.00554172974334156	-0.00246165586297082	-4.02941442096211E-06	-3.52468770544392E-07	-2.53127334363929E-06	1.131518656588E-06	0.994213689913166	-0.0960874665009976
4	-0.00589403364729825	-0.00227893911871102	-3.38330674207901E-06	-8.32990022924434E-08	1.20108270913778E-06	8.66804780676738E-06	0.99308168065976	-0.0984680122106611
4.1	-0.0059280671295034	-0.00172020949530581	-2.89670439267717E-06	-3.86235415277771E-06	5.87543546239253E-06	3.04193764994682E-06	0.992414786691393	-0.0994745098584143
4.2	-0.00581030561665483	-0.00148000959624499	-7.71649212753381E-07	-2.15769863684742E-06	5.70142045564448E-06	-1.83945549679792E-06	0.992117215231889	-0.101871613205546
4.3	-0.00573427680193619	-0.00130841724132186	-5.12976632438169E-07	3.23469769528859E-06	2.12843834391313E-06	1.78141695890575E-06	0.992111605457698	-0.103850971284988
4.4	-0.00572704654374412	-0.0012379667900112	2.57392359524836E-06	3.44251835533661E-06	7.17832607071707E-06	3.91476982515279E-06	0.991784802907234	-0.106340609346609
4.5	-0.00601517848916219	-0.00119704693084245	-6.46910930828779E-06	-2.36231002250678E-07	-8.57442509214867E-06	-2.12051561865186E-06	0.991362022395924	-0.108339298025484
4.6	-0.00622836552043879	-0.000778711424127409	-9.93543983361524E-06	-9.23514720179455E-06	3.2383895552213E-06	-2.72733841676958E-06	0.99132622918453	-0.110924386482082
4.7	-0.00627630186652538	-0.000518263965324881	1.24653140165248E-07	1.86532165160879E-06	6.06624781522824E-06	-6.72963298200525E-06	0.991352616198517	-0.113013263396378
4.8	-0.00636228554184943	-0.000210056058698585	-6.39567048764192E-06	2.0750234275164E-06	7.92641649130744E-07	-1.27472928454407E-05	0.991086210560377	-0.115479873151748
4.9	-0.00624738897523631	6.53248112473713E-05	-3.43164636847812E-06	8.13985647330176E-06	5.56842968939904E-07	9.37643129704625E-06	0.990930125854627	-0.11729955029322
5	-0.00621619932539077	0.000185140869440321	9.65059299065849E-06	-4.05417737543574E-06	-6.94198605847373E-06	3.57250709317172E-06	0.991056685219183	-0.11913908007856
5.1	-0.00580401728835227	0.000464409541184652	-3.65199458211657E-07	-3.25404915187428E-06	-3.87558317746886E-06	-1.7954952615054E-06	0.991123108703189	-0.120717872726905
5.2	-0.00543002456876865	0.000295854226774035	-1.06588600696375E-06	-4.48915558914366E-06	8.78784178504572E-06	5.58317866093188E-06	0.991116071354491	-0.12312579802346
5.3	-0.0053026022997902	0.000100548496471739	2.28404956494915E-06	6.7964373721313E-06	8.79591329094061E-06	3.13879209355522E-06	0.991019505548721	-0.125763633121895
5.4	-0.00529966510692654	-3.21997246241176E-05	2.709963806545E-06	-3.14144863881824E-06	-2.6761361198242E-06	1.51823624773025E-07	0.991093511515324	-0.128883655654616
5.5	-0.00572433073548745	1.98959357625217E-05	2.1070801856792E-06	9.330560876587E-06	-3.92508284824526E-06	-5.0416223485464E-06	0.990619090684401	-0.132442297363388
5.6	-0.00567472145001702	0.000545692076114012	-5.86051587851453E-06	-1.13396508123797E-06	4.87671683937569E-06	1.94506296446785E-06	0.989724127455939	-0.134634674227536
5.7	-0.00570098416045536	0.00072459866894604	3.33951885830863E-06	-1.42394868402266E-06	-5.05173979912293E-06	-4.29620988712056E-06	0.989722247052396	-0.136802722730402
5.8	-0.00584928985961085	0.00104334186769457	-2.05619351147925E-06	-4.75112796997887E-06	9.47412567144255E-07	-5.82706806900291E-07	0.990064431798089	-0.139086059421752
5.9	-0.0058856998563156	0.00148712574672012	-3.88373478141847E-06	6.21946006965167E-07	3.86767767815649E-06	1.24906669048249E-06	0.990433133768248	-0.142207345597603
6	-0.00619928359152098	0.00171057866110931	-5.93437996833414E-06	5.0547430293304E-06	-1.48527293731824E-06	1.97806726871939E-07	0.988749192809834	-0.145250589950909
6.1	-0.00628072429630026	0.00256744445297781	-5.93293740035538E-06	-4.69967130313725E-06	-4.00915769974775E-06	4.33421612490982E-07	0.98798802894525	-0.145604232509088
6.2	-0.00598983963136677	0.00294086294021082	2.82412902175126E-06	3.12849056243366E-06	1.05405681374027E-06	7.23431946169923E-07	0.987884362883439	-0.146930009920339
6.3	-0.00564993596925831	0.00307807991329132	1.64301231999435E-06	-7.49771079539604E-07	-1.32902821972564E-07	1.37730160833274E-06	0.987496610020665	-0.148940915348877
6.4	-0.00536682358493329	0.00284654234048724	-5.19218497123827E-06	-5.62142523455749E-06	3.82341618565217E-06	6.91228109225001E-06	0.986824644542163	-0.151285984614704
6.5	-0.00553640280677583	0.00259733202014359	9.07224475334117E-06	-2.47668702126888E-07	-7.32750784281935E-06	-8.99037110456057E-07	0.985948554748011	-0.153157390803376
6.6	-0.00531315167707551	0.00269367788742168	-1.49018169977324E-06	4.6667146166342E-07	3.37933921768532E-06	-9.39083301189449E-06	0.98682430077395	-0.155394097968935
6.7	-0.00532160776810856	0.0026296130880501	4.84063676366068E-08	7.75955629846437E-06	-4.95112542272435E-07	-6.09226204680129E-06	0.986856934250818	-0.158187340360713
6.8	-0.00536072339574397	0.00288901671030742	4.251646652031E-06	1.65761147765285E-06	2.13754770527614E-07	-5.24006425837536E-06	0.986619275585091	-0.160699942912039
6.9	-0.00518257862659023	0.00313485828577296	-7.5601246665514E-07	2.48128156529495E-07	5.76386589247653E-06	-2.68304375696012E-06	0.986556529217708	-0.163206089885672
7	-0.00541890996605982	0.00334520935185338	8.03091541018304E-06	-4.76128777557184E-06	4.35642640291235E-07	-3.02348222012523E-06	0.985392794101104	-0.165619687843334
7.1	-0.00513951487545961	0.00406882023891701	3.85169059864396E-06	2.04497940534774E-06	7.76252593983216E-07	7.23883727418195E-06	0.98467194122202	-0.166704990927757
7.2	-0.00487438159079172	0.00425940874580279	-2.44980630394743E-06	3.69711995538065E-06	-1.33580094238842E-06	-3.83137757455477E-06	0.984328284942229	-0.168152327716516
7.3	-0.00490252123000384	0.00452821394464642	3.44308966750355E-06	-4.95879416056813E-07	-2.45336159238092E-06	-1.91861718294726E-06	0.983730073637587	-0.169571623746512
7.4	-0.00493910136486945	0.00484283996032675	-6.19694223280994E-06	-2.70041373530721E-06	3.77497371464231E-06	2.46058628624283E-07	0.983992829535458	-0.171605705195346
7.5	-0.00532845320531829	0.00498822986860357	6.75741400036889E-06	-6.45265084450184E-06	-2.48108551574278E-06	8.04101115873118E-07	0.983897978185467	-0.175942398908407
7.6	-0.00532307545513899	0.0058966209631249	3.48978384301915E-06	5.20091562287404E-06	-1.02386332528492E-05	4.93817098132405E-06	0.982192837273273	-0.179074433744233
7.7	-0.00498504511267092	0.00621806767293678	6.03210268211742E-06	1.09341235540541E-05	3.2699048521961E-07	-1.13569044120321E-05	0.981936602516156	-0.182243941649372
7.8	-0.00447744794674276	0.00619978839766402	2.15650882302563E-06	9.83138612654045E-07	-3.10270024095927E-06	8.82234342527661E-06	0.981892249136899	-0.185949060321916
7.9	-0.00389558398371389	0.00586525371005005	2.55236590778914E-06	-2.31651379155379E-06	3.68986675955836E-06	3.40345915756169E-07	0.981575629762587	-0.190366017484198
8	-0.00394360344984116	0.00553692029271578	-2.81049634428005E-06	1.3330745003378E-06	6.8732827808258E-06	-1.86805009152633E-06	0.978523208018185	-0.194304773703214
8.1	-0.00327347238101599	0.00566372163954747	-1.78985351978928E-06	7.55957550482724E-07	-3.70677699425607E-06	-1.25112119949207E-06	0.977391434043597	-0.194761318560538
8.2	-0.00292476265404214	0.00535134006254662	-7.91596434798722E-07	6.33235073221349E-06	4.87625349442082E-06	4.35077652768596E-06	0.977505936293188	-0.196572990067313
8.3	-0.00273549710181326	0.00523412720558757	-8.63839517594545E-07	-1.42090971388742E-05	6.82716593390269E-06	5.42096728149764E-06	0.97711474210619	-0.199154376892729
8.4	-0.0024870944980072	0.0051651063918659	3.75463750830942E-06	-3.42907498909256E-06	-6.96710734748707E-06	-1.2126794213552E-06	0.976347146381318	-0.201769394618116
8.5	-0.00276952855535514	0.00503255730177048	4.66988663479201E-06	5.86958228571917E-07	8.40906245098457E-06	-6.82474024242568E-06	0.975452166108891	-0.203974988222457
8.6	-0.00256906524745739	0.00564987659772722	-3.26834489994493E-06	4.11597195568915E-06	1.00803002911893E-06	1.10948415741588E-05	0.975490588431125	-0.206354837020815
8.7	-0.0021968075204884	0.00574221312967594	2.682717820576E-06	-1.99998335394874E-06	4.78428029039454E-07	-5.53921894225594E-07	0.975324410888393	-0.209099775003585
8.8	-0.00193335784393602	0.00591331810316111	1.2141130079989E-07	-1.25307723466509E-06	-9.67246208241602E-07	9.76797476935775E-06	0.974931034783719	-0.211458030447117
8.9	-0.00142128654411826	0.00600311463223637	-3.66268910213337E-06	2.29323572855104E-06	4.83223789340894E-06	-1.80398460067964E-06	0.974937912384876	-0.213504550650247
9	-0.00115421551357062	0.00576200977766195	-1.89134689256437E-06	4.96579848895272E-07	-3.20439635723982E-06	-1.05431617943876E-05	0.9748164583842	-0.215917650779499
9.1	-0.000476639183008424	0.00576840223071116	5.25493696725072E-06	5.90637239839824E-07	9.13477590114905E-07	3.82181748503783E-07	0.974408561493927	-0.218073196328837
9.2	9.55860501180204E-05	0.00513242832386945	-8.72657901236683E-06	-4.58046830769287E-06	-8.81064281205651E-07	-6.13072122509174E-06	0.973801705567992	-0.220538145050536
9.3	0.000265774243502358	0.0045467858892067	1.85509872234856E-07	6.21938935036037E-06	4.64257407753915E-06	-2.19314993989201E-06	0.973362432914363	-0.222731212646278
9.4	0.000398201957087133	0.00401060350290834	-1.93466593508211E-06	5.88939368782295E-06	-1.05205540370833E-05	7.74242178355309E-06	0.973182651710366	-0.225427723882659
9.5	-1.65500042561945E-05	0.00376832052509841	3.19160191454139E-06	-7.58121859343238E-06	3.68969284806956E-06	-2.74686783536479E-06	0.972531050365528	-0.229061265679927
9.6	0.000122618526648692	0.00390854927200787	4.50799192798841E-06	5.5801798552475E-06	-6.36969924299459E-07	7.08034075493549E-06	0.971334887192627	-0.231777836124038
9.7	7.1142581608091E-05	0.00369030481220678	-2.60933719264351E-06	-3.94071960496881E-06	3.69200956510027E-06	-7.53202918494556E-06	0.970951538195101	-0.234155429818104
9.8	-0.000199562445714833	0.00372369173756774	-5.27489090040112E-07	-4.21920364021622E-06	6.28340186590786E-06	8.87263034598843E-07	0.971109469706613	-0.236502521182755
9.9	-0.000309349434861198	0.00395270758608313	-2.69339306662058E-06	-5.92688283814692E-07	-8.51161328392361E-06	5.50470637301395E-06	0.970796209381887	-0.23949302532996
10	-0.000799136215479582	0.00410413747612577	4.26288021288923E-07	-1.75262652153653E-06	-3.09689307703977E-06	-7.96839920347653E-06	0.967968729624974	-0.241354987353595
10.1	-0.000684608124718696	0.00494795996434489	2.24679413035554E-06	4.77040524019368E-06	-3.09950347409329E-06	9.85152247984695E-06	0.967966269979623	-0.240808765569539
10.2	-0.000344181309768437	0.00527803820442076	-5.3842276600636E-07	-1.04914248184424E-06	-1.21122855791532E-06	-3.1180116495945E-06	0.968487292352444	-0.242322527118304
10.3	5.11917763912996E-06	0.00563667386145898	1.13117166699785E-05	-2.93928314804508E-06	1.00593901201194E-05	-4.85280608341647E-06	0.968176636197586	-0.244664952025142
10.4	0.000644001838436389	0.00577380656703925	-6.26434668239533E-07	2.14852114752141E-06	3.02908463320833E-06	-2.18819550149708E-06	0.966930349342498	-0.247516218444174
10.5	0.000758212742861316	0.00560343209326307	-6.10786749747748E-06	4.64171929162756E-06	1.57085054868802E-06	4.30465018085982E-06	0.965017823723042	-0.249732724301974
10.6	0.00136569774851576	0.00588381979419927	-7.10222308422164E-06	1.06917881401749E-05	7.03021471478097E-06	4.26785609501148E-06	0.964505414685613	-0.251865048747057
10.7	0.00172940806596281	0.00583313408045158	-3.21358537919122E-06	1.56934241110471E-06	-5.36580564175055E-06	3.17427954837852E-06	0.963169699708494	-0.254330908664107
10.8	0.00218027619881769	0.00602295350738185	-1.92380541937138E-06	4.99096347851174E-06	8.4865545672279E-07	-3.20263729481755E-06	0.962289598664998	-0.25554735221206
10.9	0.00287788848700573	0.00601598956716554	-5.75044481270968E-06	-1.051934605039E-05	4.93221364119959E-06	1.06982785641542E-05	0.962097466120245	-0.256831326205961
11	0.00312391083711595	0.00573910731535127	2.96549898100144E-06	2.61610159269635E-06	7.91223160452748E-07	-1.12361905102171E-05	0.961742610270993	-0.257725105994433
11.1	0.00385840740326054	0.00587022504532223	3.85920272554049E-06	1.45720532414215E-06	2.5390589910896E-07	-7.37554661783121E-06	0.962231591030351	-0.258547965788276
11.2	0.00447264483474009	0.00537040464429229	-4.41642181686174E-06	-1.96978745507086E-06	-7.32406276450721E-06	-4.84805006573108E-06	0.962520641897837	-0.260324509176098
11.3	0.00483783722756513	0.00488261190839807	6.6210806800557E-07	-6.3768298975516E-06	3.76774844590999E-06	1.41361209444477E-05	0.96281841009285	-0.262402746103843
11.4	0.0051349504601879	0.00436113448118415	-5.11985571460967E-06	8.13976880620931E-06	-1.46019008804866E-06	4.0757964872219E-06	0.962982713158361	-0.265547374820111
11.5	0.0047985419419362	0.00381966928620497	4.52856000778571E-06	8.0932487813137E-06	-9.29005955121798E-06	1.58561875573623E-06	0.961556492688096	-0.270165808963558
11.6	0.00505033832307748	0.00385087372404208	-3.83744863600188E-06	1.40286453461022E-06	5.08084138414726E-06	8.12570883270343E-06	0.959453759176421	-0.272952085247463
11.7	0.00529615524446146	0.00341614151221269	2.25017668577981E-06	1.05169066049481E-05	5.3889197986031E-07	-3.6456034733117E-06	0.958931534537444	-0.27636896100069
11.8	0.00552130907052767	0.00309003757434072	1.42878577669103E-06	4.4582456612305E-06	2.24930804849387E-06	4.53205359229283E-06	0.958441435058615	-0.280608874266475
11.9	0.00586942138370822	0.00255652748777779	7.44906370370213E-06	1.05626678074203E-05	3.88228963218441E-06	4.03164867007951E-07	0.957592441165212	-0.284848685488959
12	0.00533578875893641	0.00195845186153195	2.34582221367557E-06	-5.15316320495671E-06	-4.01938918930677E-07	1.749987020171E-06	0.953115150592176	-0.287314692829767
