# GHZ S RI R 50
0.2	0.00100127097485344	0.00231170417186492	4.79356781407898E-06	-2.9848262197169E-06	-1.37266497560902E-05	1.31190816341907E-05	0.999680821914685	-0.00702420642241326
0.3	0.00149997456144135	0.00157257111772846	2.86622621147022E-06	6.62579063626697E-06	-1.66427372349088E-06	-9.32028400308511E-06	0.999609117016123	-0.010048555339623
0.4	0.00177212319436405	0.00101595947356443	-1.86327343684254E-06	-4.0155235699734E-06	-9.01459911077306E-06	4.40525329366976E-06	0.999529805377552	-0.0128655316358518
0.5	0.00178130508230298	0.000648306993285023	-5.35799308131158E-06	3.26466717788016E-06	-2.12480932318629E-06	6.75811797922911E-06	0.999128035108837	-0.0159472227253011
0.6	0.00194722319422823	0.000318824498087202	-1.38745420646055E-07	2.80582881388685E-06	-5.81510295509074E-07	-1.33917037720021E-07	0.999186393484947	-0.0188074517446848
0.7	0.00188389486636444	1.00166218327164E-05	8.85680561392786E-08	2.21904989909986E-06	4.90241732398365E-06	-3.40297129085027E-06	0.998829768140649	-0.0217177870853388
0.8	0.00186570725263219	-0.000211857466887023	4.5287429914045E-06	8.24771865033044E-07	2.7445440731922E-06	1.99982138232324E-06	0.998603371320829	-0.0238318279045272
0.9	0.00181128153244193	-0.000455897299698291	-1.52811584227938E-07	-4.21833749006913E-06	-3.4187081188008E-06	-3.10874627245111E-06	0.998556492677198	-0.0262597314942644
1	0.00159158694635961	-0.000754182222685873	1.06087598162904E-06	4.29150619582372E-06	3.327116907187E-06	9.3283399665534E-07	0.998191243649528	-0.0280400126251982
1.1	0.00136470868501998	-0.000956254944243982	9.04204272114205E-06	5.15760593899997E-07	-3.57784494747928E-06	-4.98220080747064E-07	0.997698357696259	-0.0301510893500855
1.2	0.000980188465773925	-0.00161559191912579	3.7590359657517E-06	-1.2004697098104E-06	-4.0959332381151E-06	-2.43553952334197E-06	0.996711598184034	-0.031318023934013
1.3	0.000224432503604565	-0.00250874339644342	-7.61954433775449E-07	-1.42580427297258E-06	-2.59008818329847E-06	-8.70144743533873E-06	0.996483537185272	-0.0322308462457373
1.4	-0.000572176816449256	-0.00340633582482784	1.69071669831932E-08	3.44611540054522E-06	-4.28305995508627E-06	-4.1222735404303E-06	0.996231745472076	-0.0344041347192126
1.5	-0.0010970370339972	-0.00376293375655157	-1.29323111053941E-06	4.42947098396162E-06	6.54282976576438E-06	-7.41745892786823E-06	0.996694444194227	-0.0378662568904343
1.6	-0.00124468482592817	-0.00374346664420088	1.62851251679196E-06	-4.9052925440734E-07	4.23538143699126E-06	-5.39639470133287E-06	0.996312960373987	-0.0410657140641583
1.7	-0.00131321157912568	-0.003608377209078	5.34753267074537E-07	3.95568664271608E-06	-8.27935894042442E-06	3.1359398329286E-06	0.996768325858668	-0.0433640604753449
1.8	-0.00132683352186654	-0.00339839894376508	1.83282284794231E-06	1.07670150743041E-06	5.63930691366721E-07	-1.76189611951555E-06	0.996931921044343	-0.0459646763401746
1.9	-0.00134946237049213	-0.00334583044204579	3.23777952916845E-06	3.01484584183534E-06	-1.84745626160548E-07	-2.32974526628524E-06	0.9969064441889	-0.0482816196172243
2	-0.00150360716395672	-0.00328131121421697	-1.72583507131788E-07	2.00472982181298E-07	-1.21565785795166E-05	5.42347974915176E-06	0.99613044492894	-0.050975529880849
2.1	-0.00152039871922283	-0.00329484685857597	6.66957741828246E-07	-1.38240515951443E-06	1.38082010549872E-05	4.95413676170929E-06	0.995934209829822	-0.0528561369353797
2.2	-0.00173233612589462	-0.00342287784713598	1.64265309211096E-06	-1.51757919347953E-06	2.68052052417232E-06	-6.21039680481416E-06	0.996000319392964	-0.0551571051805477
2.3	-0.00211015933818372	-0.00354137128906834	-1.68953584961515E-06	-3.42390405281451E-06	-1.79366466961951E-06	-4.58811086076861E-06	0.995745492585127	-0.0569198959620196
2.4	-0.00258059790873456	-0.00362750005232383	-1.20593907598662E-06	-4.39722261668547E-06	3.04521208085328E-06	1.08358683330031E-06	0.995779749196731	-0.0600518097499428
2.5	-0.0032325575515849	-0.00359288045456382	5.38252481284604E-06	5.66194062617871E-06	-2.59628974544996E-06	1.61387630901192E-05	0.995255568651758	-0.0624242898291105
2.6	-0.00372754467242205	-0.00327688426912461	-2.27385522367821E-06	2.71111493567125E-06	4.31401509022275E-07	-4.30887290767784E-06	0.995063337895265	-0.0651799469229925
2.7	-0.00399180865996683	-0.00291586020454813	-2.4063300636258E-06	-3.63332951715853E-06	2.15230504000351E-06	-2.56966298344643E-06	0.994529960639444	-0.0679486422660812
2.8	-0.0040411269662065	-0.00256941432393554	3.99970395852483E-06	2.3093601368246E-06	9.82441573167721E-06	-6.89126980229635E-07	0.99467008988252	-0.0696463917879074
2.9	-0.0038903354017805	-0.00236913173917807	1.28711410168475E-05	7.09979516264131E-07	2.43877398904012E-06	-1.1707458272263E-05	0.994536103384534	-0.0714711968320056
3	-0.00376332455249311	-0.00229420171421635	-3.85168446701326E-06	1.04526007995116E-06	-4.14289850503475E-06	-1.59854887335483E-06	0.994486997350805	-0.0738726606176866
3.1	-0.00354035465466541	-0.00231902629884454	4.78008540287797E-06	-9.83730207941961E-06	1.06771537604932E-05	2.41213919536486E-06	0.994238593948707	-0.0757219323457998
3.2	-0.00354283656615864	-0.00249604188955155	-5.36548449147426E-06	-7.40722376364705E-06	1.56276196641651E-05	5.38910344467288E-06	0.994077971107596	-0.077453541847935
3.3	-0.00367838170252213	-0.00266947887880476	-8.78947480797846E-06	2.54050050905782E-06	-8.56099204185105E-06	-1.74309581108106E-06	0.993945388920369	-0.0806607437671472
3.4	-0.0039783802998562	-0.0028161658625835	9.0596571805037E-06	-7.55443986064535E-06	-7.34421644853212E-06	4.22978177632283E-06	0.994031233572664	-0.0826705653947087
3.5	-0.00443088796935204	-0.00288547151645867	3.19840618293283E-07	-5.31938250988947E-06	-4.39475806591933E-06	-8.92703967865625E-06	0.993747577608715	-0.0857488775380168
3.6	-0.0048183565624222	-0.00276807770303681	4.06764096247122E-06	4.89825743628022E-06	-7.10626974546662E-06	8.98437398609122E-06	0.993196767085808	-0.0880573853542797
3.7	-0.00524514856845345	-0.00260996740171002	1.52927570138975E-06	-4.52259002123934E-06	-5.09583912509448E-06	-6.58416169361298E-06	0.993172490235416	-0.0905114772691727
3.8	-0.00562856816687491	-0.00231116946739936	7.27752758760074E-06	-5.1873331786424E-06	-5.87393320724093E-06	-2.42070988908962E-06	0.99306613714094	-0.0924802434955886
3.9	-0.00585725704832373	-0.00192470675116684	-4.02697313822692E-06	-3.53211516966829E-07	-2.53005838556654E-06	1.1302602390043E-06	0.993237157453841	-0.0957532028403295
4	-0.00601937374109907	-0.00150552654349808	-3.38231343876974E-06	-8.51140124484202E-08	1.19603628653083E-06	8.6662715382372E-06	0.992682600364648	-0.0973906036116419
4.1	-0.00591013144415988	-0.0010606640512833	-2.89546086242878E-06	-3.86268050642627E-06	5.87409500984221E-06	3.04308102888401E-06	0.992489174822959	-0.0988043594046607
4.2	-0.00578088995936004	-0.000827371691238846	-7.71069841071722E-07	-2.15749696731573E-06	5.70084598550707E-06	-1.83795810777102E-06	0.992183136267799	-0.101298273422694
4.3	-0.00567444405539306	-0.000652079279725596	-5.13570445893054E-07	3.23418699828966E-06	2.12780848087307E-06	1.78162632500919E-06	0.992242199994713	-0.103309807921282
4.4	-0.00567833675955665	-0.000550592356175817	2.57347883838379E-06	3.44281595120779E-06	7.17779262242505E-06	3.91563679918894E-06	0.991996182635073	-0.105836547918085
4.5	-0.00579401786388356	-0.000370323851177727	-6.46907065834153E-06	-2.34375476740812E-07	-8.57489119521428E-06	-2.11802653870178E-06	0.99176460885946	-0.108032734476648
4.6	-0.0058699035660846	-0.00015456327780218	-9.93343591776175E-06	-9.22815472094096E-06	3.23614715421595E-06	-2.72698313474262E-06	0.991551473305466	-0.110832195759834
4.7	-0.0059266115795842	3.89168582060195E-06	1.24716907122417E-07	1.8642697322108E-06	6.0623743369984E-06	-6.72630413834704E-06	0.991511551342655	-0.112919087968791
4.8	-0.00602722308322469	0.00019579043968749	-6.39238736388934E-06	2.0734697497114E-06	7.93097886481416E-07	-1.27404086332001E-05	0.991226641806255	-0.115458706791433
4.9	-0.00602102867755328	0.000398035286788263	-3.43098820648934E-06	8.13579844599115E-06	5.55561571002696E-07	9.37225198470605E-06	0.990962953792429	-0.117341262316151
5	-0.00595145538734527	0.00055155483126015	9.64476951933651E-06	-4.05120723741647E-06	-6.93782731486674E-06	3.56996188533014E-06	0.990955537862866	-0.119115416208613
5.1	-0.00566838302994758	0.000639417853123367	-3.638257591163E-07	-3.25205301836103E-06	-3.87242754737664E-06	-1.79567577581218E-06	0.990944066531674	-0.120655107698813
5.2	-0.00548016292300625	0.000553200879383899	-1.06344876899458E-06	-4.48738264912477E-06	8.78111015460648E-06	5.58414638637011E-06	0.990826439750311	-0.12296643595113
5.3	-0.00540472689765357	0.000481252575123786	2.28055192635747E-06	6.7948630258992E-06	8.7914838354474E-06	3.14110305198096E-06	0.990722338874239	-0.125470013399801
5.4	-0.00541931646121157	0.000456197951230114	2.70980479387258E-06	-3.13985161191751E-06	-2.67532287398779E-06	1.51180356703837E-07	0.990796954392567	-0.128541585912165
5.5	-0.00563150540704832	0.000580272640588892	2.10254127251608E-06	9.32554539725028E-06	-3.92091387254267E-06	-5.03988023366445E-06	0.990393348222948	-0.131793220173244
5.6	-0.0057296511056848	0.000805230810696998	-5.85826285573212E-06	-1.1376369602143E-06	4.87416540955709E-06	1.94786436883984E-06	0.989840056502419	-0.134141797165737
5.7	-0.00605467293813865	0.00108301866223022	3.34037279752519E-06	-1.42192250162273E-06	-5.04912499694013E-06	-4.29925856103786E-06	0.989702972666568	-0.13641630328994
5.8	-0.00640552817229875	0.00161339216140705	-2.05361306755375E-06	-4.75290688304538E-06	9.47869858357489E-07	-5.82212515979466E-07	0.989827566665049	-0.138518086802819
5.9	-0.00663706786945633	0.00242551199180157	-3.88521346115241E-06	6.1900429377123E-07	3.86765931730125E-06	1.25246886636303E-06	0.990020274293276	-0.140940726009835
6	-0.0066907132473508	0.00336409793732471	-5.94560001596792E-06	5.05491814792026E-06	-1.48710324966288E-06	1.96665536328647E-07	0.989549016587035	-0.142949418792554
6.1	-0.00614430573812171	0.00431079880748852	-5.94060928413809E-06	-4.70638243906959E-06	-4.01457892219909E-06	4.33741373351633E-07	0.989830636485338	-0.144032442010704
6.2	-0.00533048877794961	0.0045394605898268	2.8281551062181E-06	3.13117199260324E-06	1.05543386730782E-06	7.23938608197981E-07	0.990141122517014	-0.145902934985438
6.3	-0.00469109400868574	0.00418969405635474	1.64414832476557E-06	-7.51090713946184E-07	-1.32463299216274E-07	1.37856121290718E-06	0.989882267981493	-0.148609657819742
6.4	-0.0045565041249866	0.00353830052297887	-5.19796898732902E-06	-5.62449738274499E-06	3.82845968479557E-06	6.91678308783316E-06	0.989005932467695	-0.151343371842387
6.5	-0.00477321216697277	0.00312381118188904	9.0797905526906E-06	-2.53932172784054E-07	-7.33433576330142E-06	-8.94912374489039E-07	0.988126408607519	-0.153879685349176
6.6	-0.00492445333642211	0.00298774266476117	-1.4902476264395E-06	4.6750655018425E-07	3.37534139545602E-06	-9.39439420420312E-06	0.987923009857366	-0.156333248421544
6.7	-0.00511817218510499	0.00308506677641556	4.90690888249829E-08	7.76078187601668E-06	-4.9570530290731E-07	-6.09318569658997E-06	0.987580797909162	-0.158649636502091
6.8	-0.0051924198101161	0.00338035776926441	4.25255481158757E-06	1.65861993922022E-06	2.14511670417979E-07	-5.24142794120655E-06	0.987259844921624	-0.160914453644296
6.9	-0.00515626158550504	0.00368430562631169	-7.56364502313944E-07	2.48070290044181E-07	5.76671367710169E-06	-2.68291727355954E-06	0.987055322629627	-0.163175591060846
7	-0.00516107424038376	0.00407049324048041	8.03480982645599E-06	-4.76202600651331E-06	4.36254049776522E-07	-3.02462595121623E-06	0.98624760525009	-0.165282997226051
7.1	-0.00499269076408504	0.0044165423231832	3.8527669505411E-06	2.04665120101416E-06	7.74948157853758E-07	7.24188965267162E-06	0.985580414368338	-0.166854418789806
7.2	-0.00500742905442142	0.00464758504079916	-2.45164192396907E-06	3.69854664210751E-06	-1.33582342503499E-06	-3.83350439772816E-06	0.984932306963282	-0.168536128676604
7.3	-0.00521450413645207	0.00499774643570084	3.44487803078184E-06	-4.96350269176803E-07	-2.45477376588918E-06	-1.91948160402571E-06	0.98391976232613	-0.170222734337569
7.4	-0.00553767284585872	0.00545835557699156	-6.19971580212079E-06	-2.6982368282475E-06	3.77602097481379E-06	2.44386297066145E-07	0.983203384608539	-0.17243901194391
7.5	-0.00588973862480012	0.00618883398387281	6.75353927504291E-06	-6.44971080936871E-06	-2.47975491559864E-06	8.03831152906011E-07	0.982182615649729	-0.175363287759757
7.6	-0.00558239753235469	0.00710499908329586	3.48752795279904E-06	5.20162257000216E-06	-1.02393256581156E-05	4.9339366208816E-06	0.981264452915114	-0.177944577521928
7.7	-0.00508304748024868	0.00754074929041255	6.02796403935898E-06	1.09362428681389E-05	3.31213402940958E-07	-1.13566522178207E-05	0.981273839394569	-0.180850114091193
7.8	-0.0043641061207012	0.0074526098581076	2.15605604294051E-06	9.84282436560899E-07	-3.10735541776864E-06	8.82096766460747E-06	0.981575711020567	-0.184344870628664
7.9	-0.00375491121568274	0.00704212744103561	2.55423329869901E-06	-2.31448592132362E-06	3.68961589594131E-06	3.43298862575121E-07	0.981555787940506	-0.188366786239261
8	-0.00340180410145081	0.00673615564226383	-2.81464490778914E-06	1.33009065142167E-06	6.88142624719374E-06	-1.8596476752269E-06	0.98009031687274	-0.191756742106691
8.1	-0.00294618631131765	0.00644347510435826	-1.79269201356593E-06	7.55910429219654E-07	-3.71099152224644E-06	-1.25498295238619E-06	0.979391871206958	-0.193828070902085
8.2	-0.00272730265305693	0.00620270493492582	-7.94183389474767E-07	6.33956076963143E-06	4.8808250477533E-06	4.35715095082255E-06	0.979156812477453	-0.196053517672179
8.3	-0.00253021060738293	0.00609658673802609	-8.62380382979024E-07	-1.42251014598111E-05	6.83386041589312E-06	5.42818122418158E-06	0.978650926495444	-0.19881591609319
8.4	-0.00237253262491471	0.00604656310756695	3.75979645336605E-06	-3.433291463468E-06	-6.97613558593831E-06	-1.21476697935509E-06	0.977878415777128	-0.201592715231972
8.5	-0.00236731252543753	0.00605416592712208	4.67599500145068E-06	5.84963270442926E-07	8.41547147825742E-06	-6.83806510002676E-06	0.977042306846664	-0.204253189960228
8.6	-0.00224163913416182	0.00619801970425831	-3.26904993984805E-06	4.12041371333868E-06	1.01344651995203E-06	1.11026862190955E-05	0.976576831283892	-0.20691497121285
8.7	-0.00216794719632856	0.00626062636917889	2.68435334265629E-06	-2.00217519215244E-06	4.78673740539647E-07	-5.54467299857363E-07	0.976103865635885	-0.209580467869119
8.8	-0.00210701232450241	0.00649203206402531	1.2135907802601E-07	-1.25421170459626E-06	-9.66857714409523E-07	9.77682084690802E-06	0.975523768787949	-0.211788999352584
8.9	-0.00186426426780599	0.00675963756226715	-3.66660774340286E-06	2.29642800392736E-06	4.83758481325041E-06	-1.80677851918833E-06	0.975457880137545	-0.213608871602903
9	-0.00145928857552852	0.00698351758261662	-1.89315250078076E-06	4.97957767136645E-07	-3.21254513473995E-06	-1.05530319786098E-05	0.975457280723892	-0.215733388326321
9.1	-0.000638558299871384	0.00699306152968745	5.26148001909778E-06	5.89960710275666E-07	9.14689148118966E-07	3.8240383472407E-07	0.975450382064897	-0.217824949413631
9.2	0.000131497558275427	0.00652323375090931	-8.74284588088554E-06	-4.58154553914917E-06	-8.86506103212075E-07	-6.13940167750783E-06	0.97523463730017	-0.220630678019511
9.3	0.000602514679845605	0.00585862809991701	1.93517875849206E-07	6.22820088322683E-06	4.64659513728324E-06	-2.20211493862682E-06	0.974894749417873	-0.223485362686962
9.4	0.000817819974166769	0.00514171370156286	-1.92619432466369E-06	5.89903886819295E-06	-1.05178065040436E-05	7.76933245452428E-06	0.974273086713915	-0.226842124696395
9.5	0.000637597942894148	0.00472025116188508	3.18118798842232E-06	-7.58841630753373E-06	3.68671824447083E-06	-2.75329181695808E-06	0.973194919698918	-0.230277924243091
9.6	0.000452906427243296	0.00439491702812571	4.51803816647946E-06	5.57895357510442E-06	-6.28972035214272E-07	7.0863927256165E-06	0.972044819364263	-0.233393456240754
9.7	4.66714335539915E-05	0.00422654692201268	-2.61744925796508E-06	-3.94035854700836E-06	3.68417628081224E-06	-7.5441259602989E-06	0.97119414329962	-0.23605250427454
9.8	-0.000453624951135871	0.00436437547106535	-5.34897893830475E-07	-4.22149959263506E-06	6.28960125193862E-06	8.77487429334442E-07	0.970790239005868	-0.238383701876971
9.9	-0.000836579670482818	0.00483093946877537	-2.69558219718931E-06	-5.89065502271527E-07	-8.50780760136505E-06	5.51979167616726E-06	0.969955337681263	-0.240706305706093
10	-0.00109320702841481	0.00545537652225354	4.24581146576467E-07	-1.75535359529631E-06	-3.11092426363136E-06	-7.97436914485422E-06	0.968324966687472	-0.242090964020396
10.1	-0.000887570285575254	0.00618206788590694	2.25994028542548E-06	4.77029259512347E-06	-3.08042682951133E-06	9.86881621402346E-06	0.96792808845776	-0.242768612270841
10.2	-0.000496877272649756	0.00664081617423161	-5.41158456832554E-07	-1.04832503590982E-06	-1.21918681946836E-06	-3.11650809442601E-06	0.96771872546903	-0.24412289837329
10.3	-4.2971110763185E-05	0.0069817392346094	1.13062852237351E-05	-2.96492671793172E-06	1.00495437001212E-05	-4.87583904465412E-06	0.967090198271136	-0.246135106407638
10.4	0.000480388067397398	0.00717626458057975	-6.22078807327628E-07	2.15011292265989E-06	3.02497836346941E-06	-2.19476051784698E-06	0.965795818480875	-0.248526502602429
10.5	0.000936865251784925	0.00736946194415394	-6.09641042265288E-06	4.65838651103842E-06	1.58238370380965E-06	4.30105371495308E-06	0.964259240144543	-0.250666712830317
10.6	0.00165134985726405	0.00746323454169653	-7.07183041238644E-06	1.07008126104173E-05	7.03519912096157E-06	4.24816320390191E-06	0.96334556239782	-0.252758085692269
10.7	0.00229736347842198	0.00736881249897452	-3.20817625904598E-06	1.57430675672039E-06	-5.35571535601663E-06	3.18215323716281E-06	0.962429554989185	-0.25499720186006
10.8	0.00290084102060287	0.00719226230081972	-1.91395558052438E-06	4.99111768501275E-06	8.42580098447638E-07	-3.20206930461513E-06	0.961805498053578	-0.25659778622379
10.9	0.00336043983828117	0.00695730470486637	-5.7661799628606E-06	-1.05039834838737E-05	4.94866973770778E-06	1.06842727250458E-05	0.961482831468662	-0.258256462136286
11	0.0037331999723617	0.00671069728288242	2.96801399271486E-06	2.60789081504941E-06	7.68291201148086E-07	-1.12276804330239E-05	0.960932938070434	-0.259489729307361
11.1	0.0042089632172519	0.00644520014230716	3.8572357239864E-06	1.44945866411451E-06	2.41908894324608E-07	-7.36776706063739E-06	0.960749608093268	-0.260697030198071
11.2	0.00452897352019989	0.00600689356886439	-4.41475055156286E-06	-1.96105331825862E-06	-7.32367712519274E-06	-4.8319030309667E-06	0.960362090466671	-0.262437196498349
11.3	0.00474162002833762	0.00556588738488836	6.50990916211004E-07	-6.37105558444147E-06	3.78676502974902E-06	1.4114777415505E-05	0.960039638035204	-0.264391956665621
11.4	0.00480606119449008	0.00516870101066365	-5.09685815367468E-06	8.13825955398497E-06	-1.45022627950053E-06	4.07289912525946E-06	0.95930734184218	-0.267273187458511
11.5	0.00469018031045881	0.00486654918007974	4.52942869245701E-06	8.07089416840636E-06	-9.26894662913701E-06	1.59404990313037E-06	0.957754478276556	-0.27055407591933
11.6	0.0047621906471254	0.00461508059870059	-3.83070908703105E-06	1.40439040586589E-06	5.08107365235496E-06	8.10950262709475E-06	0.956121439154116	-0.273455911941392
11.7	0.00471525168244321	0.00432841324291146	2.25852261025484E-06	1.05000205458169E-05	5.34188125561444E-07	-3.64118413000808E-06	0.955150840923408	-0.27667258222094
11.8	0.00472467581420377	0.00424986003026956	1.43101408781016E-06	4.44952886505714E-06	2.25027608180574E-06	4.52237847867271E-06	0.95425191807963	-0.280142043243422
11.9	0.00485506699110741	0.00425351650053117	7.43785562055207E-06	1.05383673923163E-05	3.87453559915096E-06	4.00888516476485E-07	0.953434718976466	-0.282700146179519
12	0.00504819962324836	0.0042510063740117	2.34531966588384E-06	-5.14643926540178E-06	-4.02209367423089E-07	1.74786591724697E-06	0.95154937057136	-0.284257822224833
