# GHZ S RI R 50
0.2	0.000652858435565529	0.00187416157998797	4.80232256083413E-06	-2.98325905752134E-06	-1.37565431254622E-05	1.3119940251041E-05	1.00052382030121	-0.00640693059204792
0.3	0.00120315552090471	0.00135931462968284	2.86377244712725E-06	6.63748781253363E-06	-1.65762076628277E-06	-9.33447640142496E-06	1.00068702113907	-0.00931299204925988
0.4	0.00152922999002695	0.00113673013937154	-1.86359665742545E-06	-4.02410342929664E-06	-9.03402700303854E-06	4.40637660470842E-06	1.0010927345231	-0.0120141281109506
0.5	0.00220947380010297	0.000710042606705919	-5.36659303647096E-06	3.27008565225052E-06	-2.12808709052176E-06	6.76911685812714E-06	1.00116367541413	-0.0159291540738016
0.6	0.00201070992842497	-0.000234149012250019	-1.40306028537753E-07	2.80898347080866E-06	-5.821115844848E-07	-1.34361307792539E-07	1.00038505424557	-0.0188519690290228
0.7	0.00158646286164977	-0.000394011042776082	8.69387742540711E-08	2.2225770411367E-06	4.91276391847989E-06	-3.40436781899232E-06	1.00009049960378	-0.021307775431321
0.8	0.00137483337109658	-0.000453589024627289	4.53688307261964E-06	8.30113110575291E-07	2.7482401338225E-06	2.0059797325471E-06	1.00007730952349	-0.0232303132796571
0.9	0.00101417898783292	-0.000322690160084942	-1.49810861305236E-07	-4.22874773892666E-06	-3.42455988824365E-06	-3.11906209862151E-06	1.00024185664069	-0.0253239715255282
1	0.00136307627332072	0.000291446244521888	1.06315258678244E-06	4.30460141873246E-06	3.33689909593109E-06	9.36333659941232E-07	1.00100430947949	-0.0268315901112161
1.1	0.00177153618847076	-0.000569215298436441	9.06702322964948E-06	5.15687059231088E-07	-3.58777806836984E-06	-4.99000831616837E-07	1.00085569180094	-0.0300003726654021
1.2	0.00118239459840653	-0.00135889343968143	3.76951062816952E-06	-1.2046913773746E-06	-4.10813881063136E-06	-2.44162411681758E-06	0.999750419961654	-0.0313502041102149
1.3	0.000419586098934391	-0.00227555012968747	-7.64789340910816E-07	-1.4295197335151E-06	-2.60151096922822E-06	-8.72507681281948E-06	0.999483962743485	-0.0325265912903768
1.4	-0.000477584650695695	-0.00313539396117968	1.91088605804407E-08	3.45469823778881E-06	-4.29632369278961E-06	-4.12986906934843E-06	0.998755519136499	-0.0347900717046271
1.5	-0.000526457896990133	-0.00373560889729326	-1.29430619109839E-06	4.43979164300108E-06	6.55431372066854E-06	-7.43650644017563E-06	0.999396835753045	-0.0382644038432058
1.6	-0.00130417000973725	-0.00421397779055241	1.63217276977629E-06	-4.92228680876863E-07	4.24351616877918E-06	-5.41049318984619E-06	0.998526846077104	-0.0418432123978799
1.7	-0.00161250478538896	-0.00378320714543974	5.37930693011973E-07	3.96521793785232E-06	-8.29836246883546E-06	3.14757736209259E-06	0.998893817205266	-0.043982257846766
1.8	-0.00165133875950475	-0.00338664511522734	1.83792328981876E-06	1.07833951772567E-06	5.6434678437961E-07	-1.76653963016556E-06	0.999028494528767	-0.0464923309630074
1.9	-0.00160778145721384	-0.00296582761562282	3.24626986862422E-06	3.02185846350977E-06	-1.85548871936956E-07	-2.33550668919523E-06	0.999122814710898	-0.0480626202606393
2	-0.000838908270096233	-0.00293735471062874	-1.73296997565469E-07	2.01284466757925E-07	-1.2206464766694E-05	5.44511359101332E-06	1.00085760687379	-0.0507080364789511
2.1	-0.00116453976620752	-0.0039034035834359	6.67340316112664E-07	-1.38944684693891E-06	1.38755160386502E-05	4.95071655987092E-06	1.00039033968546	-0.0553470273102214
2.2	-0.00191429305843047	-0.00401514965269802	1.64527660838083E-06	-1.52675726131696E-06	2.67651820555249E-06	-6.23899012848554E-06	0.999303309927847	-0.0580336217847827
2.3	-0.00264176501744745	-0.00394638136348852	-1.70359715496288E-06	-3.43163593016042E-06	-1.81088644871625E-06	-4.59960366434875E-06	0.998505103626318	-0.0597790734570723
2.4	-0.00344689154206705	-0.00351710118708169	-1.22213682275328E-06	-4.40910785561923E-06	3.05869367035052E-06	1.07899554654219E-06	0.99821500814705	-0.0627541719341492
2.5	-0.00338801364976012	-0.00267839964540365	5.41802034372587E-06	5.66036615210378E-06	-2.54865111939496E-06	1.61958394053281E-05	0.997885532186418	-0.065037524747048
2.6	-0.00337215775921282	-0.00299503402185743	-2.27101201668662E-06	2.72479007114103E-06	4.19102189062287E-07	-4.3207440797437E-06	0.99764092293611	-0.068073160017885
2.7	-0.00372765084854969	-0.00291309678014367	-2.42397124464993E-06	-3.63572006701434E-06	2.1502060377761E-06	-2.58319409930813E-06	0.997237690892417	-0.0711053653567424
2.8	-0.00398899709284581	-0.00271192572497354	4.01930298705784E-06	2.30212247105956E-06	9.85042463532361E-06	-7.25298653030077E-07	0.997324613197971	-0.0733615276808709
2.9	-0.00404076869996235	-0.00225377484543291	1.29105199026863E-05	6.58599250214803E-07	2.3971143574808E-06	-1.17507142690401E-05	0.996875899182563	-0.0755893671913537
3	-0.00328266542616755	-0.00211034824484093	-3.85498504285052E-06	1.06484750052271E-06	-4.15875582947851E-06	-1.58315365185776E-06	0.996657549287331	-0.0782560489800628
3.1	-0.00335935672063916	-0.00277440671669904	4.74755771693495E-06	-9.87883029391903E-06	1.07101948274166E-05	2.37096221521671E-06	0.996115440910738	-0.0805593494163007
3.2	-0.00368762733338581	-0.00285077285310786	-5.41186807813148E-06	-7.39695450813564E-06	1.56855836764468E-05	5.32575958773867E-06	0.995554969612623	-0.0825750115763916
3.3	-0.00399417140955903	-0.00287326424287889	-8.79138657678695E-06	2.5910811414059E-06	-8.58500877979242E-06	-1.70115093179078E-06	0.994885761932641	-0.0860844752693144
3.4	-0.00439748359073753	-0.00262157121760727	9.02439439135784E-06	-7.6135810969168E-06	-7.32655098584969E-06	4.27599156157217E-06	0.994017074783418	-0.0881489392893963
3.5	-0.00404591402740346	-0.00249903870128512	2.93852664175659E-07	-5.31959404091957E-06	-4.43712327219624E-06	-8.90337668043511E-06	0.993420707963215	-0.090066637137824
3.6	-0.0046023961448324	-0.00319795831740252	4.09147339650914E-06	4.8825807665873E-06	-7.06979826191693E-06	9.02048224385389E-06	0.993456610303767	-0.0928074104765335
3.7	-0.00551718213446115	-0.00296068642790115	1.50752093585963E-06	-4.53203675813324E-06	-5.13054792454258E-06	-6.56166589689395E-06	0.992836239400205	-0.0956542002883048
3.8	-0.00615159494651176	-0.00233068038449066	7.25034027952222E-06	-5.22431194943212E-06	-5.88591991760416E-06	-2.39036382001457E-06	0.992001707285569	-0.0974416014822136
3.9	-0.00634243225612505	-0.00129288011188002	-4.02648229808216E-06	-3.34195803248154E-07	-2.52342800669862E-06	1.14148806723244E-06	0.991813073065122	-0.0996040594290938
4	-0.00529391512407286	-0.000638325344177609	-3.38493663085334E-06	-6.98875331130026E-08	1.23598600263241E-06	8.66660314335844E-06	0.993648656283969	-0.101028922611497
4.1	-0.00509226384262524	-0.00132538841529974	-2.91942119746458E-06	-3.84527717317485E-06	5.89330324444488E-06	3.0073316714227E-06	0.992757424709991	-0.105137438367469
4.2	-0.00544952204480709	-0.00139014037925449	-7.83577485855996E-07	-2.15070022580168E-06	5.68411123801545E-06	-1.87119833501094E-06	0.990888042745547	-0.107804287263481
4.3	-0.00577387043574296	-0.00117962772065587	-4.93775459934718E-07	3.23266245484373E-06	2.13531920876152E-06	1.76657048760434E-06	0.990081115598912	-0.109494713789006
4.4	-0.00610639205999155	-0.000591780989678604	2.59025495670382E-06	3.42248374352331E-06	7.19070035930875E-06	3.86718481873964E-06	0.989443228027477	-0.111594558307152
4.5	-0.00535241533474551	4.54697117522677E-05	-6.45518779871456E-06	-1.88902058703785E-07	-8.56903673362635E-06	-2.05341729934907E-06	0.988993738773091	-0.114226043321917
4.6	-0.00539644077152816	-0.000658816677272441	-9.9499154704802E-06	-9.13305363904201E-06	3.20731022301383E-06	-2.7357000475346E-06	0.987372328270379	-0.116769957613674
4.7	-0.00588289690401548	-0.000599042511559114	1.33868800890714E-07	1.856099924781E-06	6.00307141862733E-06	-6.73055549368223E-06	0.986821362840052	-0.118106533626648
4.8	-0.00627174743140829	-0.000313769776344102	-6.35626164624435E-06	2.09587030521905E-06	7.28331374904406E-07	-1.26921951644714E-05	0.986250049444073	-0.120157367720524
4.9	-0.00649758180646097	0.000312921442062066	-3.37650975665783E-06	8.11814722941015E-06	5.99208021010143E-07	9.32979170993633E-06	0.985608634221229	-0.121656149160688
5	-0.00562013242115437	0.000660527068319134	9.57332194238699E-06	-4.07530550907555E-06	-6.88330520018488E-06	3.58375225184915E-06	0.985257503080457	-0.122974134749113
5.1	-0.00577801683789334	-1.7281509509637E-05	-3.73544671760047E-07	-3.23299198973784E-06	-3.85775270240437E-06	-1.77193621849078E-06	0.984869428565531	-0.124072668037329
5.2	-0.00611903439470101	0.00026916109572156	-1.07301080669574E-06	-4.4602571199971E-06	8.75389138752987E-06	5.52522919192035E-06	0.984488763894327	-0.125784512768903
5.3	-0.00608830333522702	0.00073665331712037	2.29188123512913E-06	6.75071758074083E-06	8.75543382769899E-06	3.09393790077269E-06	0.984260007500172	-0.127827491758636
5.4	-0.00578024073627842	0.00139491677400179	2.68124947898672E-06	-3.13094749436922E-06	-2.65836425075067E-06	1.60446399967193E-07	0.983819475552501	-0.130482252498005
5.5	-0.00439329097967914	0.00136906390947039	2.10856728157215E-06	9.24809428188113E-06	-3.90254834668784E-06	-4.99134837144772E-06	0.983512674858572	-0.132264727921739
5.6	-0.0048978707023415	0.000128580502219237	-5.8192652834078E-06	-1.12332203821081E-06	4.84282930826418E-06	1.9290727619016E-06	0.983584350036062	-0.134855730984371
5.7	-0.00591283442755117	0.000368776145201089	3.31626700929369E-06	-1.41557149200513E-06	-5.01907876542733E-06	-4.26504280278861E-06	0.982873606261744	-0.137016160777174
5.8	-0.00664213141680017	0.0010439148924623	-2.0410803945731E-06	-4.71821312880113E-06	9.40875665666097E-07	-5.78485298936987E-07	0.982416223959205	-0.138357518384828
5.9	-0.00727494953097483	0.00243480253747383	-3.85875351614059E-06	6.10887740438532E-07	3.83948916182048E-06	1.24753074862847E-06	0.982592739045584	-0.138834151142349
6	-0.00608990559897033	0.00422616150484603	-5.92362596769123E-06	5.0261390820418E-06	-1.48055473811528E-06	1.94308029945698E-07	0.985768013470432	-0.140417697276114
6.1	-0.00516838610991698	0.0037118089500304	-5.91215875515174E-06	-4.67646683957745E-06	-3.99259539211964E-06	4.34464441732894E-07	0.985218986975897	-0.144590922589482
6.2	-0.00510289294810568	0.0035721880558986	2.81099369923553E-06	3.1109947867302E-06	1.04894630204916E-06	7.19198475932711E-07	0.983934677457551	-0.146084827507891
6.3	-0.00505705006641854	0.00343920114569756	1.63434471388261E-06	-7.45397914598499E-07	-1.32478803280706E-07	1.36987549418555E-06	0.98322260281001	-0.147727182830759
6.4	-0.00510018168419113	0.003644257713183	-5.16499896219837E-06	-5.59937151166281E-06	3.80158266111151E-06	6.88348736149996E-06	0.983131466975989	-0.149386291543275
6.5	-0.00396928650818487	0.00316714874208191	9.02898116654396E-06	-2.61171290700628E-07	-7.29434208888863E-06	-8.82938557673393E-07	0.983059332077504	-0.153785359219909
6.6	-0.00483660675496934	0.00211240689297738	-1.47885420059466E-06	4.63688481996805E-07	3.35077745046174E-06	-9.32162924165085E-06	0.980227331528411	-0.155632434652044
6.7	-0.0054240074263895	0.00253335600465792	3.67120819522012E-08	7.70116213642094E-06	-4.82486903432578E-07	-6.04708243885321E-06	0.97977899804805	-0.15618791894026
6.8	-0.00568214334465082	0.00304149035543016	4.21719805948168E-06	1.65640474004717E-06	2.25308677282564E-07	-5.20217235027349E-06	0.979767396278169	-0.157458825211016
6.9	-0.00577941457272458	0.00412115950561631	-7.51759174710663E-07	2.44157157280977E-07	5.7338717995039E-06	-2.64751828916578E-06	0.979928784601125	-0.158521741782756
7	-0.00397421171458172	0.00466995797743868	7.99452562909365E-06	-4.70396785362548E-06	4.42775522098823E-07	-3.002443951075E-06	0.981106072558092	-0.160270414917852
7.1	-0.00427760931441284	0.00325829751934929	3.81960950244933E-06	2.04681393141687E-06	7.43700317403197E-07	7.19619702612341E-06	0.980171641096435	-0.163116407373319
7.2	-0.00522338006225105	0.00346702653375424	-2.44980678014534E-06	3.66518536161961E-06	-1.31254448631111E-06	-3.81369379950498E-06	0.978869983586222	-0.164566407704018
7.3	-0.00605600243568046	0.00407485094663821	3.42405072141467E-06	-4.80019650278752E-07	-2.43131548602881E-06	-1.91613368112991E-06	0.977215352592871	-0.165947535943737
7.4	-0.00709455360653042	0.00546449261497517	-6.14059416805534E-06	-2.70095747814487E-06	3.74540999935752E-06	2.57035324548649E-07	0.97465812817389	-0.166916991286652
7.5	-0.00602790720199263	0.00762964782041902	6.74036622917183E-06	-6.34443841160411E-06	-2.46368882689658E-06	7.78952786517933E-07	0.974806783765564	-0.16501655837847
7.6	-0.00521134646695861	0.00726454778250449	3.42373671557521E-06	5.197916965316E-06	-1.0216328557012E-05	4.82026835104347E-06	0.977234934863764	-0.168462492261034
7.7	-0.00512791097553381	0.0076490974620067	5.90761532474466E-06	1.092238561889E-05	4.19120879654282E-07	-1.12901635539385E-05	0.977337784800096	-0.171789510199899
7.8	-0.00456877014734659	0.00787077907669136	2.13589769875037E-06	9.96868891088882E-07	-3.16393670410731E-06	8.74618541388212E-06	0.977673340387544	-0.174562909524515
7.9	-0.00363523154511423	0.00820039477239708	2.56407013832321E-06	-2.27700422794126E-06	3.66705407483523E-06	3.78319551681743E-07	0.978694004142311	-0.176377928408047
8	-0.00134354744137364	0.00711944580990025	-2.82591837100822E-06	1.29690300002256E-06	6.89341490602343E-06	-1.78029140965923E-06	0.983109409340602	-0.180114959512175
8.1	-0.00184451973724259	0.00518180206576389	-1.7990424953009E-06	7.40634781620034E-07	-3.70016107756642E-06	-1.28648345472459E-06	0.982085224721687	-0.18671097670812
8.2	-0.00252627815313414	0.0048705711710851	-8.44092157227716E-07	6.33182844366676E-06	4.84527563809144E-06	4.39471472087554E-06	0.980645036361289	-0.189490209134229
8.3	-0.00302051956676068	0.00495361130613807	-7.50798055859477E-07	-1.42346099416552E-05	6.79253165834117E-06	5.4829091783889E-06	0.979886668911818	-0.192158025895291
8.4	-0.00339510246706295	0.00587172052601303	3.7892581452192E-06	-3.40996340565095E-06	-6.97554127780601E-06	-1.26702734878631E-06	0.979480422757077	-0.194722384584845
8.5	-0.00169839813924756	0.00647077985117245	4.67407059132149E-06	6.11718041679338E-07	8.45686159597548E-06	-6.79227772053928E-06	0.979162987679995	-0.198192244481109
8.6	-0.00187190094969458	0.00500256780247225	-3.29744097243716E-06	4.09497465073072E-06	9.32682017107174E-07	1.11051990873192E-05	0.978020959088966	-0.200777073563689
8.7	-0.00271467881954692	0.00508506832663449	2.7019883331974E-06	-1.98207153038431E-06	4.83390145652706E-07	-5.51007196995745E-07	0.977877732137667	-0.202923752328061
8.8	-0.0032735389129575	0.00568126093210066	1.31612997905125E-07	-1.2554895353342E-06	-1.04682635641728E-06	9.78661501586352E-06	0.977877279507883	-0.204989088043105
8.9	-0.00355211496478366	0.00697692059109955	-3.69413580490854E-06	2.2767438132038E-06	4.86505764325063E-06	-1.77716635022547E-06	0.978319383110602	-0.20683972684995
9	-0.00168346027876385	0.00819419575052807	-1.9006546936546E-06	4.87212264453292E-07	-3.15365524883519E-06	-1.05975960682155E-05	0.978881231358084	-0.208804774283219
9.1	-0.000732522020967011	0.0072633925804884	5.27230150986092E-06	6.29173912117601E-07	9.14574431708319E-07	3.90020274924865E-07	0.97970770237256	-0.211102771132435
9.2	-8.3665610739543E-05	0.00701600923818692	-8.74481320855195E-06	-4.65657195470338E-06	-8.49024069462916E-07	-6.16803254193839E-06	0.980098527581053	-0.214354997936896
9.3	0.000636285834138645	0.0064764382411166	1.57692683260209E-07	6.25288399093961E-06	4.67708818886508E-06	-2.18316707916874E-06	0.979916298013548	-0.21784627651662
9.4	0.0011335722573374	0.00614354224820207	-1.96243131258646E-06	5.90564543797483E-06	-1.05880752681326E-05	7.736368832248E-06	0.978525218988296	-0.221252741749956
9.5	0.00255396275488077	0.00507715453492029	3.24187009201799E-06	-7.57600253788036E-06	3.71243258320602E-06	-2.73008613201709E-06	0.978251301089786	-0.222879982493534
9.6	0.0014462657615588	0.00314137330848218	4.48716494430905E-06	5.63730591385496E-06	-6.91176016746392E-07	7.10665624358473E-06	0.978574928443716	-0.227053380457727
9.7	0.000166009878403179	0.00304552807793978	-2.59740947031124E-06	-3.97901632498461E-06	3.76135267350641E-06	-7.54813669715306E-06	0.977653368601626	-0.230248717528693
9.8	-0.000844759403595416	0.00344308948966278	-5.03045586283078E-07	-4.24579308378278E-06	6.31216003508436E-06	9.32852162144994E-07	0.977081537305046	-0.232323419073358
9.9	-0.00160609914185827	0.00472970412325456	-2.70479231764542E-06	-6.17837602839742E-07	-8.60679024218893E-06	5.46947145509426E-06	0.976982230620219	-0.232792222522488
10	-0.000193577644749268	0.00573718735238523	4.44230437416514E-07	-1.76829063696499E-06	-3.06964126204711E-06	-8.07794952188096E-06	0.980734907959643	-0.235394674595798
10.1	-0.00037837953001674	0.00478165651660256	2.2532319416144E-06	4.82734010245506E-06	-3.16583474290326E-06	9.94204233323456E-06	0.978901694987709	-0.240666429112469
10.2	-0.00108082529512857	0.00517332561544865	-5.4017567085568E-07	-1.06039714189957E-06	-1.21287158189399E-06	-3.15027955861611E-06	0.977066514987423	-0.242310204181969
10.3	-0.00148345651326584	0.00605588085566245	1.14256201470408E-05	-2.93200784955065E-06	1.01675198585314E-05	-4.86710475235662E-06	0.976025438126358	-0.244075038690587
10.4	-0.00136309704212609	0.00770073124733479	-6.38329301052018E-07	2.16973908317548E-06	3.06651937777898E-06	-2.20395032108083E-06	0.975367117749374	-0.246199353185984
10.5	0.000983980111389744	0.00873712940473159	-6.16557899795222E-06	4.69402183600156E-06	1.59051178738688E-06	4.34681388135758E-06	0.974486844429235	-0.250143596525592
10.6	0.00198908447772266	0.00786827984559729	-7.15845921225771E-06	1.07758112930215E-05	7.08547381552132E-06	4.30166599919024E-06	0.972599273956997	-0.252231599148755
10.7	0.00277820898432697	0.0075493413203757	-3.24216878060341E-06	1.58100061857999E-06	-5.41385223255684E-06	3.19851597719462E-06	0.972537398938404	-0.254753101696844
10.8	0.00322340082086035	0.0069827099132551	-1.9416770683378E-06	5.03824311247143E-06	8.56477667015222E-07	-3.2329522950729E-06	0.972233875185054	-0.257662859499905
10.9	0.00331286755310606	0.00716931234293103	-5.82400335436864E-06	-1.06162578495357E-05	4.99782980375824E-06	1.07982187211948E-05	0.971687531398858	-0.260328245427376
11	0.00527041536544284	0.0069529086199612	2.99864027859105E-06	2.62967904758222E-06	7.6462735552404E-07	-1.13346770762623E-05	0.971316897319867	-0.262401368992722
11.1	0.0051055063810071	0.00509443994187372	3.89479855277107E-06	1.45974190801494E-06	2.37771686012276E-07	-7.43731682948445E-06	0.970538785378414	-0.264971403249882
11.2	0.0045300947606915	0.00466885121406951	-4.4607293268204E-06	-1.97255302259469E-06	-7.40261716381496E-06	-4.86623780882336E-06	0.96939568785033	-0.267532227914563
11.3	0.00413320314019583	0.00462779546928934	6.38802292692906E-07	-6.43240431828314E-06	3.86258807323372E-06	1.42357005726659E-05	0.967868642365654	-0.270150456074839
11.4	0.00381739077348421	0.00522246125683366	-5.10367541808395E-06	8.22226323680642E-06	-1.44506371910501E-06	4.11049182060014E-06	0.965051935881952	-0.272854385245888
11.5	0.0053997261373172	0.00519038525277349	4.57355900291487E-06	8.11614573445905E-06	-9.32728413638139E-06	1.62092910179141E-06	0.964686853097245	-0.273516578158992
11.6	0.0048983422997105	0.00351704473390409	-3.86152097017894E-06	1.42463703784797E-06	5.14248260781608E-06	8.17038863059573E-06	0.964468674327054	-0.278724080701637
11.7	0.00390739013417701	0.00349770323540355	2.31531925608972E-06	1.05848691495111E-05	5.26132124886902E-07	-3.67523017219007E-06	0.962229982904519	-0.283146007363313
11.8	0.00337715760266581	0.00423665040766609	1.46126348040312E-06	4.47963465141112E-06	2.28747755496662E-06	4.54964341206861E-06	0.959902113250231	-0.286366209904244
11.9	0.00381857288132588	0.00591556172629903	7.5309015837423E-06	1.05956494919373E-05	3.90604568738988E-06	3.91097752025171E-07	0.959153393065184	-0.2864911590847
12	0.00693837742846558	0.00614979737150689	2.35040791840413E-06	-5.21394890570191E-06	-3.99507242010816E-07	1.76916489757272E-06	0.962988181300391	-0.289542453202143
