# GHZ S RI R 50
0.2	0.0010076267783795	0.00274431468205413	4.78891527683368E-06	-2.98618180740904E-06	-1.37104042409369E-05	1.31203459745442E-05	0.998869056862435	-0.00743266378125297
0.3	0.00139619343005279	0.00184441934447002	2.86679893708462E-06	6.62050179098523E-06	-1.66659671606862E-06	-9.31370539348254E-06	0.998618230274419	-0.0103238076509616
0.4	0.00166994835896024	0.00117049085353488	-1.86244637484739E-06	-4.01169109797576E-06	-9.00595211437545E-06	4.4032045139002E-06	0.998379055021933	-0.0130223486828467
0.5	0.00127320665254213	0.000702115718007084	-5.35432710702668E-06	3.25925468103171E-06	-2.12571930252511E-06	6.75079314895414E-06	0.997827762882813	-0.0155680469014511
0.6	0.00148759941350722	0.00098699433744868	-1.39710919836144E-07	2.80467097637034E-06	-5.81232093655842E-07	-1.34075633564794E-07	0.998704482987809	-0.0183365666788577
0.7	0.00182485340560841	0.00076635796298124	8.83641793636105E-08	2.21794184235574E-06	4.90019974399973E-06	-3.4009101530527E-06	0.9984950753178	-0.0218262209637395
0.8	0.00209955732876136	0.000494755488309635	4.52556966398318E-06	8.2400726807957E-07	2.7426807924357E-06	1.99829606361706E-06	0.998076322285559	-0.0243302024578749
0.9	0.00245248460870664	5.77405017656037E-05	-1.53384712282681E-07	-4.21411529480203E-06	-3.41584196313963E-06	-3.10506636941021E-06	0.997694011016383	-0.0270845871851936
1	0.00219474729674271	-0.00110844171811039	1.05901593153577E-06	4.2847905943211E-06	3.32183337342377E-06	9.31510193122522E-07	0.996419144671914	-0.0289084914462603
1.1	0.00125275081519153	-0.00107388757094799	9.02834146903077E-06	5.19906054822897E-07	-3.57226374481137E-06	-4.99423806779386E-07	0.995777241870757	-0.0298492644593134
1.2	0.000929155754523184	-0.00147777040332981	3.75464493435644E-06	-1.19596443105963E-06	-4.08834443147517E-06	-2.43518003173E-06	0.995344410419485	-0.0304891677142683
1.3	3.89864825663611E-05	-0.00217363937139458	-7.59132771142049E-07	-1.42492492910868E-06	-2.57555093018933E-06	-8.69343796731438E-06	0.995547194910148	-0.0308111793131411
1.4	-0.000746603943754608	-0.00270798112173475	1.01614251172882E-08	3.44316788061273E-06	-4.271303714664E-06	-4.12707406710242E-06	0.996018551423433	-0.0323548086361777
1.5	-0.00153853772003806	-0.00283650503484327	-1.30225402757353E-06	4.42503354854119E-06	6.55629739586879E-06	-7.4006322802472E-06	0.997014194631166	-0.0357821183750877
1.6	-0.00109727631843497	-0.00223680688982384	1.62925159916726E-06	-4.87193935112432E-07	4.24555744839776E-06	-5.3871042596955E-06	0.997393218938932	-0.0393396277859038
1.7	-0.000653916120774181	-0.00249222088602983	5.27506537201241E-07	3.95620297138519E-06	-8.28410279602981E-06	3.12054025750792E-06	0.997893432182122	-0.0424923294237914
1.8	-0.0005063856648053	-0.00272098936594277	1.83100878579502E-06	1.07968225197624E-06	5.66808127101894E-07	-1.76092549486849E-06	0.997937375461129	-0.045632747829042
1.9	-0.000513038554657707	-0.00327383580958623	3.23506110009422E-06	3.01910676355555E-06	-1.82166111565013E-07	-2.33043425024287E-06	0.997943480264918	-0.0487752431533539
2	-0.00163420855445125	-0.00371973383237602	-1.72489659629632E-07	2.00274722448836E-07	-1.21480535947653E-05	5.41646800686229E-06	0.995480069607689	-0.0524174572299071
2.1	-0.00197810995596801	-0.00280875210634422	6.67987661621409E-07	-1.37954402528011E-06	1.37820379267553E-05	4.96679339151253E-06	0.994918543464736	-0.0524605635165008
2.2	-0.001805421436909	-0.00265274654483231	1.64400051055166E-06	-1.51342399193821E-06	2.68934182485792E-06	-6.20056081305682E-06	0.995911960435545	-0.0545844320314356
2.3	-0.00178857109341574	-0.00273898361084152	-1.68277950597151E-06	-3.42526687497452E-06	-1.78482876821004E-06	-4.58911638597139E-06	0.996088718751537	-0.0565994376622675
2.4	-0.00170690276965439	-0.00319526236173307	-1.19798788736254E-06	-4.39807478657273E-06	3.04248057180956E-06	1.08855415564028E-06	0.996394509463808	-0.0599698056554308
2.5	-0.00272918012147771	-0.0043069793603396	5.37232137242101E-06	5.67385232565459E-06	-2.62905454054155E-06	1.61368894711053E-05	0.996022839054722	-0.0625675095788954
2.6	-0.00417379357698951	-0.0037017540171335	-2.27931789808543E-06	2.71048661614782E-06	4.37359226635681E-07	-4.31200189031422E-06	0.996098129358162	-0.065640002303677
2.7	-0.0047310015871228	-0.00291871420843479	-2.40521269241049E-06	-3.63702348098855E-06	2.15527339869473E-06	-2.56964769901231E-06	0.995296927346848	-0.0687728767065686
2.8	-0.00476924873227938	-0.00209728072340668	3.99901989985612E-06	2.31188524152333E-06	9.82621869150747E-06	-6.83847739937818E-07	0.995171003229233	-0.0703458611806116
2.9	-0.00433961401665547	-0.00183925241936837	1.28688515541134E-05	7.18729923415371E-07	2.44648234359887E-06	-1.17041430040082E-05	0.995003948712749	-0.072010623366367
3	-0.00476849453928406	-0.00187419202629397	-3.85285757530169E-06	1.04221059218821E-06	-4.14194281714507E-06	-1.602056441782E-06	0.994954741388702	-0.0742495747492226
3.1	-0.00445872458961419	-0.000933394221863634	4.78399869837088E-06	-9.83282868256881E-06	1.06736880645477E-05	2.41697372454299E-06	0.994866832209782	-0.0758895933511696
3.2	-0.00390768769615016	-0.000863208813610251	-5.35651700865176E-06	-7.40807763156514E-06	1.56152386788606E-05	5.39967582798572E-06	0.994878263866477	-0.0774837980056902
3.3	-0.00357092212040668	-0.00101638157399597	-8.78869630675554E-06	2.52740762589742E-06	-8.55453531003102E-06	-1.75382770780067E-06	0.994988081485832	-0.0804181023735188
3.4	-0.00337535563101703	-0.00149819229474799	9.07483164356696E-06	-7.53565381224048E-06	-7.35264020401241E-06	4.21461333343425E-06	0.99575156916208	-0.0820475281626205
3.5	-0.00433646291008335	-0.00212113300336447	3.29343141918674E-07	-5.32577253482256E-06	-4.38524138433746E-06	-8.94618647241283E-06	0.996458730838949	-0.0859062703728233
3.6	-0.00468977288624634	-0.0011325570411965	4.06676296118265E-06	4.90569646554985E-06	-7.1196905425957E-06	8.98559987570079E-06	0.995531240316537	-0.0886734976582471
3.7	-0.00428344536122114	-0.00095166802216342	1.53498913878124E-06	-4.52360172539114E-06	-5.09179813843866E-06	-6.59343862652602E-06	0.995610763342326	-0.0912385417775615
3.8	-0.00399974019483148	-0.00119161566472334	7.28907348007195E-06	-5.18314936852459E-06	-5.87577858924111E-06	-2.42924263428387E-06	0.995671344325477	-0.0935839720824322
3.9	-0.00392363007407537	-0.00195917692149475	-4.03144758698263E-06	-3.55928509433077E-07	-2.53364415440202E-06	1.13012357973537E-06	0.995855912985932	-0.0979124654034375
4	-0.00547833093444912	-0.00273494970842665	-3.38203003530445E-06	-8.36706955761303E-08	1.19960080985113E-06	8.66494531532576E-06	0.9928404663402	-0.100417270265958
4.1	-0.00633533936154739	-0.00130446126729452	-2.89035333768168E-06	-3.86314025853063E-06	5.86806491570805E-06	3.04669024458922E-06	0.992294332106667	-0.0993678573599709
4.2	-0.0060924204089421	-0.00057490444531272	-7.68753813302039E-07	-2.15822880686538E-06	5.70256843623375E-06	-1.83184623033735E-06	0.99290626868022	-0.101573970683287
4.3	-0.0057684084670693	-0.00027381597075126	-5.16739895987934E-07	3.23389288352012E-06	2.12621459842831E-06	1.78380262189097E-06	0.993239282181684	-0.103697954048974
4.4	-0.00549217777879305	-0.000550154868326301	2.56886174841227E-06	3.44550755180613E-06	7.17193971755257E-06	3.92394904073322E-06	0.993002975244876	-0.106183375462343
4.5	-0.00670567402003939	-0.00117232404313372	-6.47170739973013E-06	-2.51425213154197E-07	-8.57365572223071E-06	-2.14153438011879E-06	0.992860199897413	-0.107493764838466
4.6	-0.00761258113950804	0.000306756371812175	-9.93809339246839E-06	-9.27000155638887E-06	3.24928836054557E-06	-2.72683690368232E-06	0.994261563854012	-0.110230581795359
4.7	-0.00744467856801857	0.00123839250139253	1.2309273814168E-07	1.8694520330416E-06	6.0858788871334E-06	-6.73814791614496E-06	0.994796219713045	-0.113157873580067
4.8	-0.00715539268466712	0.00196301524074511	-6.41053793727928E-06	2.07622908655688E-06	8.00876863578572E-07	-1.27744029236086E-05	0.994606452434678	-0.116248298212246
4.9	-0.00650057372140504	0.00220127403602237	-3.44135791344271E-06	8.15528370179289E-06	5.54839556884155E-07	9.39571114008678E-06	0.994299603840951	-0.11841944380848
5	-0.0069465560065989	0.0020860174422812	9.67554931865921E-06	-4.06153835425868E-06	-6.96011846133635E-06	3.57942319591137E-06	0.994409836747893	-0.120153228118761
5.1	-0.00615320321508553	0.00339841762529397	-3.67777391700859E-07	-3.26140461964581E-06	-3.88552980795151E-06	-1.79759978285727E-06	0.994885644901895	-0.121979499415725
5.2	-0.00478566538391911	0.00308465076440459	-1.07080162224124E-06	-4.4964719879941E-06	8.80730472247206E-06	5.58727662208324E-06	0.99474245076638	-0.124890839631595
5.3	-0.00419912798575472	0.00218213786750366	2.28994976155111E-06	6.80463852993836E-06	8.80906055303995E-06	3.13936196713519E-06	0.994156232362894	-0.127559897378415
5.4	-0.00430712170078556	0.00109222968179832	2.71497189122935E-06	-3.1445474778672E-06	-2.67982441545163E-06	1.50888803903222E-07	0.994184263386812	-0.130079671136047
5.5	-0.00639027095509207	0.000794009955389244	2.1095304431698E-06	9.35744365914352E-06	-3.93420296910069E-06	-5.05717684768057E-06	0.994355482605984	-0.133809207730308
5.6	-0.00642294496821971	0.00309534814369242	-5.87601774096896E-06	-1.1321990586026E-06	4.89040137117267E-06	1.94609050652363E-06	0.99342973588168	-0.136176887652362
5.7	-0.00532728383185713	0.0037197443062243	3.34524203137372E-06	-1.43000923682588E-06	-5.06631403222109E-06	-4.3006190784633E-06	0.993656454439716	-0.138605707075525
5.8	-0.00442551315574919	0.00373487998990037	-2.06600596829522E-06	-4.75782409197822E-06	9.48536156337181E-07	-5.84998474070564E-07	0.993992554712266	-0.141494472829311
5.9	-0.00344838858815499	0.00292629961756386	-3.88783474432039E-06	6.3136342579603E-07	3.87587009328643E-06	1.24231875965523E-06	0.993773459014322	-0.14583333271542
6	-0.00489705767978295	0.000745006333842915	-5.91427521134061E-06	5.06094635994943E-06	-1.48267255681099E-06	2.00904108059383E-07	0.98860450370411	-0.148873285053961
6.1	-0.00695963685637272	0.00208530501624197	-5.92051789366069E-06	-4.69293589366745E-06	-4.0019249474159E-06	4.31336452367471E-07	0.987776149987413	-0.145686478794737
6.2	-0.00738046630442736	0.00320552236460644	2.81765299953691E-06	3.12795574769418E-06	1.05210864780474E-06	7.23731554417533E-07	0.988908148006588	-0.146159894198828
6.3	-0.00722559780399809	0.00420862378729663	1.64273458329142E-06	-7.47309545368019E-07	-1.34428899609152E-07	1.37617326568756E-06	0.989299272815731	-0.148038901101484
6.4	-0.00657412296328039	0.00419818938526298	-5.18138117010124E-06	-5.62245271568635E-06	3.81233218715778E-06	6.91065508060386E-06	0.988819772869407	-0.150813683407772
6.5	-0.00780185951052649	0.00425757739379791	9.06772519690764E-06	-2.20404546838715E-07	-7.32057189449501E-06	-9.2042070956682E-07	0.987841809940554	-0.15126420394057
6.6	-0.00675779506552078	0.00604920002555504	-1.49452626709223E-06	4.63597935370512E-07	3.41177093671255E-06	-9.40108522495092E-06	0.991581502481184	-0.154106019687082
6.7	-0.00571971149681456	0.00597818841721725	3.73397928567934E-08	7.78201720640641E-06	-4.87742870315347E-07	-6.11055693263405E-06	0.991929746894425	-0.158940782055392
6.8	-0.00515108627033441	0.0060347680936379	4.26412397510999E-06	1.66483801889591E-06	2.16949207957334E-07	-5.2563244059658E-06	0.991183100809464	-0.162567582350103
6.9	-0.00443718797091209	0.00546173103406625	-7.58160644426706E-07	2.49180644793565E-07	5.77991537713114E-06	-2.69342417689325E-06	0.990458349073203	-0.165907998304657
7	-0.00644359630683873	0.00494025478696344	8.04519262388154E-06	-4.77870690867428E-06	4.34135757275714E-07	-3.03069560945136E-06	0.987589662254749	-0.168129161412653
7.1	-0.00626157164137482	0.00789030468516894	3.85988881631478E-06	2.04700585552796E-06	7.81121172368601E-07	7.25206846594841E-06	0.987405696079401	-0.16775035939462
7.2	-0.00456355097129758	0.00878927819909133	-2.45470635024615E-06	3.70438517919023E-06	-1.33837834873825E-06	-3.83896920152075E-06	0.987947223612197	-0.16928572618413
7.3	-0.00306734237532712	0.00900246478443168	3.45191730192515E-06	-4.94695474808465E-07	-2.45806445555385E-06	-1.9250571953632E-06	0.988024857003911	-0.170875464265861
7.4	-0.00125449046892595	0.0081434894683845	-6.21820254996961E-06	-2.72175165915492E-06	3.7902153829287E-06	2.53259369585035E-07	0.98993723780084	-0.17343580754092
7.5	-0.00210542466104271	0.00530556158070769	6.80216810063982E-06	-6.50095870320909E-06	-2.49819269938108E-06	8.10827959646441E-07	0.99015015920622	-0.181611588375548
7.6	-0.0034593756586872	0.00623684237329216	3.5223059331216E-06	5.22361662612165E-06	-1.02877514286264E-05	4.99079082609255E-06	0.985554724521183	-0.184909408158802
7.7	-0.00339961733516342	0.00619153128002766	6.09493419589039E-06	1.09804827621304E-05	2.99180586183488E-07	-1.14222772389257E-05	0.984792648009273	-0.187819909918285
7.8	-0.0034926793977113	0.00574067745784608	2.17205664266297E-06	9.81256535365853E-07	-3.08981575537954E-06	8.88278393413969E-06	0.984393042759643	-0.19184378315347
7.9	-0.00390823856158997	0.00485634101089502	2.55375327562693E-06	-2.34220852178562E-06	3.71123920486492E-06	3.22782453737589E-07	0.983315218299133	-0.197574185118193
8	-0.00696525325192309	0.00517106161041484	-2.80461898084222E-06	1.35771058934674E-06	6.86999798165184E-06	-1.9259510666767E-06	0.97564095625075	-0.202282968603801
8.1	-0.00597027006054425	0.00827677712045278	-1.78352544983439E-06	7.65388126180286E-07	-3.70983525207253E-06	-1.22845883635323E-06	0.973923709154751	-0.19854669454552
8.2	-0.00444866929300049	0.00887650472047512	-7.60910693081396E-07	6.32549588566956E-06	4.88832684534243E-06	4.32092780477587E-06	0.974968279006879	-0.199464005411925
8.3	-0.00326816033505938	0.00899701951969021	-9.20015525525067E-07	-1.417415918226E-05	6.83423607818436E-06	5.38107643049529E-06	0.974825998709064	-0.201841831272665
8.4	-0.00211226799080429	0.00819417982954095	3.73231018202296E-06	-3.430907721966E-06	-6.95012534078224E-06	-1.18655777571122E-06	0.973863262275277	-0.204421691039799
8.5	-0.00411861429833417	0.00713944685626866	4.66147192388587E-06	5.7908249828198E-07	8.38258171908431E-06	-6.82329614036962E-06	0.972514289902747	-0.205798759663192
8.6	-0.00409864372668621	0.0102099077437413	-3.25390644011829E-06	4.12217088473343E-06	1.03924578710544E-06	1.1083227761123E-05	0.973322740251534	-0.20783609333553
8.7	-0.00211204989563915	0.0111969617479812	2.67080777074134E-06	-2.00721502614986E-06	4.75542631329281E-07	-5.54903490085071E-07	0.973267362754068	-0.210869372404394
8.8	-8.88009941293702E-05	0.0112725844878378	1.15759017822449E-07	-1.25026564391327E-06	-9.23130289491039E-07	9.7461464506096E-06	0.972761136325219	-0.213367958267021
8.9	0.00218849063256587	0.00987915455959926	-3.63830097652297E-06	2.29847426643664E-06	4.80497568791662E-06	-1.81595305373093E-06	0.972754712029946	-0.215537505453073
9	0.00157022734470704	0.00717299140475952	-1.88146512089584E-06	4.99760506323543E-07	-3.22017456614107E-06	-1.04868304763894E-05	0.972555486477081	-0.218563984925812
9.1	0.00142652983569706	0.00726369535884676	5.23071827130685E-06	5.72552091667778E-07	9.10074565085574E-07	3.77659074381349E-07	0.971357345394025	-0.221063570140004
9.2	0.00155281506775508	0.00601569822158305	-8.68733855136451E-06	-4.53946909576713E-06	-8.87492171226258E-07	-6.09564012297844E-06	0.970024781733141	-0.223251621896192
9.3	0.00076888498296371	0.00516362289428263	1.87307572354948E-07	6.18812104030606E-06	4.61833207473399E-06	-2.1841887702983E-06	0.969322203310985	-0.224669704938028
9.4	-5.67306657940635E-05	0.00449595670916666	-1.93340669675779E-06	5.86645123268723E-06	-1.04903441712466E-05	7.70458626402862E-06	0.969843724139053	-0.226722323538929
9.5	-0.00278704795681963	0.00496782123760408	3.18893472358128E-06	-7.57622561877018E-06	3.68699049427904E-06	-2.74521918757212E-06	0.969443350721016	-0.231744165895932
9.6	-0.00225152746186667	0.00804288025545119	4.51275372880602E-06	5.56576119283511E-06	-6.23640649217689E-07	7.07335752966546E-06	0.967043859497235	-0.233906390838168
9.7	-0.00067689609279845	0.00871244456234878	-2.61294286659617E-06	-3.92986856428055E-06	3.67215891870516E-06	-7.52781139182963E-06	0.966805418625824	-0.235597907062575
9.8	0.00057332220189792	0.008721758770146	-5.3569910712363E-07	-4.21226331697273E-06	6.27660978542325E-06	8.72727714363672E-07	0.967561082233594	-0.23778560375787
9.9	0.00186443082010161	0.00758342273994591	-2.69130139171319E-06	-5.82665840369895E-07	-8.48002039223065E-06	5.52515209728801E-06	0.967971831639373	-0.242273850576242
10	-0.000179998860931687	0.00594994602696237	4.17663215869446E-07	-1.74567177870642E-06	-3.11155219356958E-06	-7.91797358618317E-06	0.961491590943908	-0.245356697732673
10.1	-0.000599404527640411	0.00829250508979929	2.23836444223527E-06	4.74566293941359E-06	-3.07878637692531E-06	9.80470672450562E-06	0.96137947381222	-0.241476657550538
10.2	0.000657334077423069	0.00888766800980642	-5.36435017668554E-07	-1.04533658570606E-06	-1.20673718989084E-06	-3.10669053176389E-06	0.963143723793748	-0.242491180921084
10.3	0.00193626630519986	0.00879162330424305	1.12774087185024E-05	-2.93195619013003E-06	1.0028586032117E-05	-4.83957620565224E-06	0.96358116099585	-0.244787068021517
10.4	0.00330729450840748	0.00717848168823007	-6.2410578586219E-07	2.14179717162712E-06	3.01911948078508E-06	-2.18172523273387E-06	0.962870586322653	-0.247852032045936
10.5	0.00106703803953455	0.00521295395795465	-6.10182961061609E-06	4.62111341098208E-06	1.56015739717093E-06	4.29756802944739E-06	0.961535193391442	-0.249335055853695
10.6	0.000147840310839728	0.00656717908140842	-7.1050557298601E-06	1.06846691484864E-05	7.0257310467238E-06	4.2698553146134E-06	0.962232237997174	-0.252990142341978
10.7	-0.000643545540193376	0.00721284154297517	-3.20991374297511E-06	1.57044546452072E-06	-5.35927195299029E-06	3.17568531354097E-06	0.959448752826857	-0.257016975326649
10.8	-0.000209201837768394	0.0088453390006772	-1.91929028532782E-06	4.98579016509442E-06	8.46223479952513E-07	-3.19914796617986E-06	0.957824694564826	-0.257343284883771
10.9	0.00112909784066945	0.00930376496207116	-5.74026456324142E-06	-1.04986260203504E-05	4.92362254572568E-06	1.06772829525517E-05	0.957508415239587	-0.258182448868238
11	-0.00025850433679511	0.00914371438598419	2.95776930208817E-06	2.61436912082369E-06	8.00672079150432E-07	-1.12157008537182E-05	0.956705167945351	-0.2597351138008
11.1	0.000964093018357585	0.0121836753045533	3.85137391122136E-06	1.45975331105124E-06	2.62717045369802E-07	-7.36374389944849E-06	0.95596834955046	-0.260045088061886
11.2	0.00352218443813529	0.01270679770556	-4.40574981935131E-06	-1.97523246983616E-06	-7.30331682143377E-06	-4.85461790548702E-06	0.955521088729389	-0.260668246634644
11.3	0.00586439735145431	0.0121077564061424	6.79992579001321E-07	-6.36753760603486E-06	3.72206270922882E-06	1.41308324666643E-05	0.955968754446349	-0.260923443233246
11.4	0.00791432612362333	0.0102442208432999	-5.1564173848312E-06	8.1196286236721E-06	-1.47821998143657E-06	4.07049365588336E-06	0.95800458197413	-0.262274157063301
11.5	0.0065201343489231	0.008305163032846	4.51741776941134E-06	8.12539085866624E-06	-9.31705318511241E-06	1.56402183307369E-06	0.957682633974789	-0.268784233119772
11.6	0.00734529601717845	0.00959368962186229	-3.84373829639226E-06	1.39750481132956E-06	5.07159289899322E-06	8.14274241089052E-06	0.954200609828398	-0.27079288131374
11.7	0.00938883983304575	0.008491264392263	2.22642947824802E-06	1.05298341925781E-05	5.4806472070855E-07	-3.64690531916899E-06	0.954458166857243	-0.272788891421631
11.8	0.0108883136527861	0.00619500477701942	1.41920796361261E-06	4.46742333057273E-06	2.24056175489461E-06	4.5434124462882E-06	0.955997862884244	-0.276627468395262
11.9	0.011134880729307	0.00202172314518827	7.45385147024464E-06	1.05876252791259E-05	3.8889180600945E-06	4.07032267042843E-07	0.957746781320596	-0.283771780504351
12	0.00597949235055838	-0.000725700141685109	2.33883799105571E-06	-5.14595387730277E-06	-4.00226218733987E-07	1.74730387431783E-06	0.949866881002625	-0.289684127983112
