# GHZ S RI R 50
0.2	0.000783658872629253	0.00244548117364751	4.79503530346438E-06	-2.98519370587466E-06	-1.37312274400797E-05	1.3121299789026E-05	0.999575213091078	-0.00693465893851664
0.3	0.0012197716143004	0.00170100893108544	2.86541420728055E-06	6.62868303859984E-06	-1.66236662569369E-06	-9.32373162707457E-06	0.999509323557179	-0.00977625925885949
0.4	0.00150521503322105	0.00128621015906433	-1.86303266377797E-06	-4.01793762012909E-06	-9.02008050173682E-06	4.40481765920332E-06	0.999627792760295	-0.0124003262302401
0.5	0.00172171381542392	0.000851087544585471	-5.36024827277705E-06	3.26492989466335E-06	-2.12653010303413E-06	6.76001818689778E-06	0.999485994736564	-0.0156715069003634
0.6	0.00172234812148057	0.000471472679711388	-1.4000648736475E-07	2.80664363328368E-06	-5.81633524686821E-07	-1.34211191089315E-07	0.999498525870189	-0.0185663050988017
0.7	0.00167381425116377	0.000272586173187558	8.75638457380289E-08	2.22012089195102E-06	4.90629421744E-06	-3.40224040619493E-06	0.999226133323155	-0.0215609220214178
0.8	0.00168693214503082	8.18880468355449E-05	4.53087565521675E-06	8.27313801365124E-07	2.7451461417068E-06	2.00219396867364E-06	0.998956786540454	-0.0237977171111727
0.9	0.00159533032283097	-7.32150769514384E-05	-1.51097406240108E-07	-4.22130851716565E-06	-3.41972170343559E-06	-3.11236175630575E-06	0.9987369695514	-0.0261766107327771
1	0.00160074362859876	-0.000162799271430254	1.06075920243948E-06	4.29513672121069E-06	3.3295406192442E-06	9.3431284188839E-07	0.998513589984004	-0.0276065520597057
1.1	0.00145099451203684	-0.000507222885086241	9.04874847748622E-06	5.18249923798918E-07	-3.58043003423855E-06	-4.99427119176811E-07	0.998333332040403	-0.0295909811778717
1.2	0.00110583548738614	-0.000985917320795358	3.7630422880111E-06	-1.20065275612548E-06	-4.09930778076006E-06	-2.43901351164858E-06	0.997869164981188	-0.0305116723319565
1.3	0.000538979100353761	-0.0017770664892772	-7.62485976297906E-07	-1.42764784167086E-06	-2.59094098691455E-06	-8.71218858114714E-06	0.998273222383833	-0.0314292898392985
1.4	-0.000218363405980457	-0.00266226139163074	1.56858905818406E-08	3.44991934576106E-06	-4.28629699853068E-06	-4.12835761759374E-06	0.998151193665436	-0.0337054031838829
1.5	-0.000663319786664283	-0.00313153515449351	-1.297351001626E-06	4.43291751775695E-06	6.55396246904937E-06	-7.42039515530884E-06	0.998746009420471	-0.0372156771712412
1.6	-0.0010182745510472	-0.00323363415369987	1.63054574717938E-06	-4.89786938478E-07	4.24381219346883E-06	-5.3986621629868E-06	0.998181605154246	-0.0408908262288591
1.7	-0.00111862449174665	-0.00312310670480806	5.32665425179614E-07	3.96009646172716E-06	-8.28993260212201E-06	3.1336364739455E-06	0.998313810488314	-0.0434814038810125
1.8	-0.00118214662765061	-0.00299292440104441	1.83396460464612E-06	1.07875843328468E-06	5.65458932737789E-07	-1.76325858222745E-06	0.998133966131234	-0.046219859278007
1.9	-0.00127863500388429	-0.00293652487601638	3.23875900181309E-06	3.01954861643802E-06	-1.83448444726222E-07	-2.33192624884791E-06	0.997855413256912	-0.0482841220081978
2	-0.00130967797421029	-0.00293400362722693	-1.72942012348759E-07	2.00628440278765E-07	-1.21762328010542E-05	5.42286580839423E-06	0.997842929702527	-0.0507990909452989
2.1	-0.00154773431236851	-0.00311796149179592	6.68002619800141E-07	-1.38413707559146E-06	1.38257100951315E-05	4.96233279901559E-06	0.997674196441343	-0.0535587382216373
2.2	-0.0018936090729611	-0.00314170966124762	1.64468726866637E-06	-1.51932972493056E-06	2.6839978523926E-06	-6.21773143807895E-06	0.997460740120634	-0.0560946399214875
2.3	-0.00232045839885747	-0.00317757886914401	-1.69163636331035E-06	-3.42814657862629E-06	-1.79589621442072E-06	-4.59379671997884E-06	0.997004317347274	-0.0579636224459458
2.4	-0.00285317376395808	-0.00314307812952243	-1.20801869891378E-06	-4.40316932380417E-06	3.04951246901871E-06	1.08479143158532E-06	0.996834234797842	-0.0609954069292062
2.5	-0.00334021384624517	-0.00292275596023864	5.39230752260145E-06	5.66781500493263E-06	-2.59365891158605E-06	1.61624942617851E-05	0.996494617561842	-0.063074971831664
2.6	-0.00377894135582788	-0.00273550381116523	-2.27569002745228E-06	2.71564654802121E-06	4.30134329606343E-07	-4.31472039940271E-06	0.996622243610724	-0.0659083432515681
2.7	-0.00407676668401006	-0.00237729254483125	-2.41172022672594E-06	-3.63714855596883E-06	2.15394111218064E-06	-2.57447344394506E-06	0.996357031418644	-0.0689206032436492
2.8	-0.00419708652878455	-0.00201842820758443	4.00748578251628E-06	2.30951583923126E-06	9.83835626027347E-06	-6.98134317318079E-07	0.996563876667735	-0.0710243960338112
2.9	-0.00412040875859653	-0.00169187127903971	1.28907598242477E-05	6.95693552851894E-07	2.42839484332364E-06	-1.17274376682035E-05	0.996290785161607	-0.073140618826217
3	-0.00384698339345558	-0.00152202237239347	-3.8544712925054E-06	1.05229831926618E-06	-4.15003226796234E-06	-1.59407104109497E-06	0.99622233122949	-0.0756589858374775
3.1	-0.00369342296928581	-0.00158570942933869	4.77004065508948E-06	-9.85461056334241E-06	1.06917267580604E-05	2.39839975574411E-06	0.996021991867132	-0.0778278813642248
3.2	-0.00366506627871684	-0.00166087035036763	-5.38296565349682E-06	-7.40556476649707E-06	1.56517608280849E-05	5.3685018774589E-06	0.995757095788655	-0.0798633621394072
3.3	-0.00374125970678378	-0.00180557078788727	-8.79277295793704E-06	2.5586291252371E-06	-8.57181045877536E-06	-1.72921946960932E-06	0.995414983186328	-0.0833350049117666
3.4	-0.00402058055677079	-0.00190391686385578	9.05086580981754E-06	-7.57750361539035E-06	-7.34083828667817E-06	4.24719079576688E-06	0.995093136576222	-0.0854213926324437
3.5	-0.00427194688950959	-0.00194580931577408	3.11014014866513E-07	-5.32167840745396E-06	-4.41120153131885E-06	-8.92261162595535E-06	0.994797191919542	-0.0880083968059867
3.6	-0.0047115966735954	-0.00198902166273089	4.07802153436696E-06	4.89504354912954E-06	-7.09674574603309E-06	9.00144793355206E-06	0.994611816029728	-0.0907171588427153
3.7	-0.00516106662525087	-0.00176791088963288	1.52206024490664E-06	-4.52819223963211E-06	-5.11093829935367E-06	-6.57908192871976E-06	0.994199581134539	-0.0935580938169456
3.8	-0.00549491755330166	-0.00143922351431508	7.2705801762013E-06	-5.20375596001866E-06	-5.88119458675622E-06	-2.41031943813352E-06	0.993510985174897	-0.0955515096545536
3.9	-0.00566317030369204	-0.00101089008264292	-4.02838691916964E-06	-3.45706179893957E-07	-2.52840441399291E-06	1.13522741382531E-06	0.993122653027563	-0.0982783128641213
4	-0.00554894781439639	-0.000655747224716254	-3.38417224541461E-06	-7.90251091731009E-08	1.212350108234E-06	8.66847057719855E-06	0.993330267702502	-0.0992238133644266
4.1	-0.00552552107627526	-0.000571213172453838	-2.90554052957156E-06	-3.85703747835784E-06	5.88317502230571E-06	3.03011327415291E-06	0.99337233020522	-0.101471690069557
4.2	-0.00559688757708523	-0.000436795321528679	-7.76206058619377E-07	-2.15563318541591E-06	5.69639693168189E-06	-1.85153206120181E-06	0.992694102062509	-0.104231450132345
4.3	-0.00568146035810995	-0.000294520321813859	-5.06127180055039E-07	3.23496823524231E-06	2.13161743653617E-06	1.7765548375145E-06	0.992434743482678	-0.106249097741232
4.4	-0.00590694590662023	-0.000116644722031479	2.58106351361362E-06	3.43714931381129E-06	7.18642120025758E-06	3.89982873446142E-06	0.992032408401581	-0.108554050037315
4.5	-0.00599691364929694	0.000216070324765565	-6.46966174018257E-06	-2.17785598764652E-07	-8.58030953762681E-06	-2.09603351903792E-06	0.992013300291616	-0.110734504102583
4.6	-0.00625542489711795	0.000354304917097679	-9.95218771821967E-06	-9.20087932605732E-06	3.22840921541517E-06	-2.73382831291088E-06	0.99166216538479	-0.113664349205894
4.7	-0.00647086898745257	0.000713834455197395	1.28910858761272E-07	1.86333922587319E-06	6.04498224177741E-06	-6.73774857911774E-06	0.991540945627077	-0.115762380711736
4.8	-0.00660284302696871	0.00110096684397343	-6.38558871626625E-06	2.08723630577468E-06	7.64033589108134E-07	-1.27379939828248E-05	0.991112930492034	-0.118368525017585
4.9	-0.00660608658212288	0.00151587871350911	-3.41002881481541E-06	8.14126798081754E-06	5.78121263384924E-07	9.36760776787344E-06	0.990520360622925	-0.120278386970096
5	-0.00630329069089048	0.00184914856276562	9.62591077882133E-06	-4.07283109173144E-06	-6.9225539360797E-06	3.58495168937269E-06	0.990221448206538	-0.121757009233065
5.1	-0.00605595251311281	0.00191635055014808	-3.70692633488485E-07	-3.24775113602978E-06	-3.87227907249427E-06	-1.7851069818365E-06	0.990147299040535	-0.12315846007656
5.2	-0.00579259753935366	0.00203628832830226	-1.07192345377981E-06	-4.48017628859844E-06	8.78347681127559E-06	5.55915594020469E-06	0.989797125656475	-0.125316381551902
5.3	-0.00551739139660231	0.00205919659802478	2.29254821378197E-06	6.78174330174267E-06	8.78772316660297E-06	3.11825461892187E-06	0.989512209563324	-0.127542234547732
5.4	-0.00536547458708858	0.00205852282229365	2.69847279755225E-06	-3.14117581375629E-06	-2.67084944538421E-06	1.57038857743919E-07	0.989369474751381	-0.130288233383832
5.5	-0.0052095409893596	0.00208267740129227	2.11412366991495E-06	9.30145937184253E-06	-3.92107126920094E-06	-5.02202890965268E-06	0.989187476291105	-0.132790291990031
5.6	-0.00543399212606489	0.00199668133082738	-5.84875145425443E-06	-1.12786853915265E-06	4.86755654417815E-06	1.93785776251334E-06	0.989134808338941	-0.135479724470856
5.7	-0.00576320632564319	0.00231302454536938	3.33181944382597E-06	-1.42368754865643E-06	-5.04503151539021E-06	-4.28383943329178E-06	0.988632138471684	-0.13807802525274
5.8	-0.00598347799981001	0.00273133228008408	-2.05483540392318E-06	-4.73915387134911E-06	9.44907773350649E-07	-5.82051439066192E-07	0.988107002740337	-0.140140102905813
5.9	-0.00622289985291883	0.00332704147245329	-3.87406435129958E-06	6.20378458926465E-07	3.8580383581562E-06	1.24597395176838E-06	0.987495218232654	-0.141769993009399
6	-0.00614555127902641	0.00411426729542474	-5.92971764940531E-06	5.04593517695401E-06	-1.4836019158432E-06	1.96870197904248E-07	0.9879049136787	-0.142603243951637
6.1	-0.00592177185664154	0.00447601563815623	-5.92827842838261E-06	-4.68888498201547E-06	-4.00335707921541E-06	4.35775211055344E-07	0.988361905787633	-0.144349861314948
6.2	-0.0057170046977277	0.00471749728255418	2.82067371611416E-06	3.12038387586118E-06	1.05246497264083E-06	7.21284548900624E-07	0.988315624009032	-0.146005575302224
6.3	-0.00547942397556419	0.00471036874069836	1.63918044060184E-06	-7.48686297969066E-07	-1.32152562136196E-07	1.37434405223118E-06	0.988023173438077	-0.148297867942548
6.4	-0.00549682619806877	0.00461308341948928	-5.1823209539865E-06	-5.61202600329683E-06	3.81583778034257E-06	6.90043278614748E-06	0.987510926901938	-0.150535628805199
6.5	-0.00533141491029164	0.00456671348484495	9.05924481022248E-06	-2.55165233635869E-07	-7.31795846339067E-06	-8.91433324838082E-07	0.987437252424496	-0.153694368703589
6.6	-0.00546721517212825	0.0045277918672928	-1.48608441307866E-06	4.66164997007424E-07	3.36609273049055E-06	-9.36801251030263E-06	0.986468703691988	-0.15653554947132
6.7	-0.00540676936499325	0.00481764959027415	4.59548746809266E-08	7.73973614572959E-06	-4.92019361130873E-07	-6.07683777188562E-06	0.985853208756863	-0.158623964103899
6.8	-0.00529796621034213	0.00503370166852316	4.24074121423157E-06	1.65662339348928E-06	2.16753690665132E-07	-5.22784241883034E-06	0.985287912655798	-0.160791598112898
6.9	-0.00531699220912035	0.00536294188582325	-7.54617616063771E-07	2.47104288521906E-07	5.75376638063377E-06	-2.67360223285129E-06	0.984672769976778	-0.162677407195651
7	-0.00497834865404429	0.00582659479927265	8.01432839673703E-06	-4.74604946172247E-06	4.36119736177714E-07	-3.01612806605462E-06	0.984309024642923	-0.164155333992368
7.1	-0.00497340071908832	0.00590592828986413	3.83982921844317E-06	2.04355173700635E-06	7.67128778285882E-07	7.22110147346633E-06	0.983852296816987	-0.166130616583105
7.2	-0.00499257167249354	0.00633625039705218	-2.44859758513735E-06	3.68557918102079E-06	-1.32806577780684E-06	-3.82410650483844E-06	0.983025268988513	-0.167989164544338
7.3	-0.00497987712158873	0.00672394203707512	3.43628288722147E-06	-4.91079304515972E-07	-2.44604214143809E-06	-1.91719033614223E-06	0.981682825769733	-0.169908428324925
7.4	-0.00519290220292812	0.00711167568968767	-6.17905761986465E-06	-2.69749875346696E-06	3.76500455324182E-06	2.47916999529184E-07	0.979860850688644	-0.172162252418558
7.5	-0.00516087425467685	0.00782139792825636	6.74641827143292E-06	-6.415013480525E-06	-2.47376067414351E-06	7.95968041403062E-07	0.978314685053358	-0.17313630607758
7.6	-0.00492642087437343	0.00808442692742368	3.46768415682352E-06	5.19958331723376E-06	-1.02305789682358E-05	4.89880444714516E-06	0.978435446876335	-0.175573850090348
7.7	-0.00479403414784643	0.0084151063656964	5.99243785950554E-06	1.09287708986634E-05	3.55600137993351E-07	-1.13343753106034E-05	0.978204853810876	-0.178411425840228
7.8	-0.00440137253408788	0.00844014094918453	2.14939716867062E-06	9.86889393650819E-07	-3.11995136171159E-06	8.79571762963664E-06	0.978206080908183	-0.181317098159513
7.9	-0.00402155642463983	0.00836598339667732	2.5539654706703E-06	-2.30241720301532E-06	3.67985611662507E-06	3.51852551874583E-07	0.978274754340213	-0.184020100179633
8	-0.00330877918831363	0.0082050031941154	-2.81460949813337E-06	1.31951124827469E-06	6.87706869401526E-06	-1.83581827811657E-06	0.979309723549811	-0.186704300534098
8.1	-0.00311462844326011	0.00782411390611822	-1.79187419476389E-06	7.51151219303758E-07	-3.70340329704485E-06	-1.26106264724415E-06	0.979086420966349	-0.190619013056017
8.2	-0.00292748408662658	0.00774570435578165	-8.05558687360693E-07	6.32709969206414E-06	4.8637059676014E-06	4.35948892540458E-06	0.978477909886211	-0.193295426378459
8.3	-0.00275237910379566	0.00766365081130998	-8.28896171583061E-07	-1.42020266779264E-05	6.80964539156202E-06	5.43399417161955E-06	0.97780612656576	-0.196135686216197
8.4	-0.00276680113718734	0.00775862022629016	3.76309327064903E-06	-3.41955217348457E-06	-6.96382630105225E-06	-1.23008447127677E-06	0.977063147289777	-0.198804311913034
8.5	-0.00245743212875123	0.00803546583327125	4.66911736353522E-06	5.92760099620296E-07	8.41747778550048E-06	-6.8142262992551E-06	0.976446438931667	-0.201711176914883
8.6	-0.00243289842951605	0.00801447405716346	-3.27246346541508E-06	4.10678776605517E-06	9.88276778420345E-07	1.10867790665648E-05	0.975627284717677	-0.2043738784571
8.7	-0.00232303014178654	0.00835168596741838	2.68518431037123E-06	-1.99288626046387E-06	4.79290206885494E-07	-5.52522735857137E-07	0.975160291657453	-0.206756359008721
8.8	-0.00198854437483021	0.00866267719880846	1.24281845432122E-07	-1.25236266387663E-06	-9.89615463432766E-07	9.76235615920209E-06	0.97473355558017	-0.208813119761074
8.9	-0.00158496509862652	0.00885994232331442	-3.66816921019599E-06	2.28609626854377E-06	4.8369353433468E-06	-1.79432342067711E-06	0.97485049336752	-0.210589385288103
9	-0.000829835648057131	0.00899756934475636	-1.89122706618111E-06	4.93746114295433E-07	-3.18841353113323E-06	-1.05430985118435E-05	0.975040101393349	-0.212712407973801
9.1	-0.000181583206860589	0.00856041250875497	5.25197323275995E-06	6.01948901840418E-07	9.12350739257929E-07	3.84059187686262E-07	0.975232387361344	-0.21490260705142
9.2	0.000378586930232998	0.00812438025053394	-8.72113247991925E-06	-4.59853709184779E-06	-8.69857193177873E-07	-6.1346015888565E-06	0.975206679250554	-0.217802936302805
9.3	0.000768945658286419	0.00747515501324431	1.77868012195912E-07	6.2228007073257E-06	4.64767649558395E-06	-2.18849629470832E-06	0.974955313725804	-0.220866289293315
9.4	0.000787206784782131	0.00683967641934238	-1.93856210157727E-06	5.88796507670472E-06	-1.05254942644572E-05	7.73520660224288E-06	0.973959826924671	-0.224291120203465
9.5	0.000760593265460575	0.00647443015575421	3.20315968713276E-06	-7.56683556227702E-06	3.69117904651313E-06	-2.73665713382733E-06	0.972982598831291	-0.226810622619907
9.6	0.000256616790597916	0.00611569017553258	4.4944655941184E-06	5.59602980424516E-06	-6.57525870104996E-07	7.08230146715233E-06	0.972418511501387	-0.230100286197315
9.7	-0.000122824354133485	0.00627315997668965	-2.60284565185051E-06	-3.95162892559842E-06	3.71453946675534E-06	-7.53188057615869E-06	0.971486671268227	-0.232796311271397
9.8	-0.000401668946728782	0.00648820749014552	-5.18553425899189E-07	-4.22518762562708E-06	6.28853312946187E-06	9.02470271197471E-07	0.970930778013049	-0.234839525852442
9.9	-0.000690026313350938	0.00689716732003243	-2.6939918594736E-06	-6.01442434185158E-07	-8.53603305812441E-06	5.48363909686014E-06	0.970252858570262	-0.236133891394708
10	-0.000569908706235409	0.00745637272316779	4.33932097421301E-07	-1.75649914704533E-06	-3.07768598729928E-06	-8.00418507407008E-06	0.971119538416162	-0.237550113462333
10.1	-0.000574554007734284	0.00768964410822738	2.24564973075542E-06	4.78900094978764E-06	-3.12584313344207E-06	9.87677592896271E-06	0.970330517815914	-0.2403078156616
10.2	-0.000443471018383558	0.00814167509458553	-5.3807880024296E-07	-1.05268375676061E-06	-1.20921895261101E-06	-3.12790195591582E-06	0.969385148149789	-0.241644866145696
10.3	-0.00016649689539837	0.00849688505598247	1.13472823655416E-05	-2.92508650597121E-06	1.00953640282537E-05	-4.84609148393321E-06	0.968672779277148	-0.243197364853099
10.4	0.000100777599244363	0.00884630782040965	-6.3333876678728E-07	2.15492528362498E-06	3.04474968814921E-06	-2.18955156724013E-06	0.968024174779053	-0.244891730959194
10.5	0.000731630079465159	0.00926962000386146	-6.13620198023082E-06	4.65823625276504E-06	1.57527534233151E-06	4.32373425788014E-06	0.967821335592537	-0.24755284874299
10.6	0.00126127423950161	0.00932679663936448	-7.13289687841179E-06	1.07202719133916E-05	7.04925044725232E-06	4.28675022175185E-06	0.967087351886893	-0.250105688935718
10.7	0.00192835003877208	0.00942269349632457	-3.22717395645051E-06	1.57132836460162E-06	-5.38914199314269E-06	3.1796217003273E-06	0.966838543821867	-0.252908840950066
10.8	0.00249653254557521	0.00924527796312965	-1.93670244745366E-06	5.01029494841109E-06	8.55295621816101E-07	-3.21540856450908E-06	0.966360400331709	-0.255566696288155
10.9	0.00271478999599648	0.0091857225387968	-5.77542361692536E-06	-1.05697891845214E-05	4.95331979646072E-06	1.07494056658908E-05	0.9658424430885	-0.258038502035344
11	0.0033587596059902	0.00929457598343218	2.97822470765534E-06	2.62356687813539E-06	7.86106769026581E-07	-1.12779025407726E-05	0.965161465119146	-0.260267790091094
11.1	0.00373398942810575	0.00907391006596126	3.87195297871286E-06	1.46214889634916E-06	2.54963643309627E-07	-7.39998851448885E-06	0.963877348253301	-0.262397167381919
11.2	0.00424818809302485	0.00902698101682525	-4.43283788993715E-06	-1.97699168204007E-06	-7.35132180827305E-06	-4.86585987538482E-06	0.962527611204614	-0.264244451835744
11.3	0.00491755424368192	0.00870838679604458	6.61238172994773E-07	-6.40216178631721E-06	3.79017962480729E-06	1.41894335211692E-05	0.9614146214357	-0.266010171349487
11.4	0.00527290970533819	0.00826291136550888	-5.1251945407968E-06	8.17398115982946E-06	-1.45921400402873E-06	4.09135583334088E-06	0.959739981007323	-0.268310450839168
11.5	0.00574392622107661	0.0078164456715599	4.53803094009197E-06	8.11116843137647E-06	-9.3104401208543E-06	1.58859711789602E-06	0.958922169443513	-0.270026641146032
11.6	0.00578517838728075	0.00698754340464416	-3.85300597372228E-06	1.4071536529801E-06	5.09823090376604E-06	8.15932940176402E-06	0.95812285566035	-0.273889797098092
11.7	0.00567682835876951	0.0064934912143404	2.26578492018187E-06	1.05588579596503E-05	5.38912688807273E-07	-3.66094092605301E-06	0.956530656366505	-0.277395511955608
11.8	0.00557462698083632	0.00616342306891002	1.43867741940737E-06	4.47235023338424E-06	2.26216353675626E-06	4.54552101177361E-06	0.955137320647002	-0.280375872944271
11.9	0.00546373887753317	0.00610217073462611	7.47211300521881E-06	1.05858966192594E-05	3.89215155929106E-06	4.02534638084256E-07	0.954771435674693	-0.281557536705444
12	0.00594245260729473	0.00607114486761598	2.35769364598089E-06	-5.17509419129948E-06	-4.04236133511798E-07	1.75755445125478E-06	0.956604722282913	-0.283924002189266
