# GHZ S RI R 50
0.2	0.000498202801724559	0.0014627718624332	4.80802153735085E-06	-2.98213098808901E-06	-1.37760766327536E-05	1.3120143982261E-05	1.00114579708682	-0.00610616018595601
0.3	0.00102324223097863	0.00104473499092059	2.86208140387957E-06	6.64548531431642E-06	-1.65305498619256E-06	-9.34417589114607E-06	1.00145686396678	-0.00896908375435958
0.4	0.00135514927975695	0.00105334431889692	-1.86414449339553E-06	-4.030128965831E-06	-9.04765637191206E-06	4.40789254531872E-06	1.00222391604189	-0.0116452669366715
0.5	0.00248087324218368	0.000479280966999069	-5.37213618321687E-06	3.2741482943319E-06	-2.12977583289697E-06	6.77669066367036E-06	1.00250977530714	-0.0162607267374134
0.6	0.00186234088087202	-0.000864390176378509	-1.41506373359067E-07	2.81137568649912E-06	-5.82566916938267E-07	-1.34701740545389E-07	1.0010825792209	-0.0190678798025427
0.7	0.00115540008193641	-0.000851107405970813	8.58336583612723E-08	2.22542861915103E-06	4.92082272096664E-06	-3.40597767296913E-06	1.00091185650098	-0.0211663030386888
0.8	0.000791042828884479	-0.000758441389105063	4.5436316548792E-06	8.3380499826975E-07	2.75154042017865E-06	2.01059614033633E-06	1.00109138423422	-0.0229489260573691
0.9	0.000231301030262387	-0.000309362867925459	-1.48188991788955E-07	-4.2370822585672E-06	-3.42984220801372E-06	-3.12671008915894E-06	1.00146666953119	-0.0248066042891879
1	0.00112012598730387	0.000854168262433696	1.06574103208656E-06	4.31426138231805E-06	3.34446554073188E-06	9.38297106308805E-07	1.00308135420768	-0.026323947289031
1.1	0.00185441951241017	-0.000683690632725793	9.08475568750128E-06	5.14124509359579E-07	-3.59487808432101E-06	-4.98954625048518E-07	1.00289004153165	-0.0304414116811465
1.2	0.00100185290974816	-0.00174909772979408	3.77584986508736E-06	-1.20825025885272E-06	-4.11643287455035E-06	-2.44450232655976E-06	1.0013486860019	-0.0321588888426952
1.3	-4.68559376412028E-05	-0.0029246523348341	-7.66777332453077E-07	-1.4311869431692E-06	-2.61057571993063E-06	-8.73648440304243E-06	1.00043416522744	-0.0337963720957028
1.4	-0.00130115678972572	-0.00369694957805276	2.15020003573512E-08	3.45858413816973E-06	-4.30400764367072E-06	-4.1315807638673E-06	0.998967811846569	-0.0360136758866255
1.5	-0.00109987127018625	-0.00426618552512667	-1.29354462024121E-06	4.44569435035112E-06	6.55821086875992E-06	-7.44865367672424E-06	0.999889364036048	-0.0392685980547638
1.6	-0.00224823867894802	-0.00470740469637098	1.63448696453016E-06	-4.93858625462486E-07	4.24737072591164E-06	-5.42123978972409E-06	0.999051911357757	-0.0427582093169906
1.7	-0.00249902162462359	-0.00386520727697077	5.41500001753908E-07	3.97226445515253E-06	-8.31180090778322E-06	3.1588175835945E-06	0.999806969473869	-0.044608685004542
1.8	-0.00237698238301239	-0.00322611626016367	1.84233962569086E-06	1.07921956667073E-06	5.64250061336219E-07	-1.77045746469211E-06	1.0002582242571	-0.0469419019465893
1.9	-0.00208114124417089	-0.00249985986584347	3.25460435918229E-06	3.02720093639815E-06	-1.86887570312279E-07	-2.3405620887877E-06	1.00083391216972	-0.0479513768382621
2	-0.000565742675739678	-0.00264043114531929	-1.73777869873818E-07	2.02053048129093E-07	-1.22448416774853E-05	5.46978447321854E-06	1.00446582691726	-0.0509800248800094
2.1	-0.00113660578606835	-0.00420132666966011	6.67191377489603E-07	-1.39506829607564E-06	1.39287989472104E-05	4.94366754460432E-06	1.00352229953417	-0.0573461025887987
2.2	-0.00214042925697731	-0.00428241897517225	1.64724678235795E-06	-1.5341887785523E-06	2.67285145846738E-06	-6.26195327012792E-06	1.00182075029149	-0.0601183536350883
2.3	-0.00301434407872119	-0.00411936961301167	-1.71504586922514E-06	-3.43808973992966E-06	-1.82489090885067E-06	-4.60916487784011E-06	1.00083700988726	-0.0618498908898818
2.4	-0.00392225001773526	-0.00339308785982002	-1.23526939034002E-06	-4.41918283008836E-06	3.06987913909949E-06	1.07545118431826E-06	1.00051213847123	-0.0648110115861734
2.5	-0.00326391172189464	-0.00227758773414457	5.44663736838714E-06	5.660819685402E-06	-2.51311147124236E-06	1.62440402979704E-05	1.00042542427917	-0.0672828108519958
2.6	-0.00308625843423856	-0.00319575335086783	-2.26993477167242E-06	2.73665053824383E-06	4.09839417223272E-07	-4.33199692926906E-06	1.00010511266224	-0.0706977122600388
2.7	-0.00363362669248844	-0.00334096619052675	-2.43921951802769E-06	-3.63905146818923E-06	2.14932458927545E-06	-2.59516674583913E-06	0.9996624604516	-0.0740690533114464
2.8	-0.00412491378589607	-0.00321196535710985	4.03630177819155E-06	2.29690834364713E-06	9.87425125519278E-06	-7.54791917617272E-07	0.999533212901383	-0.0767088994774541
2.9	-0.00430776272427118	-0.00257342461160719	1.29443999464096E-05	6.18621082891076E-07	2.36514962710526E-06	-1.17873429259951E-05	0.998750047229954	-0.0791615062540897
3	-0.00322300750451336	-0.00251973005762286	-3.85874381894029E-06	1.07980111431356E-06	-4.17197308379563E-06	-1.57221629472973E-06	0.998252670505022	-0.0820221009667936
3.1	-0.00369519340825759	-0.00348940881936334	4.72388435425734E-06	-9.91322457244866E-06	1.0738305653846E-05	2.34004189841042E-06	0.997267448609145	-0.084561449515461
3.2	-0.00428579404793784	-0.00337479833638148	-5.44772254460607E-06	-7.38993965799646E-06	1.57313482454874E-05	5.27816083224122E-06	0.996227297585372	-0.0866220552892214
3.3	-0.00472094061490814	-0.00317744407439723	-8.79288807200209E-06	2.62880422731653E-06	-8.60298452618842E-06	-1.66990192074318E-06	0.995045945110811	-0.0901557199649439
3.4	-0.00512357971330985	-0.00255207389979298	8.99883292537232E-06	-7.65587696344175E-06	-7.31367467600691E-06	4.30908154257246E-06	0.993513195665014	-0.0920271316365171
3.5	-0.00422434533898387	-0.00238172824563513	2.75467710941665E-07	-5.32100198943242E-06	-4.46825652164598E-06	-8.88867830385767E-06	0.992921781931912	-0.0931932104929625
3.6	-0.00498049232741544	-0.00344588118500405	4.11046816277643E-06	4.87083426116481E-06	-7.04204660284773E-06	9.04953966315104E-06	0.993160181754005	-0.0963064982890611
3.7	-0.00608348988727901	-0.00303858538199688	1.49072958521933E-06	-4.53907096071235E-06	-5.15696407182667E-06	-6.54405446934826E-06	0.992141602228457	-0.0992664520558517
3.8	-0.00673397341048905	-0.00218357875501139	7.22975900777383E-06	-5.25180010517449E-06	-5.89468977328865E-06	-2.36758235838353E-06	0.990979716173845	-0.100846913741906
3.9	-0.00675306770879228	-0.00081587793413638	-4.02668978515855E-06	-3.20041389875088E-07	-2.51883582469275E-06	1.15003642201041E-06	0.990867702671137	-0.10237606336862
4	-0.00499527246637102	-0.0002778420222039	-3.38692678813324E-06	-5.74197681785398E-08	1.26863175949676E-06	8.66647208890484E-06	0.994110885569503	-0.104292678873294
4.1	-0.00496899614286253	-0.00154228871649243	-2.93670190181959E-06	-3.83144546233446E-06	5.90639429883605E-06	2.97996857983489E-06	0.992232797795395	-0.109808132074679
4.2	-0.00555434720955343	-0.0016102368820235	-7.92732592463E-07	-2.14554792289651E-06	5.67139862399645E-06	-1.89554342092937E-06	0.989483073570401	-0.112322895827979
4.3	-0.00597445901246665	-0.00131604297255863	-4.78843410908628E-07	3.23140363709527E-06	2.14090570855771E-06	1.75516596939217E-06	0.988261770762423	-0.113814589500766
4.4	-0.00629231393610142	-0.000487797069147607	2.60273740822896E-06	3.40627232496521E-06	7.19944661899859E-06	3.82926058376991E-06	0.987429807694343	-0.115804102643469
4.5	-0.00493231131123669	9.22970711126435E-05	-6.44248626633717E-06	-1.55942422462927E-07	-8.56126851720301E-06	-2.00585145666104E-06	0.986633495251453	-0.118856073059633
4.6	-0.00518961260363305	-0.00125002943256052	-9.96080209868673E-06	-9.06433062962794E-06	3.1864329457374E-06	-2.74168253715972E-06	0.984087741161309	-0.121159915374069
4.7	-0.00601940237093762	-0.0012238738124045	1.4082557643454E-07	1.85025297990249E-06	5.95925598964173E-06	-6.73501341775178E-06	0.983202127823122	-0.122134759692618
4.8	-0.00664271577591381	-0.000830469226921049	-6.32945202128159E-06	2.1143370262989E-06	6.77010740947087E-07	-1.26576997772361E-05	0.98234979683447	-0.123942485282478
4.9	-0.00696583613361971	0.00012351248434044	-3.33332341926242E-06	8.10573527214236E-06	6.34551127581046E-07	9.29763967908881E-06	0.981381429804169	-0.125181457266169
5	-0.0055960216936349	0.000457349993034368	9.52002993800839E-06	-4.09509654382395E-06	-6.84253274154747E-06	3.59538902931165E-06	0.980778529587261	-0.126209158204487
5.1	-0.00610948014561007	-0.000540306769691502	-3.82369703169413E-07	-3.2190871415607E-06	-3.8482220947038E-06	-1.75268364971942E-06	0.980114677989541	-0.127027742411888
5.2	-0.0066163121063122	-1.75812046842633E-05	-1.08282023905049E-06	-4.43901125090963E-06	8.73632474067351E-06	5.47543201711063E-06	0.979537221647628	-0.128443975874945
5.3	-0.00655831179575168	0.000643023774466602	2.30365297695798E-06	6.7142614815752E-06	8.72760963912349E-06	3.05251573401016E-06	0.979054107534073	-0.130313835085508
5.4	-0.00608449059568217	0.00159744949366345	2.65770863751476E-06	-3.12382462014808E-06	-2.6444847493514E-06	1.68182999213138E-07	0.978067316869486	-0.132615913638707
5.5	-0.00397446788721222	0.00126145507956545	2.11563003812359E-06	9.19039938935764E-06	-3.8904234075044E-06	-4.95446463122734E-06	0.977847577010943	-0.133508578489125
5.6	-0.00501325799565057	-0.000525729712862325	-5.79094828349667E-06	-1.10820936839355E-06	4.8208526448555E-06	1.91135114955627E-06	0.977988700221787	-0.1361841833592
5.7	-0.0063574470559183	-6.52836446721396E-05	3.29669754234327E-06	-1.41322055927102E-06	-4.9992709565765E-06	-4.23497753135625E-06	0.976921374849615	-0.137993349734276
5.8	-0.00718125039854091	0.000864535006417608	-2.03551565639501E-06	-4.69029194350239E-06	9.35108397125039E-07	-5.76447183507332E-07	0.97631052440514	-0.138683205637824
5.9	-0.00776722294591161	0.00272161066752611	-3.8385269705618E-06	6.09503051488706E-07	3.82021608244356E-06	1.23931814120297E-06	0.976933633541349	-0.138088597051574
6	-0.00557136295524147	0.0046639992502005	-5.89410683233406E-06	5.01130046920094E-06	-1.47424070249804E-06	1.9498836296763E-07	0.982022931953944	-0.14033772006036
6.1	-0.00461630886828308	0.00316025803586676	-5.88850818963097E-06	-4.6423864806655E-06	-3.97087744481026E-06	4.38562859126671E-07	0.980162579758626	-0.145940223381817
6.2	-0.00501223290221684	0.00274059981738115	2.79723198090179E-06	3.09006940139877E-06	1.04340878705555E-06	7.1399752798263E-07	0.977811321013667	-0.14688873940651
6.3	-0.0053870772259034	0.0026725406311412	1.62442186118425E-06	-7.41289923374725E-07	-1.31397452362575E-07	1.36171855048324E-06	0.976686100974543	-0.147691846066568
6.4	-0.00552844793057595	0.00334399257824463	-5.13563738696808E-06	-5.56830057443656E-06	3.77978489884991E-06	6.84511852515463E-06	0.976898924197486	-0.148612731538568
6.5	-0.00381901028515769	0.00263065771881652	8.9727761097763E-06	-2.64340610351126E-07	-7.24951557251055E-06	-8.73585219634163E-07	0.976705167148947	-0.15367810428055
6.6	-0.00524049260271397	0.00133562957140258	-1.46883621747572E-06	4.59355820764561E-07	3.33414649355586E-06	-9.25388076155622E-06	0.972780758342873	-0.154275912074082
6.7	-0.00597110580017948	0.00203173072205265	2.40521968905628E-08	7.64989311339568E-06	-4.69522506882408E-07	-6.00755649149737E-06	0.972754292980109	-0.153691631425089
6.8	-0.00628935279622296	0.00275616238051458	4.18696742734444E-06	1.65485571617473E-06	2.34915285373466E-07	-5.16873699428978E-06	0.973173912703822	-0.154290394505282
6.9	-0.00624719039499774	0.00434315519677826	-7.47791966351988E-07	2.40804456924702E-07	5.70556330822344E-06	-2.61716882269397E-06	0.973852648395621	-0.154571210097082
7	-0.00340791594146074	0.00463057366410449	7.96015131768333E-06	-4.65323233417436E-06	4.48644655946599E-07	-2.9832708803227E-06	0.976191891065166	-0.156340715745873
7.1	-0.00423057784797029	0.00243617861900013	3.79089247421669E-06	2.04733916905886E-06	7.16105814360246E-07	7.15698308042602E-06	0.974909531121555	-0.15951412479386
7.2	-0.00557379581204092	0.00277556061031502	-2.44891201165394E-06	3.63570980733685E-06	-1.29157456342975E-06	-3.79671978678355E-06	0.973429024807943	-0.160443985198973
7.3	-0.00662900344994948	0.00357985543069953	3.40626439840118E-06	-4.64123574262338E-07	-2.41002183637395E-06	-1.91448243017235E-06	0.971652458094463	-0.161266562044674
7.4	-0.00777580450587663	0.0055616941671687	-6.08959395281305E-06	-2.71147107349518E-06	3.72055338249968E-06	2.72246480191251E-07	0.968683577309223	-0.160888112794787
7.5	-0.00561626836941567	0.00796571952301999	6.7433349066128E-06	-6.26301020112154E-06	-2.45457072707736E-06	7.58115329741091E-07	0.970919540416588	-0.156894479407242
7.6	-0.00492417575225492	0.00670258691548332	3.37517079060885E-06	5.19905696575311E-06	-1.02059375358864E-05	4.73271515988971E-06	0.974895551217884	-0.161579002187368
7.7	-0.00515368913141537	0.00697759706493392	5.813815261001E-06	1.09200515470275E-05	4.91549579303177E-07	-1.12449768583354E-05	0.975042817782041	-0.165219926580748
7.8	-0.00481170188922663	0.00733398628047839	2.12158319677747E-06	1.00808102931824E-06	-3.21305414332961E-06	8.69388509213664E-06	0.975479926534966	-0.167639965017904
7.9	-0.00373604449644623	0.00800147496991309	2.57423959997603E-06	-2.25062072956703E-06	3.6535298923702E-06	4.05542832236976E-07	0.977359048337426	-0.168482148334996
8	-0.000845572588569576	0.0063139584300354	-2.83337576565944E-06	1.27442196560398E-06	6.90113214727649E-06	-1.7266085867524E-06	0.98421789343786	-0.173341274685292
8.1	-0.002106498949985	0.00396611305271901	-1.80220897892029E-06	7.28449812970786E-07	-3.68866005030699E-06	-1.30907431336597E-06	0.982063040268567	-0.181396591215798
8.2	-0.003152098131854	0.00395899286075041	-8.8448548428902E-07	6.3198108908586E-06	4.81165005091289E-06	4.42176633531221E-06	0.980149082058139	-0.183642671966855
8.3	-0.00382938565889628	0.00434907447451427	-6.55245842319929E-07	-1.42297276710404E-05	6.75120618089836E-06	5.52444493549163E-06	0.979612350142399	-0.185857910402095
8.4	-0.00415513893332878	0.00586462735464084	3.81026933133823E-06	-3.38508125309306E-06	-6.96604683310139E-06	-1.31131372733487E-06	0.979744251602136	-0.188186487762015
8.5	-0.0014482381068264	0.00636946675414365	4.66654679475145E-06	6.39417163252747E-07	8.49090730970306E-06	-6.7356835869623E-06	0.979798789406958	-0.191998766425331
8.6	-0.00203790852224991	0.00416463378151014	-3.32457270040383E-06	4.06915824238025E-06	8.53297136913433E-07	1.1105290876918E-05	0.978684148860849	-0.194301897425589
8.7	-0.00328027520658928	0.00439358719089572	2.71733000280426E-06	-1.96294986530639E-06	4.87570357221608E-07	-5.47648436223817E-07	0.979126096419149	-0.196248472379351
8.8	-0.00404909903883153	0.00523777593745464	1.40738507291985E-07	-1.25592410904974E-06	-1.11798314283918E-06	9.78985306746907E-06	0.979719307868172	-0.198383877637973
8.9	-0.00434234825972152	0.00709119442313265	-3.71526946177925E-06	2.25621027082321E-06	4.88484994414021E-06	-1.74809301677961E-06	0.980638427464759	-0.200414957178805
9	-0.00152429635040361	0.00837071949649443	-1.90613506928531E-06	4.75710088799433E-07	-3.09006820989187E-06	-1.06309384310223E-05	0.98164530694252	-0.202505143809818
9.1	-0.000760379799820664	0.00681440947670487	5.27734962342766E-06	6.65971970880792E-07	9.13548890049677E-07	3.96899372095184E-07	0.982844920412077	-0.205103616289369
9.2	-0.000287912426124645	0.00656267199148637	-8.7327659055736E-06	-4.72423410042561E-06	-8.10131233769965E-07	-6.18681463804563E-06	0.983408040624843	-0.208591610941021
9.3	0.000321600344335057	0.0060594843120195	1.17681863283186E-07	6.268090240659E-06	4.7017953266497E-06	-2.1579255291321E-06	0.983237330595968	-0.212206130662963
9.4	0.000865327828717828	0.00610412384766115	-2.00490002694126E-06	5.90516320370501E-06	-1.06603727015906E-05	7.68362033196928E-06	0.981743774797737	-0.215180345326049
9.5	0.00295682317012219	0.00453190849237214	3.3070408394856E-06	-7.56889661852781E-06	3.74181626822176E-06	-2.70816379346302E-06	0.982630408720541	-0.216230462894321
9.6	0.00117401942974709	0.00217889616346786	4.46222575642642E-06	5.6917623377801E-06	-7.46469641239641E-07	7.12823642981899E-06	0.983714228622903	-0.221285937739884
9.7	-0.000406496037745117	0.00233840637772965	-2.58084948323323E-06	-4.01402323370906E-06	3.82981595913016E-06	-7.55419894913725E-06	0.982979739804117	-0.224804157628753
9.8	-0.00155518474487563	0.00301532872450092	-4.76296065872903E-07	-4.2689691338374E-06	6.3351012253219E-06	9.80430445693867E-07	0.982706892952654	-0.226820607752969
9.9	-0.00222984558816215	0.00482186547547073	-2.7153459031391E-06	-6.40778056822943E-07	-8.69400989289125E-06	5.43773757330274E-06	0.983700707393512	-0.226708049530587
10	0.000156642840000751	0.00569435883141516	4.57870049156389E-07	-1.77877935240379E-06	-3.04507599170338E-06	-8.15571313585776E-06	0.989867293772174	-0.231242400358594
10.1	-0.000362538750819405	0.00406035212092929	2.24647728583933E-06	4.87004789868921E-06	-3.23226857551741E-06	9.9945614755093E-06	0.986747671393963	-0.238274512381396
10.2	-0.00138028817905164	0.00449757118490075	-5.39052147217232E-07	-1.06985443886413E-06	-1.20692656090417E-06	-3.17663238658598E-06	0.984569813571915	-0.239960296152342
10.3	-0.00197315499167899	0.00557000825160083	1.15186032101977E-05	-2.90437523529696E-06	1.02598118702316E-05	-4.85844021213788E-06	0.983732252141975	-0.241924359072959
10.4	-0.00173573482087031	0.00770268912032303	-6.50832287983084E-07	2.18418416189727E-06	3.09780871446879E-06	-2.21015774248578E-06	0.98363822367473	-0.244567000352796
10.5	0.00151933894757028	0.00836025602977765	-6.22014716994388E-06	4.71314095641088E-06	1.5917916486135E-06	4.38132746021826E-06	0.982712280911465	-0.249991514894166
10.6	0.00209657037189625	0.00686826708806707	-7.23881334449456E-06	1.08322351504394E-05	7.12369316406251E-06	4.35163643993897E-06	0.980311300856786	-0.252237925620327
10.7	0.00245948968887714	0.00650860310576975	-3.27098984221826E-06	1.58543534218919E-06	-5.4633171247632E-06	3.21023330031743E-06	0.980334010024384	-0.255242782306902
10.8	0.00254383427257629	0.00613220843500555	-1.96593119012508E-06	5.07587257385834E-06	8.68879350600169E-07	-3.25775483077646E-06	0.980001755841472	-0.258743984695605
10.9	0.00263097076550197	0.00698536197449131	-5.86324535376607E-06	-1.07089042161544E-05	5.03008942877098E-06	1.08916764229584E-05	0.979345563460652	-0.261537768761223
11	0.00546395615694575	0.00658767773589888	3.02111046695828E-06	2.65145073672241E-06	7.75033307380092E-07	-1.14231869962414E-05	0.979238038758884	-0.264034370510394
11.1	0.00481751363593559	0.00423653859068238	3.92622635427901E-06	1.47220701143004E-06	2.40853005776896E-07	-7.49772370304332E-06	0.97831246117308	-0.267222140103506
11.2	0.00396588240394691	0.0039940982333453	-4.49835870961982E-06	-1.98642470576484E-06	-7.46589019043991E-06	-4.90232851787456E-06	0.976971034414761	-0.270252496016707
11.3	0.00333403895681385	0.0042501697384174	6.35694929239584E-07	-6.48373799793555E-06	3.91091085952308E-06	1.43426434333033E-05	0.974805677632386	-0.273257987593172
11.4	0.00310341153989535	0.00543469435915342	-5.12573411217249E-06	8.28823881553991E-06	-1.4483528880945E-06	4.14163929206301E-06	0.971252037177584	-0.275688099111488
11.5	0.00564670675020937	0.0051631885673055	4.6115157410851E-06	8.17157885121926E-06	-9.3932735077595E-06	1.63843496663364E-06	0.972265671168995	-0.275815335901405
11.6	0.0047053489136007	0.00300476489810551	-3.89036980128258E-06	1.44228254754427E-06	5.19697020376702E-06	8.22803158629964E-06	0.972192175499648	-0.282691356658412
11.7	0.00354001469240788	0.0032342899833673	2.35914509831824E-06	1.06620673080714E-05	5.21322130328718E-07	-3.70526510729306E-06	0.96937289506859	-0.287724967286869
11.8	0.0030919949976304	0.00424603304109053	1.48460038329147E-06	4.5092737392166E-06	2.31721736479659E-06	4.57753013649466E-06	0.966716825195622	-0.291079907574451
11.9	0.00414020242154289	0.00633879435913397	7.61871040264072E-06	1.06604702190467E-05	3.93823063778245E-06	3.83995561198451E-07	0.966819021307175	-0.291010398250951
12	0.00823501477462267	0.00569433561329068	2.35083336053966E-06	-5.27223312644148E-06	-3.95941620263905E-07	1.7873015855852E-06	0.972117285435241	-0.29673411561434
