# GHZ S RI R 50
0.2	0.00084179060727734	0.00272052487260823	4.7915092502193E-06	-2.98588620147266E-06	-1.3719145481033E-05	1.31211557652747E-05	0.999292713370644	-0.00697838293118663
0.3	0.00132597866566313	0.00192873329749133	2.86651010480193E-06	6.62357934399229E-06	-1.66530169625177E-06	-9.31754682851977E-06	0.999152646316563	-0.00985896819894995
0.4	0.00163856320505916	0.00134292164820872	-1.86257201939791E-06	-4.01394823576784E-06	-9.01106123721993E-06	4.40359206135985E-06	0.998995850266889	-0.0125473876974096
0.5	0.0015779159008986	0.00101928507637727	-5.35677757809024E-06	3.2620402446269E-06	-2.12572998271208E-06	6.75498212352663E-06	0.998556050822305	-0.0153216630832663
0.6	0.00194863647985245	0.000849451373468046	-1.39172268860526E-07	2.80498047822041E-06	-5.81316949668436E-07	-1.33974573625997E-07	0.998921235115974	-0.0181414577743509
0.7	0.00208187522414836	0.000446375950763804	8.82586091743394E-08	2.21803621721016E-06	4.90056601964488E-06	-3.40080703024329E-06	0.998584586787207	-0.0212116356979667
0.8	0.00216230449582673	0.000105765698519828	4.52584356531564E-06	8.25005004739673E-07	2.74254291939721E-06	1.99904677964158E-06	0.998291887808694	-0.0234136889759845
0.9	0.00216030388976177	-0.000280993651031935	-1.51725025011071E-07	-4.21529105458026E-06	-3.41549206626762E-06	-3.10726525871341E-06	0.998150938315494	-0.0259123984993909
1	0.00175189421893114	-0.000685873613772629	1.05828280599344E-06	4.28874097717231E-06	3.32423700660277E-06	9.33531442156205E-07	0.997567121848169	-0.0275716947376876
1.1	0.00148114973888945	-0.0004967112384297	9.03759741047434E-06	5.20139733460232E-07	-3.57593576933662E-06	-4.99816823801118E-07	0.997350570250451	-0.0291800050738217
1.2	0.00140170131832373	-0.000803664557168233	3.75931672014029E-06	-1.19826887539049E-06	-4.09416917859324E-06	-2.43755614665908E-06	0.997061832351248	-0.0299518042642308
1.3	0.00109414547251015	-0.00145641306140062	-7.61256785105551E-07	-1.42678991748817E-06	-2.58514183847528E-06	-8.70608665296493E-06	0.997752683343021	-0.0305350745674618
1.4	0.000609352736807344	-0.00247922743233192	1.40932412868016E-08	3.44795303381054E-06	-4.2819499280045E-06	-4.12796362041933E-06	0.998026743344577	-0.0327191763707687
1.5	-2.15836472423766E-05	-0.00307799666627042	-1.29768006781147E-06	4.42968402389523E-06	6.55165662505237E-06	-7.41382115996109E-06	0.998184311498189	-0.0363460537528765
1.6	-0.000192498656230943	-0.00335924969758166	1.62890433869394E-06	-4.88946193692662E-07	4.2403467032791E-06	-5.39208030469476E-06	0.997423404177676	-0.0398492214835911
1.7	-0.000495588906569407	-0.00357492577460509	5.30792007313884E-07	3.95475298425808E-06	-8.27932485794908E-06	3.12691324230459E-06	0.997292659817715	-0.0425035495590635
1.8	-0.000781847603493779	-0.00355812497549662	1.83074059325649E-06	1.07769771654106E-06	5.65174417947285E-07	-1.76031855994837E-06	0.99691752778618	-0.045328720027332
1.9	-0.0010869226335059	-0.00361283742041133	3.23260025626279E-06	3.0147902242069E-06	-1.82748549665231E-07	-2.32787491526419E-06	0.996336164804077	-0.0478318405692908
2	-0.00156004327552356	-0.00339886388092685	-1.72552462998956E-07	2.00050316504388E-07	-1.21460985881067E-05	5.40490566467746E-06	0.994850586347183	-0.050162844947899
2.1	-0.00150805661171083	-0.00322892171537833	6.67957797527767E-07	-1.37997045594021E-06	1.37860612448936E-05	4.96608219875741E-06	0.994914234980516	-0.0515625610421903
2.2	-0.00169006963953631	-0.00336592058151984	1.64291884227281E-06	-1.51395794546337E-06	2.68569635164662E-06	-6.20071055774719E-06	0.995142889667774	-0.053910633926576
2.3	-0.00208000400278573	-0.00349628194932669	-1.68351830130837E-06	-3.42273612357055E-06	-1.78605807745593E-06	-4.58594469751097E-06	0.994897092534264	-0.0556924623131155
2.4	-0.00261066662877585	-0.00361841926152062	-1.19882407456936E-06	-4.39472062957486E-06	3.04087037587261E-06	1.08670692465037E-06	0.994880027524237	-0.0587681986160191
2.5	-0.00348852737263266	-0.00345144513534005	5.37020107982361E-06	5.6652123819363E-06	-2.6173647025054E-06	1.6122402909479E-05	0.994295380753398	-0.060899925911191
2.6	-0.00387034041371389	-0.00282019074132689	-2.27575485081109E-06	2.70602126864035E-06	4.36832865418041E-07	-4.30503044874449E-06	0.994277981301024	-0.0634248943122196
2.7	-0.00393984065179597	-0.00238889130429049	-2.39963377521442E-06	-3.63377518393467E-06	2.1540994846331E-06	-2.5648229963413E-06	0.993961468126836	-0.066129640274444
2.8	-0.00386979761186148	-0.00207975423295904	3.99394450384214E-06	2.31294347701017E-06	9.81850996839021E-06	-6.75923064818323E-07	0.994302344152945	-0.0679246409674133
2.9	-0.00371121703473052	-0.00194667334362612	1.2862989095322E-05	7.2504820794575E-07	2.45146361406778E-06	-1.16978881774032E-05	0.994298827131851	-0.0699233359532681
3	-0.00362444409640309	-0.00176392890344197	-3.85104908649432E-06	1.04103298201076E-06	-4.13954536600096E-06	-1.6019219036148E-06	0.994353391525665	-0.0724379212091125
3.1	-0.00318006498822209	-0.0017783987503539	4.78679134630566E-06	-9.82827155865875E-06	1.06698849458819E-05	2.42073536015722E-06	0.994306227009981	-0.0743641212874036
3.2	-0.00307925346696624	-0.002101295108108	-5.35631633602126E-06	-7.40997217705949E-06	1.56169084996378E-05	5.40268712271915E-06	0.99437423985266	-0.076211857215792
3.3	-0.00318420960888536	-0.00243265940760156	-8.79104412432827E-06	2.5309341210493E-06	-8.55808326687351E-06	-1.75188399213647E-06	0.994480386327017	-0.0795452016029272
3.4	-0.00356035773027419	-0.00275311013308075	9.06891113540383E-06	-7.54639062411636E-06	-7.34977378116665E-06	4.22294314442296E-06	0.994759291527001	-0.0817734317706426
3.5	-0.00418808956866842	-0.00276900725989246	3.24116824839883E-07	-5.32021655635006E-06	-4.3885896512791E-06	-8.93234318308543E-06	0.994333996111014	-0.0850205684869537
3.6	-0.00446931454165273	-0.00262089868957755	4.06340148503498E-06	4.90271668716023E-06	-7.11569798858322E-06	8.97857314755398E-06	0.993826114936133	-0.0871572883943217
3.7	-0.00490493490095425	-0.00255136160985288	1.53440542716035E-06	-4.52210346458034E-06	-5.09018432413293E-06	-6.59114539966369E-06	0.993904236753687	-0.0896449894694816
3.8	-0.00534772406593364	-0.00229007188316825	7.28516260786309E-06	-5.18183103900004E-06	-5.87350659354458E-06	-2.42738638489289E-06	0.993781998940052	-0.0917056702603324
3.9	-0.00566488481291868	-0.00190070284815148	-4.02768986640414E-06	-3.56822500306322E-07	-2.53169097988007E-06	1.1283359008164E-06	0.993733399151862	-0.0950477356603788
4	-0.00587320742131037	-0.00127666116095183	-3.38247821324506E-06	-8.90347869696663E-08	1.18610042467581E-06	8.66833020317401E-06	0.993001487924085	-0.0961056583219139
4.1	-0.00547681816049351	-0.000845764343870064	-2.89176421301239E-06	-3.86830487730846E-06	5.87288204552819E-06	3.05222436739453E-06	0.993565570611359	-0.0974114019727991
4.2	-0.00529372642435293	-0.000847889176803607	-7.68885035575472E-07	-2.15994397643663E-06	5.70706100487181E-06	-1.83204850346147E-06	0.993538178602231	-0.100236886842708
4.3	-0.00528489722125429	-0.000870665627601536	-5.18212853226121E-07	3.23627448529127E-06	2.12730479443666E-06	1.78591054047365E-06	0.993672576265391	-0.10242740311804
4.4	-0.0055157939983608	-0.000922875941573167	2.57124618135148E-06	3.45035574579474E-06	7.17990379344378E-06	3.93044493908107E-06	0.993456641124789	-0.104960934545345
4.5	-0.00595198494139821	-0.000580882077128434	-6.47932739517448E-06	-2.44304339112331E-07	-8.58582007080738E-06	-2.1341496420505E-06	0.993478642329409	-0.107024086044329
4.6	-0.00597669483169925	-0.000209651868716069	-9.94037834370515E-06	-9.25635789570023E-06	3.24514826421379E-06	-2.72806291123577E-06	0.993484200177663	-0.110018688005332
4.7	-0.00606366595677276	-1.16326036947628E-05	1.22863600946605E-07	1.86782071124264E-06	6.08097908769379E-06	-6.73184475408075E-06	0.993455257271307	-0.11217119005394
4.8	-0.00619175191909085	0.000236591545374493	-6.40676921393776E-06	2.07040487136758E-06	8.08540214001374E-07	-1.27636833020428E-05	0.993192032756308	-0.114715607438891
4.9	-0.00625910798808413	0.00046664522462065	-3.4466863311284E-06	8.14873570908769E-06	5.46678064710978E-07	9.39197368390085E-06	0.992969715839272	-0.116626050493772
5	-0.00627552020182764	0.000885426817080082	9.66900405882353E-06	-4.05240221249417E-06	-6.95577935953048E-06	3.57225115308059E-06	0.992986065312312	-0.118405889682983
5.1	-0.00578950286901493	0.00105521391175944	-3.62241206330757E-07	-3.25896210534609E-06	-3.87905881104347E-06	-1.80211945015119E-06	0.993050677989321	-0.119953569802508
5.2	-0.00558388976981692	0.000990451014173863	-1.06233029589169E-06	-4.49779394842797E-06	8.79568403562279E-06	5.60274480722367E-06	0.993022265657006	-0.122235650517754
5.3	-0.00544972866291009	0.001007195422068	2.28100672016993E-06	6.81244147658999E-06	8.80984018499701E-06	3.15480163888706E-06	0.993149315448005	-0.124699487830876
5.4	-0.00539778343041582	0.00100286845932695	2.71840783413849E-06	-3.14670608264549E-06	-2.68237000110058E-06	1.50262061578304E-07	0.993519791367161	-0.127982379839199
5.5	-0.00548965612266255	0.00135525008098835	2.10772301274693E-06	9.3481573748034E-06	-3.93047160732992E-06	-5.05207684315395E-06	0.993039179699084	-0.131463433913475
5.6	-0.00517051790858535	0.00140268672516682	-5.8706586123874E-06	-1.14056270256608E-06	4.88439345519978E-06	1.95243398350731E-06	0.99264938382548	-0.133909366717952
5.7	-0.00542011511157314	0.00136562698457157	3.34748174367917E-06	-1.42481997618084E-06	-5.05966023897682E-06	-4.30851315280945E-06	0.992536324135067	-0.136586803610686
5.8	-0.00579332284359935	0.0016259785606868	-2.0583688083868E-06	-4.76199118905584E-06	9.49656109114347E-07	-5.83501948199828E-07	0.992428924293611	-0.139123718917228
5.9	-0.00622092198954736	0.00213722547192926	-3.89119048851481E-06	6.20987513372366E-07	3.87409291678349E-06	1.25344643227281E-06	0.991966201833333	-0.141858870532163
6	-0.00668652233043305	0.0031992635782687	-5.95552024454951E-06	5.06083690008556E-06	-1.48932230117554E-06	1.96587434367747E-07	0.991061306838729	-0.143115504404994
6.1	-0.00604620618181189	0.00426848374033802	-5.95191222957152E-06	-4.71548532020339E-06	-4.02227270456376E-06	4.34510351426578E-07	0.991960948025303	-0.144352193991906
6.2	-0.00530980755248407	0.0044856225628875	2.83447287214153E-06	3.13630670025058E-06	1.05766022055659E-06	7.25007122461082E-07	0.992199801441521	-0.146575391861689
6.3	-0.00474631004350087	0.00421317764170415	1.64690377726598E-06	-7.53190220353489E-07	-1.3212767671718E-07	1.3811940352386E-06	0.99183218917592	-0.149371999548846
6.4	-0.00476250779168425	0.00369230344515244	-5.20998283360825E-06	-5.63358526850065E-06	3.83826995284828E-06	6.92884778896874E-06	0.990880123674996	-0.15194717568365
6.5	-0.0049057922854699	0.00373967617390456	9.10247130245646E-06	-2.59532843019372E-07	-7.3532576875269E-06	-8.93152970273566E-07	0.990634456790296	-0.154352949806891
6.6	-0.00470734157321759	0.00352935511641187	-1.49303614599565E-06	4.7044030874843E-07	3.37117251968237E-06	-9.41992544088271E-06	0.99039233655195	-0.157640831667227
6.7	-0.00482665327341166	0.00350709657540067	6.02119205097137E-08	7.7751024747193E-06	-5.05301549315723E-07	-6.1037781067346E-06	0.989612580999997	-0.160215161142749
6.8	-0.00487954008395271	0.00362736304071609	4.26175778154215E-06	1.65490690049549E-06	2.07039048299438E-07	-5.25004369208555E-06	0.988963130958891	-0.162675716985826
6.9	-0.00508544573785555	0.00376909139810975	-7.57048537903869E-07	2.4961308607564E-07	5.77068313609061E-06	-2.69580440499243E-06	0.988286252303929	-0.1651112360161
7	-0.00523005635666528	0.00456063270000658	8.03694972029341E-06	-4.782176364391E-06	4.31559652151503E-07	-3.02930781658391E-06	0.987231135611216	-0.166890409840186
7.1	-0.00469251312015152	0.00482639298805421	3.86092688942754E-06	2.04179165864831E-06	7.8930178472527E-07	7.24862523162388E-06	0.986794838737988	-0.168700839966272
7.2	-0.00468885573784861	0.00486522793663179	-2.44696556653403E-06	3.70730767555099E-06	-1.3447931822997E-06	-3.83495038183203E-06	0.986036526494707	-0.170739834076075
7.3	-0.00491779391174697	0.00504742161359584	3.44755552685484E-06	-5.04294682559677E-07	-2.46156799286486E-06	-1.91629135560462E-06	0.984909667725387	-0.172814805069102
7.4	-0.00545439762277598	0.00525103222670855	-6.21377531355597E-06	-2.68477514478629E-06	3.78086924656796E-06	2.34631425287555E-07	0.983807576305276	-0.175800553382685
7.5	-0.00625254604126128	0.00622958115346103	6.73536199538893E-06	-6.47252811587217E-06	-2.47794785489105E-06	8.11771416677284E-07	0.98133381179174	-0.178681738919682
7.6	-0.00586553543684706	0.00734687571069125	3.50159309306039E-06	5.19183524140148E-06	-1.02253427436453E-05	4.9617151256745E-06	0.980210466058815	-0.180548714071305
7.7	-0.00556009248255864	0.00788270420446719	6.05835554156921E-06	1.09165734921625E-05	2.98304871418402E-07	-1.13552860498381E-05	0.979847500445799	-0.183427594804549
7.8	-0.00492620042771441	0.00812391996453111	2.15773941090615E-06	9.77041784952337E-07	-3.07830463218111E-06	8.82502787184107E-06	0.97962839964925	-0.186639013922214
7.9	-0.00429041312013964	0.00809435774443256	2.54390978523781E-06	-2.31935833012446E-06	3.68597924439361E-06	3.31577793003529E-07	0.979064499089717	-0.190039895021559
8	-0.00340989526566139	0.0083154669393272	-2.80745531407075E-06	1.33396475878071E-06	6.86678892141083E-06	-1.87128617460804E-06	0.97811422851993	-0.191920880424112
8.1	-0.00232764454801836	0.00765275382625544	-1.78966419448036E-06	7.5892497087165E-07	-3.71045461344156E-06	-1.24639661702696E-06	0.978884895506451	-0.194504081897162
8.2	-0.00198096961711091	0.00701778336013501	-7.79148216257474E-07	6.33680625586377E-06	4.88724984058385E-06	4.34287735217115E-06	0.97882636526741	-0.197457232672695
8.3	-0.0017911298304813	0.0065767704070529	-8.94414999516406E-07	-1.42119854747002E-05	6.84099371536122E-06	5.40821901686689E-06	0.978221686465452	-0.200592389600833
8.4	-0.00189443487184856	0.00626568413785612	3.749971678721E-06	-3.43888767763444E-06	-6.97393211269324E-06	-1.19919700707834E-06	0.977289044705586	-0.203476378156825
8.5	-0.00201854738974302	0.00662983606664368	4.67579151650887E-06	5.73183086849884E-07	8.39557457900547E-06	-6.85647944832591E-06	0.976558546930245	-0.206190047808129
8.6	-0.00151717509605849	0.00658344600000746	-3.25496492918663E-06	4.12547334185924E-06	1.0424534111893E-06	1.10898418988747E-05	0.975874856636225	-0.209159775023068
8.7	-0.00147174466191187	0.00637379457268473	2.67610071781588E-06	-2.00637571832768E-06	4.76712711061951E-07	-5.54974384940902E-07	0.975076196643311	-0.211833012472899
8.8	-0.00150065115642086	0.00638253869788416	1.18324899213461E-07	-1.25273437291256E-06	-9.43176555174187E-07	9.76535235909356E-06	0.974234430076823	-0.214025604875108
8.9	-0.00156358046354256	0.00643347672034221	-3.65660520902212E-06	2.30114415697109E-06	4.82701866358427E-06	-1.8146895994343E-06	0.97388438751677	-0.21588715818928
9	-0.00147580060184428	0.00697483958501333	-1.88913376960313E-06	5.02016860055858E-07	-3.23453501890022E-06	-1.0529526326437E-05	0.973454001917542	-0.218005464122168
9.1	-0.000602798738342917	0.00700602075182547	5.25275205697299E-06	5.76100957195817E-07	9.13848421626063E-07	3.79454288918962E-07	0.973084361515011	-0.219887688205969
9.2	-7.18071797773768E-06	0.00668273601885466	-8.73592374103292E-06	-4.55296255388745E-06	-8.98512599102629E-07	-6.12535074980805E-06	0.972695210679437	-0.222374500950336
9.3	0.000492734694528536	0.00621944583879224	2.06948922188559E-07	6.21550926576417E-06	4.63256308811807E-06	-2.2080838672711E-06	0.972375530283717	-0.225012855520196
9.4	0.000669011699172601	0.00555209744509254	-1.90841833162827E-06	5.89148495207374E-06	-1.04780632567306E-05	7.77810038333601E-06	0.971609486617155	-0.228428813096286
9.5	0.000670485940214782	0.00550014760944401	3.15462898579535E-06	-7.57406206807908E-06	3.66984712516846E-06	-2.7539143379493E-06	0.969929367415914	-0.231282632362519
9.6	0.000798690036153749	0.00491066651485852	4.51207935147112E-06	5.5553678303913E-06	-6.16956462334118E-07	7.06549293480305E-06	0.969043988273251	-0.23378825449784
9.7	0.000336502826077416	0.00457399615002141	-2.61374882379531E-06	-3.92579055612128E-06	3.66519152619747E-06	-7.52538548780458E-06	0.968239429889739	-0.236274959487564
9.8	-0.00023598698886799	0.00459309689295104	-5.36835739292324E-07	-4.2078335465288E-06	6.27067270735901E-06	8.6936119471541E-07	0.96763053501186	-0.238471680902894
9.9	-0.000882751433499641	0.00500090953844683	-2.68615870720169E-06	-5.85668242456323E-07	-8.47456952994478E-06	5.50395395647126E-06	0.966157702832751	-0.240297999131883
10	-0.00120448948620821	0.00613067004960354	4.24456938867335E-07	-1.74916727759905E-06	-3.0946273620271E-06	-7.94998714905066E-06	0.965078871554146	-0.240053346469623
10.1	-0.000608067480380999	0.00675499823584979	2.25109747082032E-06	4.7589546771153E-06	-3.0781033255411E-06	9.84075074624338E-06	0.965691373480842	-0.241206732489916
10.2	-0.000214700881005955	0.00704389820818087	-5.39023753457238E-07	-1.04577415845146E-06	-1.21391256463981E-06	-3.10868472352566E-06	0.965349094356954	-0.242683650807011
10.3	0.000148635770735979	0.00725526139793151	1.12770129271836E-05	-2.9451369264016E-06	1.00257711289562E-05	-4.85185933327002E-06	0.964597522670185	-0.244379154503829
10.4	0.000331629356040396	0.00744099140681418	-6.2409854768831E-07	2.14332013553221E-06	3.02067205055702E-06	-2.18373919972685E-06	0.963335698265231	-0.246059314969848
10.5	0.000740640757121803	0.00824642784045502	-6.093196292019E-06	4.63842695319395E-06	1.5715610237803E-06	4.29569700665573E-06	0.962607276955195	-0.247636396191963
10.6	0.0018767581826855	0.00840389660662539	-7.07646724667092E-06	1.06659294179324E-05	7.01298787379244E-06	4.25204195031737E-06	0.962025439445665	-0.249696873239254
10.7	0.00281391282038014	0.00822176913612872	-3.20535558243346E-06	1.56447661012196E-06	-5.35218199441997E-06	3.16467891779741E-06	0.961641400161986	-0.251817306601386
10.8	0.00357021197855417	0.00770865032482583	-1.92178857535329E-06	4.97851065484394E-06	8.48251732694083E-07	-3.19483380024128E-06	0.961405650607545	-0.253784227295987
10.9	0.00373069438525021	0.00719125038916081	-5.73494663000412E-06	-1.05015455680094E-05	4.91821332329459E-06	1.0679788610018E-05	0.960998353468174	-0.255815241809594
11	0.00404206099134087	0.00735169875072421	2.95923197413723E-06	2.60951142494835E-06	7.8714867611424E-07	-1.12106088954079E-05	0.960358200318516	-0.25713676201343
11.1	0.00480651202577852	0.00685292636216643	3.84832136713942E-06	1.45425093732154E-06	2.55145907315595E-07	-7.35541321491279E-06	0.960173357222003	-0.258592171961238
11.2	0.00506243838763649	0.00623792333882421	-4.40448454875434E-06	-1.9668065611672E-06	-7.30356649703868E-06	-4.8391443410278E-06	0.959748389278793	-0.260482625408685
11.3	0.00522628909293671	0.00563757114900859	6.62302317064369E-07	-6.36253280281425E-06	3.75572121177917E-06	1.41057907877561E-05	0.959529627002413	-0.262704931299161
11.4	0.00502297180128881	0.00511822580893769	-5.10386362372335E-06	8.12309858064763E-06	-1.45477874074986E-06	4.06691438339751E-06	0.958508398920768	-0.26605333089228
11.5	0.00490822391478944	0.00521595630767902	4.51007902654088E-06	8.06321796824671E-06	-9.25501766790772E-06	1.5781288629849E-06	0.956233859654725	-0.268640631802369
11.6	0.00520632638654665	0.00462538951558163	-3.82792188553944E-06	1.39412385572502E-06	5.05616176909264E-06	8.10808677170329E-06	0.955235482013799	-0.271268635261498
11.7	0.00486358225823839	0.00409258062708916	2.23399241352618E-06	1.04919704852693E-05	5.41096600243522E-07	-3.63565857522613E-06	0.954189199934899	-0.27478382909929
11.8	0.00444331914822149	0.00400904366763808	1.42096169010023E-06	4.44635088089409E-06	2.23901993951331E-06	4.52061220737055E-06	0.952725794113718	-0.278322652385987
11.9	0.00410046311222688	0.00436986352997308	7.40364698956224E-06	1.05308794973787E-05	3.86603832321852E-06	4.07183536852156E-07	0.95091948717176	-0.280187531060455
12	0.00453555815449571	0.00534744154283285	2.35660361519902E-06	-5.12963540579967E-06	-4.06781555440054E-07	1.74336063501266E-06	0.950036169400725	-0.279703897457473
