# GHZ S RI R 50
0.2	0.000724314187432874	0.00170251062106429	4.80342334356079E-06	-2.9829328357341E-06	-1.37603905623558E-05	1.31196230333979E-05	1.00054767132411	-0.00658627059565484
0.3	0.00124293047703802	0.00119991472331321	2.86359271626717E-06	6.63900035040862E-06	-1.65693607632908E-06	-9.33635299673068E-06	1.00072409922553	-0.00951474778805485
0.4	0.0015209942218417	0.00104493096597441	-1.86407351580511E-06	-4.02541172446274E-06	-9.03696997588207E-06	4.40751680360778E-06	1.00125686265445	-0.012181956364785
0.5	0.0022836903633162	0.000579027635750778	-5.36744856612007E-06	3.27196010436611E-06	-2.12742013134905E-06	6.77134568208732E-06	1.00161670066204	-0.0163411594049408
0.6	0.00186347339790496	-0.000432677971641346	-1.40234768707087E-07	2.80962072507844E-06	-5.82247498406479E-07	-1.34370233301722E-07	1.00073977589887	-0.0195238885813375
0.7	0.00133450095651649	-0.000440512022931526	8.70192489576339E-08	2.22343880305588E-06	4.91460126365173E-06	-3.40579380834089E-06	1.00039661080549	-0.0221064736650569
0.8	0.00110494608947637	-0.000388564269021404	4.53922289931919E-06	8.30172140089678E-07	2.74977581886773E-06	2.00676905860595E-06	1.00026478733717	-0.024157583811156
0.9	0.000732774039382014	-0.000148621253597184	-1.50604775951265E-07	-4.23121186544371E-06	-3.42709619316257E-06	-3.12032652059097E-06	1.00015728854627	-0.0262422262771519
1	0.00128980303110516	0.000564360981258088	1.06540667625604E-06	4.30651586520712E-06	3.33906977319988E-06	9.35538848356769E-07	1.00084115930532	-0.0274205087607166
1.1	0.00171220869064852	-0.000653262191514378	9.06941035759442E-06	5.12217165101593E-07	-3.58883955585385E-06	-4.97698813809498E-07	1.00075375608253	-0.0306096601791087
1.2	0.000890173593697356	-0.00162302785457312	3.76917969205839E-06	-1.20616438159421E-06	-4.10920491603987E-06	-2.44014514524694E-06	0.99953270028668	-0.0320697765794466
1.3	-0.000134853061821054	-0.00269609290968917	-7.65282916568992E-07	-1.42881662022493E-06	-2.60501693317202E-06	-8.72176280756834E-06	0.999064284762819	-0.0335957456869862
1.4	-0.00128759865043605	-0.00346973275869319	2.09375959695048E-08	3.4532594100267E-06	-4.29674255715128E-06	-4.12587711274475E-06	0.998085551706579	-0.0361176379591524
1.5	-0.00130037794934567	-0.00385442342776255	-1.29214798110414E-06	4.43897445020568E-06	6.54938175207949E-06	-7.43688597358034E-06	0.999107621293829	-0.0395271407779482
1.6	-0.00212213575308726	-0.00402896904328759	1.6321967866226E-06	-4.92771807970182E-07	4.24233544849738E-06	-5.41234096979994E-06	0.998561097974337	-0.0433181443199001
1.7	-0.00222331505335647	-0.00329385737246667	5.39544994034628E-07	3.96663571456849E-06	-8.30061764211836E-06	3.15177523744937E-06	0.999053601757377	-0.0454301312113096
1.8	-0.0020651261414513	-0.00276208981297782	1.83933388989314E-06	1.07820779074425E-06	5.6396538885082E-07	-1.76771212024029E-06	0.999242645348058	-0.0477876468216095
1.9	-0.00184985334467772	-0.00224149832293768	3.24916668435478E-06	3.02279289252512E-06	-1.86343423400598E-07	-2.33690456829042E-06	0.999446651757044	-0.048931396388041
2	-0.000821967445932886	-0.00226920798192012	-1.73414254807333E-07	2.01541594643008E-07	-1.22173181926411E-05	5.45430287572951E-06	1.00209334178013	-0.0513456112914829
2.1	-0.00122528146940838	-0.00334644522725005	6.67021758900387E-07	-1.39115520124184E-06	1.38914348025857E-05	4.94597668750864E-06	1.00178657145361	-0.0567057109555654
2.2	-0.00194100525203913	-0.00337636407106064	1.64560475809049E-06	-1.52889753250139E-06	2.67480067346491E-06	-6.24531007015051E-06	1.00054152500818	-0.0595735421861851
2.3	-0.00256966363495145	-0.00330535776107577	-1.7066928625454E-06	-3.43342636337553E-06	-1.81466821592173E-06	-4.60224727698593E-06	0.999621246682419	-0.0614150520369548
2.4	-0.00329434547845954	-0.00291436344387147	-1.22549340979739E-06	-4.41251361348228E-06	3.06203540499847E-06	1.07842674283021E-06	0.999193750585067	-0.064322132410858
2.5	-0.00305560335972049	-0.00219351581761758	5.42721607619276E-06	5.66212276567789E-06	-2.53991177562637E-06	1.62133712195357E-05	0.999100035547075	-0.0663936495109517
2.6	-0.00314321447942219	-0.00281082292348343	-2.27124435620688E-06	2.72883296982035E-06	4.1655112412929E-07	-4.32499301530756E-06	0.999156922243443	-0.0696077645689449
2.7	-0.0036657160586562	-0.00279840133402979	-2.42886531683178E-06	-3.63756778174668E-06	2.15049713879135E-06	-2.58720723800448E-06	0.99890838294415	-0.0728760821440574
2.8	-0.00407500033305362	-0.00261328086706755	4.02496285136544E-06	2.30121024028458E-06	9.85934060019198E-06	-7.33662440375554E-07	0.998947989622096	-0.0754185975636286
2.9	-0.0042576616474617	-0.00209976227745911	1.2922063326056E-05	6.4723907081523E-07	2.38829737894833E-06	-1.17628801821215E-05	0.998211789789611	-0.07778397319851
3	-0.00355649553130837	-0.00194024262994558	-3.85558638747329E-06	1.06925034617594E-06	-4.16219415861707E-06	-1.57960057897631E-06	0.997744175452273	-0.0803744683902075
3.1	-0.00390109891540528	-0.00250013419394345	4.73977573390275E-06	-9.88504070698547E-06	1.0714469954412E-05	2.36196132047994E-06	0.997011698912845	-0.0827984503261359
3.2	-0.00430151489214723	-0.00231045736109898	-5.41832954030432E-06	-7.39228303348778E-06	1.56902939739355E-05	5.312140543909E-06	0.996078802355626	-0.0848538125419687
3.3	-0.00457603669708089	-0.00212714039020427	-8.78716197051848E-06	2.5983373832085E-06	-8.58464812847732E-06	-1.69314126589245E-06	0.994989164598238	-0.0883439018893401
3.4	-0.00490533669446396	-0.00170104837853901	9.01278272220413E-06	-7.61759897001896E-06	-7.31882764735993E-06	4.28026752903095E-06	0.993627156015113	-0.0901616652136746
3.5	-0.00438673419718619	-0.00152795540384127	2.90966134019028E-07	-5.31564035505224E-06	-4.43815495302056E-06	-8.89429474550029E-06	0.993147577919298	-0.0914263428652595
3.6	-0.00501995270785651	-0.00219654969620939	4.091706346106E-06	4.87836478554942E-06	-7.06229077544611E-06	9.01932167019369E-06	0.99351788668555	-0.0945232858509292
3.7	-0.00584341563382053	-0.0017762728931489	1.50404313484442E-06	-4.53046978466317E-06	-5.1316257723879E-06	-6.55510155045894E-06	0.992512325367968	-0.0975944725742136
3.8	-0.00630096685074011	-0.00109127813692438	7.24258531324281E-06	-5.22481449996929E-06	-5.88329115249746E-06	-2.38550492365857E-06	0.991187328332855	-0.0991863070690236
3.9	-0.00634255586200294	-8.42642961004291E-05	-4.02368408234316E-06	-3.32610442920586E-07	-2.52122346504324E-06	1.14150536873793E-06	0.990644584950402	-0.100618539992486
4	-0.00515282622088374	0.000412852097287727	-3.38382230652537E-06	-6.892309083432E-08	1.23798139170219E-06	8.66335673200932E-06	0.993228511479166	-0.101266266209688
4.1	-0.00512579629563773	-0.000370457980793362	-2.92044913150087E-06	-3.84168554611473E-06	5.89243297540716E-06	3.00228656756219E-06	0.992722925011644	-0.105712745181003
4.2	-0.00547681518280595	-0.000315801643730266	-7.84337334992106E-07	-2.14892271105496E-06	5.67952881227343E-06	-1.8733295804356E-06	0.990921471079229	-0.108444323117788
4.3	-0.00568835758418843	-0.000101835960392901	-4.91711305470862E-07	3.23088060949961E-06	2.13492248761995E-06	1.76429388340183E-06	0.990179901522911	-0.110190306775588
4.4	-0.00594401260561942	0.000393778752190789	2.59080988054576E-06	3.41925448575239E-06	7.18910210975793E-06	3.8611604507684E-06	0.989657246818629	-0.112309542041983
4.5	-0.0051391578787012	0.000815845488783893	-6.45196432260853E-06	-1.8332354072469E-07	-8.56628786878798E-06	-2.04506705415206E-06	0.98951891926913	-0.115162936475327
4.6	-0.00551779576007623	-6.32174807775239E-05	-9.95027355622329E-06	-9.11912815478029E-06	3.20300964353647E-06	-2.7363398057196E-06	0.987919692119834	-0.118107800312559
4.7	-0.00622628963313609	0.000149649224757653	1.3523795989624E-07	1.8549090052292E-06	5.9943083761025E-06	-6.73129721400159E-06	0.987308763116104	-0.119760354406366
4.8	-0.00670206417680322	0.000602638464267875	-6.35110016898205E-06	2.10033448183343E-06	7.16845005029077E-07	-1.26861876812014E-05	0.986532082905971	-0.12208929493076
4.9	-0.00692965314897368	0.00139799033193922	-3.36598950094092E-06	8.11724034350744E-06	6.0881340463858E-07	9.32397787723029E-06	0.985481618488345	-0.123704403083455
5	-0.00594336160133765	0.00179375192579901	9.55915672286643E-06	-4.08239243191007E-06	-6.87236216526763E-06	3.58820347851915E-06	0.98480231224438	-0.124712080554575
5.1	-0.00620527869143542	0.00122707239148448	-3.75952473485878E-07	-3.22900059365368E-06	-3.85493203026902E-06	-1.76654961375138E-06	0.984390881411335	-0.125702544864185
5.2	-0.00637108877729721	0.00169340819565758	-1.07543727898152E-06	-4.45393016961246E-06	8.74785993559978E-06	5.5111782667486E-06	0.98373327767656	-0.127366893275965
5.3	-0.00614023124471142	0.00211754973354751	2.29424562271079E-06	6.7393854058212E-06	8.74574154091046E-06	3.08238715020122E-06	0.983181854224578	-0.129175175558093
5.4	-0.00576742618597209	0.00265188729617878	2.67432682105119E-06	-3.12756487268015E-06	-2.65368441050792E-06	1.62143138018098E-07	0.982467931894217	-0.131363714131089
5.5	-0.00440506371918163	0.0024164455557593	2.10533315402159E-06	9.23030678605518E-06	-3.8955388619666E-06	-4.98151475418341E-06	0.982594467745274	-0.132388823079489
5.6	-0.00530980712724656	0.00125584538975114	-5.81153411573358E-06	-1.12231927748638E-06	4.83631473318956E-06	1.92693293533659E-06	0.983208575088868	-0.135358699570167
5.7	-0.00633164370705767	0.00183422299817172	3.31218579407806E-06	-1.41418665574092E-06	-5.01348584274181E-06	-4.25950249563394E-06	0.982261288279806	-0.137769305475377
5.8	-0.00686884645156007	0.00269656537843273	-2.03914475001371E-06	-4.71213180909881E-06	9.39641688977524E-07	-5.7788750715022E-07	0.981410076472979	-0.138950573434336
5.9	-0.00726193525602845	0.00412886004507975	-3.8538190882866E-06	6.1003164071996E-07	3.83454422647828E-06	1.24600443562491E-06	0.98121203560109	-0.138640574373212
6	-0.00575729707435791	0.00571087206238534	-5.91709102866157E-06	5.0215531158346E-06	-1.47902133467795E-06	1.94248528251548E-07	0.985263172373408	-0.139258335380882
6.1	-0.00501138522371841	0.00482491894692671	-5.90442090607456E-06	-4.66731076168386E-06	-3.98623523085574E-06	4.35048257250063E-07	0.985206111508601	-0.143660101363153
6.2	-0.00512210956458999	0.00461669559259117	2.80545032191248E-06	3.10492806896767E-06	1.04688256532664E-06	7.17800331510141E-07	0.984126075891319	-0.145170377492243
6.3	-0.0052432037122211	0.00442608627088862	1.63119460172778E-06	-7.43165992274908E-07	-1.32750876491722E-07	1.36693012625031E-06	0.983487932964985	-0.146956259796796
6.4	-0.00547631628173138	0.00470400946255241	-5.15065454251809E-06	-5.59215401067747E-06	3.78897603303544E-06	6.87272484983149E-06	0.983393302838149	-0.148622238726913
6.5	-0.00447002974371323	0.00429196700106959	9.0116418327906E-06	-2.5462659968407E-07	-7.27960240876037E-06	-8.86103927782354E-07	0.98346428181773	-0.153469645620934
6.6	-0.00555451254697996	0.00364435538065077	-1.4764666102945E-06	4.60936303270527E-07	3.35557024613988E-06	-9.2988409683792E-06	0.98010987631779	-0.155353239415473
6.7	-0.00585778396819531	0.00441481881851649	2.4502273235806E-08	7.68920832905711E-06	-4.72191968297391E-07	-6.03841198991451E-06	0.979590237364697	-0.155699521131196
6.8	-0.0058313445652148	0.00496414201240379	4.20952942250993E-06	1.66147139583484E-06	2.3367948340608E-07	-5.19572975761725E-06	0.979510221731335	-0.156860358230836
6.9	-0.00575079427908517	0.00599763797954613	-7.51437093376962E-07	2.42788010367825E-07	5.73261006185746E-06	-2.63635092726772E-06	0.979483980025383	-0.157617955894077
7	-0.00381323413401297	0.00631011375842802	7.99152703386451E-06	-4.68723699632636E-06	4.46422451534123E-07	-2.99824530714877E-06	0.981012317352744	-0.158884503358252
7.1	-0.00447219400704681	0.00493230852691724	3.8106756238693E-06	2.05124081343585E-06	7.29220789650175E-07	7.18798655923496E-06	0.980329176259938	-0.161933179987133
7.2	-0.00529508024658026	0.00547925217683842	-2.45523295900075E-06	3.65565984641562E-06	-1.3026027777847E-06	-3.81237052886858E-06	0.978979734230711	-0.163559235872112
7.3	-0.00575950513697548	0.00616687718224608	3.42231519271292E-06	-4.71265223310089E-07	-2.42458112123717E-06	-1.92043462252752E-06	0.977073390728688	-0.16515694643977
7.4	-0.0063817478903592	0.00738342815508214	-6.12916884415684E-06	-2.71561169760154E-06	3.74217485886721E-06	2.66918297387381E-07	0.973799783400285	-0.166063851745524
7.5	-0.0049583075498936	0.00895672019841685	6.76157134797019E-06	-6.32105530784228E-06	-2.46618879393807E-06	7.70503424843159E-07	0.973987104775072	-0.163036162661455
7.6	-0.00458275479594534	0.00793203745838428	3.41127330490387E-06	5.21393360556131E-06	-1.02419142905882E-05	4.79377223526335E-06	0.977001942614316	-0.166772513003124
7.7	-0.00490295537391694	0.00816785868892347	5.88592085848367E-06	1.09530747551801E-05	4.50307577767899E-07	-1.13041855591747E-05	0.976949624719582	-0.170106655323085
7.8	-0.00472728930409619	0.00840301887699035	2.13634128833782E-06	1.00370383706095E-06	-3.19064229542624E-06	8.75034120915251E-06	0.97720466451704	-0.172449772653363
7.9	-0.00413527311648092	0.00886757937957716	2.57352933569056E-06	-2.27357302711967E-06	3.67120519258591E-06	3.88308791268067E-07	0.9785631604352	-0.173390223584092
8	-0.00218887747164633	0.00800397852954638	-2.83410835573562E-06	1.29278524447656E-06	6.91020838105093E-06	-1.76769927446076E-06	0.984401077695353	-0.176953048912105
8.1	-0.00308901866160663	0.006685136975949	-1.80257797470975E-06	7.38764624162786E-07	-3.70299130213425E-06	-1.29402323346111E-06	0.98341026390521	-0.184503660552352
8.2	-0.00351895808065777	0.00702298783610183	-8.55261985187218E-07	6.33530633483179E-06	4.84170902808307E-06	4.40615150930323E-06	0.981772016106335	-0.187248201805397
8.3	-0.00360522827569006	0.00737838800531855	-7.24888785101295E-07	-1.42446053614375E-05	6.78648319258651E-06	5.4988037020395E-06	0.981105322648957	-0.189881593557539
8.4	-0.00363476083370116	0.00832430906578794	3.79882361615954E-06	-3.40523489440007E-06	-6.97847866691494E-06	-1.28157373911967E-06	0.980910325931514	-0.192543135605387
8.5	-0.00170058284281532	0.00868278214508832	4.67704167765756E-06	6.19698261565621E-07	8.4748504326168E-06	-6.78451081316656E-06	0.980742887419775	-0.19648859921176
8.6	-0.00216881781982847	0.00723280447177364	-3.30646617988988E-06	4.09294141894265E-06	9.15863761076238E-07	1.11152834988009E-05	0.979314289506101	-0.19931658754603
8.7	-0.00284368737945418	0.00766227791007617	2.70715546406539E-06	-1.97991442272071E-06	4.8459563431399E-07	-5.50790703437239E-07	0.979078944612198	-0.201556597788551
8.8	-0.00297661845736108	0.00833263032313277	1.33235227135328E-07	-1.25643418602518E-06	-1.05949007962534E-06	9.79395354847726E-06	0.979005609279849	-0.203733448490366
8.9	-0.00282304184719196	0.00939323360594674	-3.69871071789183E-06	2.27555867411942E-06	4.87012319385955E-06	-1.77468448434625E-06	0.979399319518005	-0.205681917959334
9	-0.000727488863156531	0.0100048192851902	-1.90085489724641E-06	4.86098351835072E-07	-3.14742592467334E-06	-1.05989637916518E-05	0.979951362792935	-0.207818462868689
9.1	-0.000213540360450131	0.00870049560101062	5.27051226504593E-06	6.34684850061184E-07	9.13963370151097E-07	3.90916806583182E-07	0.980637470895449	-0.210333155639023
9.2	0.000187488649777455	0.00842308773056526	-8.73840545488192E-06	-4.66603894691447E-06	-8.41843388531362E-07	-6.16825574046812E-06	0.980887969891303	-0.213742464992667
9.3	0.000690037296114439	0.00786075062432953	1.50627283462547E-07	6.25280530816871E-06	4.67936077082858E-06	-2.17779745390474E-06	0.980540488164295	-0.217456483010403
9.4	0.000943099056257416	0.00757732483175035	-1.9691677026488E-06	5.90289422916395E-06	-1.05962730693735E-05	7.7234113757184E-06	0.978794447543032	-0.220931926156121
9.5	0.00209749690956605	0.00649792629273141	3.25622316901049E-06	-7.57178772708994E-06	3.71815184336103E-06	-2.72398126001642E-06	0.978673162475906	-0.222313709859343
9.6	0.000538038554253646	0.00503558494083501	4.48419504173337E-06	5.65135808398339E-06	-7.02976890675124E-07	7.11461372317519E-06	0.97903508926832	-0.227052610063887
9.7	-0.000583345972453833	0.00547951559431807	-2.59752054477124E-06	-3.98774954176736E-06	3.77462488553619E-06	-7.55614469029203E-06	0.977703907249066	-0.230432102573893
9.8	-0.00127223448849385	0.00611261580459082	-5.00979959642154E-07	-4.25284254576497E-06	6.32150794637077E-06	9.38579502260229E-07	0.976784009600224	-0.232323897354375
9.9	-0.00172530518085889	0.00741195990491361	-2.708691147706E-06	-6.20579874308817E-07	-8.62403437980911E-06	5.47256835144617E-06	0.976836682870977	-0.232139577246996
10	-0.000115311427273892	0.00820231046724641	4.45592298276572E-07	-1.77183773651463E-06	-3.07396905389257E-06	-8.09543034663399E-06	0.981962893167914	-0.235416128674265
10.1	-0.000469034592773333	0.00731040910454895	2.25810361099229E-06	4.83420316794625E-06	-3.16793380970126E-06	9.95839214549254E-06	0.979122726294011	-0.241838318370195
10.2	-0.000853021563644135	0.00786511847008815	-5.41056268692349E-07	-1.06162478027279E-06	-1.21499583436603E-06	-3.15400158082006E-06	0.976650486055885	-0.243170029022668
10.3	-0.00086321612093355	0.00849720307744388	1.14397557129867E-05	-2.93611418936584E-06	1.01800101304555E-05	-4.87357521092215E-06	0.97552999313988	-0.244526176162266
10.4	-0.000618462187930705	0.00962057001218412	-6.39443993536817E-07	2.1731935839309E-06	3.07153129942221E-06	-2.20735837094158E-06	0.975323900815564	-0.246223403830315
10.5	0.0014309000673525	0.0100106168548555	-6.17492970915326E-06	4.70517778611448E-06	1.59522767161917E-06	4.35411872554427E-06	0.975274474097623	-0.250683983753835
10.6	0.00159807708590092	0.00909818335300185	-7.1681853698132E-06	1.07981885250446E-05	7.10005352757954E-06	4.30730877964728E-06	0.973379447916938	-0.253292196021548
10.7	0.0019545877886832	0.00917212529130717	-3.24858583378874E-06	1.58581099042386E-06	-5.42433360703235E-06	3.20776800330497E-06	0.973404572075216	-0.256341800959656
10.8	0.00221282315511337	0.00899956089199723	-1.94291499075643E-06	5.0515839067151E-06	8.56342009730525E-07	-3.24125012732181E-06	0.97293071135447	-0.259878267021758
10.9	0.00231468191368639	0.00961273906949496	-5.84955233032742E-06	-1.06354124666191E-05	5.02159271450839E-06	1.0818710083123E-05	0.972073713011449	-0.262773422742334
11	0.00432377639332402	0.00954799228205405	3.00694967236051E-06	2.63016772021469E-06	7.51360887658285E-07	-1.13543273456998E-05	0.971479651893036	-0.265720222041226
11.1	0.00394566859041882	0.00820494822594187	3.90148829637036E-06	1.45906252304194E-06	2.32780566141008E-07	-7.44826207746487E-06	0.969255106323469	-0.268914471058687
11.2	0.00379043964299852	0.00837254366156926	-4.46870826173748E-06	-1.9729922124151E-06	-7.41678088066563E-06	-4.86940766406028E-06	0.966819703702843	-0.2711535258281
11.3	0.00405470096866125	0.00852342732449366	6.35941274658418E-07	-6.44243003767328E-06	3.87683259554038E-06	1.42547560867076E-05	0.96409175683132	-0.272945657703897
11.4	0.00433124179385243	0.00894610485815422	-5.10528469914123E-06	8.23486053048003E-06	-1.44454757852069E-06	4.11618628005837E-06	0.960504837655326	-0.274240048305508
11.5	0.00624727000053959	0.00843808410268632	4.57737014783569E-06	8.12739740992588E-06	-9.3393550311626E-06	1.62075400023557E-06	0.961316522660872	-0.273557083579539
11.6	0.00564666945107025	0.00661652950943791	-3.86898097995962E-06	1.42750009211905E-06	5.15267160037576E-06	8.18611911321052E-06	0.961371617239798	-0.279384347343004
11.7	0.00500389949792806	0.00647901373995432	2.32326762634777E-06	1.06035037477532E-05	5.25815439219936E-07	-3.68216474624079E-06	0.958661444884322	-0.283348075544986
11.8	0.00475917165606536	0.00669187779260322	1.46534845588263E-06	4.48607275028275E-06	2.29288592787921E-06	4.55586039733256E-06	0.956464906546085	-0.28557190614994
11.9	0.00512363838133789	0.00761537023454828	7.5429526263408E-06	1.06085638034718E-05	3.91137690828449E-06	3.9092105070279E-07	0.957107541202499	-0.284516141105371
12	0.0075920451873145	0.00703853282132959	2.35219511065537E-06	-5.22386836496887E-06	-3.99433211842362E-07	1.77236039528674E-06	0.963850200926542	-0.289307796603612
