# GHZ S RI R 50
0.2	0.000540637187898095	0.00141047642809903	4.80871790765729E-06	-2.98216280158681E-06	-1.37783468745212E-05	1.31207272961137E-05	1.0012397428635	-0.00614778112783238
0.3	0.00110741180165537	0.00102247140547875	2.86256501145676E-06	6.64605960421109E-06	-1.65349943181963E-06	-9.34505451401537E-06	1.00158291280909	-0.00906716768068756
0.4	0.0014245309076417	0.00104539273446028	-1.86470649383264E-06	-4.03056185522095E-06	-9.04861172955789E-06	4.4091858021995E-06	1.00239092475935	-0.0117592158915505
0.5	0.00261985211038872	0.000509100404690365	-5.37231113349578E-06	3.27605266858989E-06	-2.12850836417505E-06	6.77843882385607E-06	1.00286019044055	-0.0165064574674958
0.6	0.00196485645110422	-0.000960008291688658	-1.40796819868752E-07	2.81151978391695E-06	-5.82623576715308E-07	-1.34558760745847E-07	1.00130472791963	-0.0195515658447959
0.7	0.00115485375393961	-0.000927897006575539	8.62933277508358E-08	2.22555300121622E-06	4.92044134857681E-06	-3.40719915839655E-06	1.00102367259451	-0.0216712807617373
0.8	0.000734928728884144	-0.000798946768328453	4.54427567737825E-06	8.32959133816777E-07	2.75223948525033E-06	2.01024059984584E-06	1.00112223651645	-0.0234752907784426
0.9	8.95790363452887E-05	-0.000314368732856243	-1.49077098633983E-07	-4.23766067656284E-06	-3.43097462578885E-06	-3.12645762553941E-06	1.00134474787715	-0.0253010698771908
1	0.000960786753781568	0.0010457742634209	1.06717431504286E-06	4.31491770965557E-06	3.34546431643553E-06	9.37575476612382E-07	1.00294453326801	-0.0265574861934238
1.1	0.00182564591402629	-0.000571466532716385	9.08605446374285E-06	5.10830993707436E-07	-3.59550119003398E-06	-4.97687435241582E-07	1.0028880142263	-0.0307400044389418
1.2	0.000898913708809232	-0.00165903545168509	3.7756863697603E-06	-1.20985392118171E-06	-4.117751181185E-06	-2.44307001635776E-06	1.00133258601844	-0.0324969469318976
1.3	-9.58046658783815E-05	-0.0028409252993344	-7.67662775905038E-07	-1.43082749351421E-06	-2.61585161563637E-06	-8.73550171799443E-06	1.00054702318878	-0.0343615499443645
1.4	-0.00130961943232773	-0.00372276226349413	2.44981058445232E-08	3.45835067482597E-06	-4.30732100751965E-06	-4.12759399092442E-06	0.999042646018267	-0.0370533371685736
1.5	-0.00106030067115085	-0.00433721951751378	-1.28913207776418E-06	4.44576073711395E-06	6.5497091116638E-06	-7.45280049226141E-06	0.999892885329321	-0.0404807218741408
1.6	-0.00239395358306336	-0.00487318657001421	1.6335791081589E-06	-4.95082490343687E-07	4.24153606251412E-06	-5.42317189420582E-06	0.998800554396703	-0.0441651701661867
1.7	-0.00275732299045723	-0.00384418723731916	5.44406820237366E-07	3.97070106980693E-06	-8.30696752833225E-06	3.16431563705797E-06	0.999343614995517	-0.0458301574639121
1.8	-0.00265422437244431	-0.0030549877849796	1.84254282713437E-06	1.07749722881412E-06	5.62748890169117E-07	-1.77030086785179E-06	0.999654275159997	-0.047966588321954
1.9	-0.00236529566881378	-0.00213478969426145	3.25491835847782E-06	3.02377494155763E-06	-1.88232725163581E-07	-2.33934000627266E-06	1.00003383943429	-0.0485709589416507
2	-0.000593602390779951	-0.00206594330073487	-1.7366905421521E-07	2.02043826027642E-07	-1.22396904860459E-05	5.47169894331401E-06	1.00419510118128	-0.0509746513439738
2.1	-0.00102489463147141	-0.00380400541416931	6.66283734676597E-07	-1.39516902980963E-06	1.39288468627668E-05	4.93493940644799E-06	1.00358808843747	-0.0578690030002587
2.2	-0.002033308197524	-0.0039354754210734	1.64573827209095E-06	-1.53446447579514E-06	2.66834256029231E-06	-6.26086550239061E-06	1.00165534450242	-0.0607709088918238
2.3	-0.00292208745776849	-0.00383078814794567	-1.71564072417834E-06	-3.43563565966475E-06	-1.82592671119351E-06	-4.60607584933605E-06	1.00049072714128	-0.0624860662521567
2.4	-0.00394437997168964	-0.00311882646510729	-1.23606341068734E-06	-4.41660698205692E-06	3.06870420901507E-06	1.07394432191427E-06	0.999955205451322	-0.0653224525095779
2.5	-0.00326840913028047	-0.00178536855251894	5.44601084796302E-06	5.65572600102535E-06	-2.50542894644402E-06	1.62365373909721E-05	0.999853915334177	-0.0674866143013259
2.6	-0.00293497681149838	-0.00277642613025801	-2.26764099363943E-06	2.73506186796781E-06	4.08614367116693E-07	-4.32880952268557E-06	0.999609674845559	-0.0707407631701231
2.7	-0.00344522433147172	-0.00296720296459565	-2.43729274753569E-06	-3.63653279983165E-06	2.14788920920261E-06	-2.59319469007989E-06	0.999340192091308	-0.0739435147558556
2.8	-0.00393256099150138	-0.00292540017596713	4.03333808972372E-06	2.29621479957929E-06	9.86818547987452E-06	-7.52482558586233E-07	0.999358257005396	-0.0765937655586637
2.9	-0.00420509031757642	-0.00229032075500757	1.29371987044963E-05	6.21118472337629E-07	2.36644024982029E-06	-1.17803907458771E-05	0.998561983654519	-0.0790403470156109
3	-0.00300543302418456	-0.00215483381559981	-3.85643361035443E-06	1.07835466705887E-06	-4.16894861761148E-06	-1.57199253524351E-06	0.998140568663753	-0.0817972428715173
3.1	-0.00350256568808913	-0.00332822861913301	4.7246877609248E-06	-9.9055035920472E-06	1.07309654064013E-05	2.3425874161355E-06	0.997286077789058	-0.0844850104356602
3.2	-0.00421565831042995	-0.00322311315288342	-5.44290527490986E-06	-7.38777659021096E-06	1.57219756338547E-05	5.27996135301045E-06	0.9961918257612	-0.0867510554965525
3.3	-0.00474000520052746	-0.00303935557950076	-8.78869130177411E-06	2.62615942848052E-06	-8.59826279978363E-06	-1.67028091731831E-06	0.994820684323875	-0.0904909565541828
3.4	-0.00529583910990454	-0.00236744262834722	8.99247443935424E-06	-7.65117215560788E-06	-7.30859382436866E-06	4.30653562424889E-06	0.992893034429448	-0.0924755420063203
3.5	-0.00434674505931748	-0.00203136303286308	2.75887468040416E-07	-5.31512209846483E-06	-4.46214387569956E-06	-8.87952494506204E-06	0.991986596126188	-0.0931938979992552
3.6	-0.0051738328013815	-0.00325008178181413	4.10458473140721E-06	4.86839003613036E-06	-7.03993621061075E-06	9.03827345974201E-06	0.992430572621943	-0.096285011817867
3.7	-0.00647975226580778	-0.00274738130357827	1.49147825504865E-06	-4.53478501159153E-06	-5.15001485649505E-06	-6.541008202781E-06	0.991167846468883	-0.0992696133148771
3.8	-0.0072548794847636	-0.00171316444161183	7.22625754522989E-06	-5.24374474757272E-06	-5.88851645385417E-06	-2.36851915218794E-06	0.989680825406429	-0.100565687211896
3.9	-0.0073518670124798	-5.1901810507632E-05	-4.02269225114617E-06	-3.22917395365864E-07	-2.517399428704E-06	1.14698150539186E-06	0.989294440114174	-0.101337634183579
4	-0.00528254239328261	0.000864523649243854	-3.38542171506257E-06	-6.17119865769118E-08	1.25705036972593E-06	8.66442497397027E-06	0.993473557175435	-0.102159013760805
4.1	-0.00498834803396217	-0.000543143339933618	-2.93296478153077E-06	-3.83392756557604E-06	5.90326001495018E-06	2.98525771636839E-06	0.992411854115566	-0.108178460023098
4.2	-0.00549344051842461	-0.000646815164786287	-7.90841812982245E-07	-2.14621363070581E-06	5.67298313318195E-06	-1.89054815702691E-06	0.989852675877888	-0.110859909795911
4.3	-0.00583157185138524	-0.00038308735521209	-4.81544320664331E-07	3.2315378538443E-06	2.1398272584736E-06	1.75718811677533E-06	0.988871933128213	-0.112495666588089
4.4	-0.00613617586001276	0.000439746987750835	2.60152038087856E-06	3.40925911409265E-06	7.19970773723759E-06	3.83539008176791E-06	0.988234284650139	-0.114650996225845
4.5	-0.00452084533493258	0.00115613252845759	-6.44499895899378E-06	-1.56333964191265E-07	-8.56451529807942E-06	-2.00707549814645E-06	0.987722487684866	-0.118077825576978
4.6	-0.00458437243641264	-0.000537072231208536	-9.95832325600677E-06	-9.06252326158118E-06	3.18577888058502E-06	-2.74098321540984E-06	0.984909307676751	-0.12077948523452
4.7	-0.0054480450195296	-0.000715693731829501	1.40178853429473E-07	1.84961291158529E-06	5.95921295696051E-06	-6.73060386026274E-06	0.983906499689209	-0.121788896084653
4.8	-0.00614275137687608	-0.000522431215526324	-6.32849252559104E-06	2.11023062636727E-06	6.8359743942374E-07	-1.26531414701571E-05	0.98299496624281	-0.123696943626227
4.9	-0.00668288003399171	0.000312412062176335	-3.33748049052786E-06	8.10206829845422E-06	6.2886193504596E-07	9.29609849785877E-06	0.981833168990475	-0.125039340304379
5	-0.00530659472893652	0.000718869275860532	9.51788748174441E-06	-4.08877252183081E-06	-6.84130508970921E-06	3.59056258036204E-06	0.981003266301694	-0.125988970786739
5.1	-0.00603060004875335	-0.000530064527181924	-3.79370465009941E-07	-3.21791064179728E-06	-3.84488003711021E-06	-1.75523151521653E-06	0.980201122024407	-0.126754519017095
5.2	-0.00682220012813557	0.000129094531087051	-1.07831100587906E-06	-4.43901023036667E-06	8.72903024764724E-06	5.4825259195427E-06	0.979470635641315	-0.128037744089251
5.3	-0.0068509616853885	0.00098188915906965	2.2977013144826E-06	6.71612723070325E-06	8.72472344224726E-06	3.06011004939995E-06	0.978996471085184	-0.129749664137843
5.4	-0.00642119133875763	0.00209983713990991	2.65970990112071E-06	-3.1224432627738E-06	-2.64474173949939E-06	1.6663309563198E-07	0.978000157374076	-0.132042938648588
5.5	-0.00402592729930066	0.00189181330596373	2.10804971127806E-06	9.18853374515991E-06	-3.88531093178994E-06	-4.9554908440409E-06	0.977832171090224	-0.132515270380281
5.6	-0.00529504576054152	-0.000310377072134193	-5.79048494602585E-06	-1.11517131977619E-06	4.81930558262554E-06	1.91728997134739E-06	0.978416079273702	-0.135415058059091
5.7	-0.00711604392540138	0.000298170143403646	3.29987526580784E-06	-1.4104642117166E-06	-4.99735865109525E-06	-4.24241976890093E-06	0.977120154689764	-0.137367492614425
5.8	-0.00827974919258465	0.00160798619800394	-2.03229031240112E-06	-4.6957888358212E-06	9.3637608250146E-07	-5.75929567167355E-07	0.9762211463743	-0.137758055354396
5.9	-0.00914944041845701	0.00413824531994243	-3.84312749496983E-06	6.05368248047849E-07	3.82251252019132E-06	1.24528320083264E-06	0.976679127542378	-0.136123010642884
6	-0.00648979475651637	0.00728112969293499	-5.91419602990305E-06	5.015261126804E-06	-1.47789796881941E-06	1.93534107271364E-07	0.983636538603593	-0.136903075085984
6.1	-0.00436753383996679	0.00603315981383745	-5.90499525757656E-06	-4.65455764217827E-06	-3.98168629593538E-06	4.40104724652872E-07	0.983531314880041	-0.143603343029267
6.2	-0.00372558035523048	0.00528407712298321	2.80627865458652E-06	3.09519615464126E-06	1.04643959269093E-06	7.14870963756567E-07	0.981968858926913	-0.145623247285443
6.3	-0.00356141367446351	0.00427516308792964	1.62673934389501E-06	-7.44372275776178E-07	-1.30241974564475E-07	1.36443786668525E-06	0.980974959249683	-0.147687138752167
6.4	-0.00398234180233726	0.00414592061896716	-5.14894805111541E-06	-5.57334685519136E-06	3.79188892697671E-06	6.85345012298633E-06	0.98071954109596	-0.149308520186304
6.5	-0.00247262380686045	0.00310954243492136	8.9873165488186E-06	-2.76260514813713E-07	-7.26265458593946E-06	-8.65757313897856E-07	0.98030326810079	-0.155262838940233
6.6	-0.00451145501976421	0.0014518498261755	-1.46939797572032E-06	4.61137169908623E-07	3.32724521714723E-06	-9.26362171462598E-06	0.974759642075349	-0.156097878581064
6.7	-0.0055842084111236	0.00234495834383646	2.69146751175364E-08	7.65427941299702E-06	-4.72029359083705E-07	-6.01083330081707E-06	0.974113684968749	-0.154813945114729
6.8	-0.00602797703451219	0.00310398339870064	4.18989013798623E-06	1.65580406384328E-06	2.3485447706265E-07	-5.17226778667673E-06	0.974332546399296	-0.155059016037016
6.9	-0.00626388105046755	0.00477194099846393	-7.48426415903521E-07	2.40958849877135E-07	5.71045124528456E-06	-2.61899329181057E-06	0.974714719348079	-0.155023358894904
7	-0.00314277004972934	0.00534966085378114	7.96635644481536E-06	-4.65739027547309E-06	4.48859195303415E-07	-2.98570534567173E-06	0.977452643023565	-0.156358966939685
7.1	-0.00413030451993405	0.00259118437736039	3.79385275925352E-06	2.04895111187395E-06	7.1664678282524E-07	7.16258426478948E-06	0.976193076122559	-0.160267886621317
7.2	-0.00593607604311719	0.00295579395506183	-2.45053471361172E-06	3.63921031448254E-06	-1.29322520017835E-06	-3.79983995370896E-06	0.974176260619714	-0.161581504593299
7.3	-0.0073473558562503	0.00387183614201608	3.40887288987463E-06	-4.66314936297119E-07	-2.41305425666328E-06	-1.9148112649734E-06	0.971671297118364	-0.162820424686243
7.4	-0.00902691328308872	0.00608735116670267	-6.09493352489326E-06	-2.70531765577244E-06	3.72219719780568E-06	2.67993717838415E-07	0.967152110043276	-0.162728502090154
7.5	-0.0069365257198812	0.00946833032827559	6.73408387411534E-06	-6.26199105447081E-06	-2.45212078407587E-06	7.58979753652299E-07	0.967956995789288	-0.156653900396599
7.6	-0.00580208443390056	0.00842595177584458	3.37369018266873E-06	5.19659222629303E-06	-1.02011297640255E-05	4.73068616690575E-06	0.972797895084081	-0.160362831836334
7.7	-0.00576914825056552	0.00900725177471649	5.81096233318983E-06	1.09158824484092E-05	4.91858212779498E-07	-1.1240390972319E-05	0.973294023420482	-0.163454244040939
7.8	-0.00500868108574664	0.00934738247747485	2.12045978733112E-06	1.00835713324783E-06	-3.21453577895256E-06	8.68956741049351E-06	0.974295081226363	-0.165461123119559
7.9	-0.00368900670602754	0.00994380557178582	2.57527412541835E-06	-2.24770481379479E-06	3.65197025349555E-06	4.08480699514681E-07	0.976830288759626	-0.165599358742879
8	-0.000279974483313363	0.00833523871347022	-2.83759885109529E-06	1.2706234550039E-06	6.9091141643325E-06	-1.71633996429465E-06	0.985731243291279	-0.169697073405473
8.1	-0.00160541634762205	0.00525210999213948	-1.80586173308556E-06	7.28477559996845E-07	-3.69420160977747E-06	-1.31391066995152E-06	0.984732445789121	-0.179939877542048
8.2	-0.00277842147881052	0.00527058541647318	-8.87170609667349E-07	6.329930534312E-06	4.81861663625422E-06	4.42991606315759E-06	0.982490496771495	-0.182874610968376
8.3	-0.00338309705935941	0.00560523365693449	-6.55591282957429E-07	-1.4252680131073E-05	6.76180469271315E-06	5.5336799745901E-06	0.981919266829482	-0.185432476602259
8.4	-0.00378913105100793	0.00705330238638772	3.81720125380768E-06	-3.39197110019727E-06	-6.97952465184133E-06	-1.31307697253723E-06	0.982136603561242	-0.188105000323272
8.5	-0.000654613814888884	0.00765923830895751	4.67583733547009E-06	6.35779952104304E-07	8.49965329137811E-06	-6.7569099255056E-06	0.982335268737223	-0.192677511693465
8.6	-0.00134610821694725	0.00463674059051243	-3.32499939702521E-06	4.07646566621604E-06	8.63332830587117E-07	1.11171239802229E-05	0.980479195062157	-0.195518207837105
8.7	-0.00312046049824839	0.00469171061806614	2.71950535462897E-06	-1.96664598065414E-06	4.87860267656869E-07	-5.48540622551125E-07	0.980392615799584	-0.197436950221448
8.8	-0.00431280640157901	0.00558087961967298	1.40495073278111E-07	-1.25763128993532E-06	-1.11611324416887E-06	9.80316759679258E-06	0.980599417046759	-0.199382437008893
8.9	-0.00512587691053856	0.00773005670140438	-3.72088397277488E-06	2.26141422935649E-06	4.8926618258868E-06	-1.75283291432866E-06	0.981308904384152	-0.201058906389918
9	-0.00214949274001191	0.00981306343028082	-1.90879707171354E-06	4.78136039567595E-07	-3.1043033305514E-06	-1.06454048891409E-05	0.982430611429756	-0.202690528983897
9.1	-0.00114147838217938	0.0083315055746652	5.28737006178563E-06	6.63702396881416E-07	9.1546913663302E-07	3.97017785394635E-07	0.984227212909892	-0.205168587083534
9.2	-0.000334267963027388	0.0083538203329573	-8.758544630814E-06	-4.72330439599892E-06	-8.20097878971882E-07	-6.19959984788896E-06	0.985395528611547	-0.209185647932008
9.3	0.000765191040012251	0.00771188002842541	1.31763818156879E-07	6.28115856821893E-06	4.70703101593017E-06	-2.17288938550255E-06	0.985389945342898	-0.213845267135709
9.4	0.00140971067985202	0.00742566597074721	-1.98973285764749E-06	5.92002030180748E-06	-1.06525058288187E-05	7.72766174082337E-06	0.983130376920705	-0.217890167241026
9.5	0.00383374334186732	0.00560818223506124	3.28800477697701E-06	-7.58001936112729E-06	3.73580143936683E-06	-2.71892631473369E-06	0.983300199333969	-0.218618300353329
9.6	0.00154588622371066	0.00250777074719036	4.47834806960738E-06	5.68698284315553E-06	-7.31696493133263E-07	7.13594696422818E-06	0.984366073079232	-0.224236581979368
9.7	-0.000647836364152212	0.00271015195387389	-2.59362279273282E-06	-4.01157402678581E-06	3.8146020060522E-06	-7.57155872242532E-06	0.982861696633266	-0.228149172646394
9.8	-0.00225506799556129	0.00357582887483568	-4.88614848921762E-07	-4.27102468587441E-06	6.34287106832908E-06	9.63488496286767E-07	0.981652181075884	-0.230110788156907
9.9	-0.00346876499913672	0.00586190251258449	-2.71803338854563E-06	-6.34276244812105E-07	-8.6839706184421E-06	5.46156794818821E-06	0.981734073793611	-0.228921139447505
10	-0.000765425389628616	0.00763879126070681	4.54577713719475E-07	-1.78241738408031E-06	-3.06774044521548E-06	-8.16092342600469E-06	0.989568527362715	-0.232535497951447
10.1	-0.00101166825855583	0.00601847586848902	2.26670777146865E-06	4.86733057995475E-06	-3.19953374776994E-06	1.00175119676339E-05	0.985966656280401	-0.241105176099429
10.2	-0.00176478718249264	0.00670967268671026	-5.43181166902867E-07	-1.06797102736138E-06	-1.21912871232216E-06	-3.17253020848283E-06	0.982842357065509	-0.242452381071393
10.3	-0.00204262792667341	0.00772277297263872	1.15029674609945E-05	-2.94305772774627E-06	1.0237981680761E-05	-4.89180474381122E-06	0.981611033948892	-0.243863719312778
10.4	-0.00188582803320133	0.00987211983032394	-6.438034187353E-07	2.18499318279606E-06	3.08937781702467E-06	-2.21843316965432E-06	0.98145139084101	-0.245755558591156
10.5	0.00184232770309191	0.0110249048023243	-6.19874905902198E-06	4.73299641176814E-06	1.60689861600042E-06	4.37262081553779E-06	0.98097909604956	-0.251102822698621
10.6	0.00276437885261986	0.00916111155619846	-7.19074099656541E-06	1.08344779133464E-05	7.12387458272933E-06	4.32080197051876E-06	0.978219781015923	-0.25297959545816
10.7	0.00367562433073515	0.00861006810651073	-3.26098102789908E-06	1.59019758145902E-06	-5.44526212083014E-06	3.21711563159014E-06	0.978962061545478	-0.255668327127972
10.8	0.0039246047983769	0.00756966431110741	-1.95220824962186E-06	5.07114303220817E-06	8.60747853599394E-07	-3.2539190231102E-06	0.978883923514433	-0.259701926739016
10.9	0.00361201645374314	0.0079453597599889	-5.87613170173188E-06	-1.06798889787233E-05	5.0446680394581E-06	1.08640950680404E-05	0.97802232869105	-0.263166539851033
11	0.00656702497329996	0.00754849343777028	3.02097096305979E-06	2.63850849322492E-06	7.45984937095038E-07	-1.14004856647151E-05	0.977549641417707	-0.266132722935913
11.1	0.00551105677694425	0.00450290255206084	3.91937887806216E-06	1.46135753648548E-06	2.26399963990709E-07	-7.47989354694633E-06	0.975713637035562	-0.269937807581512
11.2	0.00410620495005868	0.00425080081401194	-4.49122279865952E-06	-1.97381221547591E-06	-7.45687253159687E-06	-4.8776010227456E-06	0.973350928910432	-0.273016899479477
11.3	0.00309860347785333	0.00454712383901515	6.21556019698919E-07	-6.46948762661551E-06	3.92948642029513E-06	1.43007706127385E-05	0.970158728704082	-0.275934305397253
11.4	0.00237822358212888	0.00595715570045397	-5.0910499813509E-06	8.2768461983298E-06	-1.43421133046207E-06	4.13326174448278E-06	0.965182471116972	-0.277990359118683
11.5	0.00516671127590811	0.00614976347092821	4.60445550923415E-06	8.13297479905134E-06	-9.35390371163905E-06	1.64479671354796E-06	0.965890808637479	-0.276011406525652
11.6	0.00390127259490133	0.00361160055676555	-3.87739885399583E-06	1.44102504971997E-06	5.18779233563217E-06	8.1988756782301E-06	0.96644508526587	-0.282967575367294
11.7	0.00223596534266968	0.0041342099719708	2.36230352182389E-06	1.06281465201363E-05	5.16240617497204E-07	-3.69475580109153E-06	0.962960391881105	-0.28758498955378
11.8	0.00142898168097039	0.00562607298450628	1.48302651764707E-06	4.49319049096039E-06	2.31292871749272E-06	4.56060025025978E-06	0.95971329817515	-0.289687855057119
11.9	0.00198987995991183	0.00863603721127947	7.58283698078955E-06	1.06204014598501E-05	3.92199091357897E-06	3.84198725458701E-07	0.959495584439004	-0.286771887130656
12	0.00744735419174231	0.00914200526867246	2.3545614345442E-06	-5.25585180899216E-06	-3.9813928754551E-07	1.78244821433503E-06	0.969204790634007	-0.290851244173503
