# GHZ S RI R 50
0.2	0.000834606761049386	0.0024221300859307	4.79490604174592E-06	-2.98486153064193E-06	-1.37310302709848E-05	1.31201175938742E-05	0.999547868407163	-0.00694398551196489
0.3	0.00132927211052773	0.00172487289762216	2.86544412091383E-06	6.6278560712997E-06	-1.66265372466484E-06	-9.32268504043191E-06	0.99948651305848	-0.00982270995969129
0.4	0.00162537573393981	0.00125558341259871	-1.86275923957596E-06	-4.01709520209788E-06	-9.01818397433728E-06	4.40415968143E-06	0.999528023614628	-0.0124672023802898
0.5	0.00173415295251411	0.000896834227131431	-5.35996008189206E-06	3.26421817942556E-06	-2.12681447995084E-06	6.75919917069178E-06	0.999419006682354	-0.0155655819608003
0.6	0.00185974967755941	0.000583610071452055	-1.39746193728378E-07	2.80639115822246E-06	-5.81590464204833E-07	-1.34147324150749E-07	0.999583238932784	-0.0186068301352141
0.7	0.00184738310684679	0.000354559336117932	8.77760032534399E-08	2.21970493778886E-06	4.90504516285626E-06	-3.40212108978265E-06	0.999241177820799	-0.0216889642257702
0.8	0.00190160390790554	0.000161379922554894	4.52989768610264E-06	8.26650890935611E-07	2.74470888441724E-06	2.00144000384724E-06	0.998928658838957	-0.0239550263570187
0.9	0.00189482314276348	-5.83311506955439E-05	-1.51510051913093E-07	-4.21995321401704E-06	-3.41897668996124E-06	-3.11100153905912E-06	0.998657484702415	-0.0264028744107322
1	0.00179737006002893	-0.000305142643991519	1.06033343230465E-06	4.29339188681113E-06	3.32819002775035E-06	9.33929791324928E-07	0.998210607198188	-0.0278094888600696
1.1	0.00159092064120433	-0.000562760351627034	9.04528633234372E-06	5.18528295642046E-07	-3.57904466900764E-06	-4.9942552417441E-07	0.998055743994076	-0.0296015718094485
1.2	0.0012146408726156	-0.00106365100549984	3.76164456808621E-06	-1.19968052429929E-06	-4.09730955829621E-06	-2.43852912921838E-06	0.99757940514259	-0.0304585066908071
1.3	0.000576887636705376	-0.00177411514691833	-7.61829771083552E-07	-1.42732968918352E-06	-2.58768793388636E-06	-8.7097005566724E-06	0.998020393396842	-0.0311757983668329
1.4	-0.000122287627333156	-0.00257632735029586	1.45343785068015E-08	3.44918174694677E-06	-4.28400017564327E-06	-4.12889520215818E-06	0.99813883972204	-0.0333556485609405
1.5	-0.000572358368461388	-0.00300627905932356	-1.29835520886367E-06	4.43202991810931E-06	6.55510282260696E-06	-7.41775841825874E-06	0.998848615787185	-0.0369419077991763
1.6	-0.000784046416290306	-0.00309760469823692	1.63046198080969E-06	-4.89389647601649E-07	4.24445745248012E-06	-5.39715696533577E-06	0.998431529703742	-0.0407562676204192
1.7	-0.000857578857956801	-0.00307424104285905	5.31890213270757E-07	3.95973488387553E-06	-8.28953946223713E-06	3.13178043429952E-06	0.998527297088983	-0.0434934536387991
1.8	-0.000919377643255071	-0.00300005663051848	1.83362828853664E-06	1.0789285857687E-06	5.6566766683111E-07	-1.7630055496177E-06	0.998324621493417	-0.0463080905083819
1.9	-0.001036185054308	-0.00303908463395846	3.23843080887271E-06	3.01940231254751E-06	-1.83372860590797E-07	-2.33175212937467E-06	0.998016107967808	-0.0485548273441961
2	-0.0012562185688533	-0.00304343892838921	-1.728743044632E-07	2.00570100120817E-07	-1.21718992041128E-05	5.42166256494197E-06	0.997592080894151	-0.0510912810333196
2.1	-0.00146469361200677	-0.00307299156533413	6.68012632963914E-07	-1.38357472267319E-06	1.38203749361786E-05	4.96299151772436E-06	0.997528168689974	-0.0535177739861209
2.2	-0.00174707733597101	-0.00307461905940859	1.64450255029523E-06	-1.51865997039307E-06	2.68430851815232E-06	-6.21565313861742E-06	0.997436249039737	-0.056086820047219
2.3	-0.00210265715963482	-0.00310901873327103	-1.6906699030067E-06	-3.4275207551611E-06	-1.79472295706203E-06	-4.59288544968464E-06	0.997018297135009	-0.0579915077322205
2.4	-0.00253897677838221	-0.00316091098489519	-1.20693375904461E-06	-4.40218142724357E-06	3.04849797228591E-06	1.08502111725774E-06	0.996878363548719	-0.061072823234005
2.5	-0.00313196769449585	-0.00311953656987173	5.38997184957706E-06	5.66792603594092E-06	-2.59680598458215E-06	1.61587479526941E-05	0.996514298691691	-0.0632013884601182
2.6	-0.00368290720685696	-0.00286739139837959	-2.27560715117358E-06	2.71498651399485E-06	4.30505354750183E-07	-4.31399575570808E-06	0.996630703000312	-0.0660804535922033
2.7	-0.00401629111566578	-0.00246101551488827	-2.41088523359377E-06	-3.63641058803528E-06	2.15357974907757E-06	-2.57369621470888E-06	0.996279590485597	-0.0690952964249988
2.8	-0.00412318160407116	-0.00205364250953123	4.00600195235163E-06	2.30917067020141E-06	9.83532177446988E-06	-6.96974435489246E-07	0.996451299195933	-0.0711433886852726
2.9	-0.00402177140757966	-0.00175698448629363	1.28859288037346E-05	6.97437487592783E-07	2.42932353585828E-06	-1.17227642145562E-05	0.996156142584097	-0.073233765007245
3	-0.00387891353557666	-0.00158435358159224	-3.85332313059875E-06	1.05120120153537E-06	-4.14828007829254E-06	-1.59429908692038E-06	0.996014631624673	-0.0756985423716681
3.1	-0.00369612859155166	-0.00150372501661278	4.76988597286299E-06	-9.84908843223837E-06	1.06863104403836E-05	2.39950968875402E-06	0.995777538673483	-0.0777519409025101
3.2	-0.0036082085479754	-0.00153948629750211	-5.37764510524072E-06	-7.40369532958677E-06	1.56419484327713E-05	5.37125927501901E-06	0.995524533325118	-0.0796564401446957
3.3	-0.00361583380021015	-0.00165845156035787	-8.78970880175753E-06	2.5530563068554E-06	-8.56675027187287E-06	-1.73257715926166E-06	0.995244167759905	-0.0829911664604752
3.4	-0.00381241741008457	-0.0018035040147943	9.05222248764188E-06	-7.56874106915349E-06	-7.34071786833852E-06	4.2408212510028E-06	0.995082772548701	-0.0849736315641281
3.5	-0.0041501496147939	-0.0018973095351213	3.13946848227223E-07	-5.32046695628033E-06	-4.40532344631265E-06	-8.92335503380504E-06	0.994910376519972	-0.0876803544958564
3.6	-0.0045308139875508	-0.00181877323433251	4.07421788023633E-06	4.89571821620049E-06	-7.09935024357606E-06	8.99500431716518E-06	0.994694415773904	-0.0903549456482648
3.7	-0.00486596718065755	-0.00162335826314015	1.52437835766018E-06	-4.52596437992964E-06	-5.10546548964988E-06	-6.58030104785871E-06	0.994357006127533	-0.0931828885544729
3.8	-0.00511561552306315	-0.00137676917798128	7.27231546017129E-06	-5.19794136552774E-06	-5.87834979335813E-06	-2.41356205965149E-06	0.993740738272856	-0.0952171792601091
3.9	-0.00525443840021199	-0.00111567350382121	-4.0276104753277E-06	-3.47921421164656E-07	-2.52867743835456E-06	1.1336416475965E-06	0.993378787292973	-0.0981156947876815
4	-0.00536237997457275	-0.000878739243544674	-3.38292230638219E-06	-8.06728894059766E-08	1.20762317972286E-06	8.66596957354946E-06	0.993177624032255	-0.0990837863828394
4.1	-0.00539603673546546	-0.000632007495427152	-2.90178829060761E-06	-3.85794225836153E-06	5.87908270780458E-06	3.03346462318172E-06	0.993338324002815	-0.100921778125962
4.2	-0.00540856740760846	-0.000462535309408056	-7.74412948343321E-07	-2.15573725173056E-06	5.69652185523603E-06	-1.84683805656055E-06	0.992849284045534	-0.103674354482104
4.3	-0.00543622151277111	-0.000347492949875729	-5.08537721897215E-07	3.23393632202271E-06	2.1298175795562E-06	1.77785811434127E-06	0.992672143500649	-0.105711695356227
4.4	-0.00562066362568338	-0.00029219760591903	2.57757457571866E-06	3.43873527160073E-06	7.18164356431552E-06	3.90533520434835E-06	0.99231676843539	-0.108028846789259
4.5	-0.00592848450820233	-0.000107533330353139	-6.46952373155255E-06	-2.24952821593161E-07	-8.57812542449152E-06	-2.10556777144542E-06	0.992362146644341	-0.110098725476685
4.6	-0.00632346191242147	0.000189472914144963	-9.94670236311974E-06	-9.21346801795484E-06	3.23210094200507E-06	-2.73165086834376E-06	0.992255308603331	-0.113104493872049
4.7	-0.00657087125507805	0.000652080278354236	1.27472934292031E-07	1.86419752780244E-06	6.05282065381387E-06	-6.73564501061122E-06	0.992170248008331	-0.115334693071523
4.8	-0.00668885026134224	0.00115310210171798	-6.38975379435761E-06	2.08364832739242E-06	7.73277108013008E-07	-1.27428517957226E-05	0.991739531759597	-0.117983757434521
4.9	-0.00660684216935818	0.00160515724495206	-3.41699752867911E-06	8.14229148161243E-06	5.71957453124356E-07	9.37186205432444E-06	0.991166685633372	-0.119888488231144
5	-0.00638354354486112	0.00194488936287246	9.63393479068768E-06	-4.06847913936052E-06	-6.92877221990941E-06	3.58217928159312E-06	0.99092408411135	-0.121333854652636
5.1	-0.00601263007685053	0.00218289753037804	-3.69119949855368E-07	-3.24962271780867E-06	-3.87330138121933E-06	-1.78812747371416E-06	0.990954794165087	-0.122748410009621
5.2	-0.00559697987375734	0.00225358220772743	-1.0699023213295E-06	-4.48277735457235E-06	8.78430092268543E-06	5.56654307936436E-06	0.990635535647028	-0.124961487862926
5.3	-0.00526428991580569	0.00218232378506098	2.28918884136318E-06	6.78597491626268E-06	8.78934697646745E-06	3.12510229019851E-06	0.990328603268679	-0.127165613336837
5.4	-0.00510967750136649	0.00206207600508246	2.70229685849848E-06	-3.14052568047069E-06	-2.67226461204608E-06	1.54970588130068E-07	0.990280537733315	-0.129802460299963
5.5	-0.00518897837800886	0.0020751670381552	2.10924392044789E-06	9.3103436690493E-06	-3.9206459747413E-06	-5.02878612000753E-06	0.990248931119383	-0.132412048709279
5.6	-0.00530125471467445	0.0022499176024396	-5.85227819611162E-06	-1.1317070336199E-06	4.86997139886372E-06	1.94175513691532E-06	0.990246305932516	-0.135096543108303
5.7	-0.00542215867503976	0.00254566641361286	3.3348844194407E-06	-1.42300733269433E-06	-5.04642034070353E-06	-4.28940360859892E-06	0.989903563731239	-0.137796836530127
5.8	-0.00547074919806225	0.00285728219485181	-2.05442352590471E-06	-4.74351025535569E-06	9.4584679497241E-07	-5.82097210498461E-07	0.989491063574844	-0.140069963646284
5.9	-0.00554327160807359	0.00317723657791106	-3.87679131412045E-06	6.20194604756316E-07	3.86046296669479E-06	1.2474223572101E-06	0.988855956182727	-0.142126772217982
6	-0.00573077524884043	0.00349660193968696	-5.93122449794995E-06	5.04568065453591E-06	-1.48381874573254E-06	1.96672032239542E-07	0.98849989716284	-0.143149517310187
6.1	-0.00589060725416218	0.00391313106908819	-5.9262707321587E-06	-4.69318739912647E-06	-4.00420304906698E-06	4.33391321488683E-07	0.988850567869647	-0.144343261681017
6.2	-0.00592043524399314	0.00428769543165389	2.81930616506412E-06	3.12333495060623E-06	1.05226997465703E-06	7.22251685880731E-07	0.988855840410014	-0.145841669731382
6.3	-0.00576988379426727	0.00451994214705601	1.64040502184219E-06	-7.47837024573938E-07	-1.33185534846842E-07	1.37483050861055E-06	0.988648998470264	-0.147994281568078
6.4	-0.0057022484497353	0.00453849100446028	-5.18083378701984E-06	-5.6177585318345E-06	3.81293747196725E-06	6.90581433421944E-06	0.988210309466106	-0.150238503848046
6.5	-0.00566587960576571	0.00459932100618689	9.06431087841228E-06	-2.46702048528498E-07	-7.32100897786467E-06	-8.98854217664424E-07	0.98820565050756	-0.153084145662421
6.6	-0.00558607142610326	0.0047977186042824	-1.48792006938141E-06	4.65526420596554E-07	3.37643461705725E-06	-9.37489362566828E-06	0.987832079604316	-0.156126797178978
6.7	-0.00537408664212395	0.00506210211457779	4.23865092030574E-08	7.74817580603762E-06	-4.89713570358151E-07	-6.08367730596863E-06	0.987276431888344	-0.158594389423446
6.8	-0.00515751827352739	0.00527116742558542	4.24494926516563E-06	1.65964590574996E-06	2.1846720030947E-07	-5.2335448480293E-06	0.986684837204504	-0.160948968706255
6.9	-0.00504535842162161	0.00546726961340483	-7.55461413128018E-07	2.47264561515763E-07	5.76030975768325E-06	-2.67567116747025E-06	0.986057493482684	-0.163022476034788
7	-0.0049832451650517	0.00581619912345473	8.02279321490044E-06	-4.75018840883504E-06	4.36803008626936E-07	-3.01913433259919E-06	0.985423785275047	-0.164542135618476
7.1	-0.00490025886132275	0.00622472236661332	3.843375899639E-06	2.04590985915551E-06	7.67186692906464E-07	7.22821157524748E-06	0.985111206122904	-0.166284366797289
7.2	-0.00468856791636864	0.00668521704794969	-2.45165677181197E-06	3.68885561611164E-06	-1.32875776640225E-06	-3.82814870163541E-06	0.984479961384863	-0.168174196034804
7.3	-0.00444787249241872	0.00702561833272682	3.44026611363183E-06	-4.90588405628634E-07	-2.44819218415048E-06	-1.92006937853772E-06	0.983359294763463	-0.170097869395306
7.4	-0.00434584270787506	0.00717615269463564	-6.18713341541865E-06	-2.7045782949868E-06	3.77059954364831E-06	2.50112181101084E-07	0.982087767740533	-0.172488573493353
7.5	-0.0044429503341129	0.00730523228315655	6.76060570539081E-06	-6.42879146958077E-06	-2.47899771642666E-06	7.97714226444264E-07	0.980747072577321	-0.174483985829892
7.6	-0.00452955453547719	0.00751897164458442	3.47679623104009E-06	5.20839415897852E-06	-1.02487438169386E-05	4.91291989121271E-06	0.980322953671613	-0.177203850014463
7.7	-0.00461897347043239	0.00776863365388077	6.01156576844072E-06	1.09468599615867E-05	3.48971692660834E-07	-1.13573925981099E-05	0.979864934137224	-0.180257230295412
7.8	-0.00444046125376939	0.00787482660028852	2.15456211921094E-06	9.86850991281295E-07	-3.11797743570676E-06	8.81600295151439E-06	0.979610159113405	-0.183261732267385
7.9	-0.00418898338532519	0.00785754052241525	2.55576953387506E-06	-2.3101399777469E-06	3.68728727734165E-06	3.47673050057473E-07	0.979459759988246	-0.186187575500479
8	-0.00388009012278333	0.00792140584631502	-2.81558196448514E-06	1.32595619255375E-06	6.88186641775995E-06	-1.84995059225552E-06	0.979555532372624	-0.188874323233093
8.1	-0.00350686803018161	0.00802744606670226	-1.7922588593798E-06	7.54095182571037E-07	-3.70791456170159E-06	-1.25713996384845E-06	0.979331193410896	-0.191957341789195
8.2	-0.00308230179700875	0.00806790731802535	-7.98505217115147E-07	6.33267535145738E-06	4.87250811478403E-06	4.35678790488436E-06	0.978949601166666	-0.194518969486737
8.3	-0.00270461180295786	0.00802564290973651	-8.46517036624275E-07	-1.42099852984618E-05	6.82048201283628E-06	5.42922285887206E-06	0.97835183257277	-0.197367844474139
8.4	-0.00250579770603932	0.00799027302198209	3.76085426940927E-06	-3.42535089806511E-06	-6.96830029741974E-06	-1.22268725696398E-06	0.977595753275291	-0.200092497931302
8.5	-0.00243799194750989	0.0080984237228764	4.67236302177438E-06	5.89029200422114E-07	8.41644547614124E-06	-6.8255580981685E-06	0.976917529365785	-0.202917712663661
8.6	-0.00234350191657692	0.00841551163261744	-3.26983018584045E-06	4.11382064283135E-06	1.00260453760024E-06	1.10937145293015E-05	0.976247023835797	-0.205663207063467
8.7	-0.00197066357579711	0.00878391967684158	2.68369967683728E-06	-1.99787765370914E-06	4.78737239726663E-07	-5.53518582868954E-07	0.975742467785393	-0.20824315560666
8.8	-0.001385957080667	0.00901694099630278	1.22272138709887E-07	-1.25291381121249E-06	-9.73955285824133E-07	9.76668642056338E-06	0.975206109886788	-0.210478865983652
8.9	-0.00070995556931849	0.00892239824933992	-3.66389755019282E-06	2.2920731845592E-06	4.83337241760671E-06	-1.80233570317189E-06	0.975164228716195	-0.212446389327087
9	-0.000159130980217563	0.00858006997435896	-1.88988471442371E-06	4.96550816793028E-07	-3.20391736388574E-06	-1.05349344255169E-05	0.975074570017664	-0.214810487150486
9.1	0.000281384570733157	0.00810233453027819	5.24969974728836E-06	5.93238751356129E-07	9.12399624829053E-07	3.82374241583207E-07	0.974792483695182	-0.217047295329269
9.2	0.000608356342073512	0.0075657327565089	-8.71952703001021E-06	-4.58337732380526E-06	-8.76985947947249E-07	-6.12820133380204E-06	0.974356931419155	-0.219721198654855
9.3	0.000737005092878668	0.00700434226178468	1.83655679394193E-07	6.21739759576524E-06	4.64167970446072E-06	-2.19109016726937E-06	0.973931583112154	-0.222399373681004
9.4	0.000639849698370428	0.00647920484688588	-1.93343201259374E-06	5.88574845011969E-06	-1.05139797660306E-05	7.73767419227588E-06	0.973109374081962	-0.22551716688288
9.5	0.000306359549485579	0.00631765917357222	3.19552310038848E-06	-7.56861047797534E-06	3.68800337861683E-06	-2.73967995240099E-06	0.97218521714815	-0.228235696630887
9.6	-9.00981807578906E-06	0.00641921708871341	4.49929125198255E-06	5.58834165458815E-06	-6.48790587896343E-07	7.08015416453901E-06	0.971431802929041	-0.231335052358296
9.7	-0.000114372974614815	0.00666370881000661	-2.60607129678823E-06	-3.94654013425264E-06	3.70385278018346E-06	-7.532252426598E-06	0.970563735305237	-0.233901091794989
9.8	-0.000158120695056015	0.00687201760002451	-5.23266475814123E-07	-4.22234020371498E-06	6.28627146934091E-06	8.94569870215849E-07	0.97013353466113	-0.235927723938426
9.9	-0.000204689138521916	0.00708410824057169	-2.69333769819346E-06	-5.97225762317534E-07	-8.52332509481945E-06	5.49283116565018E-06	0.969576446486722	-0.23755809406122
10	-0.000325795388956008	0.0073683655767064	4.30782771751578E-07	-1.75491646045237E-06	-3.08563399105555E-06	-7.98949127479214E-06	0.969628469771511	-0.239110417967617
10.1	-0.000332592342149428	0.00782956077212499	2.24722324780894E-06	4.78099618610162E-06	-3.11294867610921E-06	9.86734050502939E-06	0.968964949765392	-0.241214092827391
10.2	-4.52296565548592E-05	0.00826137742521948	-5.38387154052786E-07	-1.05105982427722E-06	-1.21056545867455E-06	-3.12341072814053E-06	0.968219716324162	-0.242552199958869
10.3	0.000379199886930349	0.00851484605262948	1.13320188850989E-05	-2.93167490486853E-06	1.00798334448731E-05	-4.84943786790561E-06	0.967559109610315	-0.244132854155677
10.4	0.000784040055553467	0.00853664533340759	-6.30781889190889E-07	2.15265166474323E-06	3.03904888353764E-06	-2.18917861042376E-06	0.966893502205746	-0.245900470166057
10.5	0.000994454171505788	0.00858049421346008	-6.12724265037179E-06	4.65483184148509E-06	1.57491380234724E-06	4.31802078640868E-06	0.966640084733339	-0.248428329990657
10.6	0.00116762880356015	0.00871793772898358	-7.12027577335517E-06	1.07145739613698E-05	7.04527327956295E-06	4.27881886494976E-06	0.965918049118451	-0.251299061278077
10.7	0.00159415084010757	0.00902774278073904	-3.22302674040502E-06	1.57215954291974E-06	-5.38181973580627E-06	3.18048884598816E-06	0.965363655375156	-0.254093640090357
10.8	0.00209707040569925	0.00919926942255723	-1.93097888607819E-06	5.00622537690611E-06	8.52045275276006E-07	-3.21251752659487E-06	0.964641019270019	-0.25647381628595
10.9	0.00249860325744606	0.00927011324114561	-5.77456140754963E-06	-1.05526321212723E-05	4.95362484168456E-06	1.07325277824456E-05	0.964121435131572	-0.25872121673404
11	0.00293813933629501	0.00940670505676534	2.97557411547465E-06	2.61906849915012E-06	7.80511073526445E-07	-1.12641233264939E-05	0.963400477794978	-0.260890639626873
11.1	0.0034822070186914	0.00961110045343394	3.86748157035867E-06	1.45875882558895E-06	2.51786066474199E-07	-7.39046615797822E-06	0.96205367889979	-0.262815807666379
11.2	0.00429483338185732	0.00965278310033142	-4.42709185971061E-06	-1.97331213752496E-06	-7.34212628902762E-06	-4.85755155696425E-06	0.960680733229801	-0.264433770927457
11.3	0.00525003868098983	0.00932082151730007	6.60645652784301E-07	-6.39321730773118E-06	3.78417787622983E-06	1.41698785237914E-05	0.959679987487677	-0.265846668173847
11.4	0.00589520690374091	0.00867392715815598	-5.12244415450404E-06	8.16221203743804E-06	-1.45914803724742E-06	4.08591462213033E-06	0.958432982151481	-0.267843099632144
11.5	0.00618156781282762	0.00800041156804772	4.53328783028648E-06	8.10492768350862E-06	-9.30285120182745E-06	1.58617629223178E-06	0.957736708426351	-0.269994918674731
11.6	0.00638742736728331	0.00736171206886439	-3.84852800388007E-06	1.40510819725573E-06	5.09136472121542E-06	8.15004553367255E-06	0.956725517820214	-0.273588389156255
11.7	0.00657022537989116	0.00669161460530721	2.25968293091918E-06	1.05466594312845E-05	5.39408513712053E-07	-3.65629364659416E-06	0.955368018335417	-0.276914388661627
11.8	0.00665599368511942	0.0059996641399189	1.43532352660656E-06	4.46797790087409E-06	2.25787117213336E-06	4.54139280121885E-06	0.954318726137878	-0.279981143101913
11.9	0.00656113914980426	0.00529694594824718	7.46405636224821E-06	1.05762771981767E-05	3.88836318321747E-06	4.0245702073344E-07	0.954269425675569	-0.281875872208095
12	0.00614738531155781	0.00483408532723744	2.35313768221936E-06	-5.16646358151501E-06	-4.03368098500069E-07	1.75458375322535E-06	0.954934020327543	-0.284728148263887
