# GHZ S RI R 50
0.2	0.000326715657996292	0.00184623099121223	4.80643513844864E-06	-2.98338354336204E-06	-1.37699941396671E-05	1.31231764783593E-05	1.00087540033572	-0.00603602202351915
0.3	0.000885162129034291	0.00139416807278224	2.86290273742041E-06	6.64350785728617E-06	-1.65469859592216E-06	-9.34189896625425E-06	1.00113605277781	-0.00880982717488243
0.4	0.00130658450368862	0.00132476512793852	-1.86381283322765E-06	-4.02826685592919E-06	-9.04345179782092E-06	4.40705614682218E-06	1.00178110790029	-0.0114632223199587
0.5	0.00225852967737902	0.000713103603448127	-5.37048990478826E-06	3.2710827628035E-06	-2.13065662825906E-06	6.77286182004509E-06	1.00179987864981	-0.0157263688694254
0.6	0.00181314559841469	-0.000337206835826474	-1.41986060224853E-07	2.81067358981607E-06	-5.82402174059824E-07	-1.34775792618661E-07	1.0007581338948	-0.0182942765057527
0.7	0.0013710150220908	-0.000383519270692013	8.57114265377236E-08	2.22453931435791E-06	4.91898319813835E-06	-3.40441728125736E-06	1.00070363589477	-0.020551715445073
0.8	0.00116940663732403	-0.000389199112273513	4.54100026873394E-06	8.33359913355648E-07	2.74993478190726E-06	2.00945684570401E-06	1.00089764210373	-0.0224346142991681
0.9	0.000821084100073725	-8.94829652443105E-05	-1.48160967146983E-07	-4.23383560035238E-06	-3.42727954981331E-06	-3.12424731017393E-06	1.00134229864238	-0.0244627971104504
1	0.00160535975879206	0.000616155440326833	1.06391318828611E-06	4.31015927320264E-06	3.34097157387298E-06	9.37958809451913E-07	1.00265956594542	-0.0262939356496234
1.1	0.00199986750150394	-0.000575163640450347	9.07782837904905E-06	5.17406422660578E-07	-3.59201779122092E-06	-5.00034699223928E-07	1.00234938170677	-0.0298899369437864
1.2	0.00136065364060213	-0.00132345225769057	3.7746326539492E-06	-1.20583872601469E-06	-4.11327851053853E-06	-2.44533397398245E-06	1.00123569883659	-0.0312238424082971
1.3	0.000521746924318683	-0.0021955816010561	-7.65518474701013E-07	-1.4316216421818E-06	-2.60316063660405E-06	-8.73746147065288E-06	1.00084349092654	-0.0322294903210275
1.4	-0.000431257994253914	-0.00285845673983177	1.74719059415443E-08	3.45941996827785E-06	-4.30019624608737E-06	-4.1375707596278E-06	1.00003007416842	-0.0339535745842245
1.5	-0.000359301694516914	-0.00362387068383419	-1.29895267890123E-06	4.44567269007561E-06	6.56868507770882E-06	-7.4436871466794E-06	1.0008867425114	-0.0374104345449127
1.6	-0.00133179917160471	-0.00412921240552369	1.63492479553168E-06	-4.92344111276258E-07	4.25232878413346E-06	-5.41725829777455E-06	0.999893244758918	-0.0410772326258315
1.7	-0.0016097949777264	-0.00373043210093664	5.3812895393365E-07	3.97128265807867E-06	-8.3113673103083E-06	3.15104216846119E-06	1.0003188160675	-0.0434456468514841
1.8	-0.0016579972662668	-0.00336301506298156	1.84056991799189E-06	1.07990334063553E-06	5.65168791606115E-07	-1.76908556769179E-06	1.00043933113802	-0.0461515324773415
1.9	-0.00150950404961439	-0.0029132786748751	3.25152691517063E-06	3.02653124736366E-06	-1.85928181564639E-07	-2.33920283198691E-06	1.00081780124842	-0.0478008595744853
2	-0.000590419840717628	-0.00321893137384531	-1.73501586448982E-07	2.01786309988542E-07	-1.22265431160653E-05	5.46356908408711E-06	1.00296399831015	-0.0514931137314454
2.1	-0.0012458526191159	-0.00424400584101862	6.66901236902341E-07	-1.39208572494237E-06	1.39001587004114E-05	4.94389862677964E-06	1.00153866264342	-0.0564615662764108
2.2	-0.00203873605400265	-0.00424153470714769	1.64602459532729E-06	-1.53038568825074E-06	2.67413639200696E-06	-6.24993946356461E-06	1.00034154483335	-0.0589104224717509
2.3	-0.00276102398616128	-0.00409090347026854	-1.7096135351648E-06	-3.43459924270327E-06	-1.81829319717688E-06	-4.60407768134363E-06	0.999649871780165	-0.0606395629363501
2.4	-0.00345193776164964	-0.00352794249275155	-1.22950931548163E-06	-4.41366946348411E-06	3.06433699071696E-06	1.07656164541019E-06	0.999543218391334	-0.0637394215707354
2.5	-0.00305836007932684	-0.00291807622003643	5.43224463996432E-06	5.65940832186244E-06	-2.5290166478134E-06	1.62182972934488E-05	0.999311882504807	-0.0664781613797312
2.6	-0.00332831216109917	-0.00352727214095284	-2.27003246707549E-06	2.73158895997586E-06	4.13426259061573E-07	-4.32694517580088E-06	0.998790038127454	-0.0698880043604201
2.7	-0.0039472451967942	-0.00337860029087095	-2.43365765197466E-06	-3.63587566884418E-06	2.14820039916728E-06	-2.59037048558146E-06	0.997988196832216	-0.073208199185648
2.8	-0.0043287555001927	-0.00294212774767864	4.02837759718093E-06	2.29589413997453E-06	9.85903503925148E-06	-7.47132218183903E-07	0.997669336957317	-0.075486650794987
2.9	-0.00421571500208283	-0.00227077990507936	1.29215685492769E-05	6.28869962610529E-07	2.3713795907855E-06	-1.17649774509135E-05	0.997074131448736	-0.0776650239789987
3	-0.00329025199827728	-0.00234696424896336	-3.85472716747324E-06	1.07412099290158E-06	-4.16463048734879E-06	-1.574666243515E-06	0.996783664913374	-0.0804784208588109
3.1	-0.00355946389043034	-0.00297448095157368	4.72646238897102E-06	-9.89634563082341E-06	1.07224466250743E-05	2.34640738637178E-06	0.996007608009562	-0.0828425139096517
3.2	-0.00382469819828879	-0.0029661252667818	-5.43283311850667E-06	-7.38598864186243E-06	1.57052178327676E-05	5.28777192691434E-06	0.995299281082289	-0.0847877432509411
3.3	-0.00408425787366078	-0.00294647577051541	-8.78613142099824E-06	2.61376419838964E-06	-8.59060796301572E-06	-1.6796337209609E-06	0.994490313623611	-0.0881713256388825
3.4	-0.00433365565337404	-0.00262731871033234	9.00550997949286E-06	-7.63359532048157E-06	-7.31565276000932E-06	4.2924868701112E-06	0.993572050730553	-0.089947052659157
3.5	-0.00384069897196777	-0.00279794245732957	2.83476816531616E-07	-5.32080000639217E-06	-4.45507382634323E-06	-8.89574892388724E-06	0.993357206376142	-0.0918554768569169
3.6	-0.00464046515539135	-0.00343384102968945	4.10341454585461E-06	4.87356797502318E-06	-7.04948602703071E-06	9.03814273184698E-06	0.993081807654139	-0.0948218857147316
3.7	-0.00544031201972864	-0.00305588688807578	1.49656530392403E-06	-4.53455043346869E-06	-5.14476732091583E-06	-6.5481729492194E-06	0.992325902333201	-0.0974260506351856
3.8	-0.00588004343897507	-0.00241690186417804	7.23601880588784E-06	-5.23792919298031E-06	-5.88870485207565E-06	-2.37659423582932E-06	0.991644420392725	-0.0990400277208986
3.9	-0.00580813311288153	-0.00152240271874799	-4.02611759741225E-06	-3.25997044268672E-07	-2.52047757449146E-06	1.14627801862978E-06	0.991994129715568	-0.101332289421133
4	-0.00476724479049099	-0.00144860422338839	-3.38450157417627E-06	-6.1025846070113E-08	1.25841674641877E-06	8.66179034600101E-06	0.993781137868644	-0.104169822905184
4.1	-0.00508770908676982	-0.00211006792569483	-2.92675476273826E-06	-3.83487186722252E-06	5.89615775359738E-06	2.99012156856961E-06	0.991580004969047	-0.108105505443283
4.2	-0.00550534842340132	-0.00195523058645419	-7.87960249749824E-07	-2.14708931760215E-06	5.67503509833053E-06	-1.88294671841233E-06	0.989585417034634	-0.110314719144354
4.3	-0.00574983832759182	-0.00165116186236577	-4.85737939127974E-07	3.23089034424917E-06	2.13753049457484E-06	1.75995516359702E-06	0.98878089374271	-0.111886190951492
4.4	-0.00588489879931716	-0.00105105512636004	2.5955011797544E-06	3.41224079344646E-06	7.19165974447159E-06	3.84531463538285E-06	0.98808396600655	-0.114033409739459
4.5	-0.00503485462740573	-0.000896603010503344	-6.44409584258807E-06	-1.75923333297389E-07	-8.55784328082502E-06	-2.0329876654703E-06	0.987095919107142	-0.116685081895913
4.6	-0.00556803305320179	-0.00164196403645895	-9.94834342954371E-06	-9.10630795047924E-06	3.1989645896904E-06	-2.73622869238891E-06	0.985264835055346	-0.118652393915437
4.7	-0.00622265397791328	-0.00140892200839905	1.36379173641898E-07	1.85355300042928E-06	5.98574061634614E-06	-6.73068899134913E-06	0.98467543207232	-0.119781007110036
4.8	-0.00669371864212528	-0.000906264855824386	-6.34443204772568E-06	2.10275658526873E-06	7.07916377455126E-07	-1.26760943652467E-05	0.983969822357786	-0.121598466453457
4.9	-0.00677302820826703	-3.76112576641878E-05	-3.35835933166312E-06	8.10991558016737E-06	6.12643674164969E-07	9.31340360271344E-06	0.983261043787511	-0.122808673644577
5	-0.00578932401906548	9.4291654498084E-05	9.55186341640342E-06	-4.07860952456367E-06	-6.867157408822E-06	3.58496893392975E-06	0.982951388909302	-0.123959625408994
5.1	-0.00609292720207099	-0.000315596033689865	-3.77025309079641E-07	-3.22752815903627E-06	-3.85401643097904E-06	-1.7643566569258E-06	0.982576180360015	-0.124894151711052
5.2	-0.00615758995222954	3.93825726638912E-05	-1.07719732666009E-06	-4.45065614204361E-06	8.74555461957697E-06	5.50311356404894E-06	0.982270047077679	-0.126575322660739
5.3	-0.00600115207996821	0.000355061438780567	2.29536811625358E-06	6.73281054469559E-06	8.73991724865167E-06	3.0759406184901E-06	0.981863952147287	-0.128664496259737
5.4	-0.00561935835311938	0.000904353584752422	2.67170954422797E-06	-3.12466836180234E-06	-2.6511636718692E-06	1.62058247099E-07	0.981135174655105	-0.130974798107524
5.5	-0.00445656089800782	0.000433016650236422	2.10465975906056E-06	9.22771151189202E-06	-3.8943943262371E-06	-4.98013724978036E-06	0.981033162458672	-0.132649383063352
5.6	-0.00534819875483986	-0.000317925947876337	-5.80754368614329E-06	-1.11800213823297E-06	4.83357809070242E-06	1.92254563481938E-06	0.980651404639889	-0.135048886253374
5.7	-0.00610787834436865	0.000213320593879983	3.30772360411995E-06	-1.41355336303651E-06	-5.00881038528376E-06	-4.25272640475065E-06	0.98000623185883	-0.13668621612344
5.8	-0.00654113668016154	0.000994152128673764	-2.03734493527043E-06	-4.70632574078639E-06	9.38462088184618E-07	-5.77327026323129E-07	0.979987509916216	-0.137753986153033
5.9	-0.00665588638426591	0.00241652935946371	-3.85038354490713E-06	6.11312784538968E-07	3.83198189221722E-06	1.24321333211191E-06	0.981105870510899	-0.138576718164608
6	-0.00499920222972038	0.00332264248630075	-5.89921070284777E-06	5.02101153524735E-06	-1.47607717765253E-06	1.96024739292137E-07	0.983790709310506	-0.142340430375401
6.1	-0.00469510370446239	0.00242232036300828	-5.89201183736123E-06	-4.65401591706135E-06	-3.97655458806471E-06	4.35457318048815E-07	0.981332351831229	-0.145942819334747
6.2	-0.00494918417464601	0.00228900909257119	2.80001155213913E-06	3.09888112046328E-06	1.04485108307529E-06	7.16400630871398E-07	0.97969976353068	-0.146669644273531
6.3	-0.0051323270305165	0.00234144833786765	1.62857268783637E-06	-7.42020711242571E-07	-1.3250483171846E-07	1.36475187095934E-06	0.978934739781044	-0.147656471446313
6.4	-0.00500929718315912	0.0027551658963957	-5.14377944751239E-06	-5.58070703259882E-06	3.78489762127298E-06	6.85955839517097E-06	0.979030173832629	-0.148998718749323
6.5	-0.00405502741135365	0.00187579477413017	8.98874560597702E-06	-2.49240487909191E-07	-7.26053313237434E-06	-8.87664661484076E-07	0.978062976218919	-0.152757273190269
6.6	-0.00515141055175092	0.00123691410449939	-1.47463514756212E-06	4.58657841298734E-07	3.36009877766939E-06	-9.28071432389812E-06	0.97617070348851	-0.15300644525123
6.7	-0.00567674731792955	0.00167969910312122	1.94400230218147E-08	7.67844643494912E-06	-4.67581635277907E-07	-6.0302567468711E-06	0.976586523198652	-0.153585399738241
6.8	-0.00600985967906802	0.0023296582345869	4.20212979316311E-06	1.66082490868826E-06	2.35740365371717E-07	-5.18744586052849E-06	0.976892185163763	-0.154858856571298
6.9	-0.00578770613635823	0.00358181787178514	-7.50238081105449E-07	2.41914897783511E-07	5.72392191286317E-06	-2.62829056815573E-06	0.977553447472093	-0.155898566853697
7	-0.00407144094335083	0.00342242350733096	7.98420632461915E-06	-4.67318396921128E-06	4.48499860266208E-07	-2.99349525402174E-06	0.97861030325938	-0.158374186527791
7.1	-0.00491254549786898	0.00255005902078131	3.80526421447094E-06	2.05070605386273E-06	7.2489713616738E-07	7.18000418381441E-06	0.977137907644558	-0.160457142692743
7.2	-0.00561541801349645	0.00308989333283583	-2.45289677696699E-06	3.64975354717861E-06	-1.29959523344281E-06	-3.80739854091431E-06	0.976197711088912	-0.161195208065251
7.3	-0.00621358012241994	0.00388081007362406	3.41666678016961E-06	-4.6863102516888E-07	-2.41937936942207E-06	-1.9184149416331E-06	0.975031013182373	-0.161831870938609
7.4	-0.00668415595407422	0.0054787955684521	-6.11536560758564E-06	-2.71929642857428E-06	3.7356066195462E-06	2.71477048981848E-07	0.973801866780222	-0.161608952900258
7.5	-0.00509646434104239	0.00666643129206364	6.76463279098631E-06	-6.31315696064117E-06	-2.46600184470712E-06	7.68146243992798E-07	0.976672553108798	-0.161080392035688
7.6	-0.00498716024328832	0.00613010941135063	3.4066890160024E-06	5.20693135477171E-06	-1.02281587558691E-05	4.78732888487867E-06	0.978341476977345	-0.166051713035142
7.7	-0.0050400241510969	0.00653970134484687	5.87271175015816E-06	1.09365843007211E-05	4.53036612439144E-07	-1.12851569114851E-05	0.978241443323861	-0.169579234910624
7.8	-0.00460904523191968	0.00685022645818726	2.13290349866577E-06	1.00302406669405E-06	-3.18918410457614E-06	8.73659035368805E-06	0.978653389293219	-0.172570790477299
7.9	-0.0035375066244729	0.00707976110313	2.57147564933359E-06	-2.27225458471137E-06	3.66866857202712E-06	3.8763874491179E-07	0.980260663917636	-0.17525209431007
8	-0.00193776306009357	0.0055214833371557	-2.82769834721487E-06	1.29557577523229E-06	6.89688993313995E-06	-1.77658040088449E-06	0.983013749157712	-0.181258881285692
8.1	-0.00279317949300288	0.0044702467582139	-1.79796340990877E-06	7.37642656038917E-07	-3.69453903849593E-06	-1.28955133302919E-06	0.980016607222446	-0.185859124459943
8.2	-0.00312587586762148	0.00455238462370727	-8.55744315019451E-07	6.32370280108707E-06	4.83164929452556E-06	4.39980802453546E-06	0.979163238494564	-0.187309677840972
8.3	-0.00328309580507933	0.00482223036952746	-7.18585630915851E-07	-1.42257226723208E-05	6.77530090276911E-06	5.49394839959177E-06	0.9791260699922	-0.189491741396421
8.4	-0.00303425715531705	0.00574229933107937	3.79341172227727E-06	-3.39863897442525E-06	-6.96661757915664E-06	-1.28123256925085E-06	0.979293642955773	-0.192011501161728
8.5	-0.00132457531307272	0.005366128198605	4.66643910027489E-06	6.266855650992E-07	8.46958210499867E-06	-6.75577161474313E-06	0.978951810279076	-0.195291156891781
8.6	-0.00206204008248379	0.00432388362624112	-3.31274973718721E-06	4.08336926320692E-06	8.92222058571302E-07	1.11097931074666E-05	0.978562689679345	-0.19736836516138
8.7	-0.00263647368578992	0.00468179477889382	2.70972402293538E-06	-1.97450016884259E-06	4.85400079704191E-07	-5.49755772671061E-07	0.979093016332634	-0.199714298508974
8.8	-0.00288271310371378	0.00538883530500646	1.35165004584171E-07	-1.25587932629851E-06	-1.07452700475762E-06	9.78959565819327E-06	0.979513721361497	-0.202108820234954
8.9	-0.00250121757991867	0.00665076365325291	-3.70043042297326E-06	2.26823758253126E-06	4.87038005254737E-06	-1.76571184940559E-06	0.980230139289093	-0.204368070681641
9	-0.000377638178183789	0.00674277648429825	-1.90238137868493E-06	4.81399290850502E-07	-3.1212945504018E-06	-1.0608573494102E-05	0.980961817264225	-0.206900219271957
9.1	6.36350459519067E-05	0.00556387203371953	5.27300607503223E-06	6.44214620153874E-07	9.13911033156971E-07	3.9276064071043E-07	0.981484639614031	-0.209715166434995
9.2	0.000389311480940519	0.00492814176204037	-8.73236591652837E-06	-4.68431960725902E-06	-8.30310025447244E-07	-6.17191214592075E-06	0.981370485113443	-0.212991816120583
9.3	0.000419814819954785	0.00431833686749833	1.34161499328538E-07	6.25588954221136E-06	4.68712831198703E-06	-2.1663621841263E-06	0.980862782093501	-0.215863012964979
9.4	0.000618769170949758	0.0043276057457118	-1.99231480990078E-06	5.90297129749451E-06	-1.06360935517376E-05	7.69524474357919E-06	0.980098328838058	-0.218184943017236
9.5	0.00141869390793924	0.0031156693938143	3.28675327207825E-06	-7.5847517569184E-06	3.73654172022204E-06	-2.72156171813213E-06	0.981150312929873	-0.220430633154628
9.6	5.99389923339029E-05	0.00227826325573822	4.48417379716509E-06	5.66999231550833E-06	-7.15836907735547E-07	7.1278660456714E-06	0.981195691013231	-0.224824499085997
9.7	-0.000798382982970353	0.00263156783278327	-2.59408466648449E-06	-3.99919240225981E-06	3.79522930970141E-06	-7.56115361829671E-06	0.980711854506784	-0.227764145756033
9.8	-0.00146713728226949	0.0033128685709226	-4.92904641626706E-07	-4.2621571300599E-06	6.33177257620751E-06	9.53847651139429E-07	0.98096059678519	-0.229809399264273
9.9	-0.00155706672271663	0.00472676893694158	-2.7154294931362E-06	-6.26306265063856E-07	-8.65641592199447E-06	5.47536926134214E-06	0.982289436703959	-0.231208372953118
10	-8.98415215573947E-05	0.00491696086738052	4.46203329631676E-07	-1.77419632924394E-06	-3.07799149752676E-06	-8.10625512098867E-06	0.984479080621878	-0.236239070414498
10.1	-0.000594291376516871	0.00450114213166894	2.25226029154277E-06	4.84266483895379E-06	-3.18758237765994E-06	9.9628158079416E-06	0.981782324021679	-0.239476638348863
10.2	-0.000826368441971302	0.00513567246474246	-5.40071076343214E-07	-1.06459833699012E-06	-1.21134368441547E-06	-3.162101983618E-06	0.981219673009398	-0.240732310269987
10.3	-0.000701114777072543	0.00602626987455474	1.14697441353738E-05	-2.92590482888968E-06	1.021001623628E-05	-4.86956446830642E-06	0.981143771782113	-0.242968971731231
10.4	0.000279404488644786	0.00726625814170334	-6.42318765962516E-07	2.17631951401516E-06	3.07852515492278E-06	-2.20852820362331E-06	0.981003254669402	-0.246250636831943
10.5	0.00251918695369507	0.00674741494266846	-6.18938497848728E-06	4.69495074352879E-06	1.58684046783785E-06	4.36056270728419E-06	0.979209444325412	-0.25083809854903
10.6	0.00263878496340126	0.00552080081503208	-7.20517193470581E-06	1.08028052930804E-05	7.10397431153226E-06	4.33086713069467E-06	0.977580625032413	-0.253414034036661
10.7	0.00260401156238811	0.00524514279909128	-3.25639065402763E-06	1.58339789905809E-06	-5.43823180967441E-06	3.20466102452355E-06	0.976449839754571	-0.256374506268695
10.8	0.00253287577768406	0.00532658883724953	-1.95208645552538E-06	5.05445577674281E-06	8.61795993675886E-07	-3.24363574773947E-06	0.975264282438383	-0.258792862574475
10.9	0.00303450646079175	0.00600145929901805	-5.83590951318139E-06	-1.06521167647267E-05	5.00709789589624E-06	1.08341715836634E-05	0.974707775310241	-0.260989233212493
11	0.00480156271704806	0.00516338525536788	3.00567599617422E-06	2.64164481935049E-06	7.79537793107565E-07	-1.13712963048428E-05	0.974376353476348	-0.262979974442749
11.1	0.00428795600163996	0.00406487780784657	3.90884510531669E-06	1.4670119884886E-06	2.42027422782955E-07	-7.46529062916828E-06	0.973831153510526	-0.265110290339348
11.2	0.00402750291599768	0.00392384748018817	-4.47646353624713E-06	-1.97976420656475E-06	-7.42865251717145E-06	-4.88385643563881E-06	0.973118250697589	-0.26762955221912
11.3	0.00390562494377902	0.00409988697955239	6.41584292408666E-07	-6.45323668049491E-06	3.87357694325941E-06	1.42823844039632E-05	0.972045045482449	-0.270046136177776
11.4	0.00419352665498942	0.00473993841763214	-5.12746819312586E-06	8.24508172629223E-06	-1.45330727116441E-06	4.1228345966285E-06	0.970350384788258	-0.272383876494354
11.5	0.00553299507074002	0.00388320322278726	4.59535917913831E-06	8.15791683954907E-06	-9.37469761163028E-06	1.62760666930325E-06	0.971082616971374	-0.275296105036793
11.6	0.00480350737268802	0.00292729496276533	-3.87571580307606E-06	1.43537451707883E-06	5.17400897307492E-06	8.19775443530988E-06	0.969430492161758	-0.280913799899205
11.7	0.0044502004060681	0.00307487000742906	2.33561723067891E-06	1.06200677502382E-05	5.23837722925994E-07	-3.68896247697566E-06	0.967462180238439	-0.285131388690309
11.8	0.00459331298382703	0.00352673498295495	1.47110164355669E-06	4.49500943996995E-06	2.30048179241621E-06	4.56447673001969E-06	0.965990203389638	-0.288927820202105
11.9	0.00576683795865927	0.00417722029985066	7.58517616944942E-06	1.06340206788887E-05	3.92555371338678E-06	3.86371368460817E-07	0.96631432996197	-0.291516248127331
12	0.00754322802587437	0.00251068026441781	2.3382565093721E-06	-5.24216957558192E-06	-3.93941188924185E-07	1.7771625016868E-06	0.966193908472809	-0.298110950531244
