# GHZ S RI R 50
0.2	0.000854003035226915	0.00254474115210825	4.79340821258543E-06	-2.98532869039164E-06	-1.37257790902302E-05	1.31206258285218E-05	0.999345111157454	-0.00706378762916538
0.3	0.00133978048736497	0.0018025507627076	2.86589841383459E-06	6.62591932356545E-06	-1.66381656834438E-06	-9.32034960086388E-06	0.999234747298404	-0.00993773035867773
0.4	0.0016531522744866	0.00126046452109214	-1.86262471703872E-06	-4.01550439498813E-06	-9.01458521221518E-06	4.40378237143959E-06	0.999186089997257	-0.0126021728915393
0.5	0.00157345117989744	0.000852932187226444	-5.35845928504848E-06	3.26227544354914E-06	-2.12698395999655E-06	6.75643250020905E-06	0.998919638021906	-0.0154838227261915
0.6	0.00173265466035113	0.000783145176765714	-1.39939308288792E-07	2.80600080037072E-06	-5.81501620280554E-07	-1.34173109484299E-07	0.999381380499205	-0.0184216084544937
0.7	0.00186961656812742	0.000573315516434005	8.78781956135359E-08	2.21928490465434E-06	4.90394554724011E-06	-3.40174661405193E-06	0.999111575248461	-0.0216732581435543
0.8	0.00203231216524271	0.000362427164701719	4.52876071894981E-06	8.25930130798883E-07	2.74418453249112E-06	2.00059663110506E-06	0.998777338442335	-0.0240488377637675
0.9	0.00220692577305939	6.4893192006023E-05	-1.52197384943468E-07	-4.2182491948923E-06	-3.41816895316252E-06	-3.10915944236337E-06	0.998485393314936	-0.0266398874380065
1	0.00208849713682713	-0.000591973621286636	1.05995550768317E-06	4.29050778861904E-06	3.32608318931958E-06	9.33075061218326E-07	0.997716243883208	-0.0282496725112107
1.1	0.00155315266423694	-0.00075745391676243	9.03972806030009E-06	5.1934165802619E-07	-3.5768086638684E-06	-4.99568642876074E-07	0.997360078283562	-0.0296814808459555
1.2	0.00116681964424759	-0.00119215285867217	3.75954878157166E-06	-1.19819151466122E-06	-4.09428515020112E-06	-2.43782783319094E-06	0.996921678910822	-0.0303913532387261
1.3	0.00040434973879088	-0.00181748301586244	-7.60746056549181E-07	-1.42678730485234E-06	-2.58233461815667E-06	-8.7054983002947E-06	0.99732355531495	-0.0308081597999918
1.4	-0.000278392592065447	-0.0024352918104276	1.21658491041832E-08	3.44782138492229E-06	-4.27946982228563E-06	-4.13018946344708E-06	0.997724014977579	-0.0326196804205273
1.5	-0.00082512442984233	-0.00278630661170463	-1.30106684759612E-06	4.43057010481727E-06	6.55903526962226E-06	-7.41245658128143E-06	0.998651651605254	-0.0362264689204724
1.6	-0.000767285613207786	-0.00262493094837438	1.63057044810538E-06	-4.88528590243754E-07	4.24681285360311E-06	-5.39456750589246E-06	0.998544983843913	-0.040066649011467
1.7	-0.000620968200102702	-0.00276381868774194	5.3019829022005E-07	3.95957671995933E-06	-8.29004481060425E-06	3.12804549044963E-06	0.998766681326048	-0.0430988140859466
1.8	-0.000604385864861925	-0.00285126822460368	1.83316623331768E-06	1.07951549854573E-06	5.66254276530437E-07	-1.76272539822099E-06	0.998630604951557	-0.0461312344115022
1.9	-0.000673415185603834	-0.00313781070466397	3.23845639627792E-06	3.02000221916185E-06	-1.83168693961905E-07	-2.33199488004162E-06	0.998471592478207	-0.0488348161996629
2	-0.00131010335062586	-0.00339215164514586	-1.72721388864313E-07	2.00557445918682E-07	-1.21646669293227E-05	5.42436681626409E-06	0.99714994452863	-0.0520311251710496
2.1	-0.00164079457054982	-0.00299484392849244	6.67769873629072E-07	-1.3824049559616E-06	1.38090129705119E-05	4.96185632021834E-06	0.996730737774164	-0.053468267949361
2.2	-0.00173019404887347	-0.00289444004454095	1.64422350809436E-06	-1.51728610472769E-06	2.68522191051317E-06	-6.21151240849982E-06	0.99708010092088	-0.0558403588620667
2.3	-0.00190928658979744	-0.00293065116293956	-1.68885000966996E-06	-3.42681192369902E-06	-1.79246177336304E-06	-4.59177319017799E-06	0.996917156848884	-0.0578133794985239
2.4	-0.00208301587670215	-0.00315440473583175	-1.2050744408616E-06	-4.40097581337479E-06	3.04704266655793E-06	1.08561254075793E-06	0.996976576203844	-0.0610602021825319
2.5	-0.00283805222569383	-0.00369192923394871	5.38584360477977E-06	5.66936982173798E-06	-2.60444457048067E-06	1.61537086764762E-05	0.996599213176499	-0.0634757546313651
2.6	-0.00387301260188452	-0.00331844066699732	-2.2763999582026E-06	2.71468353089504E-06	4.31515959775936E-07	-4.3142356701078E-06	0.996622903270827	-0.0665164701566836
2.7	-0.00437388593896646	-0.00269580056616615	-2.41081887203216E-06	-3.63593106570703E-06	2.15324069732451E-06	-2.57354231425903E-06	0.995964736647415	-0.0696114070336977
2.8	-0.00446199167919134	-0.00202245982011102	4.00470926056127E-06	2.30817574211851E-06	9.8318500708674E-06	-6.97191037621297E-07	0.9959267015721	-0.0714151924012445
2.9	-0.00416126500340104	-0.00168826508195682	1.2879287149823E-05	6.98929260212799E-07	2.42976947173334E-06	-1.17164649767182E-05	0.995676262657221	-0.0732696531120715
3	-0.0042349534882191	-0.00163478184731572	-3.85255187151204E-06	1.04951941186512E-06	-4.14648097570329E-06	-1.59529970327037E-06	0.995601031597388	-0.0756275892150232
3.1	-0.0040022463846885	-0.00114572740983254	4.77019158200227E-06	-9.8450888592419E-06	1.06824828507029E-05	2.40072056083038E-06	0.995443742653605	-0.0775177251156925
3.2	-0.00366522033214762	-0.00112475765681795	-5.37294019110173E-06	-7.40220554492106E-06	1.56334409819592E-05	5.37393928176395E-06	0.995314714634998	-0.0792983748940955
3.3	-0.00348542919784773	-0.00126445201902024	-8.78729101741207E-06	2.54710898521746E-06	-8.56207107230859E-06	-1.73653792316786E-06	0.995193172471873	-0.0824623364356498
3.4	-0.00346213346074067	-0.00157728168625711	9.05708829087441E-06	-7.55871043328806E-06	-7.34292485271674E-06	4.23312135635398E-06	0.99543759328297	-0.0842537496335288
3.5	-0.00407124054760544	-0.00198239743969069	3.1795259757164E-07	-5.32284720730174E-06	-4.40102219247339E-06	-8.9309176804419E-06	0.995728832322107	-0.0874929781203748
3.6	-0.00448597992335943	-0.00148790800553896	4.07368942322927E-06	4.89756594730056E-06	-7.10279937197979E-06	8.99476250325763E-06	0.995143177391852	-0.0902786121031276
3.7	-0.00446797377563813	-0.00127940282897784	1.52626349544801E-06	-4.52539430237845E-06	-5.10281890945032E-06	-6.5824901091858E-06	0.994932714235036	-0.0929753594458669
3.8	-0.00444048538294951	-0.00126169872816324	7.27591570680403E-06	-5.19479247601245E-06	-5.8778148519276E-06	-2.41691987583153E-06	0.994600619800643	-0.0951209838875416
3.9	-0.00444405107238472	-0.00151390937369776	-4.02910815884126E-06	-3.49257728664872E-07	-2.53001990636967E-06	1.13334018327947E-06	0.994528640067947	-0.0986699571152616
4	-0.00524541068674062	-0.00184608289421118	-3.38222604272751E-06	-7.97900050697072E-08	1.20958513315287E-06	8.66382401209E-06	0.99301958176795	-0.100506278851646
4.1	-0.00576863287856304	-0.00103942864285644	-2.89855924132145E-06	-3.85763182386076E-06	5.8749124158937E-06	3.03500452481435E-06	0.992677855694521	-0.100994173704146
4.2	-0.00568448870759388	-0.000554153244533472	-7.7306189855678E-07	-2.15592439565113E-06	5.69690010591637E-06	-1.84329236361759E-06	0.992668123562148	-0.103428274002562
4.3	-0.005535538531813	-0.000322606973063504	-5.10046565938884E-07	3.23352429215992E-06	2.12886102927975E-06	1.77877571862642E-06	0.992720131065929	-0.105484342055479
4.4	-0.00547265647131273	-0.000409001228155621	2.57523513131716E-06	3.43914876591467E-06	7.17792517605258E-06	3.9079034353908E-06	0.99240410045861	-0.107881429964101
4.5	-0.00618368280186611	-0.000664582799482924	-6.46820340703881E-06	-2.32926917969551E-07	-8.57413704225364E-06	-2.11584982103934E-06	0.992281853397185	-0.109596434647861
4.6	-0.00689138034007937	0.000188922163490521	-9.94410576134405E-06	-9.23064846543461E-06	3.2373249158676E-06	-2.73019400021142E-06	0.992831843333274	-0.112390460959301
4.7	-0.00695735495659126	0.000910065895433839	1.26405414465909E-07	1.86584500093068E-06	6.06215330447887E-06	-6.73749332749572E-06	0.993016666148928	-0.114903821490068
4.8	-0.00687618527561406	0.00154889740492788	-6.39560394618021E-06	2.0827188912249E-06	7.78998037300431E-07	-1.27525405103467E-05	0.992668038841997	-0.117716536123566
4.9	-0.00648775922149991	0.00192505798077	-3.42248937832662E-06	8.14615524326754E-06	5.68538107282452E-07	9.37813002468091E-06	0.992186583220452	-0.119698786563625
5	-0.00656116095712717	0.00199575232550543	9.64651156025828E-06	-4.06720214990844E-06	-6.93819827011225E-06	3.58195658806789E-06	0.99209169762203	-0.12122766358912
5.1	-0.00603364790503757	0.00276882704008221	-3.69644016784906E-07	-3.25333546630155E-06	-3.87779596903748E-06	-1.790056325466E-06	0.992326144251878	-0.122798696687009
5.2	-0.00514023790275329	0.00267582416050979	-1.07156812298641E-06	-4.48630501318124E-06	8.79254604785543E-06	5.56962720290248E-06	0.992069528034625	-0.125319244112506
5.3	-0.00467490778196901	0.00219637689301828	2.29065108432582E-06	6.7897225935662E-06	8.79436059037391E-06	3.12662555306579E-06	0.991572074315544	-0.127702829031664
5.4	-0.00463381587971962	0.0016080361400836	2.70557432002613E-06	-3.14095049763453E-06	-2.67393366303351E-06	1.53638919621957E-07	0.991507271255242	-0.130158591765131
5.5	-0.0056929835139126	0.00139961764502246	2.10895295788266E-06	9.32660710867171E-06	-3.92509145609689E-06	-5.03870011777718E-06	0.991654306995178	-0.133201442071853
5.6	-0.00585182312066069	0.00265162621349637	-5.86041566923859E-06	-1.13062243024378E-06	4.87718084294061E-06	1.94215840136586E-06	0.991212297378973	-0.135714745265338
5.7	-0.00537438281217735	0.00317024861476474	3.33777444083183E-06	-1.42587085967827E-06	-5.0534581294607E-06	-4.29179071781058E-06	0.991144038272294	-0.138216792254057
5.8	-0.00493327685432545	0.00338100057881548	-2.05912016422188E-06	-4.74759673168269E-06	9.46572034425933E-07	-5.83221078162183E-07	0.991133416559231	-0.140706828700663
5.9	-0.00443135731749364	0.00320248180961586	-3.88021442718953E-06	6.25501221637419E-07	3.86610394101038E-06	1.24414195666628E-06	0.990835737217951	-0.143808107353472
6	-0.00511913142475013	0.00224567853259708	-5.91905455842105E-06	5.0519759838619E-06	-1.48250944281386E-06	1.98957220450223E-07	0.988253595831656	-0.146001857489455
6.1	-0.00623791888465679	0.0030650005214757	-5.92073433762928E-06	-4.68900471184323E-06	-4.00053768428797E-06	4.32909848059714E-07	0.987898751532743	-0.145060753616231
6.2	-0.00643313043087602	0.00381088199158571	2.81718947746679E-06	3.1232727939233E-06	1.05164117254763E-06	7.22382843306861E-07	0.988509162457955	-0.146001607234577
6.3	-0.00624419433093376	0.0043969249849326	1.64049748575024E-06	-7.47312741481624E-07	-1.33568729061382E-07	1.37469074345259E-06	0.988673453752874	-0.148028000311761
6.4	-0.00585306241846821	0.00436310315808848	-5.17866850914817E-06	-5.61626461329426E-06	3.81113394472334E-06	6.90378426662423E-06	0.988263241409109	-0.150577192141016
6.5	-0.00646653378530041	0.0042913346628922	9.05945758454315E-06	-2.33963145863275E-07	-7.31556295830142E-06	-9.08513602958201E-07	0.987631281716712	-0.152304346496616
6.6	-0.00603678060849825	0.00528257176006158	-1.49024197991862E-06	4.63987761134522E-07	3.39323805756523E-06	-9.38077434182371E-06	0.989221333946099	-0.15504852280503
6.7	-0.00546260636897934	0.00540860266984613	3.79343049524911E-08	7.76029679530253E-06	-4.86930381260957E-07	-6.09346057925506E-06	0.989148913266891	-0.158612534215107
6.8	-0.00510775813517455	0.00557981189190577	4.25168483243135E-06	1.66246417974988E-06	2.1901478013443E-07	-5.24191808848466E-06	0.988484316420405	-0.16154412576114
6.9	-0.00467229224842156	0.00544131224385745	-7.56479264450377E-07	2.47879237319134E-07	5.76780474321924E-06	-2.68150986946341E-06	0.987851790059837	-0.164186565660083
7	-0.00561601160458891	0.00525015716317969	8.03116005352603E-06	-4.75955383199042E-06	4.36134619538759E-07	-3.02318858478323E-06	0.98614638695027	-0.1661234119835
7.1	-0.00562570622437174	0.00695476816807786	3.84899007887832E-06	2.0466949011949E-06	7.71354011020312E-07	7.23670847789541E-06	0.985801213868236	-0.166764834708613
7.2	-0.00469667221070482	0.007719310225214	-2.45329868246504E-06	3.69393405943308E-06	-1.33154688926382E-06	-3.83215665617718E-06	0.985744087737896	-0.168393134205929
7.3	-0.00382537464314626	0.00806851831142708	3.4445891607947E-06	-4.91048768302133E-07	-2.45116767004122E-06	-1.922578845203E-06	0.985206653087205	-0.170054232303362
7.4	-0.00281821979206054	0.00780347184453115	-6.19814450374072E-06	-2.71490716646276E-06	3.77835641239413E-06	2.53461225844274E-07	0.985547234051869	-0.172326423633578
7.5	-0.00317398908102515	0.00640452007930405	6.78333322889857E-06	-6.45835334858161E-06	-2.48829459577658E-06	8.0239519769309E-07	0.985283796070787	-0.177313753055597
7.6	-0.00394650753897728	0.00695967874558599	3.49600309980622E-06	5.216828147078E-06	-1.02688171587882E-05	4.945269759729E-06	0.982822321161969	-0.180447699443212
7.7	-0.0039357971961767	0.00709900254919756	6.04630824224669E-06	1.09648775144939E-05	3.30073644936558E-07	-1.13875714274189E-05	0.9822616422993	-0.183394653712349
7.8	-0.00385431684511284	0.00692620962058327	2.16254722220679E-06	9.8511464430493E-07	-3.10833499373772E-06	8.84677251173266E-06	0.982055985829114	-0.186901287923058
7.9	-0.00389929243898611	0.00641213041762268	2.55603663940555E-06	-2.32504367965989E-06	3.69929344113746E-06	3.37059633724942E-07	0.981668617551382	-0.191353771705137
8	-0.00527500318074115	0.00650126610136255	-2.81111271745654E-06	1.34129796976819E-06	6.87799708744528E-06	-1.88633480661461E-06	0.978002343202433	-0.195365976690512
8.1	-0.0047526583653737	0.00817146506830505	-1.78809302275349E-06	7.5952585097077E-07	-3.70888940385051E-06	-1.24339285904058E-06	0.97671990506489	-0.195115975027081
8.2	-0.00374946954960106	0.00857646255448198	-7.81043969633667E-07	6.32913585193197E-06	4.87968263227613E-06	4.34001303446621E-06	0.977079933288879	-0.196725186069639
8.3	-0.00291269169061206	0.00865176025366064	-8.80096702181962E-07	-1.41934819953459E-05	6.8267043009539E-06	5.4071705952103E-06	0.976818348120268	-0.199304063418961
8.4	-0.00213886157672325	0.00824106695599347	3.74767059497827E-06	-3.42777317107328E-06	-6.95974711917642E-06	-1.20612286258592E-06	0.976066230944322	-0.201990926133191
8.5	-0.00304185256440493	0.00760727233049895	4.66692920049832E-06	5.85320699173785E-07	8.40163383634875E-06	-6.82243313704732E-06	0.975057050609824	-0.20416525561875
8.6	-0.00312024480994764	0.00928396126448099	-3.26388021129664E-06	4.11755001049828E-06	1.01718700241653E-06	1.10907306571637E-05	0.975145439169329	-0.206524221487098
8.7	-0.00195571760689948	0.0100230518397162	2.67854298938034E-06	-2.00223585691255E-06	4.77429957266428E-07	-5.54205657607411E-07	0.974912457152383	-0.209341138965559
8.8	-0.000625001522802969	0.0102281211879993	1.19356222165205E-07	-1.25192278770073E-06	-9.51204197731181E-07	9.75900762601091E-06	0.974427467150473	-0.211725705756857
8.9	0.000945546999565056	0.00952363962092724	-3.65245902734049E-06	2.29525945283097E-06	4.82076061840045E-06	-1.8088019128456E-06	0.974448508075375	-0.2138086572751
9	0.00100546698731082	0.00786335648056585	-1.88622833838219E-06	4.97800924983092E-07	-3.21016783603363E-06	-1.05140753499819E-05	0.974395423555847	-0.216541618818066
9.1	0.00109322034252292	0.00761087550223372	5.24190775871214E-06	5.84401898878211E-07	9.11463291623387E-07	3.80376655451426E-07	0.973724601032897	-0.219008733995025
9.2	0.00129967196842094	0.00666031092211459	-8.7058955875791E-06	-4.56509849890898E-06	-8.81274394986915E-07	-6.11452833678189E-06	0.972855437566084	-0.221546242439637
9.3	0.000888051165509648	0.00590992174105735	1.84165827409162E-07	6.20553211738407E-06	4.63253730223436E-06	-2.18755953640464E-06	0.97225293419723	-0.223643606363966
9.4	0.000385921611208801	0.00533345230284498	-1.93607850411843E-06	5.87841166268456E-06	-1.05095520955315E-05	7.72184690490652E-06	0.972122518843136	-0.226161986523948
9.5	-0.00122972851399058	0.00542475692431095	3.19739606242037E-06	-7.57689425635942E-06	3.69125714250708E-06	-2.7431396216244E-06	0.971642573970059	-0.230088647821438
9.6	-0.00124881332694367	0.0071310387425876	4.50910024022262E-06	5.58280444853801E-06	-6.37990019142255E-07	7.08297335804411E-06	0.970021205299497	-0.232845059237279
9.7	-0.000513672245447275	0.00769338175869801	-2.6116275651975E-06	-3.9419892290314E-06	3.6918979826297E-06	-7.53667556476942E-06	0.96944647788169	-0.234978069859036
9.8	0.00011137833480991	0.00788595371711512	-5.29932470577125E-07	-4.22139101311153E-06	6.28750646860215E-06	8.84597405528441E-07	0.969652258790465	-0.237062066775939
9.9	0.000817273260589772	0.00750060197887121	-2.69537624005661E-06	-5.90395763461063E-07	-8.51075068826521E-06	5.51581451127079E-06	0.969779397185813	-0.240153042535546
10	-0.000205242095220809	0.00674601015166251	4.23983439083931E-07	-1.75240848730703E-06	-3.1052591771813E-06	-7.96130083014361E-06	0.96655570967528	-0.24286582773351
10.1	-0.000486407906859867	0.00821566397974855	2.24687000030658E-06	4.7668210158804E-06	-3.09463498598552E-06	9.84646286451736E-06	0.965915519881331	-0.241899401259282
10.2	0.000354719198273068	0.00881795953021408	-5.38337153956303E-07	-1.04896641920888E-06	-1.21103867850306E-06	-3.11748979018586E-06	0.966487226627086	-0.242974482013661
10.3	0.00131563766035407	0.00893202026988315	1.13143816878659E-05	-2.93967884318276E-06	1.0061815121614E-05	-4.85367115967277E-06	0.966489159714237	-0.244913202600696
10.4	0.00236077226527397	0.00811063813048016	-6.26853607225932E-07	2.14963116481811E-06	3.03077514231826E-06	-2.18922827070604E-06	0.965914194974066	-0.247435670901175
10.5	0.00142510917019169	0.00691979481817185	-6.11667868168848E-06	4.64501872316044E-06	1.57117832756367E-06	4.31026058576565E-06	0.965044749952147	-0.249613718759344
10.6	0.000946642006406487	0.00760449385881699	-7.11352456125508E-06	1.07121645551506E-05	7.04355460878376E-06	4.27455960470879E-06	0.965016664792808	-0.252879943985749
10.7	0.000806874288830345	0.00810183407240195	-3.21853086338303E-06	1.57403573243783E-06	-5.37374617421904E-06	3.18312337205395E-06	0.963360786338393	-0.256196026889553
10.8	0.0009510806120556	0.00899295958668084	-1.9223282989002E-06	5.00045061643622E-06	8.47107398279762E-07	-3.20837952518208E-06	0.96164117810243	-0.258054671011402
10.9	0.00199857017909461	0.00925561515118193	-5.76843402324141E-06	-1.05283318153874E-05	4.94924705445937E-06	1.07082939479508E-05	0.96141947388348	-0.259400813832438
11	0.00151027991417594	0.00908731332162114	2.9700481180611E-06	2.61626613729072E-06	7.83727105482714E-07	-1.12467702913902E-05	0.960602422632638	-0.261381991080799
11.1	0.00223974060679215	0.0107629153956737	3.86271854430705E-06	1.4574862760477E-06	2.52363845750475E-07	-7.38166515123951E-06	0.959397435616793	-0.262538712747785
11.2	0.00390257221044869	0.0111222513377173	-4.42039367470431E-06	-1.97209102709301E-06	-7.3304906669431E-06	-4.85336334243754E-06	0.958371584446897	-0.263652697782283
11.3	0.00561367814964784	0.0107122524786895	6.65943851300528E-07	-6.38424522419631E-06	3.76559200158357E-06	1.41550494751752E-05	0.95804903468623	-0.264347689702489
11.4	0.00703650843280343	0.0094869220030303	-5.13644266818107E-06	8.14811822402167E-06	-1.46667118972654E-06	4.081078299163E-06	0.958458317177628	-0.26585801173804
11.5	0.0064486707272181	0.00806925186158747	4.53383467893738E-06	8.11762732515013E-06	-9.315199096044E-06	1.58238286706051E-06	0.95813378798728	-0.270384042042819
11.6	0.00687795360251346	0.00848087207488974	-3.84745196810921E-06	1.40556592350173E-06	5.09189313813161E-06	8.14735419072087E-06	0.955721175842602	-0.273288223339369
11.7	0.00804756698786317	0.00765776113685423	2.25381994859208E-06	1.05422924814409E-05	5.40766766814079E-07	-3.65418884602537E-06	0.95511694817001	-0.275870206848521
11.8	0.00892095957308301	0.00616674572913214	1.43198584953382E-06	4.46897696298767E-06	2.25446679461109E-06	4.54300131297869E-06	0.955441276193833	-0.279258781721715
11.9	0.00907910965816088	0.00365949361694943	7.47335128708903E-06	1.05826252403829E-05	3.89165327692222E-06	4.0160324343859E-07	0.956514376970076	-0.283833922276245
12	0.00618599837006915	0.00178892830445803	2.34121480622383E-06	-5.16249988261008E-06	-3.99914974397162E-07	1.75259573769926E-06	0.952775981319982	-0.288821680398455
