# GHZ S RI R 50
0.2	0.000554207549124182	0.00238850560603042	4.79774649093753E-06	-2.9849862073452E-06	-1.37402939367251E-05	1.31224801443351E-05	0.999931168193533	-0.00654218465463577
0.3	0.00103770809135689	0.00172558294202334	2.8648505306682E-06	6.6322259743469E-06	-1.6605806988919E-06	-9.32808437694288E-06	0.999946313054719	-0.00933524239391896
0.4	0.00140959930319295	0.00137875254050446	-1.86300705494027E-06	-4.02016300423266E-06	-9.02512455886258E-06	4.40486100833538E-06	1.00013697502745	-0.0119931054780075
0.5	0.00179505535526818	0.000899994919525783	-5.36262127643542E-06	3.26538036540125E-06	-2.12821136667227E-06	6.76216552762237E-06	0.999802898628912	-0.0153946239701937
0.6	0.00181702460699549	0.000388733387223499	-1.40679187745386E-07	2.80740243315408E-06	-5.81767038268401E-07	-1.34380222798984E-07	0.999582814712405	-0.0179692121163344
0.7	0.00175109154645955	0.000128621817629127	8.69825439127583E-08	2.22081311995711E-06	4.90870223395142E-06	-3.40192160954108E-06	0.999428030639586	-0.020669903062
0.8	0.00172889552628287	-9.18520294686466E-05	4.53214857504038E-06	8.28923852184716E-07	2.74547573161562E-06	2.00367178079782E-06	0.999383198966123	-0.0227269583904944
0.9	0.00159308036871584	-0.000184309372144647	-1.498665822441E-07	-4.22311423811484E-06	-3.42019310225667E-06	-3.11470708587691E-06	0.999569419295925	-0.0250245147219361
1	0.00172709258988442	-0.000144481613257965	1.06030909735367E-06	4.29782138514843E-06	3.33119266845211E-06	9.35653750527502E-07	0.99986534771582	-0.0268725141623851
1.1	0.00171341089748707	-0.000498800712863584	9.05490702837113E-06	5.19939606676735E-07	-3.58282351348593E-06	-5.00298523556748E-07	0.999572706573108	-0.0293230853656565
1.2	0.00145866837713048	-0.000934832101283666	3.76629085405985E-06	-1.20118387836375E-06	-4.10238991486565E-06	-2.4415238837104E-06	0.998994696284431	-0.0302837377483633
1.3	0.000963001793376751	-0.00164291955241195	-7.6289443300739E-07	-1.42917235996033E-06	-2.59147510304512E-06	-8.72103590293297E-06	0.999239661217875	-0.0309079835248177
1.4	0.000297328103978984	-0.00246771633323507	1.43746517422808E-08	3.4533473970597E-06	-4.28896091357942E-06	-4.13410104664388E-06	0.999058562886407	-0.0326500732070599
1.5	-1.65063580632928E-05	-0.00316793189201449	-1.30018716670258E-06	4.43663523261826E-06	6.56285113189282E-06	-7.42502653152479E-06	0.999492856557143	-0.0361183976705937
1.6	-0.000483166425738748	-0.00358863248662465	1.63180567863815E-06	-4.89820503619998E-07	4.24789151109503E-06	-5.40169574354129E-06	0.998630831656015	-0.0396428418530698
1.7	-0.000751658806424865	-0.00366500162644779	5.32494874648242E-07	3.96210632946457E-06	-8.29436073404961E-06	3.1342742435035E-06	0.998769895523676	-0.0422674215179362
1.8	-0.000948957846683045	-0.00360688516746946	1.83454815406127E-06	1.07931236682107E-06	5.65817735636228E-07	-1.76385989342003E-06	0.998625224871414	-0.0451580868765787
1.9	-0.00108627335259542	-0.00355289896713649	3.23978479738432E-06	3.02105522509433E-06	-1.83310143571444E-07	-2.33287910505138E-06	0.998498453961726	-0.0474705476605577
2	-0.00106764841406183	-0.00368037577182472	-1.7300937752128E-07	2.00759891919106E-07	-1.21821191533228E-05	5.42740448786883E-06	0.998400184973318	-0.0506824811704282
2.1	-0.00143351844651939	-0.00400515974686352	6.67882145334202E-07	-1.38498138400426E-06	1.38336145602644E-05	4.96034158782754E-06	0.997617465605091	-0.0535030936216248
2.2	-0.00194526526108472	-0.00406030490428628	1.64472298663296E-06	-1.52072730480319E-06	2.68238262523166E-06	-6.22163932302789E-06	0.997245352077689	-0.0558516592320868
2.3	-0.00252835517393734	-0.00401724807252897	-1.69432190900052E-06	-3.42841179025983E-06	-1.79931921084368E-06	-4.5944343333592E-06	0.996822710170892	-0.0575991645939717
2.4	-0.0031244861222837	-0.0037778831220085	-1.21165145504954E-06	-4.40326823859655E-06	3.05104423689452E-06	1.08272009879466E-06	0.996811215137971	-0.0607007160436205
2.5	-0.00344160654917854	-0.00342560812396385	5.39642514770367E-06	5.66353658175428E-06	-2.58131626837475E-06	1.6163920746605E-05	0.996365407800117	-0.0631819364185977
2.6	-0.00379776730824151	-0.00328138835859236	-2.27368329103569E-06	2.71715402924802E-06	4.27065960772875E-07	-4.31486212254365E-06	0.996083653174201	-0.066122033945659
2.7	-0.00410036546440391	-0.00294468203705372	-2.41460521991802E-06	-3.6349128218342E-06	2.15166105118133E-06	-2.57611130293709E-06	0.995491497284238	-0.0691326062825379
2.8	-0.00421791543437327	-0.00253523402382643	4.0092255106398E-06	2.3053810737928E-06	9.83649916944961E-06	-7.07517976131815E-07	0.995503882861835	-0.0711125550375671
2.9	-0.0040309404497646	-0.00213719416893055	1.28889241147188E-05	6.82164081363859E-07	2.41572998550186E-06	-1.17276328367158E-05	0.995283482247159	-0.0731700223254442
3	-0.00355998289047811	-0.00207762542329671	-3.85295206244388E-06	1.05581228684838E-06	-4.15098333877847E-06	-1.58991897243599E-06	0.995231805790792	-0.07584299912487
3.1	-0.00336660493629747	-0.00231649473529862	4.75979904435134E-06	-9.8597917360703E-06	1.06944374335703E-05	2.38723706066686E-06	0.994895294070516	-0.0779175493250314
3.2	-0.00335220636289194	-0.0025294064394599	-5.39115870052546E-06	-7.39991099805665E-06	1.56580132904688E-05	5.35163198388797E-06	0.994720843454969	-0.079752177815698
3.3	-0.00347712559301161	-0.00274003610930948	-8.79023818840788E-06	2.56803123971332E-06	-8.57382970735582E-06	-1.72014271893563E-06	0.994560361509996	-0.0830639491467163
3.4	-0.00373677108232536	-0.00282258465149516	9.04341850302036E-06	-7.58625240669274E-06	-7.33664599559813E-06	4.25430176520974E-06	0.99449922640087	-0.0850901201089218
3.5	-0.00386124721140904	-0.002986449669067	3.0625964885465E-07	-5.32253488057231E-06	-4.41970744873599E-06	-8.91960957511495E-06	0.994295221068842	-0.0879280786098435
3.6	-0.00433026021239692	-0.00319097312205108	4.08289804474989E-06	4.89108925492255E-06	-7.08796897941229E-06	9.00855815102527E-06	0.993847288790157	-0.090447980628469
3.7	-0.0048761850181574	-0.00307343392845301	1.51780182363457E-06	-4.52923326971504E-06	-5.11655828147312E-06	-6.5738989646908E-06	0.993679460027966	-0.0930161288608331
3.8	-0.00531029208884858	-0.0027393899298953	7.26530981123147E-06	-5.20948841260625E-06	-5.88265368720358E-06	-2.40497954384093E-06	0.993437094285601	-0.0950464657291029
3.9	-0.0054591043878378	-0.00223438471252914	-4.02856581405612E-06	-3.4221172711739E-07	-2.52734717350781E-06	1.13738038021458E-06	0.993646192201991	-0.0982699394303424
4	-0.00521771516683126	-0.00199402120726305	-3.38396513911486E-06	-7.50600147192642E-08	1.22238137467066E-06	8.66628537534462E-06	0.993664535804242	-0.100605777484704
4.1	-0.00525100079519801	-0.00206257481091627	-2.90866638956113E-06	-3.85239750329757E-06	5.88426975120152E-06	3.02252484587774E-06	0.992595638532906	-0.102992696790249
4.2	-0.00545206596915614	-0.00202573595667902	-7.78002900715936E-07	-2.15381403791666E-06	5.69179073450413E-06	-1.85637642624354E-06	0.991469137899683	-0.105493624050134
4.3	-0.00569587760695602	-0.0018614623203704	-5.02846197835478E-07	3.23347197889588E-06	2.13195818634296E-06	1.77351788555805E-06	0.990964298878908	-0.107275212124969
4.4	-0.00596023479308351	-0.00152293543295885	2.58192669669443E-06	3.43213718647591E-06	7.18394382145344E-06	3.8904768254659E-06	0.990399517526514	-0.10944074752829
4.5	-0.00589584175741039	-0.00119045621855381	-6.46196042826018E-06	-2.14396744244213E-07	-8.57096898445479E-06	-2.08935845738869E-06	0.989864929815075	-0.111499400580467
4.6	-0.00613807726034155	-0.00113308696238734	-9.94219943034993E-06	-9.19035856770848E-06	3.22477053082223E-06	-2.73113342318418E-06	0.989181947433117	-0.113784903509568
4.7	-0.00639989529261331	-0.000835419221642746	1.28733253682186E-07	1.86147534489179E-06	6.03909973592425E-06	-6.73083965894654E-06	0.989011398686231	-0.115370233183379
4.8	-0.00660604588279297	-0.000414899937204262	-6.37916904975063E-06	2.08453524148788E-06	7.64330377618906E-07	-1.27247678186472E-05	0.988661160953678	-0.117497752588538
4.9	-0.00657472988447134	0.000126240722643874	-3.40776441176824E-06	8.13132403552576E-06	5.75602652961087E-07	9.35706008111518E-06	0.988386207073222	-0.119049349311163
5	-0.00611228860381971	0.000383649746194158	9.61844004955809E-06	-4.06369918673581E-06	-6.9175263986391E-06	3.57772930809902E-06	0.988415197110494	-0.120606747309202
5.1	-0.00588282530465053	0.000328065279636799	-3.68992324985592E-07	-3.24551826998333E-06	-3.8686383917482E-06	-1.78549142964367E-06	0.988378730632404	-0.121922001335703
5.2	-0.00572936774020527	0.000373530568926083	-1.06930721771238E-06	-4.47741144037218E-06	8.77489485506252E-06	5.55880109403374E-06	0.988334068150437	-0.123989827029941
5.3	-0.00557728078842597	0.00046809067916063	2.28782494956922E-06	6.77778315074325E-06	8.77986450273649E-06	3.11989750246387E-06	0.988277082451017	-0.126359378753317
5.4	-0.00535522688465597	0.000684014109843675	2.69809755075486E-06	-3.13712383475738E-06	-2.66879873999859E-06	1.5539365744393E-07	0.988190466981404	-0.129248531097643
5.5	-0.00491689374561731	0.000650042351802614	2.10694951819516E-06	9.29655257155545E-06	-3.91534016211888E-06	-5.02110131325592E-06	0.987840637868379	-0.132076414918151
5.6	-0.00498142779587246	0.0004172891979266	-5.84269269334753E-06	-1.12982846573462E-06	4.86199893269571E-06	1.93855317471215E-06	0.987315049170888	-0.134401685709862
5.7	-0.00526093154183343	0.000496155892758161	3.32921346441849E-06	-1.41969007170556E-06	-5.03637219390016E-06	-4.28284167006653E-06	0.987072329859387	-0.136572109649043
5.8	-0.00554128523181876	0.00075315994916416	-2.04822832084519E-06	-4.73600411333374E-06	9.44440216631057E-07	-5.80549978280101E-07	0.987117105700905	-0.138592272406375
5.9	-0.00578219698679458	0.00132078592929326	-3.87154819124085E-06	6.1613576708362E-07	3.85373150910039E-06	1.2487001641687E-06	0.987401012564451	-0.140882515079693
6	-0.00556693132187686	0.0018115870060873	-5.92678811750136E-06	5.03800936739625E-06	-1.48230267848355E-06	1.9589551104828E-07	0.987402442186357	-0.143827358837736
6.1	-0.00564301224568407	0.00186026648528239	-5.9169572962289E-06	-4.68878237088396E-06	-3.9990206037475E-06	4.31582440033753E-07	0.986073939406929	-0.145750149272728
6.2	-0.00591839368998417	0.00211694028097221	2.81442651739014E-06	3.12092552280778E-06	1.05066033452811E-06	7.2188554699274E-07	0.985105348917449	-0.146804551065471
6.3	-0.00597596062010568	0.00254656024723938	1.63927383270091E-06	-7.46287800803626E-07	-1.33779179218758E-07	1.37348603766042E-06	0.984564870472082	-0.14814373434715
6.4	-0.00574620588135766	0.00292586537649459	-5.17588993242254E-06	-5.61519054658928E-06	3.80861233073458E-06	6.90202434317425E-06	0.984498871573204	-0.149847552448751
6.5	-0.00514174064107551	0.00273591187028499	9.05381532279058E-06	-2.4736488132218E-07	-7.31264681039317E-06	-8.97050490902904E-07	0.984246412732632	-0.152674777432687
6.6	-0.00519070309564712	0.00236964916270376	-1.48586079941456E-06	4.64635899817694E-07	3.37301554608409E-06	-9.36096777365402E-06	0.98393398652472	-0.154741027859073
6.7	-0.00536892036176126	0.00240933453928686	4.05778888339427E-08	7.73603311408787E-06	-4.87577617797148E-07	-6.07424578912113E-06	0.98390846362542	-0.156837265281548
6.8	-0.0055327009781276	0.00272699113535601	4.23709905766095E-06	1.65825248059764E-06	2.19884532897875E-07	-5.22449227196168E-06	0.983739987526199	-0.15900679258526
6.9	-0.00547450604490564	0.00335468815170574	-7.54277498799803E-07	2.4635752356E-07	5.75177345440401E-06	-2.66735590508364E-06	0.983757373489988	-0.161016586831546
7	-0.00484997328279798	0.00367195683546168	8.01610471749408E-06	-4.73662610458984E-06	4.38885183595763E-07	-3.01464608883681E-06	0.983507133654715	-0.163331347874229
7.1	-0.00480802538426251	0.00358221922851992	3.83828833582059E-06	2.04569905667113E-06	7.62718119913797E-07	7.22098006414137E-06	0.982616807010377	-0.165091401609028
7.2	-0.00497125010451162	0.00379574182662886	-2.44949770689467E-06	3.68379414317534E-06	-1.32626738176838E-06	-3.82377352982431E-06	0.981958859340463	-0.166482703162636
7.3	-0.00527270417018923	0.00420749948152427	3.43491462542673E-06	-4.89396829533819E-07	-2.44410694376174E-06	-1.91734802133309E-06	0.981059388813035	-0.167820311690886
7.4	-0.00562317469426415	0.00497729950927578	-6.17298752304549E-06	-2.70081144279916E-06	3.76243717556866E-06	2.50812733702408E-07	0.980415320382411	-0.169317642572628
7.5	-0.00529816560296081	0.00583633738987024	6.75163197424991E-06	-6.40782961629364E-06	-2.47420153825242E-06	7.93529804030178E-07	0.980820756374133	-0.171311240474521
7.6	-0.00506501868230311	0.00615172294400012	3.46321482661763E-06	5.19980896052251E-06	-1.02298396525586E-05	4.89071634904298E-06	0.980680937146041	-0.174908602257047
7.7	-0.0049537498435157	0.00647536033999512	5.98296826001923E-06	1.09279150282594E-05	3.62625495095953E-07	-1.13293274270335E-05	0.980332266040507	-0.178339796887782
7.8	-0.00453500972787184	0.00669590507807652	2.14807860456545E-06	9.87867490509586E-07	-3.12426079495129E-06	8.79088073939924E-06	0.98015350745936	-0.181713390058333
7.9	-0.00373221768824263	0.00678418294900996	2.55560630758677E-06	-2.30104911429759E-06	3.67996361824668E-06	3.54146715958521E-07	0.980313486167578	-0.18510270296811
8	-0.00269930632493782	0.00610425454067983	-2.81522721175604E-06	1.31981846782982E-06	6.87858511182873E-06	-1.8362609148722E-06	0.980223842188579	-0.189218787216367
8.1	-0.00245234674083447	0.00533118624790796	-1.79243160395765E-06	7.50612934745076E-07	-3.7035244159609E-06	-1.26261822037526E-06	0.978946240361579	-0.192128946019911
8.2	-0.0025136450088564	0.00486932051691723	-8.08809448191187E-07	6.33061484498877E-06	4.86477742150116E-06	4.36427340765017E-06	0.978489570095965	-0.194374683969447
8.3	-0.00270155274352595	0.00474201542900135	-8.26221631032511E-07	-1.42153812900734E-05	6.81463530607384E-06	5.44067756128304E-06	0.97793323921691	-0.197036969179033
8.4	-0.00278782568302674	0.00510813058542535	3.76571547222413E-06	-3.42282227094635E-06	-6.96965493506274E-06	-1.23018663638971E-06	0.977276487614941	-0.19959561020629
8.5	-0.00227618925647975	0.00528059666666989	4.67048222081507E-06	5.94484249730696E-07	8.422515156966E-06	-6.81374942197997E-06	0.976572384432291	-0.202196369343743
8.6	-0.002232158753574	0.0051433756112179	-3.27768666412075E-06	4.10809624320988E-06	9.82179101067499E-07	1.10964272859797E-05	0.976231390089083	-0.204505170073379
8.7	-0.00228185805520216	0.00527366098253972	2.68911379209282E-06	-1.99362099858524E-06	4.80094701819144E-07	-5.52865361825954E-07	0.976189525731268	-0.206968730272782
8.8	-0.00226509501248073	0.00562382697908741	1.24857355171668E-07	-1.25387504350312E-06	-9.94127486107544E-07	9.7741383834399E-06	0.976058355371306	-0.20926239614651
8.9	-0.00196070907094021	0.00618717379449141	-3.67298257602512E-06	2.28826905150535E-06	4.8430842201768E-06	-1.79571087613067E-06	0.976283907445767	-0.211383536742592
9	-0.000958559040683809	0.00637320091215941	-1.8941211606249E-06	4.93814319546911E-07	-3.18942209309339E-06	-1.05593806549699E-05	0.976378376266821	-0.213805428372172
9.1	-0.000230607387741183	0.00585191946878366	5.26008471923677E-06	6.02495031141273E-07	9.1377997962399E-07	3.84583414026517E-07	0.976295480994269	-0.216139435794785
9.2	0.000205922084847638	0.00527837225716687	-8.73178839988703E-06	-4.60448903368774E-06	-8.70750340790675E-07	-6.14221986433971E-06	0.975881151233451	-0.218828340922176
9.3	0.00039847389356808	0.00475745205927086	1.75833771228032E-07	6.22982184010083E-06	4.65365811641122E-06	-2.18927525085258E-06	0.975423203385239	-0.22125840946972
9.4	0.000582352514858842	0.00446153451249174	-1.94506710769403E-06	5.89358650660678E-06	-1.05435310692012E-05	7.73690158124285E-06	0.974808071449683	-0.223833336186884
9.5	0.000923764809261894	0.00397230641151858	3.21232305745858E-06	-7.57661914664749E-06	3.69837120384554E-06	-2.73877007792928E-06	0.97450630920472	-0.226404221272158
9.6	0.000629351846557654	0.00339696972275541	4.4969242087505E-06	5.60272803140072E-06	-6.60392618844338E-07	7.08876515167033E-06	0.974033896864248	-0.229448894519128
9.7	0.000201381958174806	0.00325288203694152	-2.60200875697057E-06	-3.95600625694318E-06	3.7219929341968E-06	-7.53452774729706E-06	0.973636598058007	-0.231937310123396
9.8	-0.000257113473722834	0.00341131037392189	-5.14897094184795E-07	-4.2289326402514E-06	6.29250023077115E-06	9.09198937718555E-07	0.973731264053373	-0.23404793818258
9.9	-0.000497016660832501	0.00401640173320321	-2.69700421592412E-06	-6.04744150310468E-07	-8.55244707903559E-06	5.48297361965471E-06	0.973797101662733	-0.236030397324839
10	-0.000143122440803242	0.00430243885752858	4.34801905890665E-07	-1.75833117816862E-06	-3.07927437279407E-06	-8.01366510201438E-06	0.973658887610064	-0.238405418423297
10.1	-0.000253855282525291	0.00426084368374964	2.24452202517244E-06	4.79539856217212E-06	-3.13596170642471E-06	9.88448943365704E-06	0.973001771585766	-0.240087738143126
10.2	-0.000526479259105787	0.00455550862444449	-5.38105066550524E-07	-1.0545244641443E-06	-1.20875292282912E-06	-3.13310297613737E-06	0.972750895898983	-0.241683639626688
10.3	-0.000655065426236777	0.00525097298381776	1.1366582123491E-05	-2.9254268840257E-06	1.01133938141344E-05	-4.84998897659252E-06	0.972282387378667	-0.243789406912761
10.4	-0.000202044776571827	0.00620296359926285	-6.33836573594719E-07	2.15788529166656E-06	3.04844164521703E-06	-2.19294085067289E-06	0.971446733761416	-0.246364244540568
10.5	0.0009271360425297	0.00651274529459085	-6.14003479583565E-06	4.65960038856104E-06	1.57537735133541E-06	4.32616220394955E-06	0.969980505869046	-0.249355277514828
10.6	0.00176060627791581	0.0062930071110463	-7.14176296734932E-06	1.07278535706713E-05	7.05433557894503E-06	4.29222846187837E-06	0.969066550392371	-0.251520046510619
10.7	0.00225165945344322	0.00606854461808163	-3.22924701383082E-06	1.57280616950278E-06	-5.39253865343492E-06	3.18247818257124E-06	0.968146430701345	-0.254182206784148
10.8	0.00262778356404156	0.00598437804863148	-1.93586621630469E-06	5.01286861609792E-06	8.54607497735584E-07	-3.21693700207145E-06	0.967343207274739	-0.256118911565919
10.9	0.00307521744421032	0.00613045042445792	-5.7790418161491E-06	-1.05690694026949E-05	4.95691518612945E-06	1.07489426095119E-05	0.966890140051814	-0.257980998242085
11	0.00406316551416783	0.00586508422747405	2.97988062926356E-06	2.62481696989511E-06	7.86071686440151E-07	-1.12838122933494E-05	0.966514147062654	-0.259312665490137
11.1	0.00446676400835728	0.00523142013924224	3.87606354246446E-06	1.46039908423559E-06	2.49639240076816E-07	-7.40594912205892E-06	0.966622250470054	-0.260793021899411
11.2	0.00464631067781879	0.00475320014861956	-4.43720787352507E-06	-1.97311102453674E-06	-7.36030998456304E-06	-4.86021252632662E-06	0.966520658979323	-0.262954217288604
11.3	0.00478303095903763	0.0044572245774132	6.54163899106467E-07	-6.40397070185118E-06	3.80673452462689E-06	1.41875447821637E-05	0.966355268557398	-0.265333282376119
11.4	0.00491813693444949	0.00440025688604643	-5.11863576694989E-06	8.17831583856612E-06	-1.45590952726651E-06	4.09262440511104E-06	0.965522716186484	-0.268411330067949
11.5	0.00540223047847321	0.00398129422977753	4.55010995907159E-06	8.11006309124475E-06	-9.3134877236618E-06	1.60054051762894E-06	0.964618506050592	-0.271759785856841
11.6	0.00538859086445319	0.00327637758280273	-3.85017638422837E-06	1.41286557407167E-06	5.10996608122321E-06	8.15006519407352E-06	0.963214546161021	-0.27564918643281
11.7	0.00513960924519056	0.00292123828680159	2.27893272088942E-06	1.05520188035152E-05	5.33872307878084E-07	-3.66032231645473E-06	0.962005117790763	-0.279682823802058
11.8	0.00503528584841037	0.00298329071619317	1.44379607918115E-06	4.46981625153651E-06	2.26722210129414E-06	4.54198375057457E-06	0.960674462746435	-0.28381409384821
11.9	0.00551869878879933	0.0032805170673541	7.49287304758345E-06	1.05806585031941E-05	3.89508289733263E-06	3.96771643369741E-07	0.959763292671855	-0.286923738910005
12	0.00642308528344083	0.00284371918416946	2.34461908757979E-06	-5.18279158381767E-06	-3.99685334161276E-07	1.75911662664734E-06	0.958002457991596	-0.290032423003522
