# GHZ S RI R 50
0.2	0.00073399423718157	0.00182447524916483	4.801501408702E-06	-2.98334258085597E-06	-1.3753782895271E-05	1.31196508092511E-05	1.00024533767234	-0.00675440648760995
0.3	0.00119963862331291	0.00126461730876408	2.86379440947143E-06	6.63673667641075E-06	-1.65787489072734E-06	-9.33352421691647E-06	1.00034274889306	-0.0096438658558662
0.4	0.00148299673543338	0.00105597852173568	-1.86374626977935E-06	-4.0236715501472E-06	-9.03304151605563E-06	4.40669596282695E-06	1.00078535555051	-0.0122953918934017
0.5	0.00204721233550631	0.000537186283322163	-5.36574262408045E-06	3.26949051624665E-06	-2.12780708220716E-06	6.76797881936051E-06	1.00098397635853	-0.0162117312883087
0.6	0.00165153242148444	-0.000181219895506933	-1.40641293557222E-07	2.80912964612597E-06	-5.82129614670214E-07	-1.34436876844584E-07	1.0004544664588	-0.0192570974418052
0.7	0.00131117835874755	-0.000150176321572948	8.69901991100213E-08	2.22295764462712E-06	4.91355247607849E-06	-3.40503362097547E-06	1.00021284976391	-0.0220420483919549
0.8	0.00122237200697032	-0.000115835433945886	4.53785164417681E-06	8.29644465002844E-07	2.74903390364307E-06	2.00597886536037E-06	1.00005515754432	-0.0242301509986068
0.9	0.00107007297929819	4.27022180317105E-05	-1.51114319902015E-07	-4.22927665999825E-06	-3.4259714386921E-06	-3.11844665196168E-06	0.999912856724134	-0.0264727257865496
1	0.00165003581101755	0.000292113142018497	1.06478928948921E-06	4.3032437226089E-06	3.33660676392809E-06	9.34697373306202E-07	1.00025005723905	-0.0278641687592637
1.1	0.00172371397250009	-0.000857029338785628	9.06274041993284E-06	5.13526931263525E-07	-3.58614552410717E-06	-4.98003227132459E-07	0.999963041390375	-0.030647781576785
1.2	0.000911462204982486	-0.00180429645320342	3.76662378528185E-06	-1.20421108779275E-06	-4.10539236037944E-06	-2.4393999252583E-06	0.998816991235617	-0.0319766267093334
1.3	-0.000299775076292264	-0.00285036147824638	-7.63832249139301E-07	-1.4281126547803E-06	-2.59782614200346E-06	-8.71625909488264E-06	0.998247414997842	-0.0331976512568302
1.4	-0.00154208339758291	-0.00339173333381846	1.74751670593966E-08	3.45126387291797E-06	-4.29011134197079E-06	-4.12776083544875E-06	0.99747823543131	-0.0351810936447015
1.5	-0.00169725477537613	-0.00359627269223298	-1.29668474727949E-06	4.43660222232658E-06	6.55602489061775E-06	-7.42815172997942E-06	0.998795902323971	-0.0384276134199766
1.6	-0.00216215080526394	-0.00341269275643127	1.63262792946262E-06	-4.91190916060214E-07	4.24742542406822E-06	-5.40812494743454E-06	0.998789760674092	-0.0421953678786331
1.7	-0.00195878527550989	-0.00287178390706479	5.3627684039696E-07	3.96721063542665E-06	-8.30349614552658E-06	3.14500154901136E-06	0.999512192167777	-0.044699474557756
1.8	-0.00168481552283545	-0.00255105296268885	1.83874815398118E-06	1.07968563550499E-06	5.65332073571553E-07	-1.76749720785512E-06	0.999803089460926	-0.0473390777263589
1.9	-0.00140885127913572	-0.00235102687617349	3.24880211986405E-06	3.02521338584153E-06	-1.85337481509314E-07	-2.33771703650311E-06	1.00020537924711	-0.0490179530100948
2	-0.000863726559408588	-0.00270333277074756	-1.7335948999966E-07	2.01526862629004E-07	-1.22145092364081E-05	5.45480705559613E-06	1.0019337295994	-0.0522075390568
2.1	-0.00146138001630875	-0.00331611951094139	6.67353924800864E-07	-1.39011612704143E-06	1.38818912178339E-05	4.95017521441668E-06	1.00124594063188	-0.0565541216221296
2.2	-0.00199648163015462	-0.00319758528658429	1.64624963016226E-06	-1.52752519050834E-06	2.67826666963146E-06	-6.24230663426721E-06	1.00048939991072	-0.0592406217141555
2.3	-0.00242697829874018	-0.00308386394206417	-1.70464414657679E-06	-3.43431910916412E-06	-1.81193594687035E-06	-4.60316858185323E-06	0.999862105015915	-0.061169524465683
2.4	-0.00282708591991096	-0.0028465150066015	-1.22320199997126E-06	-4.41326014255938E-06	3.06153939274609E-06	1.08006154687454E-06	0.999694457734192	-0.0642502512396157
2.5	-0.00269988189816155	-0.00276377994109907	5.42439279938939E-06	5.66704534890604E-06	-2.55168485982464E-06	1.62149158209101E-05	0.999687725218668	-0.0666322745092965
2.6	-0.00327560041617435	-0.00329623650028327	-2.27354880457266E-06	2.72970439794437E-06	4.1828123193177E-07	-4.32746238503592E-06	0.999786632218476	-0.0701112062540156
2.7	-0.003970311916726	-0.0031265554063114	-2.43017879581879E-06	-3.63914880752408E-06	2.1513753936567E-06	-2.58852182823431E-06	0.999288404680952	-0.0736546671291323
2.8	-0.00440947944532153	-0.00272356135373973	4.02626981411741E-06	2.3009834478504E-06	9.86138019866863E-06	-7.3562231896942E-07	0.999075545025052	-0.0761561512946772
2.9	-0.00446206748127811	-0.00219877722516496	1.29221166876355E-05	6.45403240610628E-07	2.3866208737478E-06	-1.1763184088089E-05	0.998243453629993	-0.0784616854422043
3	-0.00409607906874855	-0.00215746793073878	-3.85582077122874E-06	1.06944854272432E-06	-4.16253488163773E-06	-1.57957713726631E-06	0.99760636120024	-0.081026667262767
3.1	-0.00446729509106826	-0.00218295590949481	4.73690107444474E-06	-9.88472012828915E-06	1.07135013048426E-05	2.35923331298084E-06	0.996718068228199	-0.0832118084020579
3.2	-0.0046116128347998	-0.00183119840877916	-5.41608356223679E-06	-7.38959393878162E-06	1.56841795199859E-05	5.31049356702814E-06	0.995784673461286	-0.084959989810022
3.3	-0.00465268365938223	-0.00157124329173476	-8.78448183810779E-06	2.59403795592905E-06	-8.58047674246662E-06	-1.69559172252941E-06	0.99484959934317	-0.088088175259774
3.4	-0.00467347925550782	-0.00125432267795543	9.01738203799447E-06	-7.60872587568353E-06	-7.32098876927048E-06	4.27341982083128E-06	0.993979605480166	-0.0895603598422268
3.5	-0.00436521288058029	-0.00138390004670443	2.94595289131113E-07	-5.31873365279693E-06	-4.43512345966935E-06	-8.90266655276953E-06	0.994130233695757	-0.0913239779256328
3.6	-0.0049413452584465	-0.00158708139654773	4.09237734436673E-06	4.88040170726783E-06	-7.06562606725302E-06	9.02126154206604E-06	0.994241713072443	-0.0945749212480501
3.7	-0.00528381291797615	-0.00117996937855498	1.50543313254601E-06	-4.53079812190993E-06	-5.13076209294757E-06	-6.55743778569076E-06	0.993443188734679	-0.0976049404511019
3.8	-0.00536013702604031	-0.000801132246296119	7.2459961125512E-06	-5.22406499180301E-06	-5.88412916660252E-06	-2.38784173031498E-06	0.992432036210791	-0.0994462388187792
3.9	-0.00519039195024968	-0.000434853169959636	-4.02570186666458E-06	-3.32606577945209E-07	-2.52243093306921E-06	1.14218004212682E-06	0.992151972090271	-0.101702643821191
4	-0.00471743063443055	-0.000677212178266435	-3.3829982552144E-06	-6.64535353420195E-08	1.24393868858549E-06	8.66022213787974E-06	0.993267137315561	-0.103398204898168
4.1	-0.00525340393876614	-0.000978299275504557	-2.9183231165951E-06	-3.83918965580239E-06	5.88832254756121E-06	3.00047218871642E-06	0.992092155001777	-0.10653131541514
4.2	-0.00557054811076945	-0.000683771568096667	-7.83557332180871E-07	-2.14801796628297E-06	5.67710072834637E-06	-1.87136557462463E-06	0.990595003451975	-0.108973809862767
4.3	-0.00569159886604391	-0.00042209759323954	-4.92193551153579E-07	3.22904667857149E-06	2.13337914133453E-06	1.7638459698807E-06	0.989897143641644	-0.110650227703749
4.4	-0.00580004014671791	-0.000129729911310464	2.58735435055986E-06	3.4180074524622E-06	7.18213818504331E-06	3.86174097415187E-06	0.989342056862728	-0.112681483931322
4.5	-0.00557857009669823	-0.000221248214991244	-6.44872085286057E-06	-1.9247635609532E-07	-8.55940199189681E-06	-2.05638684419829E-06	0.989086267875186	-0.115023202996421
4.6	-0.00651922397779161	-0.000451753902591577	-9.94619142116522E-06	-9.13889768183232E-06	3.20897931266819E-06	-2.73432439218754E-06	0.988296858556649	-0.117713691775463
4.7	-0.00721062163466489	0.000211648430519283	1.34107396090674E-07	1.85704016261227E-06	6.00553592313844E-06	-6.73455889167317E-06	0.987987358035873	-0.119695374715299
4.8	-0.00754257757278022	0.0010510440962271	-6.35884899053035E-06	2.100984112867E-06	7.21099601804445E-07	-1.27003320987609E-05	0.987278066984013	-0.122175471187221
4.9	-0.00738906096381123	0.00200058271574399	-3.37036925430079E-06	8.12489397927549E-06	6.08237409964003E-07	9.33333667059543E-06	0.986340879023579	-0.123796044895055
5	-0.00659592352196537	0.00225818533517652	9.57348793570193E-06	-4.08579941433959E-06	-6.88282212493991E-06	3.59156524625884E-06	0.985886122250948	-0.124782501848755
5.1	-0.00652977103193382	0.0023794966853739	-3.77942255907966E-07	-3.2334626205237E-06	-3.86125424937849E-06	-1.76735133852656E-06	0.985814082666235	-0.125876420248283
5.2	-0.00600525035027376	0.002696686676599	-1.0792154258569E-06	-4.45787443653851E-06	8.76017696415116E-06	5.51161227672487E-06	0.985305553593249	-0.127848869584168
5.3	-0.00548313382543584	0.00266517682325947	2.29870541033894E-06	6.74294895881963E-06	8.75298202477619E-06	3.08069434723977E-06	0.98460252782824	-0.129825721287517
5.4	-0.00509046115646975	0.00266482579483393	2.67656067581241E-06	-3.12900369856848E-06	-2.655355860438E-06	1.61751572542863E-07	0.983920393530432	-0.131782902541684
5.5	-0.00465154479663896	0.00212266501546435	2.10818367179539E-06	9.24604096281309E-06	-3.90173298806775E-06	-4.99021613667219E-06	0.984344474126276	-0.133274414292328
5.6	-0.00544201747933774	0.00207029517218671	-5.81951745084026E-06	-1.11880195387148E-06	4.84379170716217E-06	1.92520893537416E-06	0.984588733613552	-0.136150091932203
5.7	-0.00559653570923317	0.00273616590851788	3.31363996720441E-06	-1.41810602164629E-06	-5.02107781260689E-06	-4.25868153661164E-06	0.98399478158809	-0.138548113719302
5.8	-0.00539803284452676	0.00319429528725644	-2.04505449139704E-06	-4.71304291085496E-06	9.39654528471514E-07	-5.79172142743148E-07	0.983507843934186	-0.140254425256021
5.9	-0.005067235128178	0.00358690447490784	-3.85380231130301E-06	6.16700917724429E-07	3.83765710148663E-06	1.23985583612207E-06	0.983389590824991	-0.141436500742469
6	-0.00431167722388828	0.00309822785605588	-5.89507404326604E-06	5.02289099518656E-06	-1.47560499662585E-06	1.96759442550256E-07	0.984458528830227	-0.1436439950347
6.1	-0.00538412470287998	0.00210220660207823	-5.88727662368278E-06	-4.65614199551874E-06	-3.97555155048217E-06	4.32880167318894E-07	0.982657697038827	-0.145769495505036
6.2	-0.00670397342191898	0.00242225869898368	2.79575654985785E-06	3.10154425592706E-06	1.04378396581428E-06	7.17486756388495E-07	0.981295105904665	-0.146024074610143
6.3	-0.00742113641654168	0.00334418043149967	1.62966667726729E-06	-7.3956270738812E-07	-1.34554700563767E-07	1.36453467569633E-06	0.980756153163225	-0.1466521015482
6.4	-0.00731812519242281	0.00441195357260894	-5.13565897573997E-06	-5.59051619126388E-06	3.77434482844791E-06	6.86739618455032E-06	0.981082993203552	-0.147841833093846
6.5	-0.00661923879662985	0.00438956338418456	8.99934641713062E-06	-2.31660617429567E-07	-7.26693204317175E-06	-9.03088845130831E-07	0.981175863519371	-0.151255430765379
6.6	-0.00690060563132133	0.00482286907143913	-1.47838764162504E-06	4.57816987609207E-07	3.37887437492838E-06	-9.29657512832175E-06	0.98047105896296	-0.152920336205102
6.7	-0.00646021533286042	0.00548359907094216	1.49768891949019E-08	7.69814958051014E-06	-4.65236500342428E-07	-6.0459964305738E-06	0.980820108226819	-0.154637194427262
6.8	-0.0060424545607764	0.0059652058431173	4.2139370285395E-06	1.66583604240462E-06	2.36777194268921E-07	-5.20215032299471E-06	0.980873767640527	-0.156559099897488
6.9	-0.0054209380316701	0.00662145843643411	-7.52313312015843E-07	2.4301691596569E-07	5.73934582564642E-06	-2.6389950389286E-06	0.981006112597733	-0.15797055974958
7	-0.00439816161283448	0.00627614439185272	7.99893034362606E-06	-4.69193536111824E-06	4.46745283206241E-07	-3.00109597687045E-06	0.981578792362704	-0.15969899822205
7.1	-0.00501854080105222	0.00630372444825742	3.81390894643825E-06	2.05312400341966E-06	7.29642179958121E-07	7.19421904075935E-06	0.981072061695381	-0.161512203636116
7.2	-0.00483945036888318	0.00713697396067317	-2.45857099237505E-06	3.65801878702407E-06	-1.30247219161395E-06	-3.81610772189776E-06	0.980629112714329	-0.162819440363635
7.3	-0.00434650267112917	0.00770839368752506	3.42666780202294E-06	-4.68517529261592E-07	-2.42550106983422E-06	-1.92495041018704E-06	0.979751070258492	-0.164106806547195
7.4	-0.00365514486641141	0.00818956971584144	-6.1385094228787E-06	-2.73426177063264E-06	3.75063092340088E-06	2.74965329338104E-07	0.978795191633667	-0.165003441314998
7.5	-0.0023477906219501	0.00750644272986381	6.79824851873902E-06	-6.34833049209466E-06	-2.47871674998529E-06	7.72919392322444E-07	0.980719622536808	-0.165710915489229
7.6	-0.00305179868609673	0.00619113150349813	3.43099107346545E-06	5.23287759343003E-06	-1.02810024136765E-05	4.82434811133779E-06	0.981771861771857	-0.170800836995779
7.7	-0.00395404906592824	0.00605090295066964	5.92626356577677E-06	1.09905954536567E-05	4.36035852854583E-07	-1.13522368890632E-05	0.980980136108649	-0.174771608059056
7.8	-0.00447837961195465	0.0062660348559533	2.14732607091032E-06	1.00327483980599E-06	-3.18507914015263E-06	8.7933613074404E-06	0.980443522039035	-0.17763360946809
7.9	-0.00442663119986059	0.00665830728962024	2.57603466665092E-06	-2.29161347695055E-06	3.68732314018301E-06	3.77190977390168E-07	0.981030341388623	-0.179790735976148
8	-0.00419704518895314	0.00610001164815286	-2.83116710228252E-06	1.31020526980241E-06	6.9106231547588E-06	-1.80814957689534E-06	0.982895386759145	-0.18439190827845
8.1	-0.00492490308637831	0.00671284034776906	-1.7986065698809E-06	7.45054720839306E-07	-3.70540688939081E-06	-1.27924067571543E-06	0.980500620567615	-0.188254893990017
8.2	-0.00465536030872967	0.00751561541178801	-8.3634329740938E-07	6.33252952824469E-06	4.85037414182871E-06	4.38859201833163E-06	0.979587759122178	-0.189878880659931
8.3	-0.00426359266832174	0.00806593207555554	-7.60776031876117E-07	-1.42277832234552E-05	6.79350450927503E-06	5.47556963204971E-06	0.979168079272028	-0.192120085373987
8.4	-0.00368427962909005	0.00876057385762862	3.78500675178274E-06	-3.4077618117826E-06	-6.9695018299025E-06	-1.26422373426074E-06	0.978921054364441	-0.19456659592471
8.5	-0.00270622176167966	0.00846525804136649	4.67125904075032E-06	6.15911350489065E-07	8.45935324698374E-06	-6.78093110611762E-06	0.97844200010799	-0.197666997471305
8.6	-0.00324243350439105	0.00865701809765335	-3.30016351675351E-06	4.09725515996517E-06	9.31842109992445E-07	1.11126800422717E-05	0.977982289110497	-0.199990828143482
8.7	-0.00279755369632602	0.00956458597284426	2.70141034916402E-06	-1.9851164659928E-06	4.83122801444153E-07	-5.51630187776429E-07	0.978241612282881	-0.202564635295725
8.8	-0.0018374608599743	0.0101271293123067	1.2963137718533E-07	-1.25541166213842E-06	-1.03137480424777E-06	9.78604047713221E-06	0.978381109917694	-0.20517357831107
8.9	-0.000468587935870384	0.0102787573152747	-3.68403824667239E-06	2.28094883290597E-06	4.85425792239759E-06	-1.78450252342671E-06	0.978787195217851	-0.20769704824714
9	0.00110715102726185	0.00899866877331733	-1.895191169303E-06	4.88564853642775E-07	-3.16009284967084E-06	-1.05665386929537E-05	0.978949918090927	-0.210656392911003
9.1	0.000917726712542657	0.00760791835865411	5.25603935521102E-06	6.21338429455026E-07	9.12063105856484E-07	3.87757763631312E-07	0.978458456480185	-0.213486845258489
9.2	0.00071277143611466	0.00686087334328698	-8.71097838939771E-06	-4.6384913775394E-06	-8.45771520504323E-07	-6.14414416562418E-06	0.977584693961281	-0.216248021412563
9.3	0.000290520616055255	0.0064071050150728	1.4865485028158E-07	6.23059143407356E-06	4.66321117182354E-06	-2.16897349756995E-06	0.976795732527845	-0.218581018648219
9.4	0.000104844794080203	0.00644606953972112	-1.97346071281932E-06	5.88560078603629E-06	-1.05824985582219E-05	7.68848297933831E-06	0.976019890921327	-0.22073724746204
9.5	-1.57096827768955E-05	0.00590881430977282	3.26169450201549E-06	-7.5684239158369E-06	3.71983324429903E-06	-2.72080747770599E-06	0.976695727618291	-0.2229650580713
9.6	-0.00100121543389502	0.00640313362965472	4.48379815706896E-06	5.64419560328513E-06	-6.9832223996089E-07	7.10924069651592E-06	0.976485589232205	-0.227072461837354
9.7	-0.000894587744835765	0.0072398730466629	-2.59612435246943E-06	-3.98192980997596E-06	3.7669670408406E-06	-7.54878379252795E-06	0.97581983362253	-0.229853863794064
9.8	-0.000541648441693122	0.00776543607391755	-5.02049966002676E-07	-4.24835886158723E-06	6.31546720266334E-06	9.35287905023491E-07	0.975918185411839	-0.231755615357866
9.9	0.000126219439257841	0.00820058899289616	-2.70749930612818E-06	-6.1659678351331E-07	-8.61054664591526E-06	5.47975176999498E-06	0.977083797209434	-0.233185231682017
10	0.00091558680731786	0.00744636113182633	4.40745403843716E-07	-1.76691734172028E-06	-3.07946205144446E-06	-8.06315901991809E-06	0.979019291808447	-0.237981189697884
10.1	0.000145826909966137	0.00722455744984749	2.24769078355854E-06	4.81984785653313E-06	-3.16386412133948E-06	9.92389769404614E-06	0.976322823780027	-0.2414803079746
10.2	6.9540182092142E-05	0.00768680174038471	-5.3882594195251E-07	-1.05998137964292E-06	-1.20918550135098E-06	-3.14871047636587E-06	0.975208023033043	-0.242798421838321
10.3	0.000331500736121293	0.00808954611902159	1.14253677212559E-05	-2.92296193981453E-06	1.01689604343727E-05	-4.85857770353994E-06	0.97474225235063	-0.244631443600485
10.4	0.00106818636050225	0.00829650880931536	-6.39461000359798E-07	2.16928016779301E-06	3.06753970962428E-06	-2.20218490304398E-06	0.974755540329276	-0.247149046329424
10.5	0.00165734125861632	0.00721246055498107	-6.17607043035847E-06	4.68624991317833E-06	1.58422515654711E-06	4.35142919094628E-06	0.974282916028808	-0.251459011029045
10.6	0.00058550870238681	0.00689480173158522	-7.18598976839671E-06	1.07950829679107E-05	7.09852993628933E-06	4.31878820272742E-06	0.973065905759286	-0.254890085430272
10.7	-5.79332718925088E-05	0.00757373615748719	-3.2505043425345E-06	1.58592797972394E-06	-5.42765109930393E-06	3.20823830187396E-06	0.971813998392629	-0.258591996827947
10.8	-0.000178001723606074	0.00875824312507108	-1.94262550374464E-06	5.05194626559578E-06	8.56139370831381E-07	-3.24145376338905E-06	0.970293769938745	-0.261149811770714
10.9	0.000610272209675195	0.0100037968791386	-5.84600933304508E-06	-1.06310515524305E-05	5.01841169070037E-06	1.08141972764807E-05	0.969725055245691	-0.263254511750375
11	0.00186798024554342	0.00993298809409835	3.00466714871428E-06	2.6329031061157E-06	7.61499330712755E-07	-1.13538930279616E-05	0.969230094714317	-0.265910388017304
11.1	0.00198699734516436	0.0104717717226934	3.90180550485485E-06	1.46165779060492E-06	2.36995952809798E-07	-7.45028926047375E-06	0.967260896874251	-0.2681721015626
11.2	0.00313952095972793	0.0111239384685951	-4.46761069085943E-06	-1.976775261571E-06	-7.41368463886279E-06	-4.87585748887876E-06	0.965426808904175	-0.269753829934506
11.3	0.00464770451236582	0.0112692859083139	6.45866504050324E-07	-6.44266135956899E-06	3.85585536563621E-06	1.42633112712184E-05	0.963679123435387	-0.27063821597604
11.4	0.00617856773611217	0.0109495091804156	-5.13295404248006E-06	8.23006915236425E-06	-1.45717724760203E-06	4.11676748834412E-06	0.96219114850509	-0.271340008702642
11.5	0.00738681366571918	0.00932932061520258	4.58221508224744E-06	8.15719268475538E-06	-9.3695359030233E-06	1.61526520151804E-06	0.963823243314944	-0.273496654359718
11.6	0.00726654284943549	0.00843199577620569	-3.87512350799563E-06	1.42893961762518E-06	5.15895475480195E-06	8.19951676696032E-06	0.962606690878312	-0.278865095142059
11.7	0.0078804483973477	0.00777056713239656	2.31873107304838E-06	1.06181664802068E-05	5.2902992677432E-07	-3.68632724699469E-06	0.960820422154068	-0.282491915362532
11.8	0.00853310082240475	0.00670593260411545	1.46463068161129E-06	4.49474847272796E-06	2.2935252500344E-06	4.56524677744981E-06	0.960018436600467	-0.28561349484598
11.9	0.0095101008604152	0.00508863803018193	7.57546024129392E-06	1.0627977671401E-05	3.92224940054588E-06	3.87381499822008E-07	0.962234535533853	-0.288591827712424
12	0.00858553412200677	0.00258537409466516	2.33740076542593E-06	-5.22732819467181E-06	-3.94616901458171E-07	1.77249679156907E-06	0.963048528120742	-0.295974684285951
