# GHZ S RI R 50
0.2	0.000876029368393957	0.00280798157031537	4.78955290111491E-06	-2.98651832764848E-06	-1.37122717018276E-05	1.3121891857393E-05	0.998877730146346	-0.0073497166007157
0.3	0.00125605989868471	0.00192937640724579	2.86691181569575E-06	6.62157119387909E-06	-1.66641891305324E-06	-9.31510441961367E-06	0.99863381513617	-0.0101855108001806
0.4	0.00154770856315352	0.00132406420926355	-1.86265913031714E-06	-4.01250788663043E-06	-9.00779332753733E-06	4.40372384408349E-06	0.99845486530757	-0.0128301268565355
0.5	0.0012884395459936	0.000873078842898727	-5.35482664181568E-06	3.26016713501668E-06	-2.12546522365144E-06	6.75193988222683E-06	0.997977910952918	-0.0154752649470067
0.6	0.00151413448256889	0.00105991166587465	-1.3962706506945E-07	2.80475232509E-06	-5.81252238838949E-07	-1.34061141066703E-07	0.998739398985308	-0.0182651396398432
0.7	0.00183831206270666	0.000819694985745346	8.83490593767071E-08	2.21798385415486E-06	4.90031679689056E-06	-3.40093650362459E-06	0.998516456572706	-0.0217157043181893
0.8	0.00209480683856223	0.000527101544111835	4.52562352143147E-06	8.24129015260992E-07	2.74267754600827E-06	1.99839421967379E-06	0.99809245361081	-0.0242121948884725
0.9	0.00237054750270629	0.000114404292404818	-1.53187388436572E-07	-4.21434998139671E-06	-3.4158746412216E-06	-3.10540042699506E-06	0.997695700178133	-0.0269181162130834
1	0.0021475326732677	-0.00083508745293917	1.05929356614982E-06	4.28552093006311E-06	3.32243701361543E-06	9.31602922078997E-07	0.996590907178391	-0.0286297928970254
1.1	0.00139282204340698	-0.000783940687789691	9.0302187259467E-06	5.18952075760194E-07	-3.57304096086463E-06	-4.99105431924521E-07	0.996135509908879	-0.0296730670637828
1.2	0.00117677818743586	-0.00111134716032562	3.75567208330615E-06	-1.19690569579046E-06	-4.09001783577036E-06	-2.43535432528054E-06	0.995917731170452	-0.0302699691996376
1.3	0.00048954926753333	-0.00178021420594584	-7.59766848180725E-07	-1.42538449632121E-06	-2.57852330083997E-06	-8.69667922257967E-06	0.996419784868598	-0.0306283832948023
1.4	-0.000235640918159917	-0.00242173468950566	1.09184121052323E-08	3.44437719311575E-06	-4.27370970338863E-06	-4.12759162808409E-06	0.996852474187493	-0.0322675356263962
1.5	-0.000999035214656332	-0.00268098704847932	-1.30199749974069E-06	4.4257735941671E-06	6.55647349769419E-06	-7.40230187372571E-06	0.997637730930133	-0.0356796974746601
1.6	-0.00074380743196837	-0.00232636224770004	1.62923808315033E-06	-4.8722399545463E-07	4.24544311694615E-06	-5.38717208973979E-06	0.997701566130129	-0.0393650702324871
1.7	-0.000492813333900936	-0.00261688897328853	5.27518370568533E-07	3.9556853764076E-06	-8.28297849850583E-06	3.12030668165788E-06	0.997903732196618	-0.0425316194888642
1.8	-0.000481186001528861	-0.00283576390742528	1.83052796235942E-06	1.07932676228746E-06	5.66598181834891E-07	-1.76044932344669E-06	0.997674679662608	-0.0456633715759063
1.9	-0.000599032352705152	-0.00328830186115764	3.23332465978843E-06	3.01798413120736E-06	-1.81890614464901E-07	-2.32937726538838E-06	0.997403341700451	-0.048601000751357
2	-0.00156800402858097	-0.00359946286358943	-1.72514636040302E-07	2.00162565406308E-07	-1.21467845937158E-05	5.41082675857329E-06	0.995288093751555	-0.0518719310652263
2.1	-0.0018860268448529	-0.00288717306874291	6.67984917268241E-07	-1.37935920644458E-06	1.37802784640663E-05	4.96695251634371E-06	0.994862705655873	-0.052400809204442
2.2	-0.00183129631850157	-0.00276276270655554	1.64354358843047E-06	-1.51312404753691E-06	2.68844635918807E-06	-6.19917114973515E-06	0.995604497471423	-0.0546158010197681
2.3	-0.001916440379361	-0.00282466137951479	-1.6823340530107E-06	-3.42415120883299E-06	-1.78437938544873E-06	-4.58763297553358E-06	0.995625039523355	-0.0565734015311461
2.4	-0.00197641785628863	-0.00316043946990507	-1.19759289306415E-06	-4.39667187605711E-06	3.0415048550041E-06	1.08821439822589E-06	0.995809816631736	-0.0598083413424287
2.5	-0.00290274472840873	-0.003923168198914	5.37073964731236E-06	5.67122589053349E-06	-2.62668958671378E-06	1.61309260372964E-05	0.995462850488999	-0.0621768338603675
2.6	-0.00405125183148977	-0.00334878573725371	-2.27825387867983E-06	2.70888773116288E-06	4.37384944244256E-07	-4.30965160478887E-06	0.995653071352737	-0.065128891563397
2.7	-0.00448059568319594	-0.00269042352572848	-2.40354612982001E-06	-3.63583768371722E-06	2.15476385825067E-06	-2.56815927696828E-06	0.995070081877743	-0.0682692407213796
2.8	-0.00453027136392686	-0.00203377753489639	3.9975954690138E-06	2.31154018456778E-06	9.8232893308856E-06	-6.82758514802738E-07	0.995056384199011	-0.0700789471365367
2.9	-0.00423553473348541	-0.00179175978390043	1.28656641397228E-05	7.17021033113879E-07	2.44447219457288E-06	-1.17014566773851E-05	0.994805671423515	-0.0719702684284802
3	-0.00455796912485657	-0.00174193349702311	-3.85084121579923E-06	1.04296099905214E-06	-4.14062838744058E-06	-1.60005575095068E-06	0.994646791751723	-0.0743189163740872
3.1	-0.00426134471883889	-0.00100014417396069	4.77936665046115E-06	-9.82879949128037E-06	1.0668704382594E-05	2.41337989027029E-06	0.994447912037438	-0.0760337780062308
3.2	-0.0038210055419718	-0.000959911374042047	-5.35545369477432E-06	-7.40344816522947E-06	1.56088596877821E-05	5.39393035738937E-06	0.994396558895767	-0.0776201827267798
3.3	-0.00356209639400523	-0.00111133560196526	-8.78416948279431E-06	2.52824744614086E-06	-8.55107750183913E-06	-1.75111253466721E-06	0.99446801352477	-0.0805652612650713
3.4	-0.00347272920767999	-0.00151622575370684	9.06762552942771E-06	-7.53488649541376E-06	-7.34744500492609E-06	4.2149589522406E-06	0.99506855522182	-0.0822306784041102
3.5	-0.00428015110452804	-0.00196836709609776	3.2816558107696E-07	-5.32120185505623E-06	-4.38293003131577E-06	-8.93768201351872E-06	0.995574620636004	-0.0857238444553275
3.6	-0.00458338077802725	-0.00120095134104494	4.06320271132668E-06	4.90309154737878E-06	-7.11643184395702E-06	8.97836292680239E-06	0.994915287683783	-0.0883637729924953
3.7	-0.00433626282513014	-0.0010380409128059	1.53478322066258E-06	-4.52086378738212E-06	-5.08801878755003E-06	-6.59049856726313E-06	0.99497563901724	-0.0909631696484254
3.8	-0.00417198857003064	-0.00116649928069216	7.28531923810625E-06	-5.1791906990995E-06	-5.87197616245092E-06	-2.42847871749306E-06	0.994908832389117	-0.0932253501173241
3.9	-0.00413096721129815	-0.0016760189025673	-4.02831714666895E-06	-3.5672254803109E-07	-2.53203344710481E-06	1.12860479716963E-06	0.994948092519998	-0.0971700692420079
4	-0.0052645713262307	-0.0021815215353374	-3.38055897011596E-06	-8.57571256066256E-08	1.19366217834302E-06	8.66206334004643E-06	0.992705715764781	-0.0991352506736447
4.1	-0.00581918909381139	-0.00113807007249063	-2.88860989958535E-06	-3.8630478388747E-06	5.86585805890672E-06	3.04761447661006E-06	0.992564479063917	-0.0988421994928196
4.2	-0.00564322349279976	-0.000688012129488445	-7.67831137108423E-07	-2.15768668515075E-06	5.70107620473612E-06	-1.82947968371274E-06	0.992973187044277	-0.101274858844699
4.3	-0.00547718946406994	-0.000545529265999709	-5.18094543932314E-07	3.23260491092622E-06	2.12468833091081E-06	1.78422671344661E-06	0.993205847705075	-0.103382931578627
4.4	-0.00543646876462274	-0.00082542278098026	2.56650419762935E-06	3.44683248396241E-06	7.16891198255659E-06	3.92810788976423E-06	0.992997757550138	-0.105750325854678
4.5	-0.00656505661211817	-0.00123987087893392	-6.47223180180219E-06	-2.5364459642098E-07	-8.57373688145089E-06	-2.14464497309972E-06	0.993063249859832	-0.107174159841545
4.6	-0.00745117227136408	-4.72699948344745E-05	-9.93215068447413E-06	-9.27323218644756E-06	3.25006354937445E-06	-2.72487314245768E-06	0.994216712504761	-0.110011891555655
4.7	-0.00751720761067873	0.000834872319794809	1.2182119858142E-07	1.86945318695976E-06	6.09017480170705E-06	-6.73372979991349E-06	0.994652473581524	-0.112762510008821
4.8	-0.00740966194265618	0.0016289382043048	-6.4127942330539E-06	2.07164217509975E-06	8.10554617675002E-07	-1.27751916320889E-05	0.994456172635329	-0.11570229849364
4.9	-0.00693338142450686	0.00205899069052412	-3.44798722606115E-06	8.15514651632479E-06	5.4845337546427E-07	9.39869894365348E-06	0.994159903527282	-0.117751487532107
5	-0.00717206587248969	0.0022341473549338	9.67879027268824E-06	-4.05674265464962E-06	-6.96280564993243E-06	3.5760443686097E-06	0.994286424396123	-0.119349722850562
5.1	-0.00636694514149065	0.00335019772427056	-3.65009792994358E-07	-3.26203965951632E-06	-3.88436447807506E-06	-1.80111561550357E-06	0.99479425965581	-0.121028016859814
5.2	-0.00516383655759965	0.00317412508220863	-1.06691383008643E-06	-4.49899778558584E-06	8.80499140258463E-06	5.59747933068796E-06	0.994764617392293	-0.12373472321547
5.3	-0.00455326164428337	0.00251934141863306	2.28538930103356E-06	6.81042278385969E-06	8.81130555400205E-06	3.14868989527567E-06	0.994442449339477	-0.126286024520105
5.4	-0.00450385654174889	0.00168740359151087	2.71825715890161E-06	-3.14503709713152E-06	-2.6815270732646E-06	1.49582608206133E-07	0.994635653419065	-0.128922551464177
5.5	-0.00594496123781405	0.00150388042829855	2.1044730548737E-06	9.3589775955714E-06	-3.93158163495944E-06	-5.05954121092176E-06	0.994853008902551	-0.132451854313273
5.6	-0.00581491744326634	0.00316156943063901	-5.87627162085977E-06	-1.13831812823971E-06	4.8896128213177E-06	1.95141921327722E-06	0.994329454358744	-0.135012145241281
5.7	-0.0049243334585349	0.00354444924541258	3.3478913432706E-06	-1.42745080961225E-06	-5.06429409676909E-06	-4.3070362378318E-06	0.994523460021686	-0.137746203762908
5.8	-0.00419300012598657	0.00344481187035687	-2.06240938399626E-06	-4.76124580139657E-06	9.49373905343249E-07	-5.84338384452844E-07	0.994659137918192	-0.140776151317468
5.9	-0.00349357609462747	0.0026579195032538	-3.88939931302022E-06	6.26892749389534E-07	3.87521363149246E-06	1.24716901440372E-06	0.9941292714391	-0.144836378482626
6	-0.00477366824105703	0.000888001511798301	-5.92764437541835E-06	5.05755023413345E-06	-1.48447772246743E-06	1.98962150653323E-07	0.989949687236829	-0.147419321834437
6.1	-0.00660056615991113	0.00176399888996262	-5.92418415169715E-06	-4.70158733277335E-06	-4.0065506815086E-06	4.29422304368815E-07	0.989215296531994	-0.145566186684765
6.2	-0.00736595966835306	0.00269052662462263	2.81826254862098E-06	3.13191541502024E-06	1.05256811727806E-06	7.24856586440758E-07	0.989653624461239	-0.14624281166957
6.3	-0.00753275361717985	0.0037946482278655	1.64454772535076E-06	-7.46811186452507E-07	-1.35454875087144E-07	1.37718467834825E-06	0.98973014609646	-0.147846825632329
6.4	-0.00711734589109429	0.00419552558418148	-5.18319631419814E-06	-5.6332370452461E-06	3.81150063667753E-06	6.92191320490187E-06	0.989430777137622	-0.150138659723312
6.5	-0.00783121340569726	0.00462836740407635	9.08224094319669E-06	-2.21578233739439E-07	-7.33239014270487E-06	-9.2123385001989E-07	0.989215109922443	-0.151119139048132
6.6	-0.0067613321895225	0.00607605604678893	-1.49554248145239E-06	4.64433481487707E-07	3.41144121329544E-06	-9.40948726440592E-06	0.992148765750061	-0.154334204906465
6.7	-0.00577079560215	0.0060706300733363	3.77913917710464E-08	7.7865035695159E-06	-4.88361876258168E-07	-6.11405435825907E-06	0.992345927483448	-0.158783236986005
6.8	-0.00519603464548823	0.00609922748918193	4.26642254541137E-06	1.66618844512619E-06	2.17558505269981E-07	-5.25932700111167E-06	0.991677535178316	-0.162295290618938
6.9	-0.00464747429706455	0.00568070346410693	-7.58707566485681E-07	2.49237331577879E-07	5.78420118018213E-06	-2.69439072474443E-06	0.990933679015994	-0.165480069923443
7	-0.00605740486242816	0.0054866073372585	8.05157037628793E-06	-4.7820853937017E-06	4.34584316752088E-07	-3.03301403946782E-06	0.988694604158148	-0.167551827102135
7.1	-0.00573179980249567	0.00772182736195529	3.86303113315969E-06	2.04849499208359E-06	7.82002250995689E-07	7.25780643453625E-06	0.988627344382522	-0.167909691666103
7.2	-0.00433371848357975	0.00841546521089698	-2.45622070887893E-06	3.70799032478553E-06	-1.34016518401698E-06	-3.84206841270036E-06	0.988947293440175	-0.169736566574493
7.3	-0.00307715266028404	0.00854869910225312	3.45483752667862E-06	-4.96556149381645E-07	-2.46107620410494E-06	-1.92579239258372E-06	0.988843397567828	-0.171626423958555
7.4	-0.00164565492397613	0.00775582461913374	-6.22428245777214E-06	-2.71814480650309E-06	3.79273211704939E-06	2.50206899056485E-07	0.990103639183036	-0.174511307840381
7.5	-0.00236658873318487	0.00548098070248684	6.79906848706373E-06	-6.50148529639127E-06	-2.49747699356289E-06	8.11335893508125E-07	0.98981593665267	-0.18146995528698
7.6	-0.00357087369814371	0.00605653162418209	3.52357105769958E-06	5.22677150554377E-06	-1.0293744022633E-05	4.99225588047587E-06	0.986160239861492	-0.184943238824341
7.7	-0.0039663033878081	0.00604071885794431	6.10265307905156E-06	1.09858302423009E-05	2.95603373871772E-07	-1.14300357880158E-05	0.985008678657711	-0.188336582506071
7.8	-0.00426787725820379	0.00603613938349426	2.17331339716151E-06	9.80559999928971E-07	-3.0866347082408E-06	8.88747728400636E-06	0.984041134243689	-0.192056525481898
7.9	-0.00453189850615725	0.00572855807447854	2.55351398592057E-06	-2.34244094776668E-06	3.71124961252992E-06	3.22423981340766E-07	0.982827227676394	-0.196753467427934
8	-0.00644812554097016	0.00632156733335332	-2.80880313812988E-06	1.35622470905168E-06	6.87882736747707E-06	-1.92091035948289E-06	0.977317352200004	-0.200363204803141
8.1	-0.0053685553824436	0.00855913827959026	-1.7868785091859E-06	7.66955687312581E-07	-3.71698157418802E-06	-1.23057454035157E-06	0.976324003055315	-0.198663635734079
8.2	-0.0040380399066906	0.00891584402012797	-7.58625743319409E-07	6.33749173270855E-06	4.89976582599911E-06	4.32598030431334E-06	0.976984461387224	-0.200270926756518
8.3	-0.00304755820371812	0.00890502334966897	-9.32623066202847E-07	-1.41993584583311E-05	6.85087603910697E-06	5.38564427415677E-06	0.976621252124075	-0.2029421493984
8.4	-0.00220291422673488	0.00827292444509285	3.73679021018701E-06	-3.44193386927203E-06	-6.96606718130932E-06	-1.18210415078185E-06	0.97560096914105	-0.205635803258846
8.5	-0.00362015490581549	0.00767153030904964	4.67149366826026E-06	5.71001517395773E-07	8.3851082767176E-06	-6.85281125930848E-06	0.974420942355012	-0.207473582901772
8.6	-0.00339643704575025	0.00996104144334345	-3.25056207381874E-06	4.13259046525315E-06	1.05961877431777E-06	1.1094317832948E-05	0.974748030383617	-0.209879323101963
8.7	-0.00176584462312165	0.0106770649430471	2.67100457150678E-06	-2.01363470008962E-06	4.75281267011827E-07	-5.56283839690646E-07	0.974445069187947	-0.212949650177696
8.8	-6.61662978584895E-05	0.0106641348556435	1.14001957786078E-07	-1.25213216127808E-06	-9.09461597635286E-07	9.76072820980717E-06	0.973780714910462	-0.215603742150573
8.9	0.0017548577495398	0.00944345750425813	-3.63978639562397E-06	2.30897725298984E-06	4.8092289397065E-06	-1.82787841567973E-06	0.973488643347897	-0.218030204600497
9	0.0013547078341255	0.00727806698569843	-1.88222127354952E-06	5.05207245204381E-07	-3.25100872222271E-06	-1.04899131207952E-05	0.972817674637581	-0.221135473721955
9.1	0.00123646504454304	0.00707016745875441	5.23556757345209E-06	5.60573578037216E-07	9.11575347751147E-07	3.75760819978781E-07	0.971249858004909	-0.223579494592497
9.2	0.00113823904750857	0.00604992462292217	-8.70411835178274E-06	-4.52109113909451E-06	-9.03030260732254E-07	-6.09741726728178E-06	0.969645302893319	-0.225605998521735
9.3	0.000435608657917337	0.0054722062005987	2.04485738422281E-07	6.19028566826815E-06	4.61429917924428E-06	-2.19789532555494E-06	0.968750929281913	-0.226986653983463
9.4	-0.000232943649377621	0.00504608138272042	-1.91469270789362E-06	5.8715810126195E-06	-1.04644977597569E-05	7.73626936895382E-06	0.968767723076874	-0.22901851395592
9.5	-0.00219501917865197	0.00558867911343682	3.16588547177485E-06	-7.57372233203231E-06	3.67517431217034E-06	-2.75055552114223E-06	0.968100101793979	-0.233014209733236
9.6	-0.00169466449188961	0.00788347344697586	4.51677962594875E-06	5.55285965288968E-06	-6.11881091950293E-07	7.06694717469598E-06	0.966223994738657	-0.235116224976106
9.7	-0.000464038681768077	0.00841230216363748	-2.61647295430277E-06	-3.92234778486943E-06	3.65747525175367E-06	-7.52646672015383E-06	0.965835719588965	-0.236909111244046
9.8	0.000531936654763478	0.00841930547357128	-5.40970935801805E-07	-4.2067762417253E-06	6.27076401329293E-06	8.62991972473673E-07	0.966201132346191	-0.238960827255531
9.9	0.00149486155241879	0.00757004110980536	-2.68791387410145E-06	-5.79846013708396E-07	-8.4638955025269E-06	5.52359159265348E-06	0.966168222257859	-0.242498648948501
10	2.3849408552599E-05	0.00648268134336095	4.17422170239111E-07	-1.7454272935639E-06	-3.11182595766837E-06	-7.91636950905219E-06	0.961583560277182	-0.244728514480826
10.1	-0.000158477195118724	0.0081609703396373	2.24430126468593E-06	4.74268135719921E-06	-3.06627983804706E-06	9.80829713132118E-06	0.961562255687843	-0.242616741343487
10.2	0.000789072532065909	0.00854335554410187	-5.37516778463013E-07	-1.04400882617113E-06	-1.21017885261673E-06	-3.1032618652644E-06	0.962514200801397	-0.243777183534711
10.3	0.00173197776874817	0.00843423103923614	1.12652032646363E-05	-2.94082735593167E-06	1.00154989980932E-05	-4.84562960294738E-06	0.962504573344827	-0.245746013684164
10.4	0.0026783142284343	0.00721862819909643	-6.22517937713328E-07	2.14103306504E-06	3.01624370571274E-06	-2.18234716135331E-06	0.961755071081198	-0.24816616847388
10.5	0.00101780805519797	0.00588351372995405	-6.09401151143191E-06	4.62709102285508E-06	1.56494829968906E-06	4.29416158830905E-06	0.960927568863431	-0.249730838242151
10.6	0.000324795670720671	0.00688283297612859	-7.08910114915218E-06	1.0680275577212E-05	7.02250196110327E-06	4.25975583037218E-06	0.961294732835814	-0.25316209633232
10.7	-9.03387455407165E-05	0.00758268015192366	-3.20782376506447E-06	1.5703544981236E-06	-5.35565287943819E-06	3.17523637392932E-06	0.959321779603264	-0.25649581584971
10.8	0.000106241457805038	0.00886811168785195	-1.91534885222846E-06	4.9851415458948E-06	8.43840221080725E-07	-3.19848330515945E-06	0.957630014612375	-0.257678688700588
10.9	0.00110923303270731	0.00934498498373824	-5.74939632334337E-06	-1.04908190270503E-05	4.93309837628501E-06	1.0670241551132E-05	0.957061243994906	-0.25883219368051
11	0.00030350126074284	0.00952710472425362	2.95986521073897E-06	2.60809421375769E-06	7.82846102515032E-07	-1.12095906896012E-05	0.956230320173343	-0.26036197111986
11.1	0.00155083629129027	0.011850629502163	3.84945361066316E-06	1.45319207277346E-06	2.52701833847376E-07	-7.35672391332583E-06	0.95534548522739	-0.260976966108637
11.2	0.00377123561618175	0.0122377933965321	-4.40407422739416E-06	-1.96736495527663E-06	-7.30266460258048E-06	-4.84002220032031E-06	0.954693475160707	-0.261742028793402
11.3	0.00589387134251659	0.0116397488866312	6.69227217165254E-07	-6.36223992306267E-06	3.74071626533318E-06	1.41107910771332E-05	0.954942887123732	-0.262234856668931
11.4	0.00761778641936059	0.0100400245567314	-5.13145871984419E-06	8.11786341922147E-06	-1.46741887518885E-06	4.06729327944384E-06	0.956068689617493	-0.263756183258133
11.5	0.00677805454096693	0.00847528448494238	4.51544122665488E-06	8.09862430981279E-06	-9.29074789964439E-06	1.5712280024304E-06	0.955502383244481	-0.268827174190296
11.6	0.00759078965221235	0.00905822630176801	-3.8357442736324E-06	1.3971104634841E-06	5.06681008188211E-06	8.12458891009341E-06	0.952921226828465	-0.271149003404037
11.7	0.00911331028064817	0.00785949177401781	2.23165690456223E-06	1.05096472524474E-05	5.43966022486032E-07	-3.64105247973656E-06	0.952743935414019	-0.273618902930847
11.8	0.0101131756770367	0.00583604584607824	1.42078864175652E-06	4.45646381581223E-06	2.24047426355955E-06	4.53144595751034E-06	0.953350814461499	-0.277348458047382
11.9	0.0102717752917185	0.00249636848671944	7.43934968091249E-06	1.05540835198055E-05	3.87840758196648E-06	4.0366986515597E-07	0.954413100966721	-0.283122638244619
12	0.00618950635156461	0.000492564646899616	2.33711774748432E-06	-5.1357374761869E-06	-4.00339889870783E-07	1.74402036011666E-06	0.94860507461922	-0.287533823995691
