# GHZ S RI R 50
0.2	0.000644897501175335	0.00246260839782596	4.79695100973178E-06	-2.98525140713066E-06	-1.37374933404067E-05	1.31228063345724E-05	0.9997415525467	-0.00674065807296394
0.3	0.00116010585745991	0.00180569890724013	2.86551673957413E-06	6.6307808534277E-06	-1.66186606619666E-06	-9.32644026554445E-06	0.999733363540172	-0.00956411661978665
0.4	0.00149984142993982	0.00143167641016363	-1.86322446626726E-06	-4.01915856184136E-06	-9.02283851112213E-06	4.40530792013858E-06	0.999899497276915	-0.0121761956413809
0.5	0.00182028828452619	0.00103297491254566	-5.36159710985655E-06	3.26587459257187E-06	-2.12697366281784E-06	6.76182386818456E-06	0.999839502943173	-0.015505220403367
0.6	0.00186591306654166	0.000562763781260212	-1.39971215582979E-07	2.80702971497159E-06	-5.81715572975248E-07	-1.34218250747855E-07	0.999762577956957	-0.0184722841628759
0.7	0.00179769104550689	0.000350570909175566	8.7526394410578E-08	2.22039198341153E-06	4.90696278188953E-06	-3.40254670881764E-06	0.999462074443575	-0.0214230100153142
0.8	0.00181056209108831	0.000164615854175668	4.53143754880681E-06	8.27520621997329E-07	2.74545316751889E-06	2.00251151571179E-06	0.99921135811607	-0.023644818476187
0.9	0.00170317344848382	2.87777862663685E-05	-1.5104957980647E-07	-4.22194640041252E-06	-3.42018438235615E-06	-3.11288737204984E-06	0.999017627156167	-0.0260103276776107
1	0.00173473991693508	5.42330770923444E-05	1.06111243353138E-06	4.29608524590446E-06	3.33032176570245E-06	9.34438269809696E-07	0.998908627521025	-0.0273955223013615
1.1	0.00168928943801175	-0.000274814737530807	9.05117566239142E-06	5.17688299476076E-07	-3.58141314629588E-06	-4.99282552015701E-07	0.998847431409134	-0.0294353555374506
1.2	0.00136221747597845	-0.000643291385985801	3.76447544911958E-06	-1.20128237189346E-06	-4.10102476154881E-06	-2.43980436337635E-06	0.998514659816168	-0.0302161646957002
1.3	0.000935883293335668	-0.00124912366257914	-7.62941704896658E-07	-1.42848039275693E-06	-2.59251286541013E-06	-8.71728165196786E-06	0.999235145082807	-0.030912387236
1.4	0.000372741652353976	-0.00211819171606197	1.57556845754399E-08	3.45211520178971E-06	-4.28909711279516E-06	-4.13091131313147E-06	0.999347950179842	-0.033169376073445
1.5	4.29195976257335E-05	-0.0027894766924515	-1.29776211344294E-06	4.43507708621827E-06	6.55672667240807E-06	-7.42421128337944E-06	0.999882358650603	-0.0368923833861894
1.6	-0.000450595033728063	-0.00317716026569978	1.6309201583802E-06	-4.90048630050155E-07	4.24444049408647E-06	-5.40039419402909E-06	0.998960441043355	-0.0408486593149844
1.7	-0.00071980165380446	-0.00316660104150573	5.33206837902769E-07	3.96033828288074E-06	-8.29018403871012E-06	3.13492738240327E-06	0.998765269803504	-0.0435646784889003
1.8	-0.00090721366631946	-0.00307366766460679	1.83403074188549E-06	1.07837993762306E-06	5.65124934951844E-07	-1.76324240841231E-06	0.998333157012848	-0.046381574186571
1.9	-0.00109823761291089	-0.00299049644543377	3.23866293373214E-06	3.01843568702394E-06	-1.8380828311467E-07	-2.33145855783378E-06	0.997843982986505	-0.048426551835032
2	-0.00109796917827976	-0.00294781198736436	-1.72889673443097E-07	2.00622838665525E-07	-1.21737301351431E-05	5.42373357058981E-06	0.997892048895882	-0.0508873896041385
2.1	-0.00137244123433406	-0.00321912033023347	6.67425779434165E-07	-1.38412132090368E-06	1.38249822848307E-05	4.95686568997233E-06	0.997628245923064	-0.0539165836169195
2.2	-0.00179656234979345	-0.00323325476495606	1.64357450628948E-06	-1.51949119601812E-06	2.68072321874368E-06	-6.21681319586539E-06	0.997191301890287	-0.0564721833208069
2.3	-0.00227510664808061	-0.0032378057506219	-1.6922831395171E-06	-3.4260791723337E-06	-1.79695604486854E-06	-4.59121050052043E-06	0.996602751157662	-0.0582945368104107
2.4	-0.00286635778379286	-0.00314074163931384	-1.20918832988989E-06	-4.40058998760053E-06	3.04848794490746E-06	1.08306483654662E-06	0.996326049636868	-0.0612707424522184
2.5	-0.00332233365745104	-0.00279444711413509	5.39163974628253E-06	5.66208950167784E-06	-2.58497721074933E-06	1.61541213709358E-05	0.995901290061743	-0.063292634458633
2.6	-0.0037148628292271	-0.00261418414644713	-2.27297390691997E-06	2.71449167586957E-06	4.28183200078492E-07	-4.31168067405899E-06	0.995898506524215	-0.0660633004731498
2.7	-0.00402111323716235	-0.00221158319810223	-2.41096152112499E-06	-3.63347942315085E-06	2.15140173933946E-06	-2.57311082837964E-06	0.995558046440148	-0.0689590972916708
2.8	-0.00412098169204748	-0.00179850024707351	4.00487892620644E-06	2.30638168911992E-06	9.83000992813553E-06	-7.00564510264249E-07	0.995749211726454	-0.070981021802872
2.9	-0.00399982647861089	-0.00140645430731115	1.28800986826478E-05	6.91079156110908E-07	2.42268166546945E-06	-1.17182995787976E-05	0.9955037349517	-0.0730335149306393
3	-0.00357663522908449	-0.00121277826826916	-3.85073889100527E-06	1.05249815030487E-06	-4.14681616347761E-06	-1.5914342800008E-06	0.995527662647631	-0.0755122453098712
3.1	-0.00336851155075657	-0.00139591786856824	4.76393914432836E-06	-9.84747765369891E-06	1.06833832103134E-05	2.39408256910557E-06	0.995424300434722	-0.077706805876888
3.2	-0.00332565981713403	-0.00153357652399137	-5.38043799338815E-06	-7.39867502244268E-06	1.5640868958654E-05	5.36093245718333E-06	0.995242841833692	-0.0797873388334377
3.3	-0.00340167812462144	-0.00174232617642794	-8.78554053619805E-06	2.55860160244082E-06	-8.56567960146154E-06	-1.72603991355876E-06	0.994925218977299	-0.0833097975898891
3.4	-0.00370783124239513	-0.00187640552271001	9.04202070892716E-06	-7.57328257193589E-06	-7.33405704508268E-06	4.24529396666259E-06	0.994546082718355	-0.0854186136333066
3.5	-0.0039106060190436	-0.00193772217090764	3.10452436536459E-07	-5.31676828251095E-06	-4.40757708278266E-06	-8.91412537118144E-06	0.994180540026866	-0.0878677183693867
3.6	-0.00440190606956711	-0.00211063647602396	4.07403706261307E-06	4.89140925724061E-06	-7.09183324562616E-06	8.99308081907229E-06	0.994038646465618	-0.0905223893592177
3.7	-0.00495750233353267	-0.00189167220953309	1.5215604741778E-06	-4.52420060585705E-06	-5.10562088077076E-06	-6.57450567611741E-06	0.993560812977817	-0.0932964714637145
3.8	-0.00535621595629289	-0.001513536132711	7.265671982846E-06	-5.19748735810403E-06	-5.87556526136602E-06	-2.40973391653016E-06	0.992817052850567	-0.0951573309405594
3.9	-0.00554779475935959	-0.000993914095189657	-4.02474963809633E-06	-3.47010894879592E-07	-2.52666024874739E-06	1.13323382255681E-06	0.99243294300348	-0.0976715377237679
4	-0.00531127976758933	-0.000569447603067603	-3.38184000891825E-06	-8.08080021752929E-08	1.20682619659238E-06	8.66326430991875E-06	0.992956658795739	-0.0984738187636423
4.1	-0.00525124805756695	-0.00060080348712992	-2.90207757306307E-06	-3.85600582848279E-06	5.87828651550547E-06	3.03090232756806E-06	0.993059156924406	-0.100946385005563
4.2	-0.00537038754061383	-0.00050671593351165	-7.74673593099677E-07	-2.15473442709136E-06	5.69392280076771E-06	-1.84760134776357E-06	0.992334710316196	-0.103679442473395
4.3	-0.00550455538472734	-0.000370806355356347	-5.07687945972291E-07	3.23298176915477E-06	2.12949357859387E-06	1.77682464917061E-06	0.992104907596321	-0.105635614739182
4.4	-0.00578125399421706	-0.000146958094597128	2.57790122875483E-06	3.43717412394462E-06	7.18097187604997E-06	3.90237654764378E-06	0.991748017780046	-0.107881080958639
4.5	-0.00578741181778559	0.000262061432984005	-6.46649363608225E-06	-2.21054922089649E-07	-8.57516592181768E-06	-2.09951616774614E-06	0.991754562241399	-0.110065613733612
4.6	-0.00601238936315705	0.000304814703877807	-9.93958413608937E-06	-9.20204463989742E-06	3.22829161260128E-06	-2.72987941343901E-06	0.991277774963992	-0.112880505183213
4.7	-0.00625700767703606	0.000639900785297146	1.27155868512119E-07	1.86231133231893E-06	6.0473312750381E-06	-6.72817577086313E-06	0.991159885784116	-0.114771813120644
4.8	-0.00640936491102904	0.00101111533374101	-6.38420506717648E-06	2.07932407913575E-06	7.77049136844789E-07	-1.27300328304857E-05	0.990795586977511	-0.117222796907525
4.9	-0.00644908992556378	0.00144044334703295	-3.4177583686805E-06	8.13331813767227E-06	5.67010600793152E-07	9.36366308585467E-06	0.990270834760628	-0.119020114590998
5	-0.00608549205526457	0.00178752889107976	9.62614108609663E-06	-4.05885291747167E-06	-6.92353308365968E-06	3.57457065324054E-06	0.990036506852789	-0.120415817270369
5.1	-0.00591650025321362	0.0017547103131798	-3.65922163728447E-07	-3.24702607825527E-06	-3.8682414200234E-06	-1.78993541722929E-06	0.990013654610619	-0.121729456710328
5.2	-0.00576209280866476	0.00193328518901273	-1.06500785420028E-06	-4.4807992648819E-06	8.77327234315164E-06	5.57104561128212E-06	0.989755537164903	-0.123773223024305
5.3	-0.00551891548820985	0.0020566951444871	2.28209448990709E-06	6.78470981842765E-06	8.78233591761538E-06	3.1313433270272E-06	0.989607389116571	-0.125906470303641
5.4	-0.00533356909612356	0.00216658656501341	2.70318453342208E-06	-3.13716151754489E-06	-2.67110051198857E-06	1.5304760028224E-07	0.989582459648019	-0.128600288870724
5.5	-0.00498336172937966	0.00220528918063053	2.09891644629853E-06	9.30451111313431E-06	-3.91274561098742E-06	-5.02819493895352E-06	0.989538084236363	-0.130968429236592
5.6	-0.00523915721663963	0.00192893566655785	-5.8478142167667E-06	-1.13852601374896E-06	4.86499132306395E-06	1.94691146589134E-06	0.989686415672765	-0.133689045352498
5.7	-0.00569034434445898	0.00223367411411543	3.33553100351943E-06	-1.41823425042802E-06	-5.03914698728328E-06	-4.2943544268872E-06	0.989249745623497	-0.136300610587213
5.8	-0.00601044238888046	0.00270726500529924	-2.04727193303887E-06	-4.74515806824182E-06	9.4641614142704E-07	-5.80626821960117E-07	0.988794944318592	-0.138308157796372
5.9	-0.00634054554397939	0.00347285931008331	-3.87789644895624E-06	6.13515557200509E-07	3.85834761308772E-06	1.25409046371817E-06	0.988343402592718	-0.139759098504086
6	-0.00608844533193688	0.00455414958629733	-5.94569670146077E-06	5.04145930078426E-06	-1.48571604054269E-06	1.94481828447851E-07	0.989394787421216	-0.140560476435663
6.1	-0.00559596638446774	0.00490500214375497	-5.93000862660901E-06	-4.70294837733102E-06	-4.00927071524348E-06	4.31082708882019E-07	0.990129919082684	-0.142804759755145
6.2	-0.00518351530275523	0.00508455062955834	2.82107065506695E-06	3.12776269305874E-06	1.05310320424693E-06	7.23433228811469E-07	0.990250764803631	-0.144721110600877
6.3	-0.00481127477675695	0.00490473149653742	1.64223180722123E-06	-7.48140239469291E-07	-1.33685101904763E-07	1.37615841808965E-06	0.990106042660971	-0.147294103173497
6.4	-0.00483839215390424	0.0046609929627713	-5.1850179477428E-06	-5.62531918286586E-06	3.81527353006828E-06	6.91442297061553E-06	0.989681074826579	-0.149733056656657
6.5	-0.00462799971379925	0.00445491254868211	9.07317615070549E-06	-2.49394136164086E-07	-7.32846591478457E-06	-8.9776195967673E-07	0.989604600144333	-0.153271515527905
6.6	-0.00498950995342295	0.00421252657948249	-1.48833599015949E-06	4.65619870004514E-07	3.37756522043784E-06	-9.37737253098159E-06	0.988203068277821	-0.156138217017279
6.7	-0.00511644261797547	0.00452107716570607	3.91695864523046E-08	7.74977532849298E-06	-4.87280907315809E-07	-6.08512322526848E-06	0.98748496144816	-0.158074846658746
6.8	-0.00512934300423247	0.00476908638611743	4.24499639610347E-06	1.66266338979162E-06	2.2172921900715E-07	-5.23472300964908E-06	0.98690405470114	-0.160215948214488
6.9	-0.00525286481210433	0.00519078809262009	-7.5591021973286E-07	2.46816731001594E-07	5.76429381490153E-06	-2.67254208668323E-06	0.986290656210399	-0.162100450288763
7	-0.00478132052191698	0.00571484840016261	8.02998936577694E-06	-4.74728452494966E-06	4.39020134364729E-07	-3.02037155207425E-06	0.986090961939848	-0.163685858636711
7.1	-0.00488109368785182	0.00560159689397088	3.84468209722245E-06	2.04910076707225E-06	7.63996917066803E-07	7.23300306297438E-06	0.98553932738127	-0.165965601778035
7.2	-0.00508911146487067	0.00606092318410216	-2.45411895513969E-06	3.69056819725354E-06	-1.32864148398721E-06	-3.83089013312409E-06	0.984562407309413	-0.167945992166347
7.3	-0.0052305218210084	0.00653877748518647	3.44191192240554E-06	-4.91230843411416E-07	-2.44962697413141E-06	-1.92073535813818E-06	0.983059318815652	-0.169978653142816
7.4	-0.00561868319382216	0.00709896688445072	-6.18818581284141E-06	-2.70101181259548E-06	3.77047698662895E-06	2.48034790230326E-07	0.980935247492699	-0.172271932012651
7.5	-0.00551562226562613	0.00816320252584482	6.75470994109417E-06	-6.42206991822761E-06	-2.47670074508762E-06	7.96738116308795E-07	0.979264074179371	-0.172775944585752
7.6	-0.00512797541198275	0.00853454195409386	3.47166597834669E-06	5.20639373360754E-06	-1.02438355113377E-05	4.90421444470575E-06	0.979620898352417	-0.17518678588235
7.7	-0.00491552891816512	0.00900351640172813	6.00065165864732E-06	1.09420284925383E-05	3.55291401700463E-07	-1.13485614855426E-05	0.979441384319758	-0.178045862744127
7.8	-0.00435037952513579	0.009091124712137	2.1522064988764E-06	9.87821134741448E-07	-3.12262164631983E-06	8.80708749847738E-06	0.97957818495852	-0.1809966852412
7.9	-0.00379324378110925	0.00903803497941765	2.55698918397422E-06	-2.30574274426693E-06	3.68468806061536E-06	3.51833577023436E-07	0.979851489665049	-0.183717395933645
8	-0.00277626992237135	0.00874264321287327	-2.81934712516211E-06	1.32217245818382E-06	6.88882234497738E-06	-1.83990043268698E-06	0.981528186601811	-0.186647834965432
8.1	-0.00262852844718588	0.00806775453554226	-1.79492859763909E-06	7.53717865809454E-07	-3.7114338156687E-06	-1.26127393445211E-06	0.981326004094516	-0.191327122388607
8.2	-0.00249677269145846	0.00791491503539066	-8.01680966340671E-07	6.34013207194407E-06	4.87694505400417E-06	4.36380204851148E-06	0.980593176663979	-0.194283425045147
8.3	-0.00234162793780651	0.00777156588388248	-8.45207570075866E-07	-1.42291564182761E-05	6.82868053611088E-06	5.43766450480851E-06	0.979893115824917	-0.197338089367954
8.4	-0.00238564384077517	0.00786005864300989	3.76643343352593E-06	-3.43111809525425E-06	-6.97939204046199E-06	-1.22391759523899E-06	0.979135774131893	-0.200222447491082
8.5	-0.00189394567171124	0.00810169794580438	4.67855443411233E-06	5.86613173754335E-07	8.42228708812532E-06	-6.83969122118853E-06	0.978448301036259	-0.203437416109809
8.6	-0.00194862928470251	0.00778324468107439	-3.27170191191422E-06	4.11821339880031E-06	1.00615975934197E-06	1.11031907835673E-05	0.977349083368892	-0.206262859004873
8.7	-0.00203593243222392	0.00806305158814635	2.68654306427951E-06	-2.00000596848974E-06	4.79243916974189E-07	-5.54107505763499E-07	0.976680653730349	-0.208686075868704
8.8	-0.0018550192653103	0.00841376216896422	1.22559385514038E-07	-1.254521418733E-06	-9.76221352104522E-07	9.77921586165297E-06	0.976084079269615	-0.21076570136689
8.9	-0.00157730097195472	0.00876032534499242	-3.67016531943779E-06	2.29577981387219E-06	4.84158942584183E-06	-1.80516824961967E-06	0.976062831697886	-0.212547602956687
9	-0.000685963692805951	0.00909059174136868	-1.89306891209565E-06	4.97949203533015E-07	-3.21247887550642E-06	-1.05525631324018E-05	0.976191368672826	-0.214658145840766
9.1	1.50577413880133E-05	0.00860300820180634	5.26091758228683E-06	5.92905361118108E-07	9.14433386029562E-07	3.82903551867813E-07	0.976432874182254	-0.216937504831546
9.2	0.000611082764135991	0.00819009634013163	-8.74421693399153E-06	-4.58684488085056E-06	-8.84312362111835E-07	-6.14205139475667E-06	0.976412305481179	-0.220056912861069
9.3	0.00104816035101946	0.007504847166656	1.93072265799589E-07	6.23109227889224E-06	4.64892902124074E-06	-2.20273228677402E-06	0.976029574527036	-0.223378703801356
9.4	0.00108317409299092	0.00684452563738265	-1.9252745949532E-06	5.89973357220748E-06	-1.05170773389376E-05	7.77164917368404E-06	0.974733291464103	-0.22697794366266
9.5	0.00116967993968064	0.00640318300079006	3.18695253467649E-06	-7.58051301463083E-06	3.68725239811097E-06	-2.74784758702607E-06	0.97354262740212	-0.229307978831972
9.6	0.000487469694579778	0.00582897365139949	4.51136623450899E-06	5.58979581049871E-06	-6.41195969332229E-07	7.08951296542121E-06	0.972875063347379	-0.232708952229813
9.7	-8.91539757948329E-05	0.00601657678139337	-2.61440830386906E-06	-3.94796096108415E-06	3.69854595402746E-06	-7.54629283501331E-06	0.97166270942125	-0.235431740870724
9.8	-0.000511585339107437	0.00632287946942502	-5.29413521860669E-07	-4.22609958955158E-06	6.29408627384698E-06	8.87183032909968E-07	0.970816336206405	-0.237397404561178
9.9	-0.000928621443703632	0.0069463514611216	-2.69654894716452E-06	-5.95167667543185E-07	-8.52624986705909E-06	5.50654181409481E-06	0.969922241560394	-0.238405629024849
10	-0.000626809226861341	0.00772437300217396	4.29807132756259E-07	-1.75867839021923E-06	-3.09962992419721E-06	-8.00146690631727E-06	0.97110905028183	-0.239739798110427
10.1	-0.00059038325166176	0.00791478924462454	2.26020264108449E-06	4.78413661479874E-06	-3.09843166814684E-06	9.88909639310286E-06	0.969993072815143	-0.242791947332669
10.2	-0.000440102641293012	0.00846604868219267	-5.41099883267139E-07	-1.05111089993408E-06	-1.21820407801801E-06	-3.12435085411371E-06	0.968754101702009	-0.243938149566007
10.3	-9.30586052298053E-05	0.00890382163527519	1.13359955029002E-05	-2.95592408806605E-06	1.0079065315676E-05	-4.87290800059341E-06	0.967911336214506	-0.245282598011794
10.4	0.000253374781902886	0.0093806047735923	-6.27209132905153E-07	2.15569813359147E-06	3.0374664555186E-06	-2.1968569908032E-06	0.967197773148927	-0.2467903368423
10.5	0.00120944989164297	0.00987060542987184	-6.11811546640481E-06	4.67197201143306E-06	1.58630565623181E-06	4.31583734169653E-06	0.966880485337614	-0.249447499879884
10.6	0.00190025648255694	0.00973989610673384	-7.09640516590859E-06	1.07247421267662E-05	7.05116006620523E-06	4.2632715593131E-06	0.965858117172405	-0.25174840577619
10.7	0.00269904087545605	0.00967251332353536	-3.21877419689043E-06	1.57637496425147E-06	-5.3738434531877E-06	3.18722210077604E-06	0.965588381622581	-0.254357082748589
10.8	0.00329817068732626	0.00924559282122718	-1.92276722509081E-06	5.00616352895291E-06	8.46993157005701E-07	-3.21192675937237E-06	0.965028228281504	-0.257030961397715
10.9	0.00338901535801577	0.00902791314181238	-5.78695413802829E-06	-1.05384060522709E-05	4.96672796931017E-06	1.07194120215686E-05	0.964237632808732	-0.259560111916558
11	0.00409772462522949	0.00900827065140721	2.97741255790761E-06	2.61189096630962E-06	7.61087688480031E-07	-1.12558692591497E-05	0.963335732354998	-0.261761169431653
11.1	0.00425770948092133	0.00850136582492454	3.86599462346139E-06	1.4513632105435E-06	2.40108323955712E-07	-7.38370151613745E-06	0.961778610985302	-0.263895319878541
11.2	0.00450759557216896	0.00842798191805403	-4.42596100319626E-06	-1.96393083065075E-06	-7.34290212010883E-06	-4.84040646656683E-06	0.960158438711776	-0.265663581810862
11.3	0.00501409321972263	0.0081462135842467	6.47814398968519E-07	-6.38733327156582E-06	3.80676058468413E-06	1.41469087129459E-05	0.95889744996211	-0.267306179488408
11.4	0.00520680170619804	0.00784604976292569	-5.09620058048593E-06	8.16054502476776E-06	-1.44777250921695E-06	4.08263260511316E-06	0.956876567278546	-0.269429187083226
11.5	0.00575909603703283	0.00752230116341135	4.53543576410559E-06	8.07982140109502E-06	-9.27953797167851E-06	1.59676793540218E-06	0.955921764933231	-0.270636709918588
11.6	0.00565205149327871	0.00658456622983693	-3.83995077139407E-06	1.40761550026487E-06	5.09295774153759E-06	8.12914609799446E-06	0.955158237242942	-0.274441307146939
11.7	0.00534683436011938	0.0062098898307503	2.27058263617604E-06	1.05240693547755E-05	5.33200921284567E-07	-3.65034964423076E-06	0.953326537717404	-0.277754269101466
11.8	0.00511218409798783	0.00608945449305977	1.43809653786034E-06	4.45658863589878E-06	2.25898803306894E-06	4.52877385539824E-06	0.951683922741859	-0.280363013279305
11.9	0.00497194805512392	0.00640373541585466	7.452300363778E-06	1.05470332724597E-05	3.87937573480633E-06	3.99323531322653E-07	0.95123560633454	-0.280800477657633
12	0.00584218859710382	0.00659413739178036	2.34954585676015E-06	-5.16036250088088E-06	-4.0263914966157E-07	1.75246018341392E-06	0.953713673493011	-0.282797387392784
