# GHZ S RI R 50
0.2	0.000919599866203959	0.00265087803008874	4.79090855677946E-06	-2.98603931306788E-06	-1.37170630653244E-05	1.31212468898747E-05	0.999127251186505	-0.00727043291164823
0.3	0.00131943691427477	0.00180399682628473	2.86668993872499E-06	6.62321211612103E-06	-1.66564178186641E-06	-9.31713220650001E-06	0.998940366641816	-0.0101589500436265
0.4	0.00158277751840022	0.00124588942064894	-1.86300166111552E-06	-4.01389192427705E-06	-9.0109140580775E-06	4.40456309699876E-06	0.998840583120028	-0.0128272683147843
0.5	0.00149043904516281	0.000833297280875695	-5.35603052726371E-06	3.26252039694442E-06	-2.12473819842474E-06	6.75483457201017E-06	0.998506098221855	-0.0157179339483674
0.6	0.00165949748778794	0.000758483333528157	-1.39167442799472E-07	2.80513207321592E-06	-5.81348828564803E-07	-1.33979232386386E-07	0.998938414720101	-0.018631075802811
0.7	0.00179784866915495	0.000497593300822556	8.84542310787368E-08	2.21840248107321E-06	4.90111398789613E-06	-3.40177901075595E-06	0.998621746536637	-0.0219019369932346
0.8	0.00191601607811641	0.000231436582152323	4.52691636829081E-06	8.24433893497278E-07	2.74343879048871E-06	1.99901124768049E-06	0.998210810447039	-0.0242753954158
0.9	0.00198502962248591	-9.54188945528406E-05	-1.52901935769597E-07	-4.21614486214317E-06	-3.4170610616721E-06	-3.10699750323567E-06	0.997829250137228	-0.0268292425470636
1	0.00175294408878061	-0.000628396095982213	1.06008990449409E-06	4.28842682701741E-06	3.32471995835609E-06	9.32181536998315E-07	0.997026665324153	-0.0283437971353248
1.1	0.00129728229824813	-0.00067269285767122	9.03589844709289E-06	5.17281780077976E-07	-3.57535303250951E-06	-4.98625586391334E-07	0.996709447100385	-0.0297664886417219
1.2	0.00104992137640354	-0.00107719451225988	3.75749694136423E-06	-1.19879115530356E-06	-4.09318350781885E-06	-2.43549321483355E-06	0.996349038861818	-0.0305482105036367
1.3	0.000467552989085177	-0.00183712159285348	-7.6105457319213E-07	-1.42566306095163E-06	-2.58529562452204E-06	-8.69965915196343E-06	0.996798672660538	-0.0312767060395985
1.4	-0.000254173209338873	-0.00268770548740093	1.43790803357444E-08	3.44529030861482E-06	-4.27899988130792E-06	-4.12440871205248E-06	0.996913921357083	-0.0334187963594577
1.5	-0.000902827480908131	-0.00303069753997417	-1.29726385553243E-06	4.42708363132794E-06	6.54848111663835E-06	-7.40915429009736E-06	0.99747548462931	-0.0368975232110512
1.6	-0.000924126977282973	-0.00289950269917172	1.62862453669605E-06	-4.88649716294097E-07	4.24011126604281E-06	-5.39045297429764E-06	0.997182765190438	-0.0404875833460442
1.7	-0.000876480526824659	-0.00297379526374245	5.30512156731155E-07	3.95496128662515E-06	-8.2799150517521E-06	3.12641285711994E-06	0.997309092555925	-0.0432513094343132
1.8	-0.000914230856378213	-0.00298646195584466	1.83105000437195E-06	1.07802287148181E-06	5.65391363063023E-07	-1.76064339800476E-06	0.997087727675006	-0.0460812511829457
1.9	-0.00104371694265502	-0.00316109377334512	3.23370747450797E-06	3.01612323797588E-06	-1.8270391951846E-07	-2.32878923265525E-06	0.996730545298004	-0.048507990789993
2	-0.00155404118858725	-0.00320924764001249	-1.72596632195156E-07	2.00192355704316E-07	-1.21511561632909E-05	5.41042388745776E-06	0.995548244310578	-0.0510923897901266
2.1	-0.00171280385462136	-0.00293826382409382	6.67832640272734E-07	-1.38048488383907E-06	1.37908254862249E-05	4.96437705587079E-06	0.995490418828618	-0.0525908757988453
2.2	-0.00183464222513065	-0.00294623417253203	1.64328348584466E-06	-1.51457269722158E-06	2.68595060472583E-06	-6.20285744238223E-06	0.995792345027746	-0.0549894501528664
2.3	-0.00210449041236106	-0.00304017041527622	-1.6844219808663E-06	-3.4240063254695E-06	-1.78707944290196E-06	-4.58767738697034E-06	0.995543595719853	-0.0568788512055122
2.4	-0.00245750037635296	-0.00322673603384261	-1.19984968654581E-06	-4.39686350794385E-06	3.04253210840044E-06	1.08698044661669E-06	0.995490244709712	-0.0599512902758254
2.5	-0.00325891762305039	-0.00341462382556697	5.37434431256166E-06	5.66790235770159E-06	-2.61658669127347E-06	1.61327099018019E-05	0.995091503374287	-0.0620275696187251
2.6	-0.00396225627129823	-0.00294247882237295	-2.2767041975728E-06	2.70869395362443E-06	4.35951195019728E-07	-4.3083877093369E-06	0.995297915852855	-0.0647581493039067
2.7	-0.00423980394767505	-0.00245437580974654	-2.40298214349385E-06	-3.63531858544264E-06	2.15450455606342E-06	-2.56762978714639E-06	0.994975053622847	-0.0676996627236155
2.8	-0.00428310696595011	-0.00201240340683065	3.99749604658928E-06	2.31230874986501E-06	9.82403037978903E-06	-6.81281437687409E-07	0.995183313355108	-0.0695821528531256
2.9	-0.00411991198133691	-0.00178793882101236	1.2869129008723E-05	7.18836348381282E-07	2.4466184945972E-06	-1.17043827192149E-05	0.995011132576138	-0.0715294371509974
3	-0.00416235597225383	-0.00164052686443835	-3.85162316034093E-06	1.04304438720018E-06	-4.14138463738745E-06	-1.60049581448598E-06	0.994976139110297	-0.0738975261662804
3.1	-0.0038744890560938	-0.00135096112284449	4.78315666494458E-06	-9.83142452280787E-06	1.06721275601362E-05	2.4164737698752E-06	0.994884371459488	-0.0758123688530164
3.2	-0.00366700875358514	-0.0014350022063959	-5.35852195539538E-06	-7.40751453071387E-06	1.56176204437827E-05	5.39676139849399E-06	0.994795204990259	-0.0776569210238498
3.3	-0.00362247639150002	-0.00162297750322957	-8.78836873367355E-06	2.5326108290621E-06	-8.55656239293922E-06	-1.74928070494788E-06	0.994701684363829	-0.0809116632886513
3.4	-0.00379564180140105	-0.00189903471160978	9.06505545181076E-06	-7.5443931017706E-06	-7.34679833111069E-06	4.22200480005921E-06	0.994843172209394	-0.0828685957788663
3.5	-0.00438561681273203	-0.00206440560405071	3.24792700490029E-07	-5.3193642358382E-06	-4.38670560308839E-06	-8.9315844871267E-06	0.994810895862301	-0.0859073415088787
3.6	-0.00471730592523015	-0.00172063464977802	4.06364710730294E-06	4.90205497293703E-06	-7.11444177812227E-06	8.97875896529403E-06	0.994437267761004	-0.0884497317411349
3.7	-0.00488544776360185	-0.00156078735314802	1.53347532037817E-06	-4.52164904784899E-06	-5.09042123380978E-06	-6.58935573313118E-06	0.994315452826057	-0.0911514135044282
3.8	-0.00505925430423839	-0.00143390594580369	7.28309554394299E-06	-5.18186536687558E-06	-5.87274592348333E-06	-2.42612891789898E-06	0.993939436285148	-0.0932472556466242
3.9	-0.00521191389610061	-0.00138371492351344	-4.02730783847184E-06	-3.56141520306716E-07	-2.53123521218021E-06	1.12861654479531E-06	0.993695576445808	-0.0964744997681626
4	-0.00569900392926348	-0.00124826426177559	-3.38190613151276E-06	-8.73446417088286E-08	1.19017416656316E-06	8.66616422316782E-06	0.992772308759477	-0.0975112049855247
4.1	-0.0057870425429454	-0.000662691177860835	-2.89183854447069E-06	-3.8649914860351E-06	5.87100050705098E-06	3.04809058799542E-06	0.993159787777763	-0.0984776894253083
4.2	-0.00568174894208753	-0.000413750827421965	-7.69141983748605E-07	-2.1583607443225E-06	5.70294501810001E-06	-1.83284971938267E-06	0.993180961164008	-0.101176439325189
4.3	-0.00562103510959587	-0.000293570558590417	-5.16850710042084E-07	3.23422496988541E-06	2.12640779230836E-06	1.7840277870517E-06	0.993270185504914	-0.103293106347591
4.4	-0.00573285330721233	-0.000342968440915025	2.5702486644262E-06	3.44712063639817E-06	7.17561605811753E-06	3.92564016875603E-06	0.993050213162303	-0.105677562383027
4.5	-0.00630723444304104	-0.000248831384836888	-6.47456537153525E-06	-2.4364887813475E-07	-8.57964265364842E-06	-2.13194549795212E-06	0.993227186226173	-0.107535351704865
4.6	-0.00667323301495744	0.000386038306894984	-9.93705735064988E-06	-9.25185653650219E-06	3.2436276078044E-06	-2.72720499218489E-06	0.993677082576773	-0.11057846588231
4.7	-0.00672747518166669	0.000878452667927623	1.23345977585542E-07	1.86728038656464E-06	6.07747181593374E-06	-6.73169851760225E-06	0.993861637498894	-0.113062487873882
4.8	-0.00672518169748243	0.00132225779671496	-6.40437929346943E-06	2.07278063071613E-06	8.02676212168862E-07	-1.27611168863783E-05	0.993607415185186	-0.115909975832121
4.9	-0.00656721481764899	0.00161796002834494	-3.44079593011061E-06	8.14840968879905E-06	5.5214172200017E-07	9.38889177763036E-06	0.993209840290133	-0.117990302707255
5	-0.00659858484981036	0.00188724026218119	9.6628463974517E-06	-4.05639889246329E-06	-6.9509694509612E-06	3.57486724416142E-06	0.993122922712606	-0.11962313728512
5.1	-0.00608482834567398	0.002365960347662	-3.64267125769394E-07	-3.25728741714167E-06	-3.87856284611288E-06	-1.79872686457804E-06	0.993321300167968	-0.12122712412383
5.2	-0.00549476308468389	0.0023044148912781	-1.06482239916631E-06	-4.49413410290139E-06	8.79395558211272E-06	5.5929041780572E-06	0.993124983055589	-0.123680045158319
5.3	-0.00515055189034497	0.00204523005951226	2.28318761406719E-06	6.80479721746357E-06	8.80377428188794E-06	3.14641025462312E-06	0.992891437020145	-0.126084493703569
5.4	-0.00511407348022435	0.00169803444613076	2.71436146158265E-06	-3.14379813761153E-06	-2.67920222746787E-06	1.5083587240368E-07	0.993009594096603	-0.128906388137173
5.5	-0.00570832833551215	0.00176384890212731	2.10425426803156E-06	9.34103543025178E-06	-3.92635098635381E-06	-5.04875726515511E-06	0.992955530380908	-0.131994210600166
5.6	-0.00568164499130397	0.00241774651716621	-5.86737822263319E-06	-1.13938943284417E-06	4.88175244691585E-06	1.95087994647036E-06	0.992767464413846	-0.134631075420599
5.7	-0.00555269589881004	0.00270997029926706	3.34495360579189E-06	-1.42435115361675E-06	-5.05683146311611E-06	-4.30476378790095E-06	0.992624578422269	-0.137394020309407
5.8	-0.00546916752347319	0.00293364233014846	-2.05737693276248E-06	-4.75795325215913E-06	9.48827779697537E-07	-5.83167408158913E-07	0.992381957022392	-0.139939156043584
5.9	-0.00543251204070501	0.00301927846798691	-3.88753839907992E-06	6.21190858046481E-07	3.8708256413441E-06	1.25154613599307E-06	0.99171584834544	-0.142598819793568
6	-0.00605764718005784	0.00302783481903762	-5.94437630911613E-06	5.05446448410906E-06	-1.48685833290327E-06	1.9671981635729E-07	0.990226660899882	-0.14370218588601
6.1	-0.0064029325709981	0.00389452778760101	-5.9364734576115E-06	-4.70928722705152E-06	-4.01409451757255E-06	4.31092625890932E-07	0.990911947548306	-0.143895599532871
6.2	-0.00627662256946656	0.00440327296411895	2.82511100846989E-06	3.13378699324984E-06	1.05472056083651E-06	7.24925012867733E-07	0.991472601484301	-0.145530749732825
6.3	-0.00600166577684517	0.00465559715717252	1.64536210986342E-06	-7.49401952969096E-07	-1.34048918578459E-07	1.3787185187659E-06	0.991458722214391	-0.148004106364516
6.4	-0.00586785540258724	0.00450739870860961	-5.19385386144433E-06	-5.6337930521759E-06	3.82204870703018E-06	6.92509079181999E-06	0.990893167303049	-0.150598939265176
6.5	-0.00618294970796205	0.00465917232259685	9.09060016600504E-06	-2.4173532879846E-07	-7.34155428147778E-06	-9.06031840371615E-07	0.990805954984285	-0.152963762223014
6.6	-0.00577610177370736	0.0051477061185731	-1.49332100302049E-06	4.67062035420171E-07	3.38947569546769E-06	-9.40832762242896E-06	0.991364304359993	-0.156427933973361
6.7	-0.00538878385543038	0.00525009087026809	4.63782833927414E-08	7.77592364714769E-06	-4.94483632154988E-07	-6.10523802881515E-06	0.99082071527131	-0.159672418128372
6.8	-0.00512074490890026	0.00533741597044554	4.26113465865256E-06	1.66172018492905E-06	2.14676936858616E-07	-5.25191098635603E-06	0.990061875806337	-0.162505680341467
6.9	-0.0050085370725437	0.00527363962392522	-7.57709568225978E-07	2.48956307287978E-07	5.77654844460029E-06	-2.69121802590712E-06	0.989231807200357	-0.165062945534989
7	-0.00552348869782485	0.00561039445284938	8.04268657487981E-06	-4.77650095141598E-06	4.34183298919957E-07	-3.02960428185923E-06	0.987940413308266	-0.16674245235357
7.1	-0.00525338940416694	0.00658202037981042	3.85885704484857E-06	2.0463620162393E-06	7.81046023833463E-07	7.25003950516118E-06	0.987716926959279	-0.168192601551
7.2	-0.00472571473830855	0.00702445804590823	-2.4528113132683E-06	3.70454588073516E-06	-1.33954477577791E-06	-3.83767814140568E-06	0.987248103704556	-0.170298860037382
7.3	-0.00429618089720639	0.0072585437601549	3.44993967591607E-06	-4.98457151663066E-07	-2.45927116496585E-06	-1.92144861129572E-06	0.986217938923052	-0.172459861974605
7.4	-0.00401633582819856	0.00711560314913837	-6.2134092459131E-06	-2.70138305368388E-06	3.78382738577809E-06	2.43444827725465E-07	0.985329507821113	-0.175336115661435
7.5	-0.00456165530782424	0.00685318005332146	6.76470391242577E-06	-6.47228304108746E-06	-2.48529715985452E-06	8.08155139488094E-07	0.983424583015826	-0.178762372919777
7.6	-0.00470479430647756	0.00753503816525672	3.50281306637799E-06	5.21016809556397E-06	-1.02585949156865E-05	4.95921147710528E-06	0.981893640032197	-0.181022138996737
7.7	-0.00459083977579874	0.00776141158224801	6.06060631636975E-06	1.095327115945E-05	3.13503930341159E-07	-1.13850850177739E-05	0.981463368604843	-0.183918430991714
7.8	-0.00433441506865483	0.00769055978695019	2.16276866867773E-06	9.81893533462385E-07	-3.09559748028069E-06	8.84650591271601E-06	0.981200044301774	-0.187209130320542
7.9	-0.00421988498338123	0.00739411862457367	2.55222939724196E-06	-2.3248834412251E-06	3.69640109968133E-06	3.34158533351023E-07	0.980647527458113	-0.19085190463157
8	-0.00452670170962306	0.00766679133958635	-2.81243159252402E-06	1.33905294122153E-06	6.88006178013885E-06	-1.88074170892968E-06	0.978951174637195	-0.193462027802279
8.1	-0.00384450160370041	0.00822193390602228	-1.7905954149454E-06	7.60626079641979E-07	-3.71412970450878E-06	-1.24507676133914E-06	0.978865962796703	-0.195265756584285
8.2	-0.00320822971937784	0.0082045122680007	-7.77903586622416E-07	6.33886446518715E-06	4.88970846834005E-06	4.34302570753261E-06	0.978757451331944	-0.197836680361943
8.3	-0.00272903105037827	0.00807497492763584	-8.94697552400212E-07	-1.42126179966491E-05	6.84139751672549E-06	5.40834912118978E-06	0.978063744941937	-0.200805818034437
8.4	-0.00248756089939355	0.00778288934165319	3.74998142039218E-06	-3.43769854870203E-06	-6.97263224679864E-06	-1.20021954648916E-06	0.97702713107226	-0.203594189649711
8.5	-0.00300802678542706	0.0078359641551218	4.67550729843932E-06	5.75992719292578E-07	8.39979039565167E-06	-6.85153466428213E-06	0.976091239653587	-0.20612660379607
8.6	-0.00277292542111405	0.0087434692943507	-3.25730444859478E-06	4.12674649940679E-06	1.04072734811827E-06	1.10952173379657E-05	0.975556496904747	-0.208881451458943
8.7	-0.00207941417710716	0.00913270765120097	2.67648514825531E-06	-2.00769372223686E-06	4.76732524691735E-07	-5.55274039086889E-07	0.97487336987603	-0.211600561356974
8.8	-0.0012938843463408	0.00926361663128715	1.17655488107607E-07	-1.25287254168531E-06	-9.37959575440792E-07	9.7664406512417E-06	0.97409999451305	-0.213846543332085
8.9	-0.000480631002748984	0.00888571928354928	-3.6533028028411E-06	2.30286224419494E-06	4.82356875272684E-06	-1.8174897756918E-06	0.973869287999082	-0.215760187726909
9	-0.000360240949184291	0.00834437928392967	-1.88724312410106E-06	5.0231013878188E-07	-3.23577852614519E-06	-1.05188166770944E-05	0.973612329837421	-0.218125335093051
9.1	0.000153262414690869	0.00820617901593517	5.24766402493983E-06	5.74314604311957E-07	9.13027749514236E-07	3.78865960873579E-07	0.973121547103694	-0.220296640035233
9.2	0.000626712188296966	0.0075763294250282	-8.72534545602483E-06	-4.54845853013122E-06	-8.96910701991883E-07	-6.11830521548442E-06	0.97251760161751	-0.222890229387548
9.3	0.000747780817686896	0.00689745717930979	2.03366713223672E-07	6.20891137155825E-06	4.62875540116013E-06	-2.20319681538675E-06	0.971983763564838	-0.225456907325778
9.4	0.000564482664976856	0.00617884907265826	-1.9134503903916E-06	5.88483472906242E-06	-1.0478569189942E-05	7.76053489635345E-06	0.971233306521898	-0.228619756352174
9.5	-0.000258042229892151	0.00620385859780291	3.16520322713249E-06	-7.57326615335066E-06	3.67471610632258E-06	-2.7505293771687E-06	0.969898607014438	-0.231796246167689
9.6	-0.000249700953504818	0.00675414921575534	4.51291330317048E-06	5.56144848673079E-06	-6.20554216175934E-07	7.07039702047376E-06	0.968592764589994	-0.234481658359312
9.7	-7.08814893101264E-05	0.0069052386908824	-2.61478979580239E-06	-3.92884958227316E-06	3.66894111094838E-06	-7.52972480336824E-06	0.967648802291155	-0.236826695875803
9.8	3.67842205885836E-05	0.00695647923100354	-5.36942997052381E-07	-4.2107518916824E-06	6.27491826150469E-06	8.70345949466126E-07	0.967147273617208	-0.238868951282445
9.9	5.6992912536177E-05	0.00683543360289425	-2.68842947041975E-06	-5.8543733073326E-07	-8.47983673914244E-06	5.51048368734073E-06	0.966236571393102	-0.240953577026595
10	-0.000631526452938036	0.00696146594348758	4.23139915633321E-07	-1.74952214914448E-06	-3.10070894122904E-06	-7.94779419679221E-06	0.964647395730826	-0.241973579255689
10.1	-0.000570341265455805	0.00786945481277016	2.2500222897325E-06	4.75784628473629E-06	-3.07817954770248E-06	9.83772728536956E-06	0.964455648893963	-0.242685010221043
10.2	-8.58233708984835E-05	0.00827195070715988	-5.38799528275992E-07	-1.046153181236E-06	-1.21316872257889E-06	-3.10968828976184E-06	0.964098712015612	-0.243957940255972
10.3	0.000435667667806397	0.00841475884004643	1.12844379863348E-05	-2.94546958426374E-06	1.00326702025808E-05	-4.85354788167035E-06	0.963421655410836	-0.245539035060183
10.4	0.000851818265535278	0.00814576610448013	-6.24084944140875E-07	2.14527562143296E-06	3.02265987222235E-06	-2.18632955479358E-06	0.962480684494137	-0.247229801443268
10.5	0.000503692309587988	0.00815016521237803	-6.09819859353093E-06	4.64430290664982E-06	1.57403130643006E-06	4.29958858894972E-06	0.962074942839751	-0.249071307699195
10.6	0.000793442761098182	0.00872047176727947	-7.08025670064306E-06	1.06878511454681E-05	7.02712105878984E-06	4.25389593517094E-06	0.961779111363548	-0.251829131049993
10.7	0.0012642196687421	0.00902774265270082	-3.20823292045566E-06	1.57086031951097E-06	-5.35629347065421E-06	3.17617228102E-06	0.960911250934635	-0.254615459057678
10.8	0.00177849772564151	0.00925532609480945	-1.91662719273612E-06	4.9872465969493E-06	8.44485670741003E-07	-3.19986551777332E-06	0.959915166525709	-0.256725453791108
10.9	0.0023490460337304	0.00916803580529782	-5.75668125133358E-06	-1.05023904963837E-05	4.93946439759607E-06	1.06820741708472E-05	0.959534533871551	-0.258529643480421
11	0.00231078202851752	0.00934086068887691	2.96404963911047E-06	2.60742436770036E-06	7.74092546446169E-07	-1.12179018892634E-05	0.958714002333591	-0.260388749317252
11.1	0.00312348708297662	0.010019500219882	3.85167002291944E-06	1.4517697619883E-06	2.49019609266673E-07	-7.35966302452382E-06	0.957523291067551	-0.261856375259088
11.2	0.00423789172155185	0.0100028389108237	-4.407868311161E-06	-1.96535007129982E-06	-7.31006377168206E-06	-4.83754552999605E-06	0.956332735793782	-0.263176316071868
11.3	0.00534826635095508	0.00948391628736457	6.61249769850792E-07	-6.36592751323663E-06	3.76072312219122E-06	1.41121749158157E-05	0.955667729015208	-0.264349521109902
11.4	0.00605810199821926	0.0085243166005412	-5.11064680241429E-06	8.12637624440396E-06	-1.45744245361353E-06	4.06901422014652E-06	0.954944785404542	-0.266307669713717
11.5	0.00583301079145131	0.00781603200613496	4.51394355088695E-06	8.07790182328685E-06	-9.27039358560102E-06	1.57683814409524E-06	0.95378439819266	-0.269005300928488
11.6	0.00623854102298773	0.00759539878245367	-3.83307164614712E-06	1.39661009230558E-06	5.0643653442344E-06	8.11869845414105E-06	0.952376566650449	-0.271727756419414
11.7	0.0066852898354272	0.00682667325994156	2.23727292328266E-06	1.05044933855252E-05	5.41545325361297E-07	-3.64007162747726E-06	0.951407527072001	-0.274557363517004
11.8	0.00690020133882587	0.00590863440905305	1.42275926490688E-06	4.45204893597305E-06	2.24186426302604E-06	4.52640922318091E-06	0.950778441703289	-0.277526799164604
11.9	0.00670587634399266	0.00477738445026391	7.41988970095298E-06	1.05446586090658E-05	3.87239874540062E-06	4.06225022637076E-07	0.95079987497546	-0.27990979354313
12	0.00553200977992679	0.00433816181439146	2.35075021320339E-06	-5.13683253322689E-06	-4.0450620615428E-07	1.7452255138134E-06	0.950066637458563	-0.282095340196421
