# GHZ S RI R 50
0.2	-0.00637043600453596	0.00826204225416901	0	0	0.958104435150731	0.0578694430113031	0	0
0	0	0.0220966699919924	0.00329965076336694	0	0	-0.370225702394397	0.911192242038147
0.958104435150731	0.0578694430113031	0	0	0.0214822533240541	0.0456093753309727	0	0
0	0	0.569450921809832	-0.754156174023963	0	0	0.00184829896776972	-0.0282374851098222
0.3	0.0071819284975427	-0.00913817225801172	0	0	0.0331917800436219	-0.965304630085636	0	0
0	0	-0.00446800205488705	0.00127836246660014	0	0	-0.134575916996908	-0.974229254109416
0.0331917800436219	-0.965304630085636	0	0	-0.0129355489133048	0.00653711270492977	0	0
0	0	-0.92217453939313	-0.201867836935322	0	0	-0.0315965249249739	-0.0153735148847876
0.4	-0.00867416073303751	0.00788328841683791	0	0	0.94862732859923	0.0615084099574415	0	0
0	0	-0.0394747203621857	0.000914172027690393	0	0	-0.667504228769792	-0.725436742870261
0.94862732859923	0.0615084099574415	0	0	-0.0330508053391472	-0.0130319972690873	0	0
0	0	-0.235640471347533	-0.895689564303583	0	0	0.022630767230729	0.0206449541726271
0.5	0.01046699058717	-0.00475484830568594	0	0	0.127087058729731	-0.94885624208761	0	0
0	0	-0.0337455193811432	0.0051355227218568	0	0	0.964026205028838	0.206504744053233
0.127087058729731	-0.94885624208761	0	0	0.0375250590223019	0.0167687698186094	0	0
0	0	-0.678174051812618	0.637019661129938	0	0	0.00580498189545621	0.0078619930428566
0.6	-0.0107884733159848	0.00156192040464454	0	0	0.954784377830622	0.130498453964346	0	0
0	0	-0.00961113886407229	0.00640031023813832	0	0	0.912166653556983	-0.33008228949716
0.954784377830622	0.130498453964346	0	0	0.00526376714826587	-0.0197360514813427	0	0
0	0	-0.861943918119475	-0.344083244269281	0	0	-0.00505393108510642	-0.00718213641709543
0.7	0.010496750332452	0.00162905910165611	0	0	0.108240890015788	-0.957206284717625	0	0
0	0	0.0211713011234383	-0.010827334748921	0	0	-0.610267726895863	0.74850067242119
0.108240890015788	-0.957206284717625	0	0	0.00812547387002297	0.00987380299767524	0	0
0	0	0.0466053403038265	0.919884903948126	0	0	0.00231300248583103	-0.0128725870580981
0.8	-0.00964614616037982	-0.00506880602804117	0	0	0.954482498356528	0.112987167239868	0	0
0	0	0.042862650320335	-0.041809259253591	0	0	-0.119693045314846	0.960417752843526
0.954482498356528	0.112987167239868	0	0	-0.0225178796853749	0.0130483568538109	0	0
0	0	-0.81078186408827	0.44898128315914	0	0	0.00675257830120736	0.0834897913848834
0.9	0.00731551501823032	0.00775808921411805	0	0	0.14443254003231	-0.939227293949883	0	0
0	0	0.0122794953630841	-0.0277770198991379	0	0	-0.434786348912689	-0.865104460913798
0.14443254003231	-0.939227293949883	0	0	-0.00197497536729079	-0.0612460537581967	0	0
0	0	0.763897290595361	0.524175942463684	0	0	0.0363356522786512	0.0140846981495845
1	-0.00423932801667744	-0.00909259034412234	0	0	0.942083804265183	0.181148391273985	0	0
0	0	-0.0148025027158669	0.0117334948115902	0	0	-0.837920980166183	-0.480559227869019
0.942083804265183	0.181148391273985	0	0	0.00316067351879545	0.0425216000204677	0	0
0	0	-0.125744928392046	0.901937303442756	0	0	0.00349797897171064	0.00249954484110482
1.1	0.000847290310035428	0.00860011086733304	0	0	0.20111053855592	-0.948953221897653	0	0
0	0	-0.0114911351264336	0.0349257476966106	0	0	0.955665560046164	-0.0512872996399633
0.20111053855592	-0.948953221897653	0	0	0.00417035519890726	0.00224201223549354	0	0
0	0	0.868275589128082	-0.260361048456408	0	0	0.00917411692453897	0.0433628370331122
1.2	0.00212808666879463	-0.00668768156465452	0	0	0.958592234879563	0.202337489034531	0	0
0	0	0.00926419664353367	0.0645298873787994	0	0	0.770604538896018	-0.554396612410758
0.958592234879563	0.202337489034531	0	0	0.054377542079393	-0.00041079847391072	0	0
0	0	0.613563756910034	0.671048143685674	0	0	0.00754664728806451	0.0999129528865621
1.3	-0.00425309400438397	0.00348511011863572	0	0	0.20511954075718	-0.942283335811675	0	0
0	0	0.0169397298071504	0.0191175763609747	0	0	-0.354982280530844	0.882774367122013
0.20511954075718	-0.942283335811675	0	0	-0.0532944433229222	0.000360653350867685	0	0
0	0	0.32204164938413	-0.858825414205243	0	0	0.0407679847661381	0.0146911506167899
1.4	0.00495888733638769	0.000196372321292508	0	0	0.924174057208779	0.233534064322	0	0
0	0	-0.0125550071844506	-0.0433455901580918	0	0	0.179287544896533	0.937105263209966
0.924174057208779	0.233534064322	0	0	0.0178995608655127	0.00773425491854065	0	0
0	0	0.898529470519231	-0.0837699293117	0	0	0.0449961737895422	-0.00630367436954817
1.5	-0.0040551719525814	-0.0031660170791344	0	0	0.271069968037381	-0.92225498548746	0	0
0	0	-0.0376744017884431	-0.0557559650810356	0	0	-0.674344597027109	-0.675591069691599
0.271069968037381	-0.92225498548746	0	0	0.0336320562581519	-0.0332418112516689	0	0
0	0	-0.461088822702788	-0.767546356114804	0	0	0.0335908362661237	0.0522244484799965
1.6	0.00193814332046954	0.00472439617011435	0	0	0.937109559759598	0.295134639124024	0	0
0	0	-0.0359271438726712	-0.0189042345241035	0	0	-0.936846004736983	-0.184170256086838
0.937109559759598	0.295134639124024	0	0	-0.0510880586877311	-0.0275085921396126	0	0
0	0	0.497805792038452	-0.753772694429684	0	0	0.00120364064972633	0.0524856950106103
1.7	0.000984704004126518	-0.00461407499494791	0	0	0.290177435481061	-0.942786539951671	0	0
0	0	0.0156826146138255	0.00696729677960113	0	0	0.884988211559134	-0.343230820986087
0.290177435481061	-0.942786539951671	0	0	-0.00101388253052657	0.00465969031915529	0	0
0	0	-0.900400412264616	-0.111551374120243	0	0	0.0401698540976244	-0.0305508946031497
1.8	-0.00389229319817688	0.00290504509573587	0	0	0.917161535714589	0.291422203513692	0	0
0	0	0.0453923499610469	0.0384741248161869	0	0	0.573801630496376	-0.745586503546331
0.917161535714589	0.291422203513692	0	0	0.00622000746283887	0.0647137523004918	0	0
0	0	-0.309721176076417	-0.849470432352849	0	0	0.0276457201424091	-0.0340714061562628
1.9	0.00596151672026459	9.7556565154562E-05	0	0	0.320667157283275	-0.893868435065098	0	0
0	0	0.0526152873133036	-0.00358994160534565	0	0	-0.0839392804555759	0.941590016350735
0.320667157283275	-0.893868435065098	0	0	0.00940625148857002	0.00866862758133909	0	0
0	0	-0.615537220582824	0.645360655618503	0	0	0.0408875586759293	0.0235637919459148
2	-0.00642738285342418	-0.00401119831175978	0	0	0.890879280217381	0.351036538716795	0	0
0	0	0.0149136260698319	-0.00506447267245834	0	0	0.456788421539875	0.833617530912381
0.890879280217381	0.351036538716795	0	0	-0.0500144538841592	-0.0335390394019946	0	0
0	0	-0.844354265855978	-0.264663420249418	0	0	-0.0530138239531878	-0.0213646226678615
2.1	0.00506133158687217	0.00813701987853058	0	0	0.365837483979185	-0.897845901984986	0	0
0	0	-0.0293457573834237	0.00757881391649477	0	0	-0.830094084758553	-0.453054740450036
0.365837483979185	-0.897845901984986	0	0	0.0704472696001277	0.0164361898140617	0	0
0	0	0.134600388703526	0.87980566187127	0	0	-0.00506209385697269	0.00966019745643728
2.2	-0.00158524458994984	-0.0117850308115141	0	0	0.898418508534489	0.377672398722405	0	0
0	0	-0.0482971415958038	0.0168208487993971	0	0	-0.932811605398158	0.0678864271090691
0.898418508534489	0.377672398722405	0	0	0.0145867743244324	-0.0110664861724641	0	0
0	0	-0.73798851385805	0.505780704607627	0	0	0.0426530734402219	-0.0112485711267269
2.3	-0.00353317790498993	0.013792713180955	0	0	0.387319912041193	-0.889467305291055	0	0
0	0	-0.030574901657314	0.0189332705517904	0	0	0.737638422689187	-0.55539656264377
0.387319912041193	-0.889467305291055	0	0	0.0579384875351108	-0.0290428262908191	0	0
0	0	0.77639135254306	0.433130393657304	0	0	0.0667421095142484	0.0466369145201702
2.4	0.00959571934994707	-0.0135395639005457	0	0	0.878019056400014	0.398997816570863	0	0
0	0	-0.000610766349519648	0.000757334036538892	0	0	0.324905760023898	-0.86834655496439
0.878019056400014	0.398997816570863	0	0	-0.0973654367427828	0.0134519926283749	0	0
0	0	-0.0396371302342818	0.883125564456622	0	0	0.0471533814644407	-0.0493325300246371
2.5	-0.0159684001815437	0.0106459932377496	0	0	0.415642288156318	-0.866556322802236	0	0
0	0	0.0192716974344853	-0.0361410950619089	0	0	0.189415803400856	0.918095993983204
0.415642288156318	-0.866556322802236	0	0	-0.01066659861339	-0.0272986272177072	0	0
0	0	0.805458758883906	-0.332236208350106	0	0	0.0124688244067556	-0.000883952160038751
2.6	0.0214559201080536	-0.00557797576496051	0	0	0.859505253361845	0.429416866997205	0	0
0	0	0.0180895985745696	-0.0387186265616598	0	0	0.667445765470441	0.653601967762674
0.859505253361845	0.429416866997205	0	0	0.0049609114761564	-0.0335676118621051	0	0
0	0	0.630830107093194	0.597267107878825	0	0	0.06244554582929	0.0099840466280342
2.7	-0.0250969730785592	-0.00124145382597706	0	0	0.443749152253318	-0.853415999201367	0	0
0	0	0.0212604184892287	-0.00940774696533013	0	0	-0.897480641117996	-0.173858616495638
0.443749152253318	-0.853415999201367	0	0	0.00266451223434757	-0.0129339092174224	0	0
0	0	0.275544187164508	-0.835495313014586	0	0	-0.0275060358353733	-0.000990231668576399
2.8	0.0257016701152419	0.00896539493199057	0	0	0.842742434851087	0.457101501895183	0	0
0	0	0.00947787640441403	0.0126898719574652	0	0	-0.841789150999815	0.312685793635446
0.842742434851087	0.457101501895183	0	0	0.0035737002928636	0.0638331582654307	0	0
0	0	0.871151356932344	-0.150363364698879	0	0	0.0259503180980317	-0.0638224568368313
2.9	-0.0226546081646993	-0.0167408274815273	0	0	0.47318568903826	-0.823413216145216	0	0
0	0	-0.000659111659097455	0.0364591538931683	0	0	0.566828248202462	-0.7002251214978
0.47318568903826	-0.823413216145216	0	0	-0.0539234690695478	0.0341514278656973	0	0
0	0	-0.514846463088025	-0.702074526208204	0	0	-0.0402077235042862	-0.0460877546256306
3	0.0168461581103619	0.0236932346343175	0	0	0.814290600391785	0.497539403210794	0	0
0	0	-0.0116837166676845	0.0291279294778091	0	0	0.0918389161750908	-0.919274638646194
0.814290600391785	0.497539403210794	0	0	-0.00724170609853539	-0.017457721320376	0	0
0	0	0.406400456903668	-0.759794704334722	0	0	0.0134669869238204	0.0856980671601447
3.1	-0.00849672267273371	-0.0279416861513491	0	0	0.518585086261163	-0.803879449490263	0	0
0	0	-0.0209747489035765	0.0119271907824622	0	0	0.44704321405276	0.805977042082934
0.518585086261163	-0.803879449490263	0	0	0.0384075334953861	-0.063987205619346	0	0
0	0	-0.868189345238767	-0.0507232286686765	0	0	-0.0752797621134526	0.00617445950856794
3.2	-0.000970670573477822	0.0295920763511157	0	0	0.802014112426733	0.54280508854958	0	0
0	0	-0.0184905282536931	-0.00640361600869045	0	0	0.796543397968059	0.437722134068694
0.802014112426733	0.54280508854958	0	0	0.000501570243361978	0.0253955722501363	0	0
0	0	-0.335947758276981	-0.813498431561119	0	0	-0.059114292547901	0.0067823093190201
3.3	0.0101960699457941	-0.027319093220178	0	0	0.554709781050304	-0.797715475829462	0	0
0	0	-0.00177191052431568	-0.0242772702341348	0	0	-0.903956161151078	0.0485773007922159
0.554709781050304	-0.797715475829462	0	0	0.0617287584510419	0.024617201681412	0	0
0	0	-0.575302530589459	0.67368044176477	0	0	-0.0269106314832191	-0.106699295299381
3.4	-0.0178869477020821	0.0213835392560657	0	0	0.781053776088547	0.560018837661601	0	0
0	0	-0.00463086053103826	-0.0409542643013349	0	0	-0.733425279214803	0.540908282269754
0.781053776088547	0.560018837661601	0	0	-0.114750282227982	0.00822223250776919	0	0
0	0	-0.855497225088611	-0.224038862763887	0	0	-0.0193179013732728	-0.0397422204660149
3.5	0.0232194902072732	-0.0136189767616159	0	0	0.575106511620306	-0.771962200659935	0	0
0	0	0.00796426535408294	-0.0307554188472148	0	0	0.299168578868157	-0.867813367702051
0.575106511620306	-0.771962200659935	0	0	-0.0118711041724915	-0.053643702462144	0	0
0	0	0.16552791026155	0.843162420151608	0	0	0.0852514888614063	-0.0720305939837755
3.6	-0.0251529102321046	0.00483348777617379	0	0	0.765084144720249	0.585396017552685	0	0
0	0	0.0198779822073245	0.00199163561049322	0	0	-0.207516700110497	-0.894821553033845
0.765084144720249	0.585396017552685	0	0	-0.0346791203095392	0.0601795185296853	0	0
0	0	-0.69400755527781	0.518712547526732	0	0	0.0449053711979063	-0.0313376580052358
3.7	0.0231795774020324	0.00457661642907958	0	0	0.60475302220005	-0.745166473987496	0	0
0	0	0.0144027154981906	0.0358974431198702	0	0	0.638113089758443	0.650577201457689
0.60475302220005	-0.745166473987496	0	0	0.118261309170678	0.00802002840918088	0	0
0	0	0.76996867087005	0.411411325276834	0	0	0.0555945156035642	-0.018805978916993
3.8	-0.018200459979787	-0.0123577758409424	0	0	0.739298346347819	0.623777219034711	0	0
0	0	0.0156886206053948	0.0502643086472303	0	0	0.871294936922027	0.188599256791849
0.739298346347819	0.623777219034711	0	0	-0.0255338311403717	0.0207675758888894	0	0
0	0	-0.017866590121474	0.871927419012123	0	0	-0.0583067479843477	-0.0255731574600896
3.9	0.0110584614931758	0.0171296500302905	0	0	0.628709600935285	-0.739067887571658	0	0
0	0	0.0114191954545697	0.015536068768567	0	0	-0.825602611232863	0.326302152858756
0.628709600935285	-0.739067887571658	0	0	-0.0138535672537826	0.0835088040632275	0	0
0	0	0.784459517237975	-0.384324613593682	0	0	0.0248985957327649	-0.00559808628788616
4	-0.00232493922766862	-0.0186045134628893	0	0	0.721893133677585	0.637032489269615	0	0
0	0	-0.0166549524949289	-0.0121805248509219	0	0	-0.51793588559979	0.724855605911994
0.721893133677585	0.637032489269615	0	0	0.051515059038062	-0.0742224643293253	0	0
0	0	0.684234264914802	0.517815948563802	0	0	-0.00480632519292341	0.00958434988811236
4.1	-0.00572339219640051	0.0166324863197858	0	0	0.642437688766028	-0.709487993230108	0	0
0	0	-0.0416949466679012	-0.0351352553989812	0	0	0.0561264335121144	-0.893306886021466
0.642437688766028	-0.709487993230108	0	0	0.02554466499976	-0.112170295793116	0	0
0	0	0.185139634066522	-0.829474959967331	0	0	0.0261832850544622	0.082286171606204
4.2	0.0121492539726381	-0.0119304605927887	0	0	0.704968523235364	0.653518424623877	0	0
0	0	-0.0491905171379912	-0.0150938597162609	0	0	-0.433690454814622	-0.782440775754185
0.704968523235364	0.653518424623877	0	0	-0.0402178168204709	0.0164371642402046	0	0
0	0	0.833154482221334	-0.184455251415723	0	0	-0.0117966763632888	-0.0415498400908334
4.3	-0.0158395730965085	0.00495794488133081	0	0	0.661987959315651	-0.698649167983248	0	0
0	0	-0.00768803338698615	0.00697603956622488	0	0	0.77972367511325	0.424765742142538
0.661987959315651	-0.698649167983248	0	0	-0.0111054732518152	0.0676000213077496	0	0
0	0	-0.535424404407605	-0.674819905826436	0	0	-0.0145234953658452	0.00239114399726171
4.4	0.0159582503642202	0.00326810561722756	0	0	0.682034002098263	0.671232848893557	0	0
0	0	0.0378698157250331	0.00440253740926268	0	0	0.889674857615916	-0.0541691880522859
0.682034002098263	0.671232848893557	0	0	0.00121359621361749	-0.0504036171829539	0	0
0	0	0.346183012923187	-0.773695068949747	0	0	-0.033779694998777	0.00333905614382138
4.5	-0.012460428592734	-0.0106945832106876	0	0	0.677394234190264	-0.664033487864892	0	0
0	0	0.0646578726487296	-0.00466059270714048	0	0	-0.722970613979895	0.524424779055641
0.677394234190264	-0.664033487864892	0	0	-0.0502093593350764	0.0266866111458863	0	0
0	0	-0.836421660191591	0.0119132897581982	0	0	-0.0863133907292214	0.0623584217015076
4.6	0.00601115372155736	0.0162850564661466	0	0	0.646126484782235	0.691738806603325	0	0
0	0	0.0468469749343255	-0.0252391836356667	0	0	-0.312759609948824	0.845581475838975
0.646126484782235	0.691738806603325	0	0	-0.00416400593596421	0.0140026780170455	0	0
0	0	-0.37276708293293	-0.745272085646615	0	0	-0.0804442471557095	-0.00948780172581037
4.7	0.00208549394773115	-0.0188705096411917	0	0	0.708744064235221	-0.639197968303596	0	0
0	0	-0.0241508091497578	-0.00564775110549052	0	0	-0.191958987210864	-0.874580898659486
0.708744064235221	-0.639197968303596	0	0	0.0654074868042731	-0.0176551042876559	0	0
0	0	-0.524271645652558	0.656732043396826	0	0	-0.0732175077335474	0.0725856831030706
4.8	-0.0106904766636471	0.0179655409066967	0	0	0.639116126808456	0.724466132976088	0	0
0	0	-0.0581852844427113	0.0341433052021054	0	0	-0.608118032578454	-0.634720850786067
0.639116126808456	0.724466132976088	0	0	0.052766253222807	-0.018287317485948	0	0
0	0	-0.828416375179467	-0.196501109474829	0	0	-0.00900667550801708	0.0719473150488444
4.9	0.0182386414539583	-0.0127961977339557	0	0	0.730198346681692	-0.630783963964014	0	0
0	0	-0.0394048431276502	0.0586727708987808	0	0	0.854792094529	0.206304094881138
0.730198346681692	-0.630783963964014	0	0	-0.0811210301696007	-0.0284488516636918	0	0
0	0	0.199883368159922	0.821330309695477	0	0	-0.0835964461493999	0.00396299025660928
5	-0.0229237802382198	0.00465833641057638	0	0	0.619300587176305	0.725531465293945	0	0
0	0	-0.000186934133226099	0.0206144027685231	0	0	0.830758468384348	-0.298865854518556
0.619300587176305	0.725531465293945	0	0	-0.047676223190372	0.0411761039134121	0	0
0	0	-0.644756306164778	0.534279295682197	0	0	0.0414128718699965	-0.00921554382820405
5.1	0.0244416455781224	0.00526685919738596	0	0	0.726895432200648	-0.606254816308407	0	0
0	0	0.038358515516532	-0.033098359714632	0	0	-0.532977837507282	0.695415040023909
0.726895432200648	-0.606254816308407	0	0	-0.0217944393346268	-0.040932955951394	0	0
0	0	0.74976147595442	0.344584182747484	0	0	0.0723975153007132	-0.019762950319139
5.2	-0.0220685192617235	-0.0163645788610523	0	0	0.583394826132989	0.744821393431026	0	0
0	0	0.0157868465501287	-0.0739382076048545	0	0	-0.0790966819419138	0.871406629913431
0.583394826132989	0.744821393431026	0	0	0.0382187509860495	0.0227856088752505	0	0
0	0	0.014812976213124	0.832079361329483	0	0	0.0265388737353034	0.0663655657471551
5.3	0.0157917863930818	0.0259766020093883	0	0	0.763790429740225	-0.570935043449684	0	0
0	0	-0.0145811467676464	-0.0410855482945684	0	0	-0.411123704355701	-0.771265909912715
0.763790429740225	-0.570935043449684	0	0	-0.0319074806759977	0.0249677901428847	0	0
0	0	0.743223766057013	-0.373215265333722	0	0	-0.0435017650751909	0.0118164331583206
5.4	-0.00664519986059761	-0.032019124963687	0	0	0.562383145835196	0.769543955837983	0	0
0	0	-0.0317203126142922	0.01465488716085	0	0	-0.76637032344217	-0.429762361123313
0.562383145835196	0.769543955837983	0	0	0.0703302603873605	0.0879901062483602	0	0
0	0	0.656348055327533	0.511151999938637	0	0	-0.00961124174614512	0.021838566233957
5.5	-0.00422205466766439	0.0344923170543901	0	0	0.781187198996986	-0.5596765508007	0	0
0	0	0.0228951511212096	0.059876993513875	0	0	0.877821043100377	-0.0421542086266511
0.781187198996986	-0.5596765508007	0	0	-0.00623436807634612	-0.0275600681215154	0	0
0	0	0.159925778230227	-0.816671765475374	0	0	0.0213536761597583	0.0387026457157414
5.6	0.015781476553319	-0.0319866856338043	0	0	0.545767893452093	0.787614991231995	0	0
0	0	0.0421545635150124	0.0563177735370843	0	0	0.70060910006306	-0.50677723131373
0.545767893452093	0.787614991231995	0	0	0.00266129021410139	-0.109505051688444	0	0
0	0	0.801395321026333	-0.199789881318504	0	0	0.0102726280069421	0.117947980032523
5.7	-0.0264857255683093	0.0254267504046394	0	0	0.801394526788642	-0.537723389800722	0	0
0	0	0.0205778745691637	-0.00742210057609726	0	0	-0.321349690807441	0.808016789231827
0.801394526788642	-0.537723389800722	0	0	-0.0121894300539857	0.0519095475465664	0	0
0	0	-0.534954023599743	-0.652107296165943	0	0	0.058581211144252	0.0352061601964116
5.8	0.0333274500052817	-0.0148763556533455	0	0	0.520823325677409	0.802026650929008	0	0
0	0	-0.021985113773715	-0.0317903900484094	0	0	0.153104305381091	0.856830122512054
0.520823325677409	0.802026650929008	0	0	0.0597041360987512	-0.0268218726784118	0	0
0	0	0.327632808187345	-0.772292041448195	0	0	0.0337405034438269	0.0562075188314144
5.9	-0.0364541116748875	0.00180317385427433	0	0	0.816297944044095	-0.49827675754365	0	0
0	0	-0.0560266981330039	-0.0270821479664052	0	0	-0.585930312704472	-0.641989829398901
0.816297944044095	-0.49827675754365	0	0	-0.0736998660644994	0.0437311026122114	0	0
0	0	-0.830577508683657	0.0576589282892502	0	0	0.0371862590868711	0.0733287304571301
6	0.0351221340230505	0.0110955323224598	0	0	0.483117266135772	0.830081376553644	0	0
0	0	-0.033864898726413	0.0057633707739818	0	0	-0.851642432120749	-0.197540787210267
0.483117266135772	0.830081376553644	0	0	-0.00252237341583934	0.0242565398235684	0	0
