# GHZ S RI R 50
0.2	-0.00704079150402227	0.0088573852220856	0	0	0.958018817381446	0.0578162056519567	0	0
0	0	0.0211865235551352	0.00321168756716982	0	0	-0.370291379295048	0.911216002758042
0.958018817381446	0.0578162056519567	0	0	0.0222253843279573	0.044549346705459	0	0
0	0	0.569517778512034	-0.754161959401871	0	0	0.0026736899730693	-0.0292104212574763
0.3	0.00739063197399204	-0.00953286138242411	0	0	0.0331689817536179	-0.965245017459546	0	0
0	0	-0.00489073227406287	0.00112224352277874	0	0	-0.134571862125633	-0.974278869037859
0.0331689817536179	-0.965245017459546	0	0	-0.0127083713504338	0.00547355719058861	0	0
0	0	-0.922217885686604	-0.201887943419218	0	0	-0.0312368709117564	-0.0163829457919753
0.4	-0.00871680641249342	0.00781882573709558	0	0	0.948580914664098	0.0615233711973385	0	0
0	0	-0.0394017949709512	0.000892785649806499	0	0	-0.667515763514593	-0.725457753320198
0.948580914664098	0.0615233711973385	0	0	-0.0332124298919982	-0.013863218772796	0	0
0	0	-0.235640820296251	-0.895712080000054	0	0	0.0226215145047362	0.0198152026843575
0.5	0.0106003712215826	-0.00424188572299081	0	0	0.127090547256555	-0.948847279109986	0	0
0	0	-0.0332286666390233	0.00528753884382999	0	0	0.96401527749832	0.206512767011415
0.127090547256555	-0.948847279109986	0	0	0.0372068619397478	0.0162877567614602	0	0
0	0	-0.678174405550024	0.63700687209434	0	0	0.00561172714046124	0.00733258570849513
0.6	-0.0112819175163208	0.00081287325391896	0	0	0.954806145124658	0.130516701155298	0	0
0	0	-0.00882369097069159	0.00680560189190214	0	0	0.91215752927215	-0.330010398878457
0.954806145124658	0.130516701155298	0	0	0.00504081630235419	-0.0199261445061792	0	0
0	0	-0.861891681265029	-0.344128832109946	0	0	-0.00521100755649085	-0.00741924516685054
0.7	0.0113995190253199	0.00222848954815967	0	0	0.108187633345287	-0.95726732711713	0	0
0	0	0.022002836129719	-0.0101704013070227	0	0	-0.610351665903983	0.748400604834308
0.108187633345287	-0.95726732711713	0	0	0.00813713753744893	0.00978480447454108	0	0
0	0	0.0464819605222755	0.919867744368417	0	0	0.00235228935087451	-0.0129506422874846
0.8	-0.0106731738605601	-0.00532424135075712	0	0	0.954556539680745	0.112890121398622	0	0
0	0	0.0435801857572767	-0.0410436847069491	0	0	-0.119759410472953	0.960405778263597
0.954556539680745	0.112890121398622	0	0	-0.0223033640783369	0.012832862456739	0	0
0	0	-0.810810022438908	0.448923169207783	0	0	0.00700312570314926	0.0833712537885321
0.9	0.00812681377151222	0.00774832049497616	0	0	0.144390489386238	-0.939244815367177	0	0
0	0	0.0127570454519274	-0.0271079787532694	0	0	-0.43469326498798	-0.865251387623948
0.144390489386238	-0.939244815367177	0	0	-0.00174903383724179	-0.061752007444696	0	0
0	0	0.763887140398787	0.524342059789343	0	0	0.0367425865796947	0.0137486974591794
1	-0.00467271259229647	-0.00904198296944184	0	0	0.942055798795212	0.18107719797548	0	0
0	0	-0.0146569291711419	0.0121253623407309	0	0	-0.838051391702231	-0.480693767356168
0.942055798795212	0.18107719797548	0	0	0.00316726573863194	0.0417381155760087	0	0
0	0	-0.125816762087238	0.902098685867804	0	0	0.00383598920861958	0.00183927990458544
1.1	0.000913861254454975	0.0088079409910713	0	0	0.201127349573262	-0.948953010818582	0	0
0	0	-0.0116733203637732	0.0349108640070077	0	0	0.955833024219057	-0.0513766912559188
0.201127349573262	-0.948953010818582	0	0	0.00374300438426429	0.00137162703633618	0	0
0	0	0.868409806456031	-0.260480686610809	0	0	0.00923793885109078	0.0424613269434667
1.2	0.00214709810068463	-0.00735409910362901	0	0	0.958666038995998	0.202370744716468	0	0
0	0	0.00887768620482581	0.0640580050757069	0	0	0.770574253293078	-0.554651847720074
0.958666038995998	0.202370744716468	0	0	0.0535148904511034	-0.00111221869349238	0	0
0	0	0.613803166997253	0.670990788596496	0	0	0.00724667433331608	0.0989376393307941
1.3	-0.00409193708014816	0.00443179849696643	0	0	0.205228333215729	-0.942471637372248	0	0
0	0	0.016559161047408	0.018277551232712	0	0	-0.354742636761403	0.88282362203594
0.205228333215729	-0.942471637372248	0	0	-0.0544405294391278	-4.99941299975937E-05	0	0
0	0	0.321809577796232	-0.85886743552627	0	0	0.0401212738114292	0.0137674265516019
1.4	0.00469201137391994	-0.000825779324167343	0	0	0.924387969289948	0.233535776202681	0	0
0	0	-0.0126403752625537	-0.0443666812582753	0	0	0.17949014754085	0.936926864235596
0.924387969289948	0.233535776202681	0	0	0.0167296941976222	0.00756344345495416	0	0
0	0	0.898379894569315	-0.0839768613277828	0	0	0.0442038257601667	-0.00710726425970809
1.5	-0.00369744475784258	-0.00205077799285051	0	0	0.271034674747508	-0.922459329009671	0	0
0	0	-0.0373904925883414	-0.0568306909974944	0	0	-0.674406670387337	-0.675234011154542
0.271034674747508	-0.922459329009671	0	0	0.0324875100579271	-0.0332084484282015	0	0
0	0	-0.461226089339184	-0.767235346534542	0	0	0.0327536066351165	0.0515475045497966
1.6	0.00133847037870957	0.00358647336960139	0	0	0.937432010126971	0.295090101862839	0	0
0	0	-0.0353408633645279	-0.0199281641252661	0	0	-0.936631322432975	-0.183874434634741
0.937432010126971	0.295090101862839	0	0	-0.0521332810325038	-0.0271700705064568	0	0
0	0	0.4974697460646	-0.753691091160982	0	0	0.000334514179744044	0.0520677537585274
1.7	0.00181118374530802	-0.00372707805192927	0	0	0.289934054494994	-0.943067826850468	0	0
0	0	0.0164334970791083	0.00616472593123942	0	0	0.88468258228499	-0.343169631086904
0.289934054494994	-0.943067826850468	0	0	-0.00173068820155465	0.00521793996516586	0	0
0	0	-0.900115412488268	-0.111464572210711	0	0	0.0393174581846843	-0.0306360849672448
1.8	-0.0046356700300297	0.00235218867904729	0	0	0.917366736498688	0.291046228558598	0	0
0	0	0.0461332904165592	0.0380337683718506	0	0	0.573613712254276	-0.745378800738527
0.917366736498688	0.291046228558598	0	0	0.00589417524080556	0.0653261142091459	0	0
0	0	-0.309649344618332	-0.849211008893031	0	0	0.026991320232967	-0.033928801321799
1.9	0.00644245498361238	0.000519241789043299	0	0	0.320333991789391	-0.893965741166338	0	0
0	0	0.0531951008265145	-0.00362374248035677	0	0	-0.0838635151902636	0.941271873365483
0.320333991789391	-0.893965741166338	0	0	0.00928305054013861	0.00915647735546725	0	0
0	0	-0.615294268762412	0.645170473264213	0	0	0.0404508406960796	0.0237473802789404
2	-0.00667082237155286	-0.00450691686885948	0	0	0.89092629320577	0.350773912434932	0	0
0	0	0.0152373595090851	-0.00473441048188027	0	0	0.456700028074076	0.833306276686372
0.89092629320577	0.350773912434932	0	0	-0.0500651222119272	-0.0331746778229474	0	0
0	0	-0.844094134844801	-0.264511591553943	0	0	-0.0532323140568748	-0.0211832798774451
2.1	0.00523888536844768	0.00882003766912959	0	0	0.365530221557075	-0.8978380893412	0	0
0	0	-0.0293133117135812	0.00817372653069781	0	0	-0.829744922823313	-0.452810919468338
0.365530221557075	-0.8978380893412	0	0	0.0703612245175294	0.0166347367350176	0	0
0	0	0.134583628360846	0.879405201597379	0	0	-0.00526935953665454	0.00972223331376863
2.2	-0.0018831140294133	-0.0125730240553758	0	0	0.898412478987089	0.377425568267265	0	0
0	0	-0.0485095514206488	0.0175074230381957	0	0	-0.932306145244064	0.0677822894005058
0.898412478987089	0.377425568267265	0	0	0.0144326472947674	-0.0107814614719829	0	0
0	0	-0.737621091233677	0.505450990203455	0	0	0.0423276504494916	-0.0111947091419039
2.3	-0.00309657300098677	0.0144574776104017	0	0	0.387063645413148	-0.88940271011822	0	0
0	0	-0.0308962744586035	0.0195260778095611	0	0	0.737292152761206	-0.554929989635246
0.387063645413148	-0.88940271011822	0	0	0.0577915134318686	-0.0286167738105809	0	0
0	0	0.775845635890955	0.433007262962333	0	0	0.0662700715131501	0.0467233169140138
2.4	0.00921051428254088	-0.013941916574244	0	0	0.878008689393317	0.398772613150946	0	0
0	0	-0.000898671171650696	0.00112136874883807	0	0	0.32498822890846	-0.867836872161345
0.878008689393317	0.398772613150946	0	0	-0.0972835179690909	0.0140758102828537	0	0
0	0	-0.0398616630180687	0.882687455098908	0	0	0.0467161184957638	-0.0489678571926355
2.5	-0.0158471286655835	0.010872860933849	0	0	0.415467297504904	-0.86643821094155	0	0
0	0	0.0191422808823274	-0.0360744116877873	0	0	0.189068192069153	0.917730395301928
0.415467297504904	-0.86643821094155	0	0	-0.010373441217421	-0.0266595881535262	0	0
0	0	0.805185234637489	-0.331855374649269	0	0	0.0121038299282305	-0.000399792460310783
2.6	0.0216375636566283	-0.00584122797210034	0	0	0.859369873274377	0.429313950783992	0	0
0	0	0.0181945789626319	-0.0388924348425735	0	0	0.666958866559466	0.653501973217332
0.859369873274377	0.429313950783992	0	0	0.0054620682403935	-0.0330099450819806	0	0
0	0	0.630375820890208	0.597181758732523	0	0	0.0621548870411014	0.0106041275341676
2.7	-0.025447187287254	-0.000822886461246023	0	0	0.443711575127032	-0.853314387152775	0	0
0	0	0.0215912526762905	-0.00966502193269031	0	0	-0.89705432004759	-0.174084518730067
0.443711575127032	-0.853314387152775	0	0	0.00328168901253725	-0.0125118907997943	0	0
0	0	0.275707777286866	-0.835060770202219	0	0	-0.0275939655425989	-0.000384442515855447
2.8	0.0261166160280313	0.00844755968016087	0	0	0.842718044873602	0.457115125380804	0	0
0	0	0.00997812296971265	0.0125498331341466	0	0	-0.841557391759915	0.312235354169445
0.842718044873602	0.457115125380804	0	0	0.00422355299917638	0.0641239054525174	0	0
0	0	0.870845626035244	-0.149969380826492	0	0	0.0259521458691923	-0.0631486352844133
2.9	-0.0231725643575195	-0.0161820093145154	0	0	0.473297800052714	-0.823373703844876	0	0
0	0	-6.05205346642216E-05	0.0366289796805798	0	0	0.566895238672877	-0.699791602205165
0.473297800052714	-0.823373703844876	0	0	-0.0532926333571946	0.0343071279521008	0	0
0	0	-0.514424841316617	-0.702030417647441	0	0	-0.0400976192778712	-0.0455333230722778
3	0.0175199319543561	0.0230014987019359	0	0	0.814248074353463	0.497683728188027	0	0
0	0	-0.0110628070029778	0.0296710452481972	0	0	0.0919614028972796	-0.918935797696346
0.814248074353463	0.497683728188027	0	0	-0.00666785767976249	-0.0174379945780614	0	0
0	0	0.406385434951249	-0.759458996365241	0	0	0.0135490054342163	0.0860995561096481
3.1	-0.00922610620529135	-0.0270307052161131	0	0	0.518733724872823	-0.803856705822019	0	0
0	0	-0.0204373945568509	0.0127905699746153	0	0	0.446752366397458	0.805824980197463
0.518733724872823	-0.803856705822019	0	0	0.0388640857052695	-0.0640896214186159	0	0
0	0	-0.867921253725085	-0.050878256998201	0	0	-0.0750493740896414	0.00645666834275739
3.2	-0.000324851152141751	0.0284719339888585	0	0	0.802181640898421	0.543018911965626	0	0
0	0	-0.0181986610545166	-0.00535031063726711	0	0	0.796177650390669	0.437694464644143
0.802181640898421	0.543018911965626	0	0	0.000736988243208806	0.0252593037290701	0	0
0	0	-0.33568840141404	-0.813255752602072	0	0	-0.0588981711903567	0.00691504498989717
3.3	0.00973351816770619	-0.0261555436907344	0	0	0.554811748854651	-0.797918402911726	0	0
0	0	-0.00180343643733023	-0.0232403987399221	0	0	-0.903654400914544	0.0482881596988667
0.554811748854651	-0.797918402911726	0	0	0.0618286825581993	0.0245219216767392	0	0
0	0	-0.575303988503747	0.673271456894053	0	0	-0.0267342195796524	-0.106591387994293
3.4	-0.0175201575889796	0.0203401603570567	0	0	0.781300371646213	0.560292819195827	0	0
0	0	-0.00502308100799834	-0.0401302239726021	0	0	-0.733229015294798	0.540528988080894
0.781300371646213	0.560292819195827	0	0	-0.114850281984056	0.00820218801120919	0	0
0	0	-0.855091200626006	-0.224121887425997	0	0	-0.0192770646914386	-0.0397387914823009
3.5	0.0227967839801548	-0.0126438951313744	0	0	0.57526780356968	-0.772107299832826	0	0
0	0	0.00726794879013242	-0.0302840207466596	0	0	0.299245474467401	-0.867279959815358
0.57526780356968	-0.772107299832826	0	0	-0.011907710424706	-0.0536005047655991	0	0
0	0	0.165215033315596	0.842766692016887	0	0	0.0851318983996634	-0.0719418695709783
3.6	-0.0246797786084017	0.00381027454764639	0	0	0.765371062126271	0.585534819739565	0	0
0	0	0.0189719514969552	0.00205610008191552	0	0	-0.207210660613648	-0.89433681091226
0.765371062126271	0.585534819739565	0	0	-0.034687806891276	0.0603120654307754	0	0
0	0	-0.693705061360904	0.518264343074225	0	0	0.0447888116965822	-0.0312735308259451
3.7	0.0227531136559643	0.00566256009243645	0	0	0.604668035918636	-0.745342862363179	0	0
0	0	0.0134901417855038	0.0355861941398301	0	0	0.637522738878792	0.650317855659463
0.604668035918636	-0.745342862363179	0	0	0.118346703948547	0.00805155463097026	0	0
0	0	0.769354666801652	0.411343769651626	0	0	0.0554865271760653	-0.0187146358627275
3.8	-0.0179309537668682	-0.0134094487617291	0	0	0.739482300624597	0.623750668948761	0	0
0	0	0.0149730293481236	0.0497904060386472	0	0	0.870749060430142	0.188676187424353
0.739482300624597	0.623750668948761	0	0	-0.0254665058440656	0.0207759850531427	0	0
0	0	-0.0180427175289907	0.871417693026487	0	0	-0.0582163878372028	-0.0255186327368414
3.9	0.010894204956578	0.0179682987974642	0	0	0.628579030966275	-0.739136354447595	0	0
0	0	0.0110271224395307	0.0150494382562602	0	0	-0.825227487021543	0.325866888132225
0.628579030966275	-0.739136354447595	0	0	-0.0137745658907595	0.0834282417609641	0	0
0	0	0.784125421388395	-0.38386846093078	0	0	0.0249354323459133	-0.00553494927055288
4	-0.00204572254659467	-0.0192029144853888	0	0	0.721654365027448	0.636946743952801	0	0
0	0	-0.0166485001320253	-0.0125674735559039	0	0	-0.517812630084286	0.724329983972722
0.721654365027448	0.636946743952801	0	0	0.0515294682960168	-0.0743147126855335	0	0
0	0	0.683731438088697	0.517683399388402	0	0	-0.00470077766700733	0.00958725044723251
4.1	-0.00618922389827588	0.0171602865751315	0	0	0.642468616615551	-0.709110069066447	0	0
0	0	-0.0413471421045705	-0.035333861747901	0	0	0.0562550292914902	-0.892708631216233
0.642468616615551	-0.709110069066447	0	0	0.0255614903234168	-0.112257906468602	0	0
0	0	0.185171502578298	-0.828894804481532	0	0	0.0262368683621381	0.082166585723109
4.2	0.012705038824295	-0.0125156736155567	0	0	0.704649858591254	0.653706741145305	0	0
0	0	-0.0486961711555224	-0.0150729877355483	0	0	-0.433178915512462	-0.782035430126285
0.704649858591254	0.653706741145305	0	0	-0.0403014829320387	0.0162931778334275	0	0
0	0	0.832645079324005	-0.184097350567338	0	0	-0.0116705693753215	-0.0415616880997245
4.3	-0.0163514938223373	0.00552821337036937	0	0	0.662188851245732	-0.698346161195002	0	0
0	0	-0.00728948706353707	0.00717419429959805	0	0	0.779017816055873	0.424779231043127
0.662188851245732	-0.698346161195002	0	0	-0.0112151045620023	0.0675563324993376	0	0
0	0	-0.534788883287358	-0.674564484756811	0	0	-0.0144884446947704	0.0023311697311341
4.4	0.0164683338289311	0.00286898314327572	0	0	0.68157425275433	0.67144489085734	0	0
0	0	0.0379773981289925	0.0046877463755646	0	0	0.889172261964044	-0.0536942737783459
0.68157425275433	0.67144489085734	0	0	0.00129291513419765	-0.0502985681236451	0	0
0	0	0.346361923708037	-0.773062304656955	0	0	-0.0338102140530216	0.0033212055610119
4.5	-0.0131178411093918	-0.0104849842304328	0	0	0.677722924615955	-0.663508236714854	0	0
0	0	0.0643747640052741	-0.00440082035829821	0	0	-0.722914792640651	0.523831838980726
0.677722924615955	-0.663508236714854	0	0	-0.0500270791737108	0.0267494720519432	0	0
0	0	-0.836059265885104	0.011489255397618	0	0	-0.0864129883151103	0.0623557259364095
4.6	0.00691583280037368	0.0161310697991549	0	0	0.645542796221226	0.692166731006617	0	0
0	0	0.0462207521801833	-0.025106312241482	0	0	-0.313097757544664	0.845140269321165
0.645542796221226	0.692166731006617	0	0	-0.00380868015940542	0.0140926597107441	0	0
0	0	-0.372255799285108	-0.74522139895068	0	0	-0.0804777065697737	-0.00928780936610617
4.7	0.000985913181539384	-0.0186168572551752	0	0	0.709222584215605	-0.638612942765095	0	0
0	0	-0.0249620348557563	-0.00576601369878462	0	0	-0.19154757426879	-0.874410753326612
0.709222584215605	-0.638612942765095	0	0	0.0659416135652252	-0.0175804691484544	0	0
0	0	-0.524390678140253	0.656331529978926	0	0	-0.0732590715324914	0.0728586851315599
4.8	-0.00954418083525574	0.0175939306564475	0	0	0.638544175397225	0.72504677901246	0	0
0	0	-0.0589047790490338	0.0337132210309117	0	0	-0.607666866857878	-0.634815844422711
0.638544175397225	0.72504677901246	0	0	0.0533758186519962	-0.0183684432505407	0	0
0	0	-0.828099348820872	-0.196815625657137	0	0	-0.00900463150074915	0.0723443656103375
4.9	0.0171065975423278	-0.0124331963195027	0	0	0.730995417995915	-0.630140585693175	0	0
0	0	-0.0398250208003163	0.0579847720749894	0	0	0.8546614917588	0.206657745564914
0.730995417995915	-0.630140585693175	0	0	-0.0805392282053886	-0.0289216218729996	0	0
0	0	0.199523647155147	0.821374335365254	0	0	-0.0834259969246504	0.00433492100724229
5	-0.0217269143001832	0.00432895932008311	0	0	0.618752757715786	0.726431596928492	0	0
0	0	-0.000181693870477024	0.0197340087432304	0	0	0.830810368797806	-0.298521386372427
0.618752757715786	0.726431596928492	0	0	-0.0472918124062984	0.04068807723801	0	0
0	0	-0.644913595834663	0.533988745284516	0	0	0.0416581463857758	-0.00876055108115615
5.1	0.0231391302504346	0.00568393288421302	0	0	0.727862181405287	-0.605674527719737	0	0
0	0	0.0387774189892975	-0.0340087739295449	0	0	-0.533124068333382	0.695174594735422
0.727862181405287	-0.605674527719737	0	0	-0.0213383599099178	-0.041534024044062	0	0
0	0	0.749571116677322	0.344768593303208	0	0	0.0727246931536745	-0.019362779658322
5.2	-0.0207763504820753	-0.0169081306421014	0	0	0.583044890562772	0.745826936073074	0	0
0	0	0.0164928080895854	-0.0746990964689588	0	0	-0.0791904519867541	0.871206989253425
0.583044890562772	0.745826936073074	0	0	0.0384161105303102	0.0223081535776844	0	0
0	0	0.0147037853627532	0.831900235743327	0	0	0.0269068570195432	0.0665892517964063
5.3	0.0146584776488661	0.0265599999165974	0	0	0.76488878635449	-0.570695604849974	0	0
0	0	-0.0138076788661595	-0.0415088295559499	0	0	-0.410985720616376	-0.771210808811947
0.76488878635449	-0.570695604849974	0	0	-0.0320195427184569	0.0244074193646938	0	0
0	0	0.743168150432479	-0.373085281031895	0	0	-0.0430952146376186	0.0118836649658379
5.4	-0.00566908726296573	-0.0324485147683149	0	0	0.562300928524954	0.770460814043552	0	0
0	0	-0.0310696738684242	0.0146924848472655	0	0	-0.76623693093341	-0.429816636013969
0.562300928524954	0.770460814043552	0	0	0.0701438902839201	0.0878096557645061	0	0
0	0	0.656215478682326	0.511183858987595	0	0	-0.00929219889986526	0.0217912521220208
5.5	-0.00526549855861611	0.0347117250312251	0	0	0.782099363192974	-0.559430246227826	0	0
0	0	0.0232687093202434	0.0603625313730159	0	0	0.877759531646882	-0.0421193984592951
0.782099363192974	-0.559430246227826	0	0	-0.00637052022246502	-0.0278665631201059	0	0
0	0	0.159943862694055	-0.816607328612898	0	0	0.0215695636145106	0.0386297902448388
5.6	0.0170204962181818	-0.0321337757590825	0	0	0.545379276050446	0.788460321323979	0	0
0	0	0.0421792718265492	0.0571074733375609	0	0	0.700406915739114	-0.506825389064386
0.545379276050446	0.788460321323979	0	0	0.00276529620562618	-0.109850463845478	0	0
0	0	0.801233254971392	-0.199904539289922	0	0	0.0104794464981892	0.117910042600845
5.7	-0.027874232416863	0.0257155913735425	0	0	0.802392842383248	-0.537516447154397	0	0
0	0	0.0202769739418777	-0.00650388338432693	0	0	-0.321150023628547	0.807861874320193
0.802392842383248	-0.537516447154397	0	0	-0.0122834689739848	0.0516316785377687	0	0
0	0	-0.534916277147966	-0.651865093179686	0	0	0.0587987920853338	0.0352405994470673
5.8	0.0345821873114551	-0.0153430228817247	0	0	0.520561350546871	0.802882995151718	0	0
0	0	-0.0224539685646231	-0.0309976680992409	0	0	0.153191797893029	0.856489540091655
0.520561350546871	0.802882995151718	0	0	0.0597503957589164	-0.0273254880960205	0	0
0	0	0.327382823450858	-0.77206318639216	0	0	0.0341385041720348	0.0562346621681784
5.9	-0.0374421327115396	0.00223508879909986	0	0	0.817280262019827	-0.498060352208469	0	0
0	0	-0.056493631009734	-0.0266072733454447	0	0	-0.585751433290587	-0.641659987885983
0.817280262019827	-0.498060352208469	0	0	-0.0742076983379136	0.0429509698215214	0	0
0	0	-0.830223482740276	0.0577209900926835	0	0	0.0377609813518396	0.0732065583107634
6	0.0359041945309232	0.0109211218129119	0	0	0.482809621625331	0.830931193352632	0	0
0	0	-0.0341714652595727	0.00583818825776085	0	0	-0.851338436104923	-0.197345227291164
