# GHZ S RI R 50
0.2	-0.00680621627301999	0.0123725848431902	0	0	0.957685816765185	0.058442683629816	0	0
0	0	0.0185467475840188	0.00549268614933079	0	0	-0.370684457082315	0.910933065344037
0.957685816765185	0.058442683629816	0	0	0.0212450093768575	0.0397724298553434	0	0
0	0	0.56981258175463	-0.753801910497481	0	0	0.00170619195662003	-0.0340602110079764
0.3	0.00668414190958487	-0.010795557615028	0	0	0.0341337815769582	-0.965059277055481	0	0
0	0	-0.00612223318201665	0.00175919492236879	0	0	-0.133636729775953	-0.974167817448465
0.0341337815769582	-0.965059277055481	0	0	-0.0146279147498506	0.0028072546532159	0	0
0	0	-0.921807732866972	-0.202693442540657	0	0	-0.033236488151674	-0.0191286942006252
0.4	-0.00892158496725377	0.00788241508716369	0	0	0.948520994641652	0.062986962423484	0	0
0	0	-0.0393661966485876	0.000688337892052867	0	0	-0.666361823828164	-0.726452989519125
0.948520994641652	0.062986962423484	0	0	-0.0350116118105551	-0.0150238832878134	0	0
0	0	-0.234245299282176	-0.896031641139003	0	0	0.0205661393006611	0.0188241078113966
0.5	0.0118714741450575	-0.00409330383677462	0	0	0.129084771881415	-0.948899387439489	0	0
0	0	-0.0322937693894152	0.00457303323992507	0	0	0.963953159749306	0.208591260513328
0.129084771881415	-0.948899387439489	0	0	0.0359368090690447	0.0162929821980765	0	0
0	0	-0.679753696040027	0.635841945661117	0	0	0.00423344843827874	0.00724582255104305
0.6	-0.0132110690283682	0.00134814668987732	0	0	0.955389079020612	0.133108339163545	0	0
0	0	-0.00727703004575247	0.00604304415637331	0	0	0.913930506861789	-0.32807875061688
0.955389079020612	0.133108339163545	0	0	0.0046116866522701	-0.0198575823906162	0	0
0	0	-0.861930751189602	-0.346637058687016	0	0	-0.00579118615453215	-0.00733436107916505
0.7	0.0130847226640847	0.000704485294967329	0	0	0.111107603177056	-0.958574355351412	0	0
0	0	0.0238034627292651	-0.0106571664979435	0	0	-0.613492983173963	0.748107756196393
0.111107603177056	-0.958574355351412	0	0	0.00800345564821939	0.00973601512050314	0	0
0	0	0.0440715144967126	0.92166872143026	0	0	0.00229994202047587	-0.0131256930960975
0.8	-0.011559304840425	-0.00339960797662824	0	0	0.956738644588155	0.115928351119501	0	0
0	0	0.0452619822455805	-0.0412323648601228	0	0	-0.122597669214517	0.962480007945945
0.956738644588155	0.115928351119501	0	0	-0.022557743158135	0.0122846730879505	0	0
0	0	-0.814015896895007	0.447896326959788	0	0	0.00648078439881074	0.0832484261289508
0.9	0.00830754173962602	0.00617830264741393	0	0	0.147423021069779	-0.942365995430279	0	0
0	0	0.0139951935797486	-0.0270695648984345	0	0	-0.434052434079456	-0.869344875117792
0.147423021069779	-0.942365995430279	0	0	-0.0017856819328168	-0.0629226961177803	0	0
0	0	0.765240632817816	0.528068449865407	0	0	0.0364143697747231	0.0131573813940733
1	-0.00462192122028471	-0.00818422289002599	0	0	0.945900848013377	0.183872182019664	0	0
0	0	-0.0140605752805717	0.0123171849640237	0	0	-0.840708139937652	-0.484430302397844
0.945900848013377	0.183872182019664	0	0	0.00223616659014461	0.0415052230956179	0	0
0	0	-0.128151137566704	0.905736470052923	0	0	0.00275044303200549	0.00112940317941855
1.1	0.00125296030336706	0.00862852629441341	0	0	0.203314661876279	-0.95363284497752	0	0
0	0	-0.0117511102791738	0.0351354425335369	0	0	0.960720809168455	-0.0503919410363892
0.203314661876279	-0.95363284497752	0	0	0.00266757100127812	0.00115359488779644	0	0
0	0	0.873128774362126	-0.26066436082222	0	0	0.00764554685704097	0.0427496645474365
1.2	0.00103774858054627	-0.00730159872463021	0	0	0.963906874796283	0.20365561492863	0	0
0	0	0.00826802489835706	0.0641576010304902	0	0	0.775085135434685	-0.557500685721349
0.963906874796283	0.20365561492863	0	0	0.0529602278622241	-0.000854370409941282	0	0
0	0	0.617017670032701	0.674963234616148	0	0	0.00558644897163793	0.100683770718693
1.3	-0.00256904752321066	0.00401109951826801	0	0	0.205435066824552	-0.948062118997657	0	0
0	0	0.0157123287461265	0.018136376369213	0	0	-0.356233824184722	0.888276447310791
0.205435066824552	-0.948062118997657	0	0	-0.0560422722576602	0.00061449362730211	0	0
0	0	0.323122736994864	-0.864156384650857	0	0	0.0391716634180082	0.0150742390906107
1.4	0.00315826552729471	-0.000182862354826673	0	0	0.929898750879396	0.232894620152989	0	0
0	0	-0.0134162000926828	-0.0448048768853009	0	0	0.182231230356099	0.942056692672244
0.929898750879396	0.232894620152989	0	0	0.0161954016793802	0.00821356029200846	0	0
0	0	0.903458209437906	-0.0860920884328103	0	0	0.0435288830705246	-0.00597854300185497
1.5	-0.00213387161352417	-0.0029154439192697	0	0	0.269608387243503	-0.927898045537508	0	0
0	0	-0.0380148434467946	-0.0574811793657612	0	0	-0.680017437660891	-0.67687453953504
0.269608387243503	-0.927898045537508	0	0	0.0320888632861811	-0.0330699814280432	0	0
0	0	-0.465962816642698	-0.769997825274539	0	0	0.0325785019252031	0.0533172455636778
1.6	-0.00011911105906566	0.00490179470533956	0	0	0.94263356179815	0.29261327113454	0	0
0	0	-0.0357627210140533	-0.0207457001140104	0	0	-0.941741262869982	-0.181050422588799
0.94263356179815	0.29261327113454	0	0	-0.0530026415108929	-0.0263242999878727	0	0
0	0	0.496834156174785	-0.759178104343159	0	0	0.000429833654636353	0.0539760787593235
1.7	0.00274058441234264	-0.00533804896367363	0	0	0.286689919208462	-0.947434867048761	0	0
0	0	0.0162427244483666	0.00537935729205695	0	0	0.886472774191968	-0.348542376111746
0.286689919208462	-0.947434867048761	0	0	-0.00164770229589398	0.00579475534033519	0	0
0	0	-0.904054083247431	-0.107751471585425	0	0	0.0394865345820381	-0.0300235853319906
1.8	-0.00504864620038176	0.00374660001059356	0	0	0.920697876707383	0.287410200959725	0	0
0	0	0.0461795941714374	0.0374339583612679	0	0	0.571428687340173	-0.750242028798234
0.920697876707383	0.287410200959725	0	0	0.0066823746437734	0.0658920346839835	0	0
0	0	-0.314720907156964	-0.849941104047874	0	0	0.0272206698750068	-0.0335470312531187
1.9	0.00674784020367055	-0.000463725899551172	0	0	0.31656436995448	-0.896532638096068	0	0
0	0	0.0534326407059602	-0.00396756484606134	0	0	-0.0793315793135417	0.943102593220729
0.31656436995448	-0.896532638096068	0	0	0.0095417896403486	0.00926014156573466	0	0
0	0	-0.613026938840116	0.649185736447157	0	0	0.0412570757934357	0.0238895608618759
2	-0.00715834792003811	-0.00378595499253923	0	0	0.892683416523364	0.346957893003444	0	0
0	0	0.0155840712432165	-0.00481612278624308	0	0	0.46076500620689	0.831635391483185
0.892683416523364	0.346957893003444	0	0	-0.0502843551980952	-0.0326672486513875	0	0
0	0	-0.845743798833037	-0.260767720673437	0	0	-0.0531624785215173	-0.0204488605684308
2.1	0.00596248590981571	0.00805959664036735	0	0	0.362064153596729	-0.898602821176056	0	0
0	0	-0.0289447460236287	0.00831415735389749	0	0	-0.831300617876759	-0.449447940713365
0.362064153596729	-0.898602821176056	0	0	0.0704482263568646	0.0161833567621866	0	0
0	0	0.137988353699274	0.878650496908729	0	0	-0.00499636329309964	0.010009493011736
2.2	-0.00262279604703447	-0.0115814881755409	0	0	0.898453014035769	0.374506684520037	0	0
0	0	-0.0482089675011376	0.0177828616443236	0	0	-0.931427122335767	0.0705855647826691
0.898453014035769	0.374506684520037	0	0	0.0144061381018843	-0.0107345292669301	0	0
0	0	-0.735543411075716	0.507343374979966	0	0	0.0424075665496809	-0.0110971532076682
2.3	-0.00263312270727489	0.0133648769358391	0	0	0.385052557119834	-0.888974946017884	0	0
0	0	-0.0307258321466316	0.0198276237901623	0	0	0.735440038269462	-0.556001188757952
0.385052557119834	-0.888974946017884	0	0	0.0576590654687551	-0.0286530009575441	0	0
0	0	0.776067307817811	0.430959157906457	0	0	0.0667382097505747	0.0467481487746185
2.4	0.00904004153240398	-0.0130532002592876	0	0	0.877364114571746	0.397556301981762	0	0
0	0	-0.000884230381719691	0.00136972471598842	0	0	0.323679919946593	-0.867625212814016
0.877364114571746	0.397556301981762	0	0	-0.0968882231438922	0.0142265285109117	0	0
0	0	-0.0387370675113711	0.882111127911221	0	0	0.047166003418667	-0.048690491919282
2.5	-0.0157265729966744	0.010403579656577	0	0	0.415249390360526	-0.866041029533492	0	0
0	0	0.0190105062649875	-0.0359423066021916	0	0	0.189410827064009	0.917453990783778
0.415249390360526	-0.866041029533492	0	0	-0.0102260526253755	-0.0266886392808707	0	0
0	0	0.804873404339345	-0.332120284149112	0	0	0.0129157865804644	-0.000296124160415428
2.6	0.0212762315225101	-0.00568438845641589	0	0	0.859455241597282	0.429914788703432	0	0
0	0	0.0179844757178031	-0.0388964981488607	0	0	0.667248074377778	0.654034018777975
0.859455241597282	0.429914788703432	0	0	0.00558622545987461	-0.0331418154284226	0	0
0	0	0.630653060353077	0.597671926514741	0	0	0.0630878139419127	0.0105118594335548
2.7	-0.0247961466247451	-0.000914864320819599	0	0	0.444937774566946	-0.854140150759335	0	0
0	0	0.0213885774147499	-0.00978410999020771	0	0	-0.898486044681426	-0.174738340499841
0.444937774566946	-0.854140150759335	0	0	0.00334439475650736	-0.0126849254572879	0	0
0	0	0.276506718375612	-0.836347644996952	0	0	-0.0268848274349039	-0.000718708399329679
2.8	0.0253156077225653	0.00855755080263318	0	0	0.844482667437788	0.458663716175287	0	0
0	0	0.00984981927284707	0.0123571395360819	0	0	-0.843996562875151	0.312891853704374
0.844482667437788	0.458663716175287	0	0	0.00417811432727302	0.0642944904376211	0	0
0	0	0.873324751499044	-0.150163592301232	0	0	0.0268415470904851	-0.0639069158923948
2.9	-0.022259373685787	-0.0162169571242138	0	0	0.474861842438897	-0.826304409318698	0	0
0	0	-7.8997672383149E-05	0.0363906521988242	0	0	0.568866783693436	-0.702637934011192
0.474861842438897	-0.826304409318698	0	0	-0.0536872413002303	0.0344494612428654	0	0
0	0	-0.516599487960577	-0.704573498193699	0	0	-0.0398619470773206	-0.0463410991440621
3	0.0163534273412411	0.0229925490848319	0	0	0.818312924906076	0.49899965090269	0	0
0	0	-0.0109979320425559	0.0294172812654895	0	0	0.0913433351914172	-0.923348638383511
0.818312924906076	0.49899965090269	0	0	-0.00680345123167187	-0.0176325991790945	0	0
0	0	0.407423422767028	-0.763483216657681	0	0	0.0142820499963881	0.0863766621572947
3.1	-0.00775614060931556	-0.0271727368932577	0	0	0.519475620307678	-0.808940426520685	0	0
0	0	-0.0203010989045429	0.0125605691207081	0	0	0.451078416422725	0.809052401583609
0.519475620307678	-0.808940426520685	0	0	0.0388624348860529	-0.0648850734407463	0	0
0	0	-0.87267852707914	-0.0490600680714081	0	0	-0.0756292026282568	0.00646663502851795
3.2	-0.00194286888494622	0.0289253249302799	0	0	0.808121476892773	0.542637856791847	0	0
0	0	-0.0180204618047145	-0.00552468866303033	0	0	0.802303763248127	0.437055125831512
0.808121476892773	0.542637856791847	0	0	0.000880961801836095	0.0255192090299588	0	0
0	0	-0.340701246213347	-0.816487925064744	0	0	-0.0594795926836666	0.00715526256859944
3.3	0.0112312515408113	-0.0268675910445574	0	0	0.553242143097292	-0.804401854609757	0	0
0	0	-0.00162664266035534	-0.0233319183934541	0	0	-0.908207867884768	0.0534583267219871
0.553242143097292	-0.804401854609757	0	0	0.0626339438986682	0.0241130027403568	0	0
0	0	-0.57470973389122	0.679987334673969	0	0	-0.0282352401717345	-0.107560856372637
3.4	-0.0188093043221688	0.021071647190434	0	0	0.788110353122489	0.557054081314755	0	0
0	0	-0.00486483565544062	-0.0401282656418396	0	0	-0.732862838701498	0.548042999742975
0.788110353122489	0.557054081314755	0	0	-0.115590352711519	0.00980676652624184	0	0
0	0	-0.860541406838046	-0.219264961527054	0	0	-0.0200330133276237	-0.0398315363836545
3.5	0.0240542665861171	-0.0132819365607141	0	0	0.570687914663417	-0.778799635156407	0	0
0	0	0.00741086261338058	-0.0302202854790189	0	0	0.293247990858229	-0.872673299294607
0.570687914663417	-0.778799635156407	0	0	-0.0127795357675788	-0.0537313961047214	0	0
0	0	0.172604763919847	0.844315337251052	0	0	0.084593184302088	-0.0737585937605787
3.6	-0.0260213518483073	0.00449554754678928	0	0	0.771312156848145	0.579346402395101	0	0
0	0	0.0190925534501261	0.00219350772798221	0	0	-0.215650662414168	-0.894192289167148
0.771312156848145	0.579346402395101	0	0	-0.0336508655242362	0.060996244617346	0	0
0	0	-0.690378008532057	0.525498052159211	0	0	0.0444932689291209	-0.0321702977663456
3.7	0.0240907919942064	0.00484512916655384	0	0	0.597589055808465	-0.750347428570598	0	0
0	0	0.0135896478817487	0.0357434449465808	0	0	0.64381277126979	0.64438032623184
0.597589055808465	-0.750347428570598	0	0	0.11835817882497	0.00586524906602418	0	0
0	0	0.773398950526587	0.404111446821334	0	0	0.0552474379883264	-0.0197944508589985
3.8	-0.0190714632006911	-0.0124606547903123	0	0	0.743339911802166	0.615459208561864	0	0
0	0	0.0150452697221805	0.0499134506766776	0	0	0.87102283718533	0.180079391883573
0.743339911802166	0.615459208561864	0	0	-0.0249666408715969	0.0211568799279177	0	0
0	0	-0.00973699201235934	0.870070107119473	0	0	-0.0584410407747771	-0.0243835176824536
3.9	0.0117411234399062	0.0171148523768509	0	0	0.61964858805844	-0.741398656423545	0	0
0	0	0.0110509970987161	0.0151050224311272	0	0	-0.819337286694862	0.332067456071537
0.61964858805844	-0.741398656423545	0	0	-0.0122714686082208	0.0830240229408039	0	0
0	0	0.777865070623691	-0.389492366955719	0	0	0.0246287856394418	-0.00602313050279623
4	-0.00280693329679805	-0.0186533368674342	0	0	0.722560378143123	0.627935395052278	0	0
0	0	-0.0166854688189954	-0.0125919106888573	0	0	-0.50943709320943	0.724593993589319
0.722560378143123	0.627935395052278	0	0	0.0497904412273575	-0.074200448305328	0	0
0	0	0.684206739714764	0.509626213036528	0	0	-0.00460703526435031	0.00947073414004566
4.1	-0.00531090281715495	0.0168032558196936	0	0	0.633659663356524	-0.7084629585735	0	0
0	0	-0.0414235187828701	-0.0354259150812033	0	0	0.050252510458094	-0.887342056097962
0.633659663356524	-0.7084629585735	0	0	0.0237856403533111	-0.110993842061999	0	0
0	0	0.178745955934855	-0.824752019269533	0	0	0.0267820745868824	0.0807175474312292
4.2	0.0117132732994337	-0.0121529832901721	0	0	0.702398943415578	0.645339859997075	0	0
0	0	-0.0487688143466565	-0.0151962646780372	0	0	-0.433758318814133	-0.774463260843188
0.702398943415578	0.645339859997075	0	0	-0.039501479642183	0.0164877886013594	0	0
0	0	0.825877294236474	-0.186680459633459	0	0	-0.0120277048942167	-0.0408764948481611
4.3	-0.0154323289490149	0.00514172465276512	0	0	0.654862757437416	-0.694753111179314	0	0
0	0	-0.00732804817639817	0.00707226566544462	0	0	0.774576222306311	0.419379385512507
0.654862757437416	-0.694753111179314	0	0	-0.0105660974802466	0.066525955748845	0	0
0	0	-0.532868191484062	-0.668058794297445	0	0	-0.014300574161618	0.00240543422213289
4.4	0.0156787126921013	0.00308409141171217	0	0	0.677311191565447	0.665543088721275	0	0
0	0	0.0380273100126507	0.00463078465737459	0	0	0.882803271500092	-0.0544531035730793
0.677311191565447	0.665543088721275	0	0	0.00119641549211512	-0.049619802942182	0	0
0	0	0.342917281690165	-0.768028590337113	0	0	-0.0332109607803298	0.00338897633813337
4.5	-0.0123101507886992	-0.0104046318838934	0	0	0.67323317533249	-0.658941094940911	0	0
0	0	0.0645309640473913	-0.00439246373632624	0	0	-0.718393459902194	0.520301520233854
0.67323317533249	-0.658941094940911	0	0	-0.0493954933948881	0.0262840187349013	0	0
0	0	-0.830693306045429	0.0112227760874806	0	0	-0.0850771752520139	0.0614686143396718
4.6	0.00588421100661671	0.0158232523150425	0	0	0.64109850064829	0.689077328273419	0	0
0	0	0.046486618332867	-0.025020729758264	0	0	-0.312625507137357	0.840199973477518
0.64109850064829	0.689077328273419	0	0	-0.0039581842937972	0.013866595223483	0	0
0	0	-0.36922170133914	-0.74178120922578	0	0	-0.0792639422870213	-0.00961279579761048
4.7	0.00229982554366188	-0.018282827612311	0	0	0.707468461614782	-0.634560664308055	0	0
0	0	-0.0246787196635629	-0.00560929308986721	0	0	-0.188890345232906	-0.871400639451444
0.707468461614782	-0.634560664308055	0	0	0.0652197612915823	-0.017199157069886	0	0
0	0	-0.523765958204601	0.652615432961497	0	0	-0.0726760917906796	0.0715951306030231
4.8	-0.0110241199258104	0.0173889858628742	0	0	0.635330631681469	0.724375487459926	0	0
0	0	-0.0586789230175437	0.0339599880621303	0	0	-0.604707195706933	-0.634727824336583
0.635330631681469	0.724375487459926	0	0	0.0528727627388401	-0.0179367586436595	0	0
0	0	-0.825645659073172	-0.198300390206906	0	0	-0.0090791704590801	0.0714640285606712
4.9	0.018564343401577	-0.012255204457103	0	0	0.730960568192205	-0.628300077028996	0	0
0	0	-0.0397363252478788	0.0582806516218578	0	0	0.853340283718116	0.208163233793348
0.730960568192205	-0.628300077028996	0	0	-0.0805074409181357	-0.0288878397288769	0	0
0	0	0.197655534976712	0.820907757629434	0	0	-0.0831342838086014	0.00342888396961752
5	-0.0232074621657102	0.00408533664083765	0	0	0.618240850878926	0.72661207654067	0	0
0	0	-0.000254312686274369	0.0200855197208373	0	0	0.831318277709154	-0.297524403050267
0.618240850878926	0.72661207654067	0	0	-0.0475474352554066	0.0409035659042225	0	0
0	0	-0.645687906756907	0.533263069667721	0	0	0.0417270945397482	-0.0092356290613792
5.1	0.0247713417384172	0.00590479641797249	0	0	0.727873544610927	-0.606610946387492	0	0
0	0	0.0385677786353637	-0.0336274410264839	0	0	-0.533769160447602	0.695839429272648
0.727873544610927	-0.606610946387492	0	0	-0.0215946928493125	-0.0411885593429952	0	0
0	0	0.750316155942868	0.345222519728955	0	0	0.0727713298021566	-0.0199306675142364
5.2	-0.022484790517123	-0.0169822698612145	0	0	0.585016606662498	0.7451380906702	0	0
0	0	0.0161977847819871	-0.0743434113941725	0	0	-0.0782008444437156	0.872621018619428
0.585016606662498	0.7451380906702	0	0	0.0384839503325686	0.0225720873310445	0	0
0	0	0.0157848913921075	0.833135495702267	0	0	0.0268711844010937	0.0662641057819499
5.3	0.0162412480545454	0.0264718033186714	0	0	0.763086847742044	-0.573698031629993	0	0
0	0	-0.0141004702395189	-0.0412768682068187	0	0	-0.413725053483291	-0.771038879524529
0.763086847742044	-0.573698031629993	0	0	-0.0318387271442047	0.0249931459361733	0	0
0	0	0.743068102150958	-0.375695149883495	0	0	-0.0435476633068099	0.011863626977636
5.4	-0.00700421513121904	-0.0324075847233142	0	0	0.565788091327066	0.767432003381597	0	0
0	0	-0.0312866047698275	0.0147248228138095	0	0	-0.768486523741497	-0.426697424517806
0.565788091327066	0.767432003381597	0	0	0.0710605852556239	0.0872626503340219	0	0
0	0	0.658764354984967	0.508583529120446	0	0	-0.00951665752867295	0.0217508113858935
5.5	-0.00396472852654462	0.0349106158020871	0	0	0.777494098653149	-0.563399943789512	0	0
0	0	0.0231807602387056	0.0601828212722908	0	0	0.876802455672265	-0.0468692453697275
0.777494098653149	-0.563399943789512	0	0	-0.0065713493888697	-0.0276096571627965	0	0
0	0	0.155359894411445	-0.816802402068265	0	0	0.021660158192766	0.038257488273804
5.6	0.0155313737008609	-0.0324979243430354	0	0	0.549217512529369	0.782312731406583	0	0
0	0	0.0422296234264299	0.0567722139795371	0	0	0.695626746549779	-0.509802516350414
0.549217512529369	0.782312731406583	0	0	0.00130461723856127	-0.109132298872944	0	0
0	0	0.798056065779021	-0.204244981881259	0	0	0.0116625442804782	0.117069109320204
5.7	-0.0261487010993164	0.0259294706056831	0	0	0.794359038775877	-0.540442841996224	0	0
0	0	0.0204708836141779	-0.00693689434800731	0	0	-0.314762478574137	0.806399623835687
0.794359038775877	-0.540442841996224	0	0	-0.0113042064366709	0.0513945115723767	0	0
0	0	-0.536674030877107	-0.645757001310625	0	0	0.0586025241409241	0.0339251862971
5.8	0.0329350887348082	-0.0152827264648803	0	0	0.522231773586435	0.793760696478672	0	0
0	0	-0.0222248189274441	-0.0313965804119019	0	0	0.157215001862181	0.850332272009809
0.522231773586435	0.793760696478672	0	0	0.05869796673714	-0.0274392619839801	0	0
0	0	0.320892605610896	-0.769211518143321	0	0	0.0340487146195354	0.0547962089096782
5.9	-0.0361207197761198	0.0020741392485523	0	0	0.807001009876749	-0.498218318340475	0	0
0	0	-0.0562980369979315	-0.0268763720982925	0	0	-0.584199668418705	-0.63371236560961
0.807001009876749	-0.498218318340475	0	0	-0.0720800891298096	0.043441449658228	0	0
0	0	-0.823334887006087	0.0612866613000679	0	0	0.0372590184574922	0.0714159181164756
6	0.0349419556193811	0.0109101004998412	0	0	0.481177919968477	0.820231461825942	0	0
0	0	-0.0340705817207549	0.0057589582926052	0	0	-0.843889866595003	-0.192662450584162
0.481177919968477	0.820231461825942	0	0	-0.00250400165389263	0.0235152726167116	0	0
