# GHZ S RI R 50
0.2	-0.00744113396676413	0.0128080074776646	0	0	0.957620719182181	0.058394886300356	0	0
0	0	0.0177846803324162	0.00534041499784504	0	0	-0.370765367351086	0.910966298894825
0.957620719182181	0.058394886300356	0	0	0.0219615204147551	0.038948573456386	0	0
0	0	0.569895927031288	-0.753812715488454	0	0	0.00251299822264482	-0.0347953399927496
0.3	0.00691057865600902	-0.0111242679631976	0	0	0.0341110313915907	-0.965015566867103	0	0
0	0	-0.00648157194460157	0.00159018394180493	0	0	-0.133632291050947	-0.974239807063359
0.0341110313915907	-0.965015566867103	0	0	-0.0143510150100226	0.00191163904972022	0	0
0	0	-0.921871106032541	-0.20272131500378	0	0	-0.0328183127109065	-0.0199682521057019
0.4	-0.00895791045173714	0.00783229420184603	0	0	0.948488732923873	0.0629939452176682	0	0
0	0	-0.03931013423736	0.000665907285649588	0	0	-0.666392341446703	-0.726482889178224
0.948488732923873	0.0629939452176682	0	0	-0.0350937825206452	-0.0157614992807637	0	0
0	0	-0.234257507578494	-0.896069878402782	0	0	0.0206498006740263	0.0180890948725973
0.5	0.0119428371158878	-0.00363352964035465	0	0	0.129077054993226	-0.948905053071501	0	0
0	0	-0.0318546934283966	0.0047260924143816	0	0	0.963956988110271	0.20858600548002
0.129077054993226	-0.948905053071501	0	0	0.0356874481753149	0.0158432657057808	0	0
0	0	-0.679751675652984	0.63584773943318	0	0	0.00411866983926006	0.00674629335280137
0.6	-0.0135839803677891	0.000629024081926188	0	0	0.955418276279496	0.13310053882326	0	0
0	0	-0.00659738103277166	0.00643460874211261	0	0	0.913910667264936	-0.3280268170788
0.955418276279496	0.13310053882326	0	0	0.00441750425639747	-0.020043282640555	0	0
0	0	-0.861883545162015	-0.34666156676676	0	0	-0.00591183611459103	-0.00757057632974125
0.7	0.0138584723707329	0.00133952371955775	0	0	0.111023686467782	-0.95862945126937	0	0
0	0	0.0245315607973598	-0.010034162603267	0	0	-0.613548866483735	0.748003936134745
0.111023686467782	-0.95862945126937	0	0	0.0080135362582246	0.00966044880846212	0	0
0	0	0.0439655918360505	0.921630970137914	0	0	0.00233789347254289	-0.0131900832875727
0.8	-0.0125022822389028	-0.00372796764578491	0	0	0.956784344578093	0.115800572998454	0	0
0	0	0.0459056984908198	-0.0405104022567125	0	0	-0.12265950188398	0.962439326417172
0.956784344578093	0.115800572998454	0	0	-0.0223474788762844	0.0121097221584642	0	0
0	0	-0.814019282452779	0.447825531905765	0	0	0.00672541413093852	0.0831737446198884
0.9	0.00908655917334815	0.00622356219736847	0	0	0.147352431953734	-0.942327006395131	0	0
0	0	0.0144426409149202	-0.0264404129861346	0	0	-0.433936082812995	-0.869457189210543
0.147352431953734	-0.942327006395131	0	0	-0.00154736761757304	-0.0633656458543215	0	0
0	0	0.765194998717935	0.52821630678327	0	0	0.0368444289292262	0.0128967781833218
1	-0.00504161676381776	-0.0081404285960991	0	0	0.945793177896564	0.183794590614717	0	0
0	0	-0.0139034715490388	0.0126822104695176	0	0	-0.840783926429422	-0.484553282031377
0.945793177896564	0.183794590614717	0	0	0.00228255122119184	0.0407627557438854	0	0
0	0	-0.128232066082542	0.905846004905207	0	0	0.00316408684234862	0.000537249437477813
1.1	0.00128474799324798	0.0088007369164525	0	0	0.20336375596002	-0.953534898344294	0	0
0	0	-0.011898285608879	0.0351193890508763	0	0	0.960821769367837	-0.0504421237086185
0.20336375596002	-0.953534898344294	0	0	0.0022952767880142	0.000312836382668271	0	0
0	0	0.87321051816482	-0.260733073224806	0	0	0.00781753907752338	0.0418706900381322
1.2	0.00112317002393801	-0.00791879542578065	0	0	0.963890398739083	0.203766878884054	0	0
0	0	0.00791268183706005	0.0637268973955832	0	0	0.775027019581488	-0.557649752336772
0.963890398739083	0.203766878884054	0	0	0.0521589700351481	-0.00152518786497185	0	0
0	0	0.617152972708863	0.674891279339228	0	0	0.00539694012081265	0.0996773600022677
1.3	-0.00249126709518403	0.00490418480132234	0	0	0.205652124879995	-0.948163482174288	0	0
0	0	0.0153426306645565	0.0173826875705158	0	0	-0.356069132645347	0.888214005390619
0.205652124879995	-0.948163482174288	0	0	-0.0570925455823881	0.000199479728762799	0	0
0	0	0.322965438047692	-0.864092463999662	0	0	0.0386463614453815	0.0141145751994105
1.4	0.00299721801176402	-0.00114323886032968	0	0	0.930040554483907	0.233043111751145	0	0
0	0	-0.0135145141382404	-0.0457196359821741	0	0	0.182281091969589	0.941856436807049
0.930040554483907	0.233043111751145	0	0	0.0151167784087275	0.00803515931724707	0	0
0	0	0.903274197306332	-0.0861572014931952	0	0	0.0428678161338975	-0.00683435340648379
1.5	-0.00191565197589357	-0.0018352697651973	0	0	0.269756433966194	-0.928053425514502	0	0
0	0	-0.0377556554985424	-0.0584643767989429	0	0	-0.67993487909276	-0.676627367564229
0.269756433966194	-0.928053425514502	0	0	0.0310325044185783	-0.0330614607999847	0	0
0	0	-0.465943563579473	-0.769754138943175	0	0	0.0318352752003929	0.0525504646971736
1.6	-0.000581328416200355	0.00374073307996616	0	0	0.942936636460743	0.292794731702411	0	0
0	0	-0.0352127124485937	-0.0217137870397179	0	0	-0.941492792082895	-0.180961124401367
0.942936636460743	0.292794731702411	0	0	-0.05399972048414	-0.0260500144824158	0	0
0	0	0.496666723060907	-0.758992723250504	0	0	-0.000400277420306235	0.0534398182022042
1.7	0.00347854415017739	-0.00439053272066093	0	0	0.286690576429474	-0.947755411501663	0	0
0	0	0.0169525231319282	0.00459483503737438	0	0	0.886305016209931	-0.348288879123118
0.286690576429474	-0.947755411501663	0	0	-0.00234009191568665	0.00631985589553476	0	0
0	0	-0.903798124863224	-0.10788896759473	0	0	0.038668736068865	-0.0302011421726165
1.8	-0.00575718985915743	0.00313635867181509	0	0	0.920992128158365	0.287284692419949	0	0
0	0	0.0468985842433219	0.0369826182600892	0	0	0.571499237229032	-0.749985297863653
0.920992128158365	0.287284692419949	0	0	0.00633836845888103	0.0664957286440396	0	0
0	0	-0.314476238303127	-0.849866205770602	0	0	0.0265722476246255	-0.0334871915417155
1.9	0.00721971788849718	-2.06333670850089E-05	0	0	0.316486526462351	-0.896756456660665	0	0
0	0	0.0540125858108196	-0.00403190000425263	0	0	-0.0794971810973109	0.942946227791328
0.316486526462351	-0.896756456660665	0	0	0.00942200720022353	0.0097296259790819	0	0
0	0	-0.613057186368434	0.648973003529139	0	0	0.0407983849815215	0.0240455823658631
2	-0.00738851931577514	-0.0042695366477749	0	0	0.892907539093418	0.346952825398414	0	0
0	0	0.0159324475735247	-0.00452295329306814	0	0	0.460622291956339	0.831626292493815
0.892907539093418	0.346952825398414	0	0	-0.0503463973623066	-0.032358707682079	0	0
0	0	-0.845642163666197	-0.260853692283487	0	0	-0.0534171170471472	-0.0203335626905337
2.1	0.00610183078259387	0.00871942124130053	0	0	0.362003995683159	-0.898835760639207	0	0
0	0	-0.0288711336496256	0.00887899771991245	0	0	-0.831127909352169	-0.449474197545886
0.362003995683159	-0.898835760639207	0	0	0.0704130568529198	0.0163927964979202	0	0
0	0	0.137870147802174	0.878536218271988	0	0	-0.00521197736986309	0.0100478447746042
2.2	-0.00286621176668248	-0.0123689389930766	0	0	0.898740822684233	0.374473868137604	0	0
0	0	-0.0483821179418767	0.0184576259629999	0	0	-0.931245122399527	0.0704045538581951
0.898740822684233	0.374473868137604	0	0	0.0142770996330881	-0.010486050037721	0	0
0	0	-0.73548029956271	0.507106079878364	0	0	0.0421200891323801	-0.0110832003297059
2.3	-0.00222819941298521	0.0140619099875522	0	0	0.384962518007106	-0.889245027558957	0	0
0	0	-0.0310290062535261	0.0204323983866858	0	0	0.735385640671849	-0.555696599229594
0.384962518007106	-0.889245027558957	0	0	0.0575588703372056	-0.0282920285982025	0	0
0	0	0.77577792307847	0.431029919042381	0	0	0.0663028171696919	0.0468098524834167
2.4	0.00862476352754019	-0.0134880855026064	0	0	0.877719341083552	0.397447209814908	0	0
0	0	-0.00118395700684877	0.00177466998626682	0	0	0.323875498358411	-0.867436394568946
0.877719341083552	0.397447209814908	0	0	-0.0969028994512527	0.0148274467993769	0	0
0	0	-0.0389699449652483	0.881997303353909	0	0	0.0467148333858175	-0.0484394099683513
2.5	-0.015539525204238	0.0106133881232986	0	0	0.41514116855955	-0.866295800645208	0	0
0	0	0.0188381253545113	-0.0358275319632421	0	0	0.189193976400226	0.917403743499523
0.41514116855955	-0.866295800645208	0	0	-0.00998596734672836	-0.0260943606394991	0	0
0	0	0.804865144298728	-0.331913558870435	0	0	0.0124674388936005	0.000122493967957363
2.6	0.0214046466065038	-0.0058765456530962	0	0	0.859694187446161	0.429833936298507	0	0
0	0	0.0180251242663085	-0.0390371066601574	0	0	0.667062410055119	0.654071807279136
0.859694187446161	0.429833936298507	0	0	0.00603578666769432	-0.032614106154571	0	0
0	0	0.630481020988005	0.597709970346661	0	0	0.062719649014093	0.0110905437288407
2.7	-0.0251259965474424	-0.000583980276912306	0	0	0.4448819978414	-0.854404241670152	0	0
0	0	0.0216477481012372	-0.0100441951867293	0	0	-0.898349913591321	-0.174863485518668
0.4448819978414	-0.854404241670152	0	0	0.00391641943194679	-0.0122612475801095	0	0
0	0	0.276609558753101	-0.836202416027916	0	0	-0.0271188373010337	-0.000107735420328804
2.8	0.0257206651391342	0.00812300224119257	0	0	0.844799424703927	0.458627204260371	0	0
0	0	0.0102849378919108	0.0121708571725441	0	0	-0.843921957085991	0.312679820667701
0.844799424703927	0.458627204260371	0	0	0.00482153063026413	0.0646400465151498	0	0
0	0	0.873214211717429	-0.149971897473514	0	0	0.0267071578967637	-0.0632569167944336
2.9	-0.0227656138757509	-0.015753912660452	0	0	0.474894908848065	-0.826576531300446	0	0
0	0	0.000477068961067848	0.0364762692271481	0	0	0.56891501004778	-0.702469710418662
0.474894908848065	-0.826576531300446	0	0	-0.0530846863617791	0.0346748705070838	0	0
0	0	-0.516430408798674	-0.704577157746007	0	0	-0.0398995644817781	-0.0457467975942189
3	0.0170416439345668	0.0224255233623314	0	0	0.818555321906933	0.499062253622757	0	0
0	0	-0.0103891830990615	0.0298651307520712	0	0	0.0913058748753926	-0.923188888266443
0.818555321906933	0.499062253622757	0	0	-0.00624260458704378	-0.0175942243305705	0	0
0	0	0.407334263861754	-0.763358834175591	0	0	0.0143199291213321	0.0868665736730963
3.1	-0.00855443599083005	-0.0263754220731387	0	0	0.519552651092604	-0.809180939839292	0	0
0	0	-0.0197423505309381	0.0133527704835943	0	0	0.451013996399127	0.808929280626398
0.519552651092604	-0.809180939839292	0	0	0.0393110589286669	-0.0650238756165337	0	0
0	0	-0.872547857184535	-0.049049234754327	0	0	-0.0754599043919554	0.00684284804375842
3.2	-0.00120084035876445	0.02787657710822	0	0	0.808534009696603	0.542809578461678	0	0
0	0	-0.0176716910466302	-0.0045081659918058	0	0	0.802113674091876	0.436939439420426
0.808534009696603	0.542809578461678	0	0	0.00112628771188693	0.0253887591170738	0	0
0	0	-0.340627882988272	-0.816285313237398	0	0	-0.0592860414843062	0.00735271644994313
3.3	0.0106864880472864	-0.0257303790567527	0	0	0.553318436502765	-0.804848010594182	0	0
0	0	-0.00158678535095642	-0.0222914499721108	0	0	-0.908014582168927	0.0533121638667995
0.553318436502765	-0.804848010594182	0	0	0.0627611653212617	0.0240024515724441	0	0
0	0	-0.574682988020935	0.679751702202801	0	0	-0.0280909234890271	-0.107455917570051
3.4	-0.0183919886027703	0.0200448986725144	0	0	0.788584428748946	0.557331167756801	0	0
0	0	-0.00519393513086729	-0.0392664199316657	0	0	-0.732701112342453	0.547826007309165
0.788584428748946	0.557331167756801	0	0	-0.115739629171824	0.00982653497114927	0	0
0	0	-0.860278981288486	-0.219275126545516	0	0	-0.0200059760147512	-0.0398402064599577
3.5	0.0235887663832819	-0.0123380690257146	0	0	0.57088133262551	-0.779185204917468	0	0
0	0	0.00675556112802209	-0.029691257067335	0	0	0.29329233840526	-0.872318464334588
0.57088133262551	-0.779185204917468	0	0	-0.0128394147309552	-0.0536983355989183	0	0
0	0	0.172402140691266	0.844048892584587	0	0	0.0844789373953844	-0.0737214015719183
3.6	-0.0254848700982693	0.00349940011757343	0	0	0.771868477524751	0.579558256235467	0	0
0	0	0.0181799464869416	0.00231651257116379	0	0	-0.215464456857401	-0.893866223186024
0.771868477524751	0.579558256235467	0	0	-0.0336600447674732	0.0611847179489019	0	0
0	0	-0.690167076183531	0.52521353666776	0	0	0.0443649504855522	-0.0321313571477933
3.7	0.0235910610076261	0.00593634970054298	0	0	0.597594575741035	-0.750840591464408	0	0
0	0	0.0126326906119862	0.0354684056818742	0	0	0.643432723447886	0.644223615765235
0.597594575741035	-0.750840591464408	0	0	0.118526250203714	0.00588329956134708	0	0
0	0	0.773006617384098	0.404077322572511	0	0	0.0551385957005383	-0.0197164773945143
3.8	-0.0187534118881639	-0.013560151985743	0	0	0.743888692175307	0.615542390608999	0	0
0	0	0.0142660170872909	0.0494384694987845	0	0	0.870755425379322	0.180114940647376
0.743888692175307	0.615542390608999	0	0	-0.0249059626716669	0.0211984896583369	0	0
0	0	-0.0098212200295334	0.869820004117318	0	0	-0.058408561851102	-0.02431946599317
3.9	0.0115837780047593	0.0180135354168453	0	0	0.619616854790333	-0.741889448566011	0	0
0	0	0.0105924059723949	0.0145764682767875	0	0	-0.819208481610239	0.331868925040653
0.619616854790333	-0.741889448566011	0	0	-0.0121672866526345	0.0830234349984423	0	0
0	0	0.777754172324702	-0.389287599958918	0	0	0.0246737232216299	-0.00595433861132033
4	-0.0025762619351955	-0.0192808183869675	0	0	0.722790094479013	0.627945139076442	0	0
0	0	-0.0167289018138319	-0.0130525414789852	0	0	-0.509366316174239	0.724473814706419
0.722790094479013	0.627945139076442	0	0	0.0498135397906914	-0.0743739776518681	0	0
0	0	0.684092897227178	0.509554894685882	0	0	-0.00449826788256744	0.00950382499801013
4.1	-0.00572650456120834	0.0173186172082773	0	0	0.633757984896151	-0.708614066991109	0	0
0	0	-0.0410881609494965	-0.0357089267942258	0	0	0.0501390472570705	-0.887145099662254
0.633757984896151	-0.708614066991109	0	0	0.0237590112984953	-0.111195218646242	0	0
0	0	0.178610329160322	-0.824584130555666	0	0	0.0269228718521779	0.0806749778151134
4.2	0.0122415198688418	-0.012712145783166	0	0	0.702662638036331	0.645545231570818	0	0
0	0	-0.0482416841372915	-0.0152406442016099	0	0	-0.433758709403334	-0.77423030832005
0.702662638036331	0.645545231570818	0	0	-0.0396011307965515	0.0163844000379243	0	0
0	0	0.825664360617337	-0.186743983141153	0	0	-0.01192005392886	-0.0409012004745107
4.3	-0.0159288921219749	0.00571015905479515	0	0	0.655031139629132	-0.695091524585919	0	0
0	0	-0.00684781773548079	0.0072499078059183	0	0	0.774402092448018	0.419167927644063
0.655031139629132	-0.695091524585919	0	0	-0.0106483444678863	0.0665492878224178	0	0
0	0	-0.532792801177171	-0.667803956866845	0	0	-0.0142551270482373	0.00233511198251439
4.4	0.0161381397954628	0.00267456663611153	0	0	0.677536681568698	0.66564556764758	0	0
0	0	0.0382410600756213	0.00494019041697278	0	0	0.882586129111403	-0.0545245941839742
0.677536681568698	0.66564556764758	0	0	0.0011788207192277	-0.0495575051139696	0	0
0	0	0.342761392186431	-0.767877064472733	0	0	-0.033268673269531	0.00336942140877393
4.5	-0.012879001839604	-0.0102193241425244	0	0	0.673349012685456	-0.659111277997001	0	0
0	0	0.0643462582036568	-0.00406944755219052	0	0	-0.718195501427139	0.520340952217949
0.673349012685456	-0.659111277997001	0	0	-0.0492585623076852	0.0264561934509333	0	0
0	0	-0.830562948711996	0.0113596918111087	0	0	-0.0851949744224384	0.0615719931490098
4.6	0.00671474388032667	0.0157563115693156	0	0	0.641186001385394	0.689208870247979	0	0
0	0	0.0459116822587146	-0.0248077291996313	0	0	-0.312411811627554	0.840186419129916
0.641186001385394	0.689208870247979	0	0	-0.00361587558197892	0.0139975718152796	0	0
0	0	-0.369347586244212	-0.741628495331081	0	0	-0.0794296225785383	-0.00931244075884808
4.7	0.00122813404436339	-0.0181364082754536	0	0	0.707574927548203	-0.634631276537778	0	0
0	0	-0.0254967012392274	-0.00564228562422311	0	0	-0.189186524101306	-0.871195309304758
0.707574927548203	-0.634631276537778	0	0	0.065731890997428	-0.0171856788127309	0	0
0	0	-0.523441238904464	0.65271006581374	0	0	-0.0727291128258739	0.0720266435108188
4.8	-0.00986952539765871	0.0170937719073271	0	0	0.635370614719246	0.724511554007137	0	0
0	0	-0.059475629080633	0.0335990653414285	0	0	-0.604782861733067	-0.634348137678695
0.635370614719246	0.724511554007137	0	0	0.0534399342686946	-0.0180806279784038	0	0
0	0	-0.825507545569803	-0.197951762718648	0	0	-0.00904330732773185	0.0719308509859365
4.9	0.0174439584987164	-0.01194514442958	0	0	0.731239013857726	-0.62820459850544	0	0
0	0	-0.0402670020236952	0.0576326615869746	0	0	0.853320961646943	0.207812577047886
0.731239013857726	-0.62820459850544	0	0	-0.0799811702057719	-0.0292113602048796	0	0
0	0	0.197946714635926	0.820736918652191	0	0	-0.0830181792780448	0.00400760199552936
5	-0.0220351285882786	0.00383530190718444	0	0	0.618146511979702	0.726952319378529	0	0
0	0	-0.00035447676566697	0.0192019566259919	0	0	0.831028156580862	-0.297783295001035
0.618146511979702	0.726952319378529	0	0	-0.0471013616832036	0.0404903834695645	0	0
0	0	-0.645345692752047	0.533400525489732	0	0	0.0418945104462495	-0.00875409895529474
5.1	0.0234496410839812	0.00622192298582211	0	0	0.728272725554053	-0.606399530301121	0	0
0	0	0.0389217306251022	-0.0345928935510906	0	0	-0.533280295729569	0.695852826135916
0.728272725554053	-0.606399530301121	0	0	-0.0211942159186528	-0.0417380004766423	0	0
0	0	0.750226583632852	0.344770738405811	0	0	0.0730155734704541	-0.019533199379857
5.2	-0.0211269656152888	-0.0174690671839862	0	0	0.5849867292639	0.745606685333394	0	0
0	0	0.0168948961404034	-0.0752034786677337	0	0	-0.0776526496876774	0.872208574466526
0.5849867292639	0.745606685333394	0	0	0.0386804745282733	0.022031896525904	0	0
0	0	0.0162608199844492	0.832689147213498	0	0	0.0273355747638199	0.0665017216888632
5.3	0.0150598340118353	0.0270706826498723	0	0	0.763662959814728	-0.573744105759352	0	0
0	0	-0.0132833958226961	-0.0418131666440319	0	0	-0.413932553196888	-0.770439090608767
0.763662959814728	-0.573744105759352	0	0	-0.0319237496217894	0.0244536359495771	0	0
0	0	0.74250234307829	-0.375906445765487	0	0	-0.0430457915763514	0.0120414121604168
5.4	-0.00605136049101358	-0.0328683916853227	0	0	0.565946625953489	0.767826538029711	0	0
0	0	-0.0305551679249892	0.0146755442263993	0	0	-0.768299353776875	-0.426167950213655
0.565946625953489	0.767826538029711	0	0	0.070907381631693	0.0869706536007533	0	0
0	0	0.658664353858307	0.508061307698539	0	0	-0.00911830399356203	0.0217255429352098
5.5	-0.00494636206179332	0.0351074609293737	0	0	0.777901091178547	-0.56335100187999	0	0
0	0	0.023647153172901	0.0606390915414332	0	0	0.876405625342888	-0.047243173253934
0.777901091178547	-0.56335100187999	0	0	-0.00673671611791892	-0.0278620988433978	0	0
0	0	0.154926260450832	-0.816522162826885	0	0	0.0219192925930226	0.0381492146008523
5.6	0.0167439729622652	-0.032571713384176	0	0	0.548992870598974	0.782692310054385	0	0
0	0	0.0423312550673112	0.0575997148049573	0	0	0.694956769801262	-0.509990453762525
0.548992870598974	0.782692310054385	0	0	0.00132682479040233	-0.1093777760392	0	0
0	0	0.797529123167372	-0.204650058160268	0	0	0.0119621976573301	0.116971112611748
5.7	-0.0275593252033517	0.0261593734598544	0	0	0.794946572843331	-0.540378650428072	0	0
0	0	0.0202154885511164	-0.00593880004902925	0	0	-0.314122329754292	0.806135508688197
0.794946572843331	-0.540378650428072	0	0	-0.0113322896169614	0.0511097057792914	0	0
0	0	-0.536750398825735	-0.645089660717973	0	0	0.0588229592723624	0.0339570141747788
5.8	0.0342421125053739	-0.0157435438139035	0	0	0.522126791738181	0.794253282988384	0	0
0	0	-0.0227118259235196	-0.0305057481945684	0	0	0.15761903493984	0.84968736157345
0.522126791738181	0.794253282988384	0	0	0.0587210050750119	-0.0279569718131346	0	0
0	0	0.320226832590123	-0.768903695213937	0	0	0.0345082911539706	0.0548603606455312
5.9	-0.0371369343483066	0.00256220620364754	0	0	0.807661004675506	-0.498202631480362	0	0
0	0	-0.0568492638222725	-0.0263145536137457	0	0	-0.584144687148227	-0.63296935907318
0.807661004675506	-0.498202631480362	0	0	-0.0724959779497389	0.0427201484289576	0	0
0	0	-0.822744507171966	0.0616876245301304	0	0	0.0379558629204247	0.0713335863417213
6	0.0356850820632363	0.0106510399237704	0	0	0.481117359857784	0.820769521917039	0	0
0	0	-0.034506436803578	0.00588739257897721	0	0	-0.843483366638937	-0.192019901854452
0.481117359857784	0.820769521917039	0	0	-0.0031874715295537	0.0228165302659779	0	0
