# GHZ S RI R 50
0.2	-0.00733696098291237	0.0111193656426455	0	0	0.95778931527871	0.0581374626172661	0	0
0	0	0.0191962972777042	0.00438162970439966	0	0	-0.370563373132685	0.911077268662817
0.95778931527871	0.0581374626172661	0	0	0.0221624891500866	0.0413294392639962	0	0
0	0	0.569735904555361	-0.753965778573895	0	0	0.00267390171977453	-0.0324161002915288
0.3	0.00714452414753079	-0.0104645429525993	0	0	0.0336957872966018	-0.965119228923164	0	0
0	0	-0.00582367422142211	0.00136467256769452	0	0	-0.134046097150294	-0.974267084295834
0.0336957872966018	-0.965119228923164	0	0	-0.0135967821501075	0.00338738071442727	0	0
0	0	-0.922032908631059	-0.202357622044747	0	0	-0.0320830897166007	-0.0184792186609484
0.4	-0.00885638471026876	0.00782755076287558	0	0	0.948538036728862	0.0623451912107034	0	0
0	0	-0.0393498747968978	0.000760407626336294	0	0	-0.666897510970743	-0.726039462754513
0.948538036728862	0.0623451912107034	0	0	-0.0342726851830953	-0.014997835263405	0	0
0	0	-0.234871833689029	-0.895923558920398	0	0	0.0215216047622239	0.018777556419041
0.5	0.0113639635072492	-0.0038649023493802	0	0	0.128196178922565	-0.948895613350025	0	0
0	0	-0.0324215381183765	0.00498309000112577	0	0	0.963999561126911	0.207668587571625
0.128196178922565	-0.948895613350025	0	0	0.0363382411786283	0.0159969943094027	0	0
0	0	-0.679062741479536	0.636373680213184	0	0	0.00476431014758275	0.0069597950200949
0.6	-0.0126108583705802	0.000653776461092898	0	0	0.955171314139131	0.131950370927418	0	0
0	0	-0.00751726738766571	0.00662999902840552	0	0	0.913150861041358	-0.328917876382496
0.955171314139131	0.131950370927418	0	0	0.00467868152653058	-0.0200115364017098	0	0
0	0	-0.861907025061975	-0.345541454080148	0	0	-0.00561249506034264	-0.00752572478131248
0.7	0.0128495184057767	0.00177882916582978	0	0	0.109746302665418	-0.958056486207988	0	0
0	0	0.0234812576408768	-0.0100373302903721	0	0	-0.612137836212527	0.748205069751683
0.109746302665418	-0.958056486207988	0	0	0.0080718889010093	0.00970521795814871	0	0
0	0	0.0450928153779216	0.920871251490608	0	0	0.00234814135831346	-0.0130944371924228
0.8	-0.0117876345712285	-0.00445510352964318	0	0	0.9558293928373	0.114475646801978	0	0
0	0	0.0449349718400316	-0.0406717428540134	0	0	-0.121347397921552	0.96156449327472
0.9558293928373	0.114475646801978	0	0	-0.0223103368557804	0.0124161138620952	0	0
0	0	-0.812602293055505	0.448347640757175	0	0	0.00687461635571989	0.0832549030801006
0.9	0.00874886042714963	0.00689453580530107	0	0	0.146000310659062	-0.940986386596903	0	0
0	0	0.0137359982902448	-0.0266592213574975	0	0	-0.434311073259189	-0.867597956968698
0.146000310659062	-0.940986386596903	0	0	-0.00161848523222154	-0.0626851467429443	0	0
0	0	0.764650587209909	0.526485045702199	0	0	0.0368367575389943	0.0132500020142628
1	-0.00494050624818064	-0.00851965801433318	0	0	0.944151371887211	0.182535662375126	0	0
0	0	-0.0142212862157835	0.0124966744507391	0	0	-0.839613120759021	-0.482810972583359
0.944151371887211	0.182535662375126	0	0	0.00269880981287463	0.0411413331682223	0	0
0	0	-0.127119656825451	0.904209233297027	0	0	0.00350165913873489	0.001068580867157
1.1	0.0011431514613818	0.00879185774320226	0	0	0.202317481974383	-0.951510764652507	0	0
0	0	-0.0118054757215223	0.0350547203892161	0	0	0.958611914074792	-0.0509159845260163
0.202317481974383	-0.951510764652507	0	0	0.00293447962278842	0.000707985030806072	0	0
0	0	0.871070600819481	-0.260676392433477	0	0	0.00847903238773361	0.0420561053612375
1.2	0.00157904979078248	-0.00770182662337182	0	0	0.961573213260127	0.203092377487564	0	0
0	0	0.00831964109447327	0.0638535261668578	0	0	0.773005809051941	-0.556366547962063
0.961573213260127	0.203092377487564	0	0	0.0527197202941364	-0.00142822570420788	0	0
0	0	0.615706250361613	0.673112079015715	0	0	0.00622125044506035	0.0992473508019587
1.3	-0.00318665111836069	0.00476783092954834	0	0	0.205419716969251	-0.945634814443811	0	0
0	0	0.0158586286708237	0.0177155801410318	0	0	-0.355413913542964	0.885817204328303
0.205419716969251	-0.945634814443811	0	0	-0.0559865320256559	2.63397655765329E-05	0	0
0	0	0.322388463090507	-0.861767700404739	0	0	0.0392529511739917	0.0138566509347194
1.4	0.00371475814216442	-0.00108053025801018	0	0	0.927524798702804	0.233218484178753	0	0
0	0	-0.0131350519071162	-0.0452042247848898	0	0	0.181083556491875	0.939618648116666
0.927524798702804	0.233218484178753	0	0	0.0157496728327156	0.00777667732065699	0	0
0	0	0.901058717916485	-0.0852327883103192	0	0	0.0433947783910151	-0.0070448226265787
1.5	-0.00266560346729019	-0.0018531137036298	0	0	0.270287434586634	-0.925560091913407	0	0
0	0	-0.0375756852286921	-0.057824028229377	0	0	-0.677481086648233	-0.675945604765226
0.270287434586634	-0.925560091913407	0	0	0.031591537799242	-0.0331602113302367	0	0
0	0	-0.463863946128811	-0.768578506063913	0	0	0.0321783952368471	0.0520215244629342
1.6	0.000210955877803358	0.00358804665151153	0	0	0.940493417264234	0.293785995556004	0	0
0	0	-0.0352179004458318	-0.0210026998196045	0	0	-0.939298671034021	-0.182212133707101
0.940493417264234	0.293785995556004	0	0	-0.0532493342876323	-0.026556556944156	0	0
0	0	0.496973266419699	-0.756622886546317	0	0	-0.000142565650850714	0.0527686804007551
1.7	0.00282587489468206	-0.0040264335619332	0	0	0.288096020462951	-0.945675994895724	0	0
0	0	0.0167990372876144	0.00522657749607088	0	0	0.885541668724626	-0.346014902248393
0.288096020462951	-0.945675994895724	0	0	-0.00213737133832092	0.00584049447309835	0	0
0	0	-0.902126343756745	-0.109457949466725	0	0	0.0388768926263888	-0.0304234583511989
1.8	-0.00534759548616561	0.00275127535166129	0	0	0.919384533798566	0.288914034931929	0	0
0	0	0.0466414005719355	0.0374131712063236	0	0	0.572411538889751	-0.74792233985319
0.919384533798566	0.288914034931929	0	0	0.00609755049633514	0.0659988013362162	0	0
0	0	-0.312332408591149	-0.849544674059982	0	0	0.0266921981483222	-0.0336873079950249
1.9	0.00694576069517163	0.000239463673412452	0	0	0.318161844184254	-0.895519659558134	0	0
0	0	0.053723559964313	-0.00385153393340045	0	0	-0.0814204654379382	0.942175810581285
0.318161844184254	-0.895519659558134	0	0	0.00933207681083039	0.00950119999911842	0	0
0	0	-0.614023235457099	0.647273792029373	0	0	0.0405967440511204	0.0239199773985384
2	-0.00712096884923067	-0.00439730625058777	0	0	0.892036224259342	0.34862294452614	0	0
0	0	0.0156742964065481	-0.00458330640341529	0	0	0.458886713324291	0.832348590420274
0.892036224259342	0.34862294452614	0	0	-0.0502401966671464	-0.0326979596652067	0	0
0	0	-0.844943566183683	-0.262458142485782	0	0	-0.0533634797118802	-0.0206987320071816
2.1	0.00576288674357509	0.00880191330423164	0	0	0.36354334620808	-0.898400124099278	0	0
0	0	-0.0290502239251381	0.00862790840552905	0	0	-0.830503755926647	-0.45093358620395
0.36354334620808	-0.898400124099278	0	0	0.0703746457596585	0.0165094168839348	0	0
0	0	0.13642171787276	0.878901861901392	0	0	-0.00526105784664705	0.00990588491044565
2.2	-0.00248602454704448	-0.0125091747336609	0	0	0.898614238438001	0.37576414914056	0	0
0	0	-0.0484564388538696	0.0181109885292583	0	0	-0.931699209877001	0.0692462920660117
0.898614238438001	0.37576414914056	0	0	0.0143237989156804	-0.0106039145523408	0	0
0	0	-0.736413855798699	0.506367998357241	0	0	0.0421808874762035	-0.0111342441532799
2.3	-0.00253998977183867	0.0142786974676414	0	0	0.385876876726284	-0.889342265435798	0	0
0	0	-0.0310137139936876	0.0200995776507631	0	0	0.736219658796393	-0.555355046734887
0.385876876726284	-0.889342265435798	0	0	0.0576379507622334	-0.02841652037028	0	0
0	0	0.77580209128833	0.43189733581616	0	0	0.0662477001159735	0.0467741776100883
2.4	0.00880663100981444	-0.0137105774050509	0	0	0.877901902744223	0.398008752254598	0	0
0	0	-0.00111537686875081	0.00153069795490186	0	0	0.324366614091534	-0.867629256915093
0.877901902744223	0.398008752254598	0	0	-0.0970943049637838	0.0145423722042037	0	0
0	0	-0.0393587827609111	0.882316520249099	0	0	0.0466677750263255	-0.0486563229105406
2.5	-0.0156143136375712	0.0107268707687565	0	0	0.415255624649902	-0.866421597372508	0	0
0	0	0.0189175676792024	-0.0359231967220058	0	0	0.189171007236879	0.917567440684583
0.415255624649902	-0.866421597372508	0	0	-0.0101666971196017	-0.026299410858435	0	0
0	0	0.80501860230154	-0.331920985162418	0	0	0.0122588428789877	-7.2308850212607E-05
2.6	0.0214731705350193	-0.00585347244714386	0	0	0.859627823129981	0.429558278069867	0	0
0	0	0.0180626160039476	-0.0389896258180062	0	0	0.667072734628031	0.653803373475851
0.859627823129981	0.429558278069867	0	0	0.0057845865511627	-0.0327457096651961	0	0
0	0	0.630486416448374	0.597460218103646	0	0	0.0624335063612866	0.0109200722694419
2.7	-0.0252530494264725	-0.000687481856350005	0	0	0.444293069116091	-0.854009136286734	0	0
0	0	0.0216111698280727	-0.0099119271836152	0	0	-0.897816225761256	-0.174444891720035
0.444293069116091	-0.854009136286734	0	0	0.00364950145184258	-0.0123292899713094	0	0
0	0	0.276144812142568	-0.835744074341396	0	0	-0.0273625454722225	-0.000167237918951889
2.8	0.0258888608773271	0.00825443684515067	0	0	0.84396481857737	0.457856070489073	0	0
0	0	0.0101643380395573	0.0123013555022385	0	0	-0.842848290433923	0.312580211640499
0.84396481857737	0.457856070489073	0	0	0.00459590156885006	0.0644546401662378	0	0
0	0	0.872157202346033	-0.150069662037162	0	0	0.0263355729620283	-0.0631552904259016
2.9	-0.0229489087786331	-0.0159282209204832	0	0	0.474062594721923	-0.825231076922854	0	0
0	0	0.00027725110190045	0.0365259027324081	0	0	0.567912874191397	-0.70134995928251
0.474062594721923	-0.825231076922854	0	0	-0.053146374890176	0.0345611660857238	0	0
0	0	-0.515630660096415	-0.703365012301203	0	0	-0.0400146227716758	-0.0455847383584872
3	0.0172711114885787	0.0226562028042998	0	0	0.816696859288503	0.4983064628244	0	0
0	0	-0.0106357026581643	0.0297908879027654	0	0	0.0914449157147774	-0.92126066776393
0.816696859288503	0.4983064628244	0	0	-0.00641589970346955	-0.0174943057858478	0	0
0	0	0.406767751780153	-0.761647065162508	0	0	0.0139976440101699	0.0865632250684498
3.1	-0.00888109358537543	-0.0266148652480642	0	0	0.519029415476923	-0.806839706835932	0	0
0	0	-0.0200057387165728	0.0131529713664914	0	0	0.449202005254461	0.807408483043624
0.519029415476923	-0.806839706835932	0	0	0.0391108286619196	-0.0645966042039118	0	0
0	0	-0.870420562647385	-0.049725456316032	0	0	-0.0752556806029268	0.00673237263944311
3.2	-0.000791208050641169	0.0280613439762171	0	0	0.805711592507496	0.542741909228131	0	0
0	0	-0.0178788219750334	-0.00480071101700722	0	0	0.799430653353164	0.437111845690157
0.805711592507496	0.542741909228131	0	0	0.000979370266939717	0.025331109966202	0	0
0	0	-0.338497683693159	-0.814788498017688	0	0	-0.0590816939110958	0.00719518018600257
3.3	0.0102635508043501	-0.0258273561464303	0	0	0.553825426589868	-0.801734483383077	0	0
0	0	-0.0016881808521785	-0.0226187523043867	0	0	-0.905935837393364	0.0511538590751893
0.553825426589868	-0.801734483383077	0	0	0.0623475035204492	0.0242145138711502	0	0
0	0	-0.574811074138988	0.676822013685881	0	0	-0.0274859978476374	-0.10702570462014
3.4	-0.0180202714322804	0.0200917640328931	0	0	0.785298044488467	0.558525045622227	0	0
0	0	-0.00516001104603922	-0.0395651068744101	0	0	-0.73277924350106	0.544539147241296
0.785298044488467	0.558525045622227	0	0	-0.115315363876146	0.00911695142987181	0	0
0	0	-0.857844879222449	-0.221337747181924	0	0	-0.0196760517543263	-0.0397824078029765
3.5	0.0232483402015819	-0.0123971056803993	0	0	0.572730485897269	-0.775965926797881	0	0
0	0	0.0069142306311136	-0.0298989082413034	0	0	0.295868187982691	-0.869935678236771
0.572730485897269	-0.775965926797881	0	0	-0.0124338499627321	-0.0536390283332154	0	0
0	0	0.169197134847331	0.843330001087054	0	0	0.0847321904744704	-0.0729122855208645
3.6	-0.025134687120215	0.0035553728194034	0	0	0.768910175815071	0.582134522133586	0	0
0	0	0.0184389511970582	0.00220895508070267	0	0	-0.211762974270961	-0.893927127946395
0.768910175815071	0.582134522133586	0	0	-0.0341157245294218	0.0607895538739561	0	0
0	0	-0.691624063098721	0.522040150952584	0	0	0.0445292972043416	-0.0317422390579749
3.7	0.0232295628959001	0.00591192019613565	0	0	0.600668303082283	-0.748315859819468	0	0
0	0	0.0129220357683914	0.0354775676476263	0	0	0.640693208633369	0.646845341224371
0.600668303082283	-0.748315859819468	0	0	0.118418562752852	0.00684926951270891	0	0
0	0	0.77125545876854	0.407259897809981	0	0	0.0552696918976584	-0.0192607899314036
3.8	-0.0184206611618071	-0.0135972888674659	0	0	0.741861889739597	0.619140524473741	0	0
0	0	0.0145101524572987	0.0495192347004566	0	0	0.870636199518548	0.183919943732667
0.741861889739597	0.619140524473741	0	0	-0.0251526470595332	0.0210095422578156	0	0
0	0	-0.013497028204392	0.870418327303043	0	0	-0.0583101339027516	-0.0248433374442962
3.9	0.0113320719238479	0.0180795889515412	0	0	0.623554365137527	-0.740593357391007	0	0
0	0	0.0107497821511617	0.0146968830693176	0	0	-0.821801860391636	0.32912528014847
0.623554365137527	-0.740593357391007	0	0	-0.0128784995893835	0.0831885966225585	0	0
0	0	0.780511583068739	-0.386798111573918	0	0	0.024790352772089	-0.00575859867177495
4	-0.00239187149789006	-0.0193063585767744	0	0	0.722198865983909	0.631930918871032	0	0
0	0	-0.0166842498621415	-0.0129201787330806	0	0	-0.513102701110015	0.724311657236415
0.722198865983909	0.631930918871032	0	0	0.050578405816242	-0.0743384719115244	0	0
0	0	0.683838130900191	0.513148089630877	0	0	-0.00457607396596498	0.00954301245242283
4.1	-0.00589711903212345	0.0172968640464394	0	0	0.637639537315237	-0.7087500669656	0	0
0	0	-0.0411497861829304	-0.035598782747963	0	0	0.0529008791511798	-0.889529434347694
0.637639537315237	-0.7087500669656	0	0	0.0245732232001017	-0.111659163061999	0	0
0	0	0.181554209629741	-0.826410659499321	0	0	0.0266214824492132	0.0813257494968263
4.2	0.0124210106690124	-0.0126781294444771	0	0	0.703476110077217	0.649202002298374	0	0
0	0	-0.0483641996849581	-0.015183827874904	0	0	-0.433419722587484	-0.777678282399057
0.703476110077217	0.649202002298374	0	0	-0.0399107938955033	0.016330771358336	0	0
0	0	0.828725680664715	-0.1854990368485	0	0	-0.0117889609476416	-0.0411945102962595
4.3	-0.0160847838312568	0.00568231620549051	0	0	0.658258824375742	-0.696486027228788	0	0
0	0	-0.00696551510279908	0.007236477168991	0	0	0.776390870045419	0.421703644326935
0.658258824375742	-0.696486027228788	0	0	-0.0109022660641051	0.0669900678603127	0	0
0	0	-0.53360815023239	-0.670822229922132	0	0	-0.0143457123995875	0.00232519830937836
4.4	0.0162482344052816	0.00272161652259323	0	0	0.679301633707194	0.668291096325617	0	0
0	0	0.0381786285060365	0.00487710272515223	0	0	0.885515710600449	-0.0540940088096055
0.679301633707194	0.668291096325617	0	0	0.00124136780345734	-0.0498857652563802	0	0
0	0	0.344414569564424	-0.770156537828998	0	0	-0.0335099538843688	0.00334101884624947
4.5	-0.0129589047675832	-0.0103186705535341	0	0	0.67536355027231	-0.661066780105588	0	0
0	0	0.0643718773065464	-0.00415424987617913	0	0	-0.720337518292054	0.521880586925522
0.67536355027231	-0.661066780105588	0	0	-0.0496009544244381	0.0265935068049783	0	0
0	0	-0.833033480710975	0.0113841659564328	0	0	-0.0857591647116166	0.0619251356652365
4.6	0.00680258717500012	0.0159136746825927	0	0	0.643154195371385	0.690591684737563	0	0
0	0	0.0460178091308755	-0.0248853758518809	0	0	-0.312739785289385	0.842439520378439
0.643154195371385	0.690591684737563	0	0	-0.0036945994379648	0.0140571576302026	0	0
0	0	-0.370660188977976	-0.743273401436717	0	0	-0.0799252950565779	-0.0092784785306738
4.7	0.00109802458279419	-0.0183313624513178	0	0	0.708354755150447	-0.636463819576157	0	0
0	0	-0.0253254276214253	-0.00567080853382208	0	0	-0.190288625550363	-0.872669051959269
0.708354755150447	-0.636463819576157	0	0	0.0658510825202397	-0.0173504427989026	0	0
0	0	-0.523864606753936	0.65438445100005	0	0	-0.0729843940933724	0.0724514994381486
4.8	-0.0096958507338417	0.0172800295884109	0	0	0.636864150970917	0.724761160685824	0	0
0	0	-0.059300345124228	0.0336352350151152	0	0	-0.606144290712237	-0.634529993319439
0.636864150970917	0.724761160685824	0	0	0.0534402110685566	-0.0182033292985896	0	0
0	0	-0.826710565132564	-0.197383769192195	0	0	-0.00902155680534299	0.072174665461314
4.9	0.0172682114084831	-0.012120776225952	0	0	0.731105902097406	-0.629147484322427	0	0
0	0	-0.0401339572150021	0.0577363330683625	0	0	0.853959282889904	0.207199504937384
0.731105902097406	-0.629147484322427	0	0	-0.0802120156127132	-0.0290631576698764	0	0
0	0	0.198751595441428	0.821012634186062	0	0	-0.0831970719561851	0.00422869452018739
5	-0.0218670457356996	0.00401789132301879	0	0	0.6184762546462	0.726657930632132	0	0
0	0	-0.000304677936451131	0.0193576603496632	0	0	0.83086522842218	-0.298208259611573
0.6184762546462	0.726657930632132	0	0	-0.0471480450550123	0.0405879830195096	0	0
0	0	-0.645063426479143	0.533727105634267	0	0	0.0417997121419175	-0.00871199491975341
5.1	0.0232648101982396	0.00602720027925017	0	0	0.72800809975094	-0.60609552367636	0	0
0	0	0.0388790067864253	-0.034421751003588	0	0	-0.533080636250633	0.695553940150853
0.72800809975094	-0.60609552367636	0	0	-0.0212319935602245	-0.0416451374961367	0	0
0	0	0.749910469052633	0.34464965056794	0	0	0.0728970409830477	-0.0194219661978468
5.2	-0.0209182340398533	-0.0172872139825218	0	0	0.584107427200523	0.745614130593877	0	0
0	0	0.0167840579580158	-0.0750542467554788	0	0	-0.0782384692840638	0.871649834831516
0.584107427200523	0.745614130593877	0	0	0.0385861588346762	0.0221340871364425	0	0
0	0	0.0156494545055544	0.832221075255809	0	0	0.0271923901861556	0.0665548675064088
5.3	0.0148463749945563	0.0269312004806884	0	0	0.764132560082682	-0.572337035008513	0	0
0	0	-0.0134196894451598	-0.0417186688604308	0	0	-0.412600956088205	-0.770643058860506
0.764132560082682	-0.572337035008513	0	0	-0.0319386614535477	0.0244088355468258	0	0
0	0	0.74266550469101	-0.374634990422263	0	0	-0.0430049361670223	0.0119899039321378
5.4	-0.00587314264459472	-0.0327619887098612	0	0	0.564235883454012	0.76893547850192	0	0
0	0	-0.030682555437851	0.0146900396827303	0	0	-0.767263487435956	-0.42772614088166
0.564235883454012	0.76893547850192	0	0	0.0705585353492827	0.0873106384580442	0	0
0	0	0.657473363258484	0.509372779664382	0	0	-0.0091496921028409	0.0217478973122688
5.5	-0.0050919886941174	0.0349875927062882	0	0	0.779752394945509	-0.561489517988483	0	0
0	0	0.0235565747631366	0.0605697739217709	0	0	0.876890857693523	-0.0449181887267198
0.779752394945509	-0.561489517988483	0	0	-0.0065639714466867	-0.0278777160066269	0	0
0	0	0.157173842420209	-0.816442084499925	0	0	0.0217840021008297	0.0383477535407513
5.6	0.0168929256465139	-0.032419929340544	0	0	0.547251211439446	0.785284803979354	0	0
0	0	0.0422943844941338	0.0574672018366524	0	0	0.697335017941255	-0.508479112771329
0.547251211439446	0.785284803979354	0	0	0.00199567472866261	-0.109587326516458	0	0
0	0	0.799099118171703	-0.202463861304417	0	0	0.0113038800022583	0.117366501193014
5.7	-0.0277509507152316	0.0260247691705748	0	0	0.798324766952257	-0.538981614080255	0	0
0	0	0.0202141194029834	-0.0060897042931418	0	0	-0.317298363869526	0.806811377911373
0.798324766952257	-0.538981614080255	0	0	-0.0117625132384622	0.051331176519781	0	0
0	0	-0.535832950035602	-0.648102708724189	0	0	0.0588196894548763	0.0345516090231929
5.8	0.0344363578490983	-0.0156586814905958	0	0	0.52130863791383	0.798187610547532	0	0
0	0	-0.022671663909975	-0.0306379480883685	0	0	0.155556413844606	0.852686196329904
0.52130863791383	0.798187610547532	0	0	0.0592043883157816	-0.0276734123972653	0	0
0	0	0.323471102063905	-0.770238244763944	0	0	0.0343750005828738	0.0554980129519815
5.9	-0.0372830143634504	0.00252256132430731	0	0	0.81206519721926	-0.498043887539158	0	0
0	0	-0.0567919442546508	-0.0263941225740077	0	0	-0.584776392037918	-0.636885862844131
0.81206519721926	-0.498043887539158	0	0	-0.0732603464320815	0.0427769930027361	0	0
0	0	-0.826059980808879	0.0598306866607444	0	0	0.037927098705965	0.0721846905774805
6	0.0357592464150229	0.0106839042135503	0	0	0.481773435915609	0.825436894899795	0	0
0	0	-0.0344588289404437	0.00586853989893252	0	0	-0.846974360772021	-0.194478083640406
0.481773435915609	0.825436894899795	0	0	-0.00322596130942415	0.0231013401867647	0	0
