# GHZ S RI R 50
0.2	-0.00648579599107785	0.0121273599081893	0	0	0.957665779890947	0.058436402348064	0	0
0	0	0.0189166415068464	0.00568966047759744	0	0	-0.370750454625563	0.910945291224455
0.957665779890947	0.058436402348064	0	0	0.0207479117074369	0.0400738092629004	0	0
0	0	0.569876878204416	-0.753796908325452	0	0	0.00130887687060187	-0.0336649869730552
0.3	0.00659157531238791	-0.0105974097165927	0	0	0.0341597202804371	-0.965010279752807	0	0
0	0	-0.00596311658446106	0.00191773173648484	0	0	-0.13357382171965	-0.974234791055667
0.0341597202804371	-0.965010279752807	0	0	-0.0149429103213777	0.00321363321431547	0	0
0	0	-0.9218471973716	-0.202772318222744	0	0	-0.0333954883492363	-0.0186629547800762
0.4	-0.00889737382651145	0.00789466737588911	0	0	0.948497191422609	0.0630490725512282	0	0
0	0	-0.0393936720905003	0.000693469059662493	0	0	-0.666361267834262	-0.726540239642425
0.948497191422609	0.0630490725512282	0	0	-0.0351379667412706	-0.0146314300266477	0	0
0	0	-0.234206507349218	-0.896103854548051	0	0	0.0206176347046367	0.0192272597454328
0.5	0.0117538972942497	-0.00430866728314736	0	0	0.129178634751919	-0.948931303980987	0	0
0	0	-0.0324695151802934	0.00438704701657427	0	0	0.963974445998504	0.208666456806374
0.129178634751919	-0.948931303980987	0	0	0.0359382340601122	0.016594944000706	0	0
0	0	-0.679823476115816	0.635818059901487	0	0	0.00438022362500418	0.00748738557522783
0.6	-0.0128612330779963	0.00162051579921068	0	0	0.955490659199148	0.1331650970868	0	0
0	0	-0.00749171276780868	0.00564954698184477	0	0	0.913983143445126	-0.327985408614773
0.955490659199148	0.1331650970868	0	0	0.00465066948220541	-0.019710398511227	0	0
0	0	-0.861909022406601	-0.346737253809399	0	0	-0.00567535651550804	-0.00724149296501523
0.7	0.0125295582479025	0.000607273142889315	0	0	0.111116240048456	-0.958708932329958	0	0
0	0	0.0236661366792887	-0.0112041105807408	0	0	-0.613649051824941	0.748030106458686
0.111116240048456	-0.958708932329958	0	0	0.00797480341200273	0.00977118458415412	0	0
0	0	0.0439114175336406	0.921713540122253	0	0	0.00230384441791752	-0.0130832913423935
0.8	-0.0109999159588791	-0.00354844514094872	0	0	0.956839576294503	0.115886468123259	0	0
0	0	0.0452359656993587	-0.0418183473760805	0	0	-0.122881855534643	0.962533529185014
0.956839576294503	0.115886468123259	0	0	-0.0227278534407687	0.0122900700906285	0	0
0	0	-0.814217580587112	0.447706573132482	0	0	0.00633201655600546	0.0833852519880502
0.9	0.00792579644963747	0.00645051884765042	0	0	0.147341833305283	-0.942398866815229	0	0
0	0	0.0140574928423524	-0.0275512716038542	0	0	-0.433957002512128	-0.86963914629935
0.147341833305283	-0.942398866815229	0	0	-0.00210042159644631	-0.0628397596247621	0	0
0	0	0.765296564317089	0.528359129261717	0	0	0.0363146305453423	0.013458979251313
1	-0.00445113777611068	-0.00839277779736868	0	0	0.94592206951662	0.183878795481847	0	0
0	0	-0.0139598646084144	0.0120696516738233	0	0	-0.840885936644893	-0.48466849932597
0.94592206951662	0.183878795481847	0	0	0.00187371597556488	0.0417866498509416	0	0
0	0	-0.128296983994546	0.905975749502979	0	0	0.00279130278731812	0.00156318538303666
1.1	0.00117181372926245	0.00859580414527541	0	0	0.203425319518467	-0.953664077943218	0	0
0	0	-0.0116929554836783	0.0351899095510804	0	0	0.960972694006748	-0.0504170275686844
0.203425319518467	-0.953664077943218	0	0	0.00238570079018333	0.00166469903598286	0	0
0	0	0.8733550455515	-0.260743633517599	0	0	0.00795404451412668	0.0432338844995889
1.2	0.00127822103024921	-0.00703645671575414	0	0	0.964057421854466	0.203862218155734	0	0
0	0	0.00819161786386739	0.0644844460541284	0	0	0.775122339906187	-0.557655403946773
0.964057421854466	0.203862218155734	0	0	0.052901418169595	-0.000163493498585549	0	0
0	0	0.617169009471434	0.674981322451666	0	0	0.00616767426051454	0.101035975727885
1.3	-0.00303251846358051	0.00372863437851924	0	0	0.205628625145793	-0.948277529850917	0	0
0	0	0.0154441091065957	0.0185939809672739	0	0	-0.356162438042871	0.888362118698259
0.205628625145793	-0.948277529850917	0	0	-0.0559540190036534	0.00131063345367753	0	0
0	0	0.323051992664755	-0.864237326163077	0	0	0.0398569136336311	0.0151860990786377
1.4	0.00371741334938746	5.64602455519372E-05	0	0	0.930212056302829	0.233094807219334	0	0
0	0	-0.0138983327191255	-0.0444502123253394	0	0	0.18232229321843	0.942050792216429
0.930212056302829	0.233094807219334	0	0	0.0164240549372507	0.00891794514815841	0	0
0	0	0.903460916575193	-0.0861783573212158	0	0	0.0442207302768441	-0.00601066269452633
1.5	-0.00280561522359401	-0.00313139957375415	0	0	0.269770898851387	-0.928296251578542	0	0
0	0	-0.0386797504714915	-0.057340737457183	0	0	-0.679990021535527	-0.676770312869471
0.269770898851387	-0.928296251578542	0	0	0.0324238735067636	-0.0324323306937915	0	0
0	0	-0.465961431859868	-0.769896741417873	0	0	0.0332515802283597	0.0531468188334942
1.6	0.000705535807679375	0.00496362995140658	0	0	0.94304660744683	0.292724822113961	0	0
0	0	-0.0365244097992026	-0.0208244268040841	0	0	-0.941584304919256	-0.181034563763447
0.94304660744683	0.292724822113961	0	0	-0.0526257508253594	-0.0258001307975306	0	0
0	0	0.496763879959815	-0.759046429774934	0	0	0.00100224257172343	0.053635335073984
1.7	0.00194919864301282	-0.00511924096922743	0	0	0.286702146044292	-0.947926981824247	0	0
0	0	0.0155416850171062	0.00510483007592543	0	0	0.88644076186597	-0.348434084877504
0.286702146044292	-0.947926981824247	0	0	-0.00115262767056586	0.00614963549424447	0	0
0	0	-0.903978123378968	-0.107828153611036	0	0	0.0398547962947701	-0.0304477728026228
1.8	-0.00448061827325378	0.00341089632141866	0	0	0.921177935703822	0.287372218929325	0	0
0	0	0.0456991450548626	0.0370314734809797	0	0	0.571523493294777	-0.750145312570683
0.921177935703822	0.287372218929325	0	0	0.00717204560601439	0.066098841309563	0	0
0	0	-0.314593614053597	-0.849968259607604	0	0	0.0273822601006116	-0.033966388370755
1.9	0.00635297480033986	-0.000209573156517476	0	0	0.316503761317955	-0.896931734374744	0	0
0	0	0.0532598235693012	-0.00438291346957212	0	0	-0.0794972822749719	0.94312346149236
0.316503761317955	-0.896931734374744	0	0	0.00989993719344505	0.0092826812246084	0	0
0	0	-0.613161465272155	0.649103708458987	0	0	0.0412603707301892	0.023575460816214
2	-0.00679076603567231	-0.00389124972509734	0	0	0.893050184074271	0.346947420943706	0	0
0	0	0.0157268022740018	-0.00514015878009551	0	0	0.460699060657835	0.831703884659339
0.893050184074271	0.346947420943706	0	0	-0.050103601973269	-0.032687090886285	0	0
0	0	-0.845743738666073	-0.26085622837026	0	0	-0.0531897658290662	-0.0206751702330971
2.1	0.00548464057116615	0.00808953670008907	0	0	0.362079881615358	-0.899084156526691	0	0
0	0	-0.0285382302263243	0.00816101573547363	0	0	-0.831269110608809	-0.449537317186677
0.362079881615358	-0.899084156526691	0	0	0.0706844269101651	0.0162073780418541	0	0
0	0	0.137903481565787	0.878677917366464	0	0	-0.00498778740032993	0.00984768509358613
2.2	-0.00202810474617955	-0.0116921715710684	0	0	0.898982006888133	0.374507995679745	0	0
0	0	-0.0476684024248629	0.0178301437146489	0	0	-0.931461781060003	0.0704572275230035
0.898982006888133	0.374507995679745	0	0	0.0146158972706285	-0.0106668235967669	0	0
0	0	-0.73563391608991	0.507254047434188	0	0	0.0424592568601026	-0.0112870110612131
2.3	-0.0031867696381875	0.0136377336641073	0	0	0.384970477300871	-0.889557351072616	0	0
0	0	-0.0302122972029907	0.0200196567477519	0	0	0.735603489791239	-0.555867795918469
0.384970477300871	-0.889557351072616	0	0	0.0580055712378017	-0.0286400699409023	0	0
0	0	0.776013530149102	0.431155043766975	0	0	0.0667366898857796	0.0464805742089607
2.4	0.00939306230836889	-0.0133901639074087	0	0	0.877924437525766	0.397513132043568	0	0
0	0	-0.000521180822906429	0.00160715478481966	0	0	0.323866116787538	-0.867688421191654
0.877924437525766	0.397513132043568	0	0	-0.0965589610900166	0.0142802481453099	0	0
0	0	-0.0388873993248688	0.882223161867148	0	0	0.0470804353218868	-0.049062061500153
2.5	-0.0158815803422356	0.0106005512640357	0	0	0.415156248020162	-0.866592270930861	0	0
0	0	0.0191357820186785	-0.0357670310916584	0	0	0.189322133985823	0.917640355678702
0.415156248020162	-0.866592270930861	0	0	-0.00978014214329755	-0.0268853924241123	0	0
0	0	0.80505896274935	-0.332071630035025	0	0	0.0126337128594325	-0.000670639603522593
2.6	0.0213996138357855	-0.00564371642659328	0	0	0.860036096115776	0.429839005849321	0	0
0	0	0.0178915465235352	-0.038879781151401	0	0	0.667331656027518	0.654196898102024
0.860036096115776	0.429839005849321	0	0	0.00602286273666274	-0.0335040648845492	0	0
0	0	0.630733325921712	0.597822063090052	0	0	0.0626845286219152	0.0102202340615335
2.7	-0.0250322078341803	-0.00111234742782646	0	0	0.444865894881954	-0.854777161627269	0	0
0	0	0.0211875115022357	-0.00995425027535045	0	0	-0.898639862367833	-0.1747580070891
0.444865894881954	-0.854777161627269	0	0	0.00373116500803529	-0.0131133252178151	0	0
0	0	0.276544272761158	-0.836492076077506	0	0	-0.0273863787781662	-0.000921780861623842
2.8	0.0256475214788115	0.0088068489734115	0	0	0.845148305720203	0.458600913207041	0	0
0	0	0.00970486353160067	0.0120286994575325	0	0	-0.844145491057145	0.31298172592818
0.845148305720203	0.458600913207041	0	0	0.00455846696910315	0.0639165557759011	0	0
0	0	0.873485122694399	-0.150223630921209	0	0	0.0263385922780807	-0.0640435958351069
2.9	-0.0226327272731226	-0.0165409936436173	0	0	0.474785438129445	-0.826939117179867	0	0
0	0	4.49447168760488E-06	0.0359644062134075	0	0	0.568865899238332	-0.70285783715737
0.474785438129445	-0.826939117179867	0	0	-0.053472767247042	0.0340710526747189	0	0
0	0	-0.516805209241037	-0.70462680164284	0	0	-0.0403846393490151	-0.0463734621046206
3	0.016844044391349	0.0234503427272858	0	0	0.81898958943272	0.498940997726591	0	0
0	0	-0.0105963894070576	0.0289748483015447	0	0	0.0911159844415265	-0.923413799499764
0.81898958943272	0.498940997726591	0	0	-0.00669116241836113	-0.0180870711887264	0	0
0	0	0.407250623776808	-0.763620319158705	0	0	0.0138959034545922	0.0864555229434656
3.1	-0.00847529306327074	-0.0276835840985385	0	0	0.519413473311726	-0.809708228103322	0	0
0	0	-0.0195986805595602	0.0122129564308629	0	0	0.451410147010138	0.808864893961881
0.519413473311726	-0.809708228103322	0	0	0.0388644587252361	-0.0653614359337842	0	0
0	0	-0.872696606508204	-0.0487009589979325	0	0	-0.075930716803347	0.00667782167522882
3.2	-0.00099401751934589	0.0293377826040411	0	0	0.808936813239907	0.54265873596233	0	0
0	0	-0.0171269898634574	-0.00564484227311905	0	0	0.802382821555232	0.436659923262542
0.808936813239907	0.54265873596233	0	0	0.000840082864891314	0.0253293485963624	0	0
0	0	-0.341000584704008	-0.81623749214405	0	0	-0.0596104495681832	0.00736050046244458
3.3	0.0102127095473598	-0.0270736345907214	0	0	0.553183100105991	-0.805319534912539	0	0
0	0	-0.000743169787388018	-0.0231620455447604	0	0	-0.908109590662087	0.0538432078958817
0.553183100105991	-0.805319534912539	0	0	0.0626781510422829	0.0239988133808709	0	0
0	0	-0.57437055861655	0.680177268542126	0	0	-0.028337385328395	-0.10741298659044
3.4	-0.0178888194876916	0.021161160559031	0	0	0.788841565549145	0.557022742827138	0	0
0	0	-0.00419703351563702	-0.039655691077253	0	0	-0.732506561130503	0.548225639290886
0.788841565549145	0.557022742827138	0	0	-0.115740581834445	0.00996342258164989	0	0
0	0	-0.860462125788648	-0.218884620908304	0	0	-0.0200254090341599	-0.0397978305416172
3.5	0.023177703461565	-0.0134028763717681	0	0	0.57055871779455	-0.77956990689243	0	0
0	0	0.00771738359874622	-0.0295267312234754	0	0	0.292900655288632	-0.8726267820783
0.57055871779455	-0.77956990689243	0	0	-0.0128056618678236	-0.053726340693236	0	0
0	0	0.172864117518643	0.844114480991281	0	0	0.0845175954057806	-0.0738537946106151
3.6	-0.0250723407230257	0.00464245230238982	0	0	0.772130007064446	0.579330442850501	0	0
0	0	0.0189575527148105	0.00301356805193818	0	0	-0.215894003073033	-0.893853911229965
0.772130007064446	0.579330442850501	0	0	-0.0335384653564067	0.0611430747563225	0	0
0	0	-0.689993468432721	0.52557980909292	0	0	0.0444149473516253	-0.0322644527601033
3.7	0.0230490545926974	0.00477971737698418	0	0	0.597404929578516	-0.751299673910393	0	0
0	0	0.0130635758234297	0.0364870632874007	0	0	0.643766036290576	0.643998149372658
0.597404929578516	-0.751299673910393	0	0	0.118592497190238	0.005691097827063	0	0
0	0	0.773246524085041	0.403775571654849	0	0	0.0551392912098174	-0.0198581072689134
3.8	-0.0180575199440402	-0.0125861789930775	0	0	0.744156689008793	0.615291957100692	0	0
0	0	0.0143627023118525	0.0504312708596219	0	0	0.870752854145677	0.179765498675434
0.744156689008793	0.615291957100692	0	0	-0.024935162531702	0.021162909230019	0	0
0	0	-0.00948617585144357	0.86975207341651	0	0	-0.0584706774577694	-0.0243268334917603
3.9	0.01094357334309	0.0173505519547843	0	0	0.619430221461108	-0.742151802364366	0	0
0	0	0.0103970229417165	0.0153139473890301	0	0	-0.81910018267394	0.332186525549363
0.619430221461108	-0.742151802364366	0	0	-0.0122006295393188	0.0830400482237775	0	0
0	0	0.777623224135226	-0.389590713669705	0	0	0.0245795048346101	-0.00596613780641136
4	-0.00221825415099829	-0.0187618332541145	0	0	0.723102567319571	0.627663139740242	0	0
0	0	-0.01714715895224	-0.0127340817341709	0	0	-0.509116526247599	0.724660730270672
0.723102567319571	0.627663139740242	0	0	0.0496442702908643	-0.074364459431227	0	0
0	0	0.684279457999594	0.509319325721147	0	0	-0.00459726900322214	0.00957728230211854
4.1	-0.00586881602489514	0.0167282951801702	0	0	0.63348858774039	-0.708936387505161	0	0
0	0	-0.0415804531053127	-0.0358468596878273	0	0	0.0498667286182308	-0.887193712104988
0.63348858774039	-0.708936387505161	0	0	0.0235726879456929	-0.111118765017598	0	0
0	0	0.178362141925054	-0.824670114347769	0	0	0.0268929497697859	0.0807816125859546
4.2	0.0123576481533596	-0.0120111020379481	0	0	0.702919776886761	0.645331259193296	0	0
0	0	-0.0486158903200633	-0.0157016845482628	0	0	-0.434079806219225	-0.77406929832104
0.702919776886761	0.645331259193296	0	0	-0.0396418412796925	0.0165394085717701	0	0
0	0	0.82560418099726	-0.187081291020272	0	0	-0.0119824810564253	-0.040764560858166
4.3	-0.0160808706921568	0.00504769346748935	0	0	0.65486263366452	-0.695370954197376	0	0
0	0	-0.00696507979698509	0.00669248690676335	0	0	0.774582019739877	0.418885458453366
0.65486263366452	-0.695370954197376	0	0	-0.0105716316232548	0.0666488157953685	0	0
0	0	-0.533060530890465	-0.667619859865489	0	0	-0.0142111827994347	0.00242241571729106
4.4	0.0161846023007593	0.00319364653746968	0	0	0.677892026564495	0.665416722424338	0	0
0	0	0.0384218275461139	0.00453890262821344	0	0	0.882595115222123	-0.054881363524153
0.677892026564495	0.665416722424338	0	0	0.0012110701730742	-0.0496104915388903	0	0
0	0	0.342464656922034	-0.768041769478012	0	0	-0.0332001194175937	0.00334481897046987
4.5	-0.012676471141869	-0.0106917992565017	0	0	0.673109235180903	-0.659447006687275	0	0
0	0	0.0647784020916785	-0.0041267832040297	0	0	-0.717974459422912	0.520655361804641
0.673109235180903	-0.659447006687275	0	0	-0.0492045778664776	0.026306100434064	0	0
0	0	-0.830563146505989	0.0117196537756287	0	0	-0.0851350360323974	0.0614487304122228
4.6	0.00627936438404921	0.0163799930846901	0	0	0.641559191477288	0.688970295467771	0	0
0	0	0.0464563647318638	-0.0244657940288266	0	0	-0.31196252848978	0.840370461267565
0.641559191477288	0.688970295467771	0	0	-0.00368565684519552	0.0136809786639394	0	0
0	0	-0.369755621828571	-0.741441720248116	0	0	-0.0795722478472486	-0.00954123368420788
4.7	0.00171036315873067	-0.019001075538002	0	0	0.707364384894277	-0.635083650330221	0	0
0	0	-0.0250511636672624	-0.00495042647829668	0	0	-0.189624905664174	-0.871044273067832
0.707364384894277	-0.635083650330221	0	0	0.0654958658597644	-0.0176260028901037	0	0
0	0	-0.523072083895833	0.652940465661718	0	0	-0.07293782591029	0.0717681207984975
4.8	-0.0102539284390232	0.0180931233500782	0	0	0.63585305338911	0.724236512481174	0	0
0	0	-0.0593490891824126	0.0344549775097404	0	0	-0.605097876928553	-0.634018502297649
0.63585305338911	0.724236512481174	0	0	0.0530566831904834	-0.0184737563199729	0	0
0	0	-0.825590439023617	-0.197517983901004	0	0	-0.00938210116866968	0.0716652789096498
4.9	0.0177811289631023	-0.0129105160181345	0	0	0.730775717899648	-0.628627839074462	0	0
0	0	-0.0405365199914952	0.0584109855808933	0	0	0.853361185637496	0.207220786695017
0.730775717899648	-0.628627839074462	0	0	-0.0804673562656958	-0.0293701771357621	0	0
0	0	0.198470181923889	0.820510845766723	0	0	-0.0834946095919707	0.00392388179499786
5	-0.0224332676723846	0.00480774591236548	0	0	0.618499952199902	0.726500109115252	0	0
0	0	-0.00103513988911929	0.0197284866897934	0	0	0.830797803512666	-0.298333268256498
0.618499952199902	0.726500109115252	0	0	-0.0475529035032158	0.0403702980702851	0	0
0	0	-0.644963002055804	0.533816890826566	0	0	0.0413446654198777	-0.00890095838901836
5.1	0.0238430521808329	0.00509910299619449	0	0	0.727753317546505	-0.606819515615569	0	0
0	0	0.037970871556034	-0.0344231287925865	0	0	-0.53275483941808	0.69618812516706
0.727753317546505	-0.606819515615569	0	0	-0.021777875257783	-0.0417424187964045	0	0
0	0	0.750425031434926	0.344218267697028	0	0	0.0724336624351437	-0.019591826405361
5.2	-0.0213673831421392	-0.016251453081515	0	0	0.585366308294411	0.745157834181324	0	0
0	0	0.0158971545312206	-0.0753906014208207	0	0	-0.077092990395991	0.872062551608024
0.585366308294411	0.745157834181324	0	0	0.0382022148359792	0.0220937957263647	0	0
0	0	0.0167749832802784	0.832493530798185	0	0	0.0269389353639494	0.0666285401915932
5.3	0.0151050168304874	0.025971093988227	0	0	0.763109684396777	-0.574035057246874	0	0
0	0	-0.014045629598924	-0.042266617464586	0	0	-0.414295626015414	-0.769862378123758
0.763109684396777	-0.574035057246874	0	0	-0.0322422098328249	0.0247286480089266	0	0
0	0	0.741962142835133	-0.37626520084407	0	0	-0.043321824752899	0.01239895475606
5.4	-0.00609824362752702	-0.0320367390024569	0	0	0.566225084943311	0.767333884814926	0	0
0	0	-0.0308687555174799	0.0140708262157974	0	0	-0.76825695877519	-0.42550504955523
0.566225084943311	0.767333884814926	0	0	0.0707689266948775	0.0871213749235173	0	0
0	0	0.658718827074882	0.507434751079833	0	0	-0.00923388308812745	0.0220320201063989
5.5	-0.00467906144807635	0.0343786242886035	0	0	0.777268632617816	-0.563575784855932	0	0
0	0	0.0238537083427909	0.0600455684081916	0	0	0.875990149450223	-0.0477265067277219
0.777268632617816	-0.563575784855932	0	0	-0.00685251885000735	-0.0276225963816002	0	0
0	0	0.154387811068909	-0.816249542267077	0	0	0.0218899739546228	0.0383120847786863
5.6	0.0162973547348984	-0.0317109539692379	0	0	0.549231867493824	0.782034003240519	0	0
0	0	0.0429688123263397	0.0571758272427698	0	0	0.694370116196761	-0.510026822370677
0.549231867493824	0.782034003240519	0	0	0.00110086598668321	-0.109169209126495	0	0
0	0	0.7970220804586	-0.2048911281765	0	0	0.0119793064155544	0.116972213985788
5.7	-0.0271901764945684	0.0250892457346371	0	0	0.794381750928425	-0.54039935086843	0	0
0	0	0.021097105308388	-0.00610998932606896	0	0	-0.313611188201613	0.805899067143086
0.794381750928425	-0.54039935086843	0	0	-0.0115108775900803	0.0511675390202587	0	0
0	0	-0.536789688003065	-0.644544810565088	0	0	0.0585883561908288	0.0340060303693393
5.8	0.0341204141148004	-0.0146830031057412	0	0	0.522229578601702	0.793720091960915	0	0
0	0	-0.0218580899327071	-0.0304175217868446	0	0	0.157858754961003	0.849198414946759
0.522229578601702	0.793720091960915	0	0	0.0583032408413759	-0.0277526411605948	0	0
0	0	0.319775832742922	-0.768635241215701	0	0	0.03421276010385	0.0550605042620208
5.9	-0.0371634015730368	0.00174469835497164	0	0	0.807146939985589	-0.498136088100897	0	0
0	0	-0.0562588222049991	-0.0260296048792467	0	0	-0.58405592451137	-0.63246850041695
0.807146939985589	-0.498136088100897	0	0	-0.0727676385509374	0.04316761131208	0	0
0	0	-0.82231576251016	0.0619191098270905	0	0	0.0376851286967686	0.0717502870586762
6	0.0356364349408708	0.0111521654254846	0	0	0.481093248990295	0.820301733154878	0	0
0	0	-0.0343145153528826	0.00624516587502794	0	0	-0.843057816065044	-0.191678078443148
0.481093248990295	0.820301733154878	0	0	-0.00341339937118916	0.0234768910489538	0	0
