# GHZ S RI R 50
0.2	-0.00696957912609311	0.0124508163020196	0	0	0.957650403281074	0.0584162055432376	0	0
0	0	0.0183652086648095	0.00548094691385071	0	0	-0.370740021824882	0.910951147867953
0.957650403281074	0.0584162055432376	0	0	0.0213860914162071	0.0395335947891235	0	0
0	0	0.569868644213936	-0.75380493007603	0	0	0.00192175915342614	-0.0342266506481811
0.3	0.00674823791720233	-0.0108457035407477	0	0	0.034129585621864	-0.965019385954351	0	0
0	0	-0.00619975610261886	0.00174384264876676	0	0	-0.133614816280869	-0.974218602706445
0.034129585621864	-0.965019385954351	0	0	-0.0146186766000685	0.00256247007609446	0	0
0	0	-0.921846210806241	-0.202730023439086	0	0	-0.0331100822320225	-0.0193275953935943
0.4	-0.00892509210284374	0.00783660781075052	0	0	0.948491145985411	0.0630090253887665	0	0
0	0	-0.039327247679261	0.000695964857214707	0	0	-0.666373671789387	-0.726489144539952
0.948491145985411	0.0630090253887665	0	0	-0.0350981315222055	-0.015206737396195	0	0
0	0	-0.234239255122402	-0.896066871383063	0	0	0.0206147099677087	0.0186452932343587
0.5	0.0118584088161407	-0.00393477705685338	0	0	0.129109772973765	-0.948902751114164	0	0
0	0	-0.032141316007844	0.00459919598267943	0	0	0.963951712224804	0.208610887826627
0.129109772973765	-0.948902751114164	0	0	0.0358192766516849	0.0162050399160525	0	0
0	0	-0.679768146788782	0.635830277214591	0	0	0.00422704976242118	0.00711504563067815
0.6	-0.0132547317292451	0.00109711393606281	0	0	0.955421376567915	0.133124197541088	0	0
0	0	-0.00704389305583834	0.00610480413203373	0	0	0.913925935093116	-0.328016010993194
0.955421376567915	0.133124197541088	0	0	0.00453491601084573	-0.019882680254642	0	0
0	0	-0.861887587651902	-0.346678999980568	0	0	-0.00580820509763944	-0.00740130030189451
0.7	0.0132326722672811	0.000972555103595521	0	0	0.111078006174424	-0.958626384666769	0	0
0	0	0.0240695214082838	-0.010554446974391	0	0	-0.6135654696958	0.748015267218875
0.111078006174424	-0.958626384666769	0	0	0.00799528812299836	0.00971420736341492	0	0
0	0	0.0439610850584448	0.921649603968412	0	0	0.0023160696557033	-0.0131392398001627
0.8	-0.0117682600459882	-0.00361558061174953	0	0	0.956771765061984	0.115868792772335	0	0
0	0	0.0455160440767051	-0.041117416708838	0	0	-0.122736207632414	0.962459842656417
0.956771765061984	0.115868792772335	0	0	-0.0225288434731015	0.0121989317469305	0	0
0	0	-0.814078417385964	0.447777737933396	0	0	0.00652908806532217	0.0832508895241856
0.9	0.00849006553616586	0.00632042808137309	0	0	0.147379592380926	-0.942334252998633	0	0
0	0	0.0141839901864661	-0.0269831387901372	0	0	-0.433940228567478	-0.869488726397432
0.147379592380926	-0.942334252998633	0	0	-0.00180447505394594	-0.0631023883144678	0	0
0	0	0.765213037971808	0.528240820961076	0	0	0.0365507716580565	0.0131329462017102
1	-0.0047102813195164	-0.00828518128762495	0	0	0.945838961568822	0.183866894504926	0	0
0	0	-0.0139895125944884	0.0123452141836668	0	0	-0.840772791394073	-0.484584361812811
0.945838961568822	0.183866894504926	0	0	0.00209184821873408	0.041261513297121	0	0
0	0	-0.128263168178962	0.905847192565509	0	0	0.00291237247235971	0.00100672423401382
1.1	0.00121149680300221	0.00876366069679775	0	0	0.203409045992134	-0.953579415028026	0	0
0	0	-0.0118230134073454	0.0350833408207598	0	0	0.960845170352562	-0.0503863315232736
0.203409045992134	-0.953579415028026	0	0	0.00235168380216099	0.000966185856873357	0	0
0	0	0.873244503149833	-0.260686934397785	0	0	0.00777407260784569	0.0425347394372228
1.2	0.00116000635040619	-0.00755887644450904	0	0	0.963936531884997	0.203814881961024	0	0
0	0	0.00806856587861889	0.0640135365761972	0	0	0.775094906942285	-0.557590144159378
0.963936531884997	0.203814881961024	0	0	0.0525257152124308	-0.000870889257990639	0	0
0	0	0.617103861831336	0.67496252496264	0	0	0.00563944225997993	0.10039418210901
1.3	-0.00268156890909901	0.00436957557626427	0	0	0.205647978289644	-0.948176927910861	0	0
0	0	0.0154579207119851	0.0179024299342043	0	0	-0.356175290675146	0.888264249908852
0.205647978289644	-0.948176927910861	0	0	-0.0565295776850857	0.00072670827330178	0	0
0	0	0.323066603714201	-0.864143299165829	0	0	0.0391258781082399	0.0147485135071345
1.4	0.00326842395067412	-0.000576980242901828	0	0	0.930071246697294	0.23307661015527	0	0
0	0	-0.0136026795703733	-0.0451310468958162	0	0	0.182244306162986	0.941983309778095
0.930071246697294	0.23307661015527	0	0	0.015751318505901	0.0084527282636872	0	0
0	0	0.903390307569334	-0.0861110571421175	0	0	0.0434345582125221	-0.00629597809629908
1.5	-0.00225893506788995	-0.00246869894862247	0	0	0.269777184114375	-0.92811118452036	0	0
0	0	-0.0380978216892537	-0.0578922985692022	0	0	-0.679957982030591	-0.676771006632219
0.269777184114375	-0.92811118452036	0	0	0.0317068401013614	-0.032763172017828	0	0
0	0	-0.46593210770966	-0.769890126428438	0	0	0.0324465721824551	0.0530016577593966
1.6	-4.0573447759961E-05	0.00438407473671059	0	0	0.942927549659294	0.292778807932763	0	0
0	0	-0.0357630505145744	-0.0212034769484788	0	0	-0.941596224856668	-0.181045823152743
0.942927549659294	0.292778807932763	0	0	-0.0533286648866203	-0.0259398971059489	0	0
0	0	0.496778017337181	-0.759052816760618	0	0	0.00024282353294643	0.0537068259865681
1.7	0.00276664446959765	-0.00483116466765819	0	0	0.28673337527482	-0.947771009497058	0	0
0	0	0.0163048781177056	0.00495731067731421	0	0	0.88642592553449	-0.348376988235417
0.28673337527482	-0.947771009497058	0	0	-0.00177076737326661	0.00622917616680225	0	0
0	0	-0.903939792798679	-0.107869508494835	0	0	0.0392682785210481	-0.0301733091265561
1.8	-0.00510829715982985	0.00333935563064069	0	0	0.921023506925286	0.287374518243249	0	0
0	0	0.0462868447554073	0.0371255977893525	0	0	0.571526715900559	-0.750107889041021
0.921023506925286	0.287374518243249	0	0	0.00672832057670915	0.0662940355856561	0	0
0	0	-0.31456158372327	-0.849951610958134	0	0	0.0270227461368731	-0.0336111199353051
1.9	0.0067470654466558	-0.000138041105097668	0	0	0.316530851006754	-0.89679650369105	0	0
0	0	0.0535568410400494	-0.00411494628309585	0	0	-0.0794761615084842	0.943072697891904
0.316530851006754	-0.89679650369105	0	0	0.00964768245899036	0.00951145182285733	0	0
0	0	-0.613116035825807	0.649078672595742	0	0	0.0410903858233488	0.0238860422388364
2	-0.0070619791467493	-0.00409661234274244	0	0	0.892926989741207	0.346969683606538	0	0
0	0	0.0157044059187527	-0.00479260508456995	0	0	0.460679801927695	0.831680233863975
0.892926989741207	0.346969683606538	0	0	-0.0502252334109316	-0.0325197522095162	0	0
0	0	-0.845715556437729	-0.260852783584917	0	0	-0.0532619710373441	-0.0204586276950859
2.1	0.0057996592007492	0.00842436183228013	0	0	0.362046142532202	-0.898893461568263	0	0
0	0	-0.0288417802550102	0.0084868040022946	0	0	-0.831227851460258	-0.44950154059566
0.362046142532202	-0.898893461568263	0	0	0.0705334076972392	0.0163044724608255	0	0
0	0	0.137906714080705	0.878626621873337	0	0	-0.00507381491346709	0.00998983958102657
2.2	-0.00246428119976177	-0.0120133448115155	0	0	0.898772750614869	0.374495149934856	0	0
0	0	-0.0481302750584887	0.0180431368963807	0	0	-0.931366040329828	0.0704634424808569
0.898772750614869	0.374495149934856	0	0	0.0144375570628856	-0.0105719919167404	0	0
0	0	-0.73555181627258	0.507213027592673	0	0	0.0423137900299812	-0.0111285570952288
2.3	-0.00273198598929092	0.0137982411019971	0	0	0.384980904558638	-0.889297812172403	0	0
0	0	-0.0306589114704611	0.0200876763565751	0	0	0.735476622309637	-0.555822906763856
0.384980904558638	-0.889297812172403	0	0	0.0577647440690439	-0.028450018282732	0	0
0	0	0.775924581324465	0.431060823509239	0	0	0.0665738133730861	0.0467207367875049
2.4	0.00910122634081699	-0.0134035848198465	0	0	0.877696458000349	0.397507414111765	0	0
0	0	-0.000808396731321394	0.00155462012679482	0	0	0.323828518333977	-0.867550856614094
0.877696458000349	0.397507414111765	0	0	-0.0967248120162309	0.0145451045459344	0	0
0	0	-0.0388937047033875	0.882087331479594	0	0	0.046987933387227	-0.0486707889282677
2.5	-0.0158398363351833	0.0106409500734425	0	0	0.415177362348478	-0.866319263722139	0	0
0	0	0.0191087057328603	-0.035885584282192	0	0	0.189264169711662	0.91748474574212
0.415177362348478	-0.866319263722139	0	0	-0.00988610015050793	-0.0264717060491585	0	0
0	0	0.804926930305056	-0.331991705870785	0	0	0.0126937885975745	-0.000219943211166878
2.6	0.0215076771559979	-0.00586563470338688	0	0	0.859727651164257	0.429867917458622	0	0
0	0	0.0181203357480634	-0.0389659081599421	0	0	0.667168575833052	0.654108936989903
0.859727651164257	0.429867917458622	0	0	0.00602839326636719	-0.0330331097012882	0	0
0	0	0.630580315784017	0.597742830837411	0	0	0.0628687174674078	0.0106680602878833
2.7	-0.0251348590281555	-0.00071627058826722	0	0	0.444917786328447	-0.854440441316088	0	0
0	0	0.0215695133832815	-0.00991764168024159	0	0	-0.898453714834951	-0.174843530609373
0.444917786328447	-0.854440441316088	0	0	0.0038234904393457	-0.012665635604403	0	0
0	0	0.27660318404235	-0.836303939795038	0	0	-0.0270736979011733	-0.00054190873201717
2.8	0.0257112551905533	0.00833450984494976	0	0	0.844826612509632	0.458672133737771	0	0
0	0	0.0100892173526584	0.0122516879631223	0	0	-0.844012949769056	0.31277123715458
0.844826612509632	0.458672133737771	0	0	0.00467288235609921	0.0642817289139307	0	0
0	0	0.873318797480245	-0.150043907286817	0	0	0.026696777871928	-0.0636947827768168
2.9	-0.0227097264845095	-0.0160055222861123	0	0	0.474918490060153	-0.826614020281671	0	0
0	0	0.000239180223155655	0.0364053907512252	0	0	0.568941253433102	-0.702588122211498
0.474918490060153	-0.826614020281671	0	0	-0.0532748182909283	0.0343654532570737	0	0
0	0	-0.516534606905935	-0.704630830185551	0	0	-0.0399777523075836	-0.0461381576234143
3	0.0169086392825889	0.0227762404146358	0	0	0.818623341196962	0.499081688690611	0	0
0	0	-0.0105943932880147	0.02958969071146	0	0	0.0913170481975886	-0.923315176096924
0.818623341196962	0.499081688690611	0	0	-0.00645398431918658	-0.0178277797691509	0	0
0	0	0.40738884998925	-0.763463726782207	0	0	0.0142097112298154	0.086574680338494
3.1	-0.00841064472278047	-0.0268900385121431	0	0	0.519570530634799	-0.80928744233637	0	0
0	0	-0.0198471381283047	0.0128855538134969	0	0	0.451107764161725	0.809005105804028
0.519570530634799	-0.80928744233637	0	0	0.0391078471420033	-0.0651637121244105	0	0
0	0	-0.872655650834334	-0.0490127899765206	0	0	-0.0756337552491704	0.00664160874647921
3.2	-0.00124489899134134	0.0285349639851197	0	0	0.808587145954553	0.542817015789957	0	0
0	0	-0.0176093026289658	-0.0050784503147417	0	0	0.802252760801468	0.436960059113269
0.808587145954553	0.542817015789957	0	0	0.000980090037078803	0.0253582117974167	0	0
0	0	-0.340720388233032	-0.816385222880518	0	0	-0.0594386683455892	0.00726569583804012
3.3	0.0105795523955216	-0.0264045209538068	0	0	0.553352153109333	-0.80493858375393	0	0
0	0	-0.00134653392383348	-0.0228358646588694	0	0	-0.908150046068645	0.0534601081639149
0.553352153109333	-0.80493858375393	0	0	0.0627065298123908	0.0240179695386552	0	0
0	0	-0.574669468361483	0.679947540080776	0	0	-0.0281992807991766	-0.107499714434008
3.4	-0.0182199254091348	0.0206304677291984	0	0	0.788604631744773	0.557269996559968	0	0
0	0	-0.00479580824579781	-0.0396518345063435	0	0	-0.732761569343675	0.548010592007772
0.788604631744773	0.557269996559968	0	0	-0.115735127341269	0.00985810253778449	0	0
0	0	-0.860455205003709	-0.219208253868289	0	0	-0.0200221374342946	-0.0398309120208021
3.5	0.0234460356861625	-0.0128831478424381	0	0	0.570813550932786	-0.779288008911812	0	0
0	0	0.00724353183048934	-0.0298256959643174	0	0	0.293199912021255	-0.872570023923149
0.570813550932786	-0.779288008911812	0	0	-0.0128091974313344	-0.0537136354315037	0	0
0	0	0.172595165726702	0.844209133743321	0	0	0.0845412682020304	-0.0737710981651808
3.6	-0.0253634816177482	0.00408753551577194	0	0	0.77191615685269	0.579513915461374	0	0
0	0	0.0186944021546547	0.00247911782994142	0	0	-0.215662990021757	-0.894022062370075
0.77191615685269	0.579513915461374	0	0	-0.0336126516406831	0.0611534157853939	0	0
0	0	-0.690226328314538	0.525444111634017	0	0	0.0444307164468676	-0.0321799873904393
3.7	0.023418777427818	0.00529001917984479	0	0	0.59757778031606	-0.750988126506721	0	0
0	0	0.013056733240729	0.0358893502411209	0	0	0.643700504005904	0.644234771330779
0.59757778031606	-0.750988126506721	0	0	0.118553861198997	0.00581330464546161	0	0
0	0	0.773254558597146	0.404010645503852	0	0	0.0551859882639422	-0.0197844149676674
3.8	-0.0184575129194387	-0.0129390928712681	0	0	0.743951889868207	0.615475758698528	0	0
0	0	0.0145342758716281	0.04996274518657	0	0	0.870887027660367	0.179979567413801
0.743951889868207	0.615475758698528	0	0	-0.0249220694423404	0.0211757784594446	0	0
0	0	-0.00966658448298141	0.869921005675315	0	0	-0.0584391220308204	-0.0243432871678943
3.9	0.0112205755893862	0.0175419402769112	0	0	0.619584305324368	-0.74196883238753	0	0
0	0	0.0106721318242217	0.0150820631161496	0	0	-0.819242277391016	0.332089336257573
0.619584305324368	-0.74196883238753	0	0	-0.0121939730335393	0.0830297484742219	0	0
0	0	0.777770171184371	-0.389506436191268	0	0	0.0246354780273285	-0.00599040625864098
4	-0.00229852085114956	-0.0189448502273962	0	0	0.722929344889752	0.627815098269975	0	0
0	0	-0.0168571412508314	-0.0126797065505844	0	0	-0.509278706174043	0.724634819325638
0.722929344889752	0.627815098269975	0	0	0.0497350957891245	-0.0743667854139641	0	0
0	0	0.684250228941392	0.509474792188376	0	0	-0.00456396428037225	0.00950608260039656
4.1	-0.0058845957311839	0.0170084113349326	0	0	0.633593910051631	-0.708748036166144	0	0
0	0	-0.0413877329095907	-0.0355479940362169	0	0	0.0500057007100538	-0.887248806069056
0.633593910051631	-0.708748036166144	0	0	0.0236660656858116	-0.111150787322695	0	0
0	0	0.178500650656516	-0.824701171784886	0	0	0.0268783274183881	0.0807071161721173
4.2	0.0123563428599661	-0.0123532311352347	0	0	0.702741646894789	0.645390567004005	0	0
0	0	-0.0486017545673705	-0.0152999768172316	0	0	-0.433920337240827	-0.774190851804621
0.702741646894789	0.645390567004005	0	0	-0.0396143865057052	0.0164570500958638	0	0
0	0	0.825672103122617	-0.186902493726579	0	0	-0.0119912506677347	-0.0408546846752158
4.3	-0.0160741048399406	0.00534778624893639	0	0	0.654894465224032	-0.695151715317945	0	0
0	0	-0.00714940412216405	0.00702662892922963	0	0	0.77450987308673	0.419060857823745
0.654894465224032	-0.695151715317945	0	0	-0.0106109988180336	0.0665834990178206	0	0
0	0	-0.532929632658015	-0.667749172587263	0	0	-0.0142635141154954	0.00238674899816366
4.4	0.0162822725782291	0.00295184124784481	0	0	0.677609400382603	0.665477769940494	0	0
0	0	0.0380921219780513	0.00465986923751393	0	0	0.882597010474493	-0.0546648073280683
0.677609400382603	0.665477769940494	0	0	0.00119619054556028	-0.0495718965848873	0	0
0	0	0.34264800994255	-0.7679479893606	0	0	-0.033223363571464	0.0033801328857991
4.5	-0.0129267484510765	-0.0104025564693241	0	0	0.67320101969614	-0.659170690665228	0	0
0	0	0.0644016512791809	-0.00430100817217405	0	0	-0.718130949617718	0.520426293677023
0.67320101969614	-0.659170690665228	0	0	-0.0492263153600138	0.0263742570158851	0	0
0	0	-0.830559514931751	0.0114598524244565	0	0	-0.0851048753397994	0.0615114363036329
4.6	0.00660635143544749	0.0159363544243861	0	0	0.641260539561106	0.689056494788272	0	0
0	0	0.0461466332624667	-0.0249023371466393	0	0	-0.312296571549012	0.840197262749023
0.641260539561106	0.689056494788272	0	0	-0.0036499450602528	0.0138444602830112	0	0
0	0	-0.369427717754107	-0.74155761137339	0	0	-0.0793749818576408	-0.00946862037668839
4.7	0.00143790185149695	-0.0184137457278064	0	0	0.707437173769578	-0.634719309151693	0	0
0	0	-0.0251626475271834	-0.00554908075575217	0	0	-0.189241144185725	-0.871153297260533
0.707437173769578	-0.634719309151693	0	0	0.0656060034133325	-0.0173801544965566	0	0
0	0	-0.523378332547304	0.652725067910482	0	0	-0.0727171230124542	0.0717920370243333
4.8	-0.0100792606129949	0.0174733069106392	0	0	0.635462635054388	0.724369640890214	0	0
0	0	-0.0591774936626355	0.0338733821747057	0	0	-0.604822083542831	-0.634313453242063
0.635462635054388	0.724369640890214	0	0	0.0532477396436388	-0.0182520492097224	0	0
0	0	-0.825521209673881	-0.19790292529101	0	0	-0.00911169367727737	0.0716622636663908
4.9	0.0176229932557126	-0.0123328830533842	0	0	0.731043556131153	-0.62828547134227	0	0
0	0	-0.040118240598496	0.0580079523488929	0	0	0.853292509097708	0.207743006839697
0.731043556131153	-0.62828547134227	0	0	-0.0801981752906979	-0.0292989566958401	0	0
0	0	0.197993649646207	0.820681983943183	0	0	-0.083152444877614	0.00375577635156819
5	-0.0222502613115974	0.00420243782133479	0	0	0.618222099132024	0.726774315878773	0	0
0	0	-0.000438472164656951	0.0196003065767482	0	0	0.831014106362471	-0.29785319757757
0.618222099132024	0.726774315878773	0	0	-0.0473234331059905	0.0404234492123106	0	0
0	0	-0.645310635870931	0.533458352996122	0	0	0.0417011802938875	-0.00900049229706921
5.1	0.023727710466925	0.0057867752797925	0	0	0.728068791931811	-0.606527305641314	0	0
0	0	0.0385969982273056	-0.0342603850246746	0	0	-0.533254406397588	0.695929071118657
0.728068791931811	-0.606527305641314	0	0	-0.0214654640647221	-0.0417389085167566	0	0
0	0	0.750291214363364	0.344731071795896	0	0	0.072774193566281	-0.019733396447055
5.2	-0.0213868594528197	-0.0169174637687853	0	0	0.585092957857707	0.745427770386626	0	0
0	0	0.0163959822375943	-0.0750024155973866	0	0	-0.0776418768642927	0.872277550163762
0.585092957857707	0.745427770386626	0	0	0.03844707650049	0.0220711099796835	0	0
0	0	0.0162780984533604	0.832753258506022	0	0	0.0270672411846473	0.0664044242793697
5.3	0.0151945777631969	0.0264748839084312	0	0	0.763440367264618	-0.573818965906504	0	0
0	0	-0.0138177373813151	-0.0417874831633155	0	0	-0.413986444535981	-0.770439674734412
0.763440367264618	-0.573818965906504	0	0	-0.0320793463291196	0.0245836643164809	0	0
0	0	0.742504148089551	-0.375957698184216	0	0	-0.0433076659686321	0.0120484925665404
5.4	-0.00608339725317812	-0.0323776244053863	0	0	0.566047133077019	0.767668094934089	0	0
0	0	-0.0309825058399492	0.0145058019646551	0	0	-0.768369731934382	-0.426115564560432
0.566047133077019	0.767668094934089	0	0	0.0708348506559648	0.087062841257883	0	0
0	0	0.658737675039129	0.508022266545852	0	0	-0.00930704554932699	0.0217990588311673
5.5	-0.00486755288445481	0.0347407318107256	0	0	0.777665876578939	-0.563476065403472	0	0
0	0	0.0234423556482963	0.0603135886027399	0	0	0.876428896802341	-0.0473351362004366
0.777665876578939	-0.563476065403472	0	0	-0.00679111343057126	-0.0277498961813458	0	0
0	0	0.154846970472267	-0.816564375051801	0	0	0.0218115754388423	0.0382172251567462
5.6	0.0165282113228517	-0.0322174603007624	0	0	0.549172271580177	0.782422697993571	0	0
0	0	0.0424021787656466	0.0572031605190576	0	0	0.694952818434223	-0.510040795866874
0.549172271580177	0.782422697993571	0	0	0.00121258337009881	-0.109293863684521	0	0
0	0	0.797543541343286	-0.204696086199071	0	0	0.0118882129764388	0.11699081153806
5.7	-0.027278840809798	0.0256767191065334	0	0	0.794663844327147	-0.540485078716127	0	0
0	0	0.0205424022124093	-0.0063205399488871	0	0	-0.314049459381365	0.806191070813805
0.794663844327147	-0.540485078716127	0	0	-0.0114053262747256	0.0511492943473872	0	0
0	0	-0.53683177024609	-0.64505389595154	0	0	0.0586872071533335	0.0339161764219483
5.8	0.0340512488052469	-0.0151503606782716	0	0	0.522285139058724	0.793954683768535	0	0
0	0	-0.0222320423575025	-0.0307746427176473	0	0	0.157699800328913	0.849689553306314
0.522285139058724	0.793954683768535	0	0	0.0585199769300567	-0.0278695983723091	0	0
0	0	0.320162790061228	-0.768947997117201	0	0	0.034271109902813	0.054838726908325
5.9	-0.0370984776283669	0.00198087256051309	0	0	0.807322999207204	-0.498255973895373	0	0
0	0	-0.0563450232191617	-0.0264109750613866	0	0	-0.5842137850456	-0.632913753680696
0.807322999207204	-0.498255973895373	0	0	-0.0726074633676874	0.0429561634509437	0	0
0	0	-0.822743899360568	0.0617725808782736	0	0	0.0376260639126979	0.0714079934784448
6	0.0357503950178342	0.0110909748088883	0	0	0.481204730077594	0.820433122298753	0	0
0	0	-0.0341030222522831	0.00596936500619332	0	0	-0.843429160005972	-0.19196608653995
0.481204730077594	0.820433122298753	0	0	-0.00328563110905928	0.0231356577027427	0	0
