# GHZ S RI R 50
0.2	-0.00652299024525975	0.00720154166499094	0	0	0.958216789184372	0.0576929348223713	0	0
0	0	0.0228413230176975	0.00254993630972408	0	0	-0.370133677466836	0.911286572790245
0.958216789184372	0.0576929348223713	0	0	0.0218891363949381	0.0470128434741942	0	0
0	0	0.569388864286142	-0.754266544266408	0	0	0.00225634588703048	-0.026811400656427
0.3	0.00743286188910469	-0.00876911694225567	0	0	0.0329182997089795	-0.965377729081219	0	0
0	0	-0.00410927020718401	0.00105081426296389	0	0	-0.134841948558062	-0.974288301775748
0.0329182997089795	-0.965377729081219	0	0	-0.0122804414414452	0.00724946283817878	0	0
0	0	-0.922315952304388	-0.201647789205515	0	0	-0.0309117012522989	-0.0146364234923836
0.4	-0.00861131264053155	0.00783138407236922	0	0	0.948664636920183	0.0610871902600182	0	0
0	0	-0.0394561455633221	0.000990493145173715	0	0	-0.66785673690983	-0.725166783638051
0.948664636920183	0.0610871902600182	0	0	-0.0324898716619173	-0.0127875667312761	0	0
0	0	-0.236051811841225	-0.895620235953288	0	0	0.0232767935969795	0.0208418668118557
0.5	0.0100792991009246	-0.00469971404392145	0	0	0.126500185197223	-0.948862463363386	0	0
0	0	-0.0339558151707882	0.00541871713282751	0	0	0.964065239340428	0.205897492355675
0.126500185197223	-0.948862463363386	0	0	0.0378842305288404	0.0166940684903994	0	0
0	0	-0.677723868650438	0.637376210575059	0	0	0.00620060734149692	0.00781161220275794
0.6	-0.0102578489596587	0.001254794936327	0	0	0.954623460985105	0.129734397533988	0	0
0	0	-0.00998984393159744	0.0067478699843157	0	0	0.91165404492359	-0.330653764093345
0.954623460985105	0.129734397533988	0	0	0.00536342570370657	-0.0197871875867492	0	0
0	0	-0.861940882706227	-0.343348772090481	0	0	-0.00490689944691115	-0.00723999719975656
0.7	0.01011255280695	0.00220958251747836	0	0	0.107375972879428	-0.956824412665981	0	0
0	0	0.0207020327155192	-0.010535835970642	0	0	-0.609346089038132	0.748580946053103
0.107375972879428	-0.956824412665981	0	0	0.00816690030348295	0.00988407904361893	0	0
0	0	0.0473089368813509	0.919352515610994	0	0	0.0023319999351489	-0.0128243208826348
0.8	-0.00951611386139475	-0.00570508965597778	0	0	0.953833368161864	0.112094639614448	0	0
0	0	0.0424018041724587	-0.041619984470282	0	0	-0.118858672387792	0.959797314025739
0.953833368161864	0.112094639614448	0	0	-0.0224020301040108	0.0131889177122909	0	0
0	0	-0.809831164031065	0.449277130288166	0	0	0.00694808745063472	0.0835087032246986
0.9	0.00734250694641325	0.00824724517330614	0	0	0.143560414329599	-0.938283875617493	0	0
0	0	0.0119175039228394	-0.0277105137695741	0	0	-0.434940821003781	-0.863895101260979
0.143560414329599	-0.938283875617493	0	0	-0.00191127467472952	-0.0609722352487951	0	0
0	0	0.763468214932373	0.523091132096717	0	0	0.0364881322041191	0.0141941772344492
1	-0.00426111987890344	-0.00938822278656893	0	0	0.940919360052404	0.180359634691543	0	0
0	0	-0.0150093909988346	0.0116722209974627	0	0	-0.837100801186427	-0.479489537574865
0.940919360052404	0.180359634691543	0	0	0.0034371889925731	0.042461106355549	0	0
0	0	-0.125097605508212	0.900843741047541	0	0	0.00383929668396949	0.00258606683601552
1.1	0.000714837050939433	0.00876757797115983	0	0	0.200526552966293	-0.947538707512321	0	0
0	0	-0.0115201252066169	0.0347676943759916	0	0	0.954218032444976	-0.0515168854409216
0.200526552966293	-0.947538707512321	0	0	0.00441221862669613	0.00216611407927337	0	0
0	0	0.866891896554899	-0.260249534338083	0	0	0.00958485271059032	0.0431344759634703
1.2	0.00245743762644274	-0.00688427011849054	0	0	0.957015508396587	0.202037179664758	0	0
0	0	0.0093974672946832	0.0643456873279191	0	0	0.769318035111435	-0.553504144237621
0.957015508396587	0.202037179664758	0	0	0.0543937599220116	-0.00057980578042462	0	0
0	0	0.612570898602986	0.669924146759568	0	0	0.0079002613198405	0.0992827044935484
1.3	-0.00466432274915222	0.00379894009974391	0	0	0.205179026618149	-0.940620877516235	0	0
0	0	0.0171827926696504	0.0189792757586928	0	0	-0.354621982824528	0.881125429987241
0.205179026618149	-0.940620877516235	0	0	-0.0529998651574781	0.000103022366384046	0	0
0	0	0.321731900106627	-0.857228093521924	0	0	0.0408940471070306	0.0142383543728357
1.4	0.0053688270689624	-0.000187226815825412	0	0	0.922537684686318	0.233850839803837	0	0
0	0	-0.0122548689535962	-0.0433827669070816	0	0	0.178366527049459	0.935612785013395
0.922537684686318	0.233850839803837	0	0	0.0178712645779456	0.00753158307080374	0	0
0	0	0.897040772206208	-0.0830382277268963	0	0	0.0450351276984763	-0.00667357509082278
1.5	-0.00444989230430834	-0.00269758803770702	0	0	0.271646686052262	-0.920638851357209	0	0
0	0	-0.0373513411477115	-0.0557069648041326	0	0	-0.67261352716235	-0.675214422542566
0.271646686052262	-0.920638851357209	0	0	0.0335737854592089	-0.0332499982395828	0	0
0	0	-0.459598127667269	-0.766811948356131	0	0	0.0334556763720757	0.0517056886741661
1.6	0.00226053149086001	0.00414616782839535	0	0	0.935596070012509	0.296066255004433	0	0
0	0	-0.035644161365991	-0.0187593593337072	0	0	-0.935357077427857	-0.185170912161497
0.935596070012509	0.296066255004433	0	0	-0.0509960408045806	-0.0277043003170717	0	0
0	0	0.498146602948109	-0.752110011449036	0	0	0.00099716411748476	0.0519716612442026
1.7	0.000822418328277643	-0.00401443837188496	0	0	0.291353245476014	-0.941546997108892	0	0
0	0	0.0158717364788186	0.00716245872804286	0	0	0.88460655431306	-0.341486973149003
0.291353245476014	-0.941546997108892	0	0	-0.00115147560159405	0.00460336856141975	0	0
0	0	-0.899289891914796	-0.112846783592182	0	0	0.0400244010342982	-0.0306370324866835
1.8	-0.00383353921773012	0.00241254900080289	0	0	0.916268527774135	0.292730652536554	0	0
0	0	0.0454544952957251	0.0386709754839291	0	0	0.574697512291567	-0.744125133566899
0.916268527774135	0.292730652536554	0	0	0.00591068049869063	0.0646862849349169	0	0
0	0	-0.308074024133635	-0.849445246071308	0	0	0.0275373997668442	-0.0340871342606475
1.9	0.00587378795760873	0.00047333407469662	0	0	0.322041486237719	-0.893241210790044	0	0
0	0	0.0525452064851163	-0.00343233006856006	0	0	-0.0855058877007698	0.941224954977885
0.322041486237719	-0.893241210790044	0	0	0.00932135963106138	0.0087366987258052	0	0
0	0	-0.616478438699403	0.644170226534332	0	0	0.0406338226115378	0.0236260087542025
2	-0.00625310595651513	-0.00434477911535888	0	0	0.890545107512892	0.35244872897186	0	0
0	0	0.0147447126886304	-0.00497449688643868	0	0	0.455534443066989	0.834439375141241
0.890545107512892	0.35244872897186	0	0	-0.0499601066009296	-0.0336693486959876	0	0
0	0	-0.844043059307723	-0.266023946608291	0	0	-0.0530594115870042	-0.0215660634251718
2.1	0.00482487782812591	0.00851491397257919	0	0	0.367123770557825	-0.897879948751614	0	0
0	0	-0.0295618596417736	0.00758507186011393	0	0	-0.829838214720375	-0.454342719163217
0.367123770557825	-0.897879948751614	0	0	0.0704610307632393	0.0166449303948175	0	0
0	0	0.133490405629752	0.880349129933051	0	0	-0.00516046217042026	0.00961261668204338
2.2	-0.00136695374343262	-0.0122263755791573	0	0	0.898732160161143	0.378778086929025	0	0
0	0	-0.0484909508635305	0.0167498048735077	0	0	-0.93343456483491	0.0669784617491843
0.898732160161143	0.378778086929025	0	0	0.0145917986270427	-0.0110361818703647	0	0
0	0	-0.738940933644294	0.505330835077434	0	0	0.0426405732725722	-0.0112388118724713
2.3	-0.00367438329352413	0.0142238943634214	0	0	0.388104238294594	-0.889966812351628	0	0
0	0	-0.0306818466661739	0.0188149972588763	0	0	0.738515826885835	-0.555279874047274
0.388104238294594	-0.889966812351628	0	0	0.0580185685260795	-0.0289765770103206	0	0
0	0	0.776630416785277	0.433948412189694	0	0	0.0666295765330811	0.046736868253907
2.4	0.0097026655014661	-0.0138771713929962	0	0	0.87861546726796	0.399505531513199	0	0
0	0	-0.000591666138607256	0.000626474675912884	0	0	0.325407120258036	-0.868785855620926
0.87861546726796	0.399505531513199	0	0	-0.0975469109182213	0.0135312789617165	0	0
0	0	-0.0399628669124702	0.883671336049367	0	0	0.0470561369365627	-0.0493670754501432
2.5	-0.0161289067569816	0.0108763556094581	0	0	0.415792158432812	-0.867085088986292	0	0
0	0	0.0194242469777563	-0.0362405995724165	0	0	0.189475687548047	0.918543435552634
0.415792158432812	-0.867085088986292	0	0	-0.0106543749456527	-0.027201260952336	0	0
0	0	0.805856931874665	-0.332368515044337	0	0	0.0122782746075815	-0.000811993293791531
2.6	0.0217216619413961	-0.00576987151253576	0	0	0.859886318305241	0.429276590357027	0	0
0	0	0.0183303288681843	-0.0387473842717908	0	0	0.66772071284617	0.653599237255096
0.859886318305241	0.429276590357027	0	0	0.0050304565930908	-0.0334646575518818	0	0
0	0	0.631085711202839	0.597260262661199	0	0	0.0623000770378695	0.0100987338521321
2.7	-0.0254417159118853	-0.00102670410887524	0	0	0.443393423417932	-0.853571063183298	0	0
0	0	0.0215170530146031	-0.00934182637145769	0	0	-0.897411660119204	-0.173581456276473
0.443393423417932	-0.853571063183298	0	0	0.00277704898093033	-0.0128276352856048	0	0
0	0	0.275271191191084	-0.835463305509508	0	0	-0.0276342973227094	-0.000804659472269948
2.8	0.0260811081037799	0.00873426506107729	0	0	0.842624169646844	0.456632788552214	0	0
0	0	0.00968363369207509	0.0128539271944463	0	0	-0.841276828943838	0.312749383714356
0.842624169646844	0.456632788552214	0	0	0.00375523023775381	0.0638670270264478	0	0
0	0	0.870667077781742	-0.150517547401917	0	0	0.0257908666981406	-0.0635926295266583
2.9	-0.0230731661261488	-0.0165238534639746	0	0	0.472720439188217	-0.82292765422117	0	0
0	0	-0.000551853235782789	0.0367123773732171	0	0	0.566291059086435	-0.699707927233145
0.472720439188217	-0.82292765422117	0	0	-0.0536943162595186	0.0341700508226228	0	0
0	0	-0.514495366569054	-0.701445203726133	0	0	-0.0402095460840742	-0.0458269624396435
3	0.0173388928607947	0.0234583839201639	0	0	0.813456262376929	0.497134318907389	0	0
0	0	-0.0116745221122707	0.0294317206041747	0	0	0.091836322388055	-0.918285281628982
0.813456262376929	0.497134318907389	0	0	-0.00709517069124023	-0.0174234183930709	0	0
0	0	0.406046045898969	-0.758942725180611	0	0	0.01339858441806	0.0856698430061953
3.1	-0.00904375799783779	-0.0276435853231415	0	0	0.518338849635355	-0.802733007235754	0	0
0	0	-0.0210543118905473	0.0122217584956304	0	0	0.44607904316813	0.805178046986657
0.518338849635355	-0.802733007235754	0	0	0.0384870013712175	-0.0638447498255735	0	0
0	0	-0.867065553614953	-0.0510882165570108	0	0	-0.075074214604466	0.00619138048212347
3.2	-0.000418244743239906	0.0292207099038117	0	0	0.800650725607999	0.542890059874066	0	0
0	0	-0.0186358739451038	-0.0061828501954901	0	0	0.795073343886823	0.437853136682933
0.800650725607999	0.542890059874066	0	0	0.000514279858146465	0.0252905056350108	0	0
0	0	-0.334758443138793	-0.812705898353063	0	0	-0.058933865560841	0.0067145766052031
3.3	0.0096912443636174	-0.0269176523476218	0	0	0.555123415876485	-0.796189182624135	0	0
0	0	-0.00194147708507269	-0.0241688273650368	0	0	-0.902845339326221	0.047272370218802
0.555123415876485	-0.796189182624135	0	0	0.0615492860132538	0.0246897750945803	0	0
0	0	-0.575478457869524	0.672012645320642	0	0	-0.0265264833468098	-0.106479010808816
3.4	-0.0174216177819149	0.0210136450529082	0	0	0.779425985512121	0.560953184575926	0	0
0	0	-0.00479020656265807	-0.0409682012324567	0	0	-0.733588897459707	0.539014545238762
0.779425985512121	0.560953184575926	0	0	-0.114604028264962	0.00781016992004863	0	0
0	0	-0.854167106532211	-0.22531680000383	0	0	-0.019132628409058	-0.0397277594850819
3.5	0.0227396912457748	-0.0132767276142703	0	0	0.576422797335732	-0.770349978196417	0	0
0	0	0.00783760280067531	-0.0308572081144494	0	0	0.300788541838071	-0.866501399982237
0.576422797335732	-0.770349978196417	0	0	-0.0116521878572747	-0.0536123672495045	0	0
0	0	0.163599930969651	0.842861362369416	0	0	0.0854073885965437	-0.0715604373699384
3.6	-0.0246529898254274	0.00447407236932877	0	0	0.763714051215546	0.587205033913697	0	0
0	0	0.0198042527918624	0.00184003674610629	0	0	-0.205295376960605	-0.895032568040087
0.763714051215546	0.587205033913697	0	0	-0.0349695040779061	0.0600500936734884	0	0
0	0	-0.695032581064871	0.516874338689923	0	0	0.0450007610211305	-0.0310915122998743
3.7	0.0226959481218996	0.00494592443402929	0	0	0.606829884585102	-0.744069713309403	0	0
0	0	0.0143843262426232	0.0357672822200356	0	0	0.636577497735867	0.652354905787405
0.606829884585102	-0.744069713309403	0	0	0.118343205714417	0.00862293496692572	0	0
0	0	0.769075544475618	0.413476890742047	0	0	0.0556952319979574	-0.0185100919116017
3.8	-0.0177637400109851	-0.0127131006442718	0	0	0.738572163366906	0.626265704763588	0	0
0	0	0.0157090816323837	0.050214885854928	0	0	0.871531540652964	0.191001923397112
0.738572163366906	0.626265704763588	0	0	-0.0256745324657016	0.0206781741529007	0	0
0	0	-0.0201292497536982	0.872604697991952	0	0	-0.0582734623990367	-0.0258980680918009
3.9	0.0106566463147051	0.0174206614962961	0	0	0.631413949177417	-0.738871251206259	0	0
0	0	0.0114680815762325	0.0155894369121489	0	0	-0.827571383452341	0.32480086187283
0.631413949177417	-0.738871251206259	0	0	-0.0142567726687846	0.083683553442271	0	0
0	0	0.786507558758346	-0.383005171622469	0	0	0.0250156835552665	-0.00548200317769581
4	-0.0018921466330014	-0.0188105612208743	0	0	0.722148145282946	0.639744880225965	0	0
0	0	-0.0166011743561811	-0.012036620702826	0	0	-0.520420586872845	0.725255169471601
0.722148145282946	0.639744880225965	0	0	0.0520316981195523	-0.0743821457078885	0	0
0	0	0.684553379683386	0.520218823189119	0	0	-0.00482797047051258	0.00960760299435177
4.1	-0.00621173060839231	0.0168116063495983	0	0	0.645073505033835	-0.710271335287039	0	0
0	0	-0.0416807269086605	-0.0349442245402263	0	0	0.0575700174427203	-0.895367085589601
0.645073505033835	-0.710271335287039	0	0	0.0259992200126991	-0.112706240523309	0	0
0	0	0.186799100126041	-0.831193024933794	0	0	0.0261058621626306	0.0827504205561712
4.2	0.0126667194201081	-0.0121228072973162	0	0	0.706339505909532	0.656001103779558	0	0
0	0	-0.0492466636378034	-0.0149214896796659	0	0	-0.434127092076668	-0.784855180314511
0.706339505909532	0.656001103779558	0	0	-0.0405054607442173	0.0164160495618084	0	0
0	0	0.835480897779265	-0.1841998859808	0	0	-0.0117591563001454	-0.0418042343251409
4.3	-0.0163398611865369	0.00513848433710186	0	0	0.664070069628636	-0.700502914236333	0	0
0	0	-0.00782323884856218	0.0070669111309148	0	0	0.78168830798024	0.426086820911045
0.664070069628636	-0.700502914236333	0	0	-0.0112466954219891	0.0679861556721789	0	0
0	0	-0.53667844709259	-0.676744224473658	0	0	-0.0146100280504695	0.00238619906968256
4.4	0.0164557991607544	0.00315741026520806	0	0	0.68409583448688	0.672768050237668	0	0
0	0	0.0376647955784935	0.00438235909722437	0	0	0.891912266348826	-0.0546232305087241
0.68409583448688	0.672768050237668	0	0	0.00117094964607321	-0.0506377567610656	0	0
0	0	0.346785754146986	-0.775780779107307	0	0	-0.0339867913055933	0.00338891364602171
4.5	-0.0130033411747903	-0.0106535647476491	0	0	0.678431718456216	-0.666190507676063	0	0
0	0	0.0644206931088574	-0.00479952198337649	0	0	-0.724151057705836	0.526261869910152
0.678431718456216	-0.666190507676063	0	0	-0.0503459083669711	0.0269487680497698	0	0
0	0	-0.838316085884342	0.0126839459442856	0	0	-0.0866415718116504	0.0628400757918758
4.6	0.00663278033630253	0.0162719553794436	0	0	0.648227759599903	0.692256251740833	0	0
0	0	0.0466180443727816	-0.0254674069191208	0	0	-0.312233449872515	0.847533049563441
0.648227759599903	0.692256251740833	0	0	-0.0040128165162797	0.0140890740039347	0	0
0	0	-0.374415991454843	-0.746150305309228	0	0	-0.0807982054641816	-0.00923160145791722
4.7	0.00140229944321724	-0.0188387286479547	0	0	0.70875756271557	-0.641142390980233	0	0
0	0	-0.0242943974047488	-0.00591958803008156	0	0	-0.19359346951107	-0.875434382491507
0.70875756271557	-0.641142390980233	0	0	0.0657171831720338	-0.0179235768564841	0	0
0	0	-0.523928186201856	0.658428116382648	0	0	-0.0731843619881797	0.0731165307688644
4.8	-0.00998256085534128	0.0179051379250337	0	0	0.640763999202893	0.724093140150124	0	0
0	0	-0.058196785429248	0.0338791686941804	0	0	-0.609624379333175	-0.634199935639979
0.640763999202893	0.724093140150124	0	0	0.0530067612097201	-0.0185728387053047	0	0
0	0	-0.829367715113118	-0.195285274586684	0	0	-0.00875051521859487	0.072203599259024
4.9	0.017534255244998	-0.0127486011268086	0	0	0.729629771306395	-0.631949751555904	0	0
0	0	-0.0392862044235787	0.0584600298625851	0	0	0.855340306912743	0.205070952078656
0.729629771306395	-0.631949751555904	0	0	-0.0810632968303434	-0.0283990911895995	0	0
0	0	0.20117852551615	0.821256119075513	0	0	-0.0835723834830708	0.00433432181307267
5	-0.0222099619145762	0.00462109742690178	0	0	0.620035485916381	0.724871225685817	0	0
0	0	2.68266773669166E-05	0.0204613792544001	0	0	0.830222361701721	-0.299888390244894
0.620035485916381	0.724871225685817	0	0	-0.0474250632432043	0.0410765369195553	0	0
0	0	-0.643948608771456	0.535018678851373	0	0	0.0414487514734912	-0.00922056440968141
5.1	0.0237130372802991	0.005322969285669	0	0	0.726250619290622	-0.606494873415034	0	0
0	0	0.0385935107827432	-0.0331888308074783	0	0	-0.532042659433485	0.695559807946121
0.726250619290622	-0.606494873415034	0	0	-0.0217186951740705	-0.0411166877444934	0	0
0	0	0.749699550174267	0.343695115568215	0	0	0.0723810369947608	-0.0198105917412231
5.2	-0.0213570160882731	-0.0164261255893367	0	0	0.583323935281356	0.744354768223279	0	0
0	0	0.01597122150551	-0.0739696072803657	0	0	-0.0785839699338805	0.870836742531041
0.583323935281356	0.744354768223279	0	0	0.038238510173252	0.0224910260786308	0	0
0	0	0.0152391656116142	0.831487793089079	0	0	0.0266813831888445	0.0662761082806668
5.3	0.0151180930972358	0.0260159391211711	0	0	0.7636358099791	-0.570520167400531	0	0
0	0	-0.0145077495683491	-0.0410600952320303	0	0	-0.410845806251435	-0.770713919015345
0.7636358099791	-0.570520167400531	0	0	-0.0319306096744763	0.0247093916992453	0	0
0	0	0.742692223600619	-0.372963702030533	0	0	-0.043331842518472	0.0117942380876991
5.4	-0.00599628619660477	-0.0320002948801687	0	0	0.561796971687621	0.769716626697897	0	0
0	0	-0.0317762557871973	0.014726597573195	0	0	-0.765764289747639	-0.429881096828117
0.561796971687621	0.769716626697897	0	0	0.0700963837828445	0.087888797765742	0	0
0	0	0.655763887847881	0.511177065900808	0	0	-0.00953765122935718	0.0217810687662843
5.5	-0.00491639647321443	0.0344174993848012	0	0	0.781798690351392	-0.558842589569025	0	0
0	0	0.022736872926906	0.0599703123962965	0	0	0.877678598137827	-0.0414250284084851
0.781798690351392	-0.558842589569025	0	0	-0.00626337681875676	-0.0276552786235524	0	0
0	0	0.160563997094827	-0.816375749443374	0	0	0.0213341843757112	0.0387038651028837
5.6	0.016528294349829	-0.0319007115831828	0	0	0.544882342751693	0.788681095557016	0	0
0	0	0.0419595740996103	0.0563992073396601	0	0	0.701316192620169	-0.506171234299234
0.544882342751693	0.788681095557016	0	0	0.00291569783738537	-0.109659774375313	0	0
0	0	0.801806342898116	-0.199001039501536	0	0	0.0100689206941832	0.118032297357724
5.7	-0.0272615843708374	0.0253893595828698	0	0	0.803077215709952	-0.537093229113361	0	0
0	0	0.020400419318202	-0.00736567389073681	0	0	-0.322541026521327	0.808240185143945
0.803077215709952	-0.537093229113361	0	0	-0.0124195090519614	0.0518666118300131	0	0
0	0	-0.534584318760426	-0.653223352773271	0	0	0.0586229747115104	0.0354221107524573
5.8	0.0340341910424164	-0.0148624655677042	0	0	0.520524615232127	0.80406733033204	0	0
0	0	-0.0220552992934967	-0.0317702938455286	0	0	0.152336878769235	0.858136160114483
0.520524615232127	0.80406733033204	0	0	0.0598950129004478	-0.0269543601805657	0	0
0	0	0.328940088554348	-0.772942179731846	0	0	0.033783747824153	0.0564378298629624
5.9	-0.0370788299241371	0.00172943205623641	0	0	0.818776942567218	-0.498418549771827	0	0
0	0	-0.0559549813793248	-0.0270924779196595	0	0	-0.586475764810538	-0.643741561240329
0.818776942567218	-0.498418549771827	0	0	-0.0743353733195007	0.0434595145243219	0	0
0	0	-0.832216899109649	0.0570257012758875	0	0	0.0373177501513874	0.0736223546495454
6	0.0357100759441813	0.0112745920154605	0	0	0.483841990613857	0.8327175488671	0	0
0	0	-0.0336597646771369	0.00573924413163242	0	0	-0.85361716993644	-0.198420683684444
0.483841990613857	0.8327175488671	0	0	-0.00291997095601776	0.0241034438300672	0	0
