# GHZ S RI R 50
0.2	-0.00672029383278821	0.00865083632130574	0	0	0.958058229699269	0.057852768065107	0	0
0	0	0.0215645461660901	0.00328260867234931	0	0	-0.370248189281918	0.911195785876732
0.958058229699269	0.057852768065107	0	0	0.0218742978463853	0.0449538219048779	0	0
0	0	0.569472675035796	-0.754153892433257	0	0	0.00226392584890194	-0.0288671093516142
0.3	0.00727048043872785	-0.00936691489897203	0	0	0.0331899583366512	-0.965276405875881	0	0
0	0	-0.00470365508273548	0.00120343205745377	0	0	-0.134570502295586	-0.974235039675498
0.0331899583366512	-0.965276405875881	0	0	-0.0128392656447562	0.00591467337530151	0	0
0	0	-0.922177955084019	-0.201874632963347	0	0	-0.0314629313156971	-0.0159805789739361
0.4	-0.00869971015583549	0.00783221672770625	0	0	0.948602823756223	0.0615282076825699	0	0
0	0	-0.0394182122368462	0.000910009419858987	0	0	-0.667489450881105	-0.725444300937825
0.948602823756223	0.0615282076825699	0	0	-0.0331637106837416	-0.0135032276435515	0	0
0	0	-0.23562487854899	-0.895689348836667	0	0	0.0225578695520812	0.0201751629195828
0.5	0.0105784932479467	-0.00445720622882678	0	0	0.127104420488066	-0.948842868177528	0	0
0	0	-0.0334380915923183	0.00523100208203164	0	0	0.964012068411942	0.206528826156287
0.127104420488066	-0.948842868177528	0	0	0.0373353200126992	0.0165037015829758	0	0
0	0	-0.678185141371972	0.636995753985595	0	0	0.00565078611913158	0.0075822230111975
0.6	-0.0111229165739566	0.00116696735301279	0	0	0.954784477025689	0.130540682069817	0	0
0	0	-0.00916363895293697	0.00664369853386571	0	0	0.912179592856716	-0.330029600217496
0.954784477025689	0.130540682069817	0	0	0.00513781358093014	-0.0198394967039461	0	0
0	0	-0.861919663004991	-0.344129136340284	0	0	-0.00516261354527786	-0.00729944138151357
0.7	0.011043029096561	0.00189675199003432	0	0	0.108262110219426	-0.957233958747732	0	0
0	0	0.0216236139131376	-0.010443228070946	0	0	-0.610333692494518	0.748458633170949
0.108262110219426	-0.957233958747732	0	0	0.00813051699443994	0.00982405211486608	0	0
0	0	0.0465317783667902	0.919897322847102	0	0	0.00232736090939462	-0.0129205695545063
0.8	-0.0102195831551592	-0.00512953787735398	0	0	0.9545379116133	0.112996315374108	0	0
0	0	0.0432317774633577	-0.0413739940025234	0	0	-0.119727984196285	0.960437501610013
0.9545379116133	0.112996315374108	0	0	-0.0224026733550453	0.0129244336969151	0	0
0	0	-0.810816851251814	0.448965380428682	0	0	0.0068765060907593	0.0833986301331576
0.9	0.00773353603670895	0.00769441714652567	0	0	0.144469911441914	-0.939283300752938	0	0
0	0	0.0125038406810738	-0.0274125716202279	0	0	-0.434750650492931	-0.865198147704754
0.144469911441914	-0.939283300752938	0	0	-0.00184438505872983	-0.06153362503189	0	0
0	0	0.763910642543868	0.524270940856676	0	0	0.0365147959365891	0.013854873224267
1	-0.00444031631466114	-0.00905187409862788	0	0	0.942136358564641	0.18115469194203	0	0
0	0	-0.01475889881619	0.0119233135627894	0	0	-0.838006850004269	-0.480644575046788
0.942136358564641	0.18115469194203	0	0	0.00316336889751144	0.0420973575339409	0	0
0	0	-0.125789392682002	0.902042426675485	0	0	0.00359412669852837	0.00210395306756843
1.1	0.000881441776464755	0.00874614425399154	0	0	0.2011277578291	-0.949031756292954	0	0
0	0	-0.0116078946841505	0.0348719820563487	0	0	0.955793684190413	-0.0513228178502522
0.2011277578291	-0.949031756292954	0	0	0.00394150403126229	0.00176324874107387	0	0
0	0	0.868385608770808	-0.260422320437835	0	0	0.0090832968009775	0.0428828960850956
1.2	0.00207558279415703	-0.0070893877596763	0	0	0.9586965985417	0.202324427980448	0	0
0	0	0.00906808755506407	0.064217489335737	0	0	0.770653628591734	-0.554561956821714
0.9586965985417	0.202324427980448	0	0	0.0539189639356733	-0.000806550384730959	0	0
0	0	0.613726533936954	0.671076349129757	0	0	0.00724545639442283	0.0994668060354642
1.3	-0.004062481244938	0.00400422176833905	0	0	0.205123317077883	-0.942438670656748	0	0
0	0	0.0167821148282128	0.0186125358881916	0	0	-0.354882704147926	0.88288455254672
0.205123317077883	-0.942438670656748	0	0	-0.0539177461810802	0.000130397486811703	0	0
0	0	0.321943180051195	-0.858929339874968	0	0	0.0403028148781406	0.0143142970878522
1.4	0.00470206517990565	-0.000338655740325532	0	0	0.924320757232732	0.233463678581065	0	0
0	0	-0.0125268728499902	-0.0439188066686243	0	0	0.17944283871613	0.937098082048684
0.924320757232732	0.233463678581065	0	0	0.0172695771917636	0.00762119685174396	0	0
0	0	0.898536799682325	-0.0839167863251904	0	0	0.0444720128717998	-0.00659523226052327
1.5	-0.00373964887850518	-0.00260619138295768	0	0	0.270970100705098	-0.922379749494094	0	0
0	0	-0.0374396858811309	-0.0563174313953223	0	0	-0.674489841023985	-0.67543248493158
0.270970100705098	-0.922379749494094	0	0	0.033007501366461	-0.0332475347901551	0	0
0	0	-0.461256913954524	-0.7674348387883	0	0	0.0330720192433501	0.0520303553982217
1.6	0.00150146748543364	0.00420274969331712	0	0	0.937279612116526	0.29501289278398	0	0
0	0	-0.0355419825337385	-0.0193948207574077	0	0	-0.936842809411534	-0.183943848569516
0.937279612116526	0.29501289278398	0	0	-0.0516559661375038	-0.0273350244633639	0	0
0	0	0.497606487503278	-0.753851247851548	0	0	0.000711855907050595	0.0524417216544865
1.7	0.00148702566857046	-0.00426421291880529	0	0	0.289957960708863	-0.942902315647416	0	0
0	0	0.0161206022975897	0.00662614333932985	0	0	0.884838154096368	-0.34333674595188
0.289957960708863	-0.942902315647416	0	0	-0.00140691453323488	0.00494190605528756	0	0
0	0	-0.900322017841766	-0.111394285717681	0	0	0.0397280017399151	-0.0304572593106898
1.8	-0.00428867180857714	0.00271389445036959	0	0	0.917218224175942	0.29114093029097	0	0
0	0	0.0457752846366152	0.0383323937397543	0	0	0.573604593630579	-0.745579321644129
0.917218224175942	0.29114093029097	0	0	0.0060409479333236	0.0650202659421251	0	0
0	0	-0.309816773477004	-0.84930682794273	0	0	0.0273408862383816	-0.0338910821995076
1.9	0.00619759170950987	0.000264956811335428	0	0	0.320402052190975	-0.893862932682493	0	0
0	0	0.0528636778198944	-0.00353674434902202	0	0	-0.0837585966484282	0.941422993762876
0.320402052190975	-0.893862932682493	0	0	0.00932838871373517	0.00892107527860561	0	0
0	0	-0.615305709996182	0.645343657753481	0	0	0.0407217363839665	0.0237193266729687
2	-0.00655549933616113	-0.00425463079854278	0	0	0.89082511557587	0.350796955834599	0	0
0	0	0.0149922900266981	-0.00486087411607651	0	0	0.45682017590813	0.833361058168348
0.89082511557587	0.350796955834599	0	0	-0.0500431023738749	-0.033332964187941	0	0
0	0	-0.844210101121187	-0.26447083350944	0	0	-0.0530847656305967	-0.0212114253828099
2.1	0.00519004675590693	0.0084785117104938	0	0	0.365576421195693	-0.897724464927621	0	0
0	0	-0.0294308957465667	0.00786573814557122	0	0	-0.829908531221833	-0.452813510599864
0.365576421195693	-0.897724464927621	0	0	0.070375729825509	0.0165272599196186	0	0
0	0	0.134675050424379	0.879529131123616	0	0	-0.00514228349568776	0.00973348677098097
2.2	-0.00178595270714274	-0.012143752573637	0	0	0.898263692242641	0.377459787107302	0	0
0	0	-0.0484890485450398	0.0171033117643047	0	0	-0.932471824146562	0.0679140419992913
0.898263692242641	0.377459787107302	0	0	0.0144924796219399	-0.0109164987778237	0	0
0	0	-0.737694464363896	0.505639718621176	0	0	0.0424996173343574	-0.0111675321602122
2.3	-0.00330192716249959	0.0140570232606711	0	0	0.387137101680625	-0.889261679103088	0	0
0	0	-0.0307761412685809	0.0191373840222404	0	0	0.737352882325427	-0.555169181564902
0.387137101680625	-0.889261679103088	0	0	0.0578295764892231	-0.02880885320565	0	0
0	0	0.77607990434121	0.43296755403059	0	0	0.0665441261104918	0.0467408539118545
2.4	0.00945361993715385	-0.0136887328603752	0	0	0.877822880969054	0.398858931907545	0	0
0	0	-0.000734623571692987	0.00084252528802597	0	0	0.324867713064533	-0.86800669020023
0.877822880969054	0.398858931907545	0	0	-0.0973054250293997	0.0137614065068411	0	0
0	0	-0.0397024566647421	0.882806094935664	0	0	0.0470096793033903	-0.0490639261297872
2.5	-0.0159913787981691	0.0107715596192365	0	0	0.415553605035713	-0.866314316508515	0	0
0	0	0.0192882736606756	-0.036173663554799	0	0	0.18923049460622	0.917809219893806
0.415553605035713	-0.866314316508515	0	0	-0.0105255207892402	-0.0269512696528528	0	0
0	0	0.8052290523092	-0.332017249468477	0	0	0.0124172478443239	-0.000588316869872031
2.6	0.021608994777789	-0.00578632921352614	0	0	0.859257096894006	0.429383044639709	0	0
0	0	0.0182590073109504	-0.0388136093611038	0	0	0.667128961468116	0.653500750214928
0.859257096894006	0.429383044639709	0	0	0.00520757985605452	-0.0332530679241978	0	0
0	0	0.630533956477387	0.597177957463149	0	0	0.0624452281369227	0.0103089398863582
2.7	-0.0252909414383547	-0.000930355825492597	0	0	0.443767484689226	-0.8531914568047	0	0
0	0	0.0215404256877566	-0.00947749313558484	0	0	-0.897195815490735	-0.174005319971801
0.443767484689226	-0.8531914568047	0	0	0.00297066009893489	-0.0126938134345671	0	0
0	0	0.275649451582232	-0.835205509940513	0	0	-0.0273861235206866	-0.000710079657129152
2.8	0.0259027444677901	0.00860195734399846	0	0	0.842577991252391	0.457157064368355	0	0
0	0	0.00980218800490494	0.0127342269123774	0	0	-0.841643482768333	0.31239672180782
0.842577991252391	0.457157064368355	0	0	0.00388082728590144	0.0639883254854319	0	0
0	0	0.870958118056652	-0.150109969374286	0	0	0.0261073429082271	-0.0635206384744225
2.9	-0.0228892473814333	-0.0163418438009579	0	0	0.473298845538761	-0.823266843901361	0	0
0	0	-0.000359313837992531	0.036687516795301	0	0	0.566900528417265	-0.699944341144319
0.473298845538761	-0.823266843901361	0	0	-0.0536052064875393	0.0342327427314411	0	0
0	0	-0.514566276595404	-0.702072958273751	0	0	-0.0400121150848516	-0.0458769630446287
3	0.0171150599799924	0.02320918088138	0	0	0.814152985579077	0.497657968933583	0	0
0	0	-0.0114519700103159	0.0295354490925371	0	0	0.0919702484780711	-0.919123493022049
0.814152985579077	0.497657968933583	0	0	-0.00694550954779362	-0.0174278243433306	0	0
0	0	0.406459873208736	-0.759617655583531	0	0	0.0135974781668048	0.0858266697458266
3.1	-0.00873221746638238	-0.0273692872601108	0	0	0.518696657601835	-0.803753805802692	0	0
0	0	-0.0208475712389561	0.0124461835094482	0	0	0.446850587207497	0.805977161926171
0.518696657601835	-0.803753805802692	0	0	0.0386476737507543	-0.0640072465435094	0	0
0	0	-0.868092157544043	-0.0508768255440905	0	0	-0.0751101653903645	0.00622554855029638
3.2	-0.00081528911327484	0.0289708625495283	0	0	0.801994390535159	0.542918573698426	0	0
0	0	-0.0185166273921407	-0.00586949167503227	0	0	0.796392993331292	0.437787934064093
0.801994390535159	0.542918573698426	0	0	0.000622309071868127	0.0253314068326755	0	0
0	0	-0.335794303333803	-0.813456904695825	0	0	-0.0589927190711183	0.00678201333764492
3.3	0.0101201405835453	-0.026739056938567	0	0	0.554760162022534	-0.797709964293561	0	0
0	0	-0.00194167981812794	-0.0238362942407951	0	0	-0.903858703951069	0.0484101444565399
0.554760162022534	-0.797709964293561	0	0	0.0617692623716518	0.0245747726201759	0	0
0	0	-0.575355308377066	0.673498591933909	0	0	-0.0268235606354678	-0.106691099815816
3.4	-0.0178183393892447	0.0208857468848216	0	0	0.781097326870028	0.560121431874115	0	0
0	0	-0.0049195218703723	-0.0406875159798979	0	0	-0.733374607694272	0.540754945925333
0.781097326870028	0.560121431874115	0	0	-0.114779564231985	0.00820342380999331	0	0
0	0	-0.85535056041524	-0.224094075328695	0	0	-0.0193074200801817	-0.0397450027809523
3.5	0.0231112067563097	-0.0131438412943664	0	0	0.57513689167073	-0.771950619008834	0	0
0	0	0.00760917346562408	-0.0306911322781928	0	0	0.299184739182181	-0.867595854091446
0.57513689167073	-0.771950619008834	0	0	-0.0118872320553849	-0.0536138323155128	0	0
0	0	0.16541262816317	0.842993909797695	0	0	0.0851992983721401	-0.0719817939587899
3.6	-0.0250359715330738	0.00434016042530636	0	0	0.765121270921692	0.5853747140484	0	0
0	0	0.0195146565746338	0.00186936837332771	0	0	-0.207416695622702	-0.894601352192387
0.765121270921692	0.5853747140484	0	0	-0.0346757090249011	0.0602284383049007	0	0
0	0	-0.69385533919322	0.518542639426719	0	0	0.0448626201755138	-0.0312948565361444
3.7	0.0230963668974526	0.0050595273849236	0	0	0.604624918354575	-0.745117981231019	0	0
0	0	0.014107261346597	0.0356578623779252	0	0	0.637872292836748	0.650408125759545
0.604624918354575	-0.745117981231019	0	0	0.118262352599786	0.00803695208352503	0	0
0	0	0.769700056722284	0.411325924535847	0	0	0.0555584038100845	-0.0187633374904355
3.8	-0.0181564027846648	-0.0127689402829586	0	0	0.739235894673496	0.623654433069033	0	0
0	0	0.0155054327797867	0.0500322286213782	0	0	0.871003906875392	0.188581852465322
0.739235894673496	0.623654433069033	0	0	-0.0254909552771383	0.0207654158105198	0	0
0	0	-0.0179043983091852	0.871644718499471	0	0	-0.0582477893578241	-0.0255475501099912
3.9	0.0109861501300576	0.0174301120141833	0	0	0.628542881145523	-0.738927322132153	0	0
0	0	0.0113675526856063	0.0153840435503062	0	0	-0.825320666834415	0.326102728749401
0.628542881145523	-0.738927322132153	0	0	-0.0138118656046852	0.0834366702189297	0	0
0	0	0.784198470669007	-0.384107053410788	0	0	0.0249132534229442	-0.00559256747187226
4	-0.00214846497455603	-0.018841893981968	0	0	0.721601873597467	0.636868969791128	0	0
0	0	-0.0165810708621843	-0.0122178473077802	0	0	-0.517802032423067	0.724497991206702
0.721601873597467	0.636868969791128	0	0	0.0515076623627875	-0.0742312801214328	0	0
0	0	0.683893479015601	0.517677630972596	0	0	-0.00476622815896512	0.00955145777467925
4.1	-0.00598062546459185	0.0168871385008783	0	0	0.642322282709541	-0.709092845639626	0	0
0	0	-0.0415546870550998	-0.0350585055688318	0	0	0.0562244153257559	-0.89288311249455
0.642322282709541	-0.709092845639626	0	0	0.0255550485343307	-0.112155137862843	0	0
0	0	0.185168670977947	-0.829062984963109	0	0	0.0261654407877158	0.0821761570370309
4.2	0.012424482474177	-0.01221659786895	0	0	0.704557430138068	0.653490404452803	0	0
0	0	-0.0490711370209115	-0.0149465762122853	0	0	-0.433278293278848	-0.782155655423303
0.704557430138068	0.653490404452803	0	0	-0.0402356147224248	0.0163480619326109	0	0
0	0	0.832781974459381	-0.184155633707208	0	0	-0.0117549123141043	-0.0415577633211192
4.3	-0.0161092806026331	0.00521632484565935	0	0	0.662004954799774	-0.698204522553118	0	0
0	0	-0.0076716467050768	0.00712589015936099	0	0	0.779187310356463	0.424821451366884
0.662004954799774	-0.698204522553118	0	0	-0.0111727852797657	0.0675344640111207	0	0
0	0	-0.534924261987071	-0.674666417900641	0	0	-0.0145178212543775	0.00235973867309631
4.4	0.0162743870470767	0.00307699654700757	0	0	0.681494690156804	0.671299409349748	0	0
0	0	0.0377420905145396	0.00449133660383583	0	0	0.889295785410127	-0.0537470417899614
0.681494690156804	0.671299409349748	0	0	0.00126929185199424	-0.0503249892277766	0	0
0	0	0.346371852895538	-0.773189653443743	0	0	-0.0337662895655899	0.00333089693970512
4.5	-0.0128707253336869	-0.0105313907898874	0	0	0.677572700473604	-0.663472744374608	0	0
0	0	0.0643949531760232	-0.00468278996945104	0	0	-0.722989613492273	0.523865670442367
0.677572700473604	-0.663472744374608	0	0	-0.0501161657522213	0.0266878397190654	0	0
0	0	-0.836134808192243	0.0114748322275045	0	0	-0.0863070922295245	0.0622981492480079
4.6	0.0065066194594058	0.0160852829925465	0	0	0.645549798298482	0.691992185051285	0	0
0	0	0.0465088160854069	-0.0253797878501855	0	0	-0.31316873491278	0.845162321325618
0.645549798298482	0.691992185051285	0	0	-0.003998358874503	0.0140523465944629	0	0
0	0	-0.372225826006928	-0.745283211089222	0	0	-0.0803371721363846	-0.00946363365231343
4.7	0.00155869268662558	-0.0186025994823092	0	0	0.709051640097916	-0.638621552152677	0	0
0	0	-0.0244642268609685	-0.00590767578977164	0	0	-0.191427933694526	-0.874531569154032
0.709051640097916	-0.638621552152677	0	0	0.0656607267125402	-0.0175608748756556	0	0
0	0	-0.524549462628886	0.656315681649931	0	0	-0.073169057064552	0.0725879426231567
4.8	-0.0101760335498489	0.0176661769713367	0	0	0.638566999919811	0.72486790792459	0	0
0	0	-0.0583555001690475	0.0338035585150918	0	0	-0.607671797207373	-0.634994826044079
0.638566999919811	0.72486790792459	0	0	0.0530702289123327	-0.018273755456156	0	0
0	0	-0.828197477706114	-0.196958617098604	0	0	-0.00894704623064887	0.0720251378451481
4.9	0.0177262575208544	-0.0125140504198457	0	0	0.730744865847915	-0.630256557221322	0	0
0	0	-0.0393859755282102	0.0583153366168783	0	0	0.854677000703893	0.206824190295391
0.730744865847915	-0.630256557221322	0	0	-0.0808071313585404	-0.0287031770938798	0	0
0	0	0.199388223286043	0.821460842947863	0	0	-0.0834289139620325	0.00394213195302638
5	-0.0223900872353275	0.00437183149486522	0	0	0.61887590987976	0.72612835792077	0	0
0	0	2.46191288357085E-05	0.0202828402928251	0	0	0.830956703026999	-0.29841431599456
0.61887590987976	0.72612835792077	0	0	-0.0474958992496802	0.0409355556156073	0	0
0	0	-0.645078629190813	0.533940387320815	0	0	0.0416133793079936	-0.00912178133613709
5.1	0.0239106081261626	0.00559744100066407	0	0	0.727521024441193	-0.605854361673578	0	0
0	0	0.0386947708939992	-0.0333500171392773	0	0	-0.533364800231153	0.695198651474282
0.727521024441193	-0.605854361673578	0	0	-0.0215401614430833	-0.0412216631042894	0	0
0	0	0.749643378243171	0.34498467614874	0	0	0.0726199851954488	-0.0196890879007567
5.2	-0.0215844310653915	-0.0167013701927901	0	0	0.583118088243009	0.745437409580755	0	0
0	0	0.0161481333174829	-0.0740730412520203	0	0	-0.0794508117637792	0.871470678693425
0.583118088243009	0.745437409580755	0	0	0.0383297638687126	0.0225787534569806	0	0
0	0	0.0144847195008339	0.832176334888536	0	0	0.0266616010852393	0.0663583663787978
5.3	0.0153616302298598	0.0262561617567924	0	0	0.764437411662844	-0.570736629357642	0	0
0	0	-0.0143079099341466	-0.0410839288084724	0	0	-0.410915786399087	-0.771544970966061
0.764437411662844	-0.570736629357642	0	0	-0.0319530691917191	0.0246919664603198	0	0
0	0	0.743484412214608	-0.373011006943516	0	0	-0.0433999649571969	0.0117009677359405
5.4	-0.00621419229157883	-0.0322033645554128	0	0	0.562284952914316	0.770103636384423	0	0
0	0	-0.0316038718187837	0.0147895602595437	0	0	-0.766379085331795	-0.430077909025657
0.562284952914316	0.770103636384423	0	0	0.0702427714986701	0.087926715876357	0	0
0	0	0.656311436650758	0.511448625776595	0	0	-0.009558544677451	0.0217420872336896
5.5	-0.00473095293244828	0.0346287074017713	0	0	0.781721872755104	-0.559539412049723	0	0
0	0	0.0228391036552637	0.0601024357935468	0	0	0.877993618812354	-0.0419662089634096
0.781721872755104	-0.559539412049723	0	0	-0.00628674079827248	-0.0277183097258091	0	0
0	0	0.160137699033202	-0.816787892071392	0	0	0.0213798188395678	0.0386486434975037
5.6	0.0163498821919013	-0.0321456226297953	0	0	0.545586525905553	0.788084821895449	0	0
0	0	0.0419663662712392	0.0565653371288336	0	0	0.700770305394291	-0.506782862943776
0.545586525905553	0.788084821895449	0	0	0.00272676691941098	-0.109686584271575	0	0
0	0	0.801540212456114	-0.19973748789034	0	0	0.0102872537440535	0.117936016812107
5.7	-0.0270473073843384	0.0256405983803832	0	0	0.80186965968259	-0.537635416130316	0	0
0	0	0.0203250587454816	-0.0072058496392659	0	0	-0.32144790727812	0.808040042824535
0.80186965968259	-0.537635416130316	0	0	-0.0122211596191774	0.0517755177604827	0	0
0	0	-0.534927649234978	-0.652201577041133	0	0	0.0586601939672811	0.035173500929096
5.8	0.0337972365024276	-0.0150820346493491	0	0	0.520689796664729	0.80240708983205	0	0
0	0	-0.0221933370087333	-0.0316539806904668	0	0	0.153035474385527	0.856841620218913
0.520689796664729	0.80240708983205	0	0	0.0597402136054428	-0.0270662386743942	0	0
0	0	0.327694425962523	-0.772265075030543	0	0	0.0338472527539453	0.0561192038489461
5.9	-0.0368609294055733	0.00190291302246531	0	0	0.816697926291928	-0.498126040862746	0	0
0	0	-0.0561113080251677	-0.0270465959769606	0	0	-0.585831673606296	-0.642017256412546
0.816697926291928	-0.498126040862746	0	0	-0.073907344661396	0.0433394110874598	0	0
0	0	-0.830539384906658	0.0575685715529233	0	0	0.0372847934186129	0.0731541102087965
6	0.0355472409209506	0.0111312155917814	0	0	0.482901837131536	0.830413702153298	0	0
0	0	-0.0337897201539274	0.00571353870348585	0	0	-0.851546927209306	-0.197651052255778
0.482901837131536	0.830413702153298	0	0	-0.00286180686675843	0.0238903938830703	0	0
