# GHZ S RI R 50
0.2	-0.00601605943620174	0.00806964802496131	0	0	0.958079023272426	0.0578437602730423	0	0
0	0	0.0224491826391428	0.00353791563948333	0	0	-0.370248321538278	0.911199096351491
0.958079023272426	0.0578437602730423	0	0	0.0209499914697021	0.0458376312439584	0	0
0	0	0.569473618028196	-0.754156932869101	0	0	0.0013918233922154	-0.0279295180837016
0.3	0.00705648287271197	-0.00893714260822854	0	0	0.0331819331005015	-0.965239983291952	0	0
0	0	-0.00429902751695455	0.00145702713325437	0	0	-0.134551298547406	-0.974250724384861
0.0331819331005015	-0.965239983291952	0	0	-0.0132960792097246	0.00691799846429274	0	0
0	0	-0.92218571457959	-0.201897132479574	0	0	-0.0318315501604883	-0.0149415302175891
0.4	-0.00865090756896892	0.007869420454268	0	0	0.948572583684093	0.0615277442154653	0	0
0	0	-0.0394761388891762	0.00093186914628544	0	0	-0.667501147388091	-0.725457746240913
0.948572583684093	0.0615277442154653	0	0	-0.0332094632810417	-0.0126343373332183	0	0
0	0	-0.235628685310964	-0.895705653050933	0	0	0.0226133147698605	0.021044364288575
0.5	0.010384266579914	-0.00494963444439768	0	0	0.12713308917652	-0.948840162083822	0	0
0	0	-0.033893968532098	0.00496192768914141	0	0	0.964002720017752	0.206530639892271
0.12713308917652	-0.948840162083822	0	0	0.0375083002021109	0.0170747180540585	0	0
0	0	-0.678181525921331	0.636987526255762	0	0	0.00590636300117231	0.00812054874630396
0.6	-0.0104931916854494	0.0018469963477254	0	0	0.954821975730635	0.130518338369019	0	0
0	0	-0.00981321764444179	0.00602425683216747	0	0	0.912157218969493	-0.33000879254607
0.954821975730635	0.130518338369019	0	0	0.00529574962781146	-0.0195823078654232	0	0
0	0	-0.861890437998053	-0.344129783051581	0	0	-0.00496041994817895	-0.00707238040597916
0.7	0.00998014986685857	0.00147714716114793	0	0	0.108230623510046	-0.95726765272785	0	0
0	0	0.021023800451871	-0.0113583033020947	0	0	-0.61035320632335	0.748412869280248
0.108230623510046	-0.95726765272785	0	0	0.00809114996738236	0.00990525879470967	0	0
0	0	0.0464887109428502	0.919877409163048	0	0	0.00230543003171049	-0.0128315506640063
0.8	-0.00908205390352236	-0.00514560585900181	0	0	0.954519174695976	0.112941197589933	0	0
0	0	0.0428063598626699	-0.0423920492894322	0	0	-0.11991348610991	0.960421019068348
0.954519174695976	0.112941197589933	0	0	-0.022693068507638	0.013048928542629	0	0
0	0	-0.810908706257939	0.448812522430849	0	0	0.00659651548606108	0.0835878473165783
0.9	0.00688531765066689	0.00797968872161097	0	0	0.144344691490776	-0.939223247942913	0	0
0	0	0.0123021556564206	-0.0282773854025208	0	0	-0.434712089370306	-0.865305680880853
0.144344691490776	-0.939223247942913	0	0	-0.00229840469747147	-0.0611587708733309	0	0
0	0	0.763927990250492	0.524378864916895	0	0	0.0361854460524786	0.0143328253102807
1	-0.00400110721318442	-0.00930478232983224	0	0	0.942088075569162	0.181130718762524	0	0
0	0	-0.0147346249267602	0.0114400643248406	0	0	-0.838049747446622	-0.480713787142249
0.942088075569162	0.181130718762524	0	0	0.00279158940753486	0.0428010574056852	0	0
0	0	-0.12583485243983	0.90210428672927	0	0	0.00344234983248981	0.00289228579300429
1.1	0.000737387496628408	0.00863275773123528	0	0	0.201152935079527	-0.948969984632595	0	0
0	0	-0.0114436566547971	0.0349100056187914	0	0	0.955844341600755	-0.051340278738342
0.201152935079527	-0.948969984632595	0	0	0.00387757011854981	0.0027535670879796	0	0
0	0	0.868428345769612	-0.260449692159991	0	0	0.0093402049727878	0.0438474841786588
1.2	0.0023092488494891	-0.00649104034462698	0	0	0.958703196355623	0.20243622052122	0	0
0	0	0.00919986064745406	0.0647792134797288	0	0	0.770588679047079	-0.554556454308638
0.958703196355623	0.20243622052122	0	0	0.0542941578001851	0.000280987115135203	0	0
0	0	0.613714035653735	0.671015180097011	0	0	0.00797724886363881	0.100343502251698
1.3	-0.00461303913624397	0.00321286045530638	0	0	0.205185316068072	-0.942447602893724	0	0
0	0	0.0167059005611253	0.0195125690599135	0	0	-0.354838134613152	0.882853599993394
0.205185316068072	-0.942447602893724	0	0	-0.0532117501209651	0.00109733217093456	0	0
0	0	0.321900930585632	-0.858898496880953	0	0	0.0413228331861055	0.0149504826299867
1.4	0.00542340954201601	0.000455224179213095	0	0	0.924417274134056	0.233577713543539	0	0
0	0	-0.0129816885075084	-0.0430119476369829	0	0	0.179463609624527	0.937040352357499
0.924417274134056	0.233577713543539	0	0	0.0181239921349462	0.00846400748489337	0	0
0	0	0.898484333119656	-0.0839415795518327	0	0	0.0455798920679258	-0.00616747764883027
1.5	-0.0046286389946119	-0.00341429749888593	0	0	0.27104029139245	-0.922557989784648	0	0
0	0	-0.0382718280941309	-0.0555843004589078	0	0	-0.674370263018081	-0.675366321254455
0.27104029139245	-0.922557989784648	0	0	0.0339552364139903	-0.0325823113984767	0	0
0	0	-0.461163020459757	-0.767347560872138	0	0	0.0341952031352505	0.0522321403606342
1.6	0.00266837553747332	0.00486843726897303	0	0	0.937387127178631	0.295014626572156	0	0
0	0	-0.0366356751340678	-0.018906792041067	0	0	-0.93665316270233	-0.183981452432299
0.937387127178631	0.295014626572156	0	0	-0.0506948592314225	-0.0269438762399381	0	0
0	0	0.497571257578443	-0.753671753848546	0	0	0.00175888745538349	0.0523404472146151
1.7	0.000222161019400107	-0.00452352548633363	0	0	0.289954890000919	-0.943084348822745	0	0
0	0	0.0149927885241606	0.00679468243633945	0	0	0.884760925288231	-0.343274887898293
0.289954890000919	-0.943084348822745	0	0	-0.000513462381775194	0.00502208584414378	0	0
0	0	-0.90022900456044	-0.111411412518205	0	0	0.0405453595359934	-0.0307996238769593
1.8	-0.00328214740438238	0.00266944738258336	0	0	0.917403946847101	0.291149233590765	0	0
0	0	0.0448649307030067	0.0381781859032725	0	0	0.573592174259854	-0.745472909108594
0.917403946847101	0.291149233590765	0	0	0.00673379044807855	0.0648814559258745	0	0
0	0	-0.309736806120338	-0.849241972340637	0	0	0.0278522236106669	-0.0343562582964615
1.9	0.0054997332251651	0.000305452882263728	0	0	0.320349154551419	-0.89399657377314	0	0
0	0	0.0523455104597927	-0.00393228300547652	0	0	-0.0838549286909896	0.9413596049654
0.320349154551419	-0.89399657377314	0	0	0.00976779673114742	0.00868382353330422	0	0
0	0	-0.615339515220485	0.645240250720207	0	0	0.0409590389052097	0.0232941564274105
2	-0.00601351918412166	-0.00411094727282933	0	0	0.890909788336432	0.350745530818575	0	0
0	0	0.0149343208236698	-0.00537026507376921	0	0	0.456715174358969	0.83328731671131
0.890909788336432	0.350745530818575	0	0	-0.049793866768905	-0.0335127285093686	0	0
0	0	-0.844092065635441	-0.264489096828218	0	0	-0.0529495880159477	-0.0215103241028306
2.1	0.00457352655064257	0.00815790639255747	0	0	0.36557358939934	-0.897910220987557	0	0
0	0	-0.0290521961222697	0.00737439048722017	0	0	-0.829775800822893	-0.452820054543871
0.36557358939934	-0.897910220987557	0	0	0.0706230258146716	0.0164365773719599	0	0
0	0	0.13459441148822	0.879433524756529	0	0	-0.00500635554938439	0.00953324127317498
2.2	-0.000983365264084749	-0.0118453812203105	0	0	0.898443500808282	0.377420103598635	0	0
0	0	-0.0478230532308959	0.0167537703892175	0	0	-0.932384630815763	0.067826749172205
0.898443500808282	0.377420103598635	0	0	0.0147939699808177	-0.0109766620182308	0	0
0	0	-0.737664505028752	0.505525560552968	0	0	0.0427017517115581	-0.0113773864868163
2.3	-0.00414361896628941	0.0139878848877919	0	0	0.387035785305153	-0.889478794378801	0	0
0	0	-0.0300593949965586	0.0189775221487894	0	0	0.737387247625402	-0.555008035442204
0.387035785305153	-0.889478794378801	0	0	0.0582392373884804	-0.0289834699167977	0	0
0	0	0.775951401756596	0.433060590421404	0	0	0.0667443681476813	0.0463881974546821
2.4	0.0100721506106003	-0.0138198141148574	0	0	0.877935583186293	0.398819800466912	0	0
0	0	-0.000179376666422401	0.000855267634476054	0	0	0.324925716890674	-0.867892985148112
0.877935583186293	0.398819800466912	0	0	-0.0968923955596914	0.0134484015865424	0	0
0	0	-0.0397884742915902	0.882719991850835	0	0	0.0471319434238208	-0.0495761418945457
2.5	-0.0162784228667904	0.010863232914034	0	0	0.415470428571805	-0.866439190691798	0	0
0	0	0.0195237014816253	-0.0360517644859928	0	0	0.189095856651647	0.917758188587036
0.415470428571805	-0.866439190691798	0	0	-0.0101860255677319	-0.0274860415044135	0	0
0	0	0.805205813406792	-0.331885457198263	0	0	0.0123328480751256	-0.00121648184659456
2.6	0.0217025543814269	-0.00563241273997205	0	0	0.859387877595858	0.429321577722229	0	0
0	0	0.0181464834119111	-0.0387046025435364	0	0	0.666995982378787	0.653527033302636
0.859387877595858	0.429321577722229	0	0	0.00540526766986689	-0.0339084389341587	0	0
0	0	0.630410723788644	0.597204478364787	0	0	0.0621493403702107	0.00970365939291654
2.7	-0.0253976994077212	-0.0013181832276907	0	0	0.443723824212848	-0.853333261579875	0	0
0	0	0.0211926948251199	-0.00949391861503483	0	0	-0.897081521780436	-0.174068881608788
0.443723824212848	-0.853333261579875	0	0	0.00304193631318857	-0.0133686448496864	0	0
0	0	0.275696171611965	-0.835088645906927	0	0	-0.0277898986172932	-0.00125217364156625
2.8	0.0260629887018076	0.00910002068290047	0	0	0.842694655797705	0.457151041963393	0	0
0	0	0.00941356523775734	0.0125073236785495	0	0	-0.841615511620985	0.312294267786215
0.842694655797705	0.457151041963393	0	0	0.00387117068498269	0.0633584628666664	0	0
0	0	0.870912522833576	-0.150015881905879	0	0	0.0256454967496607	-0.0639437476656774
2.9	-0.0230350602966849	-0.0169429618356139	0	0	0.473281920648612	-0.823355749121521	0	0
0	0	-0.000577370942333827	0.0361978435335591	0	0	0.566876389871703	-0.699859821613853
0.473281920648612	-0.823355749121521	0	0	-0.0537114367439008	0.0336692406216404	0	0
0	0	-0.514493233331338	-0.702029595572643	0	0	-0.0404872012735515	-0.046196867350948
3	0.0172985583564905	0.0240131024896823	0	0	0.814292770716781	0.497682110646453	0	0
0	0	-0.0113745730191203	0.0288209303857536	0	0	0.0920318941553592	-0.918940067825646
0.814292770716781	0.497682110646453	0	0	-0.00712467707567208	-0.0179016998417483	0	0
0	0	0.40644772389677	-0.759437585244954	0	0	0.0131160235630733	0.085616541555768
3.1	-0.00910556849331436	-0.0283464404672248	0	0	0.518744642897774	-0.803991309356337	0	0
0	0	-0.0204303392182232	0.0116336683937413	0	0	0.446781484015711	0.805769553410902
0.518744642897774	-0.803991309356337	0	0	0.0384388479464955	-0.0643556650388285	0	0
0	0	-0.86789178031654	-0.050827055885201	0	0	-0.0754617109617771	0.00618363593218881
3.2	-0.000173601763952937	0.0299733902935368	0	0	0.802188193342222	0.543047063997063	0	0
0	0	-0.0177846282488331	-0.00656860678207377	0	0	0.796176315236227	0.437658015662176
0.802188193342222	0.543047063997063	0	0	0.00043039844907793	0.0251921298766838	0	0
0	0	-0.33570949600116	-0.813227424370849	0	0	-0.0592028766615888	0.00683103601957231
3.3	0.00930491145330257	-0.0275768838548214	0	0	0.554895546660473	-0.798008908971544	0	0
0	0	-0.00103947871082381	-0.0242437952635553	0	0	-0.903675560924498	0.0484746101594259
0.554895546660473	-0.798008908971544	0	0	0.0617005624314187	0.0245547380763622	0	0
0	0	-0.575186066356139	0.673412225718973	0	0	-0.026902617566672	-0.106576190693505
3.4	-0.0170336470199578	0.0215487702505527	0	0	0.781205479520291	0.560206936889273	0	0
0	0	-0.00402637581981128	-0.0406774887225795	0	0	-0.733204956469391	0.540623578249961
0.781205479520291	0.560206936889273	0	0	-0.114829514093066	0.00823915129840204	0	0
0	0	-0.855147954580288	-0.224046060948913	0	0	-0.0192785555140381	-0.0397080300954891
3.5	0.0223947356996869	-0.0137981169965636	0	0	0.575183702572713	-0.772175314518427	0	0
0	0	0.00830806024029335	-0.0302579937266081	0	0	0.299158405128702	-0.867476374189757
0.575183702572713	-0.772175314518427	0	0	-0.0118350171643614	-0.0536248462394247	0	0
0	0	0.165377811299817	0.842884803535914	0	0	0.0852203407292365	-0.071996076847767
3.6	-0.0242765349245098	0.00503783166985991	0	0	0.76532959991539	0.585546297257758	0	0
0	0	0.0198999860850267	0.00266140299199958	0	0	-0.207337257184743	-0.894424951112788
0.76532959991539	0.585546297257758	0	0	-0.0346142100791246	0.0602418971451785	0	0
0	0	-0.693733144291126	0.518407109782523	0	0	0.0448691461963036	-0.0313523080957158
3.7	0.0222256972045911	0.00439740079700943	0	0	0.604723588896436	-0.745526477117085	0	0
0	0	0.0141029321865897	0.0365991852766499	0	0	0.637687098879418	0.650329050401537
0.604723588896436	-0.745526477117085	0	0	0.118387482775532	0.00795827678157284	0	0
0	0	0.76950809777098	0.411306817699413	0	0	0.0555161933173497	-0.0188072722952323
3.8	-0.0172217215331931	-0.0123000673437788	0	0	0.739479878526288	0.623728381987505	0	0
0	0	0.0152317307363253	0.0508535955060326	0	0	0.870728861066423	0.188602598386402
0.739479878526288	0.623728381987505	0	0	-0.025511213652283	0.0207282330114103	0	0
0	0	-0.0179758430871318	0.871384512454875	0	0	-0.0582639329678116	-0.0255627142536715
3.9	0.010195349760384	0.0171811900179571	0	0	0.628622680537189	-0.739148430498039	0	0
0	0	0.0109399107046168	0.0159128532917999	0	0	-0.8252360177114	0.325970222437948
0.628622680537189	-0.739148430498039	0	0	-0.0138683234965434	0.0834352879973306	0	0
0	0	0.78412574796194	-0.383970487705631	0	0	0.0248401611936805	-0.00554443956593051
4	-0.001617799363745	-0.0185975382234843	0	0	0.72174643216885	0.636849239586166	0	0
0	0	-0.0170450989529717	-0.0120993955601619	0	0	-0.517773232420479	0.72438033929153
0.72174643216885	0.636849239586166	0	0	0.0513958194933702	-0.0742614592739028	0	0
0	0	0.683780961391641	0.517646795767244	0	0	-0.00482287322738987	0.00964278645313992
4.1	-0.00638673852344107	0.0165041872164226	0	0	0.64234882943546	-0.709203980686293	0	0
0	0	-0.0419188382501322	-0.03533983074864	0	0	0.0562436315598733	-0.892752163689366
0.64234882943546	-0.709203980686293	0	0	0.0254351428600502	-0.112144684942102	0	0
0	0	0.185167270062518	-0.828937322582421	0	0	0.0261364079876542	0.0822772824865857
4.2	0.0128718553813441	-0.0117442326245426	0	0	0.704643107386351	0.653631283804878	0	0
0	0	-0.0492258620411952	-0.0154576065852069	0	0	-0.433251699678681	-0.781985274905909
0.704643107386351	0.653631283804878	0	0	-0.0403331353984189	0.0164249723618266	0	0
0	0	0.832618947228686	-0.184177512928563	0	0	-0.0117251168237367	-0.0414347713311069
4.3	-0.0165737388904918	0.00480876986648103	0	0	0.662163362580218	-0.698330321439214	0	0
0	0	-0.00758863571569278	0.00662619750186119	0	0	0.779034297436211	0.424729902737092
0.662163362580218	-0.698330321439214	0	0	-0.0111906525391075	0.0676082236242518	0	0
0	0	-0.534822294735911	-0.674526674368565	0	0	-0.0144739045585171	0.00239008646292291
4.4	0.016592139440087	0.00341845420959819	0	0	0.681604085222893	0.671359096909329	0	0
0	0	0.0380102662965683	0.00422042584219796	0	0	0.889145831482515	-0.0537366954599863
0.681604085222893	0.671359096909329	0	0	0.00133394023791391	-0.0503669440957889	0	0
0	0	0.346314529054349	-0.773058712176227	0	0	-0.0337543040627428	0.00325711909350234
4.5	-0.0129788372599093	-0.0109569152779028	0	0	0.677650750670977	-0.663497983636624	0	0
0	0	0.0647428099656842	-0.00458690788896131	0	0	-0.722855863676278	0.52381378410119
0.677650750670977	-0.663497983636624	0	0	-0.0500266557383675	0.0265298451617052	0	0
0	0	-0.836004399818266	0.0115071947067165	0	0	-0.0863890396189131	0.0621344492243383
4.6	0.00652042732523159	0.016735639946113	0	0	0.645549324777385	0.692109879983548	0	0
0	0	0.0468011025872689	-0.0249228308641337	0	0	-0.313014433167567	0.845104145644233
0.645549324777385	0.692109879983548	0	0	-0.00392910102812232	0.0137643746046792	0	0
0	0	-0.372284082170535	-0.745142366587223	0	0	-0.0805644821436678	-0.00961653724854397
4.7	0.00146547887280799	-0.0194585362298729	0	0	0.709223986249104	-0.63866891007783	0	0
0	0	-0.0243894602239703	-0.00520354018375213	0	0	-0.19151098421076	-0.874319125843389
0.709223986249104	-0.63866891007783	0	0	0.065659261877728	-0.0179414793566935	0	0
0	0	-0.524345488626146	0.656250710347928	0	0	-0.0734981724878924	0.0724705299962132
4.8	-0.00994667874553568	0.0185756575237571	0	0	0.638607656011412	0.725036016567699	0	0
0	0	-0.0586012850439556	0.034510492267946	0	0	-0.607616039243499	-0.634827072957936
0.638607656011412	0.725036016567699	0	0	0.0529702153407823	-0.0187034759582981	0	0
0	0	-0.828063910098595	-0.196851486971152	0	0	-0.00937853045823276	0.0719739710245404
4.9	0.0174767514144549	-0.0133953808126934	0	0	0.730853031989532	-0.630151527143185	0	0
0	0	-0.0399245335675381	0.0588045578148221	0	0	0.854584163839252	0.206609918806283
0.730853031989532	-0.630151527143185	0	0	-0.0810173907825949	-0.0291587719478455	0	0
0	0	0.199530489179647	0.821287199465374	0	0	-0.0838766435352074	0.00403898571982598
5	-0.0221661682719929	0.00530448698238809	0	0	0.618720224346539	0.726349157430511	0	0
0	0	-0.000742014362454248	0.0204019676026042	0	0	0.830842691301579	-0.298554571021026
0.618720224346539	0.726349157430511	0	0	-0.0478132831043065	0.0405279384091875	0	0
0	0	-0.644931735615626	0.53402876160005	0	0	0.0411450690473626	-0.0089745958934075
5.1	0.0235925138821272	0.00455315464134785	0	0	0.727751699409128	-0.605744397948631	0	0
0	0	0.0378653559890889	-0.033636454325739	0	0	-0.533156487054985	0.69526631319581
0.727751699409128	-0.605744397948631	0	0	-0.0218910246026475	-0.0415596869926438	0	0
0	0	0.749662109802544	0.344779254157416	0	0	0.0721897941843907	-0.0194559148361787
5.2	-0.0211003879054517	-0.0156577647639473	0	0	0.583090079246657	0.745819186378539	0	0
0	0	0.0154409744444282	-0.0746797186185989	0	0	-0.0792564501538723	0.871254047062742
0.583090079246657	0.745819186378539	0	0	0.0379200286567348	0.0224266144123713	0	0
0	0	0.0146462204061844	0.831951516803205	0	0	0.0263952018647543	0.0666676071578822
5.3	0.014783202051106	0.0253815776979318	0	0	0.764811171930075	-0.570683543309869	0	0
0	0	-0.0147052647164486	-0.0418170246664844	0	0	-0.41097289268502	-0.771183451888423
0.764811171930075	-0.570683543309869	0	0	-0.0323848554929387	0.0246591113052838	0	0
0	0	0.743141828841273	-0.373073712233572	0	0	-0.0434913963070461	0.0120967641675392
5.4	-0.00574884686052924	-0.0315140848624804	0	0	0.562335622099183	0.770495152311015	0	0
0	0	-0.031572691988092	0.0141258238629067	0	0	-0.76624961086165	-0.429806709704152
0.562335622099183	0.770495152311015	0	0	0.0699395966551561	0.0880900650229386	0	0
0	0	0.656228758165234	0.511176368125895	0	0	-0.00953395277720665	0.0220552148170385
5.5	-0.00500592139375127	0.0339074537971193	0	0	0.781998059480291	-0.559491180674137	0	0
0	0	0.0232832445315505	0.0596889827107923	0	0	0.877779611972372	-0.0421304475571296
0.781998059480291	-0.559491180674137	0	0	-0.00648482007237946	-0.0276370373095998	0	0
0	0	0.159938248344666	-0.816628292704157	0	0	0.0214388034648004	0.0388430681890459
5.6	0.0165663352170664	-0.0312414597677547	0	0	0.545531322065736	0.788315628720175	0	0
0	0	0.042683608642604	0.0565087652032026	0	0	0.70045271661529	-0.506767114788917
0.545531322065736	0.788315628720175	0	0	0.00260874654468835	-0.109699204565643	0	0
0	0	0.801253107024392	-0.199836583030783	0	0	0.0103368332352756	0.118038938213418
5.7	-0.027427916378162	0.0245942652204027	0	0	0.802307729069966	-0.537500602983415	0	0
0	0	0.0211427821192398	-0.00690180481612569	0	0	-0.321165536556197	0.807916469880501
0.802307729069966	-0.537500602983415	0	0	-0.0124958883562588	0.0517529721660739	0	0
0	0	-0.534955333282056	-0.651903892079541	0	0	0.0585683868509457	0.0353423449703373
5.8	0.0343826484800889	-0.0141669789046225	0	0	0.520677938638477	0.802787991889716	0	0
0	0	-0.0215089443744509	-0.0311289839716046	0	0	0.153191152043111	0.856528769114555
0.520677938638477	0.802787991889716	0	0	0.05939375794357	-0.0270805768123966	0	0
0	0	0.327404003604842	-0.772094513301677	0	0	0.0337685553353079	0.0564529702788209
5.9	-0.0374490190780995	0.00125802268128888	0	0	0.817151012141546	-0.498003492856961	0	0
0	0	-0.0557286971223201	-0.0264764565904473	0	0	-0.58577687487312	-0.641686500728714
0.817151012141546	-0.498003492856961	0	0	-0.0745468035436766	0.0434458674959378	0	0
0	0	-0.830258524148436	0.057724304826977	0	0	0.0373446401454784	0.0736603098581536
6	0.0359090390326648	0.0115656350507786	0	0	0.482822347971662	0.83081153393799	0	0
0	0	-0.0337709998202178	0.00614888354824973	0	0	-0.851271266875192	-0.19735710333351
0.482822347971662	0.83081153393799	0	0	-0.00350046474096184	0.024278552338813	0	0
