# GHZ S RI R 50
0.2	-0.00685813193844022	0.00742399513860216	0	0	0.958179771059086	0.0576598113788483	0	0
0	0	0.0224441056229685	0.0024673902451279	0	0	-0.370171217899179	0.911303952550471
0.958179771059086	0.0576598113788483	0	0	0.0222675975409877	0.0465935493769334	0	0
0	0	0.569428020166878	-0.754273377218669	0	0	0.00268317719068085	-0.0271793023776914
0.3	0.00755518467797314	-0.00894682025144394	0	0	0.0328995951405588	-0.96535195373576	0	0
0	0	-0.00430412438656665	0.00096057519190557	0	0	-0.134844842575937	-0.974326110025796
0.0328995951405588	-0.96535195373576	0	0	-0.0121311476457819	0.00678729922166053	0	0
0	0	-0.922350968133418	-0.201657720920747	0	0	-0.0306834047251129	-0.0150661451027259
0.4	-0.00862949084371613	0.00781727517584651	0	0	0.948647355448178	0.0610821164881417	0	0
0	0	-0.0394379471370485	0.000973817013035882	0	0	-0.667880233509453	-0.725177407833146
0.948647355448178	0.0610821164881417	0	0	-0.0325302795192382	-0.0131682212921049	0	0
0	0	-0.236066657449639	-0.895639381299617	0	0	0.0233299890719051	0.0204609879531491
0.5	0.0101118013493787	-0.00447403076435711	0	0	0.126484423660588	-0.948866895611613	0	0
0	0	-0.0337379858191642	0.00548750741601135	0	0	0.964069020918402	0.205881536711373
0.126484423660588	-0.948866895611613	0	0	0.0377577457347844	0.0164630106668911	0	0
0	0	-0.677713520720361	0.637387717261182	0	0	0.00614798960194914	0.00755254838992549
0.6	-0.0104429186799826	0.000893037446233205	0	0	0.954640135009437	0.129712505879408	0	0
0	0	-0.00964233024866689	0.00693375703351992	0	0	0.911634984506863	-0.330639611310058
0.954640135009437	0.129712505879408	0	0	0.00526683183045793	-0.019881344489196	0	0
0	0	-0.861918258058422	-0.343346768662638	0	0	-0.0049634645165817	-0.00736150745217149
0.7	0.0105025618275991	0.00253273929787087	0	0	0.107309375819453	-0.956851018744943	0	0
0	0	0.0210807189785215	-0.0102315538229634	0	0	-0.609358732711659	0.748533362677016
0.107309375819453	-0.956851018744943	0	0	0.00817648223576755	0.00984295611054621	0	0
0	0	0.0472695685319288	0.91932692213599	0	0	0.00235678706174563	-0.0128573337665225
0.8	-0.00999627455639544	-0.00587707678037417	0	0	0.953849641967833	0.112001500986849	0	0
0	0	0.0427400492814172	-0.0412572557307066	0	0	-0.118871176126808	0.959769273618236
0.953849641967833	0.112001500986849	0	0	-0.0222941163877673	0.0130976060174464	0	0
0	0	-0.809816514412638	0.449251640462899	0	0	0.00708073281360211	0.0834696807697759
0.9	0.0077493734766432	0.00827766236647697	0	0	0.143496237965384	-0.938251837316214	0	0
0	0	0.0121544037789419	-0.0273797674944128	0	0	-0.434893768654734	-0.863931486058514
0.143496237965384	-0.938251837316214	0	0	-0.0017979034755651	-0.0611917417490817	0	0
0	0	0.763445587881462	0.523143353843043	0	0	0.0367114262457571	0.0140655701705514
1	-0.00449976464755619	-0.00936534855353408	0	0	0.94084964370522	0.180290174702823	0	0
0	0	-0.0149229956470596	0.0118880500443164	0	0	-0.837135231054743	-0.479525234261775
0.94084964370522	0.180290174702823	0	0	0.00346442361472441	0.0420966797753212	0	0
0	0	-0.125116725108699	0.900886409756972	0	0	0.00406186749735744	0.00229823864849544
1.1	0.000758403737112983	0.00883081415780967	0	0	0.200521561641205	-0.947471228552821	0	0
0	0	-0.0115913478524911	0.0348046779667179	0	0	0.954245824774046	-0.0515642352041237
0.200521561641205	-0.947471228552821	0	0	0.00424191378029889	0.00175510658625859	0	0
0	0	0.866906919307775	-0.260299319754633	0	0	0.00970381925977141	0.0426976356325566
1.2	0.00250305605635913	-0.00715693225479174	0	0	0.956984775195378	0.202068017734029	0	0
0	0	0.00921968294421829	0.0641696684752673	0	0	0.769248666771697	-0.553583013726483
0.956984775195378	0.202068017734029	0	0	0.0540131308947644	-0.000924031117640715	0	0
0	0	0.612638166520135	0.669849338154916	0	0	0.00785385558060793	0.098754802402552
1.3	-0.00465600882314635	0.00423161728085037	0	0	0.205266555783787	-0.940645665629294	0	0
0	0	0.0169917499194518	0.0186207482060413	0	0	-0.354497620681178	0.881070586446765
0.205266555783787	-0.940645665629294	0	0	-0.0535091785767058	-0.000124673456883374	0	0
0	0	0.32161329511604	-0.8571724123552	0	0	0.0406655660284622	0.0137077757739548
1.4	0.00531241771580881	-0.000677348565485429	0	0	0.922587896306188	0.233906069858334	0	0
0	0	-0.0123243863143901	-0.0438451612415019	0	0	0.178407080116808	0.93545925669186
0.922587896306188	0.233906069858334	0	0	0.0173343008741621	0.00742171649462573	0	0
0	0	0.896899908370206	-0.0830903373481758	0	0	0.0447212692675767	-0.00715957161555851
1.5	-0.00434907344279339	-0.00214730629160341	0	0	0.271697564942042	-0.92069399248451	0	0
0	0	-0.0372535192755159	-0.0562153790037429	0	0	-0.672543580110996	-0.675039586038217
0.271697564942042	-0.92069399248451	0	0	0.0330493395267809	-0.0332604482511744	0	0
0	0	-0.459573994994366	-0.766636965204265	0	0	0.0330959791250615	0.0512626104664268
1.6	0.00203406800663507	0.00355462433334455	0	0	0.935719649943071	0.29613312657793	0	0
0	0	-0.0353935171533374	-0.0192672172210148	0	0	-0.935177836517067	-0.185107401395213
0.935719649943071	0.29613312657793	0	0	-0.0514810698029636	-0.0275862758247066	0	0
0	0	0.498026614351867	-0.751975956112502	0	0	0.000592793286133861	0.0516466062304767
1.7	0.0011964129732181	-0.00352057728833345	0	0	0.291332222336454	-0.941676829458236	0	0
0	0	0.0162259009232075	0.00674137928243175	0	0	0.884470568087947	-0.341340266962674
0.291332222336454	-0.941676829458236	0	0	-0.00149804621199442	0.00483909281838182	0	0
0	0	-0.899109011807823	-0.112908751911263	0	0	0.0396063176228859	-0.0307734794485504
1.8	-0.00421023211395332	0.00209491767524082	0	0	0.916383555212928	0.292646718461549	0	0
0	0	0.045834772446566	0.0384166147954605	0	0	0.574705535406169	-0.743950412894313
0.916383555212928	0.292646718461549	0	0	0.00573337217045325	0.064963802022946	0	0
0	0	-0.307928097664101	-0.849361818779573	0	0	0.0271933716877891	-0.0340897080727422
1.9	0.00613917302230865	0.000696801711461107	0	0	0.321985715373728	-0.893319974706209	0	0
0	0	0.0528765721777127	-0.0034817479827189	0	0	-0.0855940253006598	0.941091164493847
0.321985715373728	-0.893319974706209	0	0	0.00925021226941556	0.00896011868829303	0	0
0	0	-0.61646480544561	0.644019694519736	0	0	0.0403766234982997	0.0236785187892736
2	-0.00639308346954204	-0.0045794412603171	0	0	0.890626398552054	0.352433135180067	0	0
0	0	0.0149683257349606	-0.00482572567221811	0	0	0.455431488556136	0.834393814854368
0.890626398552054	0.352433135180067	0	0	-0.0499975766085411	-0.0335173468306214	0	0
0	0	-0.843944579545111	-0.266059799395072	0	0	-0.0531999799368571	-0.0215219874501878
2.1	0.00491137423462437	0.00884172276474961	0	0	0.367084124916999	-0.897966099015503	0	0
0	0	-0.0294817037822783	0.00789503349231783	0	0	-0.82969786604861	-0.45434016651405
0.367084124916999	-0.897966099015503	0	0	0.0704293151945195	0.0167469476261839	0	0
0	0	0.133412227679413	0.880242630852502	0	0	-0.0052842463227506	0.00961467517687352
2.2	-0.00151057998628327	-0.0126298456510252	0	0	0.898850648439285	0.378751291590944	0	0
0	0	-0.0485537943380084	0.0171362722596675	0	0	-0.933290159522294	0.0668645167298477
0.898850648439285	0.378751291590944	0	0	0.0145162829835885	-0.0109107011268094	0	0
0	0	-0.738876552652286	0.505167075383419	0	0	0.0424706393947785	-0.0112496116604883
2.3	-0.00343091086324754	0.0145845228388837	0	0	0.388046138138214	-0.890075880657504	0	0
0	0	-0.0308375362936261	0.0191743874580177	0	0	0.738458802766991	-0.555074442599726
0.388046138138214	-0.890075880657504	0	0	0.0579560645498217	-0.0287915347714413	0	0
0	0	0.776427318191671	0.433978231759079	0	0	0.0663675903385377	0.0467457819648134
2.4	0.00944329765788836	-0.0140917913999309	0	0	0.87877132090242	0.399431182205315	0	0
0	0	-0.000776804952468079	0.000873787380385725	0	0	0.325511051413621	-0.868639956343673
0.87877132090242	0.399431182205315	0	0	-0.0975541572573264	0.0138332984309796	0	0
0	0	-0.0401000028248691	0.883569521091589	0	0	0.0467839918067369	-0.0492438264710652
2.5	-0.0159814837379092	0.010959950001432	0	0	0.415720598181051	-0.867184672871641	0	0
0	0	0.0192753085437489	-0.0361625698420035	0	0	0.18933908442085	0.918474429344395
0.415720598181051	-0.867184672871641	0	0	-0.0105405207204047	-0.0269065406277227	0	0
0	0	0.805817620885429	-0.33223180992506	0	0	0.012005222924651	-0.000598344612256439
2.6	0.021740222226179	-0.00583068460779826	0	0	0.859975030580357	0.429218268666791	0	0
0	0	0.0182766009143495	-0.0388283186551011	0	0	0.667575365736539	0.653597156985754
0.859975030580357	0.429218268666791	0	0	0.00524406088297662	-0.0332070923327018	0	0
0	0	0.630950534453936	0.597260604923415	0	0	0.0620640815322831	0.0104049662275938
2.7	-0.0255711010496164	-0.000904038838833589	0	0	0.443345016195444	-0.853666871805921	0	0
0	0	0.0215822580248205	-0.00951100834206923	0	0	-0.897290888849497	-0.173647872649935
0.443345016195444	-0.853666871805921	0	0	0.00304823197058394	-0.0126241911710729	0	0
0	0	0.275319845388928	-0.83533990950224	0	0	-0.0277877929464916	-0.000476888825072325
2.8	0.0262586762022277	0.00856457326242267	0	0	0.842735305182708	0.456594541016262	0	0
0	0	0.00986485463212231	0.0127025621227488	0	0	-0.841199966155142	0.312611494179394
0.842735305182708	0.456594541016262	0	0	0.00405882048030618	0.0640254554638559	0	0
0	0	0.870567761661767	-0.150398010027642	0	0	0.0256880909008036	-0.0632321426386681
2.9	-0.02331628182793	-0.0163425805015981	0	0	0.472721110313033	-0.823010278680072	0	0
0	0	-0.000269942176479669	0.0366918925521702	0	0	0.566285081170415	-0.6995752003862
0.472721110313033	-0.823010278680072	0	0	-0.0534128072548912	0.0342692802148853	0	0
0	0	-0.514372802356153	-0.701406946041033	0	0	-0.0402486821225092	-0.0455012301808164
3	0.0176878305700647	0.0232182403124728	0	0	0.813525721740842	0.497156760566617	0	0
0	0	-0.0113301417860607	0.0295991979313709	0	0	0.0918239957772797	-0.918124524524006
0.813525721740842	0.497156760566617	0	0	-0.00684137561710166	-0.0174024533560795	0	0
0	0	0.40597819574623	-0.758808527915612	0	0	0.0133904110014743	0.0859220771888018
3.1	-0.00945578668558132	-0.0272745856722872	0	0	0.518369202665912	-0.802802942380339	0	0
0	0	-0.0207143303488078	0.0125807806735481	0	0	0.445991285534933	0.80505234594025
0.518369202665912	-0.802802942380339	0	0	0.0386886043946207	-0.0638924183998155	0	0
0	0	-0.866921040918705	-0.0510946818266499	0	0	-0.0749957438328524	0.00639551097754827
3.2	-2.80392593625634E-05	0.0287092121677683	0	0	0.800797548927103	0.542970749950129	0	0
0	0	-0.0184006133798771	-0.00567500683474711	0	0	0.794889775376158	0.43777936944747
0.800797548927103	0.542970749950129	0	0	0.000626661202331553	0.0252381012518707	0	0
0	0	-0.334664583200489	-0.81253888917198	0	0	-0.0588367324948525	0.00682747752475759
3.3	0.00940344790137646	-0.0263431870258518	0	0	0.555161520740124	-0.796346762308923	0	0
0	0	-0.00187981141756429	-0.0236110035938542	0	0	-0.902671061101223	0.0471549580959671
0.555161520740124	-0.796346762308923	0	0	0.0616057822365509	0.02464676930346	0	0
0	0	-0.575444148548684	0.671809882535583	0	0	-0.026442210143526	-0.106396888124156
3.4	-0.0172087280348504	0.0204832434768828	0	0	0.779591276935676	0.561102431596692	0	0
0	0	-0.00494505621677505	-0.0404712655509715	0	0	-0.733469779223826	0.538815488036636
0.779591276935676	0.561102431596692	0	0	-0.114661251470583	0.00780497633884931	0	0
0	0	-0.853944196272263	-0.225348203017712	0	0	-0.0191070164562313	-0.0397232493560349
3.5	0.0225081928541137	-0.0127853066996278	0	0	0.576539623700481	-0.770466404492471	0	0
0	0	0.00748344857161505	-0.0305216938170239	0	0	0.300848602745909	-0.866221517668185
0.576539623700481	-0.770466404492471	0	0	-0.0116726154594651	-0.0536010566355879	0	0
0	0	0.163419802269128	0.842662983718383	0	0	0.0853471682378187	-0.0715216953799378
3.6	-0.0243894098782632	0.00395243294984506	0	0	0.763914206922741	0.587339947644103	0	0
0	0	0.0192920321198347	0.00195456068365664	0	0	-0.205109920586101	-0.894806971564999
0.763914206922741	0.587339947644103	0	0	-0.0349859722596407	0.0601195304844531	0	0
0	0	-0.694908127039474	0.516628589626388	0	0	0.0449375048405137	-0.0310681270199604
3.7	0.0224527082889751	0.00552939590091759	0	0	0.606866597802607	-0.744233402495654	0	0
0	0	0.0138330269081398	0.0356399115965678	0	0	0.636271977541709	0.652282972128215
0.606866597802607	-0.744233402495654	0	0	0.118407305840605	0.00864113560294918	0	0
0	0	0.768775663237106	0.413498853565367	0	0	0.0556366141378551	-0.0184638523668752
3.8	-0.0176299850217003	-0.0133153862651979	0	0	0.738766518066802	0.626352708838801	0	0
0	0	0.0152529660763211	0.0499423001808051	0	0	0.871320578202857	0.191091006204378
0.738766518066802	0.626352708838801	0	0	-0.0256530192105247	0.0206879520818978	0	0
0	0	-0.0202543050808899	0.872418824986196	0	0	-0.0582419009866304	-0.0258727993318347
3.9	0.0106311348651205	0.017915513171974	0	0	0.631448559874592	-0.739034514413582	0	0
0	0	0.0111951139753645	0.0152527427607471	0	0	-0.827496015226438	0.324593108378796
0.631448559874592	-0.739034514413582	0	0	-0.0142221645035329	0.0836751136619679	0	0
0	0	0.786449795549526	-0.38279551650748	0	0	0.0250416157499171	-0.00543366408208384
4	-0.00183738875266076	-0.0191472068291235	0	0	0.722178878927547	0.63982479109638	0	0
0	0	-0.0166265007060612	-0.0123594353640145	0	0	-0.520437205219528	0.725109493531756
0.722178878927547	0.63982479109638	0	0	0.0520606216617393	-0.0744533762322071	0	0
0	0	0.684412680889639	0.520230977984681	0	0	-0.00476525035892859	0.00963331212332923
4.1	-0.00637050482048675	0.0170815508030654	0	0	0.645212109601028	-0.710275224079684	0	0
0	0	-0.0414660422066946	-0.0351734398329889	0	0	0.0576024825482776	-0.895219173122114
0.645212109601028	-0.710275224079684	0	0	0.0260157141345354	-0.11279796496877	0	0
0	0	0.186807608690193	-0.831049487799669	0	0	0.0261701022751298	0.0827347929426232
4.2	0.0128850448836225	-0.0124244451805217	0	0	0.706415205970847	0.656193730592255	0	0
0	0	-0.0488963800893309	-0.0150015162057353	0	0	-0.434033729147504	-0.784763805550831
0.706415205970847	0.656193730592255	0	0	-0.040558423348906	0.016363667906072	0	0
0	0	0.83537201796238	-0.184139280550126	0	0	-0.0116869082855806	-0.0418174106569811
4.3	-0.0165184811877733	0.00544536261822581	0	0	0.664228086995523	-0.700619626403165	0	0
0	0	-0.00748452667021556	0.00714300671468244	0	0	0.781546828769754	0.426064887495279
0.664228086995523	-0.700619626403165	0	0	-0.0112789649108334	0.0680032107925783	0	0
0	0	-0.53656040172108	-0.676671025409482	0	0	-0.0145906515785505	0.00236291484653715
4.4	0.0166019832191775	0.00295141118222719	0	0	0.684157021623936	0.672898294513239	0	0
0	0	0.0378579011858654	0.00457750288743309	0	0	0.891818550786265	-0.0545711054954127
0.684157021623936	0.672898294513239	0	0	0.00119407283798641	-0.0506114495507608	0	0
0	0	0.346788411262057	-0.775678836251419	0	0	-0.0340297836031078	0.00339152023567204
4.5	-0.013215295091324	-0.0105864088194207	0	0	0.678565897897315	-0.666216617814491	0	0
0	0	0.064378619399964	-0.00455008024915415	0	0	-0.724099219414366	0.526236485546133
0.678565897897315	-0.666216617814491	0	0	-0.050267622107914	0.0270103115400127	0	0
0	0	-0.83826269932425	0.0126924492482842	0	0	-0.0867309554731092	0.0629111478542371
4.6	0.00699644152502115	0.0162662566676568	0	0	0.64822009565879	0.692410241670691	0	0
0	0	0.0463412867331555	-0.0252474893340581	0	0	-0.312183657456257	0.84751920364505
0.64822009565879	0.692410241670691	0	0	-0.00384648968970609	0.0141399644484994	0	0
0	0	-0.374438114024197	-0.746107968768182	0	0	-0.0809053901850429	-0.00905859682894344
4.7	0.000900902741021039	-0.0187891028391581	0	0	0.708904058175696	-0.641129666002688	0	0
0	0	-0.0247441623355336	-0.00583445227342737	0	0	-0.193692443521862	-0.875342562825752
0.708904058175696	-0.641129666002688	0	0	0.065966960996843	-0.0179208976299049	0	0
0	0	-0.523802755396248	0.658446028873371	0	0	-0.0732361591922564	0.0733699658333899
4.8	-0.00944154939619827	0.0177780988765001	0	0	0.64073898061647	0.7242452855433	0	0
0	0	-0.0586701966410013	0.0337542522440389	0	0	-0.609622187298083	-0.634056073837315
0.64073898061647	0.7242452855433	0	0	0.0532839341865332	-0.0186297819287532	0	0
0	0	-0.829290281540967	-0.195169409734112	0	0	-0.00876987879030955	0.0724940350196548
4.9	0.0170023724820607	-0.0126194562885663	0	0	0.7298505515787	-0.631850342083011	0	0
0	0	-0.0396420771187005	0.058131466746625	0	0	0.855333790812229	0.204939664947389
0.7298505515787	-0.631850342083011	0	0	-0.0808136339449056	-0.028564469642129	0	0
0	0	0.201287860276999	0.821192770112543	0	0	-0.0835365593320786	0.0046781088660024
5	-0.0216334094216838	0.00451965269721142	0	0	0.619934112680973	0.725133367207065	0	0
0	0	-0.000107722135740758	0.0199603834504468	0	0	0.830099947256451	-0.299970949885308
0.619934112680973	0.725133367207065	0	0	-0.0472261272548651	0.0408847958383991	0	0
0	0	-0.643812810178862	0.535052880017133	0	0	0.041522413574001	-0.00890871481321022
5.1	0.0230485972276456	0.00547523724534714	0	0	0.726545010712335	-0.606342110012282	0	0
0	0	0.0387199484152356	-0.033760219463827	0	0	-0.53184676217132	0.69552875989149
0.726545010712335	-0.606342110012282	0	0	-0.021517929440093	-0.0413688013828303	0	0
0	0	0.749630210818504	0.343521667280034	0	0	0.0725036640078331	-0.0195358411375051
5.2	-0.0206759398236904	-0.0166841532241087	0	0	0.583259567603241	0.744678846757896	0	0
0	0	0.0163240908819721	-0.0744875737137792	0	0	-0.0783740119658315	0.870616751376577
0.583259567603241	0.744678846757896	0	0	0.0383426653858032	0.0222665487443149	0	0
0	0	0.0154150679945094	0.831258194772286	0	0	0.0269142910104863	0.0664604461304236
5.3	0.0145365979591922	0.0263439289445296	0	0	0.764014712008772	-0.570482939111769	0	0
0	0	-0.0140340964296965	-0.041386949763116	0	0	-0.410899545158579	-0.770447756631936
0.764014712008772	-0.570482939111769	0	0	-0.0319578129537913	0.0244634961482046	0	0
0	0	0.74244027344814	-0.373020993360753	0	0	-0.0430583145941262	0.0119306530251488
5.4	-0.00554267246355825	-0.0322627348152729	0	0	0.561801016523991	0.770013939867537	0	0
0	0	-0.0312977887129664	0.0146891650426453	0	0	-0.765647481257016	-0.429672957237872
0.561801016523991	0.770013939867537	0	0	0.0700322655629156	0.0877770387529674	0	0
0	0	0.655684108833635	0.510965636932408	0	0	-0.00930410737009007	0.021807455125382
5.5	-0.00537588433345019	0.0345425286513559	0	0	0.782125083156234	-0.558742380087334	0	0
0	0	0.0230962017697492	0.0602343327703581	0	0	0.877486673267128	-0.0415457328395445
0.782125083156234	-0.558742380087334	0	0	-0.00632051484777226	-0.0277948705338481	0	0
0	0	0.16040957279753	-0.816226600328761	0	0	0.0215010117990596	0.0386783029379713
5.6	0.0171098898987725	-0.0319576637442789	0	0	0.544696892309848	0.789010772825018	0	0
0	0	0.0421065355859448	0.0568893534326498	0	0	0.701018392624557	-0.506205499102194
0.544696892309848	0.789010772825018	0	0	0.00296028074821491	-0.109809278456989	0	0
0	0	0.801554580943177	-0.199137420061571	0	0	0.0102400686544558	0.118004485934329
5.7	-0.027971006530832	0.025532542245852	0	0	0.803525022465605	-0.536993437509468	0	0
0	0	0.0203040582604736	-0.00675662947100242	0	0	-0.322302427302254	0.808088743227993
0.803525022465605	-0.536993437509468	0	0	-0.0124605545501507	0.0517406967355373	0	0
0	0	-0.534567798196298	-0.652949735809818	0	0	0.0587557851764639	0.0354694419586511
5.8	0.0346894181999608	-0.0151629789290789	0	0	0.520408585308096	0.804477279237314	0	0
0	0	-0.022334432353365	-0.0312183103217762	0	0	0.152457964789565	0.857848669488254
0.520408585308096	0.804477279237314	0	0	0.059926567116651	-0.0271821045961017	0	0
0	0	0.328690945156745	-0.772773873293951	0	0	0.0340514057137508	0.0565166233005809
5.9	-0.0375494864638902	0.00207348721599205	0	0	0.819276246423606	-0.498367072279783	0	0
0	0	-0.0563239627660553	-0.0267392001237953	0	0	-0.586405911255989	-0.64345558601968
0.819276246423606	-0.498367072279783	0	0	-0.0745635239072967	0.0431078833334579	0	0
0	0	-0.831960687454504	0.0571434825462078	0	0	0.0377419317375218	0.0736332075778392
6	0.035996147726581	0.0110577736659575	0	0	0.483763531286747	0.833164219668465	0	0
0	0	-0.0340049225330673	0.00581792773877475	0	0	-0.853457045510199	-0.198176008738826
0.483763531286747	0.833164219668465	0	0	-0.00324983228941553	0.0237742669313874	0	0
