# GHZ S RI R 50
0.2	-0.00686603547202402	0.0121845283967973	0	0	0.957709401414818	0.0584263412369251	0	0
0	0	0.0186578798184372	0.00533645148928776	0	0	-0.370689849396737	0.910950098096254
0.957709401414818	0.0584263412369251	0	0	0.0213576926771943	0.0400102897840939	0	0
0	0	0.569821807683781	-0.753816386447032	0	0	0.00182463985848511	-0.0338170523501805
0.3	0.00674126555862595	-0.0107363380363569	0	0	0.0341067117067963	-0.965085894233809	0	0
0	0	-0.00606590415047721	0.00170827033445505	0	0	-0.133663907021135	-0.974199871087189
0.0341067117067963	-0.965085894233809	0	0	-0.0144913394623797	0.00290549330641519	0	0
0	0	-0.921845618343967	-0.202679592523334	0	0	-0.0330893856867841	-0.0190257458161298
0.4	-0.00891074790824709	0.0078665024012211	0	0	0.948549521665455	0.0629362154502814	0	0
0	0	-0.0393568909955479	0.000704085101137297	0	0	-0.666425992165952	-0.726440427310895
0.948549521665455	0.0629362154502814	0	0	-0.0349099597356241	-0.0150088187595029	0	0
0	0	-0.234304107220935	-0.896049398788733	0	0	0.020689944219764	0.0188352590118781
0.5	0.0118013025188183	-0.00406041410992851	0	0	0.129004280294263	-0.948931295443027	0	0
0	0	-0.0323133816255206	0.00463632303266712	0	0	0.963989581459799	0.208510604808019
0.129004280294263	-0.948931295443027	0	0	0.03599704065661	0.0162657090721647	0	0
0	0	-0.679710685366996	0.635913539196396	0	0	0.00430306108445525	0.00721932531763799
0.6	-0.0131256067645399	0.00125864115723902	0	0	0.955399671998035	0.132992339793945	0	0
0	0	-0.00732223614414736	0.00612872175874895	0	0	0.913882257288031	-0.328178390064151
0.955399671998035	0.132992339793945	0	0	0.00462524642154402	-0.0198760799325312	0	0
0	0	-0.861959620438298	-0.346535151587685	0	0	-0.00576777619939964	-0.00735505009600988
0.7	0.0130412167113095	0.000842754564022671	0	0	0.110962692241364	-0.958552252923442	0	0
0	0	0.0237388261242089	-0.0105731694195769	0	0	-0.613364628968554	0.74814848747655
0.110962692241364	-0.958552252923442	0	0	0.00801175785641429	0.00973497675868016	0	0
0	0	0.0441883950178483	0.921615491936071	0	0	0.00230490021575546	-0.0131218277489153
0.8	-0.011570489881022	-0.00353861909039192	0	0	0.95666924254039	0.115769017126345	0	0
0	0	0.0451923762667621	-0.0411646592497142	0	0	-0.122455515294464	0.962413674651066
0.95666924254039	0.115769017126345	0	0	-0.0225327939041262	0.0123050123417989	0	0
0	0	-0.813884394854186	0.447968934459754	0	0	0.00652373648627628	0.083257362275836
0.9	0.00834390215475153	0.00627910001634047	0	0	0.147263370953501	-0.942235831529087	0	0
0	0	0.013935750763569	-0.0270301959620358	0	0	-0.434101116800296	-0.869165617962922
0.147263370953501	-0.942235831529087	0	0	-0.00176717326291577	-0.0628926825318535	0	0
0	0	0.765198642465142	0.527895745036263	0	0	0.036459626112469	0.0131708869378673
1	-0.00464410428483772	-0.00824312882250981	0	0	0.945722643786892	0.183723541343599	0	0
0	0	-0.0140997518016996	0.0123194356673819	0	0	-0.840597874313408	-0.484250711906366
0.945722643786892	0.183723541343599	0	0	0.00229113208505094	0.0414720316340604	0	0
0	0	-0.128032812194601	0.905576869758101	0	0	0.00282894082181849	0.0011264929741441
1.1	0.00122810227897911	0.0086708030561328	0	0	0.203208694436042	-0.953400192691127	0	0
0	0	-0.011764162234293	0.0351006243990637	0	0	0.960487839638781	-0.0504439643237539
0.203208694436042	-0.953400192691127	0	0	0.00270124180857621	0.00110794998585123	0	0
0	0	0.872902716775234	-0.260660288521855	0	0	0.0077298862411028	0.0426778837799756
1.2	0.00110649676510091	-0.00737315160237227	0	0	0.963639264164149	0.203609098727343	0	0
0	0	0.00828108102710521	0.0640974527844101	0	0	0.774865110536772	-0.557352922871028
0.963639264164149	0.203609098727343	0	0	0.0529369250834414	-0.000912218742401168	0	0
0	0	0.616852500495639	0.674770457654614	0	0	0.00564140063673437	0.100532444898583
1.3	-0.00264176148353595	0.00411924318807196	0	0	0.205472597938976	-0.947775925712167	0	0
0	0	0.0157476287955533	0.0180703252307475	0	0	-0.356182067636377	0.887980206825102
0.205472597938976	-0.947775925712167	0	0	-0.0560319309781128	0.000550266125088145	0	0
0	0	0.323079591225817	-0.863869712216031	0	0	0.0391683297557086	0.0149565228564797
1.4	0.00322328355133721	-0.000301784791484569	0	0	0.929615193313547	0.232993590626982	0	0
0	0	-0.0133592015409577	-0.0448551265444377	0	0	0.182034717885974	0.941799583756649
0.929615193313547	0.232993590626982	0	0	0.0161473167039688	0.00817538055101141	0	0
0	0	0.903198317590096	-0.0859304044937913	0	0	0.0435067481586045	-0.00607169670486155
1.5	-0.00219710422501949	-0.00278292263027811	0	0	0.269776904298555	-0.927619793336685	0	0
0	0	-0.0379386112039129	-0.0575091674273745	0	0	-0.679681988841536	-0.676854362889682
0.269776904298555	-0.927619793336685	0	0	0.0320423297803264	-0.0330674782778409	0	0
0	0	-0.465662003492323	-0.769903587007076	0	0	0.0325193647128534	0.0532047332461243
1.6	-7.59187970197651E-05	0.00474442868837021	0	0	0.942392075567689	0.292873341059329	0	0
0	0	-0.035682430148058	-0.0207523691549095	0	0	-0.941492447578971	-0.18130672694659
0.942392075567689	0.292873341059329	0	0	-0.0530260995904101	-0.0263554769665533	0	0
0	0	0.496969077599901	-0.758868243969947	0	0	0.000350446494195907	0.0538717690241792
1.7	0.00273682265719268	-0.00518417748378816	0	0	0.287007448888134	-0.947265424247899	0	0
0	0	0.0163090339371499	0.00539310226859748	0	0	0.886491705643572	-0.348163836416936
0.287007448888134	-0.947265424247899	0	0	-0.00170186534407145	0.00581011927589747	0	0
0	0	-0.903898707473075	-0.108078729472355	0	0	0.0394378555042343	-0.0300380865106297
1.8	-0.00506052910826898	0.0036265687514098	0	0	0.920615249812629	0.287760654341072	0	0
0	0	0.0462159657624002	0.0374623574149348	0	0	0.571724584272605	-0.749991312088231
0.920615249812629	0.287760654341072	0	0	0.00660142953312593	0.0659291764890595	0	0
0	0	-0.314365120415233	-0.850052184555752	0	0	0.0271887564183235	-0.0335445043038626
1.9	0.0067436988119503	-0.000370603581787947	0	0	0.316940158869661	-0.896521023502499	0	0
0	0	0.0534334075761856	-0.00393371508751711	0	0	-0.0797221697712254	0.943154998682566
0.316940158869661	-0.896521023502499	0	0	0.00952350268532222	0.00929835138709819	0	0
0	0	-0.613345931283278	0.648994754659852	0	0	0.0412022294138143	0.0239257573055567
2	-0.00712863330882605	-0.00387476533539812	0	0	0.892756031758952	0.347353399988103	0	0
0	0	0.0155537889368235	-0.00478522228302022	0	0	0.46053998140939	0.831971202316413
0.892756031758952	0.347353399988103	0	0	-0.0502876639830326	-0.0326970616265674	0	0
0	0	-0.845809462396398	-0.261138240527471	0	0	-0.0531939276803264	-0.0204944380491267
2.1	0.00591938814579255	0.00816373499570197	0	0	0.362435636912327	-0.898781359377135	0	0
0	0	-0.0289946586536167	0.00833422790625486	0	0	-0.831393007366836	-0.449838076192515
0.362435636912327	-0.898781359377135	0	0	0.0704774148663618	0.0162479342300342	0	0
0	0	0.137749082131726	0.878942271426755	0	0	-0.00502480819285958	0.0100089535438213
2.2	-0.00258725916175431	-0.0116997026025466	0	0	0.898723731448599	0.374841769563723	0	0
0	0	-0.048260197948237	0.0177871691343465	0	0	-0.931768445516592	0.0703881150183854
0.898723731448599	0.374841769563723	0	0	0.0144104240984779	-0.0107211891267441	0	0
0	0	-0.735920608762739	0.507344781928179	0	0	0.042417826265662	-0.01109209166248
2.3	-0.00265172268596546	0.0134754043928325	0	0	0.385312656127825	-0.889317654392469	0	0
0	0	-0.030758600872119	0.0198169160252716	0	0	0.735812275145361	-0.556115958964408
0.385312656127825	-0.889317654392469	0	0	0.0577037751443355	-0.0286384096859381	0	0
0	0	0.776313375644394	0.431242204080962	0	0	0.0667408357535868	0.0468023157996494
2.4	0.00905478359726052	-0.0131405876237551	0	0	0.877764936683098	0.397744654383931	0	0
0	0	-0.000885091946927509	0.0013477748506663	0	0	0.32385391700402	-0.867973822984263
0.877764936683098	0.397744654383931	0	0	-0.0969766805136169	0.014282846297074	0	0
0	0	-0.0387924929488073	0.882478467254338	0	0	0.0471623080969469	-0.0487140923192317
2.5	-0.0157619661592898	0.0104661871421013	0	0	0.415341416415691	-0.866459627388067	0	0
0	0	0.0190479042694565	-0.0359660400418497	0	0	0.189546157770604	0.917818846487735
0.415341416415691	-0.866459627388067	0	0	-0.0102192222716974	-0.0266595133805603	0	0
0	0	0.805183078442681	-0.33230715394367	0	0	0.0128794493512852	-0.000265959589842674
2.6	0.0213422949156685	-0.00574248003149878	0	0	0.859874838527224	0.42991490548288	0	0
0	0	0.0180510132579273	-0.0389097816616651	0	0	0.667601405452367	0.65416329545752
0.859874838527224	0.42991490548288	0	0	0.00561894949958463	-0.0331231220718544	0	0
0	0	0.630983613423697	0.597786594277862	0	0	0.0631001895386879	0.0105453820302915
2.7	-0.0248832788899737	-0.000846039552204422	0	0	0.444852862675845	-0.854538733155123	0	0
0	0	0.021465602227083	-0.00977568259132413	0	0	-0.898793011702802	-0.174578984894191
0.444852862675845	-0.854538733155123	0	0	0.00339271426080273	-0.0126566007936282	0	0
0	0	0.276392079828336	-0.836660128749913	0	0	-0.0269266331523964	-0.000653319126479921
2.8	0.0254113113074856	0.00848120841827415	0	0	0.84483905397902	0.45850894998796	0	0
0	0	0.00991838073314452	0.0123941222130864	0	0	-0.844075757918399	0.313194428190475
0.84483905397902	0.45850894998796	0	0	0.00427774583258398	0.0643519532784078	0	0
0	0	0.873456105445517	-0.150442074975964	0	0	0.0267999394556026	-0.0638939310945096
2.9	-0.0223656910158006	-0.0161421815727967	0	0	0.474666943316411	-0.82657886680312	0	0
0	0	-3.23441793317783E-05	0.0364593426945912	0	0	0.568718477426683	-0.702883448147766
0.474666943316411	-0.82657886680312	0	0	-0.053623406592905	0.034509565484728	0	0
0	0	-0.51686543161099	-0.704495337459401	0	0	-0.0399031192175425	-0.0462761313550549
3	0.0164773628948718	0.0229119421874554	0	0	0.818501356373177	0.498777626364372	0	0
0	0	-0.0109755551379974	0.0295087089111736	0	0	0.0910685862012711	-0.92339160836538
0.818501356373177	0.498777626364372	0	0	-0.00676355881147083	-0.0176291355106277	0	0
0	0	0.407201863581748	-0.763618060717344	0	0	0.014338410556552	0.0864153567890146
3.1	-0.00789246668955518	-0.0270687663625518	0	0	0.519254315513132	-0.809039146602158	0	0
0	0	-0.0203084056798046	0.0126635457236552	0	0	0.451237899818763	0.808891554098823
0.519254315513132	-0.809039146602158	0	0	0.0388697764633955	-0.0649117797941199	0	0
0	0	-0.872630865612201	-0.0488517157045429	0	0	-0.0756014773381273	0.00653176572394596
3.2	-0.00181144525666366	0.028804616091328	0	0	0.808156375373965	0.542466001095858	0	0
0	0	-0.018046883927301	-0.00543728251394668	0	0	0.802264709447794	0.436872623342097
0.808156375373965	0.542466001095858	0	0	0.000911024275214976	0.0254952817638543	0	0
0	0	-0.340782430267898	-0.816326455437983	0	0	-0.0594483372140053	0.00718529513881337
3.3	0.011115102862676	-0.0267427071346789	0	0	0.55312629430142	-0.804371879258681	0	0
0	0	-0.00166802944874381	-0.0232741256823526	0	0	-0.908058972680925	0.0534886334297413
0.55312629430142	-0.804371879258681	0	0	0.0626309082812282	0.0240857351668774	0	0
0	0	-0.574587812065064	0.679902209276183	0	0	-0.028228244946436	-0.107521294652481
3.4	-0.0187024265597581	0.0209595126657268	0	0	0.788031095797376	0.557059924549208	0	0
0	0	-0.00491348242948323	-0.04010842419167	0	0	-0.732788020293445	0.547921999602895
0.788031095797376	0.557059924549208	0	0	-0.115579948412364	0.00979483156600734	0	0
0	0	-0.860404437844224	-0.219282230347996	0	0	-0.0200229897895946	-0.0398246253350227
3.5	0.023938446717974	-0.0131792259992258	0	0	0.5707845296169	-0.778702783589026	0	0
0	0	0.00736549321514738	-0.0302330934944123	0	0	0.293354512129344	-0.8725451052611
0.5707845296169	-0.778702783589026	0	0	-0.0127700934053816	-0.0537213353509648	0	0
0	0	0.172458290482043	0.844261597703313	0	0	0.0845937309755803	-0.0737180591144188
3.6	-0.0259012204036012	0.00438750790483693	0	0	0.77126259949711	0.579563523572239	0	0
0	0	0.0190514858811401	0.00215727473163846	0	0	-0.215445127009278	-0.894239911332675
0.77126259949711	0.579563523572239	0	0	-0.0336833541417955	0.0610062787962143	0	0
0	0	-0.690497116506744	0.525338626179306	0	0	0.044498849604694	-0.0321454762117492
3.7	0.0239750793099296	0.00495521409330412	0	0	0.597878026350815	-0.750355281052026	0	0
0	0	0.0135622339569434	0.0357037160469468	0	0	0.643708952619932	0.644635787292037
0.597878026350815	-0.750355281052026	0	0	0.118406222078093	0.00593207120165563	0	0
0	0	0.773377401323312	0.404374729721666	0	0	0.0552653468551306	-0.0197616049509068
3.8	-0.0189678602125277	-0.0125641265459285	0	0	0.743439090425986	0.615852912166336	0	0
0	0	0.0150325032219409	0.0498911767224808	0	0	0.871202568313827	0.180376612637185
0.743439090425986	0.615852912166336	0	0	-0.0249875968364024	0.0211568998557737	0	0
0	0	-0.00998870680242764	0.870298359794324	0	0	-0.0584587057126109	-0.0244242162131873
3.9	0.0116433401114813	0.0171982448208089	0	0	0.620094605980332	-0.741622673445935	0	0
0	0	0.0110530322582895	0.0151095189211005	0	0	-0.819758630543399	0.332002597553995
0.620094605980332	-0.741622673445935	0	0	-0.0123108174018063	0.08308550575053	0	0
0	0	0.778283423427225	-0.389461534337591	0	0	0.0246576517135397	-0.00601318822018975
4	-0.00269632450272471	-0.0187144589946913	0	0	0.722890447110758	0.628393227921728	0	0
0	0	-0.0166734753612301	-0.0125613640270175	0	0	-0.509831309477405	0.724913784329507
0.722890447110758	0.628393227921728	0	0	0.0498721909484441	-0.0742905126426691	0	0
0	0	0.684504234477292	0.510014215568605	0	0	-0.00460477869911063	0.00947877741402582
4.1	-0.005438410398343	0.016858952512806	0	0	0.634109710773695	-0.708923789413662	0	0
0	0	-0.0414149571895904	-0.0353788940139776	0	0	0.0503058234563012	-0.887926620807042
0.634109710773695	-0.708923789413662	0	0	0.0238222373912494	-0.11116413504378	0	0
0	0	0.178882662437505	-0.825292353499152	0	0	0.0268248146477134	0.0808207085574426
4.2	0.0118490434315548	-0.01221271743324	0	0	0.703018730453247	0.6457629635908	0	0
0	0	-0.048776025366904	-0.0151495719003917	0	0	-0.434168178981639	-0.774968941022996
0.703018730453247	0.6457629635908	0	0	-0.039568553390784	0.0165073647850248	0	0
0	0	0.82645088416245	-0.186918166729257	0	0	-0.0120475837515125	-0.0409393634441259
4.3	-0.0155663825360063	0.00519729888538067	0	0	0.655196074901857	-0.695515645293054	0	0
0	0	-0.00735864197893046	0.00709994016400339	0	0	0.775283254664945	0.419468324452926
0.655196074901857	-0.695515645293054	0	0	-0.0105559845987503	0.0666404316497944	0	0
0	0	-0.533465947950436	-0.668406139297382	0	0	-0.0143201820677052	0.00241163303721767
4.4	0.0158145785948038	0.00304664752063739	0	0	0.678155910758385	0.665746012327028	0	0
0	0	0.0379735123711697	0.00462910863633563	0	0	0.883436069759194	-0.0549061757898615
0.678155910758385	0.665746012327028	0	0	0.00114949144796242	-0.0496869853447499	0	0
0	0	0.34281412478263	-0.768761472376272	0	0	-0.0332645212670082	0.00342575102557847
4.5	-0.012459758486152	-0.0103843600133109	0	0	0.673306228670593	-0.659849002227964	0	0
0	0	0.0644619905898334	-0.00442824246158386	0	0	-0.718563568755511	0.521125526565272
0.673306228670593	-0.659849002227964	0	0	-0.0494149515208999	0.0264037078263095	0	0
0	0	-0.831267794826877	0.0117621716591323	0	0	-0.0851268066739284	0.0616746006652235
4.6	0.00605844592353051	0.0158093795383437	0	0	0.642035270643952	0.68899984099782	0	0
0	0	0.0464105218348332	-0.0250850849654529	0	0	-0.312139822272074	0.840948808558445
0.642035270643952	0.68899984099782	0	0	-0.00390151940044511	0.0138984936316265	0	0
0	0	-0.370033721821341	-0.741926755630029	0	0	-0.0793798833512662	-0.00947824067119166
4.7	0.00210879954230327	-0.0182616851578314	0	0	0.707218986788036	-0.635502498054966	0	0
0	0	-0.0247340378726977	-0.00569102671801232	0	0	-0.189792694239932	-0.871618610858038
0.707218986788036	-0.635502498054966	0	0	0.0653080350392307	-0.0173401374806425	0	0
0	0	-0.523391716851968	0.653402168412359	0	0	-0.0726049848675076	0.0718214097250617
4.8	-0.0108293567268875	0.0173581917611058	0	0	0.636231405433978	0.72396356729089	0	0
0	0	-0.0586975075847573	0.0338790498915375	0	0	-0.605517906206158	-0.634282335340066
0.636231405433978	0.72396356729089	0	0	0.0529365796907663	-0.0180797521513717	0	0
0	0	-0.826070830026501	-0.197511711512593	0	0	-0.00892305681508499	0.0715511114553891
4.9	0.0183716562998585	-0.0122275216161863	0	0	0.730426813148352	-0.629086938353005	0	0
0	0	-0.039713368843286	0.0582110938347724	0	0	0.853634361040502	0.207295216268249
0.730426813148352	-0.629086938353005	0	0	-0.0805200851064005	-0.0287809628387747	0	0
0	0	0.198526797604441	0.820777067726632	0	0	-0.0831201811367762	0.00363087397871609
5	-0.0230130776485949	0.00406143866013444	0	0	0.618895193889481	0.7259792562404	0	0
0	0	-0.000196146602155711	0.0200302065224916	0	0	0.83092776577359	-0.298344184953665
0.618895193889481	0.7259792562404	0	0	-0.0474103379243092	0.0409260675349153	0	0
0	0	-0.64507541386398	0.533868504750523	0	0	0.0417248307830444	-0.0092967399217317
5.1	0.0245730338684859	0.00593320718937519	0	0	0.727181133214617	-0.607095210885413	0	0
0	0	0.0386404136403317	-0.0336669823912228	0	0	-0.532958526263565	0.696153976641377
0.727181133214617	-0.607095210885413	0	0	-0.0216194662184403	-0.0412118393448786	0	0
0	0	0.750436115401615	0.344412456767162	0	0	0.0727226929666349	-0.0200458416017307
5.2	-0.0222915256325771	-0.0170121415255693	0	0	0.585380368138009	0.744446066125292	0	0
0	0	0.0162616949328693	-0.0743667601913697	0	0	-0.0774369311055489	0.872324515543992
0.585380368138009	0.744446066125292	0	0	0.0385039448471087	0.0224113628096652	0	0
0	0	0.0164767112174705	0.832776592566439	0	0	0.0269921934817367	0.0661639822373416
5.3	0.0160596699047375	0.0264947011973316	0	0	0.762438598855551	-0.573923830441628	0	0
0	0	-0.0140670856128813	-0.0412813260388469	0	0	-0.414041957691075	-0.770377496564721
0.762438598855551	-0.573923830441628	0	0	-0.0317978128544513	0.0249338211897711	0	0
0	0	0.742446285948836	-0.376011948409192	0	0	-0.0434585365859749	0.0118988051614881
5.4	-0.00682960933503886	-0.0324116459023887	0	0	0.565906933353499	0.766845383986878	0	0
0	0	-0.0312926113971206	0.0147400949637253	0	0	-0.768307400920494	-0.42608852424226
0.565906933353499	0.766845383986878	0	0	0.0710482000542769	0.0870724485890644	0	0
0	0	0.658683168406704	0.507988100839325	0	0	-0.00946371839778168	0.0217219737758292
5.5	-0.00415421819782085	0.0348973800122997	0	0	0.777010740897454	-0.563392978943876	0	0
0	0	0.0231408149981188	0.0602125644835646	0	0	0.876370128148386	-0.047162271581178
0.777010740897454	-0.563392978943876	0	0	-0.00661123902144386	-0.0276088184498895	0	0
0	0	0.154992612756052	-0.816471212959258	0	0	0.0216784878090009	0.038194590331856
5.6	0.015737894626392	-0.0324823516473905	0	0	0.549143111938414	0.78195671059027	0	0
0	0	0.0421741458649593	0.0568055132583363	0	0	0.695228501217105	-0.509778186495175
0.549143111938414	0.78195671059027	0	0	0.00125534839596951	-0.109078485392347	0	0
0	0	0.797694414366354	-0.204365182266084	0	0	0.0117194072563958	0.116970271357224
5.7	-0.0263673949133527	0.0259315628971545	0	0	0.79417267628401	-0.540394341337726	0	0
0	0	0.0204128356743397	-0.00691182498742375	0	0	-0.314541951999254	0.806222689616828
0.79417267628401	-0.540394341337726	0	0	-0.0113051947708972	0.0513325488326509	0	0
0	0	-0.536627388212752	-0.645486755604363	0	0	0.0585885096793633	0.0338873742473757
5.8	0.0331321096038771	-0.0152898944975915	0	0	0.522229334778247	0.793689807578649	0	0
0	0	-0.0222540793181297	-0.0313832596041748	0	0	0.157298532021641	0.850187634830184
0.522229334778247	0.793689807578649	0	0	0.0586670585881899	-0.0275144870799092	0	0
0	0	0.320749008174211	-0.76913875046951	0	0	0.0340737749114052	0.0547650484099353
5.9	-0.0362952026969296	0.00206133328315675	0	0	0.807067269583898	-0.498306231271716	0	0
0	0	-0.0562862263932027	-0.0268750478905772	0	0	-0.584287011131067	-0.633631906176616
0.807067269583898	-0.498306231271716	0	0	-0.0721472394983955	0.0433603643326322	0	0
0	0	-0.823326484395014	0.0614001039614389	0	0	0.0373094295636329	0.0713814809441547
6	0.0351088154559406	0.0109544437359064	0	0	0.48139048219314	0.820360675149741	0	0
0	0	-0.0340174373772838	0.00575316524817701	0	0	-0.844044221460305	-0.192519839446252
0.48139048219314	0.820360675149741	0	0	-0.002602328487334	0.023432330906604	0	0
