# GHZ S RI R 50
0.2	-0.00620879117975986	0.010074228411334	0	0	0.957899041923164	0.0581636893980772	0	0
0	0	0.0207467938945847	0.00456237455309633	0	0	-0.370448336927781	0.911051600831311
0.957899041923164	0.0581636893980772	0	0	0.0208647587745896	0.0430686743665964	0	0
0	0	0.569622753750469	-0.753970452212415	0	0	0.00129318682912899	-0.0307561299953723
0.3	0.00679431774294319	-0.00975226954467208	0	0	0.0336756380532453	-0.96516323031138	0	0
0	0	-0.00508837532453904	0.00166844665057341	0	0	-0.134083835471864	-0.974192199472177
0.0336756380532453	-0.96516323031138	0	0	-0.014064483898726	0.00515060609627363	0	0
0	0	-0.921977970882423	-0.202298794561786	0	0	-0.0326749662016367	-0.0167635284701179
0.4	-0.00877334754834053	0.00788173535566491	0	0	0.948560415154929	0.0622688966174049	0	0
0	0	-0.0394307843211362	0.000822395442146295	0	0	-0.666917453930242	-0.725960785835351
0.948560415154929	0.0622688966174049	0	0	-0.0340981966732675	-0.0135844179604972	0	0
0	0	-0.234922959377454	-0.895866982173141	0	0	0.0215560762788851	0.02018041026675
0.5	0.011105231093805	-0.00466273649895812	0	0	0.128127640347729	-0.948875911244976	0	0
0	0	-0.0332275747188229	0.00471754894409011	0	0	0.963983705592878	0.207579566039521
0.128127640347729	-0.948875911244976	0	0	0.0367964292731809	0.0168420851647098	0	0
0	0	-0.678985152460328	0.636409207574153	0	0	0.00510685450825194	0.00785439921946243
0.6	-0.01172738685116	0.00182794401622825	0	0	0.955111223220966	0.131832310529167	0	0
0	0	-0.0087599255425449	0.00590061487107703	0	0	0.913068443639194	-0.329049373718769
0.955111223220966	0.131832310529167	0	0	0.00501728039982985	-0.0196540862264194	0	0
0	0	-0.861931728079368	-0.345395046896367	0	0	-0.00533246094727396	-0.00712374082257559
0.7	0.0112683066565961	0.000891217606070537	0	0	0.109707989287531	-0.95792465348498	0	0
0	0	0.0221790796637665	-0.0112207182735088	0	0	-0.611929553784756	0.748295866389063
0.109707989287531	-0.95792465348498	0	0	0.00804342492732972	0.00984293530787668	0	0
0	0	0.0452982707873954	0.920802357199229	0	0	0.00229118458697572	-0.0129611222400488
0.8	-0.00999905889902924	-0.00418453907651321	0	0	0.955636070265286	0.114482279261185	0	0
0	0	0.0438225546118883	-0.0420600227555435	0	0	-0.121257625882309	0.961482643115031
0.955636070265286	0.114482279261185	0	0	-0.0227045156465925	0.0127165425305542	0	0
0	0	-0.812488322256356	0.448370958569263	0	0	0.00644823610918523	0.0834448112340808
0.9	0.00733617717603229	0.00709009617486735	0	0	0.1459090263268	-0.940823430376359	0	0
0	0	0.0129966562447595	-0.0278904595506473	0	0	-0.434418780309759	-0.867320518098765
0.1459090263268	-0.940823430376359	0	0	-0.00214019327024597	-0.0619018819371611	0	0
0	0	0.764612716596915	0.526202802871007	0	0	0.0361502625845947	0.0138406275016587
1	-0.00417727538258769	-0.00877947017772475	0	0	0.944043273343646	0.182531536033956	0	0
0	0	-0.0144572685822517	0.0117509683987565	0	0	-0.839375881713672	-0.482554312465329
0.944043273343646	0.182531536033956	0	0	0.00247375977097896	0.0424045185012142	0	0
0	0	-0.126978560377917	0.903911465069377	0	0	0.0029590083528863	0.00222327173400743
1.1	0.00098370584228378	0.00858360470320759	0	0	0.202230632283857	-0.951344106351209	0	0
0	0	-0.0115584076497233	0.0350220660598795	0	0	0.958275014812155	-0.0508500040562939
0.202230632283857	-0.951344106351209	0	0	0.00337095553585618	0.00224838956009163	0	0
0	0	0.87077519257865	-0.26054051436539	0	0	0.00844843604379576	0.0436059869695822
1.2	0.00165967348809524	-0.00670983168714069	0	0	0.961326861365859	0.203030273046444	0	0
0	0	0.00883733786914131	0.064601411367882	0	0	0.772868551152225	-0.555988143844512
0.961326861365859	0.203030273046444	0	0	0.0538691453742512	-3.47250757654419E-05	0	0
0	0	0.615330935752139	0.673023830438407	0	0	0.00685623141100646	0.100853652579249
1.3	-0.00362761961555391	0.00334910856198914	0	0	0.205268284135041	-0.945242635240423	0	0
0	0	0.0163150497349872	0.0190561664855937	0	0	-0.355603179610095	0.885591377091228
0.205268284135041	-0.945242635240423	0	0	-0.0543087750546541	0.00102881343925788	0	0
0	0	0.322575997666492	-0.861554365851742	0	0	0.0404239166837035	0.0153325996610738
1.4	0.00434454180363375	0.000425528169315904	0	0	0.927137535279379	0.233221792191054	0	0
0	0	-0.0131829761857977	-0.04363128991584	0	0	0.180816626638438	0.939632263915814
0.927137535279379	0.233221792191054	0	0	0.0174923790983723	0.00844794618373899	0	0
0	0	0.901047317895099	-0.0849802447902997	0	0	0.0447756634063994	-0.00578077904485722
1.5	-0.00346510246909076	-0.00350925891873189	0	0	0.270317694344667	-0.925212049634709	0	0
0	0	-0.0382460435878504	-0.0562290846853802	0	0	-0.677221719797824	-0.676231433524791
0.270317694344667	-0.925212049634709	0	0	0.0333632215783843	-0.03278102500836	0	0
0	0	-0.463563183354172	-0.768780048429436	0	0	0.0336428165830721	0.0530369693968037
1.6	0.00145200195433353	0.00524904364012421	0	0	0.939963322573092	0.293800535634755	0	0
0	0	-0.0363984876426082	-0.0195311619468041	0	0	-0.939300098975807	-0.182574239510571
0.939963322573092	0.293800535634755	0	0	-0.0515246404730954	-0.026678705971608	0	0
0	0	0.497290701793903	-0.756494028790041	0	0	0.00137582625746877	0.0533350069840456
1.7	0.00121145231095673	-0.00521258094148096	0	0	0.288358014289235	-0.945222755892017	0	0
0	0	0.0153667721364433	0.006326701407445	0	0	0.885719641508574	-0.345981500488061
0.288358014289235	-0.945222755892017	0	0	-0.000840208105927147	0.00527934255999672	0	0
0	0	-0.902261061405906	-0.109566614558392	0	0	0.040295009981401	-0.0303598311944157
1.8	-0.00390473283184412	0.00337620278437244	0	0	0.919029851428812	0.289347176898479	0	0
0	0	0.0452654611381847	0.0379423099299564	0	0	0.572535310723482	-0.747970323106061
0.919029851428812	0.289347176898479	0	0	0.00684424873887374	0.0652281646512857	0	0
0	0	-0.312307637597428	-0.849669822148412	0	0	0.0277593392824194	-0.0339805041306207
1.9	0.00594355027957	-0.000192948492001389	0	0	0.318501833545918	-0.89526498598854	0	0
0	0	0.0526804283941695	-0.0039364738752236	0	0	-0.0815567684906457	0.942341154535399
0.318501833545918	-0.89526498598854	0	0	0.0097172064751111	0.00883575628296025	0	0
0	0	-0.614221014630564	0.647315644953198	0	0	0.0412651550104713	0.0235415038284413
2	-0.00648483678355615	-0.00382010742102698	0	0	0.891796158812977	0.348872698744585	0	0
0	0	0.0151316627201807	-0.00519326775809359	0	0	0.45881233437245	0.832519397120704
0.891796158812977	0.348872698744585	0	0	-0.0500124476680621	-0.0331859040420164	0	0
0	0	-0.845003858272594	-0.262620746101314	0	0	-0.0529786963532113	-0.0210214113573685
2.1	0.00519581414470095	0.00792088465513255	0	0	0.363852912611788	-0.898260116431261	0	0
0	0	-0.0290271960318838	0.00765720917508625	0	0	-0.830647829653838	-0.451152722066559
0.363852912611788	-0.898260116431261	0	0	0.0705682495678524	0.0162521358238715	0	0
0	0	0.136339922137149	0.879134739850123	0	0	-0.00493080044043538	0.0097623727665528
2.2	-0.00169239644311429	-0.0114812096416926	0	0	0.898437246150254	0.375990433421719	0	0
0	0	-0.0479521469960228	0.0170455087168347	0	0	-0.932024689576742	0.069271513393469
0.898437246150254	0.375990433421719	0	0	0.0146529530954016	-0.0109225649451285	0	0
0	0	-0.73667061760594	0.506545744605292	0	0	0.0426570086230346	-0.011238344677447
2.3	-0.00355917773005125	0.013474922468255	0	0	0.386087705031184	-0.889228698508461	0	0
0	0	-0.0302733652332434	0.0192005711388176	0	0	0.736483678134568	-0.555643212385471
0.386087705031184	-0.889228698508461	0	0	0.0580086074771717	-0.0289217431950935	0	0
0	0	0.776158676797693	0.432017546266683	0	0	0.0669008625807537	0.0465593257292643
2.4	0.0097313672634726	-0.0133307829638552	0	0	0.877631702899181	0.398243788136772	0	0
0	0	-0.000400847335280805	0.000973651154412888	0	0	0.324261936488376	-0.867891688491152
0.877631702899181	0.398243788136772	0	0	-0.0968717423795337	0.0136693771286497	0	0
0	0	-0.0391867371058758	0.882523822889923	0	0	0.0473121887529313	-0.0492259175052246
2.5	-0.0160981407421693	0.0106045735578106	0	0	0.415408987055982	-0.866265248582316	0	0
0	0	0.0193629408400065	-0.0360430168104872	0	0	0.189352508709491	0.917706417388109
0.415408987055982	-0.866265248582316	0	0	-0.0102427965355558	-0.0272771414206069	0	0
0	0	0.805114014518371	-0.332110826377151	0	0	0.0127797353841064	-0.000904389985924073
2.6	0.0214774538860461	-0.00563099702780954	0	0	0.859466080249617	0.429652461985182	0	0
0	0	0.0180917402474504	-0.0387618997690501	0	0	0.667272437843559	0.65381367206611
0.859466080249617	0.429652461985182	0	0	0.00539873035620393	-0.0337109211270424	0	0
0	0	0.63067226238152	0.597466665914974	0	0	0.0627534794945364	0.00990004271584516
2.7	-0.0250229950596012	-0.00119516392728594	0	0	0.444345190138159	-0.853788521667922	0	0
0	0	0.0212402828677097	-0.00955480277379239	0	0	-0.897930297956935	-0.174335923197869
0.444345190138159	-0.853788521667922	0	0	0.00305637405882484	-0.0131852165443163	0	0
0	0	0.276054720290508	-0.83586627106342	0	0	-0.0272703812660872	-0.00120116409255837
2.8	0.025596840469039	0.00894115760782824	0	0	0.843634203431646	0.457898433991677	0	0
0	0	0.00951730888732459	0.0125026912623555	0	0	-0.842888287132268	0.312751820453407
0.843634203431646	0.457898433991677	0	0	0.00387426011185641	0.0637044888907337	0	0
0	0	0.872226940489833	-0.150228496543701	0	0	0.0262763644838742	-0.0641718031281993
2.9	-0.0225239768329535	-0.0166999807196511	0	0	0.474024673380354	-0.824884393201532	0	0
0	0	-0.000486125496723624	0.0362869921643764	0	0	0.567843317232443	-0.701413642390995
0.474024673380354	-0.824884393201532	0	0	-0.0538571969510804	0.0339742509013595	0	0
0	0	-0.515707294851255	-0.703315685883198	0	0	-0.0401863731824179	-0.0464782455566918
3	0.0166411826006178	0.0236633670932883	0	0	0.816355664100271	0.498269336886724	0	0
0	0	-0.0113616938035333	0.0289990862664935	0	0	0.0916060029977038	-0.921270306723673
0.816355664100271	0.498269336886724	0	0	-0.00712086811944252	-0.0178154172610041	0	0
0	0	0.406910052630267	-0.761598033510496	0	0	0.0136955246987108	0.0858377796116267
3.1	-0.00821404545719613	-0.0280056225967767	0	0	0.519027096977495	-0.806507358127713	0	0
0	0	-0.0205208594261018	0.0118632999961649	0	0	0.449064540856272	0.807441523660052
0.519027096977495	-0.806507358127713	0	0	0.0385074462987439	-0.0646305303766551	0	0
0	0	-0.870377473937216	-0.0498517111988107	0	0	-0.0756189331002088	0.00621868386612331
3.2	-0.00124621967198379	0.0297806910747216	0	0	0.805135912680185	0.542735939115952	0	0
0	0	-0.0179896634514461	-0.00635830004925835	0	0	0.799372164218564	0.437321589818982
0.805135912680185	0.542735939115952	0	0	0.000581274286506653	0.02537600174896	0	0
0	0	-0.338326336457886	-0.814911384893301	0	0	-0.0594126968815487	0.00694224448128778
3.3	0.0103848694332709	-0.0275784957040429	0	0	0.553994995131511	-0.801173525920905	0	0
0	0	-0.0013223767714463	-0.0241137560275727	0	0	-0.906022032210919	0.0511001513231414
0.553994995131511	-0.801173525920905	0	0	0.0621340319015921	0.0243488383700893	0	0
0	0	-0.57490729432687	0.676846899228995	0	0	-0.0276368482731824	-0.107102740883216
3.4	-0.017997535068304	0.0216283224379466	0	0	0.784607097497116	0.558508615358734	0	0
0	0	-0.00432142627139268	-0.0406749753862044	0	0	-0.73305950278333	0.544479282230964
0.784607097497116	0.558508615358734	0	0	-0.115178512129243	0.0090384719124256	0	0
0	0	-0.857970520887464	-0.221585848718411	0	0	-0.0196712666126169	-0.0397696138393967
3.5	0.0233158993113358	-0.0138320645835055	0	0	0.572842381233425	-0.775472778383446	0	0
0	0	0.00808056220959774	-0.0304033105817383	0	0	0.296127460882811	-0.870245867281487
0.572842381233425	-0.775472778383446	0	0	-0.0122955697167505	-0.0536863755056347	0	0
0	0	0.169132964250802	0.843702955094048	0	0	0.0849415177709454	-0.0729108140148929
3.6	-0.0252597312943318	0.00508244291498443	0	0	0.768271117279397	0.582355966790461	0	0
0	0	0.0197902037549618	0.00240327295321501	0	0	-0.211642483955539	-0.8944340393319
0.768271117279397	0.582355966790461	0	0	-0.0341138739899392	0.0605817978934729	0	0
0	0	-0.692107532790619	0.522128427851376	0	0	0.0447184363755803	-0.031790517100399
3.7	0.0232509439504238	0.00427026149700623	0	0	0.601116965859759	-0.74792912677191	0	0
0	0	0.0141451134604647	0.036286331859643	0	0	0.640968610042117	0.647373760608287
0.601116965859759	-0.74792912677191	0	0	0.118356953073646	0.00687691471349524	0	0
0	0	0.771658857861409	0.4076637876226	0	0	0.0554153484922047	-0.0193437053880768
3.8	-0.0181722683097376	-0.0120277103515961	0	0	0.741388816826552	0.619520178010365	0	0
0	0	0.0153754120498343	0.0505725588249434	0	0	0.871024044704639	0.184237172751249
0.741388816826552	0.619520178010365	0	0	-0.02524979611989	0.0209358302764742	0	0
0	0	-0.0137289679120209	0.870850154336169	0	0	-0.0583794270803523	-0.0249860262545006
3.9	0.0109374815159453	0.0168669148873445	0	0	0.62407997137695	-0.740273788898303	0	0
0	0	0.0111280212106001	0.0157200840304908	0	0	-0.82232313135257	0.329206716948388
0.62407997137695	-0.740273788898303	0	0	-0.0130757940343198	0.0832399648488792	0	0
0	0	0.781016572053832	-0.386918559521677	0	0	0.0247183710574994	-0.00581595577168086
4	-0.0022081939012348	-0.0184361777260687	0	0	0.722218865576957	0.632297489197079	0	0
0	0	-0.0168671375215138	-0.0121602251038272	0	0	-0.513540939383095	0.724625805792407
0.722218865576957	0.632297489197079	0	0	0.0505609644760025	-0.0742106566643924	0	0
0	0	0.684129031096649	0.513578328595216	0	0	-0.0047500769315632	0.00954677812366227
4.1	-0.00578666959758246	0.0164994060273596	0	0	0.637876169221812	-0.708905394470985	0	0
0	0	-0.041798045300492	-0.0352665898549948	0	0	0.0531499945598678	-0.890140021470018
0.637876169221812	-0.708905394470985	0	0	0.0245736595964997	-0.111528972309651	0	0
0	0	0.181878411879643	-0.826946356601436	0	0	0.0264385162649541	0.0815067267730138
4.2	0.012193093328963	-0.0117725302615827	0	0	0.703550124170623	0.64933455735924	0	0
0	0	-0.0491890453413315	-0.015303704679717	0	0	-0.433625762616988	-0.778238748336363
0.703550124170623	0.64933455735924	0	0	-0.0398926398134686	0.0164967149616643	0	0
0	0	0.829294106305011	-0.185535491090028	0	0	-0.011926508254595	-0.0411403847084438
4.3	-0.0159262670652413	0.00478819111643527	0	0	0.658388203861473	-0.696549497373179	0	0
0	0	-0.00763870840744321	0.00678277738024073	0	0	0.776921429385922	0.422007347392086
0.658388203861473	-0.696549497373179	0	0	-0.010842173034912	0.0670746804478942	0	0
0	0	-0.533966917220867	-0.67129451275986	0	0	-0.0143907300921761	0.0024233408532217
4.4	0.0160770530325244	0.00338220039182824	0	0	0.679502267654144	0.66834527031566	0	0
0	0	0.0379213932262771	0.00430238176736278	0	0	0.886038583306102	-0.0541950951132014
0.679502267654144	0.66834527031566	0	0	0.00125976565881306	-0.0500029952099461	0	0
0	0	0.344559659755273	-0.770641747646797	0	0	-0.0334500763266642	0.00333243343213255
4.5	-0.0125448285419695	-0.0107331029471475	0	0	0.675339882618809	-0.661294738392733	0	0
0	0	0.0646674030232785	-0.00462586258122714	0	0	-0.720629758137189	0.522155810023467
0.675339882618809	-0.661294738392733	0	0	-0.049731336997279	0.0263805607513355	0	0
0	0	-0.833405670975139	0.0114374161162213	0	0	-0.0856684795634338	0.0617793829984315
4.6	0.00600430092844759	0.0163008413417388	0	0	0.643437768844931	0.690476838145349	0	0
0	0	0.0468006553858747	-0.0250659991309266	0	0	-0.31276151005057	0.842733506743948
0.643437768844931	0.690476838145349	0	0	-0.00401452213995311	0.0137729684100103	0	0
0	0	-0.370844771588638	-0.743473817507687	0	0	-0.0798633766511351	-0.00970094313052676
4.7	0.00215782659043898	-0.0189287623988682	0	0	0.708218304047546	-0.63675257763845	0	0
0	0	-0.024292503132113	-0.00541516298692318	0	0	-0.190281998952446	-0.87291323886709
0.708218304047546	-0.63675257763845	0	0	0.0653155994546741	-0.0176192381878325	0	0
0	0	-0.524046569545083	0.654523902745272	0	0	-0.073049528195984	0.0719071752752848
4.8	-0.0107742586107261	0.0180970550361536	0	0	0.637125905609359	0.724545175396558	0	0
0	0	-0.0583935017115045	0.0343419066817571	0	0	-0.606284190551241	-0.6347652250299
0.637125905609359	0.724545175396558	0	0	0.0527654323275938	-0.0183321583512116	0	0
0	0	-0.826948057968511	-0.197501540101295	0	0	-0.00921122571200781	0.0715615410423683
4.9	0.018294978129856	-0.0129400791439317	0	0	0.730672684443947	-0.629412495341914	0	0
0	0	-0.0396578951155654	0.0587471629025521	0	0	0.853999739766138	0.207287296474167
0.730672684443947	-0.629412495341914	0	0	-0.080920492343228	-0.0289279226310506	0	0
0	0	0.198694371014993	0.821085847493124	0	0	-0.0835440495836454	0.00357773316886647
5	-0.0229868668721201	0.00478983859717878	0	0	0.618646984823005	0.726200539924029	0	0
0	0	-0.000457255244860889	0.0205206511833124	0	0	0.83105170471691	-0.298151259673313
0.618646984823005	0.726200539924029	0	0	-0.0477888964657526	0.0408136651203888	0	0
0	0	-0.645248133966829	0.533736346094273	0	0	0.0413639415075822	-0.00928809668325279
5.1	0.0245330178290254	0.00510056956288547	0	0	0.727496863294878	-0.606345055332164	0	0
0	0	0.0381085191491375	-0.0333379938558625	0	0	-0.533391957763004	0.695618455130537
0.727496863294878	-0.606345055332164	0	0	-0.021888079547364	-0.0412398512703534	0	0
0	0	0.750034599247194	0.344922133993806	0	0	0.0723685838878424	-0.0198590487465674
5.2	-0.0221458043632704	-0.016125824810884	0	0	0.584146678111906	0.745149408596394	0	0
0	0	0.0155895600753634	-0.0742604490060209	0	0	-0.0786869169452236	0.87197008353066
0.584146678111906	0.745149408596394	0	0	0.0381182870242614	0.0225995109252519	0	0
0	0	0.015258360449151	0.832569993206528	0	0	0.0265014140683842	0.0663576091159264
5.3	0.0157975302007181	0.0256992669355041	0	0	0.763596802320011	-0.572240523884248	0	0
0	0	-0.014685640427479	-0.041401377315917	0	0	-0.412373694658284	-0.771096316367459
0.763596802320011	-0.572240523884248	0	0	-0.0321062239309889	0.0249662756283444	0	0
0	0	0.743091412672301	-0.374408292539229	0	0	-0.0436645738854763	0.0119363635764445
5.4	-0.00659131245316372	-0.031786019607236	0	0	0.564075663142192	0.768674414599949	0	0
0	0	-0.0316937389320431	0.0144209833008328	0	0	-0.767380616464095	-0.428226561995156
0.564075663142192	0.768674414599949	0	0	0.0705256852340713	0.0877154818085865	0	0
0	0	0.657511926480222	0.509857856023494	0	0	-0.00964400771451329	0.0219038535076037
5.5	-0.00425379107391727	0.0343162200400002	0	0	0.779455984290571	-0.561502461019746	0	0
0	0	0.0230550741861049	0.0597809106352063	0	0	0.877291427468499	-0.0445080513181886
0.779455984290571	-0.561502461019746	0	0	-0.00650398405108334	-0.0275372164328649	0	0
0	0	0.157641616354851	-0.816717566407348	0	0	0.0214672958873818	0.0385615448694747
5.6	0.0157392776626304	-0.0318046035748274	0	0	0.547481434453216	0.785037898375122	0	0
0	0	0.0424108680739809	0.0563776376182222	0	0	0.69808836067047	-0.508271676042117
0.547481434453216	0.785037898375122	0	0	0.00191305657624116	-0.109322396225219	0	0
0	0	0.799693012153919	-0.202011825283824	0	0	0.0109277479174792	0.117547296768347
5.7	-0.0264131079658924	0.0251363643183635	0	0	0.798009242487863	-0.539038640981311	0	0
0	0	0.0209006933566753	-0.00723042778835589	0	0	-0.317995424270002	0.807196136270248
0.798009242487863	-0.539038640981311	0	0	-0.0118814744518405	0.0516381277553321	0	0
0	0	-0.53583226162298	-0.648874994891092	0	0	0.0585065980115607	0.0346017864847361
5.8	0.0333223781019881	-0.0145145286372101	0	0	0.521544865334065	0.797968041382999	0	0
0	0	-0.0216789859274159	-0.0315325721877748	0	0	0.155203319198105	0.853495432025692
0.521544865334065	0.797968041382999	0	0	0.0589949759066315	-0.0271405006924905	0	0
0	0	0.324182292752775	-0.770705542160382	0	0	0.0337627007169821	0.0555834706920597
5.9	-0.0365519841393333	0.00143942735690476	0	0	0.811716518907792	-0.498163608080807	0	0
0	0	-0.0557895434150355	-0.0268362607701816	0	0	-0.585031630591711	-0.637736328836436
0.811716518907792	-0.498163608080807	0	0	-0.0732035685734523	0.0436491348460533	0	0
0	0	-0.826850203955428	0.0595160657826223	0	0	0.0370778317558697	0.0725357801245178
6	0.0352900418008375	0.0113880680113772	0	0	0.482063997713579	0.82518090025262	0	0
0	0	-0.0337258666642917	0.00593572188651545	0	0	-0.84759177049693	-0.195039612770056
0.482063997713579	0.82518090025262	0	0	-0.00285605785333481	0.0240912644355403	0	0
