# GHZ S RI R 50
0.2	-0.00697043299382052	0.0105851196237277	0	0	0.957865586279995	0.0581525458704148	0	0
0	0	0.0198659332698609	0.00428008403459769	0	0	-0.370500128044217	0.911069213194759
0.957865586279995	0.0581525458704148	0	0	0.0218199368266886	0.042196924898354	0	0
0	0	0.569675196560958	-0.753973970295427	0	0	0.00226086201353019	-0.0316182354897155
0.3	0.00705359468439093	-0.0101566141986932	0	0	0.0336767239870806	-0.965179008769709	0	0
0	0	-0.00549235001649866	0.00141347417246736	0	0	-0.13408755744771	-0.974234489351139
0.0336767239870806	-0.965179008769709	0	0	-0.0136041318113564	0.00412441495041794	0	0
0	0	-0.922017298152685	-0.202309466750712	0	0	-0.0321992369712505	-0.0177843800268565
0.4	-0.00881730659582093	0.00782534075318484	0	0	0.948580613576344	0.0622759867080903	0	0
0	0	-0.0393609280860096	0.000805234155308311	0	0	-0.666936945021458	-0.72598230208056
0.948580613576344	0.0622759867080903	0	0	-0.034077776298218	-0.0144783916570464	0	0
0	0	-0.234929693543999	-0.895893413246079	0	0	0.0215983751408601	0.0192887572664279
0.5	0.0112386610203082	-0.00411892789646637	0	0	0.128103415858173	-0.948900154102493	0	0
0	0	-0.0327348663282785	0.00498330447772506	0	0	0.964010753046128	0.207574848230861
0.128103415858173	-0.948900154102493	0	0	0.036587062968074	0.0162625821457694	0	0
0	0	-0.67899602402219	0.636432727975332	0	0	0.00491123383683273	0.00726984592891715
0.6	-0.0122749468166548	0.00102440199388215	0	0	0.955117366285716	0.131831392101839	0	0
0	0	-0.00804095638413342	0.00650844538460642	0	0	0.913081516126414	-0.329052251705478
0.955117366285716	0.131831392101839	0	0	0.00482967017230128	-0.0199104956480094	0	0
0	0	-0.861942902823735	-0.345401302275085	0	0	-0.00551181558691365	-0.00738561239646901
0.7	0.0122938612508523	0.00150432436185016	0	0	0.109669308319722	-0.957938296176032	0	0
0	0	0.0228811451750909	-0.0103177242357342	0	0	-0.611935380708641	0.748288207084881
0.109669308319722	-0.957938296176032	0	0	0.00807404164979873	0.00975631777731791	0	0
0	0	0.0452892502756774	0.920800661563225	0	0	0.00232427035957633	-0.013046199527138
0.8	-0.0111672222893351	-0.00437466096676046	0	0	0.955666110825697	0.114435772854895	0	0
0	0	0.0443713891780212	-0.0410525181937198	0	0	-0.121152711173823	0.96147306019768
0.955666110825697	0.114435772854895	0	0	-0.0224167694165902	0.0125604028515044	0	0
0	0	-0.812421740760826	0.448446749598757	0	0	0.00675082817934844	0.0832961581026105
0.9	0.00824640911606659	0.00696403993066164	0	0	0.145935711178827	-0.940822553866425	0	0
0	0	0.0133140584795335	-0.0270362852535636	0	0	-0.434391550901608	-0.867282438875387
0.145935711178827	-0.940822553866425	0	0	-0.00173260982289529	-0.0623437903560876	0	0
0	0	0.764572311388917	0.526183467201677	0	0	0.0365763598965704	0.0134172554344308
1	-0.00464960873121966	-0.00862442631937356	0	0	0.943990289680455	0.182496822468308	0	0
0	0	-0.0144127610856636	0.0122229407554891	0	0	-0.839357239559286	-0.482549207250992
0.943990289680455	0.182496822468308	0	0	0.00274267989185007	0.0415977091944437	0	0
0	0	-0.126980649396035	0.903893362887548	0	0	0.00326872821654497	0.00143685321134164
1.1	0.0010738561906392	0.00876582732305895	0	0	0.202238775292465	-0.951287990969919	0	0
0	0	-0.0117363244699933	0.0349684387126992	0	0	0.958247184888247	-0.0508480890673043
0.202238775292465	-0.951287990969919	0	0	0.00323947554404325	0.00120724585208605	0	0
0	0	0.870750001537935	-0.260532544439934	0	0	0.00837721115403419	0.0425566041300323
1.2	0.0015734493095328	-0.00741773436212657	0	0	0.961253931823936	0.203034032095097	0	0
0	0	0.00859291880779254	0.064010413567434	0	0	0.772860926871815	-0.556008219326809
0.961253931823936	0.203034032095097	0	0	0.053239856872394	-0.00105552626419924	0	0
0	0	0.615349180223939	0.67301433247385	0	0	0.00630010182577739	0.0997871216849006
1.3	-0.00326430167378753	0.00431287891003577	0	0	0.205386888528738	-0.945220179673006	0	0
0	0	0.0162024921908838	0.0180993391067846	0	0	-0.355581943221508	0.885508727748168
0.205386888528738	-0.945220179673006	0	0	-0.0552610380804544	0.000201432633424384	0	0
0	0	0.322557410145531	-0.861474231450355	0	0	0.0395216519240806	0.0144519844338915
1.4	0.00383738787423428	-0.000574427591426154	0	0	0.927083232954228	0.233298785897562	0	0
0	0	-0.0129205181264798	-0.0446573356604476	0	0	0.180734682933094	0.939536585710683
0.927083232954228	0.233298785897562	0	0	0.016422898194641	0.00782849316467018	0	0
0	0	0.900949804249366	-0.0849117777652516	0	0	0.0437521091279063	-0.0064738620032927
1.5	-0.00282019958293149	-0.00243320082567699	0	0	0.270448535495014	-0.925116353799832	0	0
0	0	-0.0375688389738087	-0.0571681474031137	0	0	-0.677151308997888	-0.676211066298804
0.270448535495014	-0.925116353799832	0	0	0.0322516312390395	-0.0331848837098027	0	0
0	0	-0.463503691291695	-0.768745581861638	0	0	0.0325492371399653	0.0525314098728838
1.6	0.000507683593947112	0.00422384621946815	0	0	0.939995396019758	0.294026565583039	0	0
0	0	-0.0354181847445798	-0.0202928832884984	0	0	-0.939266863527628	-0.182646723037654
0.939995396019758	0.294026565583039	0	0	-0.0526145998138811	-0.0268065218350711	0	0
0	0	0.497342199083251	-0.756438896548786	0	0	0.000285716999258452	0.0531360418523444
1.7	0.00235532950678268	-0.00455264991820778	0	0	0.288528155697046	-0.945245957766368	0	0
0	0	0.0164350287666065	0.00586165997330959	0	0	0.885769292386492	-0.345757492492174
0.288528155697046	-0.945245957766368	0	0	-0.00174966607172686	0.00549050725299828	0	0
0	0	-0.902201483863981	-0.10977767574387	0	0	0.0393866869588017	-0.0302137492244709
1.8	-0.00487173629588068	0.00307752295878113	0	0	0.919075073288014	0.289466344438374	0	0
0	0	0.0461864593434218	0.0378426840483415	0	0	0.572752569787162	-0.747860878033686
0.919075073288014	0.289466344438374	0	0	0.00621331977942358	0.0656304597674355	0	0
0	0	-0.312106980787513	-0.849789803665764	0	0	0.0271309363682134	-0.0336450595571503
1.9	0.00659322666001807	2.46622727626128E-05	0	0	0.318695653965971	-0.89534177854154	0	0
0	0	0.0532716623849503	-0.00370109974529519	0	0	-0.0817561323125107	0.942400489202726
0.318695653965971	-0.89534177854154	0	0	0.00938076120491763	0.00922778318844081	0	0
0	0	-0.614402992544501	0.647242206961971	0	0	0.0408910900693941	0.0239121094997766
2	-0.00691271114645873	-0.00417624262776946	0	0	0.891942068216123	0.349111956646417	0	0
0	0	0.0153108621700418	-0.00472157676894565	0	0	0.458740778845066	0.832775164885958
0.891942068216123	0.349111956646417	0	0	-0.0502040626224973	-0.0329442598728552	0	0
0	0	-0.845120860651766	-0.262838538905378	0	0	-0.0531982451798487	-0.0207983368551729
2.1	0.00562507599422781	0.00847893340145104	0	0	0.364028623949957	-0.898397927072818	0	0
0	0	-0.0292576221412732	0.00823721682344657	0	0	-0.830752537955912	-0.45137556908942
0.364028623949957	-0.898397927072818	0	0	0.0704217412848445	0.0164437003831548	0	0
0	0	0.13623288539673	0.879340272877337	0	0	-0.00512710588160531	0.00991063241796928
2.2	-0.00229169690546211	-0.0120884615906553	0	0	0.898649509783918	0.376189091400266	0	0
0	0	-0.0484743904202362	0.017577351022274	0	0	-0.932223943706031	0.0691514001583112
0.898649509783918	0.376189091400266	0	0	0.0144112257076174	-0.0107589219224969	0	0
0	0	-0.736893151323514	0.506542560344826	0	0	0.0424096448398556	-0.0110951064665697
2.3	-0.00285548778291578	0.0138888089600135	0	0	0.386267523732588	-0.889446209831676	0	0
0	0	-0.0308745248035124	0.0195709062988374	0	0	0.736674154949905	-0.555696963032988
0.386267523732588	-0.889446209831676	0	0	0.0577422082730117	-0.0286363238889314	0	0
0	0	0.776280208429097	0.432164322800093	0	0	0.0665868691883077	0.046848880621232
2.4	0.00917082668216177	-0.0134844002082099	0	0	0.877982710362673	0.398348861673669	0	0
0	0	-0.000882265718702451	0.00113245698126322	0	0	0.324429532403332	-0.868113617767794
0.877982710362673	0.398348861673669	0	0	-0.0971862624105494	0.0141733937183893	0	0
0	0	-0.0392735699368831	0.882774369032731	0	0	0.0470425107948032	-0.048796954844185
2.5	-0.0158695434131626	0.0106739521272826	0	0	0.415500719462014	-0.866578571097196	0	0
0	0	0.0191634310972277	-0.0360866161334051	0	0	0.189415007179345	0.91797541100386
0.415500719462014	-0.866578571097196	0	0	-0.0103330907239716	-0.0266596429280719	0	0
0	0	0.805348791801818	-0.332214561535889	0	0	0.0126260990915224	-0.000290309187545497
2.6	0.0215316404012	-0.00585545438205237	0	0	0.859777651207024	0.429701889811611	0	0
0	0	0.0182255581957144	-0.0389059929402205	0	0	0.667506231199047	0.653945461896025
0.859777651207024	0.429701889811611	0	0	0.00550776906339605	-0.0330583784637999	0	0
0	0	0.630891708295927	0.597585542667943	0	0	0.0628096920510155	0.0105763662503502
2.7	-0.0251651727543282	-0.000748350329823857	0	0	0.444356162474144	-0.854104624465427	0	0
0	0	0.0216288398124495	-0.00965839226040342	0	0	-0.89819064539235	-0.174297651519468
0.444356162474144	-0.854104624465427	0	0	0.00330617617923455	-0.0125616778640134	0	0
0	0	0.276049974668323	-0.836119468196815	0	0	-0.0271264100314398	-0.000540049175457444
2.8	0.0257386644316845	0.00837494171001612	0	0	0.843982672121186	0.457862408172439	0	0
0	0	0.0100081286089239	0.0125850403004825	0	0	-0.843013914326479	0.312911592877381
0.843982672121186	0.457862408172439	0	0	0.00423188292608446	0.0642960003512139	0	0
0	0	0.872377403526998	-0.150360391845639	0	0	0.0265154035696406	-0.0636122153571512
2.9	-0.022724791317536	-0.0160585235147894	0	0	0.47400960435019	-0.825202355914719	0	0
0	0	-6.06307098590826E-05	0.0366791826499595	0	0	0.56787231199836	-0.701617479573229
0.47400960435019	-0.825202355914719	0	0	-0.0534962860149449	0.0344661732815324	0	0
0	0	-0.515890647299751	-0.703392957300123	0	0	-0.0399151587504287	-0.0459837068065807
3	0.0169097244730867	0.0228384966456874	0	0	0.816603661639753	0.498224170616325	0	0
0	0	-0.0111137982008372	0.0297107924741333	0	0	0.0913948709023778	-0.921470893088578
0.816603661639753	0.498224170616325	0	0	-0.00673578362397257	-0.017506147096503	0	0
0	0	0.406799441810172	-0.76184610981481	0	0	0.0140733726341327	0.0862309024412679
3.1	-0.00841207681540003	-0.0269495224782534	0	0	0.518963193686997	-0.806664511086703	0	0
0	0	-0.0205345776765925	0.0128005406612605	0	0	0.449267018425613	0.807537016020601
0.518963193686997	-0.806664511086703	0	0	0.0388581535294134	-0.0645042959024323	0	0
0	0	-0.870555845839461	-0.0497385501118933	0	0	-0.0753107834875138	0.00644920501658527
3.2	-0.00125343382197194	0.028594134003575	0	0	0.805384196769698	0.542672615025036	0	0
0	0	-0.0183085484354739	-0.00540316099342459	0	0	0.799560149394217	0.437270906508325
0.805384196769698	0.542672615025036	0	0	0.000836720817276856	0.0254008859455665	0	0
0	0	-0.338498997573844	-0.814987113481923	0	0	-0.0591875529133124	0.0070183510705147
3.3	0.0105987367276865	-0.0264644931385563	0	0	0.553893285528615	-0.801347291934149	0	0
0	0	-0.00189882018667607	-0.0233497123569362	0	0	-0.906109972111359	0.0511039338484705
0.553893285528615	-0.801347291934149	0	0	0.0622598899202219	0.0242933676572024	0	0
0	0	-0.574963930459479	0.676911800890401	0	0	-0.0275472118263732	-0.107139000523993
3.4	-0.0182476062129744	0.0206861035393287	0	0	0.784892986132228	0.558569943941005	0	0
0	0	-0.00506319061706504	-0.0402771873482428	0	0	-0.733094512909839	0.544571189161093
0.784892986132228	0.558569943941005	0	0	-0.115240069699527	0.0090478960497433	0	0
0	0	-0.858061256554456	-0.221556257672477	0	0	-0.0196884171494417	-0.039796972860377
3.5	0.0234923540715865	-0.0129366147378623	0	0	0.572913892529289	-0.775637392341682	0	0
0	0	0.00731627134311039	-0.030440690976367	0	0	0.296131675935943	-0.870248683236622
0.572913892529289	-0.775637392341682	0	0	-0.0123694612044248	-0.0536727334666494	0	0
0	0	0.16913087473353	0.843707215381554	0	0	0.084877465923825	-0.0729038652417987
3.6	-0.0254317408708713	0.0041299214366704	0	0	0.768540646270006	0.582396515792732	0	0
0	0	0.0191125010114037	0.001942373836272	0	0	-0.211670278621513	-0.894485433507811
0.768540646270006	0.582396515792732	0	0	-0.0341665378931356	0.0606874984324511	0	0
0	0	-0.692141369658279	0.5221719301529	0	0	0.0446644299458248	-0.03173896997142
3.7	0.0235152758224792	0.00523962037940906	0	0	0.601131223824278	-0.748062224101587	0	0
0	0	0.0137020902889962	0.0355514432372363	0	0	0.641027496805301	0.647429215899974
0.601131223824278	-0.748062224101587	0	0	0.118396367799957	0.0069316930651211	0	0
0	0	0.771728597323298	0.407697566297472	0	0	0.0554115438726877	-0.0192827662845248
3.8	-0.0185633046184939	-0.0128669002697166	0	0	0.741684843465273	0.619624832951561	0	0
0	0	0.0151918882972987	0.0498352475996165	0	0	0.871256446682252	0.184249466266554
0.741684843465273	0.619624832951561	0	0	-0.02522037489468	0.0209888764810026	0	0
0	0	-0.0136972353921401	0.871075604152652	0	0	-0.058374694422681	-0.0249497209844246
3.9	0.0113054946371771	0.0174612142147831	0	0	0.624146415333544	-0.740606422662183	0	0
0	0	0.011195331610142	0.0151600378089924	0	0	-0.82251046448269	0.329327125206358
0.624146415333544	-0.740606422662183	0	0	-0.0129902680192947	0.0832817641683779	0	0
0	0	0.781190961251992	-0.387051248740836	0	0	0.0248018495370094	-0.00582031384465021
4	-0.00236445688308811	-0.0188940801100663	0	0	0.722522980507167	0.632445530476238	0	0
0	0	-0.0165846515845859	-0.0124168668625347	0	0	-0.513615255866926	0.724914810449865
0.722522980507167	0.632445530476238	0	0	0.0506586339545091	-0.0743391559884943	0	0
0	0	0.684405329411515	0.513657511666265	0	0	-0.00466086383734947	0.00950780199372944
4.1	-0.00580630855431798	0.0169959919629113	0	0	0.638030075456255	-0.709249380152532	0	0
0	0	-0.0414129120003576	-0.0351849240040101	0	0	0.0529667922394212	-0.890446950204091
0.638030075456255	-0.709249380152532	0	0	0.0246178458353113	-0.111725988361933	0	0
0	0	0.181752118632419	-0.827261387555176	0	0	0.0265682986497564	0.0814646598206726
4.2	0.0122427002048711	-0.012352566602211	0	0	0.704035387625054	0.649453823577787	0	0
0	0	-0.0488634272578605	-0.0149745898649932	0	0	-0.43396865191409	-0.778427363534949
0.704035387625054	0.649453823577787	0	0	-0.0399090604587442	0.0164262677107632	0	0
0	0	0.829559574748533	-0.185797925890429	0	0	-0.0119216891889876	-0.0412625495749283
4.3	-0.0159428463637229	0.00533237018046086	0	0	0.658425443744216	-0.697106289789182	0	0
0	0	-0.00750445325156591	0.0071907187546173	0	0	0.777355510157115	0.42190528386503
0.658425443744216	-0.697106289789182	0	0	-0.0108354496407092	0.0670916272103704	0	0
0	0	-0.534393273622462	-0.671367843160433	0	0	-0.0144178021244422	0.00238133450948997
4.4	0.0161702679531039	0.00296628825361709	0	0	0.680046696172843	0.668350786731795	0	0
0	0	0.0378023283029587	0.00460875130842476	0	0	0.886348040171592	-0.0545845077696837
0.680046696172843	0.668350786731795	0	0	0.00118256171494999	-0.049993066339752	0	0
0	0	0.344367747816267	-0.771074073017807	0	0	-0.0335186305517737	0.00340545374178768
4.5	-0.0128340697870917	-0.0103759977636018	0	0	0.675286100309903	-0.661890755166984	0	0
0	0	0.0643113016939947	-0.00456271357829484	0	0	-0.720638944724545	0.522723541537647
0.675286100309903	-0.661890755166984	0	0	-0.0497188687218968	0.0266126534051558	0	0
0	0	-0.833718758832939	0.0118672833089249	0	0	-0.085680083260299	0.0620711834146263
4.6	0.00649485221189246	0.015849639516732	0	0	0.644031910200167	0.690339368936299	0	0
0	0	0.046305633375312	-0.0253014918120552	0	0	-0.312400077973243	0.843178885608134
0.644031910200167	0.690339368936299	0	0	-0.00387043033215415	0.0140134326217566	0	0
0	0	-0.371373582509119	-0.743511433943274	0	0	-0.0798485812986214	-0.00937105365957261
4.7	0.0016046003753386	-0.0183006818604817	0	0	0.707949578820045	-0.637315328937837	0	0
0	0	-0.0247400509124294	-0.00592841158312062	0	0	-0.190936949490575	-0.873034414722214
0.707949578820045	-0.637315328937837	0	0	0.0655836159644436	-0.0174814329984812	0	0
0	0	-0.523747931455439	0.65507305529752	0	0	-0.0727937352825018	0.0723146181060194
4.8	-0.0102815228595444	0.0173617058520785	0	0	0.637666632262856	0.724207700783115	0	0
0	0	-0.0586018545104157	0.0336780326220571	0	0	-0.606848474320387	-0.634394555011594
0.637666632262856	0.724207700783115	0	0	0.0531188777410067	-0.018227879920107	0	0
0	0	-0.827212128806811	-0.196903304282368	0	0	-0.00881108561966669	0.0718479388720832
4.9	0.0178318679583914	-0.0122264391625346	0	0	0.730381003349599	-0.62993124957855	0	0
0	0	-0.0395370423850966	0.0580955112096218	0	0	0.854233015707824	0.206704607978022
0.730381003349599	-0.62993124957855	0	0	-0.0805589949428492	-0.0287273913592449	0	0
0	0	0.199295022606792	0.821028769265542	0	0	-0.0831873225749217	0.00389626306376578
5	-0.0224759781543157	0.00407223138497893	0	0	0.619145767879001	0.725816294250751	0	0
0	0	1.82040487490716E-05	0.0200068035985117	0	0	0.830749127623232	-0.29872416295169
0.619145767879001	0.725816294250751	0	0	-0.0473024838109337	0.0408958343551881	0	0
0	0	-0.64479362934136	0.534149893778017	0	0	0.0417437237905183	-0.00921950710211419
5.1	0.0240153701368357	0.0059299301921254	0	0	0.727090055167927	-0.60669253659472	0	0
0	0	0.0388321190272165	-0.033616441528089	0	0	-0.532775267698235	0.69582762780349
0.727090055167927	-0.60669253659472	0	0	-0.0215088684587716	-0.0412918995922994	0	0
0	0	0.750098195882081	0.344312155162042	0	0	0.0727266534568032	-0.0199253887122599
5.2	-0.0217321544040827	-0.0170287867874032	0	0	0.584478200162633	0.744657105622433	0	0
0	0	0.0163829389045726	-0.0742717261474803	0	0	-0.0780161202118884	0.871781387012476
0.584478200162633	0.744657105622433	0	0	0.038487563793303	0.0223464529470775	0	0
0	0	0.015873220305427	0.832322599695304	0	0	0.0269636441928	0.0661907620187542
5.3	0.0155333207082884	0.0265249859305205	0	0	0.763156491917034	-0.572555295380975	0	0
0	0	-0.0140513366616516	-0.041172282704537	0	0	-0.412745663044595	-0.770623548807044
0.763156491917034	-0.572555295380975	0	0	-0.0318372981182909	0.0247159119413083	0	0
0	0	0.742650299792413	-0.374773100107802	0	0	-0.0433387705134397	0.0117889022658954
5.4	-0.00634828012317061	-0.0324111035383981	0	0	0.564320467678121	0.768152895887979	0	0
0	0	-0.0313894195289589	0.0148340551106958	0	0	-0.767357593741726	-0.427654814727001
0.564320467678121	0.768152895887979	0	0	0.0706723325032917	0.0873336544571825	0	0
0	0	0.657571586449305	0.50931937885437	0	0	-0.00945316945346798	0.0216793992155217
5.5	-0.00465249605176026	0.0348406335544687	0	0	0.779037913628807	-0.5616460154221	0	0
0	0	0.0229622047724448	0.0602648005272977	0	0	0.876950638288729	-0.0449364827110753
0.779037913628807	-0.5616460154221	0	0	-0.00649305216261332	-0.0277076597945408	0	0
0	0	0.157170552329726	-0.816501191629622	0	0	0.0215686646669	0.0383448759675809
5.6	0.0162858201845496	-0.0324017213905544	0	0	0.547505471367983	0.784674144696714	0	0
0	0	0.0419749024241954	0.0567986244100621	0	0	0.697577312375705	-0.508470309407255
0.547505471367983	0.784674144696714	0	0	0.00190860027170266	-0.109386207728584	0	0
0	0	0.799310745596396	-0.202369807472618	0	0	0.0111231104323069	0.117357827790683
5.7	-0.0269521325676709	0.0259067246383276	0	0	0.797670829124697	-0.539187183370805	0	0
0	0	0.0202343761557036	-0.00696793909313382	0	0	-0.317528269586036	0.807019513085138
0.797670829124697	-0.539187183370805	0	0	-0.0117082783725075	0.0514692528324701	0	0
0	0	-0.535901671859603	-0.64839556365259	0	0	0.0586555292312414	0.0344305874403814
5.8	0.033664773169951	-0.0153057801123881	0	0	0.521596773651628	0.797659453914098	0	0
0	0	-0.0223398675668081	-0.0314681907304367	0	0	0.15549475644813	0.853135723295417
0.521596773651628	0.797659453914098	0	0	0.0591613504456708	-0.0274381444889376	0	0
0	0	0.32375760415332	-0.770568649095775	0	0	0.034043674061313	0.0553245946087541
5.9	-0.0367463091815182	0.00205399103679345	0	0	0.811495987402529	-0.498346648848023	0	0
0	0	-0.0562568328674027	-0.0269572430027234	0	0	-0.585094538096794	-0.637313741537806
0.811495987402529	-0.498346648848023	0	0	-0.072996255166152	0.0432106857343985	0	0
0	0	-0.826570477391863	0.0598147993982838	0	0	0.037389025621477	0.0720896467410775
6	0.0355027047377339	0.0110346459056401	0	0	0.482236294000166	0.824961302463489	0	0
0	0	-0.0338837258770047	0.00570074797436972	0	0	-0.847499727918927	-0.194663514684658
0.482236294000166	0.824961302463489	0	0	-0.00283120651660389	0.0234704302719558	0	0
