# GHZ S RI R 50
0.2	-0.00611882789992755	0.00917809463903494	0	0	0.957994311079397	0.0580622171526564	0	0
0	0	0.0215166833128956	0.00408322774652685	0	0	-0.370376240413172	0.911105779766556
0.957994311079397	0.0580622171526564	0	0	0.0209186014317726	0.0443359356564041	0	0
0	0	0.569569248156923	-0.754038610891159	0	0	0.00133276760801464	-0.0294908731247413
0.3	0.00690573758719163	-0.00939026638060658	0	0	0.0335044014477418	-0.965225968325819	0	0
0	0	-0.00472822338424193	0.00156280278643201	0	0	-0.134255047684658	-0.974224619875859
0.0335044014477418	-0.965225968325819	0	0	-0.0136950908727227	0.00595486362183561	0	0
0	0	-0.922063953704954	-0.202155325569129	0	0	-0.0323109891916459	-0.0159536098991961
0.4	-0.00871936476333698	0.00787807916520812	0	0	0.948598236843814	0.0619905063674699	0	0
0	0	-0.0394510988417571	0.000872945402928718	0	0	-0.667148277114175	-0.725784352700473
0.948598236843814	0.0619905063674699	0	0	-0.0336730658870794	-0.0131613108759707	0	0
0	0	-0.235192158157884	-0.895821865520195	0	0	0.0220087518508694	0.0205725837831669
0.5	0.0107969790666917	-0.00479770412178818	0	0	0.12774526391312	-0.948886898535237	0	0
0	0	-0.0335368214820296	0.0048441396164843	0	0	0.964016077123227	0.207180703422025
0.12774526391312	-0.948886898535237	0	0	0.0371381722279226	0.0169454198864032	0	0
0	0	-0.678693074796414	0.636648624463404	0	0	0.00544866983100552	0.00798273723599513
0.6	-0.0111999825623888	0.00185941708440011	0	0	0.95500841817385	0.131322916304057	0	0
0	0	-0.0092590710771797	0.00598562412898476	0	0	0.912736098699597	-0.329443866575369
0.95500841817385	0.131322916304057	0	0	0.00515716304555864	-0.0196304142383	0	0
0	0	-0.861945010467312	-0.344901715156532	0	0	-0.00517379345429707	-0.00709531222671501
0.7	0.0107118728048798	0.00110883884116803	0	0	0.109145227311179	-0.957665484378518	0	0
0	0	0.021615693788293	-0.0112486571415758	0	0	-0.611303120860477	0.748374414542581
0.109145227311179	-0.957665484378518	0	0	0.00806757369265465	0.00987474722695406	0	0
0	0	0.0457918366197884	0.920457471525013	0	0	0.00229492925571692	-0.0129064425123413
0.8	-0.00959323615458038	-0.00455938466483323	0	0	0.955190148092794	0.113906836476037	0	0
0	0	0.0433096596008798	-0.0421778209952489	0	0	-0.120698629705091	0.961076944926684
0.955190148092794	0.113906836476037	0	0	-0.022698263302044	0.0128790097715436	0	0
0	0	-0.811859108138271	0.448574787073543	0	0	0.00650013912116646	0.083508596528095
0.9	0.00712660584858771	0.00743973107283442	0	0	0.145328293811035	-0.940187419855393	0	0
0	0	0.0126308252334637	-0.0280417356393366	0	0	-0.434542908260987	-0.866486015010281
0.145328293811035	-0.940187419855393	0	0	-0.00217182292044439	-0.0615537352944191	0	0
0	0	0.764331334388553	0.525446144432575	0	0	0.0361437853873043	0.0140463186515336
1	-0.00409085981643458	-0.00898316164155675	0	0	0.943263433802103	0.182017198922302	0	0
0	0	-0.0146153893744072	0.0116189810973378	0	0	-0.838796586948152	-0.481810205308121
0.943263433802103	0.182017198922302	0	0	0.00266392829502627	0.0426159874204185	0	0
0	0	-0.126531342356191	0.903143093562761	0	0	0.00312852367411403	0.00251081559759123
1.1	0.000885563737934728	0.00859207766300312	0	0	0.201839888789041	-0.950382889919995	0	0
0	0	-0.0115045545522783	0.0349637436314265	0	0	0.957258492491075	-0.0509779785554714
0.201839888789041	-0.950382889919995	0	0	0.0036796816616789	0.00247057568213917	0	0
0	0	0.869810914582738	-0.260431595017085	0	0	0.00877475896325956	0.0437309058067527
1.2	0.00190393156861565	-0.00659943265290804	0	0	0.960238922187271	0.202840805937398	0	0
0	0	0.00904637125392933	0.0646653055578913	0	0	0.772005261686118	-0.555305597125642
0.960238922187271	0.202840805937398	0	0	0.0541601343201622	6.57098187702397E-05	0	0
0	0	0.614585101060126	0.672278946309102	0	0	0.00726083986336463	0.100690174218995
1.3	-0.0039969346157209	0.00325612670064217	0	0	0.205305751440202	-0.944064910313828	0	0
0	0	0.0165720459141194	0.0192536134337957	0	0	-0.355434945396666	0.884450425772158
0.205305751440202	-0.944064910313828	0	0	-0.0537486323266318	0.000971326704990633	0	0
0	0	0.322439799236158	-0.860450972242233	0	0	0.0407673334136045	0.0152476612054845
1.4	0.00474359276548584	0.000488458470181141	0	0	0.925979713486412	0.233473668702463	0	0
0	0	-0.0130004435913202	-0.0433275395676486	0	0	0.180115008439593	0.938668932831906
0.925979713486412	0.233473668702463	0	0	0.0178436522186118	0.00836116700546574	0	0
0	0	0.900076705543333	-0.0844070924227993	0	0	0.0450975550552205	-0.00585547432205618
1.5	-0.00389170858304156	-0.00353771947741178	0	0	0.270759837060843	-0.924081281635451	0	0
0	0	-0.0381691616809922	-0.0558696052834353	0	0	-0.676005703879021	-0.676092425739826
0.270759837060843	-0.924081281635451	0	0	0.0336921021453457	-0.0328042364689948	0	0
0	0	-0.462487620608679	-0.768378468969877	0	0	0.0338498773288804	0.0528084039593505
1.6	0.00190371045765959	0.00518127835901054	0	0	0.938875356428154	0.29448735021411	0	0
0	0	-0.0364280591747852	-0.0191463591252062	0	0	-0.938342503429522	-0.183368847000988
0.938875356428154	0.29448735021411	0	0	-0.0511363017762455	-0.0269326736079704	0	0
0	0	0.497642086573844	-0.755370413000709	0	0	0.00152064600480224	0.0530211158237457
1.7	0.000830120165246133	-0.00503043627617016	0	0	0.289258739346147	-0.944346460156649	0	0
0	0	0.0152495148064693	0.00665796634532383	0	0	0.885570187626544	-0.344785808642391
0.289258739346147	-0.944346460156649	0	0	-0.000711648720494909	0.00505982502474293	0	0
0	0	-0.901594108133964	-0.110505622239917	0	0	0.0404509512839177	-0.0304733301213781
1.8	-0.00365344908571086	0.00317407536569997	0	0	0.91841292805241	0.29036415265839	0	0
0	0	0.0450975192361245	0.0381588632966056	0	0	0.573235532591396	-0.747031261402517
0.91841292805241	0.29036415265839	0	0	0.00673329087196002	0.0650204579112053	0	0
0	0	-0.31118508796607	-0.84975470726365	0	0	0.0278593895172781	-0.0340963892964772
1.9	0.00576670297852929	-5.46980793577455E-05	0	0	0.31954711237153	-0.894853570221888	0	0
0	0	0.0525024192486389	-0.00385862451512889	0	0	-0.0826737421835977	0.942201167357611
0.31954711237153	-0.894853570221888	0	0	0.00969532493864896	0.00872792433042605	0	0
0	0	-0.614962821502931	0.646555638629113	0	0	0.0411919364642602	0.0234935121711695
2	-0.00631450176291369	-0.00388644676453152	0	0	0.891596140521269	0.349922847449211	0	0
0	0	0.0149834704630574	-0.00524679372090957	0	0	0.457979670926675	0.833192083027812
0.891596140521269	0.349922847449211	0	0	-0.0499677989542949	-0.0333914621224404	0	0
0	0	-0.84487912913585	-0.263609357104771	0	0	-0.0529702089745987	-0.0212377077888977
2.1	0.00498562500166729	0.00795836139106763	0	0	0.364835612176744	-0.898323456243445	0	0
0	0	-0.0291167198611594	0.00750058319939112	0	0	-0.830572954307175	-0.452121287558158
0.364835612176744	-0.898323456243445	0	0	0.0706086704627929	0.0163327244035074	0	0
0	0	0.135572283065359	0.879631401699228	0	0	-0.00495077510682844	0.00969152172620548
2.2	-0.00145251548180855	-0.0115486330597475	0	0	0.898691131356587	0.376834991012037	0	0
0	0	-0.0479712052610174	0.0168400369818466	0	0	-0.932603409719656	0.0686531976198405
0.898691131356587	0.376834991012037	0	0	0.0147052135752921	-0.010992117772283	0	0
0	0	-0.737446850999306	0.50631386480873	0	0	0.0427344824803297	-0.0112741438162886
2.3	-0.00376761260287128	0.0135903966821232	0	0	0.386720351584619	-0.889626519229658	0	0
0	0	-0.0302359616343003	0.019008462543339	0	0	0.737212481978624	-0.555666928561982
0.386720351584619	-0.889626519229658	0	0	0.0581147079766042	-0.0290141421782858	0	0
0	0	0.776463478322734	0.432650023866239	0	0	0.0669372044396398	0.046567313354936
2.4	0.00986528040123958	-0.0134558400217897	0	0	0.87808942182444	0.398682232004687	0	0
0	0	-0.000331832757695197	0.000838874769168097	0	0	0.324634735090232	-0.868344019356085
0.87808942182444	0.398682232004687	0	0	-0.0970305132599619	0.0135267428399169	0	0
0	0	-0.0393920272009405	0.883043647856931	0	0	0.0473364579739979	-0.0493969308078962
2.5	-0.0161694001401326	0.0106729553390273	0	0	0.41559769961746	-0.866712864085929	0	0
0	0	0.0194362076719682	-0.0360892718927039	0	0	0.189457127937749	0.918162444173073
0.41559769961746	-0.866712864085929	0	0	-0.0103298759201194	-0.02741768110547	0	0
0	0	0.805512265705621	-0.332285470441232	0	0	0.012686582513339	-0.00102766425302435
2.6	0.0215422020645225	-0.00562476615402962	0	0	0.859831911515862	0.429624835664346	0	0
0	0	0.0181359285651045	-0.038725543468008	0	0	0.667607185275554	0.653902021785899
0.859831911515862	0.429624835664346	0	0	0.00528445300793617	-0.0338224676560258	0	0
0	0	0.630984895307662	0.597543570742348	0	0	0.0626573632199969	0.0097921710902743
2.7	-0.0251173858344439	-0.00124490690616058	0	0	0.444144140884779	-0.854003033305223	0	0
0	0	0.0212351749839867	-0.00947189308149307	0	0	-0.898054616644596	-0.174105838654409
0.444144140884779	-0.854003033305223	0	0	0.00293306781663514	-0.0132469937248256	0	0
0	0	0.275850263744571	-0.836013037028013	0	0	-0.0274261943684731	-0.00124355514750697
2.8	0.0257091985002049	0.00900674384257221	0	0	0.843640887919089	0.457593372449245	0	0
0	0	0.00945755986979313	0.0125816615381962	0	0	-0.842660496247114	0.312941995658022
0.843640887919089	0.457593372449245	0	0	0.0037911615287979	0.0636497090780217	0	0
0	0	0.872040895714732	-0.150453723426204	0	0	0.0260832384576081	-0.0641948900309614
2.9	-0.0226384719466645	-0.0167938054023613	0	0	0.473676983228184	-0.824642702510929	0	0
0	0	-0.000594937288836014	0.0363149110286711	0	0	0.567471827994707	-0.701235378986269
0.473676983228184	-0.824642702510929	0	0	-0.0539120377733813	0.0339512931722332	0	0
0	0	-0.515632147861679	-0.702924642106206	0	0	-0.0403041749843703	-0.0464294892114188
3	0.0167814170800418	0.0237956760499062	0	0	0.815874668126027	0.497950214927495	0	0
0	0	-0.0114962221979437	0.0289551391710935	0	0	0.0915466061710787	-0.920714309367525
0.815874668126027	0.497950214927495	0	0	-0.00720919327655085	-0.0177933460903932	0	0
0	0	0.406660933211733	-0.761139863789567	0	0	0.0135689418123381	0.0857515874666986
3.1	-0.00841149203100257	-0.0281421960252523	0	0	0.518813678802541	-0.805803888655381	0	0
0	0	-0.0206617277923455	0.0117556029816182	0	0	0.448526217320094	0.806927137983076
0.518813678802541	-0.805803888655381	0	0	0.0384223970310291	-0.0644986220887332	0	0
0	0	-0.869695602499199	-0.050021008149703	0	0	-0.0755766698174472	0.00620338070310598
3.2	-0.00100122240335609	0.0298975176361415	0	0	0.804217679773147	0.542738312358075	0	0
0	0	-0.018083862812241	-0.00652460679094848	0	0	0.79847929387497	0.437391133438533
0.804217679773147	0.542738312358075	0	0	0.000519882004886759	0.0253557510962646	0	0
0	0	-0.337610057607113	-0.81442245422791	0	0	-0.0593610415284472	0.00689793642166514
3.3	0.0101293562369755	-0.02765051742003	0	0	0.554258700008413	-0.80013180486343	0	0
0	0	-0.00134982106499237	-0.0242983337925029	0	0	-0.905347943182399	0.0503053953846038
0.554258700008413	-0.80013180486343	0	0	0.0619912745268496	0.0244324705721004	0	0
0	0	-0.575016091628813	0.675832877957033	0	0	-0.0274225403614085	-0.106962621265233
3.4	-0.0177667030970569	0.0216750291375711	0	0	0.783476271752488	0.55909016448665	0	0
0	0	-0.00427106315759084	-0.0408395888599139	0	0	-0.733224025075939	0.543294135518177
0.783476271752488	0.55909016448665	0	0	-0.115062315972299	0.00876840546705585	0	0
0	0	-0.857175971556889	-0.222432520922718	0	0	-0.0195507158130929	-0.039760188385495
3.5	0.023098921535057	-0.0138868726795399	0	0	0.573726365963191	-0.774388798990352	0	0
0	0	0.00819702195077021	-0.0305107094482657	0	0	0.297227485045134	-0.869508866133822
0.573726365963191	-0.774388798990352	0	0	-0.0121388524013651	-0.0536868536679724	0	0
0	0	0.167896084579657	0.843623109081496	0	0	0.0850831591643036	-0.07262430641787
3.6	-0.0250342541597598	0.00513629060470069	0	0	0.767324907351363	0.583590659066753	0	0
0	0	0.0199504635972509	0.00236522430172851	0	0	-0.210210627491994	-0.894731443194348
0.767324907351363	0.583590659066753	0	0	-0.034317543679373	0.0604667054563275	0	0
0	0	-0.6929076274322	0.521004756785305	0	0	0.0448091030111207	-0.0316501728198115
3.7	0.023016315200369	0.00423099591862885	0	0	0.602587950165997	-0.747216957788969	0	0
0	0	0.0143083965505919	0.036325240257195	0	0	0.640100607635108	0.648675528132903
0.602587950165997	-0.747216957788969	0	0	0.118408304443503	0.0072732410558899	0	0
0	0	0.771239247861721	0.409102722043676	0	0	0.0555054997459607	-0.0191706740143547
3.8	-0.0179472677375517	-0.0120222103841196	0	0	0.740935785016584	0.621242990398409	0	0
0	0	0.0155023990220299	0.0506569831864855	0	0	0.871366776328754	0.185841425716207
0.740935785016584	0.621242990398409	0	0	-0.0253711093318281	0.0208806776170704	0	0
0	0	-0.0152051285821157	0.871479765908888	0	0	-0.0583962090712442	-0.0252152954847974
3.9	0.0107532235037577	0.0168831744919176	0	0	0.625953770724851	-0.740208256765513	0	0
0	0	0.0111983436959682	0.0158250471041923	0	0	-0.823784682802847	0.328333728315577
0.625953770724851	-0.740208256765513	0	0	-0.0133657731611676	0.0833984590146121	0	0
0	0	0.782518175558929	-0.386175961941218	0	0	0.0247869557879478	-0.00574290462510837
4	-0.00206483793886348	-0.018433652084203	0	0	0.722526135099377	0.634168128750279	0	0
0	0	-0.016866763850485	-0.0120590629920003	0	0	-0.51524770072667	0.725078035736868
0.722526135099377	0.634168128750279	0	0	0.0509044208382385	-0.0743028344891069	0	0
0	0	0.68451939121665	0.515233575442553	0	0	-0.00478692524722945	0.00958035878553737
4.1	-0.00591907950759413	0.0164680810219173	0	0	0.639664619629982	-0.709599830520454	0	0
0	0	-0.041862492093204	-0.0351943133829374	0	0	0.0540630685381395	-0.891704063508168
0.639664619629982	-0.709599830520454	0	0	0.0248720520999996	-0.111875371816729	0	0
0	0	0.182966738893209	-0.828277781957114	0	0	0.0263943496421706	0.0818691886780804
4.2	0.0123348027242431	-0.0117301858221127	0	0	0.704612970271849	0.650975681563584	0	0
0	0	-0.0492880483676142	-0.0152772232959432	0	0	-0.434091529282661	-0.779978922559338
0.704612970271849	0.650975681563584	0	0	-0.040060763977058	0.0165285795072592	0	0
0	0	0.83101182394051	-0.18548958616677	0	0	-0.0119184806034903	-0.0412998642120383
4.3	-0.0160617222895874	0.0047557080163933	0	0	0.659764126297204	-0.69793079542185	0	0
0	0	-0.00772811150158246	0.00675977043504189	0	0	0.778457523337176	0.422888906835117
0.659764126297204	-0.69793079542185	0	0	-0.0108990116290427	0.0673527068496995	0	0
0	0	-0.535004772656765	-0.672663907860658	0	0	-0.0144450045912943	0.00243287769274303
4.4	0.0161837031247492	0.00341792638422816	0	0	0.6810768344338	0.669366215588732	0	0
0	0	0.0378720129377054	0.00424600445463051	0	0	0.887713994964164	-0.0546441210207248
0.6810768344338	0.669366215588732	0	0	0.00121002604055012	-0.050202187905446	0	0
0	0	0.34491910961731	-0.772251584948695	0	0	-0.0335885720944222	0.00335880982382141
4.5	-0.0126246928486016	-0.0107969594088892	0	0	0.675990273270066	-0.6629581593854	0	0
0	0	0.0646773951159033	-0.00469489502319855	0	0	-0.721457694803753	0.523603912745234
0.675990273270066	-0.6629581593854	0	0	-0.0498888797002541	0.0265381466812636	0	0
0	0	-0.834820420081496	0.0121001794910966	0	0	-0.0859012613314845	0.0621052014633434
4.6	0.00609180465821029	0.0164049852539304	0	0	0.645093540816723	0.690758763414795	0	0
0	0	0.0468557808121407	-0.0251329708893833	0	0	-0.312285885985368	0.84425179353667
0.645093540816723	0.690758763414795	0	0	-0.00403486464276342	0.0138027375601794	0	0
0	0	-0.372169472150735	-0.744112344903428	0	0	-0.080165108347555	-0.00957358408760775
4.7	0.00204668604771226	-0.0190583764170635	0	0	0.708142834465995	-0.638329103913583	0	0
0	0	-0.0241946162953639	-0.00544573434365061	0	0	-0.191586724752669	-0.873572534851698
0.708142834465995	-0.638329103913583	0	0	0.0653605031782072	-0.017828876205443	0	0
0	0	-0.523756363534098	0.655864795502583	0	0	-0.0730857931718729	0.0722423255033286
4.8	-0.0106414347317043	0.0182200051737937	0	0	0.638513170638107	0.724153358065193	0	0
0	0	-0.0582963771334998	0.0343632277464699	0	0	-0.607525548107742	-0.634353734565455
0.638513170638107	0.724153358065193	0	0	0.0527446549173822	-0.0185068885227757	0	0
0	0	-0.827741396633861	-0.19651405763535	0	0	-0.00908797681982336	0.0716920173809939
4.9	0.0181663187021352	-0.0130567530994638	0	0	0.730049543712982	-0.630489438853933	0	0
0	0	-0.039587628737808	0.0588134292735966	0	0	0.85446886320572	0.206237405889499
0.730049543712982	-0.630489438853933	0	0	-0.0810779111874044	-0.0287390563191634	0	0
0	0	0.199798107267648	0.821024714879248	0	0	-0.0836334059701709	0.00382381859615319
5	-0.0228669988561456	0.00491639516977048	0	0	0.619381889283104	0.725465904780694	0	0
0	0	-0.000436644499546165	0.020616506129983	0	0	0.830641120775803	-0.299061537200833
0.619381889283104	0.725465904780694	0	0	-0.0477359360692073	0.0409099447418104	0	0
0	0	-0.644588577202774	0.534416037839207	0	0	0.0412810372572465	-0.00934343086825663
5.1	0.0244007569576894	0.00496014648713926	0	0	0.726744377909972	-0.60673364003533	0	0
0	0	0.0380731814164358	-0.0332410430561383	0	0	-0.532606141288735	0.695842038921472
0.726744377909972	-0.60673364003533	0	0	-0.0219793668834768	-0.0411743868272017	0	0
0	0	0.750076186611428	0.34415382069265	0	0	0.0722424891499436	-0.0199287572669433
5.2	-0.0219957270384774	-0.0159897542674787	0	0	0.584242102503962	0.744513640991808	0	0
0	0	0.0155099773861193	-0.0741882448902307	0	0	-0.0781933060813805	0.871584349041739
0.584242102503962	0.744513640991808	0	0	0.0380792548624663	0.0225478296602428	0	0
0	0	0.0156854244110782	0.832154512209348	0	0	0.0265262586070621	0.0663084729960164
5.3	0.0156438760583061	0.0255866617532306	0	0	0.763152848247884	-0.572056823090791	0	0
0	0	-0.0147850712144672	-0.0413714673773647	0	0	-0.412277286169841	-0.770625345816202
0.763152848247884	-0.572056823090791	0	0	-0.0320803459436301	0.0249663266177355	0	0
0	0	0.742641150989592	-0.374327499095968	0	0	-0.043608980087209	0.0119800428306706
5.4	-0.00645862229359436	-0.0316899794012857	0	0	0.563714308160582	0.76850739349998	0	0
0	0	-0.031788822277203	0.0144000356461075	0	0	-0.766980150142036	-0.428193855758113
0.563714308160582	0.76850739349998	0	0	0.0704325931034055	0.087702100757405	0	0
0	0	0.657141699496264	0.509770357576075	0	0	-0.00962523386340134	0.0219172476960518
5.5	-0.00436960084355549	0.034208414176557	0	0	0.779606389981003	-0.561017161367091	0	0
0	0	0.0229879810724284	0.0597154603141853	0	0	0.877150381717892	-0.0440784280169542
0.779606389981003	-0.561017161367091	0	0	-0.00647839294692432	-0.0275088249852425	0	0
0	0	0.158004718152432	-0.816490638386112	0	0	0.0214379478567916	0.0385966234520008
5.6	0.015857905025804	-0.0316762653644965	0	0	0.547006905635143	0.785530000591426	0	0
0	0	0.042389458098852	0.0562858203743408	0	0	0.698539707431539	-0.507864256088659
0.547006905635143	0.785530000591426	0	0	0.00205825969582382	-0.109326491677824	0	0
0	0	0.799948038523438	-0.201490034334243	0	0	0.0107731417920241	0.117625488178986
5.7	-0.026561973350833	0.0250184249864343	0	0	0.798884806622731	-0.538693079740112	0	0
0	0	0.0209134573336219	-0.00732923903685315	0	0	-0.318777687447789	0.807379927344036
0.798884806622731	-0.538693079740112	0	0	-0.0120146614350971	0.0516926769380762	0	0
0	0	-0.535620995752817	-0.649625247319355	0	0	0.0584875835589884	0.0347652930956104
5.8	0.0334769007617618	-0.0144186551622007	0	0	0.521451702095115	0.79911729317343	0	0
0	0	-0.0216264386216005	-0.0316136220863727	0	0	0.154737150611445	0.854409512997275
0.521451702095115	0.79911729317343	0	0	0.0591156051264425	-0.0270849993094347	0	0
0	0	0.325039974461421	-0.771197927478697	0	0	0.0337288667501873	0.055786054682869
5.9	-0.0366878530584913	0.00136849498649374	0	0	0.813111321985825	-0.498374524915513	0	0
0	0	-0.0557180339114595	-0.0268803394740202	0	0	-0.585475662824353	-0.63889943607792
0.813111321985825	-0.498374524915513	0	0	-0.0734729871363	0.043708771800658	0	0
0	0	-0.827987444519277	0.0591570616186348	0	0	0.0371091907684936	0.0728264803419224
6	0.0353889340486789	0.0114468636192171	0	0	0.482677461222352	0.826696726311146	0	0
0	0	-0.0336586805551572	0.00593390162732318	0	0	-0.84896001349023	-0.195554166613519
0.482677461222352	0.826696726311146	0	0	-0.00287883880206649	0.0242006544404792	0	0
