# GHZ S RI R 50
0.2	-0.00596578980890306	0.00802984798774927	0	0	0.958075143389914	0.0578323106569055	0	0
0	0	0.0225076942783021	0.00356950838842123	0	0	-0.370250149421765	0.911204199197005
0.958075143389914	0.0578323106569055	0	0	0.0208719499564678	0.0459015903320962	0	0
0	0	0.569476579201851	-0.754161217096879	0	0	0.00132928983023651	-0.0278483963727076
0.3	0.00704762783724421	-0.00891651213264545	0	0	0.0331702327185887	-0.965229373415469	0	0
0	0	-0.00428504599993169	0.00147725032745123	0	0	-0.134556362457724	-0.974257922672514
0.0331702327185887	-0.965229373415469	0	0	-0.0133358200816572	0.00699822988794519	0	0
0	0	-0.922193877860564	-0.201894958324566	0	0	-0.031844763832564	-0.0148500235242061
0.4	-0.00864913660710214	0.00789466256014377	0	0	0.948564903034508	0.0615166985057161	0	0
0	0	-0.0395008679947195	0.000920555673199705	0	0	-0.667512509668391	-0.725454282747912
0.948564903034508	0.0615166985057161	0	0	-0.0332137479591415	-0.0125622289980947	0	0
0	0	-0.235639642781936	-0.895707768370448	0	0	0.022640890554873	0.0211153479626955
0.5	0.0103591085292231	-0.00501388272259346	0	0	0.127123743369541	-0.948840531022799	0	0
0	0	-0.0339471423778952	0.00491438395167591	0	0	0.964003065417834	0.206515938507758
0.127123743369541	-0.948840531022799	0	0	0.0375236196692707	0.0171206306101484	0	0
0	0	-0.678170304962355	0.636995692986921	0	0	0.00594677035183271	0.00815753698387133
0.6	-0.0104198158084566	0.00191467425578767	0	0	0.954831408339519	0.130495489944086	0	0
0	0	-0.00986729669214259	0.00593944954453105	0	0	0.912143570212259	-0.330017552388
0.954831408339519	0.130495489944086	0	0	0.00530880012021177	-0.0195619097055502	0	0
0	0	-0.861886251691593	-0.344114842112163	0	0	-0.00493331900948421	-0.00706096277819413
0.7	0.00987454476643032	0.0014517795814297	0	0	0.108195248465419	-0.957276613304458	0	0
0	0	0.0209944008797845	-0.0114642235911571	0	0	-0.610341531396031	0.748408040028266
0.108195248465419	-0.957276613304458	0	0	0.00808899710957154	0.00991154872634307	0	0
0	0	0.0464938863986087	0.919866527564617	0	0	0.00230761269779378	-0.0128223960358397
0.8	-0.00899144237870746	-0.00516599629050462	0	0	0.954517038975895	0.112892807077986	0	0
0	0	0.0428088089100725	-0.0424911392648017	0	0	-0.119920053189937	0.960410898983353
0.954517038975895	0.112892807077986	0	0	-0.0227149925849342	0.0130628164720325	0	0
0	0	-0.81090457757118	0.448801732987081	0	0	0.00658333994157487	0.0836183198970696
0.9	0.00684172098370379	0.00801110550189576	0	0	0.144287068289971	-0.939206548324244	0	0
0	0	0.0123315018256742	-0.0283399929064439	0	0	-0.434718739846802	-0.865308549162048
0.144287068289971	-0.939206548324244	0	0	-0.00233914114118511	-0.0611217943722092	0	0
0	0	0.763934888170564	0.524378197164638	0	0	0.0361860034063848	0.0143979716507206
1	-0.00400062903754181	-0.00930491857794821	0	0	0.942061175042426	0.181080889716354	0	0
0	0	-0.0146913263055346	0.011435583834603	0	0	-0.838067626085561	-0.480696787038809
0.942061175042426	0.181080889716354	0	0	0.00277071177213828	0.0428595813556315	0	0
0	0	-0.12581369535607	0.902113948566508	0	0	0.00348580029715168	0.00297831405533995
1.1	0.000741988356568239	0.00857119379230654	0	0	0.20111770467855	-0.948938954474275	0	0
0	0	-0.0114086202745094	0.0349706602049631	0	0	0.955835343785766	-0.0513843743518485
0.20111770467855	-0.948938954474275	0	0	0.00388240314295855	0.00283544439166762	0	0
0	0	0.868410228051226	-0.260488276445602	0	0	0.00944657549639679	0.0439193549781431
1.2	0.00235467063161519	-0.00638247264373467	0	0	0.958684169005564	0.202419319996055	0	0
0	0	0.00920321520184132	0.0648906774339349	0	0	0.770523600349337	-0.554579921489702
0.958684169005564	0.202419319996055	0	0	0.0543347402406456	0.000363418361624849	0	0
0	0	0.613729080872866	0.670950648252199	0	0	0.00813921697334614	0.10036032950333
1.3	-0.00471229738993002	0.00311163676745662	0	0	0.205161845193318	-0.942429925919032	0	0
0	0	0.0166609336272866	0.0196426808016248	0	0	-0.354765591945877	0.882825604501101
0.205161845193318	-0.942429925919032	0	0	-0.0531384923679078	0.00116969408446366	0	0
0	0	0.32183165534485	-0.858869867863154	0	0	0.0414865163608722	0.0149118186323078
1.4	0.00554187204895037	0.000539110847932101	0	0	0.924413314543275	0.233558523074333	0	0
0	0	-0.0130821602656853	-0.0429088295935269	0	0	0.179503538262046	0.936963055565433
0.924413314543275	0.233558523074333	0	0	0.0182058248594217	0.0085191508020856	0	0
0	0	0.898415182807863	-0.0839861846798781	0	0	0.0457348329159409	-0.00624118915397591
1.5	-0.00476528238359692	-0.00348202768489846	0	0	0.271011148165378	-0.922563044101415	0	0
0	0	-0.0384099548579378	-0.0555319256639858	0	0	-0.674332349764258	-0.675269900880578
0.271011148165378	-0.922563044101415	0	0	0.0340397991749205	-0.0325436143965433	0	0
0	0	-0.461150313996861	-0.767251209297057	0	0	0.0343410074980799	0.0521179626451404
1.6	0.00281924057011534	0.00489117240241745	0	0	0.937382912445224	0.294975322984197	0	0
0	0	-0.0367809361603254	-0.0189123815928755	0	0	-0.936547570338804	-0.183933749021144
0.937382912445224	0.294975322984197	0	0	-0.0506099037144587	-0.026923891411356	0	0
0	0	0.4974915664086	-0.753596477496321	0	0	0.00187036531271675	0.0521963814004374
1.7	0.000104298762414485	-0.00448850258779939	0	0	0.289903595966594	-0.943084578372344	0	0
0	0	0.014881236968491	0.00673523229716401	0	0	0.884660801711371	-0.343245895098437
0.289903595966594	-0.943084578372344	0	0	-0.000439826557875536	0.00501220033016159	0	0
0	0	-0.900131590012691	-0.111390508886289	0	0	0.040587583739925	-0.0309360121857778
1.8	-0.00323023658851457	0.00262361662706132	0	0	0.917394991949645	0.291091474425256	0	0
0	0	0.0448192577357066	0.0380872956913256	0	0	0.573535761166944	-0.745389964060105
0.917394991949645	0.291091474425256	0	0	0.00679172633404284	0.0648511477852478	0	0
0	0	-0.30969853011965	-0.849153493183548	0	0	0.0278458625476923	-0.0344718022975858
1.9	0.00549007298109213	0.000317979596308003	0	0	0.320292118662104	-0.893970960736687	0	0
0	0	0.0523751222955203	-0.00402278720681626	0	0	-0.0838631783999344	0.941258375062262
0.320292118662104	-0.893970960736687	0	0	0.00979733847564172	0.00865446377862858	0	0
0	0	-0.61528608398449	0.645160712088739	0	0	0.0409216254356222	0.0232037093461246
2	-0.0060055776348605	-0.00408125734306126	0	0	0.890877698003217	0.350696180411567	0	0
0	0	0.0150268854589096	-0.00543121031034159	0	0	0.45666115288992	0.83320058411485
0.890877698003217	0.350696180411567	0	0	-0.0497745825429366	-0.0335258672107096	0	0
0	0	-0.843999857289284	-0.264465751122258	0	0	-0.0529646827166907	-0.0215616440236028
2.1	0.00453491182111013	0.00811413805383842	0	0	0.365538124018758	-0.897884259024163	0	0
0	0	-0.0289246727266771	0.00736656087243161	0	0	-0.829670435322485	-0.45278147832109
0.365538124018758	-0.897884259024163	0	0	0.0706335554391754	0.0164201904969565	0	0
0	0	0.134563157750623	0.879332651996684	0	0	-0.00501703772960484	0.00948479796704329
2.2	-0.000925958555793997	-0.0118323708029494	0	0	0.898422278205468	0.377382190218699	0	0
0	0	-0.0477041932702361	0.0168049861765496	0	0	-0.932276345373414	0.0677860056388126
0.898422278205468	0.377382190218699	0	0	0.0148142294819217	-0.0109877675484129	0	0
0	0	-0.737594678235515	0.505439694712152	0	0	0.0426866614376332	-0.0114340262883378
2.3	-0.00416892131835112	0.0140157233066885	0	0	0.386990062257593	-0.889459130361927	0	0
0	0	-0.0299911152014784	0.019070012188389	0	0	0.737327934155721	-0.55489738121058
0.386990062257593	-0.889459130361927	0	0	0.0582601998377877	-0.0290063439363173	0	0
0	0	0.775830863283946	0.433051471952857	0	0	0.0666971642178718	0.0462967274112883
2.4	0.0100298715144852	-0.0138444318363203	0	0	0.877915560502177	0.398771480779433	0	0
0	0	-0.000187061982617816	0.000960542727248691	0	0	0.324942357250121	-0.867782829767745
0.877915560502177	0.398771480779433	0	0	-0.0968594650579741	0.0134176241611756	0	0
0	0	-0.0398359281816728	0.882624957713633	0	0	0.0470561641129593	-0.0496568289311185
2.5	-0.0161876550721583	0.0108307802236767	0	0	0.415425624760907	-0.866408779630576	0	0
0	0	0.0194339995032091	-0.0359738667267289	0	0	0.189025396379756	0.917672119986304
0.415425624760907	-0.866408779630576	0	0	-0.0101746076756718	-0.0275320411747753	0	0
0	0	0.80513944758861	-0.331806187476757	0	0	0.0122101094032098	-0.00129473988907707
2.6	0.0216182976946448	-0.00553038520912386	0	0	0.859355967111309	0.429284204265862	0	0
0	0	0.0180029410610239	-0.0386881620456301	0	0	0.666884924965651	0.653495944922858
0.859355967111309	0.429284204265862	0	0	0.00540071121030388	-0.0339592130513066	0	0
0	0	0.630306975358745	0.597177311744929	0	0	0.0619826203953055	0.00966336524019878
2.7	-0.025350762374422	-0.00145462596737355	0	0	0.443688815876217	-0.853299964768484	0	0
0	0	0.0210422926078099	-0.00955477908768806	0	0	-0.896971097807166	-0.174086775180344
0.443688815876217	-0.853299964768484	0	0	0.00302747998491616	-0.0134190618451729	0	0
0	0	0.275699769978731	-0.834981051864173	0	0	-0.027945500714892	-0.00126493057270687
2.8	0.0260401764906343	0.00924371706655779	0	0	0.84264786354576	0.457120797631646	0	0
0	0	0.00930525551850414	0.0123760184574811	0	0	-0.841543852815783	0.312217500637157
0.84264786354576	0.457120797631646	0	0	0.0038513361185699	0.063305134837402	0	0
0	0	0.870829295763081	-0.149954552131878	0	0	0.025487955780805	-0.0639108934531983
2.9	-0.0230254342812247	-0.0171025402901926	0	0	0.473248327834762	-0.823301193009313	0	0
0	0	-0.000600728503483475	0.0360197683811044	0	0	0.566835038542646	-0.699760505298732
0.473248327834762	-0.823301193009313	0	0	-0.0537294939405906	0.0336267470561977	0	0
0	0	-0.514410599182349	-0.701966504908826	0	0	-0.0406174192684438	-0.0461496067164107
3	0.0173268220903043	0.0241981234613224	0	0	0.81424339224647	0.497663287220843	0	0
0	0	-0.0113035911616012	0.0286370327024975	0	0	0.0920596114342858	-0.918792354663629
0.81424339224647	0.497663287220843	0	0	-0.00715091349011349	-0.0179280658031327	0	0
0	0	0.406419037849197	-0.759300378711677	0	0	0.0129885764215645	0.0856525038074507
3.1	-0.00919646469037576	-0.0285230875998265	0	0	0.518734449378281	-0.803954811558196	0	0
0	0	-0.0202789884919257	0.0114915855078558	0	0	0.446690948093709	0.805646263151186
0.518734449378281	-0.803954811558196	0	0	0.03841310309085	-0.0643640373696339	0	0
0	0	-0.867747786046663	-0.0508369531648024	0	0	-0.0755132525365526	0.0062462217995002
3.2	-3.55956749702015E-05	0.0301000535677849	0	0	0.802140442951371	0.543056276645311	0	0
0	0	-0.017588365640678	-0.00662367411258155	0	0	0.796014309148238	0.437608173881802
0.802140442951371	0.543056276645311	0	0	0.000410036747886238	0.0251862360436894	0	0
0	0	-0.335617407101614	-0.813091554080005	0	0	-0.0592149801154754	0.00688206625154542
3.3	0.00917016472787577	-0.0276374025610941	0	0	0.554904518892455	-0.797969271617446	0	0
0	0	-0.000851291315233484	-0.0241971148357286	0	0	-0.903529525289999	0.0484194590543234
0.554904518892455	-0.797969271617446	0	0	0.0616863143909807	0.024559014577535	0	0
0	0	-0.575126663807142	0.673271484042444	0	0	-0.0268826183228064	-0.106511127567258
3.4	-0.0169378672170453	0.0215784026631719	0	0	0.781136234166047	0.560224215156923	0	0
0	0	-0.00389661086565498	-0.0405402459028186	0	0	-0.733112663141886	0.540469598920117
0.781136234166047	0.560224215156923	0	0	-0.114819784081798	0.00822865960980923	0	0
0	0	-0.85497543230001	-0.224070239099731	0	0	-0.0192577368128188	-0.0396962067950251
3.5	0.0223169081581133	-0.0138366150079664	0	0	0.575205491423213	-0.772106432521667	0	0
0	0	0.00834680151745506	-0.0300724562437838	0	0	0.299203042473329	-0.867296396589763
0.575205491423213	-0.772106432521667	0	0	-0.0118224375497684	-0.0536237536499103	0	0
0	0	0.165257109873275	0.842760062949726	0	0	0.0852035212671758	-0.0719722899983736
3.6	-0.024181600320962	0.00507276298748595	0	0	0.765258889898259	0.585594180797014	0	0
0	0	0.0198339344584654	0.00284576989392441	0	0	-0.207189589404216	-0.894283271940578
0.765258889898259	0.585594180797014	0	0	-0.0346176329914728	0.0602286329352242	0	0
0	0	-0.693666821341115	0.51822583319229	0	0	0.0448475127702237	-0.0313503503736819
3.7	0.0221164084468792	0.00440463362668237	0	0	0.6047618687046	-0.745468942828448	0	0
0	0	0.0139518775687021	0.0367178537787141	0	0	0.637469809496181	0.650305187573909
0.6047618687046	-0.745468942828448	0	0	0.118381756471192	0.00797101738557575	0	0
0	0	0.769302655180348	0.411347386249532	0	0	0.0554827412312758	-0.0187923924048097
3.8	-0.0171467258785583	-0.0123687462126291	0	0	0.739405882067133	0.623777861002042	0	0
0	0	0.0150552728729463	0.0508746017029563	0	0	0.870548834003704	0.188703676054763
0.739405882067133	0.623777861002042	0	0	-0.0255163459553114	0.0207194626611273	0	0
0	0	-0.0181066203883394	0.871230589898978	0	0	-0.0582503437403797	-0.0255641378677987
3.9	0.0102030937705693	0.0172659558223713	0	0	0.628671523293524	-0.739058775255563	0	0
0	0	0.0107844807622751	0.0158313983050792	0	0	-0.825181782855092	0.325773040078953
0.628671523293524	-0.739058775255563	0	0	-0.0138899796229563	0.0834258714070246	0	0
0	0	0.784087892311619	-0.383772846629922	0	0	0.0248301610607752	-0.00550964940235397
4	-0.00168298195985791	-0.0186327121181048	0	0	0.721627938980863	0.636930852303875	0	0
0	0	-0.0171313690125975	-0.0122640142368928	0	0	-0.5178366496987	0.724207995757464
0.721627938980863	0.636930852303875	0	0	0.0514061160437505	-0.0742378127160742	0	0
0	0	0.683613350982772	0.517703305628519	0	0	-0.00481575599301538	0.00967309948027607
4.1	-0.00632548975102322	0.0164851096838475	0	0	0.642462201553307	-0.709089655595437	0	0
0	0	-0.0418973720625722	-0.0355388791519433	0	0	0.0563890304882201	-0.892633022566518
0.642462201553307	-0.709089655595437	0	0	0.0254665195947546	-0.112126370299811	0	0
0	0	0.185285962684557	-0.828804018013947	0	0	0.0261280335766829	0.0823007054322031
4.2	0.012835912440112	-0.0117187926868106	0	0	0.704535687587939	0.65376377493882	0	0
0	0	-0.0490998461860301	-0.0156221269626547	0	0	-0.433091737234022	-0.781983844915897
0.704535687587939	0.65376377493882	0	0	-0.0403418156080138	0.0164188028492982	0	0
0	0	0.832574264814185	-0.184031611968446	0	0	-0.0116772148960998	-0.0414127415416924
4.3	-0.0165226000951436	0.00480754619453714	0	0	0.662301527065841	-0.69823666807122	0	0
0	0	-0.00739249049792459	0.00655542098616961	0	0	0.778897452561591	0.424825462446494
0.662301527065841	-0.69823666807122	0	0	-0.0112140319341983	0.067612206232325	0	0
0	0	-0.534663867169906	-0.674560165666486	0	0	-0.0144562153365488	0.00238317349848266
4.4	0.0164889491806151	0.0034298542524958	0	0	0.681520552571614	0.671501185563182	0	0
0	0	0.0382181560286162	0.0042697114960795	0	0	0.889104666024254	-0.0535869291956061
0.681520552571614	0.671501185563182	0	0	0.0013528552655229	-0.0503744382099478	0	0
0	0	0.346422624904637	-0.772958055725497	0	0	-0.0337695697293209	0.00322766207288192
4.5	-0.0128448581672423	-0.0110316364583533	0	0	0.677782292875032	-0.663402403775038	0	0
0	0	0.064898221383046	-0.00441939102722452	0	0	-0.72289245469277	0.5236909541514
0.677782292875032	-0.663402403775038	0	0	-0.0500406083279558	0.0265010871116322	0	0
0	0	-0.835966209480293	0.0113933951262448	0	0	-0.0864662558433816	0.0620930732304294
4.6	0.00641512022526181	0.0168791510582378	0	0	0.645448302515527	0.692261446655902	0	0
0	0	0.0468608119341475	-0.02468396881544	0	0	-0.313103354605747	0.845058360367279
0.645448302515527	0.692261446655902	0	0	-0.00394264083869808	0.0137444457765265	0	0
0	0	-0.372197010596075	-0.745173418553659	0	0	-0.0806645100859013	-0.00962000954919644
4.7	0.0015078560704065	-0.0196280764305526	0	0	0.709396915055913	-0.638581735585772	0	0
0	0	-0.0244589551446675	-0.00495907878344182	0	0	-0.191417135805016	-0.874304769462948
0.709396915055913	-0.638581735585772	0	0	0.0656571430154549	-0.017940377460557	0	0
0	0	-0.524390473268495	0.656173798583034	0	0	-0.0736349393795995	0.0725144610763846
4.8	-0.0099496937720899	0.0187212630117147	0	0	0.63852337387889	0.725207659044878	0	0
0	0	-0.0587886125175311	0.0346786373773217	0	0	-0.607526566766192	-0.634877148197154
0.63852337387889	0.725207659044878	0	0	0.0529614790728895	-0.0187071945402947	0	0
0	0	-0.828017465319174	-0.196939267919725	0	0	-0.0095194393661922	0.0720732083110943
4.9	0.0174837155833778	-0.01352526165166	0	0	0.73101100921937	-0.630048654391507	0	0
0	0	-0.040172198656735	0.0588537963246728	0	0	0.854567787139282	0.206669408979875
0.73101100921937	-0.630048654391507	0	0	-0.0810440393366365	-0.0292088938300404	0	0
0	0	0.199472439355186	0.821299385274024	0	0	-0.0839857119533476	0.00416121252523371
5	-0.02216379127788	0.00545551298096817	0	0	0.618601588498213	0.726527974400176	0	0
0	0	-0.000987081936565299	0.0203167681764215	0	0	0.830879277364941	-0.298485162141906
0.618601588498213	0.726527974400176	0	0	-0.0478675547194414	0.0405027298562916	0	0
0	0	-0.644986735913508	0.533978635902773	0	0	0.0410647367035103	-0.0088080234401168
5.1	0.0235337689678484	0.004397525924196	0	0	0.727945124428118	-0.605631497826704	0	0
0	0	0.0376958098326596	-0.0338312262070073	0	0	-0.533212213596602	0.695226350573359
0.727945124428118	-0.605631497826704	0	0	-0.0219080475731725	-0.0415790885751051	0	0
0	0	0.749637019882623	0.344838763221383	0	0	0.0721486634061851	-0.0192700408715473
5.2	-0.020994218050293	-0.0155590108719597	0	0	0.582992304836773	0.746041578358434	0	0
0	0	0.0153954735547987	-0.0749303362443847	0	0	-0.0793135142389861	0.87120113598057
0.582992304836773	0.746041578358434	0	0	0.0378893739517874	0.0224559932765121	0	0
0	0	0.0145868237188433	0.831907355044529	0	0	0.0263956463487095	0.0668383711455628
5.3	0.0146970630670756	0.0253668997432304	0	0	0.765039702082158	-0.570589117396693	0	0
0	0	-0.0146119399790098	-0.0420459175469712	0	0	-0.410905185601193	-0.771169004045715
0.765039702082158	-0.570589117396693	0	0	-0.0324262529501676	0.024665721275544	0	0
0	0	0.743126515206576	-0.373009638519975	0	0	-0.0434260520963158	0.0122310081930271
5.4	-0.00574331745682306	-0.0315281224837961	0	0	0.562241348090859	0.770713776726068	0	0
0	0	-0.031361246613201	0.0139882163852446	0	0	-0.766180550498036	-0.42985685619011
0.562241348090859	0.770713776726068	0	0	0.0699068420621557	0.0881593259862423	0	0
0	0	0.656156988601258	0.51121350038853	0	0	-0.00945097443657571	0.0221428283582532
5.5	-0.00495792958787116	0.0338685791806071	0	0	0.782224249496667	-0.559381570498534	0	0
0	0	0.0235491511765487	0.0596850797456878	0	0	0.877760249486011	-0.0420409083484636
0.782224249496667	-0.559381570498534	0	0	-0.00648012915002619	-0.0276338037083654	0	0
0	0	0.160016194524767	-0.816590223233714	0	0	0.021503709729332	0.0388978595909997
5.6	0.0165507220459342	-0.0311402798423119	0	0	0.545411358119654	0.788554456232096	0	0
0	0	0.0429184099654677	0.0566418999437535	0	0	0.700466904456962	-0.50667751840462
0.545411358119654	0.788554456232096	0	0	0.00265719919463729	-0.109719285417527	0	0
0	0	0.801233788527685	-0.199752117437999	0	0	0.0103598106062723	0.118087244775706
5.7	-0.0274954088727238	0.0245024966243714	0	0	0.802593994908727	-0.537367009017158	0	0
0	0	0.0212806357374911	-0.00666289598306141	0	0	-0.321245296974329	0.807872912453687
0.802593994908727	-0.537367009017158	0	0	-0.0125438786912929	0.0517699815378425	0	0
0	0	-0.534880916320381	-0.651951140988182	0	0	0.0585928575306043	0.0354402492402178
5.8	0.0344866213399183	-0.0141746449439967	0	0	0.520557902332721	0.80308438681709	0	0
0	0	-0.0215124894585204	-0.0308638840705869	0	0	0.153098931683614	0.856528686886761
0.520557902332721	0.80308438681709	0	0	0.0594094807269769	-0.0270439443137758	0	0
0	0	0.327478403914942	-0.772045881809624	0	0	0.0338306231880686	0.0566008062974963
5.9	-0.0374895185437018	0.00136830388711346	0	0	0.817471809773867	-0.497901612137616	0	0
0	0	-0.0558757450732953	-0.0262639622713164	0	0	-0.585697575226221	-0.641750899903788
0.817471809773867	-0.497901612137616	0	0	-0.0746273145647139	0.0434541774792339	0	0
0	0	-0.830259660046349	0.0576264576729434	0	0	0.0374936272499963	0.0738354649154416
6	0.0358244582268963	0.0114324257615	0	0	0.48271515156878	0.831137123574413	0	0
0	0	-0.0340196236087085	0.00624660520053786	0	0	-0.851275975970912	-0.197422016148272
0.48271515156878	0.831137123574413	0	0	-0.00353024666789151	0.0243314870171339	0	0
