# GHZ S RI R 50
0.2	-0.00541208806534973	0.00764427647608918	0	0	0.95813235955237	0.0578843367728469	0	0
0	0	0.0231753191811647	0.00370512876270161	0	0	-0.370196548899433	0.911176282539681
0.95813235955237	0.0578843367728469	0	0	0.0202395990728373	0.0465985147884526	0	0
0	0	0.569419903641259	-0.754148581561499	0	0	0.000628070457372242	-0.0272247165953595
0.3	0.00684683372689183	-0.00860925447712442	0	0	0.0332020352580658	-0.965266536527407	0	0
0	0	-0.00395380158695582	0.00163256800448801	0	0	-0.134546361034343	-0.974203635328869
0.0332020352580658	-0.965266536527407	0	0	-0.013594449121157	0.00776201957790493	0	0
0	0	-0.922141661299492	-0.201885963621886	0	0	-0.0322157368610155	-0.0141326641599791
0.4	-0.00861602235749988	0.00790493131094461	0	0	0.948589340721627	0.0615290641172284	0	0
0	0	-0.0395207298082601	0.000955140252269069	0	0	-0.667476077130544	-0.725442813709759
0.948589340721627	0.0615290641172284	0	0	-0.033162454567446	-0.0119298728965507	0	0
0	0	-0.235614425556933	-0.895682238477214	0	0	0.0225582487926278	0.0217482315076252
0.5	0.010296782599897	-0.00537123909014113	0	0	0.127154098709577	-0.948833576223779	0	0
0	0	-0.0342945724258247	0.0048033475585201	0	0	0.963995837992779	0.206545250226265
0.127154098709577	-0.948833576223779	0	0	0.0377195992489731	0.0175113360005863	0	0
0	0	-0.67818916424417	0.636974336796074	0	0	0.00603688011573764	0.00858744360725023
0.6	-0.0101023936184778	0.00249263465879014	0	0	0.954807589097653	0.130533861160622	0	0
0	0	-0.0104281569029412	0.00562833069747701	0	0	0.912173083298128	-0.330030371937826
0.954807589097653	0.130533861160622	0	0	0.00546306157185406	-0.0193989261560516	0	0
0	0	-0.861915500474698	-0.344124445325322	0	0	-0.0048369655061072	-0.0068587685635361
0.7	0.00921699936599308	0.000943121758875135	0	0	0.108302353301658	-0.957237105309062	0	0
0	0	0.0203817683871992	-0.0119783107417057	0	0	-0.610330948411942	0.748470492733397
0.108302353301658	-0.957237105309062	0	0	0.00807171220642243	0.00997785922836717	0	0
0	0	0.0465413022481448	0.919903962017133	0	0	0.00226933599846034	-0.0127672183132233
0.8	-0.00818325138278131	-0.0049139868526315	0	0	0.9544890035768	0.113042415596234	0	0
0	0	0.0422603026919753	-0.043108805715517	0	0	-0.119926438460304	0.96045127756404
0.9544890035768	0.113042415596234	0	0	-0.0229015703626453	0.0132007425623764	0	0
0	0	-0.810939428082505	0.44881956223759	0	0	0.00635969769292805	0.0836826147546157
0.9	0.00615487571376209	0.00799912264839284	0	0	0.144391196530066	-0.939249233737384	0	0
0	0	0.011943267706792	-0.0289083986927071	0	0	-0.434774817150337	-0.865269272198298
0.144391196530066	-0.939249233737384	0	0	-0.00255211880902193	-0.0607742176741283	0	0
0	0	0.76396374261931	0.524319383666523	0	0	0.0358143648096596	0.0146147991349423
1	-0.00359491814552195	-0.00938413088963973	0	0	0.942166833199727	0.181203277309704	0	0
0	0	-0.0148401726763016	0.011058679153213	0	0	-0.838012496469617	-0.480664667850538
0.942166833199727	0.181203277309704	0	0	0.0026806186488204	0.0434563855880372	0	0
0	0	-0.125804983410304	0.902054430735779	0	0	0.00311580224276609	0.00346133824397264
1.1	0.000660716556317432	0.00850383622045679	0	0	0.201146384761127	-0.949040289370424	0	0
0	0	-0.011306300916107	0.0348932529936992	0	0	0.955804281251645	-0.0512944464452762
0.201146384761127	-0.949040289370424	0	0	0.00411001132702618	0.00353349819394813	0	0
0	0	0.868401691536455	-0.260398567378227	0	0	0.00925269898915318	0.0446538841823385
1.2	0.00229774455682091	-0.00596383171739055	0	0	0.958734258508563	0.202401785940485	0	0
0	0	0.00947326668468784	0.0651664743311999	0	0	0.77064556823369	-0.554449554634144
0.958734258508563	0.202401785940485	0	0	0.0549119364598228	0.000979284155828819	0	0
0	0	0.61361870785391	0.671081252560109	0	0	0.00822627426622194	0.101241413424065
1.3	-0.00475718529717817	0.00243428807634003	0	0	0.205063414100252	-0.942400922131525	0	0
0	0	0.0169479397456502	0.020214761764263	0	0	-0.354976098179407	0.882909269707154
0.205063414100252	-0.942400922131525	0	0	-0.0523466974222119	0.00160327375197682	0	0
0	0	0.322032624903248	-0.858955283418436	0	0	0.0418768283552041	0.0157879998458114
1.4	0.00566857745333885	0.00130253325601385	0	0	0.924356378567946	0.23351224622391	0	0
0	0	-0.0129960041608053	-0.0421768761234748	0	0	0.17942239296795	0.9372103396354
0.924356378567946	0.23351224622391	0	0	0.0190520958650349	0.00877817800312074	0	0
0	0	0.898640632464067	-0.0838873518297604	0	0	0.0462623771595486	-0.00544078618369918
1.5	-0.00496462552089909	-0.00434510492474927	0	0	0.270969492388897	-0.92250652053284	0	0
0	0	-0.0386025947749015	-0.0547317798810504	0	0	-0.674426738937437	-0.675562933158748
0.270969492388897	-0.92250652053284	0	0	0.0348840845169344	-0.0324414135071626	0	0
0	0	-0.461169964586575	-0.767539320464943	0	0	0.0349412231280183	0.0528481811742902
1.6	0.0032336710675849	0.00582143348759333	0	0	0.937223642636333	0.294906739347631	0	0
0	0	-0.0372276506153803	-0.018114601414109	0	0	-0.936828860918741	-0.184063131712254
0.937223642636333	0.294906739347631	0	0	-0.0498155479302286	-0.0270392340792965	0	0
0	0	0.497705874705464	-0.753796180453464	0	0	0.00254664521478314	0.0527294614889195
1.7	-0.000558541416430333	-0.00525003372097434	0	0	0.28996707840785	-0.942926474237812	0	0
0	0	0.014264456037317	0.00739389178970795	0	0	0.884900053953284	-0.3434555667084
0.28996707840785	-0.942926474237812	0	0	0.000152504883796199	0.00469577439685785	0	0
0	0	-0.900427905106569	-0.111322265023788	0	0	0.0412895420014929	-0.0307155299491055
1.8	-0.00256455800750978	0.00309304290042476	0	0	0.917265107421325	0.291250009279742	0	0
0	0	0.0441612696601385	0.0384777420653488	0	0	0.573558592771157	-0.745665421608937
0.917265107421325	0.291250009279742	0	0	0.007120597798837	0.064452967357487	0	0
0	0	-0.309910328078652	-0.849313815897344	0	0	0.0284217817860023	-0.0344734604151867
1.9	0.00500621643565872	3.29770558851802E-06	0	0	0.320400646801332	-0.893894953593473	0	0
0	0	0.0518054466648251	-0.00396046317123111	0	0	-0.0837531671546914	0.94149589582464
0.320400646801332	-0.893894953593473	0	0	0.00995114572356771	0.00831726775102687	0	0
0	0	-0.615344566710748	0.645400637695717	0	0	0.0413466728068701	0.0231144649960518
2	-0.00572348891171959	-0.00374767050980706	0	0	0.890794954409177	0.350743985432494	0	0
0	0	0.0146461067548789	-0.00568432313714	0	0	0.456817821934	0.833306062071585
0.890794954409177	0.350743985432494	0	0	-0.0496936080692592	-0.0337623650618894	0	0
0	0	-0.844173038803227	-0.264435448629256	0	0	-0.0527350784149242	-0.0216429230505636
2.1	0.00433594076177224	0.00763133729673808	0	0	0.365618857463106	-0.897808870338453	0	0
0	0	-0.0290534394112706	0.0068574873718627	0	0	-0.829907654481764	-0.45281208374897
0.365618857463106	-0.897808870338453	0	0	0.070710326969005	0.0162729507137656	0	0
0	0	0.13467561798869	0.879527660748448	0	0	-0.00481556160182831	0.00947705598778829
2.2	-0.000629600497067207	-0.0112262247963455	0	0	0.898298980326718	0.37743967521235	0	0
0	0	-0.0475791664404726	0.0161753346580186	0	0	-0.932530711186339	0.0679534040828972
0.898298980326718	0.37743967521235	0	0	0.0149554739119862	-0.0111647860046516	0	0
0	0	-0.737724142815027	0.505700629029219	0	0	0.0429645795780539	-0.0114192618297995
2.3	-0.00463142851900062	0.0134797661981241	0	0	0.387084328789336	-0.889354568454432	0	0
0	0	-0.0296956382564655	0.0184830909379315	0	0	0.737451360222963	-0.55522536221401
0.387084328789336	-0.889354568454432	0	0	0.0584025598734223	-0.0292771241728518	0	0
0	0	0.776167735720039	0.433032378261846	0	0	0.0671226141324837	0.046284185129251
2.4	0.0105239889620407	-0.013547146754152	0	0	0.877726737185539	0.398899207830886	0	0
0	0	0.000169447336522289	0.000548063211214197	0	0	0.324795838667704	-0.868035667880474
0.877726737185539	0.398899207830886	0	0	-0.0967985274515349	0.0129631240002913	0	0
0	0	-0.0396287465769103	0.882811266834308	0	0	0.0475034920339161	-0.0498602822269912
2.5	-0.0165022330432864	0.0107495884956364	0	0	0.415540024247759	-0.866306704218366	0	0
0	0	0.0197363820962462	-0.0361157710117576	0	0	0.189237714165453	0.917812023516846
0.415540024247759	-0.866306704218366	0	0	-0.0102814531127067	-0.0280073439864427	0	0
0	0	0.805230359813887	-0.332024328089992	0	0	0.0126579426919338	-0.00164575024043821
2.6	0.0216618286323766	-0.00548713286345507	0	0	0.859270612366899	0.429378130237683	0	0
0	0	0.0181462358139663	-0.0385716877656126	0	0	0.667133555558597	0.653521297610648
0.859270612366899	0.429378130237683	0	0	0.00513896767604323	-0.0344029508049908	0	0
0	0	0.630538549890827	0.597196990564062	0	0	0.0623741325214085	0.00916082250137287
2.7	-0.0252143244578836	-0.00160310265031127	0	0	0.443768971652489	-0.853205430303218	0	0
0	0	0.0209840762814943	-0.00928599153605011	0	0	-0.897188288844289	-0.173992817223414
0.443768971652489	-0.853205430303218	0	0	0.00266817767419443	-0.0137919166670642	0	0
0	0	0.275636597671672	-0.835199851694174	0	0	-0.027692548325006	-0.00180654737522484
2.8	0.0258303523456999	0.00947517190406457	0	0	0.842533159465921	0.457190586808159	0	0
0	0	0.00905296440219833	0.0126308290932726	0	0	-0.841689326327723	0.312440814508469
0.842533159465921	0.457190586808159	0	0	0.00343453093226	0.0630036072049516	0	0
0	0	0.871010454840005	-0.150144348110881	0	0	0.0256610747652634	-0.064508236771722
2.9	-0.0227167730036823	-0.0173578513936338	0	0	0.47326743074198	-0.8232255274921	0	0
0	0	-0.0010160104574929	0.0360782678830935	0	0	0.56686241067363	-0.699991969451989
0.47326743074198	-0.8232255274921	0	0	-0.0541354252926287	0.0334119160338766	0	0
0	0	-0.514620168972094	-0.702049060449294	0	0	-0.0405521431612043	-0.0466939318857381
3	0.0168519062844706	0.0245503051662991	0	0	0.814192894031497	0.497650455578918	0	0
0	0	-0.0118141313788561	0.0283975930552374	0	0	0.0920696613604413	-0.919073487017142
0.814192894031497	0.497650455578918	0	0	-0.00752741978811061	-0.0180239222457013	0	0
0	0	0.406527774518977	-0.759539159192325	0	0	0.0130038360759382	0.0852328174166941
3.1	-0.0086200751294673	-0.0290900638766927	0	0	0.518708207628548	-0.803911933408809	0	0
0	0	-0.0207777325229614	0.0109390005547849	0	0	0.446853549852879	0.805860870381943
0.518708207628548	-0.803911933408809	0	0	0.0381047529444236	-0.0643480046479944	0	0
0	0	-0.8680009617327	-0.0508157328687162	0	0	-0.0756490938503232	0.00590598336116356
3.2	-0.000567140953912415	0.0309058589697899	0	0	0.801987745963219	0.54296071256259	0	0
0	0	-0.0179179196543506	-0.00742056468062665	0	0	0.796329807175485	0.437723177920228
0.801987745963219	0.54296071256259	0	0	0.000229359097920491	0.0252431486944922	0	0
0	0	-0.335785866493481	-0.813369698493366	0	0	-0.059380948142597	0.00669593977772655
3.3	0.00952424286153931	-0.0285480515028832	0	0	0.554872184588474	-0.797813567541377	0	0
0	0	-0.000906775076658881	-0.0250783754764133	0	0	-0.903830729483238	0.0486235922242522
0.554872184588474	-0.797813567541377	0	0	0.0616032809175546	0.0246171939987672	0	0
0	0	-0.575185102265597	0.673622734395658	0	0	-0.0270278901259892	-0.106647208610002
3.4	-0.0171641656303475	0.0224150150649919	0	0	0.780956620358189	0.560023444837162	0	0
0	0	-0.00361506979060171	-0.0413213270644021	0	0	-0.733309647157141	0.540816382019294
0.780956620358189	0.560023444837162	0	0	-0.114751322394249	0.00824622184996348	0	0
0	0	-0.855357348362704	-0.224007576488813	0	0	-0.0193013254415118	-0.0397017445654006
3.5	0.0225699346235677	-0.0146085083080101	0	0	0.57504188891259	-0.772014634923019	0	0
0	0	0.00893228351931435	-0.0305856387626631	0	0	0.299091969101586	-0.867775253580726
0.57504188891259	-0.772014634923019	0	0	-0.0117910914688437	-0.0536440923512736	0	0
0	0	0.165572027164631	0.843095567251392	0	0	0.0853042507099515	-0.0720411428696992
3.6	-0.024486737701842	0.00589572610003283	0	0	0.765047991965198	0.585410206097688	0	0
0	0	0.0206555240210917	0.00270335499107394	0	0	-0.20752092705531	-0.894658564592534
0.765047991965198	0.585410206097688	0	0	-0.0345842130512808	0.0601364165013454	0	0
0	0	-0.693865199394192	0.518654357830158	0	0	0.0449555296688843	-0.0313935518595506
3.7	0.0223852517478239	0.00347199463011933	0	0	0.604711079487316	-0.745333754825806	0	0
0	0	0.0148181841598878	0.0369797300153442	0	0	0.637997614774454	0.650412784272032
0.604711079487316	-0.745333754825806	0	0	0.118313626933899	0.00792401141014391	0	0
0	0	0.7698159323726	0.411294205576467	0	0	0.0555830294544797	-0.0188745183644428
3.8	-0.0172294207683488	-0.0114012347288626	0	0	0.739211495877838	0.623646842686158	0	0
0	0	0.0157607335742606	0.0513799310685877	0	0	0.87091086006018	0.188526297824717
0.739211495877838	0.623646842686158	0	0	-0.0255489255870886	0.0207020569888954	0	0
0	0	-0.0178684867663701	0.871544969971147	0	0	-0.0583025393614944	-0.0256033955762653
3.9	0.010103850527674	0.0164737018438884	0	0	0.628617000091057	-0.738915261142285	0	0
0	0	0.0111964200680026	0.0164413196919141	0	0	-0.825311261173421	0.326159973221741
0.628617000091057	-0.738915261142285	0	0	-0.0139374620124634	0.0834422407800737	0	0
0	0	0.784184789739945	-0.384162473851816	0	0	0.0247897104653635	-0.00559134890810562
4	-0.00162861325189015	-0.0180949576183927	0	0	0.721678079374761	0.636776495934368	0	0
0	0	-0.0171142627322421	-0.0116902125204892	0	0	-0.517774979307338	0.724498560841573
0.721678079374761	0.636776495934368	0	0	0.0513428370160113	-0.0741572218146054	0	0
0	0	0.68389474165312	0.517651598659765	0	0	-0.00491694695029317	0.00963305935898506
4.1	-0.00621225324774142	0.016055441909689	0	0	0.642213854381859	-0.709171987667147	0	0
0	0	-0.0422663834604025	-0.0351412621249699	0	0	0.0562615857528411	-0.892893606435396
0.642213854381859	-0.709171987667147	0	0	0.0254065813048982	-0.112007458525419	0	0
0	0	0.185205088290829	-0.829067313504263	0	0	0.0260368554707034	0.0823243290745575
4.2	0.0126273160166817	-0.01123732110801	0	0	0.704513013365242	0.653446041455538	0	0
0	0	-0.0496897182431541	-0.0154933468616252	0	0	-0.433312658944213	-0.782089968568205
0.704513013365242	0.653446041455538	0	0	-0.0402798836706088	0.0165115653003335	0	0
0	0	0.832731221005794	-0.184204873101788	0	0	-0.0118056027368641	-0.0413896720321224
4.3	-0.0163758772336083	0.00431138080707688	0	0	0.662024762998604	-0.698154802567375	0	0
0	0	-0.00797370664289047	0.00640856087648525	0	0	0.779157921797143	0.424791699381168
0.662024762998604	-0.698154802567375	0	0	-0.0111505523563191	0.0676021963824178	0	0
0	0	-0.534909288558949	-0.674628710019097	0	0	-0.0144925339285269	0.00243168004421299
4.4	0.0163975788973578	0.00377251195562919	0	0	0.68150486656884	0.671243227120853	0	0
0	0	0.0378614606924727	0.00392107111624628	0	0	0.889245834648065	-0.0537476319396689
0.68150486656884	0.671243227120853	0	0	0.00132850236931403	-0.0504134560828663	0	0
0	0	0.346349355771968	-0.773147813763261	0	0	-0.0337016166543732	0.00323961255394287
4.5	-0.01265174954892	-0.0111540240495849	0	0	0.677530182510933	-0.66342673107013	0	0
0	0	0.0649150170390108	-0.00485405586646442	0	0	-0.722926718402712	0.523799335432848
0.677530182510933	-0.66342673107013	0	0	-0.0501186027961755	0.0264011464320172	0	0
0	0	-0.836050877720115	0.0114579323572476	0	0	-0.0863056029771292	0.0620051415384177
4.6	0.0059762749247545	0.0169011903133716	0	0	0.645522671287099	0.691976274966947	0	0
0	0	0.0472587314735154	-0.0250584117778755	0	0	-0.313093035165865	0.8451007436651
0.645522671287099	0.691976274966947	0	0	-0.00415196616940978	0.0136308547713874	0	0
0	0	-0.37223212100228	-0.745193238307929	0	0	-0.0804844956240986	-0.00987742307239353
4.7	0.00217067330351453	-0.0197269407013196	0	0	0.709116352019015	-0.638661254480292	0	0
0	0	-0.0237736490257658	-0.00510723810251566	0	0	-0.191351382837435	-0.874408314466845
0.709116352019015	-0.638661254480292	0	0	0.0653077538350375	-0.0180174322182331	0	0
0	0	-0.524504824103234	0.656187037185757	0	0	-0.073520916015554	0.0721170414701364
4.8	-0.0106758100520275	0.0189578766803317	0	0	0.638616433557778	0.724916840371729	0	0
0	0	-0.0580477241949144	0.0348699450554394	0	0	-0.607576031466845	-0.635022799693452
0.638616433557778	0.724916840371729	0	0	0.0525591563928034	-0.0187001023110651	0	0
0	0	-0.82813429171241	-0.197031729908286	0	0	-0.00947054069110358	0.0715968809124301
4.9	0.0181863051028376	-0.0137755669373847	0	0	0.730624419136196	-0.630230792813947	0	0
0	0	-0.0396072202334386	0.0593636709600783	0	0	0.854572831197568	0.20678177269901
0.730624419136196	-0.630230792813947	0	0	-0.0814165717149139	-0.0290242383085754	0	0
0	0	0.199378629343193	0.821353147895855	0	0	-0.0840374950301995	0.00361749586147868
5	-0.0229334004094781	0.00565802835177093	0	0	0.618789731988787	0.726092402004816	0	0
0	0	-0.000774311185686201	0.0210879726831392	0	0	0.831008176541592	-0.298433411751439
0.618789731988787	0.726092402004816	0	0	-0.0481711636517467	0.0407202618009172	0	0
0	0	-0.645118391789868	0.533974006787317	0	0	0.0409367168075809	-0.00932760412178675
5.1	0.0244501203394166	0.00411390075659862	0	0	0.727455308899983	-0.605898593193797	0	0
0	0	0.0374826843724404	-0.0329593861138019	0	0	-0.533421631863753	0.695300074966367
0.727455308899983	-0.605898593193797	0	0	-0.0222414642708672	-0.0412656250452392	0	0
0	0	0.749748372290657	0.345015736158377	0	0	0.0719305632407331	-0.0197358939097013
5.2	-0.0219433491828136	-0.0150888242095838	0	0	0.583137879083687	0.745513061301902	0	0
0	0	0.0148075108530443	-0.074148191124967	0	0	-0.0795506674393399	0.87150707687273
0.583137879083687	0.745513061301902	0	0	0.0376932810099528	0.0227349849359463	0	0
0	0	0.0143940449810873	0.832221018258077	0	0	0.0260181834696955	0.0665216657517895
5.3	0.0154771197081732	0.0247659996290054	0	0	0.764428800035542	-0.570686029040785	0	0
0	0	-0.0154013594632897	-0.0415621420179385	0	0	-0.41087647866156	-0.771500515606276
0.764428800035542	-0.570686029040785	0	0	-0.0324303891788045	0.0250079919228123	0	0
0	0	0.743441211286049	-0.372974644719701	0	0	-0.0438732461106868	0.0120212962552302
5.4	-0.00630392668213749	-0.031030789590866	0	0	0.562295242570306	0.770231694986278	0	0
0	0	-0.0321559366518509	0.0140226675562638	0	0	-0.766368919954415	-0.430079593296739
0.562295242570306	0.770231694986278	0	0	0.0699715695756246	0.0883042489090879	0	0
0	0	0.656301681693872	0.511448758511209	0	0	-0.00983047598614144	0.0221080040726862
5.5	-0.00439477925378741	0.0335995102170408	0	0	0.781681227428422	-0.559575669311798	0	0
0	0	0.0229591244606345	0.0592539273357529	0	0	0.878009436780559	-0.0419506806797943
0.781681227428422	-0.559575669311798	0	0	-0.00643053788154393	-0.0274295077624664	0	0
0	0	0.160155557069669	-0.816798921549402	0	0	0.0212405503371693	0.0389377151087898
5.6	0.0157812173099828	-0.0309812860611693	0	0	0.545732895211836	0.787993717873829	0	0
0	0	0.0426912813641644	0.0558648733059728	0	0	0.700828500978754	-0.506678795192588
0.545732895211836	0.787993717873829	0	0	0.0025471246082496	-0.109505487386475	0	0
0	0	0.801554749396438	-0.19962452969959	0	0	0.0101183477666067	0.118116208790903
5.7	-0.0265206463372546	0.0241917380778251	0	0	0.801873146632021	-0.537566428535433	0	0
0	0	0.021467989419399	-0.00761245374822579	0	0	-0.321491473005789	0.808092437298145
0.801873146632021	-0.537566428535433	0	0	-0.012507643257212	0.0519325359212372	0	0
0	0	-0.534951666693314	-0.652263153052904	0	0	0.0583798228221647	0.0353377833930454
5.8	0.0335948389770732	-0.0136020913131003	0	0	0.520793265614577	0.802400798195202	0	0
0	0	-0.0210039985152003	-0.0317148691317102	0	0	0.153005681077965	0.856887035435784
0.520793265614577	0.802400798195202	0	0	0.0592955440391122	-0.0267480810232112	0	0
0	0	0.327742392777494	-0.772286046013429	0	0	0.033405952350779	0.0564496714568616
5.9	-0.0368935223324313	0.000712229060928678	0	0	0.816658612318491	-0.498018349566118	0	0
0	0	-0.0552027011920035	-0.0267982998487199	0	0	-0.585836427119248	-0.642067884255202
0.816658612318491	-0.498018349566118	0	0	-0.0743692410223069	0.0439615576373913	0	0
0	0	-0.830580212273867	0.0575420061058867	0	0	0.0368189050210062	0.0737911028059662
6	0.0355292293937669	0.0118954510620998	0	0	0.482880200153073	0.830386206630754	0	0
0	0	-0.0333780921255018	0.00614320348442279	0	0	-0.85146159872604	-0.19768252441309
0.482880200153073	0.830386206630754	0	0	-0.00315915563957707	0.0248280790545007	0	0
