# GHZ S RI R 50
0.2	-0.00719448240738209	0.0124312460264428	0	0	0.957688177335098	0.0584196072858583	0	0
0	0	0.0182550344826405	0.00523795655166234	0	0	-0.370715943616154	0.910957590975387
0.957688177335098	0.0584196072858583	0	0	0.021757234958314	0.0395825443858053	0	0
0	0	0.569847888123028	-0.753816877092876	0	0	0.00223706123410054	-0.034233085797222
0.3	0.00684811860352821	-0.0109144836571111	0	0	0.0341074279014759	-0.965082873854207	0	0
0	0	-0.00624671060148668	0.00160804506712772	0	0	-0.133661850300751	-0.974217031997655
0.0341074279014759	-0.965082873854207	0	0	-0.0143188862633043	0.00243256474264672	0	0
0	0	-0.921860394086652	-0.202687136281824	0	0	-0.032898478051619	-0.0194916199448312
0.4	-0.00893082596179259	0.00783250615874457	0	0	0.948547283422316	0.0629455889709245	0	0
0	0	-0.0393178740065931	0.000698951048228886	0	0	-0.666426929131179	-0.726450474361811
0.948547283422316	0.0629455889709245	0	0	-0.0349279749114821	-0.0154067035312739	0	0
0	0	-0.234300471521783	-0.8960581540762	0	0	0.0206934710992885	0.0184387573554401
0.5	0.0118658543593516	-0.0038102254016729	0	0	0.129004762005715	-0.948933036864935	0	0
0	0	-0.0320800802065508	0.00474754323866833	0	0	0.963991418305766	0.208518519202133
0.129004762005715	-0.948933036864935	0	0	0.0358846679214864	0.016015901155304	0	0
0	0	-0.679717812898819	0.635910712135217	0	0	0.00420829032331096	0.00696262045678931
0.6	-0.0133741153093144	0.000896510984733877	0	0	0.955398842561333	0.133007724039691	0	0
0	0	-0.00698361927248094	0.00638647332250572	0	0	0.9138879651182	-0.328157817462226
0.955398842561333	0.133007724039691	0	0	0.00453346105745866	-0.0199836970840634	0	0
0	0	-0.861950618684524	-0.346553487140217	0	0	-0.00585037217817884	-0.00746963878856826
0.7	0.0134978593168258	0.00111845407625163	0	0	0.110962346327908	-0.958560913838002	0	0
0	0	0.024073481555563	-0.0101869813917267	0	0	-0.613389259822375	0.748123919864752
0.110962346327908	-0.958560913838002	0	0	0.00802083015511863	0.0096962146659446	0	0
0	0	0.0441552568132641	0.921613850962368	0	0	0.00231832396873952	-0.013159415089521
0.8	-0.0120846980047334	-0.00362788140170455	0	0	0.956689447140678	0.1157657781161	0	0
0	0	0.0454595975978174	-0.0407348976884972	0	0	-0.122448040868754	0.962410774834714
0.956689447140678	0.1157657781161	0	0	-0.0224123665606434	0.012225321147744	0	0
0	0	-0.813877935550376	0.447973083728152	0	0	0.0066494864683986	0.0831918688427349
0.9	0.00873748000715754	0.00623153708701942	0	0	0.147293448460573	-0.942244733336801	0	0
0	0	0.0140954974937576	-0.0266712756439493	0	0	-0.43406557681071	-0.869188448408385
0.147293448460573	-0.942244733336801	0	0	-0.00160132395114076	-0.0631071963893246	0	0
0	0	0.76517940312748	0.527931291114059	0	0	0.0366466960403267	0.0129839695384107
1	-0.00483773696798424	-0.00818945882886692	0	0	0.945714432249095	0.183731669967314	0	0
0	0	-0.0140716481283782	0.0125074239715001	0	0	-0.840608477584442	-0.484292220609417
0.945714432249095	0.183731669967314	0	0	0.00237370710917421	0.0411012509354613	0	0
0	0	-0.128065393514488	0.905600739829977	0	0	0.00296123623480433	0.000774422981756812
1.1	0.00125252379010573	0.0087762241995675	0	0	0.20324073852803	-0.953399509906234	0	0
0	0	-0.0118496913690239	0.0350562567240183	0	0	0.960521651317155	-0.0504319082026674
0.20324073852803	-0.953399509906234	0	0	0.00259023888940257	0.000649039381052626	0	0
0	0	0.872936530264254	-0.260656731845912	0	0	0.0076886400677094	0.0422157333410712
1.2	0.00107440185693413	-0.00771585208750534	0	0	0.963647850193085	0.203638379852496	0	0
0	0	0.00814735086512234	0.0638186978488813	0	0	0.774896075000601	-0.557390996754857
0.963647850193085	0.203638379852496	0	0	0.0526047728481211	-0.00132974637044881	0	0
0	0	0.616892182013985	0.674795655001591	0	0	0.00538483393720681	0.100075794741822
1.3	-0.00248206195606958	0.00456796760884203	0	0	0.205546447341999	-0.947822013472755	0	0
0	0	0.0156613643504849	0.0176320667794261	0	0	-0.356176028512132	0.88798551360886
0.205546447341999	-0.947822013472755	0	0	-0.0565088814566644	0.000240249021185954	0	0
0	0	0.323073650514108	-0.863874689255358	0	0	0.0387657375495948	0.0145805971815365
1.4	0.00300747354814998	-0.000761973066099004	0	0	0.929655432849921	0.233035007727412	0	0
0	0	-0.0132755389901683	-0.0453288755162995	0	0	0.182029213061393	0.941789869150284
0.929655432849921	0.233035007727412	0	0	0.0156386783901344	0.00796761697752034	0	0
0	0	0.903188672058047	-0.0859261032525684	0	0	0.0430546474511736	-0.00636799448007127
1.5	-0.00192985461517237	-0.00228537447732877	0	0	0.269827369561211	-0.927647696871185	0	0
0	0	-0.0376638804305282	-0.0579526232103515	0	0	-0.67969817568684	-0.676838591775096
0.269827369561211	-0.927647696871185	0	0	0.0315252822668943	-0.0331842367956811	0	0
0	0	-0.465680306269933	-0.769892890811051	0	0	0.0320414911080492	0.0529904523337291
1.6	-0.000473034593088746	0.00426439049931967	0	0	0.942481044130144	0.292948268028832	0	0
0	0	-0.0352717486141731	-0.0211266499595721	0	0	-0.941502943779582	-0.181295883348575
0.942481044130144	0.292948268028832	0	0	-0.0535301653495133	-0.0263376369155485	0	0
0	0	0.496963358435281	-0.758881326650948	0	0	-0.000128421675612979	0.0537936247309684
1.7	0.00321974585506223	-0.00486515576053602	0	0	0.287031325839008	-0.947345432814831	0	0
0	0	0.0167579581760004	0.00514977744907165	0	0	0.886504697712955	-0.34811378466449
0.287031325839008	-0.947345432814831	0	0	-0.00209279968409614	0.00597044846288549	0	0
0	0	-0.903886993718565	-0.108126747486326	0	0	0.0390347718614894	-0.0299704110995814
1.8	-0.00546141268474859	0.00346544302327193	0	0	0.920689852299468	0.287745651582155	0	0
0	0	0.046602332200677	0.0373884666962446	0	0	0.571775932538154	-0.749974526745321
0.920689852299468	0.287745651582155	0	0	0.00635947387997787	0.0661572941122419	0	0
0	0	-0.314325066253138	-0.850085216460319	0	0	0.026910048563488	-0.0333947939669061
1.9	0.00700046310554252	-0.000244741030269687	0	0	0.316948965071662	-0.89658912476768	0	0
0	0	0.0536789829302868	-0.00385012740644146	0	0	-0.0797510867934179	0.943169266136197
0.316948965071662	-0.89658912476768	0	0	0.00940528394135223	0.00949784071292402	0	0
0	0	-0.613375655008295	0.648988279594635	0	0	0.0410421456429418	0.024085801221887
2	-0.00728410859935944	-0.00406291165369483	0	0	0.892834010527458	0.34738099904992	0	0
0	0	0.0156260597599298	-0.00458676533677757	0	0	0.460542686577438	0.83202194114275
0.892834010527458	0.34738099904992	0	0	-0.0503541554181322	-0.0325650565483469	0	0
0	0	-0.845844013613115	-0.261170542130517	0	0	-0.0532861355580322	-0.0203863149463502
2.1	0.00607216635782862	0.00844166625549877	0	0	0.362431957131005	-0.898843697424771	0	0
0	0	-0.0290912344853017	0.0085888489634922	0	0	-0.831413479838171	-0.449861497392032
0.362431957131005	-0.898843697424771	0	0	0.0704257439182306	0.0163361780517526	0	0
0	0	0.137743235188367	0.878970958875159	0	0	-0.00510640221582883	0.0100750940607603
2.2	-0.00281016613875742	-0.0120001489112715	0	0	0.898801268294106	0.374853556184483	0	0
0	0	-0.0484726557935049	0.0180253269482496	0	0	-0.931778065077355	0.0703672583774489
0.898801268294106	0.374853556184483	0	0	0.0143165929767126	-0.0106278888815293	0	0
0	0	-0.735938611308217	0.507332186992145	0	0	0.042305346478718	-0.011029634828794
2.3	-0.00238686217045034	0.013692847646398	0	0	0.385319707243709	-0.889382417117623	0	0
0	0	-0.0309943218934202	0.0199838590769217	0	0	0.735818738193986	-0.5561006537536
0.385319707243709	-0.889382417117623	0	0	0.0576028009314373	-0.0284881687826705	0	0
0	0	0.776302417103582	0.431253857270133	0	0	0.0665967894993048	0.0469180881724673
2.4	0.0088527086387502	-0.0132437140887035	0	0	0.877871254632289	0.397738999537961	0	0
0	0	-0.00105914274021327	0.00142063490370119	0	0	0.32389782407623	-0.867986962111269
0.877871254632289	0.397738999537961	0	0	-0.0970588089177384	0.0145331255057259	0	0
0	0	-0.0388284614828251	0.882503283994835	0	0	0.0470369398558953	-0.048518031244293
2.5	-0.0157085331113343	0.0105313395405621	0	0	0.415342141445306	-0.866537894176615	0	0
0	0	0.0190024816179342	-0.0359863576821447	0	0	0.189533564408004	0.917854623742045
0.415342141445306	-0.866537894176615	0	0	-0.0102010782069984	-0.0263706519982388	0	0
0	0	0.805217931722407	-0.33230186179958	0	0	0.0128096064869235	2.45924709681329E-06
2.6	0.021416717335027	-0.00587546397267655	0	0	0.859948404327361	0.429917826763874	0	0
0	0	0.0181516910862924	-0.0389772556484096	0	0	0.667619444015237	0.654188655826848
0.859948404327361	0.429917826763874	0	0	0.00573106672923273	-0.0328338622103394	0	0
0	0	0.631000782940168	0.597809891889053	0	0	0.0631113519120668	0.0108446429450645
2.7	-0.0249996575231489	-0.000614503345547978	0	0	0.444860422773507	-0.854619256829202	0	0
0	0	0.0216742316096756	-0.00982350225169229	0	0	-0.898825674815506	-0.174601444998916
0.444860422773507	-0.854619256829202	0	0	0.0035669029401528	-0.0123964877688938	0	0
0	0	0.276417508062034	-0.836688566177337	0	0	-0.026861063532319	-0.000366371763045421
2.8	0.0255290936753868	0.00819751952227538	0	0	0.844947103599137	0.458515980981244	0	0
0	0	0.0101679531195004	0.0124354124015977	0	0	-0.844097019804219	0.313182832000238
0.844947103599137	0.458515980981244	0	0	0.0044892990165906	0.0645831164101429	0	0
0	0	0.873474583748273	-0.150427008338134	0	0	0.0269086419214485	-0.06363628787659
2.9	-0.0225111895245521	-0.015828191419335	0	0	0.47470126697783	-0.826681737889296	0	0
0	0	0.000188069751180065	0.0366480088690856	0	0	0.568760514782517	-0.702898455894847
0.47470126697783	-0.826681737889296	0	0	-0.0534118436218226	0.0346891318526636	0	0
0	0	-0.516869108975164	-0.704538316356761	0	0	-0.0397734673337471	-0.0460587486673895
3	0.0166584217442861	0.0225211051576543	0	0	0.818587619780178	0.498807962610242	0	0
0	0	-0.0108305150517026	0.0298474811522993	0	0	0.0910318317007002	-0.923448593376013
0.818587619780178	0.498807962610242	0	0	-0.00654774138950266	-0.0175297088841741	0	0
0	0	0.407190462933477	-0.763680269472145	0	0	0.0144945822475552	0.0865874486432427
3.1	-0.00804783359074151	-0.0265798731795373	0	0	0.519279408906744	-0.809106135998789	0	0
0	0	-0.0202716634047723	0.0131044991622839	0	0	0.451278120376776	0.808950171309831
0.519279408906744	-0.809106135998789	0	0	0.0390570941094381	-0.0648986291658041	0	0
0	0	-0.872697900181691	-0.0488492609741429	0	0	-0.0754646833756919	0.00662371702694101
3.2	-0.0017412600750877	0.0282573466876117	0	0	0.808291275969839	0.542497711283371	0	0
0	0	-0.0181457089783167	-0.0049852728136332	0	0	0.802327022042322	0.43688165369235
0.808291275969839	0.542497711283371	0	0	0.00102911055785858	0.0254786099004963	0	0
0	0	-0.340823999627907	-0.816371059529425	0	0	-0.0593483698881251	0.00721214453646555
3.3	0.0111327510037752	-0.0262288049802906	0	0	0.553125751970837	-0.804498219618311	0	0
0	0	-0.00188478885429214	-0.0229086324176821	0	0	-0.908106856980335	0.0534666812131163
0.553125751970837	-0.804498219618311	0	0	0.0626905411864597	0.0240505519457116	0	0
0	0	-0.574635675729223	0.679921352309334	0	0	-0.0281836906430188	-0.107541857007198
3.4	-0.0187337028366892	0.0205240875137889	0	0	0.788209966541677	0.55712408379114	0	0
0	0	-0.00521484007836413	-0.0399066777856512	0	0	-0.732809867895139	0.547961823612911
0.788209966541677	0.55712408379114	0	0	-0.115627041449695	0.00980216532720872	0	0
0	0	-0.8604478248147	-0.219274450077826	0	0	-0.0200320586013865	-0.0398381505342721
3.5	0.0239331565171634	-0.0127667119547257	0	0	0.570824099391509	-0.778836974612733	0	0
0	0	0.00703675623910941	-0.0302224631567189	0	0	0.293342404251691	-0.872550537352609
0.570824099391509	-0.778836974612733	0	0	-0.0128059035566901	-0.0537104879587997	0	0
0	0	0.17247064551421	0.844260306764788	0	0	0.0845617279425874	-0.0737166577981888
3.6	-0.0258894215569986	0.00395000532696441	0	0	0.771452981692501	0.579574887753398	0	0
0	0	0.0187409145612117	0.00198585992276384	0	0	-0.215485035919965	-0.894236560082815
0.771452981692501	0.579574887753398	0	0	-0.0336948603007135	0.0610729240496	0	0
0	0	-0.690479080496686	0.525371818857097	0	0	0.0444697838476432	-0.0321230865483097
3.7	0.0240010475048416	0.00539595677485535	0	0	0.597838212346197	-0.750487883223507	0	0
0	0	0.0133380100890188	0.0354177832689271	0	0	0.643737087818001	0.644603035427346
0.597838212346197	-0.750487883223507	0	0	0.118442389475059	0.0059418361058408	0	0
0	0	0.773393713366043	0.404336719196399	0	0	0.0552567103382417	-0.0197367069948681
3.8	-0.0190449830772171	-0.0129453976177956	0	0	0.743620165865758	0.615834336108637	0	0
0	0	0.0149167888917264	0.0496091132713222	0	0	0.871252929763197	0.180320951617097
0.743620165865758	0.615834336108637	0	0	-0.0249636513173914	0.0211814901371172	0	0
0	0	-0.0099258280774468	0.870336288535741	0	0	-0.0584512889899249	-0.0243974376085212
3.9	0.0117076215269208	0.017472488776059	0	0	0.620038872287801	-0.74179446203318	0	0
0	0	0.0110504143489329	0.0149053762984992	0	0	-0.819751188609205	0.332070179796744
0.620038872287801	-0.74179446203318	0	0	-0.0122579517745496	0.0830903350079619	0	0
0	0	0.778270864286519	-0.389527248143151	0	0	0.0246884921713059	-0.00601600828053093
4	-0.00266764497666258	-0.0189252580181465	0	0	0.723004980915289	0.628348928716268	0	0
0	0	-0.016574998681211	-0.0126419029346886	0	0	-0.509768681021148	0.724983441214665
0.723004980915289	0.628348928716268	0	0	0.0498881542708131	-0.0743531302966835	0	0
0	0	0.684572955037481	0.509955754361074	0	0	-0.00456489567814611	0.00946057846438328
4.1	-0.00554564199251055	0.0170826169908296	0	0	0.634070814251212	-0.709015553304328	0	0
0	0	-0.0412667932653737	-0.0353274262824436	0	0	0.0501832483803185	-0.887937153007844
0.634070814251212	-0.709015553304328	0	0	0.0238133150686625	-0.111237720879163	0	0
0	0	0.178769265941257	-0.825320412345382	0	0	0.0268795354313744	0.0807774411449735
4.2	0.0119749435479121	-0.0124701516288357	0	0	0.703145913510043	0.645732465189726	0	0
0	0	-0.0486520762663983	-0.0150064505317182	0	0	-0.43425516597705	-0.774910233907883
0.703145913510043	0.645732465189726	0	0	-0.0395800946273288	0.0164675243012533	0	0
0	0	0.826420782368321	-0.187013636741145	0	0	-0.0120423049171105	-0.0409780090147738
4.3	-0.0156829009360468	0.00544034079780331	0	0	0.655144581193995	-0.695651772554477	0	0
0	0	-0.00732141920173966	0.00726603410174765	0	0	0.775316832275548	0.419361408703915
0.655144581193995	-0.695651772554477	0	0	-0.0105661049454533	0.06662949377569	0	0
0	0	-0.533536449578446	-0.668323375185614	0	0	-0.0143292140562189	0.00238764507682703
4.4	0.0159635814523683	0.00286180012524395	0	0	0.678250057151616	0.665687261008875	0	0
0	0	0.037893666914196	0.00474333882170904	0	0	0.883407011757428	-0.0550090865973585
0.678250057151616	0.665687261008875	0	0	0.00112329341061249	-0.04966155159475	0	0
0	0	0.342714591337402	-0.768782306489794	0	0	-0.0332858022974809	0.00344812098434415
4.5	-0.0126923447622502	-0.0102308839934475	0	0	0.673257602215665	-0.659941438300478	0	0
0	0	0.0642724370571924	-0.00442318216232557	0	0	-0.718496942361787	0.52121027976828
0.673257602215665	-0.659941438300478	0	0	-0.0493801622262033	0.0264901568637799	0	0
0	0	-0.831262455029641	0.0118630000966603	0	0	-0.0851198294261612	0.0617606767816995
4.6	0.00637972979626646	0.0156228153011225	0	0	0.64211047049053	0.688943846875496	0	0
0	0	0.0461570625184033	-0.0252054401174135	0	0	-0.312044187146822	0.840972498683776
0.64211047049053	0.688943846875496	0	0	-0.00379936835632875	0.0139900365794103	0	0
0	0	-0.370110131193171	-0.741877213625183	0	0	-0.0793482972510966	-0.00934931830680136
4.7	0.00175494643607197	-0.0180022060746684	0	0	0.70713712426856	-0.635558773249739	0	0
0	0	-0.0249662999305377	-0.00592870293942068	0	0	-0.189923214122374	-0.871586536050589
0.70713712426856	-0.635558773249739	0	0	0.0654665027360204	-0.0172808965678674	0	0
0	0	-0.523291209018673	0.653478384006404	0	0	-0.0724985319507563	0.0719629424916049
4.8	-0.0104957442346399	0.0170530537582223	0	0	0.636278538296299	0.723891638107295	0	0
0	0	-0.0588164869808992	0.033574082017044	0	0	-0.605593581734919	-0.634159507066703
0.636278538296299	0.723891638107295	0	0	0.0531334791540269	-0.0180613710000033	0	0
0	0	-0.826067794729184	-0.197372008273587	0	0	-0.00877395411908678	0.071658102071956
4.9	0.0180518330151026	-0.0119357473311208	0	0	0.730418086153738	-0.629121966539921	0	0
0	0	-0.0396760847308663	0.0579077580080224	0	0	0.853649276598394	0.207183673777303
0.730418086153738	-0.629121966539921	0	0	-0.0803097197558092	-0.0287919449540565	0	0
0	0	0.198628690085532	0.820740724709894	0	0	-0.0829581440883452	0.003738634922491
5	-0.0226722915310187	0.00377254345337453	0	0	0.618948539872765	0.725965920303953	0	0
0	0	7.98457171258381E-06	0.0197763322761343	0	0	0.83083135023343	-0.298442091562583
0.618948539872765	0.725965920303953	0	0	-0.0471956839436297	0.0408673965383592	0	0
0	0	-0.644957861851649	0.533924773042754	0	0	0.0418909347964005	-0.0092525594333874
5.1	0.0242255070517942	0.00626805085039394	0	0	0.727176519117586	-0.607106148942195	0	0
0	0	0.0389589324357289	-0.033829815058178	0	0	-0.532804461811922	0.696167606209845
0.727176519117586	-0.607106148942195	0	0	-0.0214324821079793	-0.0413268344418458	0	0
0	0	0.750416527154091	0.344268118568768	0	0	0.072886271359429	-0.0200535654967717
5.2	-0.0219877943710116	-0.0173746105164793	0	0	0.585430900902529	0.7444228466443	0	0
0	0	0.016609013711704	-0.0744199137298389	0	0	-0.0772627828681678	0.872254207512943
0.585430900902529	0.7444228466443	0	0	0.0386436434661314	0.0222466218666542	0	0
0	0	0.0166341452678157	0.832692207135065	0	0	0.0271773933449125	0.066100242259355
5.3	0.0158211762081246	0.0268183996364664	0	0	0.762445051158191	-0.573999166200652	0	0
0	0	-0.0137964311375425	-0.0412251100731906	0	0	-0.414139202130403	-0.770250055825018
0.762445051158191	-0.573999166200652	0	0	-0.0317387415354982	0.0247631481779658	0	0
0	0	0.742327308031063	-0.376107409901849	0	0	-0.0433249496205552	0.0118239131273048
5.4	-0.0066008637062246	-0.032641960731688	0	0	0.56600128929383	0.766798813607284	0	0
0	0	-0.031171349569345	0.0148918732426521	0	0	-0.768309400921802	-0.425928587005937
0.56600128929383	0.766798813607284	0	0	0.0710608295640371	0.086917674218589	0	0
0	0	0.658707758170786	0.507838669242469	0	0	-0.00938942857201692	0.0216240717626463
5.5	-0.00445633371161454	0.0350773865706955	0	0	0.776980308173605	-0.563445432587353	0	0
0	0	0.0230895899313033	0.0604174723881074	0	0	0.876283904597814	-0.0473139333108561
0.776980308173605	-0.563445432587353	0	0	-0.00664006212231546	-0.0277033201228627	0	0
0	0	0.154833648479701	-0.816426259948381	0	0	0.0217175091428252	0.0381084463499879
5.6	0.0161071374261922	-0.0326900427330666	0	0	0.549147567205417	0.781915827457663	0	0
0	0	0.0419824860082499	0.057004632163565	0	0	0.695045003862438	-0.509891903484963
0.549147567205417	0.781915827457663	0	0	0.00124957812857265	-0.109142848666558	0	0
0	0	0.797572249242162	-0.204531297526751	0	0	0.0118018157088032	0.116903580338734
5.7	-0.0267293165879392	0.0262048844639652	0	0	0.794141324096068	-0.540469597274946	0	0
0	0	0.0201433778073996	-0.00676429679462081	0	0	-0.314327035990993	0.806175669257282
0.794141324096068	-0.540469597274946	0	0	-0.0112489181411892	0.0512390264794696	0	0
0	0	-0.536688378997055	-0.645282264965338	0	0	0.0586651182140845	0.0338179517883478
5.8	0.033409803306552	-0.015568248436628	0	0	0.522265629752061	0.793628301609073	0	0
0	0	-0.0225048029082586	-0.0313157751298075	0	0	0.157457583010199	0.850017492172939
0.522265629752061	0.793628301609073	0	0	0.0587152148186604	-0.0276937829943332	0	0
0	0	0.320531015883951	-0.769085164670113	0	0	0.0342047343192657	0.0546547426720663
5.9	-0.0365093610357723	0.00225595927474188	0	0	0.807033435821852	-0.498375536148159	0	0
0	0	-0.0564396657814314	-0.0268917614289094	0	0	-0.584315518245676	-0.633398987202478
0.807033435821852	-0.498375536148159	0	0	-0.0721437721305496	0.0431151179556484	0	0
0	0	-0.823168636643795	0.061560130348304	0	0	0.0374499773969759	0.0711851035091126
6	0.0353309935846307	0.0108790735230668	0	0	0.481438346381689	0.820292791757517	0	0
0	0	-0.034029804161997	0.00567766903461917	0	0	-0.843942919059791	-0.19231801406402
0.481438346381689	0.820292791757517	0	0	-0.002711377916912	0.0231308401700671	0	0
