# GHZ S RI R 50
0.2	-0.00632569180344899	0.0103368911569878	0	0	0.95784570053349	0.058161647650232	0	0
0	0	0.0204469549957698	0.004700192783275	0	0	-0.370516690236869	0.911058055652122
0.95784570053349	0.058161647650232	0	0	0.0209053067047382	0.0426068548457778	0	0
0	0	0.569687807263366	-0.753959508935083	0	0	0.0014097055504686	-0.0311455040037186
0.3	0.00681314218542619	-0.00987545377381269	0	0	0.0337096299790934	-0.965112750891488	0	0
0	0	-0.00523843761854818	0.00169650104702856	0	0	-0.134024523718343	-0.974237621882052
0.0337096299790934	-0.965112750891488	0	0	-0.0141782430360341	0.00481350516475057	0	0
0	0	-0.921999215638375	-0.20236728372376	0	0	-0.0326717186318511	-0.0170561381046705
0.4	-0.00878915173775144	0.00787570415110823	0	0	0.94853090385671	0.0623504213252727	0	0
0	0	-0.0394225291087005	0.000801780772152127	0	0	-0.66688327033012	-0.726040883289564
0.94853090385671	0.0623504213252727	0	0	-0.0342754540852618	-0.0137829573142751	0	0
0	0	-0.234859383358136	-0.895918482503532	0	0	0.0215074584353651	0.0199928733379303
0.5	0.0111518163729306	-0.00456259348983737	0	0	0.128237515401298	-0.948890192404339	0	0
0	0	-0.0330769527883906	0.0046617193288069	0	0	0.963988916145283	0.20768575687443
0.128237515401298	-0.948890192404339	0	0	0.0366318689347605	0.0167803531655466	0	0
0	0	-0.679070343503468	0.636356196266262	0	0	0.00505069915304447	0.00774426073046186
0.6	-0.0118348145023866	0.00168066141325924	0	0	0.955188275450869	0.131950844486401	0	0
0	0	-0.00849360842384006	0.00585294952479768	0	0	0.913151280987147	-0.328918191592753
0.955188275450869	0.131950844486401	0	0	0.00493232734635448	-0.0196662184172435	0	0
0	0	-0.861907525692858	-0.345541495793263	0	0	-0.0053634003502097	-0.00717720132122366
0.7	0.0114418301879855	0.00102590372279691	0	0	0.10978708496095	-0.958057704317016	0	0
0	0	0.0225124214322842	-0.0112218350113539	0	0	-0.612138187879979	0.748219816201671
0.10978708496095	-0.958057704317016	0	0	0.00803030052113065	0.00982246083841209	0	0
0	0	0.0451019938661259	0.920881912925803	0	0	0.0023055264951012	-0.012978546034508
0.8	-0.0101996330531826	-0.00427556233208305	0	0	0.955791731560662	0.114523575326959	0	0
0	0	0.0441627939531494	-0.0420172850553579	0	0	-0.121497606096699	0.96157945501193
0.955791731560662	0.114523575326959	0	0	-0.0226998859166181	0.0126219069980715	0	0
0	0	-0.812698579895981	0.448239829695567	0	0	0.00646863917455628	0.0834606237561476
0.9	0.00750935227840281	0.00713513553322292	0	0	0.145952493803595	-0.940962239827759	0	0
0	0	0.0132716626440664	-0.0278244030326324	0	0	-0.434331243008931	-0.867648443893075
0.145952493803595	-0.940962239827759	0	0	-0.00217918943509594	-0.0620998653007573	0	0
0	0	0.764690806599918	0.526518039699112	0	0	0.0362679600130941	0.01382492189243
1	-0.00428283912607975	-0.00879693830157546	0	0	0.944182490760342	0.182588471527717	0	0
0	0	-0.0143163565084533	0.01182074963024	0	0	-0.839609304716927	-0.482829726528004
0.944182490760342	0.182588471527717	0	0	0.00230723785721117	0.0422096416878768	0	0
0	0	-0.127137403515882	0.904212489312795	0	0	0.0030910057627122	0.002126502288446
1.1	0.000989865761904974	0.00861910099337918	0	0	0.202342697262897	-0.951528036280744	0	0
0	0	-0.0115925152659343	0.0350671661205021	0	0	0.958622377702559	-0.0508802304052677
0.202342697262897	-0.951528036280744	0	0	0.0030630660107435	0.00210726366747017	0	0
0	0	0.871088207384359	-0.260645813633177	0	0	0.00857364597909774	0.0434596896403171
1.2	0.00173421187704116	-0.00683172911257459	0	0	0.961610344242542	0.203155901004664	0	0
0	0	0.00863806014249824	0.0645819860292331	0	0	0.773018231887965	-0.556271832828521
0.961610344242542	0.203155901004664	0	0	0.0535035494655289	-2.52025125842929E-05	0	0
0	0	0.615617540237307	0.673134489346149	0	0	0.00695511174913361	0.100664081455765
1.3	-0.00371482705372929	0.00355988297162358	0	0	0.205374463982458	-0.945608678071693	0	0
0	0	0.016015950526427	0.0189421564017504	0	0	-0.355506771074103	0.885846862297492
0.205374463982458	-0.945608678071693	0	0	-0.0547588918095517	0.00117041058788327	0	0
0	0	0.32247727859531	-0.861798393362154	0	0	0.0404519338037706	0.0150373507663621
1.4	0.00443714849031515	0.00017508190289736	0	0	0.927551856749898	0.23325796183096	0	0
0	0	-0.0134642702527184	-0.0438724214464625	0	0	0.181058194234106	0.939728798970409
0.927551856749898	0.23325796183096	0	0	0.017132448729195	0.00867713721675618	0	0
0	0	0.901160121176744	-0.0851989161852685	0	0	0.0447580543941164	-0.00610384276404308
1.5	-0.0035722573927235	-0.00320880317811932	0	0	0.270291926127098	-0.925655345851013	0	0
0	0	-0.0384562059619258	-0.0566002044724578	0	0	-0.67744342047382	-0.676074812577051
0.270291926127098	-0.925655345851013	0	0	0.0330528578930439	-0.0325239145232172	0	0
0	0	-0.463800432955829	-0.768687611514457	0	0	0.0336125501312323	0.0527174835910216
1.6	0.00152602882087058	0.00487758653773361	0	0	0.940445259881116	0.293709154257796	0	0
0	0	-0.0365158531400772	-0.0199936083251386	0	0	-0.939317644440183	-0.182318911734385
0.940445259881116	0.293709154257796	0	0	-0.0518019188307957	-0.0263216838930512	0	0
0	0	0.497073537994104	-0.75660112624803	0	0	0.00128957153755622	0.0530518780421244
1.7	0.00123870178849164	-0.00482575035313553	0	0	0.288117670657467	-0.945688729273682	0	0
0	0	0.0153583142123687	0.00585562254502966	0	0	0.885618601160117	-0.346118509563278
0.288117670657467	-0.945688729273682	0	0	-0.000911888536890856	0.00564323485405921	0	0
0	0	-0.902238001773677	-0.109405540102365	0	0	0.0401131457511983	-0.0305859356201252
1.8	-0.00399254509033909	0.00306973658197809	0	0	0.919418981605313	0.289019042054764	0	0
0	0	0.0453713588100302	0.037558903338439	0	0	0.572390348912742	-0.748014409729633
0.919418981605313	0.289019042054764	0	0	0.00694399391208864	0.0655536502947344	0	0
0	0	-0.312418036582681	-0.849574870622734	0	0	0.0275610050477684	-0.034113154827869
1.9	0.00600337704859067	3.04306491340908E-05	0	0	0.318178930948265	-0.895548387661446	0	0
0	0	0.0528732475525297	-0.00415428577418885	0	0	-0.0814132274567574	0.942262723177286
0.318178930948265	-0.895548387661446	0	0	0.00981862129135394	0.00902777712411383	0	0
0	0	-0.614068995337657	0.647342172366925	0	0	0.0411075231432234	0.0234670252353922
2	-0.00646648717140654	-0.00400924927970643	0	0	0.892018151060621	0.348597193815645	0	0
0	0	0.0153683172854394	-0.0052112020551527	0	0	0.458899841417681	0.83233092513765
0.892018151060621	0.348597193815645	0	0	-0.0499700318537461	-0.0330365115785103	0	0
0	0	-0.844940978047306	-0.262437818629294	0	0	-0.0530813737462597	-0.0210258286384969
2.1	0.00510495257348873	0.00814931561094042	0	0	0.363587865440637	-0.898470492868083	0	0
0	0	-0.0287951968030652	0.00783771633858412	0	0	-0.830534220840456	-0.450944321643558
0.363587865440637	-0.898470492868083	0	0	0.0706311717012399	0.0163122212175562	0	0
0	0	0.136431067511626	0.878930789114126	0	0	-0.00500288109128446	0.00971789333480863
2.2	-0.00159813125841322	-0.0117869492595024	0	0	0.898644056351313	0.375760821649717	0	0
0	0	-0.0477766867902804	0.0173661887622456	0	0	-0.931777982377283	0.0692889144326467
0.898644056351313	0.375760821649717	0	0	0.0146767769360877	-0.010793831039357	0	0
0	0	-0.736458392433616	0.506441188910391	0	0	0.0425468156786064	-0.0113111807062016
2.3	-0.00357856176303658	0.0138068646698614	0	0	0.385851722264242	-0.889417735947365	0	0
0	0	-0.0301802999803205	0.0195567003688112	0	0	0.736316280645439	-0.555432437209279
0.385851722264242	-0.889417735947365	0	0	0.0580801347131581	-0.0287706174626284	0	0
0	0	0.775907874991372	0.43195226309298	0	0	0.0667164020065024	0.0464523836061838
2.4	0.0096754407925365	-0.0135887591827863	0	0	0.877829000455233	0.398058063770021	0	0
0	0	-0.000391045085902793	0.00126005531557911	0	0	0.324304551391404	-0.867687228212287
0.877829000455233	0.398058063770021	0	0	-0.0966979696067304	0.0139290457526839	0	0
0	0	-0.0392854557136164	0.882350874673685	0	0	0.0470899344866527	-0.0492492948809277
2.5	-0.0160554411569901	0.0107293250344383	0	0	0.415259389510219	-0.866422786400232	0	0
0	0	0.019308092924506	-0.035911636001077	0	0	0.189199848202079	0.91759642833266
0.415259389510219	-0.866422786400232	0	0	-0.00996332568059788	-0.0271184245109269	0	0
0	0	0.805040067562457	-0.331952349084668	0	0	0.0125053394643094	-0.000880257563721144
2.6	0.0215401996144465	-0.00566373170781915	0	0	0.85964528752902	0.429566121104069	0	0
0	0	0.0180253232586551	-0.038814828557802	0	0	0.667111097437398	0.653827301387359
0.85964528752902	0.429566121104069	0	0	0.00574858046693888	-0.0336470684798374	0	0
0	0	0.63052246107041	0.597481865501854	0	0	0.0624510901946238	0.0100175651091409
2.7	-0.0252002162146967	-0.00116792106740646	0	0	0.444305245790718	-0.854027690867466	0	0
0	0	0.0212228686886979	-0.00974848282155466	0	0	-0.897844683551156	-0.174428880722498
0.444305245790718	-0.854027690867466	0	0	0.00342986341275754	-0.0131961372841512	0	0
0	0	0.276133002927399	-0.835773194705563	0	0	-0.0275357815884773	-0.00104447322973234
2.8	0.0258363831023885	0.00889545327682087	0	0	0.843941538728096	0.457891047527764	0	0
0	0	0.00960944586546335	0.0122611815335923	0	0	-0.842905828607213	0.31263985948853
0.843941538728096	0.457891047527764	0	0	0.00426048684565597	0.0636755747765781	0	0
0	0	0.872223669007668	-0.150116978826149	0	0	0.0260484080901029	-0.0639639059969743
2.9	-0.0228175721109259	-0.0166729892202452	0	0	0.474046760826641	-0.825212301384189	0	0
0	0	-0.000231195933826628	0.0361077224718969	0	0	0.56789334280831	-0.701417584487211
0.474046760826641	-0.825212301384189	0	0	-0.0535534143079943	0.0339012694808719	0	0
0	0	-0.515698664832215	-0.703363406073373	0	0	-0.0403895198861005	-0.0462703955819557
3	0.0170484730129724	0.0236448871501427	0	0	0.816739395107399	0.498304861074937	0	0
0	0	-0.0109382555193045	0.0289579618889558	0	0	0.0915136233932971	-0.921264650691651
0.816739395107399	0.498304861074937	0	0	-0.00687173800816132	-0.0179793316368702	0	0
0	0	0.40682840090899	-0.76162604133844	0	0	0.0135683776795581	0.0860575501149008
3.1	-0.00874765793660313	-0.0279132100553608	0	0	0.519041057598767	-0.806971299467898	0	0
0	0	-0.0199896095135555	0.0120100681915547	0	0	0.449230863214388	0.807353526799377
0.519041057598767	-0.806971299467898	0	0	0.0386766153366151	-0.0648732708931948	0	0
0	0	-0.870391333154498	-0.0496746998094326	0	0	-0.0756755209161339	0.00644654166639753
3.2	-0.000650717850143954	0.0295556177281588	0	0	0.805715612927926	0.542769502824751	0	0
0	0	-0.0174624563921847	-0.00601091491625923	0	0	0.799428492459339	0.437075943267921
0.805715612927926	0.542769502824751	0	0	0.00066459920563686	0.0252634296048914	0	0
0	0	-0.338517823421673	-0.814760081706266	0	0	-0.0593942054301046	0.00710928064344416
3.3	0.00983808189045002	-0.0272426759956122	0	0	0.553909148459693	-0.801821993149931	0	0
0	0	-0.000929449513239917	-0.0236193242671849	0	0	-0.905955797356191	0.0513383516560774
0.553909148459693	-0.801821993149931	0	0	0.0622162136441129	0.0242521536226699	0	0
0	0	-0.574693730681099	0.676960611019624	0	0	-0.0276572322492528	-0.107006167185876
3.4	-0.0175350217858835	0.0212887926271413	0	0	0.785200454819792	0.558441523325415	0	0
0	0	-0.00417474655698568	-0.0401128756358495	0	0	-0.732756397874457	0.544631388693681
0.785200454819792	0.558441523325415	0	0	-0.115290110499656	0.00915600132838901	0	0
0	0	-0.857900599338346	-0.221264268473523	0	0	-0.0196735192025542	-0.0397484847969961
3.5	0.0228490502019699	-0.013536032142412	0	0	0.5726481996088	-0.776030502497454	0	0
0	0	0.00794145829660703	-0.0298782890029296	0	0	0.295782662948693	-0.870129751639326
0.5726481996088	-0.776030502497454	0	0	-0.0123559214212237	-0.05366447415604	0	0
0	0	0.169357562630523	0.843446942898666	0	0	0.0848256777740854	-0.0729667140468334
3.6	-0.0247422648364503	0.00477381606125164	0	0	0.768866634708476	0.582147325556814	0	0
0	0	0.0193567375617236	0.00281125853189046	0	0	-0.211887035303864	-0.894016241180246
0.768866634708476	0.582147325556814	0	0	-0.0340363174904852	0.0607112539857743	0	0
0	0	-0.691653948329267	0.522181097224667	0	0	0.0446166423010071	-0.0318279230216829
3.7	0.0227113819202698	0.0046496562631676	0	0	0.600725738221438	-0.748495965742089	0	0
0	0	0.013529875201499	0.0364874542414116	0	0	0.640856453879098	0.646858973990036
0.600725738221438	-0.748495965742089	0	0	0.118462419613181	0.00674835655391945	0	0
0	0	0.771408570796848	0.407225494112616	0	0	0.0553038812387707	-0.0193612262207738
3.8	-0.0177146659224616	-0.0124865431946043	0	0	0.741857055026695	0.619121462877581	0	0
0	0	0.0147694090041829	0.0505818904500314	0	0	0.87061740263993	0.183849644344043
0.741857055026695	0.619121462877581	0	0	-0.0251953034467703	0.0209556356411918	0	0
0	0	-0.0134330496744375	0.87038710962267	0	0	-0.0583549132860206	-0.0248937413886629
3.9	0.0106282221925103	0.0172914432606794	0	0	0.623602345642774	-0.740604455182201	0	0
0	0	0.010667406940428	0.0155642778673423	0	0	-0.82181331622957	0.329227400664824
0.623602345642774	-0.740604455182201	0	0	-0.012970728791809	0.0831926020649973	0	0
0	0	0.780514873441548	-0.386899175347604	0	0	0.0246977081669747	-0.00577131110547965
4	-0.00195281701119535	-0.0187064985589203	0	0	0.722289605052484	0.631836718871055	0	0
0	0	-0.0170726583947739	-0.012443058301984	0	0	-0.513066997425292	0.724363371722482
0.722289605052484	0.631836718871055	0	0	0.0504471948905125	-0.0742869519832301	0	0
0	0	0.683888865322848	0.513115078537484	0	0	-0.00469663165973467	0.00959640692586919
4.1	-0.0061032666339871	0.0166555184098217	0	0	0.637523917137895	-0.708842597505796	0	0
0	0	-0.0417120660869026	-0.0355923639556575	0	0	0.0528897804911332	-0.889577192206756
0.637523917137895	-0.708842597505796	0	0	0.0244468258761703	-0.111547702299253	0	0
0	0	0.181550884336593	-0.826457096076443	0	0	0.0265197222189178	0.0814353583639161
4.2	0.0125868055914787	-0.0119232261174037	0	0	0.703472424365228	0.649130473256866	0	0
0	0	-0.0488856810981255	-0.0155571392488491	0	0	-0.433492805426066	-0.777632809143585
0.703472424365228	0.649130473256866	0	0	-0.0399481227544203	0.0164631831773529	0	0
0	0	0.828703911302648	-0.185578202812586	0	0	-0.0118491858604499	-0.0410680201619592
4.3	-0.0163007185277605	0.00496448340892747	0	0	0.658235139423647	-0.696472988279664	0	0
0	0	-0.00726136837355843	0.00668959974771194	0	0	0.776411336648235	0.421657234457525
0.658235139423647	-0.696472988279664	0	0	-0.0108712674185937	0.067060287261347	0	0
0	0	-0.533644015053276	-0.670788536122585	0	0	-0.0143264844416192	0.00240255960126185
4.4	0.0163779286849464	0.00327554818353922	0	0	0.679334406795444	0.66820646504898	0	0
0	0	0.0382061976105065	0.00440456954890787	0	0	0.885494108419882	-0.0541372588607684
0.679334406795444	0.66820646504898	0	0	0.00129688832978957	-0.0499367855566405	0	0
0	0	0.344368603263415	-0.770157379584127	0	0	-0.0334411063755087	0.00329614598856596
4.5	-0.0128366684642296	-0.0107851849221754	0	0	0.67529309727825	-0.661059642919515	0	0
0	0	0.0647266749365835	-0.004349041890883	0	0	-0.72028269466388	0.521866729855567
0.67529309727825	-0.661059642919515	0	0	-0.0495760775384894	0.0263855081774503	0	0
0	0	-0.832984021827968	0.01140310722397	0	0	-0.0857114356762831	0.0617183442357082
4.6	0.00641499913557963	0.0164983634822054	0	0	0.643164294437604	0.690535006965093	0	0
0	0	0.046581432276331	-0.0247062106366443	0	0	-0.31265660772458	0.842408037562776
0.643164294437604	0.690535006965093	0	0	-0.00379561147482378	0.0137275059893763	0	0
0	0	-0.370691509613022	-0.743197400534201	0	0	-0.0799919907731606	-0.00960708049456859
4.7	0.00157888329642807	-0.019154195551205	0	0	0.708355051662103	-0.636521504270063	0	0
0	0	-0.0247654602688737	-0.0051137003154376	0	0	-0.190256499575328	-0.872579801743114
0.708355051662103	-0.636521504270063	0	0	0.0655881934229151	-0.0177240796353285	0	0
0	0	-0.523818512901522	0.654308290992029	0	0	-0.0732013916077284	0.0720527608487609
4.8	-0.010101554211756	0.0182565945183363	0	0	0.63692996786501	0.724749084657955	0	0
0	0	-0.0589979824911122	0.0344300305985843	0	0	-0.606096184104045	-0.634540665704803
0.63692996786501	0.724749084657955	0	0	0.0530426255568426	-0.0185436693599886	0	0
0	0	-0.826677047229331	-0.197417747273604	0	0	-0.00938518275897877	0.0717988049932347
4.9	0.0176295391122442	-0.0130775658825684	0	0	0.730962615253273	-0.629160091884214	0	0
0	0	-0.0402241065697182	0.0585508294944362	0	0	0.853883363543783	0.207150793682852
0.730962615253273	-0.629160091884214	0	0	-0.0806859735432878	-0.0293056336149734	0	0
0	0	0.198759813307454	0.820926312830309	0	0	-0.0836417782924173	0.00392583612648975
5	-0.0222973170119145	0.00497570639575042	0	0	0.618446432442091	0.726574445650792	0	0
0	0	-0.000851287312481922	0.0200163215292061	0	0	0.830896014768305	-0.298242350057742
0.618446432442091	0.726574445650792	0	0	-0.0476687215209195	0.0404237447708596	0	0
0	0	-0.645079904108356	0.533767434967334	0	0	0.0412883151726167	-0.00893267269189948
5.1	0.0237228095459874	0.00491523905853517	0	0	0.727896811991528	-0.606166950565927	0	0
0	0	0.0379768369747685	-0.0340585430373092	0	0	-0.533112680586263	0.695644292918944
0.727896811991528	-0.606166950565927	0	0	-0.0217883896112399	-0.0416718805076821	0	0
0	0	0.75000012986136	0.344660252174802	0	0	0.0723588030694349	-0.0195188498265812
5.2	-0.0212510643377238	-0.01604150578895	0	0	0.584153389394493	0.745604046982453	0	0
0	0	0.0157339925814458	-0.0750379709415114	0	0	-0.0783049464670948	0.871697001923411
0.584153389394493	0.745604046982453	0	0	0.0380848461051144	0.0222566974693747	0	0
0	0	0.015591447860445	0.832272508899961	0	0	0.0266745760298995	0.0666349466044261
5.3	0.0149669853152505	0.0257482919212769	0	0	0.764052783174079	-0.572324839223392	0	0
0	0	-0.0143229466796212	-0.0420204679231569	0	0	-0.412587697775846	-0.770616915727904
0.764052783174079	-0.572324839223392	0	0	-0.0323046346208031	0.0246691922793364	0	0
0	0	0.742640327779106	-0.374622984071014	0	0	-0.0434040482393098	0.0122098273109915
5.4	-0.00593679183423203	-0.0318326011707548	0	0	0.56427197097867	0.76896761066555	0	0
0	0	-0.0311941903669356	0.0141375842439863	0	0	-0.767277135616824	-0.427716942178253
0.56427197097867	0.76896761066555	0	0	0.0703613392927198	0.0875967508033937	0	0
0	0	0.657487445760205	0.509366107435924	0	0	-0.00938634674020333	0.0220178477269796
5.5	-0.00484392460914008	0.0342023569164929	0	0	0.779650919646759	-0.561549181436746	0	0
0	0	0.0235636003882644	0.0599128357878631	0	0	0.876911133422163	-0.0449297586210742
0.779650919646759	-0.561549181436746	0	0	-0.00666694387984715	-0.0276509980105506	0	0
0	0	0.157167793442358	-0.816463346129917	0	0	0.0216638287904742	0.0385588764391325
5.6	0.016436908318618	-0.0315479992617459	0	0	0.547401434910752	0.78514181596276	0	0
0	0	0.0427936234269668	0.0568815175489483	0	0	0.697380264826123	-0.508421512638257
0.547401434910752	0.78514181596276	0	0	0.00184823773577397	-0.109447656872844	0	0
0	0	0.799118719161419	-0.202396699783917	0	0	0.0111705911281551	0.117484178621627
5.7	-0.0273013728261001	0.0249199467816172	0	0	0.798239306102676	-0.538966506215063	0	0
0	0	0.021071121181096	-0.00648071865683047	0	0	-0.317314989372692	0.806865145610517
0.798239306102676	-0.538966506215063	0	0	-0.0119796842982763	0.0514425254247262	0	0
0	0	-0.535870781155663	-0.648142063280722	0	0	0.0585850733478837	0.0346420568821115
5.8	0.0342284347407099	-0.0144915660123913	0	0	0.521424501456049	0.798093462167057	0	0
0	0	-0.021731900816835	-0.030765373371713	0	0	0.155554097758974	0.852726734314228
0.521424501456049	0.798093462167057	0	0	0.0588425952857075	-0.0274381692200606	0	0
0	0	0.323494319824766	-0.770269748729353	0	0	0.033999622146684	0.0557045132837234
5.9	-0.0372830901063146	0.00154451324616807	0	0	0.811936952176898	-0.497987896946427	0	0
0	0	-0.0560263789318692	-0.0262613945611991	0	0	-0.584801937816979	-0.636915659238563
0.811936952176898	-0.497987896946427	0	0	-0.0736051503430583	0.0432596331801812	0	0
0	0	-0.826097548669282	0.0598321252568438	0	0	0.0375043258797912	0.0726242450000624
6	0.0357676917605817	0.0113354960460261	0	0	0.481787543154261	0.825319502032598	0	0
0	0	-0.0340506763519368	0.00617872268846181	0	0	-0.846910995933423	-0.194493214322206
0.481787543154261	0.825319502032598	0	0	-0.00345785200717516	0.0238181628720643	0	0
