# GHZ S RI R 50
0.2	-0.00564162957643813	0.00587730391765095	0	0	0.958338137925302	0.0575753288277653	0	0
0	0	0.0244430018407904	0.0024304032629266	0	0	-0.369981011864121	0.911332813905057
0.958338137925302	0.0575753288277653	0	0	0.020932197616774	0.0490373910955371	0	0
0	0	0.569258597505121	-0.754347296139248	0	0	0.00127078961634255	-0.0247943030091807
0.3	0.00726445680898808	-0.00802457235704926	0	0	0.0326999929508545	-0.965403112339411	0	0
0	0	-0.00336794081298738	0.00122194329174322	0	0	-0.13505212740897	-0.974251440799392
0.0326999929508545	-0.965403112339411	0	0	-0.0124285915661986	0.00903491783172618	0	0
0	0	-0.922352452075534	-0.201446244609739	0	0	-0.0310782916550545	-0.0128464970656535
0.4	-0.00851926452818181	0.00788772168029061	0	0	0.94864929427418	0.0607515391343959	0	0
0	0	-0.0395472093392737	0.00105101505524346	0	0	-0.668080338866303	-0.724908585008337
0.94864929427418	0.0607515391343959	0	0	-0.0321246359728113	-0.0114815985758764	0	0
0	0	-0.236350934416313	-0.895504044007434	0	0	0.0236510435438735	0.0221064999255659
0.5	0.00965999423044402	-0.00538134092539545	0	0	0.126088134539903	-0.948810678635807	0	0
0	0	-0.0347428775547169	0.00525863122950347	0	0	0.964036054633312	0.205444668414779
0.126088134539903	-0.948810678635807	0	0	0.0384067071458359	0.0173658954001604	0	0
0	0	-0.677356850524193	0.637596859378059	0	0	0.00671496250486415	0.00851630807274567
0.6	-0.00921425901969254	0.00209897754561522	0	0	0.95447263708598	0.129171061407089	0	0
0	0	-0.0111762832744339	0.00620420103615318	0	0	0.911244186883565	-0.331073318710272
0.95447263708598	0.129171061407089	0	0	0.00566961967633464	-0.0195062362960014	0	0
0	0	-0.861914692587176	-0.342788235564569	0	0	-0.00458596692495511	-0.00695041568615041
0.7	0.00856542029026178	0.00178999390924133	0	0	0.106796196550033	-0.956506362261393	0	0
0	0	0.0194837888824233	-0.0114802362301587	0	0	-0.608645295614504	0.748654994438449
0.106796196550033	-0.956506362261393	0	0	0.00815181134537016	0.0100033941023024	0	0
0	0	0.0478522537479869	0.91895690678179	0	0	0.0022931707499065	-0.0126804070580173
0.8	-0.00796752501952601	-0.00584635551852404	0	0	0.953316496674481	0.111505892019601	0	0
0	0	0.0413979954924259	-0.0427552361910786	0	0	-0.118350287584163	0.95935444155779
0.953316496674481	0.111505892019601	0	0	-0.0226757259385679	0.0135046593738725	0	0
0	0	-0.809201721690584	0.449420825943904	0	0	0.00671008183681968	0.0837104699920983
0.9	0.00622115483962397	0.00867240264717973	0	0	0.14288436267139	-0.937620014258988	0	0
0	0	0.0112923550640125	-0.0287297933198001	0	0	-0.435123549846311	-0.863038901821118
0.14288436267139	-0.937620014258988	0	0	-0.00235111921604171	-0.0602022068774914	0	0
0	0	0.763225921366086	0.522289227605939	0	0	0.0360658143104547	0.0147972833320283
1	-0.00366944355908107	-0.00971618074429041	0	0	0.940166914870068	0.179795805601029	0	0
0	0	-0.0151694484581276	0.0110449610089046	0	0	-0.836549100873768	-0.478666535209395
0.940166914870068	0.179795805601029	0	0	0.00334980504726753	0.0434278750553792	0	0
0	0	-0.124571671758342	0.900071767253977	0	0	0.00369391256035626	0.0036155428615388
1.1	0.000493383803295362	0.00860809450125789	0	0	0.200020069856278	-0.946613554831958	0	0
0	0	-0.011275417796291	0.0347331750237466	0	0	0.953189784769866	-0.051746453030294
0.200020069856278	-0.946613554831958	0	0	0.00479694040622381	0.00338462494501529	0	0
0	0	0.865894165943669	-0.260231518828274	0	0	0.00994993916840017	0.0442602443817102
1.2	0.00277344651668341	-0.00609298257163821	0	0	0.955979323734651	0.201705724173187	0	0
0	0	0.00982824075090721	0.064980579822895	0	0	0.768350238772479	-0.552887103021065
0.955979323734651	0.201705724173187	0	0	0.0552348641148869	0.000522855224773237	0	0
0	0	0.61187568922058	0.669072522479693	0	0	0.00883115822239756	0.100166906942713
1.3	-0.00535982971426424	0.00272921506179823	0	0	0.204923788074128	-0.939442203388474	0	0
0	0	0.0175073034585403	0.020135218816583	0	0	-0.354297070710273	0.880070332951017
0.204923788074128	-0.939442203388474	0	0	-0.0515347686916071	0.000921720472545288	0	0
0	0	0.321442754916914	-0.856203878990231	0	0	0.0421006683009212	0.0150406882295363
1.4	0.00626833567851356	0.000905165189910318	0	0	0.921393521925015	0.233811732369969	0	0
0	0	-0.0123699272254869	-0.0420413741510439	0	0	0.177926286375309	0.934613531520905
0.921393521925015	0.233811732369969	0	0	0.0192596881049481	0.00808358103050316	0	0
0	0	0.896060054953577	-0.0827144154111932	0	0	0.0463481990717536	-0.00605546531690493
1.5	-0.00552458011991182	-0.00379962241362108	0	0	0.271699992971299	-0.919538291383815	0	0
0	0	-0.037963702089185	-0.0544190375980559	0	0	-0.671528486929626	-0.674827396131317
0.271699992971299	-0.919538291383815	0	0	0.0349515294948158	-0.0328473176005281	0	0
0	0	-0.458697894760263	-0.766214208087684	0	0	0.0347434447806756	0.0519603169630029
1.6	0.00364327681693513	0.00509904092662073	0	0	0.934366111687227	0.296224031737461	0	0
0	0	-0.0366590919373413	-0.0176396793047028	0	0	-0.934280546830402	-0.185607760599283
0.934366111687227	0.296224031737461	0	0	-0.0495470840750526	-0.0277551398850052	0	0
0	0	0.498142135460881	-0.751010846987243	0	0	0.00222924588075984	0.0518543102342212
1.7	-0.000685664302078234	-0.00450762180723052	0	0	0.291752440980408	-0.940472013145248	0	0
0	0	0.0146783388814702	0.00791902794514775	0	0	0.884070541665356	-0.340650674227845
0.291752440980408	-0.940472013145248	0	0	-0.000121581912507692	0.00421823446015066	0	0
0	0	-0.898460146138746	-0.11330827745375	0	0	0.0410362872218784	-0.0308695252841541
1.8	-0.00262543027743805	0.00252704104358505	0	0	0.915368159345136	0.293291354668231	0	0
0	0	0.0443683748992278	0.038949368884787	0	0	0.574793930609825	-0.743179224839959
0.915368159345136	0.293291354668231	0	0	0.00646138883026964	0.0640657923545744	0	0
0	0	-0.307256729323287	-0.849036583060067	0	0	0.0282234630198766	-0.0345040312607445
1.9	0.00504552212665743	0.00037753877949138	0	0	0.322553519456149	-0.892461769201566	0	0
0	0	0.0517823582102357	-0.00361833764615201	0	0	-0.0861781615819794	0.940651710043626
0.322553519456149	-0.892461769201566	0	0	0.00964449554764106	0.00824730526811992	0	0
0	0	-0.616637409397309	0.64335201961246	0	0	0.0409156766645907	0.0231837998002359
2	-0.0056490324075011	-0.00404243575279919	0	0	0.889846851462169	0.3529200245942	0	0
0	0	0.0144307669225295	-0.00551628322302431	0	0	0.4547119549017	0.834369698273618
0.889846851462169	0.3529200245942	0	0	-0.049676380384514	-0.0340539978116855	0	0
0	0	-0.843446195827122	-0.266507849804133	0	0	-0.0527810210949329	-0.0219574492477443
2.1	0.00417585041693941	0.0079823663111017	0	0	0.367608141656574	-0.897387000970762	0	0
0	0	-0.0294005135733192	0.00684243988030248	0	0	-0.829276806939305	-0.454729057883014
0.367608141656574	-0.897387000970762	0	0	0.0705917542256961	0.016502845317739	0	0
0	0	0.132880893297208	0.880149410481227	0	0	-0.00496607653625779	0.00938756395386277
2.2	-0.000512972238853572	-0.0116778409760832	0	0	0.898292471325538	0.379125330533867	0	0
0	0	-0.047965309553224	0.0160148603574912	0	0	-0.933262699030248	0.0665175985571817
0.898292471325538	0.379125330533867	0	0	0.0148830638696825	-0.0112565043604135	0	0
0	0	-0.739021106812968	0.504867203617621	0	0	0.0429262745730209	-0.0114147846907624
2.3	-0.00460076001609913	0.0139230866927131	0	0	0.388292994822414	-0.889610333280676	0	0
0	0	-0.0300245718388256	0.0182619511064721	0	0	0.738582743126817	-0.55491241887452
0.388292994822414	-0.889610333280676	0	0	0.0583335403067538	-0.0293241708245249	0	0
0	0	0.776332938533536	0.43415048147904	0	0	0.0669070974339468	0.0463839584757884
2.4	0.0104019835592295	-0.0138385533827561	0	0	0.87813150586257	0.399619526875218	0	0
0	0	-3.08086295057473E-05	0.000353980019798391	0	0	0.325447527724498	-0.868426814208234
0.87813150586257	0.399619526875218	0	0	-0.0972564288516403	0.0128573636811888	0	0
0	0	-0.0401049930437096	0.883357518161723	0	0	0.0472936413448377	-0.0499053056501867
2.5	-0.0164398405725836	0.0108574612839778	0	0	0.415721123531231	-0.866586302814913	0	0
0	0	0.0197028689147019	-0.0362192312364606	0	0	0.189263640317993	0.918135409291044
0.415721123531231	-0.866586302814913	0	0	-0.0106235067310498	-0.0279190542019085	0	0
0	0	0.805521147868724	-0.332104105217891	0	0	0.0123144449991804	-0.00154282327500245
2.6	0.0217548738167101	-0.00552367438215453	0	0	0.85927287996696	0.429092993523085	0	0
0	0	0.0182440615520735	-0.0385472818125969	0	0	0.667225811599489	0.653260093784091
0.85927287996696	0.429092993523085	0	0	0.00482283547411052	-0.0341683909534028	0	0
0	0	0.630620238719372	0.596952677516001	0	0	0.0620494602529399	0.00934255335690953
2.7	-0.0254175322052551	-0.00152680964837478	0	0	0.443141859784773	-0.852780712841937	0	0
0	0	0.0211259258954557	-0.00914685923346513	0	0	-0.89662775810669	-0.173545249428997
0.443141859784773	-0.852780712841937	0	0	0.00241991911995242	-0.0134794539752398	0	0
0	0	0.275140915370795	-0.834719423810874	0	0	-0.0279037797957459	-0.00150314600809915
2.8	0.0260648467176189	0.00936535097340336	0	0	0.84159365049347	0.456390152750101	0	0
0	0	0.00913543122586485	0.0128473086450691	0	0	-0.840511209582018	0.312267691129556
0.84159365049347	0.456390152750101	0	0	0.00327907076089034	0.0631585537240974	0	0
0	0	0.869839074190035	-0.150189860503598	0	0	0.0253711063829575	-0.0640538443002012
2.9	-0.0229899565871696	-0.0172647484040111	0	0	0.472464414043595	-0.821697449368091	0	0
0	0	-0.00108251108659716	0.0363363745570753	0	0	0.565862621944912	-0.698676660336401
0.472464414043595	-0.821697449368091	0	0	-0.0540547218995226	0.0335893415048043	0	0
0	0	-0.513637089962074	-0.700790971099597	0	0	-0.0405082129665154	-0.0462268250348099
3	0.0172223712678223	0.0244252512545784	0	0	0.812076132530336	0.496973838052933	0	0
0	0	-0.012050586186722	0.0286676826105289	0	0	0.0923638678239557	-0.916998403499442
0.812076132530336	0.496973838052933	0	0	-0.0075158710693573	-0.017688073458589	0	0
0	0	0.406042749358307	-0.757645549577304	0	0	0.0128160003792645	0.0851347819825325
3.1	-0.00906526205041722	-0.0288380575218967	0	0	0.518324792028173	-0.801248648904962	0	0
0	0	-0.0211707501320593	0.0111787903449389	0	0	0.444739622017924	0.804389319059464
0.518324792028173	-0.801248648904962	0	0	0.0381080752052201	-0.06374753884526	0	0
0	0	-0.86576043125432	-0.051757489025907	0	0	-0.0752492574624308	0.00587312522300657
3.2	-0.00014926944940513	0.0305160669538512	0	0	0.798880086060963	0.543098980434865	0	0
0	0	-0.0183950579594542	-0.00729190202797437	0	0	0.793425943030702	0.438151700030658
0.798880086060963	0.543098980434865	0	0	0.000190348566531494	0.025216558843713	0	0
0	0	-0.333333624456184	-0.811932328889084	0	0	-0.059044314982168	0.00653203786659152
3.3	0.00921478969070441	-0.0281023752026897	0	0	0.555625021448395	-0.794383978649087	0	0
0	0	-0.00137023700280697	-0.0250994991055998	0	0	-0.901714443156124	0.0460329457268867
0.555625021448395	-0.794383978649087	0	0	0.0612085582326887	0.0248586605564558	0	0
0	0	-0.575594399983572	0.670374801698924	0	0	-0.0262765009071087	-0.106237215403033
3.4	-0.0169316799448121	0.0220123077070579	0	0	0.777424204378385	0.56158935042453	0	0
0	0	-0.00397616849508285	-0.0415105166779564	0	0	-0.733641256521915	0.537164523430688
0.777424204378385	0.56158935042453	0	0	-0.114342608558526	0.00742641920576132	0	0
0	0	-0.85280217278974	-0.226484083224189	0	0	-0.0189471994089566	-0.039669948816134
3.5	0.02233194187336	-0.0142466476896216	0	0	0.577330076974906	-0.768496089034515	0	0
0	0	0.00873483004479955	-0.0309017045332431	0	0	0.302147507355911	-0.865224492635238
0.577330076974906	-0.768496089034515	0	0	-0.0113702352929321	-0.0535812340068724	0	0
0	0	0.161899733346861	0.842466060945332	0	0	0.0855884246076924	-0.0711297262792058
3.6	-0.0242334989543524	0.0054884348574944	0	0	0.761855060392606	0.588484994486986	0	0
0	0	0.02064148808683	0.00228442679586797	0	0	-0.203302286307713	-0.894933785708266
0.761855060392606	0.588484994486986	0	0	-0.035144699906082	0.0597563438514734	0	0
0	0	-0.695703480370776	0.515115683669706	0	0	0.0451253968579865	-0.0309123502250747
3.7	0.0221771775352427	0.00393135616991246	0	0	0.608360494241157	-0.742535954639843	0	0
0	0	0.0149751323140582	0.0365625706859533	0	0	0.634971450431712	0.65358910004048
0.608360494241157	-0.742535954639843	0	0	0.118225357208802	0.00909262118469072	0	0
0	0	0.767961997900463	0.415065939594945	0	0	0.0557474532219755	-0.0183051815091969
3.8	-0.0171313520980521	-0.0118612184392693	0	0	0.737067883970366	0.627967394735997	0	0
0	0	0.0159949936036687	0.0510548102455259	0	0	0.871043450273597	0.192991371690992
0.737067883970366	0.627967394735997	0	0	-0.025818917249798	0.0205260357692443	0	0
0	0	-0.0221309058222845	0.872508733707654	0	0	-0.0581980463052076	-0.0261929507453658
3.9	0.0100912423173687	0.0168321723073151	0	0	0.633343795312843	-0.737654792560462	0	0
0	0	0.0114427795130758	0.0162653742927517	0	0	-0.828585229974776	0.32308221980786
0.633343795312843	-0.737654792560462	0	0	-0.0147272124962641	0.0836887088873542	0	0
0	0	0.787635806400326	-0.381398213785879	0	0	0.02497738212167	-0.00536019177392027
4	-0.0015813445604952	-0.0183321022027392	0	0	0.721283684353628	0.641627784056989	0	0
0	0	-0.0169111360086689	-0.0116793370294494	0	0	-0.522283212600333	0.72462377122053
0.721283684353628	0.641627784056989	0	0	0.0523230604673504	-0.0741863319309679	0	0
0	0	0.683896283423	0.521995532900576	0	0	-0.00496461280762158	0.00966415557538772
4.1	-0.00634215334821804	0.0162573933403921	0	0	0.646921976005322	-0.709709142163778	0	0
0	0	-0.0421541401733614	-0.0349654566659267	0	0	0.0593597850802258	-0.896073402629197
0.646921976005322	-0.709709142163778	0	0	0.0264053827559528	-0.112691206162512	0	0
0	0	0.188582423196449	-0.831589984748103	0	0	0.0257676101226718	0.0831055317155244
4.2	0.0127893292396592	-0.0114749373614616	0	0	0.705952755593432	0.657806904500069	0	0
0	0	-0.049687834173012	-0.0152406398310729	0	0	-0.433315471413183	-0.786364006188312
0.705952755593432	0.657806904500069	0	0	-0.0406446435108451	0.0164237064582095	0	0
0	0	0.836640672612267	-0.183048517286729	0	0	-0.0116615840114335	-0.0418199595666924
4.3	-0.0164896608243153	0.00455802948723233	0	0	0.665766756214161	-0.700325580506067	0	0
0	0	-0.00804865559734123	0.00662841638901372	0	0	0.781967656522855	0.427614802995097
0.665766756214161	-0.700325580506067	0	0	-0.0114544247997326	0.0681440319473439	0	0
0	0	-0.536348944393635	-0.678214732998371	0	0	-0.0146416455264485	0.00238912858789996
4.4	0.0164856570686121	0.00360970035503013	0	0	0.684087864756918	0.674209654250936	0	0
0	0	0.0377424270009883	0.00401875327606812	0	0	0.892912404014334	-0.0536985824856809
0.684087864756918	0.674209654250936	0	0	0.0012824142202683	-0.0508074909034217	0	0
0	0	0.348005556656436	-0.77621647583818	0	0	-0.0340548907281693	0.00325152205066571
4.5	-0.0128019131341039	-0.0110882674145872	0	0	0.679647380117392	-0.666193012070165	0	0
0	0	0.0647998050149421	-0.00492716689239657	0	0	-0.725286286395493	0.52607461825288
0.679647380117392	-0.666193012070165	0	0	-0.050565594413966	0.0267345886115962	0	0
0	0	-0.839084602002298	0.0119285543398754	0	0	-0.0869707918767542	0.0626151312463336
4.6	0.00625481775498477	0.0168546320714696	0	0	0.648200771125458	0.693282777055937	0	0
0	0	0.0471770488503708	-0.0253019770239632	0	0	-0.31309308699197	0.84793202923301
0.648200771125458	0.693282777055937	0	0	-0.00421868699002913	0.01386693701775	0	0
0	0	-0.37414194503047	-0.74698228129095	0	0	-0.0810605677673855	-0.00962429452553924
4.7	0.00181070242319311	-0.0196193420620253	0	0	0.709679146393241	-0.641060554284934	0	0
0	0	-0.0237470788807781	-0.00543613915906477	0	0	-0.193014257178165	-0.876047504859262
0.709679146393241	-0.641060554284934	0	0	0.0655143998977253	-0.0180740208180303	0	0
0	0	-0.524717481466337	0.658368064964377	0	0	-0.073661089789189	0.0728345531712709
4.8	-0.0103090652378084	0.0187674725542257	0	0	0.640531766135663	0.724905853673549	0	0
0	0	-0.0579046814172491	0.0345588531983112	0	0	-0.609354733927522	-0.634975072226137
0.640531766135663	0.724905853673549	0	0	0.0526880478234099	-0.0187155743837133	0	0
0	0	-0.829555994953084	-0.19605756722165	0	0	-0.00923462987656762	0.0720113832380153
4.9	0.01784987263807	-0.0135865965765917	0	0	0.730287720169171	-0.631491341052625	0	0
0	0	-0.0393563345970275	0.0591737125605083	0	0	0.855346424087296	0.205860564932007
0.730287720169171	-0.631491341052625	0	0	-0.0814983855666748	-0.0286764963458643	0	0
0	0	0.200506387232048	0.821608859324184	0	0	-0.0840413984854523	0.00401861723058738
5	-0.022579094990464	0.00548661893668704	0	0	0.619360795739925	0.725606597854668	0	0
0	0	-0.000444298473629895	0.0210669385497959	0	0	0.830745060048998	-0.29909622553369
0.619360795739925	0.725606597854668	0	0	-0.0479857047650312	0.0409447341326862	0	0
0	0	-0.644670116291805	0.534480471576182	0	0	0.041041024138316	-0.0092318881424937
5.1	0.0240624962784928	0.00433422987711428	0	0	0.727053901567415	-0.605737648709767	0	0
0	0	0.0378280291752107	-0.0328223674398484	0	0	-0.533052356259622	0.695093002386213
0.727053901567415	-0.605737648709767	0	0	-0.0220751888229902	-0.0411234147216158	0	0
0	0	0.749481235206864	0.344719733915299	0	0	0.0720202098768137	-0.019631258288061
5.2	-0.0215861499312842	-0.0153804426546267	0	0	0.5823833169593	0.745390277815181	0	0
0	0	0.0151004421299356	-0.073904408327074	0	0	-0.0799612767679928	0.870969436468755
0.5823833169593	0.745390277815181	0	0	0.0378120737256083	0.0227870894807239	0	0
0	0	0.0139505166249241	0.831754880519989	0	0	0.0261044904928235	0.06652170378508
5.3	0.0152104849007563	0.0250702493249152	0	0	0.764827080515458	-0.56940474900641	0	0
0	0	-0.0152357416412693	-0.041286713070875	0	0	-0.409659488272835	-0.771683619602332
0.764827080515458	-0.56940474900641	0	0	-0.0322891396900458	0.0248797678437186	0	0
0	0	0.743587181971024	-0.371812696590917	0	0	-0.0436819178903211	0.0118793263387661
5.4	-0.00609467379785135	-0.0312535734698411	0	0	0.560666333985089	0.771255499098053	0	0
0	0	-0.0321703207415827	0.014262696587724	0	0	-0.765388573166433	-0.431589939812394
0.560666333985089	0.771255499098053	0	0	0.0697184196846101	0.0885239780928938	0	0
0	0	0.655169458220701	0.5127233300617	0	0	-0.00978329158131591	0.0220186724178502
5.5	-0.00465895034103166	0.0337460892490445	0	0	0.783531580910595	-0.557751469584879	0	0
0	0	0.0227666162983901	0.0593986235451576	0	0	0.878529200298221	-0.0396478239934224
0.783531580910595	-0.557751469584879	0	0	-0.00622085863488421	-0.0275103201890275	0	0
0	0	0.162390608889492	-0.816755602019024	0	0	0.0211354111698731	0.0390594942914356
5.6	0.0161402096699727	-0.0311406180587119	0	0	0.543958920820372	0.790664904838703	0	0
0	0	0.0423788396515911	0.0558787715158479	0	0	0.703286361477344	-0.505210260967629
0.543958920820372	0.790664904838703	0	0	0.00328569232878967	-0.109745024434084	0	0
0	0	0.803210548134912	-0.197447935226119	0	0	0.0094848053047738	0.118498472905919
5.7	-0.0269091284422272	0.0244698482650089	0	0	0.805413789186326	-0.536191973106674	0	0
0	0	0.0210933608846437	-0.00772285281931852	0	0	-0.324804089033355	0.808862493346305
0.805413789186326	-0.536191973106674	0	0	-0.0128513465628017	0.0521261826031182	0	0
0	0	-0.534050037724082	-0.655436347812155	0	0	0.0584693722082742	0.0359225812503876
5.8	0.0338870153062594	-0.0139502495017295	0	0	0.519987498323162	0.806623491603681	0	0
0	0	-0.0213271907910594	-0.031905861258025	0	0	0.150876873182671	0.860170028712152
0.519987498323162	0.806623491603681	0	0	0.0599804911786321	-0.0265458633731942	0	0
0	0	0.331189734257049	-0.773815123277869	0	0	0.033409587902598	0.0570445117338984
5.9	-0.0370586553277715	0.00102699813177515	0	0	0.821492968102586	-0.498039885011554	0	0
0	0	-0.0554051559839123	-0.0270050963543346	0	0	-0.586686923647866	-0.646347944410956
0.821492968102586	-0.498039885011554	0	0	-0.0750350739325441	0.0438608384597846	0	0
0	0	-0.834298771516649	0.0556328954829119	0	0	0.0369526411320552	0.0745429179313875
6	0.0356225905324956	0.0116996278361191	0	0	0.483874675428167	0.835565256757572	0	0
0	0	-0.0334298859400101	0.00598168149756228	0	0	-0.855542318329669	-0.200251300430126
0.483874675428167	0.835565256757572	0	0	-0.00305182459572941	0.0248599176213388	0	0
