# GHZ S RI R 50
0.2	-0.00755270490165154	0.0129625029954298	0	0	0.957615782256418	0.0584272900789949	0	0
0	0	0.0175934211242421	0.00534276317266091	0	0	-0.37079979513302	0.910961257171971
0.957615782256418	0.0584272900789949	0	0	0.0220884695905088	0.0387142406404573	0	0
0	0	0.569926638125707	-0.75379950516738	0	0	0.00264068026956201	-0.0350356210432852
0.3	0.00693425370692105	-0.0112124767050331	0	0	0.0341579545623382	-0.965028877781448	0	0
0	0	-0.0065675147348428	0.00156296176576026	0	0	-0.133590304609595	-0.974258377874803
0.0341579545623382	-0.965028877781448	0	0	-0.0143187707245169	0.00169533068425287	0	0
0	0	-0.921873909677281	-0.202765293338084	0	0	-0.0327913080126842	-0.0201896022797915
0.4	-0.00896909592683538	0.0078218875989551	0	0	0.94851114685164	0.063056154957247	0	0
0	0	-0.0392955518549932	0.000660675588486847	0	0	-0.666362325079002	-0.72654216850479
0.94851114685164	0.063056154957247	0	0	-0.0351273270321534	-0.0159288679211386	0	0
0	0	-0.234206537971103	-0.896105920851716	0	0	0.0206069553506248	0.0179304503011992
0.5	0.0119932856571266	-0.00354227290208856	0	0	0.129149751477444	-0.94893495543985	0	0
0	0	-0.0317564168585787	0.00475792976070958	0	0	0.963982954031872	0.208667263503374
0.129149751477444	-0.94893495543985	0	0	0.0356300553979392	0.0157547487897383	0	0
0	0	-0.679828673202996	0.635824227705973	0	0	0.00405351706659691	0.00665479719795098
0.6	-0.0137162929674932	0.000514119021653392	0	0	0.955463179152927	0.133192210413438	0	0
0	0	-0.00645412595594292	0.00652195740705398	0	0	0.913998242774441	-0.32797187460202
0.955463179152927	0.133192210413438	0	0	0.00438032456938032	-0.0200839746655758	0	0
0	0	-0.861911209782591	-0.346756529897194	0	0	-0.00595596535911634	-0.00760908580675933
0.7	0.014060699899891	0.00139828499835824	0	0	0.111116849825411	-0.958698631892795	0	0
0	0	0.0246733695309572	-0.0098945673884271	0	0	-0.613665632500205	0.74801761826587
0.111116849825411	-0.958698631892795	0	0	0.00801487405534921	0.00964811497875056	0	0
0	0	0.0438916990825125	0.921715301749493	0	0	0.00234087198960542	-0.0132077613081156
0.8	-0.0127054354250469	-0.00370772568105105	0	0	0.95688234616021	0.115894865748196	0	0
0	0	0.0460181341597274	-0.0403512148151169	0	0	-0.122728930088813	0.962531659476815
0.95688234616021	0.115894865748196	0	0	-0.0223101000037487	0.0120754811453156	0	0
0	0	-0.814129893519729	0.447823870192629	0	0	0.00675742746508225	0.0831543273429248
0.9	0.00922746576882703	0.00616244874589365	0	0	0.14745625992076	-0.942446814313014	0	0
0	0	0.0145089638375053	-0.0263062782480081	0	0	-0.433927901570055	-0.86959234847571
0.14745625992076	-0.942446814313014	0	0	-0.0014777912782685	-0.0634665024734257	0	0
0	0	0.765250564164127	0.528333351563761	0	0	0.0369026482141963	0.012813742371321
1	-0.00510447240645668	-0.00809758805411688	0	0	0.945924522731186	0.183881127396361	0	0
0	0	-0.0138911737937824	0.0127522911661043	0	0	-0.84087504512758	-0.48467198286249
0.945924522731186	0.183881127396361	0	0	0.0023072983659761	0.0406350123595731	0	0
0	0	-0.128303860769777	0.905967447056481	0	0	0.00317668276282729	0.000391362172816566
1.1	0.00130097978053747	0.00883618171969563	0	0	0.203438845218828	-0.953684149020107	0	0
0	0	-0.0119301239994887	0.0351015104907578	0	0	0.960976874031611	-0.0504041804482598
0.203438845218828	-0.953684149020107	0	0	0.00225428971603763	0.000140756555511848	0	0
0	0	0.873361758768054	-0.260732739723812	0	0	0.00774903161809624	0.0417159221327889
1.2	0.00107695287262611	-0.00804135180640863	0	0	0.964045109457041	0.203818633487503	0	0
0	0	0.00786752357639967	0.0636209835225521	0	0	0.775185794480218	-0.557729065577858
0.964045109457041	0.203818633487503	0	0	0.0520572247478033	-0.00168414603100199	0	0
0	0	0.617246178153274	0.67503344649231	0	0	0.00524501164647662	0.0995717472562529
1.3	-0.00238485088504584	0.0050483737921651	0	0	0.205702427643265	-0.948330922075432	0	0
0	0	0.0153200119142452	0.0172203311384768	0	0	-0.356147887126841	0.888368306734403
0.205702427643265	-0.948330922075432	0	0	-0.0572783233203826	7.66562603652099E-05	0	0
0	0	0.323037828850258	-0.864242959017907	0	0	0.0384692689330414	0.0140311418276751
1.4	0.0028704724558727	-0.00128180714225389	0	0	0.930198417934427	0.233077229299873	0	0
0	0	-0.0134718569520526	-0.045888812342153	0	0	0.182308590986826	0.942027931287849
0.930198417934427	0.233077229299873	0	0	0.0149452203419807	0.00794670125378504	0	0
0	0	0.903438150331278	-0.08616753119979	0	0	0.0426854928831619	-0.00689058297249241
1.5	-0.00176500467299578	-0.00168986217785688	0	0	0.269795717439806	-0.928204850017287	0	0
0	0	-0.0376435751935848	-0.0586166643742968	0	0	-0.680074911124442	-0.676745021342339
0.269795717439806	-0.928204850017287	0	0	0.0308584464366432	-0.033130041937078	0	0
0	0	-0.466044431628595	-0.769892917196271	0	0	0.0316481915882077	0.0525488911942778
1.6	-0.000777157682423356	0.00362151228065305	0	0	0.943109326444357	0.29284139851991	0	0
0	0	-0.0350507744103924	-0.0218321832018671	0	0	-0.941684803058812	-0.180973350181802
0.943109326444357	0.29284139851991	0	0	-0.0541945636849335	-0.0260679214865875	0	0
0	0	0.49674641439153	-0.759156382314322	0	0	-0.000578724964848319	0.0534923753722963
1.7	0.00368545595400563	-0.00434293697928068	0	0	0.286728627448249	-0.947922066367944	0	0
0	0	0.017122618226656	0.0045281058196282	0	0	0.886470628367882	-0.348367657018953
0.286728627448249	-0.947922066367944	0	0	-0.00248249449057227	0.00636179492745138	0	0
0	0	-0.903973204854483	-0.10789759534924	0	0	0.0385470143827049	-0.0301381771777085
1.8	-0.00591496129618808	0.00313704716859152	0	0	0.921158099659043	0.287319228363877	0	0
0	0	0.047040020681241	0.0369762009150564	0	0	0.571600508492126	-0.750146231621139
0.921158099659043	0.287319228363877	0	0	0.00624578147552134	0.0665841304266522	0	0
0	0	-0.314554715899475	-0.850031235250062	0	0	0.0264992146718348	-0.0334112730789964
1.9	0.00732081971683114	-1.7233890193299E-05	0	0	0.316539592460355	-0.896933920304439	0	0
0	0	0.0540951979359994	-0.00398701438133301	0	0	-0.0794889193735605	0.943142941253174
0.316539592460355	-0.896933920304439	0	0	0.00937370158222972	0.00979572356508603	0	0
0	0	-0.613166748124108	0.649122997752591	0	0	0.0407800864574311	0.0241314170677183
2	-0.00746142347112954	-0.00430716967954011	0	0	0.893105350475353	0.347018149670861	0	0
0	0	0.0159457165001869	-0.0044463677030196	0	0	0.460748495276634	0.831808200169974
0.893105350475353	0.347018149670861	0	0	-0.0503967550585321	-0.0323279909838341	0	0
0	0	-0.84584421337525	-0.260894331979485	0	0	-0.0534586830992989	-0.0202879533033403
2.1	0.00618612590389712	0.00878806203603507	0	0	0.362066723373717	-0.899042473199927	0	0
0	0	-0.0289227821356037	0.00896367574050968	0	0	-0.8313490959878	-0.449560718862335
0.362066723373717	-0.899042473199927	0	0	0.0704186602015651	0.0164234942613242	0	0
0	0	0.137931609642078	0.878751135449672	0	0	-0.00523327471975907	0.0100876433707531
2.2	-0.00297910703479992	-0.0124339084100347	0	0	0.898975395228826	0.374545492822605	0	0
0	0	-0.0484750590995565	0.0185257026159132	0	0	-0.931492180664436	0.070460680396102
0.898975395228826	0.374545492822605	0	0	0.0142447441821298	-0.0104672176426387	0	0
0	0	-0.735657368523313	0.5072715553754	0	0	0.0421104471894132	-0.0110551700941903
2.3	-0.00211211211338585	0.0140891314764406	0	0	0.38503851011276	-0.889501400001849	0	0
0	0	-0.0311259632537027	0.0204700026726354	0	0	0.735563460916543	-0.555905058619611
0.38503851011276	-0.889501400001849	0	0	0.0575405384845663	-0.0282686122787315	0	0
0	0	0.776030746198676	0.431105281679532	0	0	0.0663133583835623	0.0468892315616131
2.4	0.00854873575441271	-0.0134828755941409	0	0	0.878017838693674	0.397509806055795	0	0
0	0	-0.00125265719893574	0.00177760180785916	0	0	0.323910251917428	-0.867741867795803
0.878017838693674	0.397509806055795	0	0	-0.0969983639654247	0.0149216704496401	0	0
0	0	-0.0389117339677512	0.882284608686369	0	0	0.0467237924806018	-0.0483880525880695
2.5	-0.0155231520497818	0.0106167128141136	0	0	0.415198230808877	-0.866621749681927	0	0
0	0	0.0188243789100533	-0.0358490518398167	0	0	0.189365248047623	0.917698925556083
0.415198230808877	-0.866621749681927	0	0	-0.0100116980893545	-0.0260142171823528	0	0
0	0	0.805104963532724	-0.332121159017084	0	0	0.012496438246398	0.000226897321721341
2.6	0.0214228674880772	-0.00592468233393456	0	0	0.860051520966939	0.42986997402834	0	0
0	0	0.0180689687043571	-0.0390620848251031	0	0	0.667407153462843	0.654206657022794
0.860051520966939	0.42986997402834	0	0	0.006045735570829	-0.0325354144689622	0	0
0	0	0.630803676508484	0.597829954465071	0	0	0.062822922695082	0.0111848422147199
2.7	-0.0251410691026452	-0.000493961011285202	0	0	0.444890944954144	-0.854792535766369	0	0
0	0	0.0217294911545988	-0.0100497777051257	0	0	-0.89872642215263	-0.174757293669447
0.444890944954144	-0.854792535766369	0	0	0.00395051432341919	-0.0121735527567129	0	0
0	0	0.276554160544892	-0.836574792001685	0	0	-0.0270641321161296	-5.243670364391E-06
2.8	0.0257244259945104	0.00801563295283914	0	0	0.845220179627016	0.458600056904638	0	0
0	0	0.0103733982312274	0.0122036321226596	0	0	-0.844165408627791	0.313000926458283
0.845220179627016	0.458600056904638	0	0	0.0049027207276202	0.0647738270378199	0	0
0	0	0.873507869217945	-0.150238609640631	0	0	0.0267821951770903	-0.0632418366076148
2.9	-0.0227710309289662	-0.0156356335174957	0	0	0.474840715169064	-0.827016185778702	0	0
0	0	0.00053844293814717	0.0365605042633776	0	0	0.568931335662781	-0.702897092274362
0.474840715169064	-0.827016185778702	0	0	-0.0530514889449987	0.0348065097623278	0	0
0	0	-0.516825786450012	-0.704697615972454	0	0	-0.0398720915623434	-0.0457025976327689
3	0.017044941953748	0.0222759464128191	0	0	0.819003014977647	0.498966937283977	0	0
0	0	-0.0103708368904455	0.0299939295227139	0	0	0.0910181163026223	-0.92356790886194
0.819003014977647	0.498966937283977	0	0	-0.00620054066286285	-0.0175463606419454	0	0
0	0	0.407221111150424	-0.763788010851615	0	0	0.0144722841070274	0.0869533786472612
3.1	-0.00852942253100001	-0.026192964659423	0	0	0.519414948809287	-0.809620873177763	0	0
0	0	-0.0197805983262202	0.0135082402323057	0	0	0.451478441244173	0.809052846133088
0.519414948809287	-0.809620873177763	0	0	0.0393409377929532	-0.0650635084088999	0	0
0	0	-0.872880907777475	-0.0487414463137666	0	0	-0.0754397858451466	0.00690977688027763
3.2	-0.00127348466181377	0.0276919361557573	0	0	0.808991970482913	0.542623284662451	0	0
0	0	-0.0177559988766491	-0.00436538435106239	0	0	0.802561716262467	0.436749496899774
0.808991970482913	0.542623284662451	0	0	0.00118730180982831	0.0254053683895841	0	0
0	0	-0.341081330989694	-0.816413600801339	0	0	-0.0592750828502126	0.0073931794807498
3.3	0.010785805202997	-0.0255793167791114	0	0	0.553089258396658	-0.805282563384663	0	0
0	0	-0.0017046389318525	-0.022195761701088	0	0	-0.908250017183147	0.0537198711727883
0.553089258396658	-0.805282563384663	0	0	0.0628288006756632	0.0239520070539706	0	0
0	0	-0.574552727253813	0.680193638153982	0	0	-0.0281869629646345	-0.10750698790283
3.4	-0.0184811810254864	0.0199271673339102	0	0	0.789024082801136	0.557085542115363	0	0
0	0	-0.00532201842052239	-0.0392399692458367	0	0	-0.732626047771653	0.548304386721058
0.789024082801136	0.557085542115363	0	0	-0.115783639539592	0.0099358271257661	0	0
0	0	-0.860594421238706	-0.2189268353612	0	0	-0.0200574070025302	-0.039844512405764
3.5	0.0236592653537732	-0.0122227346273813	0	0	0.570614350751019	-0.77958850814229	0	0
0	0	0.00664709483406938	-0.0297345373499523	0	0	0.292932514603553	-0.872627252631884
0.570614350751019	-0.77958850814229	0	0	-0.0129055963747693	-0.0536994139228326	0	0
0	0	0.172838544687052	0.84412983100458	0	0	0.0844337830457378	-0.0738218151810525
3.6	-0.0255607364355441	0.00337574602847017	0	0	0.772257624308026	0.579259805055008	0	0
0	0	0.018103680601002	0.00221415071389072	0	0	-0.215935430929142	-0.893911349883429
0.772257624308026	0.579259805055008	0	0	-0.0336208215047146	0.061247665581142	0	0
0	0	-0.690027352524823	0.525637377979576	0	0	0.0443446535511415	-0.0321686278276741
3.7	0.0236834675317409	0.00605173575015092	0	0	0.59729712043461	-0.751185519536776	0	0
0	0	0.0126079212712045	0.0353417881439625	0	0	0.643836958204313	0.643999628170309
0.59729712043461	-0.751185519536776	0	0	0.118550402646536	0.00578789365836518	0	0
0	0	0.773311767878362	0.403756563397095	0	0	0.0551386925369851	-0.0197613584021398
3.8	-0.0188529543599498	-0.0136416220810244	0	0	0.744244401800175	0.615247602282317	0	0
0	0	0.0142826213636065	0.0493312771323738	0	0	0.870959477702416	0.179716824711221
0.744244401800175	0.615247602282317	0	0	-0.0248877854585882	0.021235748887902	0	0
0	0	-0.00940073294826821	0.869941350212828	0	0	-0.0584388751335501	-0.0242627261032687
3.9	0.0116566290434612	0.0180588608310843	0	0	0.619317621703445	-0.742235609066399	0	0
0	0	0.0106382965377147	0.0145144795783842	0	0	-0.819134815285268	0.332297844685635
0.619317621703445	-0.742235609066399	0	0	-0.0120840617392672	0.0830504988215892	0	0
0	0	0.77764853329377	-0.389702604168167	0	0	0.0246833515221975	-0.00598370767807034
4	-0.00260511496996619	-0.0193236098010652	0	0	0.723134915335977	0.627662749798595	0	0
0	0	-0.016669806809642	-0.0130555493833262	0	0	-0.509072275090419	0.724786917410104
0.723134915335977	0.627662749798595	0	0	0.0497636116769275	-0.0744367844598871	0	0
0	0	0.68440212201838	0.509280050943265	0	0	-0.00448170448269219	0.00949604821788872
4.1	-0.00571997837142079	0.0173824846310828	0	0	0.633477326144662	-0.708961901591945	0	0
0	0	-0.0410395557957052	-0.0356576293864614	0	0	0.0497187308613005	-0.887257643742178
0.633477326144662	-0.708961901591945	0	0	0.0236682609181059	-0.111245912595441	0	0
0	0	0.178232822951815	-0.824752025424765	0	0	0.0270083061090971	0.0806457404081039
4.2	0.0122322827124417	-0.0127901846978301	0	0	0.703032207754806	0.645256894561886	0	0
0	0	-0.0482242721466615	-0.0151615416223539	0	0	-0.434171104079314	-0.774103498950132
0.703032207754806	0.645256894561886	0	0	-0.0395878313831025	0.0164127014206963	0	0
0	0	0.825660214022105	-0.187155510974558	0	0	-0.0119651829561972	-0.0409158434507686
4.3	-0.0159168928310499	0.00578003994089971	0	0	0.654731586535971	-0.695477221401021	0	0
0	0	-0.00687054471202354	0.00732145686858668	0	0	0.774696044004335	0.418828113497528
0.654731586535971	-0.695477221401021	0	0	-0.0105865477480103	0.0665577438248188	0	0
0	0	-0.533184096587273	-0.667611851233107	0	0	-0.0142648507237337	0.0023402916906573
4.4	0.0161482563723927	0.00261767392189784	0	0	0.677938546586559	0.665345786478095	0	0
0	0	0.0381835924355967	0.00497391754391368	0	0	0.882653353083996	-0.0549933333487889
0.677938546586559	0.665345786478095	0	0	0.00111974270622148	-0.0495637486910546	0	0
0	0	0.34239593590825	-0.768140168302556	0	0	-0.0332762592317166	0.00341389211783116
4.5	-0.0129230194783608	-0.0101532300754131	0	0	0.673036887199436	-0.659543874837817	0	0
0	0	0.0642699022643987	-0.00409334948843244	0	0	-0.717984811669481	0.520794931627305
0.673036887199436	-0.659543874837817	0	0	-0.0492386625591621	0.0265376432735114	0	0
0	0	-0.830646314296314	0.0118209681321515	0	0	-0.0851306508030483	0.0617041530793406
4.6	0.00678085452396266	0.0156570214971317	0	0	0.641646268058174	0.688868186548483	0	0
0	0	0.045837714547012	-0.0248905562636758	0	0	-0.311950054020372	0.840442567343027
0.641646268058174	0.688868186548483	0	0	-0.00358785922000712	0.0140385303786286	0	0
0	0	-0.369812143573477	-0.741478867299051	0	0	-0.07941659154393	-0.00919215180203427
4.7	0.00117242185526061	-0.0180040140489304	0	0	0.707184239973701	-0.635109799237715	0	0
0	0	-0.0255356342132711	-0.00576439528951451	0	0	-0.1897518086971	-0.871142737091209
0.707184239973701	-0.635109799237715	0	0	0.0657454606359779	-0.0172341977900785	0	0
0	0	-0.523068894717872	0.653091175945005	0	0	-0.0725869522315049	0.0721480508101825
4.8	-0.00983890884650771	0.0169510023689754	0	0	0.635868147313183	0.724069856040539	0	0
0	0	-0.0594605711305695	0.0334749086410617	0	0	-0.605234689612426	-0.633955057187526
0.635868147313183	0.724069856040539	0	0	0.0534608133922443	-0.0181208058717384	0	0
0	0	-0.82566835982544	-0.197394433748998	0	0	-0.00887281360516766	0.071949697988384
4.9	0.0174181083906256	-0.0118116949313697	0	0	0.730758284007776	-0.628717018714712	0	0
0	0	-0.0401968773330605	0.0575367258405542	0	0	0.85345297291518	0.207208691241004
0.730758284007776	-0.628717018714712	0	0	-0.0799633499512084	-0.0290685778724626	0	0
0	0	0.198520915126654	0.820583967091145	0	0	-0.082931926419467	0.00411018714854696
5	-0.0220033500354237	0.00369751523496453	0	0	0.618650104773679	0.726403622274653	0	0
0	0	-0.000238994705833059	0.0191562049672139	0	0	0.830728258781048	-0.298369563907321
0.618650104773679	0.726403622274653	0	0	-0.0469705691336027	0.0405665412115089	0	0
0	0	-0.644889271492485	0.533826858934023	0	0	0.0419476573363615	-0.00884625463623547
5.1	0.0234306767502786	0.00637717036625247	0	0	0.727669034631337	-0.606866244430717	0	0
0	0	0.0390536592957392	-0.0345811181906363	0	0	-0.532665585733943	0.696137593865974
0.727669034631337	-0.606866244430717	0	0	-0.0211931219269262	-0.041694130322063	0	0
0	0	0.750360021896866	0.344146824584406	0	0	0.0730259500799055	-0.0196873560843179
5.2	-0.0211361987083819	-0.0176213039013992	0	0	0.585425727618425	0.744938658130297	0	0
0	0	0.0170098837368339	-0.0751435294897084	0	0	-0.0769674906224981	0.872072532782389
0.585425727618425	0.744938658130297	0	0	0.0387479044726307	0.021935227766576	0	0
0	0	0.0168946741343658	0.832490063942696	0	0	0.0274664096140117	0.06636333005767
5.3	0.0150857154885114	0.0271894590378986	0	0	0.762952345079977	-0.574150354073697	0	0
0	0	-0.0132185957327774	-0.0417281748270573	0	0	-0.414385451258812	-0.769907084457853
0.762952345079977	-0.574150354073697	0	0	-0.031826929480058	0.0244501758041197	0	0
0	0	0.742006753655476	-0.376349613734824	0	0	-0.0429892088943707	0.0120279836025642
5.4	-0.00605688087466897	-0.0329510586731062	0	0	0.566288998252046	0.767075199370477	0	0
0	0	-0.0305593878932919	0.014761067396697	0	0	-0.768322569664816	-0.425456432330038
0.566288998252046	0.767075199370477	0	0	0.0709968537578661	0.0867538272812965	0	0
0	0	0.658787150425278	0.507398560385993	0	0	-0.00909009789640623	0.0216658247019725
5.5	-0.00497763806095436	0.0351923347880151	0	0	0.77713448458284	-0.563635929032522	0	0
0	0	0.0235781322938189	0.0607003705377504	0	0	0.875989352756904	-0.0478192302774305
0.77713448458284	-0.563635929032522	0	0	-0.00676378405547952	-0.0278520897461416	0	0
0	0	0.154302374154234	-0.816269796737944	0	0	0.0219366258274083	0.0380504799235446
5.6	0.0167863512140836	-0.0326860574697623	0	0	0.549212408371619	0.78192492176548	0	0
0	0	0.0422226938131171	0.0576193264312239	0	0	0.694299634901427	-0.510185161058365
0.549212408371619	0.78192492176548	0	0	0.00119090476027117	-0.109277462482815	0	0
0	0	0.797015973013996	-0.205056563629874	0	0	0.0120934473202962	0.116818119047707
5.7	-0.027583620481589	0.0262957356918611	0	0	0.794163809359887	-0.540561262007857	0	0
0	0	0.0200916468083418	-0.00596774329706787	0	0	-0.313497793171789	0.805887019132507
0.794163809359887	-0.540561262007857	0	0	-0.011233081405695	0.0510447211275567	0	0
0	0	-0.536832699594128	-0.644442907404371	0	0	0.0588127228252407	0.03381478880599
5.8	0.0342307476861767	-0.0158581343441492	0	0	0.522243281118544	0.793496278914585	0	0
0	0	-0.0228041696769559	-0.0305677328015258	0	0	0.157964752602941	0.849144468832382
0.522243281118544	0.793496278914585	0	0	0.0586592598837827	-0.0280228630136425	0	0
0	0	0.319661858471084	-0.768647514537626	0	0	0.0345412201280129	0.0546983755124326
5.9	-0.0371224715169573	0.00262890592534498	0	0	0.806929904788058	-0.498301749409075	0	0
0	0	-0.0568845097590347	-0.0263879406734686	0	0	-0.58410876087788	-0.632355947744514
0.806929904788058	-0.498301749409075	0	0	-0.072326242148811	0.042678715263435	0	0
0	0	-0.822262734927065	0.0620257557084695	0	0	0.0379713840174229	0.071124628403459
6	0.0357050666030064	0.0106234912017821	0	0	0.481188359983247	0.820067681254239	0	0
0	0	-0.0344784295536911	0.00582775535082563	0	0	-0.843103568793584	-0.191585522304866
0.481188359983247	0.820067681254239	0	0	-0.0031377632677611	0.0227061036542262	0	0
