# GHZ S RI R 50
0.2	-0.00658166404245986	0.00975357498971933	0	0	0.957944459745602	0.0580532269387965	0	0
0	0	0.0207726484415467	0.00406532413209132	0	0	-0.370384567507417	0.911104824125313
0.957944459745602	0.0580532269387965	0	0	0.021458638816444	0.0434536605625909	0	0
0	0	0.569576741652749	-0.754035660592206	0	0	0.00186965963552549	-0.0303737068627642
0.3	0.0070192914586101	-0.00974307287815307	0	0	0.0335046565772026	-0.965208707887091	0	0
0	0	-0.0050766346295369	0.00144361129325927	0	0	-0.134259209996925	-0.974211438945054
0.0335046565772026	-0.965208707887091	0	0	-0.0135314524585355	0.00512824903432968	0	0
0	0	-0.922053461246667	-0.202147205081712	0	0	-0.0321536957580714	-0.0167821216056709
0.4	-0.00876254012161727	0.00785984876126938	0	0	0.948583725305104	0.0620086491025294	0	0
0	0	-0.0394155603543544	0.000841838782108303	0	0	-0.667121906532388	-0.72578179115665
0.948583725305104	0.0620086491025294	0	0	-0.0337771903376161	-0.013795884868887	0	0
0	0	-0.23517138378811	-0.895808153296486	0	0	0.0218935627772522	0.0199389145011044
0.5	0.0109731426847558	-0.00446195648710492	0	0	0.127760281837609	-0.948873622940821	0	0
0	0	-0.0331745307652878	0.0049537351028845	0	0	0.964004778913671	0.207208649422177
0.127760281837609	-0.948873622940821	0	0	0.0369270299481007	0.0165710207170343	0	0
0	0	-0.678708687299075	0.636624843597177	0	0	0.00523206280991065	0.00760934384624247
0.6	-0.0116811446666419	0.00141214914952386	0	0	0.955004624131814	0.131377329968005	0	0
0	0	-0.00871090870607108	0.00630599791767469	0	0	0.912768802929498	-0.329404942332661
0.955004624131814	0.131377329968005	0	0	0.00501061434009145	-0.0197874011657911	0	0
0	0	-0.861943637047877	-0.344950335823528	0	0	-0.0053254370289669	-0.0072508220075029
0.7	0.0114728703638571	0.0013664279605764	0	0	0.109188272799263	-0.95769619179918	0	0
0	0	0.0221734601837832	-0.0107213523299201	0	0	-0.611368922917078	0.748375287576935
0.109188272799263	-0.95769619179918	0	0	0.00808239222860004	0.00981302319737542	0	0
0	0	0.0457458241544043	0.920500156512974	0	0	0.00231001278734993	-0.0129712307962691
0.8	-0.0103885083742365	-0.00452549205973553	0	0	0.95527684330826	0.113941644485258	0	0
0	0	0.043765655218152	-0.041557199841866	0	0	-0.120666958589754	0.961134245294667
0.95527684330826	0.113941644485258	0	0	-0.0225238048453701	0.0127525633466078	0	0
0	0	-0.811885593348757	0.448631611569531	0	0	0.0066784056535243	0.0833871699006765
0.9	0.00771743484640499	0.00723353132437953	0	0	0.145395860332668	-0.940312593715519	0	0
0	0	0.0129145184198486	-0.0274911176192305	0	0	-0.434568777857192	-0.866561083988729
0.145395860332668	-0.940312593715519	0	0	-0.00192750662453485	-0.0618831631077	0	0
0	0	0.76438768327628	0.525497106330692	0	0	0.036382432222999	0.0137275855449942
1	-0.00440027597049891	-0.00880335804065047	0	0	0.943392869650885	0.182008721686802	0	0
0	0	-0.0145421493622728	0.0119515116878896	0	0	-0.838921168244915	-0.481848945990875
0.943392869650885	0.182008721686802	0	0	0.00280505143120081	0.0420971930163275	0	0
0	0	-0.126521426463979	0.903265692120189	0	0	0.00324998944518995	0.00197507241164985
1.1	0.00098565857483242	0.00865905394105779	0	0	0.201794242164079	-0.950550733903172	0	0
0	0	-0.011611648399067	0.0349772266427592	0	0	0.957400663492014	-0.0510633443413617
0.201794242164079	-0.950550733903172	0	0	0.00356419289558882	0.00180689717543763	0	0
0	0	0.869922746810922	-0.260541885951326	0	0	0.00864273462852145	0.0430835909654807
1.2	0.00176095260537201	-0.00699799756352615	0	0	0.960407114882896	0.20271341145353	0	0
0	0	0.00886343386960694	0.0643348070731006	0	0	0.772062169705508	-0.555536804512907
0.960407114882896	0.20271341145353	0	0	0.0537559758927265	-0.00059094527647598	0	0
0	0	0.614811405832491	0.672307223000192	0	0	0.00684379698609053	0.100101475160788
1.3	-0.00365752778759163	0.0037957276751796	0	0	0.205161484896567	-0.944261441881061	0	0
0	0	0.0164559567144763	0.0186709500278714	0	0	-0.355288990372177	0.884646178194945
0.205161484896567	-0.944261441881061	0	0	-0.0543876975851269	0.000484051441177018	0	0
0	0	0.322294688438398	-0.860636307245817	0	0	0.0401358550033826	0.0147578406962158
1.4	0.0043066850053799	-6.32436169022464E-05	0	0	0.92612911907261	0.233234190298572	0	0
0	0	-0.0128845104806372	-0.0439800393442067	0	0	0.180382330127663	0.93870035466825
0.92612911907261	0.233234190298572	0	0	0.0171651426486369	0.00796212624807646	0	0
0	0	0.900130542982191	-0.0846559185112894	0	0	0.0443932170824645	-0.00623507335191812
1.5	-0.00336303733769049	-0.00295989842314444	0	0	0.270480876457484	-0.924173639542768	0	0
0	0	-0.0377894426316163	-0.0564788351766801	0	0	-0.676290828056843	-0.675882654427028
0.270480876457484	-0.924173639542768	0	0	0.0329653962238519	-0.0330978329563209	0	0
0	0	-0.462794629271557	-0.768251991360241	0	0	0.0331651973518268	0.0525596633493579
1.6	0.00119172982290402	0.00466580272224149	0	0	0.938994146527827	0.294176539001294	0	0
0	0	-0.035842128679471	-0.0196624770481578	0	0	-0.938420402885056	-0.182984305704935
0.938994146527827	0.294176539001294	0	0	-0.0518384277997892	-0.0269746765099881	0	0
0	0	0.497333518167192	-0.755576760944899	0	0	0.000870429670807908	0.0529805875880399
1.7	0.00163324063306902	-0.00476126275481675	0	0	0.288861905729909	-0.944357216840442	0	0
0	0	0.0159165292820353	0.00632528899163902	0	0	0.8853491389666	-0.345065846912611
0.288861905729909	-0.944357216840442	0	0	-0.00127677874802323	0.005171377858967	0	0
0	0	-0.901534744367233	-0.110169820779951	0	0	0.0398549124515523	-0.0303507629261027
1.8	-0.00431526874062582	0.00311656601767639	0	0	0.918332376603353	0.28991328070572	0	0
0	0	0.0456958582636817	0.0380634401124213	0	0	0.572857565754331	-0.74710951364961
0.918332376603353	0.28991328070572	0	0	0.00639158451123309	0.0652096337238829	0	0
0	0	-0.311443155234106	-0.849488244858995	0	0	0.027446288728811	-0.0338575051874499
1.9	0.00623017095238335	-2.11637103810771E-05	0	0	0.319128165908053	-0.894714680165156	0	0
0	0	0.0529142708907337	-0.00373057832888987	0	0	-0.0822914105670695	0.941962021402088
0.319128165908053	-0.894714680165156	0	0	0.00947402153085756	0.0089414946382552	0	0
0	0	-0.614540128756906	0.64660398603823	0	0	0.0409804452837676	0.0236914272251348
2	-0.0066562207115762	-0.00402063417828555	0	0	0.891406685377673	0.349517532349428	0	0
0	0	0.0151447085195937	-0.00495385505352734	0	0	0.458112589269662	0.832767142033514
0.891406685377673	0.349517532349428	0	0	-0.0500791134988484	-0.0331751718839633	0	0
0	0	-0.844694154432942	-0.263238454607599	0	0	-0.053061922570903	-0.021017109880951
2.1	0.00534563454622594	0.00821371287863714	0	0	0.364422502031667	-0.898000458133535	0	0
0	0	-0.0292191624252968	0.00787967185052805	0	0	-0.830356515660336	-0.451698557792746
0.364422502031667	-0.898000458133535	0	0	0.0704364961414379	0.0163756800430248	0	0
0	0	0.135765162165191	0.879228184355931	0	0	-0.00505085341695504	0.00979098147556628
2.2	-0.00192271673539388	-0.0118203080681362	0	0	0.898313450326342	0.37648576540822	0	0
0	0	-0.0482777094250502	0.0172034107077921	0	0	-0.932132807497622	0.0687993830013319
0.898313450326342	0.37648576540822	0	0	0.0145214968539222	-0.0108945985075304	0	0
0	0	-0.73698755290583	0.50620777877179	0	0	0.0425314873416676	-0.0111755027157537
2.3	-0.00324521076443694	0.0137362926945532	0	0	0.386449880422117	-0.889173331014628	0	0
0	0	-0.0306218571309264	0.0192772478498745	0	0	0.736739616903811	-0.555458622847329
0.386449880422117	-0.889173331014628	0	0	0.0578439767647277	-0.028826223713956	0	0
0	0	0.776095850235698	0.432314812401918	0	0	0.0666892494692622	0.046685106747174
2.4	0.00944332848542522	-0.0134523386481103	0	0	0.877670362371668	0.398436385824324	0	0
0	0	-0.000673895651837188	0.000977105942967825	0	0	0.324464907576869	-0.867905173157582
0.877670362371668	0.398436385824324	0	0	-0.0971116640423349	0.013802661809147	0	0
0	0	-0.0393668917950922	0.882595679865455	0	0	0.0471276659001365	-0.0490503165879444
2.5	-0.0159503310777698	0.0106407766685997	0	0	0.415446396820679	-0.866250974793177	0	0
0	0	0.0192420138433166	-0.0360896793898221	0	0	0.18931959484914	0.917715574971319
0.415446396820679	-0.866250974793177	0	0	-0.0104104791969816	-0.027011927443642	0	0
0	0	0.805128086555601	-0.332082361226933	0	0	0.0126131173382626	-0.000638123847956702
2.6	0.0214798053974384	-0.00570347706096247	0	0	0.859365730185003	0.429536341650035	0	0
0	0	0.0181373297348694	-0.0388090755601305	0	0	0.667221918371052	0.653672109744779
0.859365730185003	0.429536341650035	0	0	0.00530171242232184	-0.0333742870991202	0	0
0	0	0.630623072003448	0.597335832113405	0	0	0.0626491433532712	0.0102103862500692
2.7	-0.0250908038443333	-0.00102798366361668	0	0	0.444108404765563	-0.853554559641612	0	0
0	0	0.0214010567614999	-0.00955492429194352	0	0	-0.897660641004173	-0.174185593003609
0.444108404765563	-0.853554559641612	0	0	0.00303082461358011	-0.0128366238801432	0	0
0	0	0.275878292347541	-0.835627215179951	0	0	-0.027269293293445	-0.000863252253528896
2.8	0.0256742125075503	0.00871683266045538	0	0	0.84324450150274	0.457584853908582	0	0
0	0	0.00970555348505439	0.0125912152849496	0	0	-0.842408509782092	0.31265229572535
0.84324450150274	0.457584853908582	0	0	0.00390922141719371	0.0639625643899933	0	0
0	0	0.871744658174415	-0.150218946398865	0	0	0.0262712823408637	-0.0637941767613095
2.9	-0.0226348774097016	-0.016447977357493	0	0	0.473710822698794	-0.824295668757458	0	0
0	0	-0.00036236184506182	0.0365000198019662	0	0	0.567455894671178	-0.700895388289605
0.473710822698794	-0.824295668757458	0	0	-0.0537116859975284	0.03421022761262	0	0
0	0	-0.515318342298303	-0.702826062133508	0	0	-0.0400461468295682	-0.0461355229449334
3	0.0168008974373168	0.0233316769164498	0	0	0.815540588595432	0.49797998987623	0	0
0	0	-0.0113567859926858	0.0293318981904349	0	0	0.0916645673376552	-0.92047836390344
0.815540588595432	0.49797998987623	0	0	-0.00699593096660238	-0.0175601140894023	0	0
0	0	0.406678636912269	-0.760894470637121	0	0	0.0137600124593044	0.0859152342869231
3.1	-0.00836686002827751	-0.0275467665269828	0	0	0.518823200125356	-0.805465553153844	0	0
0	0	-0.0206674527676083	0.0122717460278773	0	0	0.448296020612133	0.806863822874127
0.518823200125356	-0.805465553153844	0	0	0.0386162012129069	-0.0643267460388454	0	0
0	0	-0.86952887886638	-0.0501725138485366	0	0	-0.0753446120955105	0.00627691939084869
3.2	-0.00118219579660957	0.0292296024819594	0	0	0.803958338534987	0.542696149517694	0	0
0	0	-0.0182807678970733	-0.00597532086419486	0	0	0.798285855505838	0.437422762253782
0.803958338534987	0.542696149517694	0	0	0.000653897733056834	0.02538457769271	0	0
0	0	-0.337444834006818	-0.814329032884238	0	0	-0.0591960505930912	0.00690333192834349
3.3	0.0104344810545054	-0.0270358069744878	0	0	0.55415395909148	-0.799842120875451	0	0
0	0	-0.00170667437408432	-0.0238452171521232	0	0	-0.905172080109702	0.0501477127062787
0.55415395909148	-0.799842120875451	0	0	0.062016626125958	0.0244203838936631	0	0
0	0	-0.575009265496114	0.675601827856926	0	0	-0.0273221209439684	-0.106941413146582
3.4	-0.0180865491574077	0.021161644049846	0	0	0.783284227612135	0.558996095833904	0	0
0	0	-0.00473203942225513	-0.0405945316150334	0	0	-0.733089536438674	0.543110752750251
0.783284227612135	0.558996095833904	0	0	-0.115007464494903	0.0087381379986872	0	0
0	0	-0.856955526611354	-0.22244276364428	0	0	-0.0195425520201701	-0.0397574352768934
3.5	0.0233782098725929	-0.0133956999948819	0	0	0.57358643389911	-0.774097745805517	0	0
0	0	0.00772192735780645	-0.0305265487038598	0	0	0.297186158200454	-0.869181822302397
0.57358643389911	-0.774097745805517	0	0	-0.0121654605460622	-0.0536424482672925	0	0
0	0	0.16777588261816	0.843338910688382	0	0	0.0849961531232447	-0.0725538773349825
3.6	-0.0253185521619186	0.00461004450147375	0	0	0.767025642719187	0.583344396919222	0	0
0	0	0.0195314443773642	0.00208036651060469	0	0	-0.210089566548546	-0.894383439467511
0.767025642719187	0.583344396919222	0	0	-0.0343243361947881	0.0604473348766458	0	0
0	0	-0.692653033552634	0.520768174835948	0	0	0.0447449078955162	-0.031588492928779
3.7	0.0233596042644979	0.00476776550128394	0	0	0.602296967411518	-0.746745263868236	0	0
0	0	0.0140391456833514	0.0358525128016114	0	0	0.639753847369001	0.648396404297379
0.602296967411518	-0.746745263868236	0	0	0.118272422813855	0.00731669378548587	0	0
0	0	0.770842196322512	0.408947161796374	0	0	0.0554501770465851	-0.0191104382153858
3.8	-0.0183648023321531	-0.0124780020269217	0	0	0.740468622564333	0.620948935148203	0	0
0	0	0.0153969969748668	0.0501599313863761	0	0	0.870922013792717	0.185816160158833
0.740468622564333	0.620948935148203	0	0	-0.0253255237265856	0.0208779564703564	0	0
0	0	-0.0152641877060101	0.87104798245881	0	0	-0.0583094455044814	-0.0251764524807534
3.9	0.0111485007809844	0.0171940541748459	0	0	0.625635991417202	-0.739631713193109	0	0
0	0	0.011249026362576	0.0154184244187937	0	0	-0.823323316568294	0.327994679865518
0.625635991417202	-0.739631713193109	0	0	-0.0133302868799572	0.0832884826493694	0	0
0	0	0.78209199553237	-0.385807478703612	0	0	0.0248010479035297	-0.00573141598657169
4	-0.00232900169229756	-0.0186786214366054	0	0	0.72183331408366	0.633946747132847	0	0
0	0	-0.0166791823640467	-0.0122837079291904	0	0	-0.51508226556799	0.724454697946384
0.72183331408366	0.633946747132847	0	0	0.0509311950792018	-0.0741947058759811	0	0
0	0	0.683923594870127	0.515057835137822	0	0	-0.00473439574380086	0.00953323563228674
4.1	-0.00575518345341726	0.0167482567223112	0	0	0.639502234148849	-0.708814205271219	0	0
0	0	-0.041599132665044	-0.0351989752485065	0	0	0.0543460652417669	-0.891033891981025
0.639502234148849	-0.708814205271219	0	0	0.0249760398308332	-0.111740866464319	0	0
0	0	0.183132747281119	-0.827607276717136	0	0	0.0263368978522648	0.081715886496219
4.2	0.0121786626625293	-0.0120637968579182	0	0	0.703769948797963	0.650859244296721	0	0
0	0	-0.0490462380455887	-0.0151044446258229	0	0	-0.433365200233338	-0.779662089906547
0.703769948797963	0.650859244296721	0	0	-0.0399947821754546	0.0164069710888902	0	0
0	0	0.830525126474821	-0.184911255233465	0	0	-0.0118429542476355	-0.0413128793146998
4.3	-0.0158858273172332	0.00506657726261646	0	0	0.659733816349348	-0.697010148579896	0	0
0	0	-0.0075918031797775	0.00701327037813295	0	0	0.777650496807546	0.423115661709461
0.659733816349348	-0.697010148579896	0	0	-0.0109745550357472	0.0672155198233426	0	0
0	0	-0.534198085888088	-0.672560621823463	0	0	-0.0144388305844372	0.00238292619004476
4.4	0.016060018434107	0.00317378376311068	0	0	0.680101130359674	0.669490553363517	0	0
0	0	0.0378617994067187	0.00446432026657551	0	0	0.887213229356166	-0.0539087710478248
0.680101130359674	0.669490553363517	0	0	0.00126448917990463	-0.0501063864985549	0	0
0	0	0.345318327307968	-0.771505659802909	0	0	-0.0335738406407088	0.00333287619629418
4.5	-0.0126209462140044	-0.0105707644013939	0	0	0.676229098130081	-0.66199421236967	0	0
0	0	0.0645216467285253	-0.0046056540001715	0	0	-0.721563674168757	0.522687540044904
0.676229098130081	-0.66199421236967	0	0	-0.04989353717679	0.0265194028114251	0	0
0	0	-0.834407591573536	0.0113412082380603	0	0	-0.0859198935823509	0.0619843080891583
4.6	0.00619103539252546	0.0161035336034337	0	0	0.644135113366531	0.691109877576262	0	0
0	0	0.0466138667723923	-0.0252114377796435	0	0	-0.313032019222255	0.843604678301033
0.644135113366531	0.691109877576262	0	0	-0.00402091506703949	0.01394148877783	0	0
0	0	-0.371261497417164	-0.744206759005037	0	0	-0.0800198858925256	-0.0095792808687667
4.7	0.00192585042008475	-0.0186438369001199	0	0	0.708594063170561	-0.637374586606086	0	0
0	0	-0.0244314627839156	-0.00569640164038892	0	0	-0.190619262619719	-0.873576511477148
0.708594063170561	-0.637374586606086	0	0	0.0654646709456061	-0.0175000672519372	0	0
0	0	-0.524330910473806	0.655161726370815	0	0	-0.0730696948724245	0.0722096919685186
4.8	-0.0105631940790138	0.0177454046100534	0	0	0.637611781763692	0.724728464431371	0	0
0	0	-0.0584122619339956	0.0340053244626965	0	0	-0.606777999115964	-0.63493311514965
0.637611781763692	0.724728464431371	0	0	0.0529298200529858	-0.0182164965724595	0	0
0	0	-0.827438009082378	-0.197378430234034	0	0	-0.00905285298304039	0.0717936887502132
4.9	0.0181038959352621	-0.0125922613139684	0	0	0.730768100970492	-0.62971850464449	0	0
0	0	-0.039526886852152	0.0584531191019209	0	0	0.854289194249157	0.20719431764875
0.730768100970492	-0.62971850464449	0	0	-0.0808150971658673	-0.0287748281588653	0	0
0	0	0.198901224206777	0.821292304901281	0	0	-0.0834224558046026	0.0037415545948041
5	-0.0227737932167306	0.00444275230776096	0	0	0.618742712441034	0.726208251432129	0	0
0	0	-0.000173954950233658	0.020337252406108	0	0	0.831063404484445	-0.298209936075163
0.618742712441034	0.726208251432129	0	0	-0.0476017742527498	0.0409279743863917	0	0
0	0	-0.645239663930524	0.533792456661817	0	0	0.0415579630155173	-0.00919843669783283
5.1	0.0243092316842608	0.00550571049162831	0	0	0.727528379037424	-0.606162950448083	0	0
0	0	0.0384893180505555	-0.0333754409576056	0	0	-0.533428052499311	0.695448988237607
0.727528379037424	-0.606162950448083	0	0	-0.0216623899836611	-0.0411870995065127	0	0
0	0	0.749886477180924	0.344990600461673	0	0	0.0725674867059063	-0.0197890563586493
5.2	-0.0219699417463116	-0.0165847694723745	0	0	0.583753440329958	0.745238589817757	0	0
0	0	0.0159846137910761	-0.074158256123923	0	0	-0.0789963529309797	0.871803793423889
0.583753440329958	0.745238589817757	0	0	0.038296224801474	0.0226066808021685	0	0
0	0	0.0149486789420691	0.832444577455556	0	0	0.0266475381483685	0.0663354110948664
5.3	0.015706016172134	0.0261388334262088	0	0	0.763887366001492	-0.571672611066131	0	0
0	0	-0.0143838430703641	-0.041200011045104	0	0	-0.41181487314324	-0.771300731639898
0.763887366001492	-0.571672611066131	0	0	-0.031960051963574	0.0248450351927788	0	0
0	0	0.743272914596873	-0.373871955762452	0	0	-0.0435039055031041	0.0117948582162596
5.4	-0.0065269893671707	-0.0321292109041857	0	0	0.563368235794227	0.769162339129472	0	0
0	0	-0.0315695213751689	0.0146727338966232	0	0	-0.766994277477108	-0.428948614084577
0.563368235794227	0.769162339129472	0	0	0.0704721560280532	0.0877497562486617	0	0
0	0	0.657047717666234	0.510478886096323	0	0	-0.00957954928132652	0.0217870091198355
5.5	-0.00438909593065989	0.034601103228008	0	0	0.780282243302173	-0.560728893048532	0	0
0	0	0.0229709097643111	0.0600170233716684	0	0	0.877544291385912	-0.0435150076809209
0.780282243302173	-0.560728893048532	0	0	-0.00638543799865984	-0.0276356561887308	0	0
0	0	0.158611923774221	-0.816725302620365	0	0	0.0214452440388733	0.0385529382041881
5.6	0.0159586070630687	-0.0321227786691308	0	0	0.546710697510545	0.786169143937383	0	0
0	0	0.0421501957528785	0.0565361975895025	0	0	0.699106863379359	-0.507670936971364
0.546710697510545	0.786169143937383	0	0	0.00225631746187845	-0.109462730792102	0	0
0	0	0.800381928681298	-0.201116789597846	0	0	0.0106913239873224	0.11766478493829
5.7	-0.0266350088706942	0.0255605432804439	0	0	0.799419607664298	-0.538457442809241	0	0
0	0	0.0205208134653112	-0.00717970762648588	0	0	-0.319347269493879	0.807463131294993
0.799419607664298	-0.538457442809241	0	0	-0.0119637157839501	0.0516766843879647	0	0
0	0	-0.535424205339897	-0.650147757079962	0	0	0.0585898305975578	0.0347987907953576
5.8	0.033441139649421	-0.0149684269500151	0	0	0.521125999324616	0.799615822965564	0	0
0	0	-0.0220554866304432	-0.0315863999721142	0	0	0.154302378814388	0.854748210297665
0.521125999324616	0.799615822965564	0	0	0.0593518667763438	-0.0271182979633881	0	0
0	0	0.325569302819389	-0.771242376539252	0	0	0.0338379613872068	0.0557403242575844
5.9	-0.0365781809468744	0.00181988648259608	0	0	0.813575376533992	-0.498070455494402	0	0
0	0	-0.0560670800301313	-0.0269645794982189	0	0	-0.585245773462972	-0.639403303729252
0.813575376533992	-0.498070455494402	0	0	-0.0733574380915064	0.0434615286289426	0	0
0	0	-0.828228789589914	0.0586846244903126	0	0	0.0371952901346516	0.0726849688211336
6	0.0353040493279192	0.0111380216219875	0	0	0.482270154236953	0.827162290010423	0	0
0	0	-0.0338456080139996	0.00578210641377644	0	0	-0.849065313550016	-0.196141041184878
0.482270154236953	0.827162290010423	0	0	-0.00275370440152829	0.0239042713022212	0	0
