# GHZ S RI R 50
0.2	-0.00673934352448488	0.00667588583132778	0	0	0.958252799353641	0.057519182836111	0	0
0	0	0.0231136102540518	0.0021023143876704	0	0	-0.370050961702142	0.911360917464
0.958252799353641	0.057519182836111	0	0	0.0222584442748383	0.0476618205774711	0	0
0	0	0.569330496889296	-0.754356054414684	0	0	0.00265334646373172	-0.0261086922053247
0.3	0.00763362889409532	-0.00863748732542226	0	0	0.0326749284252019	-0.965377710593336	0	0
0	0	-0.00399642102257529	0.000886839816992912	0	0	-0.135065212836843	-0.97431159226056
0.0326749284252019	-0.965377710593336	0	0	-0.0118492313194642	0.00749504592440307	0	0
0	0	-0.922410973548188	-0.20145440611638	0	0	-0.0304087861412721	-0.0143491659096555
0.4	-0.00858335167574999	0.00782510988852908	0	0	0.948637507740966	0.0607489782816278	0	0
0	0	-0.0394652020120639	0.00101232135997095	0	0	-0.668113241311916	-0.72492503125795
0.948637507740966	0.0607489782816278	0	0	-0.0321800284429107	-0.0127760194203652	0	0
0	0	-0.236371033484667	-0.895532156453802	0	0	0.0237041663491101	0.0208123599194336
0.5	0.00985211581658966	-0.00461644046220093	0	0	0.126045976101279	-0.948822042650569	0	0
0	0	-0.034019361613972	0.00557451174233475	0	0	0.964050161722043	0.205420769821246
0.126045976101279	-0.948822042650569	0	0	0.0380454230422198	0.0165575150471458	0	0
0	0	-0.677345887484679	0.637620645018632	0	0	0.0064377621481998	0.00767650158657905
0.6	-0.00998717472972387	0.000959489742004175	0	0	0.954480363416824	0.129153521157536	0	0
0	0	-0.0100833553831271	0.00697078373711582	0	0	0.911228645768418	-0.331053466560614
0.954480363416824	0.129153521157536	0	0	0.00538143267895791	-0.0198487974418852	0	0
0	0	-0.86189095949046	-0.342792544125882	0	0	-0.00482851649038729	-0.00732459869406237
0.7	0.0100056819003633	0.0026761577833129	0	0	0.106702046876482	-0.956536586648568	0	0
0	0	0.0205953390161718	-0.0103001994623313	0	0	-0.608666063342392	0.748592708605741
0.106702046876482	-0.956536586648568	0	0	0.00819711192245292	0.00987073565727907	0	0
0	0	0.0477977364528605	0.918926101514603	0	0	0.00235587336028102	-0.0128034552080467
0.8	-0.00961477257501738	-0.00616187243757472	0	0	0.953362377980666	0.111378928077229	0	0
0	0	0.0423083806778197	-0.0414040674780671	0	0	-0.118263046142974	0.959315921582193
0.953362377980666	0.111378928077229	0	0	-0.0222852945113128	0.0132404630555173	0	0
0	0	-0.809122711920012	0.449466620714018	0	0	0.00713846611966461	0.0835028046078336
0.9	0.00753361922766398	0.00855537616547616	0	0	0.142859690666421	-0.937601385574607	0	0
0	0	0.0118544451792185	-0.0275466468597565	0	0	-0.435051623015067	-0.863046989819872
0.142859690666421	-0.937601385574607	0	0	-0.00185253357948436	-0.0608729092768704	0	0
0	0	0.763169380463472	0.522329223972596	0	0	0.0366863788789296	0.0142309588905884
1	-0.00440162456041714	-0.00953177804550845	0	0	0.940073580944434	0.179698904838183	0	0
0	0	-0.0150453314796398	0.011756743324207	0	0	-0.836584193131989	-0.478706227902432
0.940073580944434	0.179698904838183	0	0	0.00361935168208072	0.0422806976098057	0	0
0	0	-0.124594053945228	0.90011642042646	0	0	0.00418612263507547	0.00255602448422168
1.1	0.000675237759789998	0.00882749601809536	0	0	0.200013974245223	-0.946536176031697	0	0
0	0	-0.01153765504158	0.0347629722519321	0	0	0.953222896588985	-0.0518080876314246
0.200013974245223	-0.946536176031697	0	0	0.00449422764528526	0.00197573076664174	0	0
0	0	0.865910899363421	-0.260295640253347	0	0	0.00997768364879324	0.042821466107819
1.2	0.00269944445225859	-0.0070216620395724	0	0	0.955929268027783	0.201708677335828	0	0
0	0	0.00939835753738263	0.0642609035781557	0	0	0.768285580168758	-0.553037220954052
0.955929268027783	0.201708677335828	0	0	0.0542548426986119	-0.000815682850019241	0	0
0	0	0.612011260245227	0.668994225714436	0	0	0.00823909848222763	0.0986241782909053
1.3	-0.00497728217083364	0.00409072333663997	0	0	0.205067783699399	-0.939497818558018	0	0
0	0	0.0172034252612382	0.0188429954897289	0	0	-0.35411311302367	0.879999120387041
0.205067783699399	-0.939497818558018	0	0	-0.0529784850097902	-0.000120441652769292	0	0
0	0	0.321267087953544	-0.856131067879476	0	0	0.0409801129794958	0.0136510250447409
1.4	0.00567268302668198	-0.000569430030697826	0	0	0.921440433889677	0.233859318050198	0	0
0	0	-0.0121884584485926	-0.0435371702917846	0	0	0.177978328757347	0.934385801904855
0.921440433889677	0.233859318050198	0	0	0.017666689275296	0.00735429662154929	0	0
0	0	0.895850374800763	-0.0827840743508666	0	0	0.0450078774965785	-0.00721732563264072
1.5	-0.00472751757231028	-0.0022188853465191	0	0	0.27177000701192	-0.91954218955843	0	0
0	0	-0.0372238569810596	-0.0558796544179771	0	0	-0.671483885590242	-0.674568474547617
0.27177000701192	-0.91954218955843	0	0	0.0333312801741093	-0.0332655507690314	0	0
0	0	-0.458715853627857	-0.765968410477369	0	0	0.0333136192895154	0.0510393974684829
1.6	0.00243884898519605	0.00355001144691746	0	0	0.934549472187536	0.296368969378804	0	0
0	0	-0.0354657446026252	-0.0189233706971452	0	0	-0.934092672598631	-0.185480670799111
0.934549472187536	0.296368969378804	0	0	-0.0510906765898384	-0.0277547386491001	0	0
0	0	0.497963399193395	-0.750892080053545	0	0	0.000780178486106359	0.0513528962828602
1.7	0.000840897170820756	-0.00341085618560746	0	0	0.291734603117518	-0.940621021824262	0	0
0	0	0.016080033805571	0.00702308458407882	0	0	0.883897036142958	-0.340417248934455
0.291734603117518	-0.940621021824262	0	0	-0.00134931070402571	0.00463756842568115	0	0
0	0	-0.898208432699212	-0.113426274095997	0	0	0.0397265001332745	-0.0308715720461431
1.8	-0.00397191931328673	0.00195482620918302	0	0	0.915490111097363	0.293147536022876	0	0
0	0	0.0456622030652653	0.0385852843129866	0	0	0.57484148674959	-0.74294162984817
0.915490111097363	0.293147536022876	0	0	0.00568857936674055	0.0647031252076036	0	0
0	0	-0.307039426633618	-0.848952874310177	0	0	0.0272599894678879	-0.0341831786902894
1.9	0.00597621732930328	0.000787496064511763	0	0	0.322499869942712	-0.892550765850229	0	0
0	0	0.052717349005337	-0.00343832967067406	0	0	-0.0862872582914743	0.940476053724498
0.322499869942712	-0.892550765850229	0	0	0.00923645431612101	0.00883543107816799	0	0
0	0	-0.616614625001455	0.643158275811123	0	0	0.0402934977149776	0.0235768680364904
2	-0.00624497453594646	-0.00460351960948345	0	0	0.889972062953577	0.352940762900926	0	0
0	0	0.0148559986671461	-0.00489485521832039	0	0	0.454599904496225	0.834364082850694
0.889972062953577	0.352940762900926	0	0	-0.0499053190685796	-0.0336459083266615	0	0
0	0	-0.843367384398711	-0.266576375044732	0	0	-0.0531288830494489	-0.0216721579535972
2.1	0.00472848606808356	0.00883393578259086	0	0	0.367546266001296	-0.897458749720859	0	0
0	0	-0.0295285841880592	0.00774433750161474	0	0	-0.829131218999078	-0.454736482836104
0.367546266001296	-0.897458749720859	0	0	0.0703767435148234	0.0167629851348436	0	0
0	0	0.132792258018026	0.880044683712012	0	0	-0.005286087182208	0.00953272056563678
2.2	-0.00129708814664944	-0.0126484110375937	0	0	0.898428208230648	0.379112406641742	0	0
0	0	-0.0485366523032851	0.0169556971052649	0	0	-0.933082239147557	0.0663668379229598
0.898428208230648	0.379112406641742	0	0	0.0145442186278832	-0.0109674029896601	0	0
0	0	-0.738944684609341	0.504655644581093	0	0	0.0424777196083471	-0.0112818654390171
2.3	-0.00361701665338635	0.0146524418024293	0	0	0.388260003117056	-0.889705323191331	0	0
0	0	-0.0307811577874965	0.0190176617901786	0	0	0.738478568869419	-0.554658361668981
0.388260003117056	-0.889705323191331	0	0	0.0579585257959067	-0.0288418196727937	0	0
0	0	0.776068656395162	0.434157728110436	0	0	0.0662979403032319	0.0466598859626222
2.4	0.00955857419821716	-0.0141710120350746	0	0	0.878379806903734	0.399520104354348	0	0
0	0	-0.000710325526167494	0.00077682992905987	0	0	0.325607795015551	-0.86826153016539
0.878379806903734	0.399520104354348	0	0	-0.097523506851811	0.0136533771269655	0	0
0	0	-0.040298926196592	0.883254668549143	0	0	0.0467316731198363	-0.0493175910584763
2.5	-0.0160314180097547	0.0109913532873521	0	0	0.4156507516617	-0.866722738967178	0	0
0	0	0.0193217758206936	-0.0361824639444359	0	0	0.189110242305475	0.918071790834068
0.4156507516617	-0.866722738967178	0	0	-0.010594604972996	-0.0270052836432838	0	0
0	0	0.805489670191457	-0.331952999283483	0	0	0.0118999659274591	-0.000717426806780727
2.6	0.0217747525527109	-0.00579215032694794	0	0	0.859385344945111	0.429032859151387	0	0
0	0	0.0182785370653142	-0.0387862924123413	0	0	0.667073582304724	0.653254714824066
0.859385344945111	0.429032859151387	0	0	0.00513978378194816	-0.0332611811407951	0	0
0	0	0.630478611232952	0.596950060418119	0	0	0.0618538944729709	0.0103100210477403
2.7	-0.0256261365391506	-0.000988498528637731	0	0	0.443090012277394	-0.852902548636616	0	0
0	0	0.0215331555909069	-0.00944562745495658	0	0	-0.896512893711575	-0.17362887082735
0.443090012277394	-0.852902548636616	0	0	0.00292735851580795	-0.0126713126014457	0	0
0	0	0.275206714455483	-0.834599565698038	0	0	-0.0278818716370681	-0.000547953994330892
2.8	0.0263287982520266	0.0086689264279906	0	0	0.841768079865052	0.456333212302	0	0
0	0	0.00977344411243959	0.01274538708985	0	0	-0.840412474313228	0.312096004205095
0.841768079865052	0.456333212302	0	0	0.00389787206796075	0.0638521374898015	0	0
0	0	0.869712480082265	-0.150041572421687	0	0	0.02552464150631	-0.0631282174823076
2.9	-0.023386680020008	-0.0164741440311565	0	0	0.472490878494653	-0.821836519956595	0	0
0	0	-0.000387946640252255	0.0366726677533332	0	0	0.565885223015278	-0.698515872384137
0.472490878494653	-0.821836519956595	0	0	-0.0534285096741795	0.0341188501843159	0	0
0	0	-0.513481267289209	-0.700772513647056	0	0	-0.0402412496364955	-0.0454402619545656
3	0.0177803237393688	0.0233859051781965	0	0	0.812156816983585	0.497011266713526	0	0
0	0	-0.0114498605981597	0.0295079300926949	0	0	0.0922883910346351	-0.916864627522968
0.812156816983585	0.497011266713526	0	0	-0.00690359532314601	-0.0173712890935676	0	0
0	0	0.405930063148744	-0.757557091282973	0	0	0.0131404097237588	0.0857212190347689
3.1	-0.00960003394840725	-0.0274558313303957	0	0	0.518359846678385	-0.801267512573777	0	0
0	0	-0.0208141091988282	0.0124277282107293	0	0	0.444655528565096	0.804325131521093
0.518359846678385	-0.801267512573777	0	0	0.0386295385221178	-0.0636408489335453	0	0
0	0	-0.865666799429035	-0.0517921001512247	0	0	-0.0748741854188873	0.00626173729536857
3.2	0.000165860119683757	0.0288688756580607	0	0	0.799080367402905	0.54317432932602	0	0
0	0	-0.0184508828237919	-0.00586151850299077	0	0	0.793274882965777	0.438105203980453
0.799080367402905	0.54317432932602	0	0	0.000527614023725446	0.0251958451236228	0	0
0	0	-0.333247770840044	-0.811805622242065	0	0	-0.0587299333403771	0.00670003912318978
3.3	0.00919453160098132	-0.0264594555094008	0	0	0.555612435319428	-0.794539907119571	0	0
0	0	-0.00186505417902674	-0.0237925313017922	0	0	-0.901552032506333	0.0457962139532953
0.555612435319428	-0.794539907119571	0	0	0.0613648648254598	0.0247841337544276	0	0
0	0	-0.575652694468575	0.670099968619227	0	0	-0.0260761765376908	-0.106172808908702
3.4	-0.0170211152533313	0.0205686717989972	0	0	0.7777203369255	0.561819264653345	0	0
0	0	-0.00486534751114951	-0.0406107983171856	0	0	-0.733550480991567	0.536929786854399
0.7777203369255	0.561819264653345	0	0	-0.114427287209062	0.00740102835666748	0	0
0	0	-0.852569600321067	-0.226558635970386	0	0	-0.0189203823935304	-0.0396880386578513
3.5	0.0223382385242686	-0.0128772427341115	0	0	0.577516219961984	-0.768628008269632	0	0
0	0	0.00760889170231889	-0.0305890626898872	0	0	0.302254376223814	-0.864834868753385
0.577516219961984	-0.768628008269632	0	0	-0.0114427276907416	-0.0535554091050628	0	0
0	0	0.16163014612539	0.842200826025698	0	0	0.0854702621817305	-0.0710596183791398
3.6	-0.0242138582487874	0.00404168999566221	0	0	0.76216096143239	0.588620256420758	0	0
0	0	0.0194418172755555	0.00195719582896492	0	0	-0.203061824212871	-0.894662480292371
0.76216096143239	0.588620256420758	0	0	-0.0352067101954822	0.0598843832392484	0	0
0	0	-0.695560423316163	0.514805090674634	0	0	0.0450117162800041	-0.0308410634725296
3.7	0.0222670247332304	0.00545506404277592	0	0	0.608350786928056	-0.742646569261822	0	0
0	0	0.0139691813644161	0.0357067247410639	0	0	0.634589402610495	0.653501718999048
0.608350786928056	-0.742646569261822	0	0	0.11828191321611	0.00916008566360353	0	0
0	0	0.767587739500453	0.415095753303686	0	0	0.0556750680843447	-0.0182035280638947
3.8	-0.0174520530418177	-0.0132782028248234	0	0	0.737341870878445	0.628065116486047	0	0
0	0	0.0153475135870571	0.0500329095189811	0	0	0.870877238241545	0.193100210163043
0.737341870878445	0.628065116486047	0	0	-0.025761236825849	0.0205662924953958	0	0
0	0	-0.0222665468572049	0.872369529866333	0	0	-0.0581325944012076	-0.0261382594050823
3.9	0.0104955953965236	0.0179052161585335	0	0	0.633336204044135	-0.737888756477384	0	0
0	0	0.0112357512428542	0.0153397177151901	0	0	-0.828509312977003	0.322851140992639
0.633336204044135	-0.737888756477384	0	0	-0.0146147610771732	0.0836743512814538	0	0
0	0	0.787579320041751	-0.381165635637874	0	0	0.0250761470332268	-0.00531368402448833
4	-0.00174766488284075	-0.0191219356487221	0	0	0.721315343888613	0.641750428523309	0	0
0	0	-0.0166434081196052	-0.0122966257728524	0	0	-0.522297485334892	0.724490156462764
0.721315343888613	0.641750428523309	0	0	0.0524389117548257	-0.0743204911261723	0	0
0	0	0.683767259329874	0.522005747693688	0	0	-0.00481200352228403	0.00964489560539372
4.1	-0.0064461655556385	0.0170282021194148	0	0	0.647117951763378	-0.709704521461329	0	0
0	0	-0.0415257218129957	-0.0351487472169954	0	0	0.0593380086505693	-0.895915250634302
0.647117951763378	-0.709704521461329	0	0	0.0264899430862317	-0.112884909349136	0	0
0	0	0.188538541812968	-0.831444889769276	0	0	0.0259132216344428	0.0830036689927364
4.2	0.0129674815718945	-0.0123613663420289	0	0	0.706100827984877	0.658032411513273	0	0
0	0	-0.0489669915297976	-0.0150154777333657	0	0	-0.433225784671105	-0.786281882094648
0.706100827984877	0.658032411513273	0	0	-0.0406905407028813	0.0162805796386158	0	0
0	0	0.836541249528914	-0.182988765432653	0	0	-0.0115643369197522	-0.04192575323126
4.3	-0.0165872374676991	0.00539496316032034	0	0	0.665912238573633	-0.700521788235107	0	0
0	0	-0.00752675300679123	0.00710175301427979	0	0	0.781844621446844	0.427576256220205
0.665912238573633	-0.700521788235107	0	0	-0.0114902863359086	0.0681404694304375	0	0
0	0	-0.5362536668953	-0.678133685333937	0	0	-0.0146306836706711	0.0023402353201901
4.4	0.0166386431469547	0.00300479803975381	0	0	0.684180436496207	0.67435775811641	0	0
0	0	0.0378608429035134	0.00453153921255744	0	0	0.892833401329541	-0.0536759707816687
0.684180436496207	0.67435775811641	0	0	0.00129035572225428	-0.050719635785011	0	0
0	0	0.347989819277888	-0.776139931817446	0	0	-0.034125841989627	0.00332314232077144
4.5	-0.0132246900245764	-0.0106679013103292	0	0	0.679798829226737	-0.666272336218907	0	0
0	0	0.0644322400885713	-0.00457956756917242	0	0	-0.725243724307042	0.526113527523862
0.679798829226737	-0.666272336218907	0	0	-0.0504431306504947	0.0269640892161531	0	0
0	0	-0.839072979318682	0.0119812988472522	0	0	-0.0870424717244411	0.0628722590242765
4.6	0.00700678932834881	0.0163838777021037	0	0	0.648231685946511	0.693440983109349	0	0
0	0	0.0464267888295304	-0.0252519332420213	0	0	-0.313042251910809	0.847959589153019
0.648231685946511	0.693440983109349	0	0	-0.00391656000859904	0.0141415105044226	0	0
0	0	-0.374192656933806	-0.746965404580811	0	0	-0.0810751629077093	-0.00920004199152531
4.7	0.000870179208423434	-0.0189334025788966	0	0	0.709781875810455	-0.641046875233363	0	0
0	0	-0.0246459780546477	-0.00579710838341286	0	0	-0.193205715865436	-0.875997080518056
0.709781875810455	-0.641046875233363	0	0	0.066014607102318	-0.0178556494201864	0	0
0	0	-0.524567587085568	0.658477871456684	0	0	-0.0734930042542457	0.0733652833180858
4.8	-0.00938790382484078	0.0179184199811276	0	0	0.640499002443273	0.725022771554898	0	0
0	0	-0.0585999364018071	0.0338235481808898	0	0	-0.6094247121187	-0.634766697027729
0.640499002443273	0.725022771554898	0	0	0.0532969646040062	-0.0185759787145125	0	0
0	0	-0.829503340081383	-0.195851275877289	0	0	-0.00895123691123217	0.0725564551553568
4.9	0.016949184182732	-0.0127549879645521	0	0	0.730579539033771	-0.631408140387545	0	0
0	0	-0.0396161618159943	0.0582215979127104	0	0	0.855395148758299	0.205700886241115
0.730579539033771	-0.631408140387545	0	0	-0.0808721648268409	-0.0287118384462099	0	0
0	0	0.200664298125692	0.821580225780434	0	0	-0.0836588224361381	0.00457135200525511
5	-0.0215827069322749	0.00466230894414756	0	0	0.619311375396559	0.725902576264678	0	0
0	0	-0.000137103898163851	0.0200540782674881	0	0	0.830554588591014	-0.299209319367562
0.619311375396559	0.725902576264678	0	0	-0.0473847558602774	0.0408182034813511	0	0
0	0	-0.644463770649071	0.534519980863425	0	0	0.0414934510451156	-0.00879019664629772
5.1	0.0229833815085982	0.00532294639404888	0	0	0.727400542736704	-0.605557623109163	0	0
0	0	0.0386442146399283	-0.0336849895362204	0	0	-0.532763320504206	0.695013194021345
0.727400542736704	-0.605557623109163	0	0	-0.0214716641614422	-0.0414099201712084	0	0
0	0	0.749347703278133	0.344470905510851	0	0	0.0725257315905775	-0.0193184117096015
5.2	-0.0205922951979573	-0.0165398920618055	0	0	0.582321013405962	0.745693183342056	0	0
0	0	0.016224944667831	-0.0744461398035778	0	0	-0.0796332121471061	0.870691346043739
0.582321013405962	0.745693183342056	0	0	0.0382662361496815	0.0224250202562519	0	0
0	0	0.0142321190828559	0.831458203026617	0	0	0.0267117099635636	0.0666251284635469
5.3	0.0144474221392324	0.0262265397477156	0	0	0.765238740366675	-0.569409125660862	0	0
0	0	-0.0141254550234235	-0.041385948803271	0	0	-0.409766484649777	-0.771378142335264
0.765238740366675	-0.569409125660862	0	0	-0.0320715416282487	0.0244193239188947	0	0
0	0	0.743299066860907	-0.37192156232091	0	0	-0.0431241825183247	0.0118588271730232
5.4	-0.0054731652646629	-0.0321687863655444	0	0	0.560692505471811	0.771500131119007	0	0
0	0	-0.031357608118015	0.0146502676004809	0	0	-0.765268986169828	-0.431312864469853
0.560692505471811	0.771500131119007	0	0	0.0697890603335513	0.0881791704468304	0	0
0	0	0.655096869952572	0.51244697635101	0	0	-0.00937403053472426	0.0218502888994224
5.5	-0.00542214171814488	0.0344433838297957	0	0	0.783896868211532	-0.557637001373396	0	0
0	0	0.023080992845421	0.0601680533577175	0	0	0.878284954605242	-0.0398350563751681
0.783896868211532	-0.557637001373396	0	0	-0.00621388975866702	-0.0278343454377016	0	0
0	0	0.162163171841015	-0.816573403342351	0	0	0.0214051858102587	0.0388670698167905
5.6	0.0171529379620571	-0.0318388859958844	0	0	0.543686041886804	0.791057454528309	0	0
0	0	0.0421352979143636	0.0568154842323818	0	0	0.702876317176439	-0.505330905417107
0.543686041886804	0.791057454528309	0	0	0.00342200068703901	-0.110027292759171	0	0
0	0	0.802890045827879	-0.197700835864144	0	0	0.00978686411561008	0.11835143506026
5.7	-0.0280381181824437	0.0254112314132795	0	0	0.805891588904683	-0.536139955005497	0	0
0	0	0.0203575185151837	-0.00681836581821867	0	0	-0.324459258684023	0.808655808563647
0.805891588904683	-0.536139955005497	0	0	-0.0127524404852581	0.0518797619821535	0	0
0	0	-0.534036502677648	-0.655046628773472	0	0	0.0587663479296825	0.0358607048182869
5.8	0.0347722445457019	-0.0150718051085579	0	0	0.519824599301213	0.807056109875283	0	0
0	0	-0.0222734746470486	-0.0312554895741136	0	0	0.151068151639887	0.859784326353987
0.519824599301213	0.807056109875283	0	0	0.0602310714860471	-0.0270044629149509	0	0
0	0	0.33083220870058	-0.773604501579592	0	0	0.0339434512657523	0.0569248143452494
5.9	-0.0376138277113485	0.002022948814853	0	0	0.822046162372651	-0.498059461547228	0	0
0	0	-0.0562795512252135	-0.0267457850120177	0	0	-0.586616720406007	-0.645946030639546
0.822046162372651	-0.498059461547228	0	0	-0.0750738386059859	0.0431026083715769	0	0
0	0	-0.833955335321957	0.055819419590287	0	0	0.0376687332124361	0.0741762005977645
6	0.0360150174331674	0.0110869713080618	0	0	0.483818511623203	0.836045139494521	0	0
0	0	-0.0339930781970532	0.00583514478527675	0	0	-0.855382508270053	-0.199913044206678
