# GHZ S RI R 50
0.2	-0.00583539846108256	0.00667923262702882	0	0	0.958255841923184	0.0577111520744782	0	0
0	0	0.0236819830563487	0.00277774233443786	0	0	-0.3701099038372	0.911277199347333
0.958255841923184	0.0577111520744782	0	0	0.0210269590491933	0.0478649722338582	0	0
0	0	0.569364472178437	-0.754263732884184	0	0	0.00139539022256704	-0.0259591044556279
0.3	0.00720968047996957	-0.00837164557437868	0	0	0.0329262247012451	-0.965371676529545	0	0
0	0	-0.00371653044136554	0.00127795278998079	0	0	-0.134827112981389	-0.97427315959298
0.0329262247012451	-0.965371676529545	0	0	-0.0126822330997929	0.00821416631697824	0	0
0	0	-0.92229739287614	-0.201656130793371	0	0	-0.0313096032753797	-0.0136704418670459
0.4	-0.00856826697743762	0.00786787204269827	0	0	0.948656241321542	0.0610912414089104	0	0
0	0	-0.0395081217350226	0.00101390051749831	0	0	-0.667847283599444	-0.725168581747666
0.948656241321542	0.0610912414089104	0	0	-0.0324926587295031	-0.011963945710426	0	0
0	0	-0.236043171318933	-0.895617576237164	0	0	0.023276242874269	0.0216657456446934
0.5	0.00993205042884479	-0.00517685187511214	0	0	0.126531651065995	-0.948857280754861	0	0
0	0	-0.0344019949046014	0.00519357037846034	0	0	0.964055921801731	0.205911458292959
0.126531651065995	-0.948857280754861	0	0	0.0380832109917382	0.0172215603140795	0	0
0	0	-0.677729698448138	0.637361477665025	0	0	0.00640301146683424	0.00833653756707498
0.6	-0.00972287266859272	0.00194561505150626	0	0	0.954637063888081	0.129737266516845	0	0
0	0	-0.0106488556112864	0.00621583320988422	0	0	0.911654090826723	-0.330647684555183
0.954637063888081	0.129737266516845	0	0	0.00553138192302292	-0.019557432566497	0	0
0	0	-0.861937049601914	-0.343353147142054	0	0	-0.00473766779934442	-0.00701117865993844
0.7	0.00915806384861783	0.00171546190110382	0	0	0.107403634425747	-0.956829576114041	0	0
0	0	0.0200563846934575	-0.0113385240900436	0	0	-0.609353632781586	0.748583294328642
0.107403634425747	-0.956829576114041	0	0	0.0081333766287898	0.0099652649693485	0	0
0	0	0.0473050991367013	0.919359000271305	0	0	0.00229972035858138	-0.0127433878715755
0.8	-0.00845435792183803	-0.00559509365656097	0	0	0.953812984857899	0.112125302925355	0	0
0	0	0.0418999068172117	-0.0425269329930719	0	0	-0.11897337516891	0.959808586495297
0.953812984857899	0.112125302925355	0	0	-0.0226639052035309	0.0133345604266703	0	0
0	0	-0.809904572943698	0.449194716910789	0	0	0.00667665710134402	0.0836614758984255
0.9	0.00651813564750358	0.00840473094032558	0	0	0.143525622921475	-0.938271996608126	0	0
0	0	0.0116327225917764	-0.028494283942173	0	0	-0.434948537424588	-0.86394509333339
0.143525622921475	-0.938271996608126	0	0	-0.00227863581729737	-0.0605778985787427	0	0
0	0	0.763497769630087	0.523129462805039	0	0	0.0361275769809712	0.0145936478585758
1	-0.00381262520748942	-0.0095593198436459	0	0	0.940941408331246	0.180392271578725	0	0
0	0	-0.015043611840352	0.0112145782629082	0	0	-0.837109901858198	-0.479512417199206
0.940941408331246	0.180392271578725	0	0	0.0031842620420716	0.0431643594458101	0	0
0	0	-0.12511441945845	0.900859746537841	0	0	0.00359560637000443	0.00329012597426296
1.1	0.000587526465070124	0.00864601699774286	0	0	0.200545043610983	-0.947550885028504	0	0
0	0	-0.011357775913282	0.034769411605691	0	0	0.954236691626206	-0.0514972372963213
0.200545043610983	-0.947550885028504	0	0	0.00449163208761973	0.00308134003725566	0	0
0	0	0.866913455090518	-0.260235609424029	0	0	0.0096736708768051	0.0440503709869599
1.2	0.00257825569548941	-0.00630828110631325	0	0	0.957046509114869	0.202086613877785	0	0
0	0	0.00960581341704696	0.0648322744915457	0	0	0.769326096673899	-0.553451614399423
0.957046509114869	0.202086613877785	0	0	0.0548978178451387	0.000352278176505384	0	0
0	0	0.612521830242683	0.669937690371745	0	0	0.00840637767785609	0.100205424804646
1.3	-0.00502450519750856	0.00298433849438118	0	0	0.205156592620798	-0.94061600094248	0	0
0	0	0.0172589576298197	0.0198114913786225	0	0	-0.354675683984586	0.881149075105673
0.205156592620798	-0.94061600094248	0	0	-0.052195056589128	0.000881225718693642	0	0
0	0	0.321783116095485	-0.85725210168051	0	0	0.0417123080480529	0.0150084461815307
1.4	0.00587733782922792	0.000670680009204394	0	0	0.922572801545749	0.233883057160252	0	0
0	0	-0.0125094199302144	-0.042473188046951	0	0	0.178358834443553	0.935682779477785
0.922572801545749	0.233883057160252	0	0	0.018794279832521	0.00814768495138575	0	0
0	0	0.897105972373538	-0.0830246346124658	0	0	0.0459703263924181	-0.00607119072599009
1.5	-0.00510024927715177	-0.00359942243788483	0	0	0.271650792046462	-0.920723239365367	0	0
0	0	-0.0379614676625869	-0.0548796168509785	0	0	-0.672590176727589	-0.675288027133384
0.271650792046462	-0.920723239365367	0	0	0.0345466997070923	-0.0328207516817981	0	0
0	0	-0.459560222965303	-0.766873673160816	0	0	0.0344301781308979	0.0521300030141795
1.6	0.00317170134364688	0.00497964467662885	0	0	0.935586380657645	0.296013331367459	0	0
0	0	-0.0365248035248135	-0.0180959738385961	0	0	-0.935359616214587	-0.185230977106071
0.935586380657645	0.296013331367459	0	0	-0.0500467322720609	-0.02753842178081	0	0
0	0	0.498200085202561	-0.752090651627339	0	0	0.00194831041614655	0.0521211739697936
1.7	-0.000247767410568525	-0.00452012799623038	0	0	0.291355895300052	-0.941579268304597	0	0
0	0	0.0149011697902423	0.00755507602295692	0	0	0.884645693707117	-0.341555302289184
0.291355895300052	-0.941579268304597	0	0	-0.000341225577973355	0.00449034905451403	0	0
0	0	-0.899353766530359	-0.11280697086587	0	0	0.0408341713355626	-0.0307698745330951
1.8	-0.00293113453058458	0.00260339840581965	0	0	0.916310756214061	0.292782719642052	0	0
0	0	0.0446106873380572	0.0387399233784778	0	0	0.574675204038136	-0.744178946530769
0.916310756214061	0.292782719642052	0	0	0.0064768426772988	0.0644038639993014	0	0
0	0	-0.308129179950397	-0.849454842100698	0	0	0.0280979780480896	-0.0343892939015359
1.9	0.00524668434231236	0.000341475596041474	0	0	0.32203518825079	-0.893273065569431	0	0
0	0	0.0519911790088849	-0.00365942085491714	0	0	-0.0854991277669229	0.941270403890385
0.32203518825079	-0.893273065569431	0	0	0.00965158349253831	0.00842933358434105	0	0
0	0	-0.616500172773787	0.64420773356959	0	0	0.040960159552382	0.023312473811226
2	-0.0058110593211203	-0.00408433936387302	0	0	0.890542290684515	0.35241591378033	0	0
0	0	0.0145638899111501	-0.00540856478649329	0	0	0.455540616852422	0.834412296268728
0.890542290684515	0.35241591378033	0	0	-0.0497742916821392	-0.0338885340978014	0	0
0	0	-0.844029731135825	-0.266001792834832	0	0	-0.0528766440065791	-0.0217895149937177
2.1	0.0043685463340476	0.00807714488105511	0	0	0.367140792677042	-0.897937318509996	0	0
0	0	-0.0293621584862376	0.00705575329395119	0	0	-0.829842789567504	-0.454338945708835
0.367140792677042	-0.897937318509996	0	0	0.0706428235626355	0.0165150030905517	0	0
0	0	0.133495840394897	0.880350400666317	0	0	-0.00498704800157674	0.00947941666856163
2.2	-0.000750362497994641	-0.0117539609851822	0	0	0.898762705010846	0.378762925052206	0	0
0	0	-0.0480107894273934	0.0162630736501004	0	0	-0.933466552687826	0.0670024458134814
0.898762705010846	0.378762925052206	0	0	0.01484053778791	-0.0111629353250022	0	0
0	0	-0.738955800663658	0.505366072138847	0	0	0.0428876649534578	-0.0113721413693898
2.3	-0.00438055567912952	0.0139321553849984	0	0	0.388071753318895	-0.890026623680683	0	0
0	0	-0.0301113519459698	0.0184718265225285	0	0	0.738568014109207	-0.555310284177426
0.388071753318895	-0.890026623680683	0	0	0.0583266755559091	-0.0292210121798612	0	0
0	0	0.77667752363554	0.433982516555988	0	0	0.0669351125444188	0.0464937290093193
2.4	0.0102688688559868	-0.0138109952703822	0	0	0.878575364769615	0.399525053378642	0	0
0	0	-0.000113541784456625	0.000474056311072925	0	0	0.325371404527351	-0.868802697267334
0.878575364769615	0.399525053378642	0	0	-0.0972757494406687	0.0131160841732736	0	0
0	0	-0.0399255216002981	0.883676121298253	0	0	0.0473132043991491	-0.049788407751699
2.5	-0.0164038342368804	0.0108679447582064	0	0	0.415784352759575	-0.867091130902599	0	0
0	0	0.0196647921026988	-0.0362072469059802	0	0	0.189477969597159	0.918549364511443
0.415784352759575	-0.867091130902599	0	0	-0.0105202118346196	-0.0277528573344638	0	0
0	0	0.805861949745723	-0.332371627402811	0	0	0.0123987002520115	-0.00136649172790638
2.6	0.0217623481562443	-0.00561511007705588	0	0	0.859904443623705	0.429275173092833	0	0
0	0	0.0182784277104916	-0.0386170717762125	0	0	0.667725929945513	0.653615636642791
0.859904443623705	0.429275173092833	0	0	0.00500133755235337	-0.0340649692012222	0	0
0	0	0.63109081892965	0.597275429163049	0	0	0.062256476250838	0.00950173675409331
2.7	-0.0254176245903217	-0.00137314828844967	0	0	0.443397374755725	-0.853591597768179	0	0
0	0	0.0212337316240768	-0.00923847292898023	0	0	-0.897414260569994	-0.17357899187946
0.443397374755725	-0.853591597768179	0	0	0.00262614729494336	-0.0134005353479589	0	0
0	0	0.275269156241101	-0.835466088781369	0	0	-0.0278015299980904	-0.00137226922628437
2.8	0.0260570381504452	0.00918322692532293	0	0	0.842617534800043	0.456655167953872	0	0
0	0	0.0092992714417282	0.0128019799062304	0	0	-0.841309693778347	0.312773736213362
0.842617534800043	0.456655167953872	0	0	0.00353020449144481	0.0633552280759966	0	0
0	0	0.870703285188523	-0.150535170396162	0	0	0.0255531727222374	-0.0641030880892118
2.9	-0.0229942605470785	-0.0170504347523888	0	0	0.47270975416592	-0.822924086094407	0	0
0	0	-0.000888575616397773	0.0363950542104511	0	0	0.566278265513592	-0.699742059665214
0.47270975416592	-0.822924086094407	0	0	-0.0539644785971015	0.0337452635724862	0	0
0	0	-0.514530413154396	-0.701441649733548	0	0	-0.0404951649288827	-0.0462451843755034
3	0.0172166233932645	0.0241576891401895	0	0	0.813497622063098	0.497135847536976	0	0
0	0	-0.0118582993683613	0.0288393164541246	0	0	0.0918850807424009	-0.918271944923133
0.813497622063098	0.497135847536976	0	0	-0.00738951696859684	-0.0177348674586746	0	0
0	0	0.406083332004275	-0.758913871721627	0	0	0.0130915656722299	0.0853707011204269
3.1	-0.0090052355668926	-0.02853756091786	0	0	0.518348934410373	-0.802839273244319	0	0
0	0	-0.0210128401451798	0.0114399266651288	0	0	0.446093296986609	0.805125474241305
0.518348934410373	-0.802839273244319	0	0	0.0382141156536269	-0.0640294259740773	0	0
0	0	-0.867030848332058	-0.0510503042652441	0	0	-0.0753522279957307	0.00603079316030238
3.2	-0.000269702024248362	0.0302235590730702	0	0	0.800675797971758	0.542916433075849	0	0
0	0	-0.018316830105738	-0.0069856817640298	0	0	0.795056308406447	0.437816286983717
0.800675797971758	0.542916433075849	0	0	0.00031552702747	0.0252401978680789	0	0
0	0	-0.334767927139735	-0.812667746927529	0	0	-0.0591335909898134	0.00667141409913385
3.3	0.00936434221043416	-0.027855461796049	0	0	0.555182251167649	-0.7962747515322	0	0
0	0	-0.00139359012630638	-0.0248092640639027	0	0	-0.902842852045764	0.0473971153956678
0.555182251167649	-0.7962747515322	0	0	0.0614682439028522	0.0247063278642938	0	0
0	0	-0.575388334590608	0.672095026007687	0	0	-0.0266348488618809	-0.106460230108984
3.4	-0.0170646426592188	0.0218096843601316	0	0	0.7793829674457	0.560901153297367	0	0
0	0	-0.00410181939131553	-0.0412912263807271	0	0	-0.733553995236456	0.539066077314277
0.7793829674457	0.560901153297367	0	0	-0.114596538571886	0.00783633517689697	0	0
0	0	-0.854184739657654	-0.225259033930503	0	0	-0.0191324906382608	-0.0397067599077394
3.5	0.0224380285323079	-0.0140412210944744	0	0	0.576367458064955	-0.770415056569471	0	0
0	0	0.00853319307267564	-0.030794761743432	0	0	0.300725181433993	-0.8666104135265
0.576367458064955	-0.770415056569471	0	0	-0.0116064706770989	-0.0536274644324109	0	0
0	0	0.16370244861048	0.842919852078724	0	0	0.0854590510910672	-0.0715955003238266
3.6	-0.0243439597332143	0.00528439921221827	0	0	0.763708788338636	0.587216401130355	0	0
0	0	0.0204003149288187	0.00228298488085166	0	0	-0.205372577497983	-0.895063049758659
0.763708788338636	0.587216401130355	0	0	-0.0349208954047914	0.0600114828002783	0	0
0	0	-0.695029613297082	0.516952572017323	0	0	0.0450459383188336	-0.0311422203060011
3.7	0.0223023114214186	0.00412059112675653	0	0	0.606860738106605	-0.74421668391674	0	0
0	0	0.0147511487277874	0.0364655824844407	0	0	0.636661009079113	0.652342762472329
0.606860738106605	-0.74421668391674	0	0	0.11837526804613	0.00856071543786141	0	0
0	0	0.769148383862194	0.413441818425822	0	0	0.0557061034370057	-0.018567311649967
3.8	-0.0172587658227631	-0.0120030844748235	0	0	0.738589800227499	0.626245064139	0	0
0	0	0.0158353524338614	0.0509269093812132	0	0	0.871486322485698	0.190948846635573
0.738589800227499	0.626245064139	0	0	-0.0257036804811759	0.0206490850372384	0	0
0	0	-0.0200867575476437	0.872551337579046	0	0	-0.0583039169131735	-0.0259212412862796
3.9	0.0101770746994446	0.016924589159354	0	0	0.631432396766046	-0.738891552091516	0	0
0	0	0.0113709594813429	0.0161487143921624	0	0	-0.827554625852758	0.324852075845893
0.631432396766046	-0.738891552091516	0	0	-0.0143176368352391	0.0836877648478937	0	0
0	0	0.786487135435905	-0.383054104491853	0	0	0.0249500874191489	-0.0054811887201429
4	-0.00160301312073178	-0.0184202628579328	0	0	0.722207769455655	0.639672241532032	0	0
0	0	-0.0168871247286353	-0.0117570053982497	0	0	-0.520382175854796	0.725264706242121
0.722207769455655	0.639672241532032	0	0	0.0519388737550813	-0.0743488685450306	0	0
0	0	0.684563575920268	0.520182091956373	0	0	-0.00490635659985455	0.00965101434903555
4.1	-0.00635251769301931	0.0163733886484007	0	0	0.644992723575651	-0.71032710075363	0	0
0	0	-0.0420597116840469	-0.034987459735299	0	0	0.0575642674460792	-0.895363794987372
0.644992723575651	-0.71032710075363	0	0	0.0259130410816229	-0.112631841923348	0	0
0	0	0.186793219331552	-0.831190791671775	0	0	0.0260435790563241	0.0828244932297635
4.2	0.0127972156855673	-0.0116071521266077	0	0	0.706327447351661	0.655958167655208	0	0
0	0	-0.0495768596194315	-0.0152101489938838	0	0	-0.434158190055688	-0.78479636175394
0.706327447351661	0.655958167655208	0	0	-0.0405279707351795	0.0165012632105668	0	0
0	0	0.835435539463205	-0.184244274638835	0	0	-0.0117847748006443	-0.0417155478210174
4.3	-0.0165052369008678	0.00466673462287708	0	0	0.664061876146566	-0.70048670597591	0	0
0	0	-0.00798762492892949	0.0066892632713641	0	0	0.78166729153162	0.426046989854137
0.664061876146566	-0.70048670597591	0	0	-0.0112349286937505	0.0680143726993794	0	0
0	0	-0.536674770100869	-0.676700687282196	0	0	-0.0145980008258111	0.0024172795013706
4.4	0.0165420368203272	0.00351918886147331	0	0	0.68410582054928	0.672719200021871	0	0
0	0	0.0377217300085089	0.00408161895048984	0	0	0.891869252501198	-0.0546375308318744
0.68410582054928	0.672719200021871	0	0	0.00119738190410673	-0.0506890056948677	0	0
0	0	0.346754757005008	-0.775750824360821	0	0	-0.0339566587359026	0.00333526197780842
4.5	-0.0129080941773031	-0.0109823831417325	0	0	0.678394519651225	-0.666168271008425	0	0
0	0	0.0646884578358465	-0.00489190477618092	0	0	-0.724099305268181	0.526229568356151
0.678394519651225	-0.666168271008425	0	0	-0.0503481965084348	0.0267949027891537	0	0
0	0	-0.838259036164347	0.0126871051655129	0	0	-0.0866452946126634	0.0626834224557364
4.6	0.00638071326321756	0.0167071025739311	0	0	0.648214345456806	0.692236142033259	0	0
0	0	0.0470064181221353	-0.0253045983286087	0	0	-0.312177975372005	0.847492788977738
0.648214345456806	0.692236142033259	0	0	-0.00409192031266066	0.0138647882081184	0	0
0	0	-0.374423886231689	-0.746087445215861	0	0	-0.0808814331423875	-0.0094453076096999
4.7	0.00169234325815526	-0.0194339559361829	0	0	0.708781113908827	-0.641165456587058	0	0
0	0	-0.0239369659598541	-0.00550627169018335	0	0	-0.193563024871902	-0.875356690238547
0.708781113908827	-0.641165456587058	0	0	0.0655334542164604	-0.0181662741999263	0	0
0	0	-0.523889526310427	0.658360011597745	0	0	-0.0733724851046533	0.0728758571371376
4.8	-0.0102142575945466	0.018582452030349	0	0	0.640792758832346	0.724110579201455	0	0
0	0	-0.0580404468118236	0.0344307005739117	0	0	-0.60957668368372	-0.634199423845507
0.640792758832346	0.724110579201455	0	0	0.0527449066837336	-0.0188046736631104	0	0
0	0	-0.829328650219351	-0.195309939327002	0	0	-0.00902553981912999	0.0719820536530856
4.9	0.0177505142193241	-0.0134116575114345	0	0	0.729562359667534	-0.631937227958392	0	0
0	0	-0.0394068447700862	0.0590027907512482	0	0	0.855282671388885	0.205034087246253
0.729562359667534	-0.631937227958392	0	0	-0.0813757624227865	-0.0285764349148187	0	0
0	0	0.201184665813854	0.82119063737496	0	0	-0.0838904790255696	0.00417114516428977
5	-0.0224693280203375	0.00530282277326138	0	0	0.619993696978993	0.724850449351372	0	0
0	0	-0.000394350293984556	0.0208774363699642	0	0	0.830238367322467	-0.299911496281475
0.619993696978993	0.724850449351372	0	0	-0.0477722483199048	0.0409518135986456	0	0
0	0	-0.643955441010263	0.535044447243832	0	0	0.0410948742409163	-0.00932611546770114
5.1	0.0239648105484091	0.00453789037883547	0	0	0.726213588211603	-0.606522508048534	0	0
0	0	0.0379591557883661	-0.0329902119635314	0	0	-0.532053252700905	0.695619364222786
0.726213588211603	-0.606522508048534	0	0	-0.0220818638966188	-0.0411545731805736	0	0
0	0	0.749756456196405	0.343692433608961	0	0	0.0720217612482352	-0.0198361975829039
5.2	-0.0215135970210967	-0.0155778741277966	0	0	0.583345296940094	0.744392503278597	0	0
0	0	0.0152720604326584	-0.0740164270931457	0	0	-0.0786135401710594	0.870848969376014
0.583345296940094	0.744392503278597	0	0	0.0379070145006107	0.022555294183653	0	0
0	0	0.0152124631040276	0.831502394546536	0	0	0.0263521330485534	0.0663574924239047
5.3	0.0151528919000402	0.0252325504763332	0	0	0.76362877016577	-0.570506612423134	0	0
0	0	-0.0150771913189887	-0.0413192763320788	0	0	-0.410841580933544	-0.770670464000587
0.76362877016577	-0.570506612423134	0	0	-0.0321852698597801	0.0248595457374634	0	0
0	0	0.742650787591523	-0.372960689957807	0	0	-0.0435751378065752	0.0119594436977012
5.4	-0.00602122682822018	-0.0313769643333401	0	0	0.561819493646603	0.76977710181631	0	0
0	0	-0.0320637267113464	0.0143168435022353	0	0	-0.76576157793985	-0.429854373030765
0.561819493646603	0.76977710181631	0	0	0.0699477292653071	0.0880730107167312	0	0
0	0	0.655765145207787	0.511151664829005	0	0	-0.00967969320004701	0.0219680782462256
5.5	-0.00476695993526105	0.0338629805244029	0	0	0.781765193061459	-0.558875127232574	0	0
0	0	0.0227993332825376	0.0595209365206241	0	0	0.877673003632781	-0.04144454676341
0.781765193061459	-0.558875127232574	0	0	-0.00635100202793306	-0.0275087352701438	0	0
0	0	0.160544784290322	-0.816375023219062	0	0	0.0212593517295056	0.038851582386795
5.6	0.0162629993947842	-0.0312757425249883	0	0	0.544969647206494	0.788615347132077	0	0
0	0	0.0423383460314723	0.0560320522823295	0	0	0.701315408205315	-0.506132749048863
0.544969647206494	0.788615347132077	0	0	0.00280909395349931	-0.109564972425824	0	0
0	0	0.8017919478102	-0.198967206756317	0	0	0.00998546210495858	0.118124400694062
5.7	-0.0270181261281731	0.0246159177585281	0	0	0.803063602466047	-0.537069037150957	0	0
0	0	0.021002718049881	-0.00757437196784403	0	0	-0.322525334051726	0.808259793427733
0.803063602466047	-0.537069037150957	0	0	-0.0125703059935959	0.0519445680504285	0	0
0	0	-0.534608329165572	-0.65321923924857	0	0	0.0584775911822073	0.0355055809414657
5.8	0.0339605420240571	-0.0140749743491102	0	0	0.520589644060891	0.804041701979858	0	0
0	0	-0.0214258124189902	-0.0317965421773492	0	0	0.152348309281658	0.858127270105165
0.520589644060891	0.804041701979858	0	0	0.0596527943692074	-0.0267981583940337	0	0
0	0	0.328926179772887	-0.772941022901856	0	0	0.0335574447581255	0.0566082199022897
5.9	-0.0371262420410202	0.00109415686844538	0	0	0.818734795313709	-0.498367831931057	0	0
0	0	-0.0554703605397765	-0.0269574447885258	0	0	-0.586478985252126	-0.643724196964993
0.818734795313709	-0.498367831931057	0	0	-0.0745882508298853	0.0437773140788719	0	0
0	0	-0.832205783272284	0.0570384533345553	0	0	0.0370792472548459	0.07395148269715
6	0.0357268222674123	0.0116877865890434	0	0	0.483832877296615	0.8326761685294	0	0
0	0	-0.0334350124866993	0.00596823276457712	0	0	-0.853542327919675	-0.198402531845268
0.483832877296615	0.8326761685294	0	0	-0.00309733504227655	0.024589202553083	0	0
