# GHZ S RI R 50
0.2	-0.00521106042630615	0.0061972939533551	0	0	0.958293632245989	0.0577273463967328	0	0
0	0	0.0244521512243392	0.00297682989230133	0	0	-0.370085373308856	0.911268923648723
0.958293632245989	0.0577273463967328	0	0	0.0202487770133194	0.0486557546954193	0	0
0	0	0.569339649402112	-0.754262128099939	0	0	0.000615047866399392	-0.0251713506024861
0.3	0.00700892973343481	-0.00801040708573292	0	0	0.0329297991769459	-0.965369172415903	0	0
0	0	-0.00335839712634725	0.00148024848031288	0	0	-0.134818583445378	-0.974258061321318
0.0329297991769459	-0.965369172415903	0	0	-0.0130369807052561	0.00910051827686035	0	0
0	0	-0.922280964302509	-0.201658806728928	0	0	-0.0316659846065419	-0.0127848254937205
0.4	-0.00852917338435425	0.00790528701768474	0	0	0.948650276440537	0.0610876543192991	0	0
0	0	-0.0395590819470218	0.00103369585294176	0	0	-0.66784285593858	-0.725164293217572
0.948650276440537	0.0610876543192991	0	0	-0.0324844184535288	-0.0112120587052997	0	0
0	0	-0.23604137833978	-0.895612069653455	0	0	0.0232812436492098	0.0224169980367538
0.5	0.00979636302615102	-0.00561636036293287	0	0	0.126550960144093	-0.948851838188611	0	0
0	0	-0.034815020229125	0.00499019936078549	0	0	0.964047513659815	0.205914848631352
0.126550960144093	-0.948851838188611	0	0	0.0382723487094137	0.0176987078994368	0	0
0	0	-0.677727811431512	0.637353132383431	0	0	0.00659061434481121	0.00881378976595138
0.6	-0.00923344493711463	0.00257869426781308	0	0	0.954645510384245	0.129729121209479	0	0
0	0	-0.0112576016175895	0.00573507920590923	0	0	0.9116473828821	-0.330652599006004
0.954645510384245	0.129729121209479	0	0	0.00568748455467242	-0.0193505927621172	0	0
0	0	-0.861935379579409	-0.343345368612055	0	0	-0.00458248918001905	-0.00680335057887418
0.7	0.00828804955831161	0.00126241537868701	0	0	0.107418570501431	-0.956826869739298	0	0
0	0	0.0194589989873082	-0.0120645081444755	0	0	-0.60934494391327	0.748590796855677
0.107418570501431	-0.956826869739298	0	0	0.00810427725971546	0.010039534342151	0	0
0	0	0.04731604492338	0.919358755317892	0	0	0.00227027116729855	-0.0126693293797846
0.8	-0.00748922953321048	-0.00549099061048546	0	0	0.953785304145866	0.112143979107313	0	0
0	0	0.0414343357262648	-0.0433467162012238	0	0	-0.119059427927408	0.959811757312781
0.953785304145866	0.112143979107313	0	0	-0.0228987903297169	0.0134721498219461	0	0
0	0	-0.809955555094186	0.449129907436256	0	0	0.00643312205738548	0.0837999012987601
0.9	0.00577128588415187	0.00854222445106828	0	0	0.143484719347592	-0.938252723686411	0	0
0	0	0.0113675385091308	-0.0292008113198093	0	0	-0.434963772134541	-0.863969281986981
0.143484719347592	-0.938252723686411	0	0	-0.00260593856354907	-0.0602104099407332	0	0
0	0	0.763521707852206	0.523142697470976	0	0	0.0358005192714453	0.014957080193714
1	-0.0034090396122148	-0.00970649512323824	0	0	0.940951434209149	0.180409423751069	0	0
0	0	-0.0150761010268874	0.0108051776580678	0	0	-0.837108142373933	-0.47951112242479
0.940951434209149	0.180409423751069	0	0	0.00297016593971224	0.0438083724987223	0	0
0	0	-0.125113905513212	0.900857752179314	0	0	0.00337663393079094	0.00393150863504176
1.1	0.000476011081719981	0.00852459776602219	0	0	0.200545950156787	-0.947548042849712	0	0
0	0	-0.0112059969019976	0.0347778720917396	0	0	0.954229992152785	-0.0514873275672705
0.200545950156787	-0.947548042849712	0	0	0.00458493088801264	0.00391170688392013	0	0
0	0	0.866909498298769	-0.260224993026708	0	0	0.00975829294714043	0.044880912297247
1.2	0.00268490804124522	-0.00577201872328813	0	0	0.957053919515722	0.202115810121561	0	0
0	0	0.00980482874382753	0.065281945360586	0	0	0.76931311311137	-0.553391959184845
0.957053919515722	0.202115810121561	0	0	0.055376522030672	0.00118629993079137	0	0
0	0	0.612463630065277	0.669932011325412	0	0	0.00887033048125683	0.101037816415942
1.3	-0.00534937116240351	0.0022313804066298	0	0	0.205121652615508	-0.940585768396525	0	0
0	0	0.0173409147967163	0.0205767594308769	0	0	-0.354717754219686	0.881151358654861
0.205121652615508	-0.940585768396525	0	0	-0.0514395191985018	0.00156855414044436	0	0
0	0	0.32182360855915	-0.857255258669719	0	0	0.0424575897184323	0.0157051186013318
1.4	0.00633589384296422	0.00146278956972112	0	0	0.92257580663344	0.233901356068606	0	0
0	0	-0.012729386079019	-0.0416345031959677	0	0	0.178345246651603	0.935728448159935
0.92257580663344	0.233901356068606	0	0	0.0196496250131314	0.00868137831873125	0	0
0	0	0.897147735513175	-0.0830076984363546	0	0	0.0468213258392222	-0.00552628663744778
1.5	-0.00568594539946361	-0.00443141258535748	0	0	0.271646922922581	-0.920768485666504	0	0
0	0	-0.0385066276239578	-0.0541130579955359	0	0	-0.672552994148602	-0.675347816917799
0.271646922922581	-0.920768485666504	0	0	0.0354416497936577	-0.0324568998354616	0	0
0	0	-0.459512850713239	-0.766919693128192	0	0	0.0353159181204053	0.0525111596124491
1.6	0.00399227567312858	0.00574963809227144	0	0	0.935543765807432	0.295961546803714	0	0
0	0	-0.037316493462054	-0.0174770443987307	0	0	-0.935347311317399	-0.185289770953162
0.935543765807432	0.295961546803714	0	0	-0.0491752247834827	-0.0274162116590654	0	0
0	0	0.498247121513619	-0.752058757029783	0	0	0.00281268455812598	0.0522524879806552
1.7	-0.0012111818954328	-0.00499311842235452	0	0	0.291361649543608	-0.941574497417871	0	0
0	0	0.0140274708361286	0.00792682777295346	0	0	0.884670502594483	-0.341607626052019
0.291361649543608	-0.941574497417871	0	0	0.000390993953721524	0.00436079267893703	0	0
0	0	-0.899398332902964	-0.112774147470799	0	0	0.0415690965593444	-0.0308918276376124
1.8	-0.00212163786501895	0.00279070290882602	0	0	0.916317676839894	0.292837539777949	0	0
0	0	0.043851634563316	0.0388140443488579	0	0	0.574651659794596	-0.74421403134063
0.916317676839894	0.292837539777949	0	0	0.00697855829502107	0.0641243914567873	0	0
0	0	-0.308169772961741	-0.849453794617344	0	0	0.0286062528195041	-0.0346643549182208
1.9	0.00468916831094827	0.000207493320575088	0	0	0.322038504586976	-0.893275266513397	0	0
0	0	0.0514937809695387	-0.00385873610755374	0	0	-0.0854985949228184	0.941299263114854
0.322038504586976	-0.893275266513397	0	0	0.00993961882982642	0.00813824836509389	0	0
0	0	-0.616516747359703	0.644229339399776	0	0	0.0412544872339363	0.0230265169565047
2	-0.00542331481824338	-0.00383278723584844	0	0	0.890516825081593	0.352393650436408	0	0
0	0	0.0144027849136405	-0.00580045444485267	0	0	0.455534892248058	0.834383928529283
0.890516825081593	0.352393650436408	0	0	-0.0496108235910225	-0.034095002827534	0	0
0	0	-0.844007587295142	-0.265986450871033	0	0	-0.0527098350335724	-0.0219936825279017
2.1	0.00396890041593953	0.00766356791540834	0	0	0.367164958756969	-0.897965708039809	0	0
0	0	-0.0291817826397384	0.00657382405836377	0	0	-0.829838704015783	-0.454339762701027
0.367164958756969	-0.897965708039809	0	0	0.0707995364833504	0.0163917433287504	0	0
0	0	0.13349289751653	0.880347809102418	0	0	-0.0048299069910335	0.009357606379798
2.2	-0.000206496204355438	-0.011308860698489	0	0	0.898768368037117	0.37875617753183	0	0
0	0	-0.0475808324790343	0.0158180889766899	0	0	-0.933493661050938	0.0670198884613364
0.898768368037117	0.37875617753183	0	0	0.015060927092242	-0.0112875088943986	0	0
0	0	-0.738969789612131	0.505393552183646	0	0	0.0431116721008738	-0.0114936561609453
2.3	-0.00500411766599949	0.0136513016994028	0	0	0.388049538933157	-0.89005969371461	0	0
0	0	-0.0296045443938186	0.0181580142738644	0	0	0.738612848029079	-0.555337345220246
0.388049538933157	-0.89005969371461	0	0	0.0585948166685128	-0.0294534064361008	0	0
0	0	0.776718816976375	0.434011450990509	0	0	0.0672116734819918	0.0462716565829408
2.4	0.0107633993969785	-0.0137346155851473	0	0	0.878519281407192	0.399544320027419	0	0
0	0	0.000304974383706707	0.000336227486085626	0	0	0.325334915920935	-0.86881412874476
0.878519281407192	0.399544320027419	0	0	-0.097045115242338	0.0127246692412761	0	0
0	0	-0.0398890645055144	0.883675771918897	0	0	0.0475446417641877	-0.0501717144724679
2.5	-0.0166321869845657	0.0108435897888144	0	0	0.415778561198978	-0.8670774194679	0	0
0	0	0.0198648695734318	-0.0361738479510123	0	0	0.189482571902864	0.918546081753295
0.415778561198978	-0.8670774194679	0	0	-0.0104232158251626	-0.0282587067233553	0	0
0	0	0.805858153790924	-0.332375260275946	0	0	0.0125062510186758	-0.00187066337488718
2.6	0.0217768516184056	-0.00545726154056292	0	0	0.859900323012838	0.429271849254215	0	0
0	0	0.0182125034100131	-0.038494610004148	0	0	0.667725514505315	0.653621035009322
0.859900323012838	0.429271849254215	0	0	0.00494641247857092	-0.0346065456660778	0	0
0	0	0.631090517196343	0.597280455102895	0	0	0.0622138961789207	0.00895882832301404
2.7	-0.0253721960851277	-0.00170518398617809	0	0	0.443395460721869	-0.853585335110995	0	0
0	0	0.0209588999109255	-0.00914255283371448	0	0	-0.897404397784086	-0.173569435834917
0.443395460721869	-0.853585335110995	0	0	0.00246085346718573	-0.0139117431379733	0	0
0	0	0.275258829962482	-0.83545784068895	0	0	-0.0279541688545684	-0.0018870827133698
2.8	0.0260104033343046	0.00960802081397085	0	0	0.84258011142231	0.456667609131198	0	0
0	0	0.00893387583052733	0.0127521418073322	0	0	-0.841323887020937	0.312793517362069
0.84258011142231	0.456667609131198	0	0	0.00329840366429082	0.0628988426701168	0	0
0	0	0.870720597277177	-0.150551746138599	0	0	0.0253345818470379	-0.0645639979464787
2.9	-0.0228967328007	-0.0175448626859284	0	0	0.472689933890977	-0.822887873534006	0	0
0	0	-0.00121044396733804	0.0360979809068429	0	0	0.566254202547572	-0.699757326469164
0.472689933890977	-0.822887873534006	0	0	-0.0542289423260488	0.0333712546312386	0	0
0	0	-0.514550603465663	-0.70142292044306	0	0	-0.0407537099343895	-0.0466223029684233
3	0.0170779707913551	0.0248083310085694	0	0	0.813498528560242	0.497127418718634	0	0
0	0	-0.0120422092393164	0.0282880460554843	0	0	0.0919361358481514	-0.918237562264686
0.813498528560242	0.497127418718634	0	0	-0.00767250021114452	-0.0179998773907949	0	0
0	0	0.406115106497823	-0.758866057462874	0	0	0.0128098586129714	0.0850960440188369
3.1	-0.00894136530013957	-0.0293640907811842	0	0	0.5183500353483	-0.802893579580132	0	0
0	0	-0.0209930884158461	0.0107150711435235	0	0	0.446083375782472	0.80506362113298
0.5183500353483	-0.802893579580132	0	0	0.0379559360357293	-0.0641746428469459	0	0
0	0	-0.866976536765072	-0.0510269741616954	0	0	-0.075601539678258	0.00588310878598157
3.2	-0.000165891673716571	0.0311477657935795	0	0	0.800647471616777	0.542932266388603	0	0
0	0	-0.0180438453822338	-0.00772971209047869	0	0	0.795013500515507	0.437788938972389
0.800647471616777	0.542932266388603	0	0	0.000131109760315988	0.0252038262359541	0	0
0	0	-0.334752191433206	-0.812621140820895	0	0	-0.0593127080568662	0.006630041956377
3.3	0.00910031725743145	-0.0287199734712601	0	0	0.555234538370973	-0.796295701525368	0	0
0	0	-0.000909559588281137	-0.0254044381143611	0	0	-0.90282066003947	0.0474872449337642
0.555234538370973	-0.796295701525368	0	0	0.0613881246004397	0.0247283153675091	0	0
0	0	-0.575309462732301	0.67214008661418	0	0	-0.0267269395907457	-0.106439525484343
3.4	-0.0167742418420359	0.0225441886898805	0	0	0.779289735207981	0.560853076716205	0	0
0	0	-0.00348449430397517	-0.0415965556964344	0	0	-0.733524296463301	0.539080036825641
0.779289735207981	0.560853076716205	0	0	-0.114578594593404	0.0078513135589207	0	0
0	0	-0.854177175733938	-0.225228100456812	0	0	-0.0191292056796421	-0.039687227498028
3.5	0.0221995260556614	-0.0147465049484726	0	0	0.576326018712831	-0.770417917874808	0	0
0	0	0.00916435430450093	-0.0307493621853243	0	0	0.300693676847351	-0.866684310738481
0.576326018712831	-0.770417917874808	0	0	-0.0115605191329046	-0.0536409807593778	0	0
0	0	0.163762675813858	0.842964878323316	0	0	0.0855083208402419	-0.0716188890065701
3.6	-0.024100103025102	0.00603050128107502	0	0	0.763644048300933	0.587238014509551	0	0
0	0	0.020948352720461	0.00267251595028994	0	0	-0.205403754861585	-0.895090285224352
0.763644048300933	0.587238014509551	0	0	-0.0348826316394164	0.0599652740571947	0	0
0	0	-0.695041303958107	0.516989829385893	0	0	0.0450885563810579	-0.0311838784242289
3.7	0.0219827854258089	0.00336288587523405	0	0	0.606912768675595	-0.744288449907667	0	0
0	0	0.0150968969236102	0.0370849737778574	0	0	0.636706251276072	0.652357031650413
0.606912768675595	-0.744288449907667	0	0	0.118391952470491	0.00851661107748225	0	0
0	0	0.769193829391317	0.413441871938553	0	0	0.0557171296124501	-0.0186141690061387
3.8	-0.0168405847179137	-0.0113517180667912	0	0	0.738550693731203	0.626253947452796	0	0
0	0	0.0159638210756153	0.0515563823715834	0	0	0.871439646003522	0.19094176078166
0.738550693731203	0.626253947452796	0	0	-0.0257334728221835	0.0206207285282877	0	0
0	0	-0.0200886979050518	0.872505192521997	0	0	-0.0583296202901469	-0.025947675819606
3.9	0.00978372914980343	0.0164674441049169	0	0	0.631482685648603	-0.738860722836082	0	0
0	0	0.0112945193844492	0.0166389848451375	0	0	-0.827559277499113	0.324861657541765
0.631482685648603	-0.738860722836082	0	0	-0.0143821481745011	0.0836919425824384	0	0
0	0	0.786490952701915	-0.383063865377513	0	0	0.0248913681217975	-0.00547808215013426
4	-0.00138332050790428	-0.018060480753533	0	0	0.722226030496175	0.639648365728519	0	0
0	0	-0.0171384022188197	-0.0115173651756123	0	0	-0.520388737423011	0.725256193142787
0.722226030496175	0.639648365728519	0	0	0.0518661376243418	-0.0743071082070869	0	0
0	0	0.684555206096674	0.520188184843534	0	0	-0.00497839627287954	0.00969030889644176
4.1	-0.00643697128332896	0.0159709821629206	0	0	0.644960137927634	-0.710351983195199	0	0
0	0	-0.0423973558683322	-0.0350345449669635	0	0	0.0576046754542789	-0.895374226917691
0.644960137927634	-0.710351983195199	0	0	0.025852033836947	-0.112558312315029	0	0
0	0	0.18683266385559	-0.831194581837854	0	0	0.0259800416381803	0.0828975546163634
4.2	0.0128708333932195	-0.0111354877774922	0	0	0.706293505049183	0.655951962531003	0	0
0	0	-0.0498702091891777	-0.0154727811364897	0	0	-0.43416210533186	-0.784784836228493
0.706293505049183	0.655951962531003	0	0	-0.0405438059293982	0.0165770535080106	0	0
0	0	0.835426060795393	-0.184250980441055	0	0	-0.011804610077685	-0.0416383552950029
4.3	-0.0166089811659594	0.00423602630200959	0	0	0.664085950123157	-0.700451411847849	0	0
0	0	-0.00812730713717626	0.00635196649383551	0	0	0.78165630903118	0.426053993958801
0.664085950123157	-0.700451411847849	0	0	-0.0112276790902289	0.0680397101621328	0	0
0	0	-0.536662307482235	-0.676702781164142	0	0	-0.0145882631706451	0.00244456964761078
4.4	0.0165730960684834	0.00384836110179539	0	0	0.68410356471365	0.672709044798702	0	0
0	0	0.0377871389032617	0.00381734976544734	0	0	0.891858813015356	-0.0546241521039433
0.68410356471365	0.672709044798702	0	0	0.00122006851527545	-0.0507388970945596	0	0
0	0	0.346761435042002	-0.775736133360015	0	0	-0.0339319456341084	0.00328466126387729
4.5	-0.0127740941101593	-0.0112802630716581	0	0	0.678386544345965	-0.66614185020402	0	0
0	0	0.0649485948416105	-0.00496621517468544	0	0	-0.724084852528812	0.526193278564667
0.678386544345965	-0.66614185020402	0	0	-0.0503659082323742	0.0266548756314038	0	0
0	0	-0.838228403907631	0.0126671023675877	0	0	-0.0866572866109612	0.0625396881335514
4.6	0.00610378968065084	0.0170993301649688	0	0	0.648198216332964	0.692239129944167	0	0
0	0	0.0473773003718124	-0.0251489902838954	0	0	-0.312157257340963	0.847467839505894
0.648198216332964	0.692239129944167	0	0	-0.00418263026551554	0.0136690078485775	0	0
0	0	-0.374420147574134	-0.74605770491011	0	0	-0.0809610062539754	-0.00964391239958926
4.7	0.00200530284019447	-0.0199696961741866	0	0	0.708821186644656	-0.641181045293596	0	0
0	0	-0.0235959672947157	-0.00512431680645404	0	0	-0.193514195404362	-0.875310127807663
0.708821186644656	-0.641181045293596	0	0	0.0653488986981269	-0.0183681892358688	0	0
0	0	-0.523884427631872	0.658296895405787	0	0	-0.0735511849186561	0.0726568910065943
4.8	-0.01047619584657	0.0191911240394522	0	0	0.640811889304626	0.724141202015606	0	0
0	0	-0.0578876322767236	0.0349388528107151	0	0	-0.609527684682912	-0.634228046316636
0.640811889304626	0.724141202015606	0	0	0.0524899421039269	-0.0189905486767205	0	0
0	0	-0.829303845599251	-0.195358987328793	0	0	-0.00927965726657325	0.0717836095186814
4.9	0.0179992093071129	-0.0140059728282468	0	0	0.72950957523579	-0.63192345390086	0	0
0	0	-0.039511512577363	0.0595057345228495	0	0	0.855235778555898	0.205029054334705
0.72950957523579	-0.63192345390086	0	0	-0.0816738825896535	-0.0287109600609642	0	0
0	0	0.201168329357394	0.821148346127694	0	0	-0.0841820319148272	0.00401874143842582
5	-0.0227571022838785	0.0059134896247662	0	0	0.619948797253812	0.724835272798849	0	0
0	0	-0.000776595585422348	0.0212703235328937	0	0	0.830274151685952	-0.299907409053365
0.619948797253812	0.724835272798849	0	0	-0.0480972593456144	0.0408690822318695	0	0
0	0	-0.64398867846335	0.535052331649877	0	0	0.040775308878449	-0.00941864867922349
5.1	0.0242456240895076	0.00383455482495227	0	0	0.726184396628673	-0.606539134828431	0	0
0	0	0.0373817916119408	-0.0327909686602786	0	0	-0.532098793139301	0.69566189935182
0.726184396628673	-0.606539134828431	0	0	-0.0224122471468663	-0.0411564187684477	0	0
0	0	0.749805012212358	0.343725395390319	0	0	0.0716994119975025	-0.0198534878655609
5.2	-0.0217084575745457	-0.0148207113614781	0	0	0.583344785702166	0.744429540886254	0	0
0	0	0.0146372831901627	-0.0740393583522912	0	0	-0.0786825285624802	0.870873732451616
0.583344785702166	0.744429540886254	0	0	0.0376122047499859	0.022644794979775	0	0
0	0	0.0151497783416807	0.831532902604484	0	0	0.0260482696271678	0.066436878743464
5.3	0.0152386058591555	0.024537390993207	0	0	0.7636263690707	-0.570471371967699	0	0
0	0	-0.0155912472388328	-0.0415387035034278	0	0	-0.410808153657662	-0.770669439876334
0.7636263690707	-0.570471371967699	0	0	-0.032401349483862	0.0250169883097472	0	0
0	0	0.742649038423337	-0.372928914870459	0	0	-0.0437986594803435	0.0121059609812099
5.4	-0.00609879514764362	-0.0308283928593999	0	0	0.561807401942236	0.769843450122839	0	0
0	0	-0.0323203092719656	0.013953678739521	0	0	-0.765754910390597	-0.429881223641224
0.561807401942236	0.769843450122839	0	0	0.0698240743805009	0.0882572297930257	0	0
0	0	0.655755089901365	0.511175852361445	0	0	-0.00981093624493931	0.0221380900076116
5.5	-0.00457483928418958	0.0333783362186149	0	0	0.781756115273826	-0.558881016664977	0	0
0	0	0.02285944811209	0.0591132389404551	0	0	0.87769428585306	-0.0414112896950627
0.781756115273826	-0.558881016664977	0	0	-0.00641401663746185	-0.0273686646992085	0	0
0	0	0.160580180191176	-0.816387064209994	0	0	0.0211883399732717	0.0389905983360582
5.6	0.0159660075473175	-0.0307289763308436	0	0	0.545030750514822	0.788586550896063	0	0
0	0	0.0426816810301344	0.0556914236973103	0	0	0.701373247087918	-0.506069019109239
0.545030750514822	0.788586550896063	0	0	0.00272965146463386	-0.109472824971284	0	0
0	0	0.801820527859973	-0.198890129568063	0	0	0.00989508787405024	0.118217906732587
5.7	-0.0267399732759153	0.023937266018117	0	0	0.803077687958077	-0.537026320920242	0	0
0	0	0.0215426315178792	-0.00777737503498537	0	0	-0.322581247794247	0.808292771719273
0.803077687958077	-0.537026320920242	0	0	-0.0127024753964328	0.0520307495413336	0	0
0	0	-0.534610069454899	-0.653282180285817	0	0	0.0583457708971804	0.0355929594914719
5.8	0.0338373819565764	-0.0133855490193237	0	0	0.520629762346114	0.804056513263829	0	0
0	0	-0.0208691131122323	-0.0318354649470514	0	0	0.15231005892099	0.858178791105955
0.520629762346114	0.804056513263829	0	0	0.0594552035514414	-0.0266298149969939	0	0
0	0	0.328984188850531	-0.772962469075129	0	0	0.0333481468944221	0.0567742964941414
5.9	-0.037113184009417	0.000546804282387171	0	0	0.818732506818664	-0.498312376703243	0	0
0	0	-0.0550519689323483	-0.0268476938243553	0	0	-0.586480489715057	-0.643787164301261
0.818732506818664	-0.498312376703243	0	0	-0.0747897081471556	0.0440886103653378	0	0
0	0	-0.832253938151894	0.0570021050565047	0	0	0.0368586662295518	0.0742649026335434
6	0.0356854837521019	0.0120304369715163	0	0	0.483820142558559	0.83268383653298	0	0
0	0	-0.0332562382391342	0.00616780723276249	0	0	-0.853527767497867	-0.198447864450595
0.483820142558559	0.83268383653298	0	0	-0.00320716283929814	0.0250471501057689	0	0
