# GHZ S RI R 50
0.2	-0.00698067455872344	0.0106693627779441	0	0	0.957856182342053	0.0581474971669978	0	0
0	0	0.0197941580889911	0.00431712683253487	0	0	-0.370485262317172	0.911064992697073
0.957856182342053	0.0581474971669978	0	0	0.0218254292579802	0.0420902069061096	0	0
0	0	0.569660350614857	-0.753973735478631	0	0	0.00225842459060528	-0.031730293564184
0.3	0.00704517568091002	-0.010196440164801	0	0	0.0336692572885131	-0.965168507667585	0	0
0	0	-0.0055293139669419	0.0014167164372272	0	0	-0.134096216602428	-0.974214513465578
0.0336692572885131	-0.965168507667585	0	0	-0.0136232642660709	0.00405717561188965	0	0
0	0	-0.922002176395155	-0.202295042255513	0	0	-0.0322295979348082	-0.0178551722769654
0.4	-0.00882363346148678	0.00783494975540542	0	0	0.948566226132754	0.0622707498626905	0	0
0	0	-0.0393665542515244	0.000796180914902825	0	0	-0.666924529452058	-0.72596375083099
0.948566226132754	0.0622707498626905	0	0	-0.034101324468299	-0.014514920946392	0	0
0	0	-0.234927532744663	-0.89587255285703	0	0	0.0215597250760464	0.0192503696513866
0.5	0.0112693154748898	-0.00411748256026125	0	0	0.128102564636461	-0.948880247326516	0	0
0	0	-0.0327171474200524	0.00497114333349697	0	0	0.963991556895998	0.207573770387673
0.128102564636461	-0.948880247326516	0	0	0.0365669322718302	0.0162448830960192	0	0
0	0	-0.678984874059723	0.636418413136322	0	0	0.00488165641537027	0.00725636805648816
0.6	-0.012326517965934	0.00103373698984419	0	0	0.955098134468354	0.131841197359526	0	0
0	0	-0.00800749232075272	0.00650387979437839	0	0	0.913073154893648	-0.329041701882662
0.955098134468354	0.131841197359526	0	0	0.00482130472293517	-0.0199163718161436	0	0
0	0	-0.861930217404339	-0.34540352682834	0	0	-0.00552598187094403	-0.00738816604922149
0.7	0.0123492907431912	0.00147028191868345	0	0	0.109688421355379	-0.957924777659778	0	0
0	0	0.022919905109789	-0.0103080898232364	0	0	-0.611938986716544	0.748280997028342
0.109688421355379	-0.957924777659778	0	0	0.00807439620620647	0.00975287456790801	0	0
0	0	0.04528208879507	0.920797864047518	0	0	0.00232312292628748	-0.0130505574451399
0.8	-0.0112108840214175	-0.00432329819011373	0	0	0.955667455364249	0.114459701991853	0	0
0	0	0.0444068681663534	-0.0410301274311374	0	0	-0.121154257805436	0.961474703936974
0.955667455364249	0.114459701991853	0	0	-0.0224091148386329	0.0125542522820503	0	0
0	0	-0.812423885077685	0.448446479598729	0	0	0.00675431825222539	0.0832828621878885
0.9	0.00827410969645172	0.00691213951072092	0	0	0.145960928848241	-0.940845503431747	0	0
0	0	0.0133406795855811	-0.0270067649601522	0	0	-0.434394767037663	-0.867292442160445
0.145960928848241	-0.940845503431747	0	0	-0.00171634564819717	-0.0623568848394572	0	0
0	0	0.764579626464221	0.526190364841052	0	0	0.036576395464885	0.0133937368057304
1	-0.00466757694883885	-0.00858290954790216	0	0	0.944026353135656	0.182509449654318	0	0
0	0	-0.0143976827104736	0.0122524454084668	0	0	-0.839377289279897	-0.482557007530538
0.944026353135656	0.182509449654318	0	0	0.00275823369762976	0.0415840315536742	0	0
0	0	-0.126980422956839	0.903913643950415	0	0	0.00325565760694389	0.00140885129149636
1.1	0.00109377509759054	0.00874007671817948	0	0	0.202230400636247	-0.951339780269589	0	0
0	0	-0.0117319341213584	0.0349909138834685	0	0	0.958279929085673	-0.0508606636416847
0.202230400636247	-0.951339780269589	0	0	0.0032538797370956	0.00118090698660252	0	0
0	0	0.870777338801293	-0.260551422859306	0	0	0.00835109730551023	0.0425371515967175
1.2	0.00153789262991877	-0.00740153325660585	0	0	0.96130959727003	0.202999571337097	0	0
0	0	0.00858916004820423	0.0640204077906208	0	0	0.772883325082641	-0.556057179418162
0.96130959727003	0.202999571337097	0	0	0.053251550284078	-0.00109456995866538	0	0
0	0	0.615398259399633	0.673030163510824	0	0	0.00626671324932778	0.0997881880115064
1.3	-0.0032147818250349	0.00429420432051336	0	0	0.205322952931385	-0.945276841551258	0	0
0	0	0.0161984340199803	0.0180956608795693	0	0	-0.355554753220836	0.885580341235741
0.205322952931385	-0.945276841551258	0	0	-0.0552676919604996	0.000170399242311006	0	0
0	0	0.322529578525156	-0.86154262952122	0	0	0.0394853815286888	0.0144547023572988
1.4	0.00378197335050373	-0.000552762743667643	0	0	0.927132159759215	0.233210477494486	0	0
0	0	-0.0129193390213211	-0.0446672070710562	0	0	0.180824592045753	0.939573130278234
0.927132159759215	0.233210477494486	0	0	0.016419311363722	0.00778286763307539	0	0
0	0	0.900992367691683	-0.0849931093200725	0	0	0.0437150952668775	-0.0064706609918797
1.5	-0.00276017009048804	-0.00245935242225886	0	0	0.270333829624186	-0.925156048024315	0	0
0	0	-0.0375583861224852	-0.0571745333678754	0	0	-0.677260055203316	-0.676161387734803
0.270333829624186	-0.925156048024315	0	0	0.0322356707325953	-0.0332416071570312	0	0
0	0	-0.463613924744731	-0.768724952626537	0	0	0.0325301087831256	0.0525419561552374
1.6	0.000439414077838984	0.0042594999442364	0	0	0.940020522409427	0.293879085130558	0	0
0	0	-0.0353963725144345	-0.0203013758870163	0	0	-0.939313057110554	-0.182509775700522
0.940020522409427	0.293879085130558	0	0	-0.0526369322183501	-0.0268333508483272	0	0
0	0	0.497238937732655	-0.756528532379348	0	0	0.000273765431633294	0.0531571000632186
1.7	0.00241930682100791	-0.00460284671964515	0	0	0.288360366753639	-0.945235929842649	0	0
0	0	0.0164674795879415	0.00585674050976161	0	0	0.8856930093694	-0.345906123480992
0.288360366753639	-0.945235929842649	0	0	-0.00177267343310717	0.00545445003016183	0	0
0	0	-0.902204526949739	-0.109618021189943	0	0	0.0393580187837689	-0.0302054778563882
1.8	-0.00492314693310364	0.003130814147462	0	0	0.919029130671641	0.289285219000625	0	0
0	0	0.0462222629764148	0.0378449260067456	0	0	0.572574689939972	-0.747922529704541
0.919029130671641	0.289285219000625	0	0	0.00620623370122004	0.0655913247960373	0	0
0	0	-0.312248579646498	-0.849677178853961	0	0	0.0271098145076635	-0.033632561224316
1.9	0.00664051928862121	-2.2217663108132E-05	0	0	0.318504490314966	-0.895269861024904	0	0
0	0	0.0533051216834116	-0.00369329073575386	0	0	-0.0815671188355968	0.942308635141959
0.318504490314966	-0.895269861024904	0	0	0.00935668293094773	0.00920982167542992	0	0
0	0	-0.614209531468134	0.647285566438662	0	0	0.0408914020815773	0.0239045967577108
2	-0.00696321835951623	-0.00413554893795766	0	0	0.891836116885795	0.348907306033144	0	0
0	0	0.0153348961224015	-0.00470922299795808	0	0	0.458816031232567	0.832562872445518
0.891836116885795	0.348907306033144	0	0	-0.0502135954595373	-0.0329227920920502	0	0
0	0	-0.845034388632967	-0.262647533882858	0	0	-0.0531874160284613	-0.0207641549224046
2.1	0.00568250489317881	0.00843930256797333	0	0	0.363829337772289	-0.898235796315746	0	0
0	0	-0.0292495208950862	0.00825320201767143	0	0	-0.830655291992928	-0.451159653079313
0.363829337772289	-0.898235796315746	0	0	0.0703817040046855	0.0164103588212777	0	0
0	0	0.136338993013201	0.87914428005032	0	0	-0.00512215079662761	0.00991524379433686
2.2	-0.00235506739177104	-0.0120450424519172	0	0	0.898442788662894	0.376003433898016	0	0
0	0	-0.0484858445607874	0.0175945890138459	0	0	-0.931997448122123	0.0692461652811523
0.898442788662894	0.376003433898016	0	0	0.014388763383658	-0.0107683567782626	0	0
0	0	-0.736660329783167	0.50651166868241	0	0	0.0423862235366697	-0.0110916336056478
2.3	-0.00279215562199338	0.0138406933025625	0	0	0.386115877628845	-0.889200078876377	0	0
0	0	-0.0309044428543356	0.0195874335822765	0	0	0.736433776489866	-0.55561063774588
0.386115877628845	-0.889200078876377	0	0	0.0576836367681005	-0.0286401139623923	0	0
0	0	0.77611055447525	0.43198629759216	0	0	0.0665603276569961	0.0468247858442338
2.4	0.00910997644615667	-0.0134338399016991	0	0	0.877713070491986	0.39821993473103	0	0
0	0	-0.000926278458513846	0.00115062026051939	0	0	0.324311738899475	-0.867880138036195
0.877713070491986	0.39821993473103	0	0	-0.0971632035540694	0.0141515088828273	0	0
0	0	-0.0392353061617245	0.88252797542054	0	0	0.0470143465797934	-0.0487606518862172
2.5	-0.0158113713860841	0.010627941126859	0	0	0.415416148072163	-0.866292219268941	0	0
0	0	0.0191109972784458	-0.0360734171746751	0	0	0.189344874552869	0.917715291887466
0.415416148072163	-0.866292219268941	0	0	-0.0103735852848938	-0.0266458205906958	0	0
0	0	0.805123442325121	-0.332105395200752	0	0	0.0126247951839526	-0.000277892039396387
2.6	0.0214716913552691	-0.00581551048151149	0	0	0.859481171481341	0.429655953354996	0	0
0	0	0.0181744110887269	-0.0389005445508859	0	0	0.6672754255984	0.653811340724528
0.859481171481341	0.429655953354996	0	0	0.00545576097578743	-0.0330250257714613	0	0
0	0	0.630675003892477	0.59746445141809	0	0	0.0627824486913835	0.0105886620743903
2.7	-0.0251000663397592	-0.000784222922216073	0	0	0.444346737881107	-0.853805171089662	0	0
0	0	0.0215864177408311	-0.00966364631258922	0	0	-0.897944007936801	-0.174349064380825
0.444346737881107	-0.853805171089662	0	0	0.00325373774193646	-0.0125308027206794	0	0
0	0	0.276068938643247	-0.835877753899378	0	0	-0.0271024276005062	-0.000539114329561056
2.8	0.0256696927739661	0.0084082701047974	0	0	0.843689228993497	0.457883818432532	0	0
0	0	0.00997634175262935	0.0125688287568724	0	0	-0.842871503299614	0.312725711384842
0.843689228993497	0.457883818432532	0	0	0.00415912272530218	0.0642934374054203	0	0
0	0	0.872205977163729	-0.150206265688502	0	0	0.026531700841142	-0.0635732213226591
2.9	-0.0226542772205694	-0.0160852252893487	0	0	0.47405190363656	-0.824936674434518	0	0
0	0	-8.28246414768817E-05	0.0366547547954065	0	0	0.567876208747776	-0.701394441010433
0.47405190363656	-0.824936674434518	0	0	-0.0535253383271891	0.0344660331977513	0	0
0	0	-0.515681254430762	-0.703341697110081	0	0	-0.0398726107069311	-0.0459772480519102
3	0.0168329525101834	0.0228596964389577	0	0	0.816361826384785	0.498282839028401	0	0
0	0	-0.0111351999329657	0.0296842239056705	0	0	0.0915438740624507	-0.921314395453896
0.816361826384785	0.498282839028401	0	0	-0.00675527938004468	-0.0174643884803477	0	0
0	0	0.406872186643818	-0.761658157039301	0	0	0.0140505662267199	0.0862092196659585
3.1	-0.00832540940608881	-0.0269713140415996	0	0	0.51902826977672	-0.806446764479131	0	0
0	0	-0.0205525293630983	0.0127729216639711	0	0	0.449075564227963	0.807520010916116
0.51902826977672	-0.806446764479131	0	0	0.0388506870762539	-0.0644428866986947	0	0
0	0	-0.870445600656606	-0.0498825636182055	0	0	-0.07529245888836	0.00641848455834401
3.2	-0.00134876888362926	0.0286127836579364	0	0	0.805181019026252	0.542723690536362	0	0
0	0	-0.0183347763835326	-0.0054207558839594	0	0	0.79942502207166	0.437358411182064
0.805181019026252	0.542723690536362	0	0	0.000825066285728824	0.0254192100738966	0	0
0	0	-0.338343915154724	-0.814971237562822	0	0	-0.0591768862461644	0.00699678594545772
3.3	0.0106992725977764	-0.0264853969533748	0	0	0.553936484258191	-0.801158891112371	0	0
0	0	-0.00192577350360902	-0.0233602754903325	0	0	-0.906052650810157	0.0509836395053232
0.553936484258191	-0.801158891112371	0	0	0.062240227001845	0.0243153113440616	0	0
0	0	-0.575010555453814	0.676790017555501	0	0	-0.0275158791518659	-0.10713322901687
3.4	-0.0183479578361232	0.0207072137002483	0	0	0.784735535569782	0.558577398956211	0	0
0	0	-0.00508649794058146	-0.0402852050868581	0	0	-0.733100015801766	0.544461680293891
0.784735535569782	0.558577398956211	0	0	-0.115209098019322	0.00901824945545134	0	0
0	0	-0.857981926839192	-0.221627167818486	0	0	-0.0196790878970497	-0.0397966314617345
3.5	0.0235955045179937	-0.0129547829820163	0	0	0.572902499356574	-0.775481497270301	0	0
0	0	0.00730027020704404	-0.0304530262385243	0	0	0.296170965262947	-0.870156630718454
0.572902499356574	-0.775481497270301	0	0	-0.0123600594451013	-0.0536667021844002	0	0
0	0	0.169055814613757	0.84365114789487	0	0	0.0848739595734853	-0.0728789767634735
3.6	-0.0255385376442937	0.00414650701344357	0	0	0.768367219734193	0.582339537147353	0	0
0	0	0.0191089249136681	0.00191886900953519	0	0	-0.211602620397998	-0.894403845925721
0.768367219734193	0.582339537147353	0	0	-0.0341678285794994	0.0606540209860738	0	0
0	0	-0.692096583393989	0.522082547054337	0	0	0.0446587359900497	-0.0317281331099716
3.7	0.0236262951765027	0.00522649798470748	0	0	0.601058929788551	-0.747857990991846	0	0
0	0	0.0137112539546137	0.0355138781122747	0	0	0.640914138409116	0.64736042158702
0.601058929788551	-0.747857990991846	0	0	0.118339348342249	0.00694274084217116	0	0
0	0	0.771605244088503	0.407667233756513	0	0	0.0553986342346734	-0.0192740247798944
3.8	-0.0186786100845309	-0.0128532125004154	0	0	0.741456758396814	0.619516345395251	0	0
0	0	0.0152082984700563	0.049786562630321	0	0	0.871088274331387	0.184246645295944
0.741456758396814	0.619516345395251	0	0	-0.0252134919521367	0.0209794780353048	0	0
0	0	-0.0137260309224742	0.870913600609293	0	0	-0.0583496464870666	-0.0249453724532758
3.9	0.0114204958574227	0.0174452032622918	0	0	0.624021982726203	-0.740331710671143	0	0
0	0	0.0112140833109599	0.0151065492153153	0	0	-0.822324394801229	0.329199460603969
0.624021982726203	-0.740331710671143	0	0	-0.0129952111740073	0.083240049818958	0	0
0	0	0.781018376079942	-0.386911539931743	0	0	0.0247910285960334	-0.00581597981397664
4	-0.00247693371901702	-0.0188827357014941	0	0	0.722214560396885	0.632330157934356	0	0
0	0	-0.0165646831226232	-0.0124634473623489	0	0	-0.513533346866797	0.724646709126688
0.722214560396885	0.632330157934356	0	0	0.0506504142130344	-0.0742672568954498	0	0
0	0	0.684149357734411	0.513571570179818	0	0	-0.00466018876156509	0.00949958100512216
4.1	-0.00569377200771235	0.0169895850672218	0	0	0.637917975896802	-0.708892876853155	0	0
0	0	-0.0413890084966514	-0.0352142615285717	0	0	0.0530927330250024	-0.890135526018756
0.637917975896802	-0.708892876853155	0	0	0.0246483525934569	-0.111627241439964	0	0
0	0	0.181824041580772	-0.826950633859651	0	0	0.026522776846257	0.0814163812483003
4.2	0.0121260326979566	-0.0123496078137054	0	0	0.703610026132454	0.649345577918818	0	0
0	0	-0.0488354776098986	-0.0149820483730776	0	0	-0.433634241830406	-0.778252344337306
0.703610026132454	0.649345577918818	0	0	-0.0398698035424449	0.0163990814156637	0	0
0	0	0.829308839291314	-0.185539558865074	0	0	-0.0118958445274213	-0.0412401687755436
4.3	-0.0158250146084022	0.00533108309870862	0	0	0.65835979030755	-0.696614775653978	0	0
0	0	-0.00747334207774512	0.0072054913437365	0	0	0.776945188580002	0.421989229371002
0.65835979030755	-0.696614775653978	0	0	-0.0108589513149965	0.0670270047974459	0	0
0	0	-0.533995002180926	-0.67128733434294	0	0	-0.014409821098073	0.00237037222325337
4.4	0.0160535769527039	0.00296304333696078	0	0	0.679523169303098	0.668354677493971	0	0
0	0	0.0378369889701867	0.00463599461773443	0	0	0.88605384979638	-0.0542256526022415
0.679523169303098	0.668354677493971	0	0	0.00121453110453814	-0.0499582448759353	0	0
0	0	0.344540629030614	-0.770668072963235	0	0	-0.0334972224825673	0.00337830735207862
4.5	-0.012719323126023	-0.0103666704976689	0	0	0.675345463617701	-0.661343896237923	0	0
0	0	0.0643463865116861	-0.0045310386869716	0	0	-0.720640373154501	0.522214322099824
0.675345463617701	-0.661343896237923	0	0	-0.0497315025806525	0.0265489841698183	0	0
0	0	-0.83344534351797	0.0114765075584853	0	0	-0.0856790681866942	0.0619522232772937
4.6	0.00637380260829595	0.0158308791473483	0	0	0.643472314197042	0.690467694946096	0	0
0	0	0.0463437098574896	-0.0252686252314917	0	0	-0.312771589320949	0.842770172279842
0.643472314197042	0.690467694946096	0	0	-0.00391534605753771	0.0140198732566257	0	0
0	0	-0.370863135694367	-0.74350378443	0	0	-0.0797875335501649	-0.00944601108283827
4.7	0.00173172773843679	-0.0182751571410632	0	0	0.708159937415012	-0.636747684618207	0	0
0	0	-0.0247132521447474	-0.00590165894653809	0	0	-0.190358799168028	-0.872966297693109
0.708159937415012	-0.636747684618207	0	0	0.0655347955633691	-0.0173573388563855	0	0
0	0	-0.52403987786712	0.654611252169756	0	0	-0.0728450841816825	0.0722011385703595
4.8	-0.0104127259082958	0.017334633056504	0	0	0.637112947494117	0.724497718562217	0	0
0	0	-0.058586631994559	0.0336953339446909	0	0	-0.606355359868912	-0.634714230129354
0.637112947494117	0.724497718562217	0	0	0.053085074621472	-0.0181019233891347	0	0
0	0	-0.826979131307953	-0.197422635924019	0	0	-0.00889884301005056	0.0718189035233372
4.9	0.0179651337572658	-0.0121977381002957	0	0	0.73073260060325	-0.6294354250247	0	0
0	0	-0.0395346794040917	0.0581124201452258	0	0	0.854057685971364	0.20727653612995
0.73073260060325	-0.6294354250247	0	0	-0.0805432486615781	-0.0287606145256516	0	0
0	0	0.198729069573984	0.821130634651622	0	0	-0.0831812122262219	0.00378205079325729
5	-0.0226075602381718	0.00404194182195709	0	0	0.618706800035617	0.726215337068929	0	0
0	0	1.35268268929663E-05	0.0200303348147167	0	0	0.830996517950929	-0.298170014661708
0.618706800035617	0.726215337068929	0	0	-0.0473740062782706	0.0409114560674831	0	0
0	0	-0.645192862929637	0.53373529389707	0	0	0.0417655463027617	-0.00916491283467981
5.1	0.0241472001813138	0.00596477675183061	0	0	0.727529294440882	-0.606325420896868	0	0
0	0	0.0388297897004993	-0.0335843728676015	0	0	-0.533316689961392	0.69556987657729
0.727529294440882	-0.606325420896868	0	0	-0.02146516393321	-0.0412492337104664	0	0
0	0	0.749974297749897	0.344863129035204	0	0	0.0727784843953262	-0.019835717905813
5.2	-0.0218661931791608	-0.0170723033760086	0	0	0.584151644734694	0.745102729459037	0	0
0	0	0.0163900979204324	-0.074234049520594	0	0	-0.0785835645918418	0.871930453653238
0.584151644734694	0.745102729459037	0	0	0.0384949822630559	0.0224681505595766	0	0
0	0	0.0153520089042061	0.832521894607357	0	0	0.0268948629141698	0.0662519738477483
5.3	0.0156712172212624	0.0265735862704639	0	0	0.763602556204367	-0.572289507225108	0	0
0	0	-0.0140330751234427	-0.0411374030894919	0	0	-0.412423481917256	-0.771081969738582
0.763602556204367	-0.572289507225108	0	0	-0.0318381018241772	0.0247471801044947	0	0
0	0	0.743078919166343	-0.374455986952457	0	0	-0.0433771526041384	0.011743106756688
5.4	-0.00648609732365516	-0.032461022927125	0	0	0.564097430907589	0.768594073866736	0	0
0	0	-0.0313663003389691	0.0148589241489849	0	0	-0.767387023543139	-0.428177704795759
0.564097430907589	0.768594073866736	0	0	0.0706682632870757	0.0874695030927758	0	0
0	0	0.657524863799449	0.509813031344821	0	0	-0.00948319101359903	0.0216810198883114
5.5	-0.00451316558335228	0.0348950046154718	0	0	0.779467467343994	-0.561500070550686	0	0
0	0	0.0229804356026994	0.0602747971274649	0	0	0.877257707497827	-0.044561825843072
0.779467467343994	-0.561500070550686	0	0	-0.00644300718154078	-0.027714811613729	0	0
0	0	0.157584540101267	-0.816698733187079	0	0	0.0215462995378149	0.0383868369237102
5.6	0.016146799438156	-0.0324629244453891	0	0	0.547408233948405	0.785071626134901	0	0
0	0	0.0419781697464512	0.0567936238070069	0	0	0.698003497456524	-0.508359899763226
0.547408233948405	0.785071626134901	0	0	0.00199986525626615	-0.109430126649527	0	0
0	0	0.799649197880885	-0.202120232900091	0	0	0.0110365944221332	0.117439658573273
5.7	-0.0267945903719021	0.0259645269429577	0	0	0.797997104212659	-0.539097882414047	0	0
0	0	0.0202305015574614	-0.0069791036021621	0	0	-0.317907883332987	0.807155240117618
0.797997104212659	-0.539097882414047	0	0	-0.01171264226449	0.0515352686895383	0	0
0	0	-0.535838649455348	-0.648781492170539	0	0	0.0586785011709382	0.0345014463664131
5.8	0.0335123169646697	-0.015363358234364	0	0	0.521503671436126	0.797951125670964	0	0
0	0	-0.0223690326584214	-0.0314838195122172	0	0	0.155267249445132	0.853420361650124
0.521503671436126	0.797951125670964	0	0	0.0592441884436383	-0.027353333614169	0	0
0	0	0.324091152354144	-0.770678609650527	0	0	0.0340353796046592	0.0553840669698806
5.9	-0.0366000917568291	0.00211703107638165	0	0	0.811724116699341	-0.498241143576419	0	0
0	0	-0.0563071344294188	-0.026972381699053	0	0	-0.585037853306988	-0.637638661483231
0.811724116699341	-0.498241143576419	0	0	-0.0729575158354089	0.0432595793793814	0	0
0	0	-0.826780604482757	0.0595788666822449	0	0	0.0373665424402268	0.0721516268526873
6	0.0353620214567911	0.0109654871072351	0	0	0.482089798651655	0.825171365678462	0	0
0	0	-0.0339464393183151	0.00568952416467671	0	0	-0.847603844476889	-0.194961001066502
0.482089798651655	0.825171365678462	0	0	-0.00272705361103366	0.023521118937543	0	0
