# GHZ S RI R 50
0.2	-0.00641959656648778	0.00646854647372036	0	0	0.958290590915704	0.057554253354446	0	0
0	0	0.0234903510823655	0.00217800160159647	0	0	-0.3700122654687	0.911342982609029
0.958290590915704	0.057554253354446	0	0	0.0219023271641599	0.0480615681872519	0	0
0	0	0.569290130514557	-0.754348992518288	0	0	0.00224510399785678	-0.0257647148329404
0.3	0.00751534794943957	-0.00847028572286611	0	0	0.0326945766769767	-0.965406103730858	0	0
0	0	-0.00381040690454169	0.000970209777473664	0	0	-0.135063153574907	-0.97427180396278
0.0326945766769767	-0.965406103730858	0	0	-0.011985704942198	0.00793488561890756	0	0
0	0	-0.92237445100986	-0.201443065835938	0	0	-0.030630922329423	-0.0139445845533137
0.4	-0.0085666568358518	0.00783844946304424	0	0	0.948656582906725	0.0607540622064531	0	0
0	0	-0.0394819308197247	0.00102850236601881	0	0	-0.668088367187756	-0.724913286636901
0.948656582906725	0.0607540622064531	0	0	-0.0321356264256651	-0.0124157162389546	0	0
0	0	-0.236355536117199	-0.89551147547354	0	0	0.0236472175554131	0.0211729767489813
0.5	0.00982611817529525	-0.0048312456568619	0	0	0.12606112523302	-0.948817335823823	0	0
0	0	-0.0342274974597316	0.0055138706001484	0	0	0.964046483120067	0.205437211348196
0.12606112523302	-0.948817335823823	0	0	0.0381701733015287	0.0167739582351406	0	0
0	0	-0.677356667729042	0.637608957175117	0	0	0.00648265695437179	0.00792352756901072
0.6	-0.00981996433086081	0.00130759356642322	0	0	0.954461396156868	0.129177181103097	0	0
0	0	-0.0104182373468662	0.00680305304762171	0	0	0.911249124285961	-0.331068988453143
0.954461396156868	0.129177181103097	0	0	0.00547523110290019	-0.0197617646850782	0	0
0	0	-0.861915468447779	-0.342794470623406	0	0	-0.00477783876991516	-0.0072080116198284
0.7	0.00964357781321024	0.00235826191300749	0	0	0.106772455832087	-0.956507620663215	0	0
0	0	0.0202264567869523	-0.010578619537501	0	0	-0.608651977089732	0.748643599851032
0.106772455832087	-0.956507620663215	0	0	0.00818858516159283	0.00991039430299214	0	0
0	0	0.0478402404830672	0.918953113855764	0	0	0.00233076373455028	-0.0127726866858144
0.8	-0.00916302834473449	-0.00598314839536377	0	0	0.95334633431945	0.111477645321798	0	0
0	0	0.0419750547959149	-0.0417390321955148	0	0	-0.118242886661086	0.959345380260228
0.95334633431945	0.111477645321798	0	0	-0.0223850417216643	0.0133307544211713	0	0
0	0	-0.80913414181595	0.449498835254532	0	0	0.00701214987063576	0.0835364098479919
0.9	0.00714656977437264	0.00851165835034341	0	0	0.142930994674057	-0.937636957385858	0	0
0	0	0.0116178473528137	-0.0278550531961202	0	0	-0.435101702059454	-0.863005330468348
0.142930994674057	-0.937636957385858	0	0	-0.00195062773363054	-0.0606604173645667	0	0
0	0	0.763192107968341	0.522271184197653	0	0	0.0364691769189895	0.0143459760678108
1	-0.0041716567263134	-0.00954366623561348	0	0	0.940147204031012	0.179771609655641	0	0
0	0	-0.0151347522201289	0.0115514023812218	0	0	-0.836547308857696	-0.478666536862351
0.940147204031012	0.179771609655641	0	0	0.00360713707619845	0.0426288117882642	0	0
0	0	-0.124572303298156	0.900070200279562	0	0	0.00396340089629814	0.0028225476876638
1.1	0.000634265396716431	0.00876532209746448	0	0	0.200018330789977	-0.946607892712156	0	0
0	0	-0.0114696636321388	0.0347216478018558	0	0	0.953192163713027	-0.0517589612747084
0.200018330789977	-0.946607892712156	0	0	0.00467310732546777	0.00236000301622832	0	0
0	0	0.865893566009773	-0.260243563583378	0	0	0.00984573258190618	0.0432339485877532
1.2	0.00264381912673106	-0.00676327397644381	0	0	0.955960568003873	0.201672488548465	0	0
0	0	0.00957736437224582	0.0644201001120191	0	0	0.768359569553233	-0.552955733088805
0.955960568003873	0.201672488548465	0	0	0.0546334131457599	-0.00050371202083974	0	0
0	0	0.611942018364944	0.669073723009164	0	0	0.00825853121588382	0.099134362349272
1.3	-0.0049631929765905	0.00367365759525297	0	0	0.204974340953698	-0.93947148929661	0	0
0	0	0.0174042466711036	0.019179403167091	0	0	-0.354244127995823	0.880056835642125
0.204974340953698	-0.93947148929661	0	0	-0.0524789702780711	7.61705314081436E-05	0	0
0	0	0.321392039203839	-0.856189667825163	0	0	0.0411764417869882	0.0141747385543968
1.4	0.00570218691781976	-9.12434361760944E-05	0	0	0.921383611177513	0.233797333976593	0	0
0	0	-0.0120976502988819	-0.0430922916145838	0	0	0.17793536751576	0.934547766359184
0.921383611177513	0.233797333976593	0	0	0.0181892543402678	0.00743300472931913	0	0
0	0	0.895998962558733	-0.0827289320667122	0	0	0.0452901210254896	-0.00673141884150059
1.5	-0.00479832548574239	-0.00275799824054818	0	0	0.271714895862681	-0.919477213688145	0	0
0	0	-0.0372903326633479	-0.0553808249251047	0	0	-0.671561631389207	-0.674752124616542
0.271714895862681	-0.919477213688145	0	0	0.0338360721517711	-0.0332829608757079	0	0
0	0	-0.458745092493752	-0.766153180966707	0	0	0.0336426542500486	0.0514887297893441
1.6	0.00262856734698531	0.00413598314273558	0	0	0.934416812662614	0.296300204892173	0	0
0	0	-0.0356803304170054	-0.0184160343293909	0	0	-0.93428576956051	-0.185544490450955
0.934416812662614	0.296300204892173	0	0	-0.0506279682958346	-0.0278934567076366	0	0
0	0	0.498088636722727	-0.751038151500926	0	0	0.00115741236001999	0.0516916212328851
1.7	0.000503652544970877	-0.00391139055887324	0	0	0.291756531007787	-0.940479167120664	0	0
0	0	0.0157588677927096	0.00745273484683742	0	0	0.884040627483525	-0.340571526010745
0.291756531007787	-0.940479167120664	0	0	-0.00102683875923246	0.00439026487292009	0	0
0	0	-0.898399141829408	-0.113361373706233	0	0	0.0401263054578076	-0.0307176895765737
1.8	-0.00362249788693813	0.0022849329878761	0	0	0.915363410256428	0.293233876857234	0	0
0	0	0.0453053022760248	0.0388546287685054	0	0	0.574833560659796	-0.74312647739402
0.915363410256428	0.293233876857234	0	0	0.00584383269217922	0.064421556891999	0	0
0	0	-0.307193521737902	-0.849041593213983	0	0	0.0275950254811439	-0.0341627258507519
1.9	0.00572998164956045	0.000554303586705998	0	0	0.322559453968384	-0.89246334665693	0	0
0	0	0.0523949947585887	-0.00337175500670785	0	0	-0.0861922559438405	0.940616958584182
0.322559453968384	-0.89246334665693	0	0	0.00929232654018112	0.00861360727864005	0	0
0	0	-0.616627376272807	0.643318092984568	0	0	0.0405499288767159	0.0235392188415983
2	-0.00612233794834416	-0.00436559562770408	0	0	0.88988381823393	0.352958627370065	0	0
0	0	0.0146267005143454	-0.00502917519114067	0	0	0.45471060557565	0.834414142082424
0.88988381823393	0.352958627370065	0	0	-0.0498763801768286	-0.0337962454368098	0	0
0	0	-0.843473964946795	-0.266538543177379	0	0	-0.0529887252069872	-0.0217058569676036
2.1	0.00466393859792778	0.00850722405634991	0	0	0.367587233441542	-0.897361055214062	0	0
0	0	-0.0296268328898628	0.00744216662571969	0	0	-0.829281869886104	-0.454738952693985
0.367587233441542	-0.897361055214062	0	0	0.0703997758110907	0.0166603600049431	0	0
0	0	0.132876376780021	0.880158846129486	0	0	-0.00516289890037393	0.00953881578709342
2.2	-0.00118026228655219	-0.012241479459308	0	0	0.898297090005231	0.379141661368579	0	0
0	0	-0.0484984388505856	0.0165686739129861	0	0	-0.93323535128351	0.0664884907198042
0.898297090005231	0.379141661368579	0	0	0.0146103882397292	-0.0110960993919498	0	0
0	0	-0.739012543649781	0.504829970055469	0	0	0.0426466710884141	-0.0112622402283965
2.3	-0.00383580424306312	0.0142815297762004	0	0	0.38832439741825	-0.88958247502189	0	0
0	0	-0.0306489659141728	0.0186516116508764	0	0	0.738535910561349	-0.554877664566967
0.38832439741825	-0.88958247502189	0	0	0.0580059408612123	-0.0290277670992254	0	0
0	0	0.776284092610854	0.434122784281276	0	0	0.0665625220854503	0.0466639440952158
2.4	0.00980098116563559	-0.0139441322028445	0	0	0.878213062108592	0.399598741411516	0	0
0	0	-0.000541011350179471	0.000521387911403101	0	0	0.325497865049439	-0.868416694108902
0.878213062108592	0.399598741411516	0	0	-0.0975344079603525	0.0133526455451442	0	0
0	0	-0.040153627139939	0.883363125309806	0	0	0.0470088402997956	-0.049426628210088
2.5	-0.0161700034767321	0.0109007759395853	0	0	0.415728390259595	-0.866613746645243	0	0
0	0	0.0194666014507197	-0.0362662512080573	0	0	0.189256610379046	0.918144905446802
0.415728390259595	-0.866613746645243	0	0	-0.0107281862825623	-0.0272879064903708	0	0
0	0	0.805531038487865	-0.33209933360915	0	0	0.0121848014050126	-0.000915711773128277
2.6	0.0217493308617395	-0.00573363587316698	0	0	0.859287516152943	0.429096115550201	0	0
0	0	0.0183387307967476	-0.0387047800046096	0	0	0.667228876193598	0.653255780777662
0.859287516152943	0.429096115550201	0	0	0.00490921447177841	-0.0334992319990886	0	0
0	0	0.630623020639378	0.596948619250127	0	0	0.0621074032662815	0.0100154507616629
2.7	-0.0254862841242257	-0.00110188255363892	0	0	0.44314238215833	-0.852797230881892	0	0
0	0	0.0214791690886643	-0.00926822581526252	0	0	-0.896641515415697	-0.173557748955619
0.44314238215833	-0.852797230881892	0	0	0.0026429590970403	-0.0128520488236684	0	0
0	0	0.275154526977377	-0.834731030160919	0	0	-0.0277099663616314	-0.0008667965804478
2.8	0.0261368681043946	0.00882600555186683	0	0	0.841648070645544	0.456373228325034	0	0
0	0	0.0096000710100167	0.0129120107407546	0	0	-0.840492509123739	0.312241849545294
0.841648070645544	0.456373228325034	0	0	0.00358372476215984	0.0637162418802154	0	0
0	0	0.869816304487452	-0.150168235083546	0	0	0.0256462382509268	-0.0634849062288116
2.9	-0.0231268586338554	-0.0166388539035813	0	0	0.472490159112344	-0.821747427529028	0	0
0	0	-0.000673147351978072	0.0367133934646212	0	0	0.56589304833922	-0.698655142069825
0.472490159112344	-0.821747427529028	0	0	-0.0537144097067743	0.0340415020260587	0	0
0	0	-0.513609491159801	-0.700814108313062	0	0	-0.0401850458131147	-0.045763959752505
3	0.0174095272938951	0.0236047621368172	0	0	0.812078632885401	0.49698629391622	0	0
0	0	-0.0118120445005536	0.029362963425952	0	0	0.0923002439712892	-0.917038329950196
0.812078632885401	0.49698629391622	0	0	-0.00715726003380084	-0.0173722357452553	0	0
0	0	0.406002113019402	-0.757702617029931	0	0	0.0131651248890486	0.0854703123662036
3.1	-0.00915819523592353	-0.0278017176762509	0	0	0.5183263568882	-0.801184314851992	0	0
0	0	-0.021185073228729	0.0120888466064946	0	0	0.444748569222274	0.804463981888077
0.5183263568882	-0.801184314851992	0	0	0.0384308669752526	-0.063577496886114	0	0
0	0	-0.865824461114101	-0.0517880648231052	0	0	-0.0749418186844154	0.006053976645947
3.2	-0.000263082792696036	0.029360460724251	0	0	0.798919525131184	0.543086138726081	0	0
0	0	-0.0187254346372588	-0.00635932906488154	0	0	0.793472867389335	0.438187009370977
0.798919525131184	0.543086138726081	0	0	0.000419438767361007	0.0252556795779953	0	0
0	0	-0.333347640314268	-0.811987441935455	0	0	-0.0588222841782993	0.00658202428220804
3.3	0.0095247896276857	-0.0270215027469981	0	0	0.555567914983723	-0.794364079283932	0	0
0	0	-0.00196570635830074	-0.0243541919087899	0	0	-0.901739113482767	0.0459142765975809
0.555567914983723	-0.794364079283932	0	0	0.0613088315382093	0.0248297394424221	0	0
0	0	-0.575695178385753	0.670312247474254	0	0	-0.0261600221374979	-0.106262278377335
3.4	-0.0172735346865301	0.0210919192280918	0	0	0.77754439660522	0.561661416411099	0	0
0	0	-0.00474070366858113	-0.0411266337851773	0	0	-0.733680737101731	0.537139743406056
0.77754439660522	0.561661416411099	0	0	-0.114366425830173	0.00740600756923582	0	0
0	0	-0.852807529595266	-0.226528998456824	0	0	-0.0189486945091142	-0.0396948058748678
3.5	0.022608412466411	-0.0133612387314418	0	0	0.577393389479605	-0.768497691480702	0	0
0	0	0.00794887190935034	-0.030954874756064	0	0	0.302194450848505	-0.865128825048719
0.577393389479605	-0.768497691480702	0	0	-0.0114241181480482	-0.0535652883699695	0	0
0	0	0.161816777731977	0.842410662925455	0	0	0.0855307332150243	-0.0710997310644629
3.6	-0.0245173130173471	0.00455508714034622	0	0	0.7619449539977	0.588473751994409	0	0
0	0	0.0199571844433036	0.00180591346855755	0	0	-0.203255199889027	-0.894902856021059
0.7619449539977	0.588473751994409	0	0	-0.0351913302945408	0.0598137352027418	0	0
0	0	-0.695694635591905	0.515063286062852	0	0	0.0450748599636859	-0.0308627263642514
3.7	0.022553461245242	0.00487691350121885	0	0	0.608308811404958	-0.742460412306721	0	0
0	0	0.0145404034185966	0.0358002920106945	0	0	0.634911321159911	0.653580389121444
0.608308811404958	-0.742460412306721	0	0	0.118211512479914	0.00914573523766214	0	0
0	0	0.767904541919573	0.415075239753827	0	0	0.0557355049497249	-0.0182489164450069
3.8	-0.0176279480219301	-0.0126739525455935	0	0	0.737130782067603	0.627971754528139	0	0
0	0	0.015830408531607	0.0502819878542989	0	0	0.871105794781272	0.193009107014969
0.737130782067603	0.627971754528139	0	0	-0.0257817504454015	0.0205586797360642	0	0
0	0	-0.0221362557008117	0.872571917822048	0	0	-0.0581659521026978	-0.0261637307045963
3.9	0.010554746354478	0.0174042346198946	0	0	0.633296341194606	-0.737710647759286	0	0
0	0	0.0115344348688742	0.0156671628442346	0	0	-0.828591499543969	0.323069348745883
0.633296341194606	-0.737710647759286	0	0	-0.0146475882435552	0.0836836853350176	0	0
0	0	0.78764295797356	-0.381386076165365	0	0	0.0250513444090356	-0.00536523217078859
4	-0.00182821217092152	-0.01878439043505	0	0	0.721277007799646	0.64166774704922	0	0
0	0	-0.0166003908055888	-0.0119668287719021	0	0	-0.522283647557999	0.724644537292207
0.721277007799646	0.64166774704922	0	0	0.0524136924521735	-0.0742450797695697	0	0
0	0	0.683916265983018	0.521996499895125	0	0	-0.00487519451985524	0.00961489657639397
4.1	-0.00626216639530262	0.0167637447196315	0	0	0.646972555679644	-0.709694668092324	0	0
0	0	-0.0417355256740451	-0.0348996390667945	0	0	0.0593060542390086	-0.896074765558728
0.646972555679644	-0.709694668092324	0	0	0.0264779961113287	-0.112790171880268	0	0
0	0	0.188532233156939	-0.831599232675399	0	0	0.0258475677409419	0.0830167763241395
4.2	0.0127212038720795	-0.0120662997300219	0	0	0.706016423607733	0.657826606285459	0	0
0	0	-0.0493251599744072	-0.0149115169635759	0	0	-0.433322989148241	-0.786384995990349
0.706016423607733	0.657826606285459	0	0	-0.0406313596502251	0.0163306139793558	0	0
0	0	0.836661906661979	-0.18304970090444	0	0	-0.0116394254250453	-0.0419163455598847
4.3	-0.0163844137579167	0.00509328324649346	0	0	0.665744805226596	-0.700394511128563	0	0
0	0	-0.00788028343654808	0.00704378876014997	0	0	0.781995935273627	0.427602172251826
0.665744805226596	-0.700394511128563	0	0	-0.0114599409550993	0.0681203593797044	0	0
0	0	-0.536378986545959	-0.678214167901289	0	0	-0.0146508019130565	0.00235975783826547
4.4	0.0164744865571794	0.00320214189569915	0	0	0.684112993332646	0.674223080001614	0	0
0	0	0.0376519923642292	0.00434030515759463	0	0	0.892934151599592	-0.0537285596951785
0.684112993332646	0.674223080001614	0	0	0.00126025094104928	-0.0507434097100192	0	0
0	0	0.347989869461847	-0.776248007993277	0	0	-0.0340811200142708	0.0033187744708488
4.5	-0.0129980154440515	-0.0107176737992452	0	0	0.679657800889363	-0.666246034359988	0	0
0	0	0.0644644679262127	-0.00484268439757245	0	0	-0.725303118261484	0.526137543527426
0.679657800889363	-0.666246034359988	0	0	-0.0505310139925177	0.026910859279998	0	0
0	0	-0.83913141502605	0.0119676744338803	0	0	-0.086948387694219	0.0627990485451667
4.6	0.00662547508809408	0.0163646485226761	0	0	0.648239647106538	0.693276382875188	0	0
0	0	0.0467032273532052	-0.0255002662105466	0	0	-0.313103643551042	0.847975148647652
0.648239647106538	0.693276382875188	0	0	-0.00409201762384433	0.0141043145426478	0	0
0	0	-0.374164361048578	-0.747016648191612	0	0	-0.0809583098079915	-0.00937649889905472
4.7	0.00139624438230975	-0.0189527512092644	0	0	0.70962290045003	-0.641058080341155	0	0
0	0	-0.0241817230428263	-0.00591530716259124	0	0	-0.193096316167046	-0.876102604241004
0.70962290045003	-0.641058080341155	0	0	0.0657574012416996	-0.0178388162664658	0	0
0	0	-0.524709170375812	0.658460454502013	0	0	-0.0734319396501562	0.0731055933802991
4.8	-0.00995732845689266	0.0180148492315009	0	0	0.640522360650554	0.724859744416479	0	0
0	0	-0.0580998131578784	0.0339239173389873	0	0	-0.609428297325455	-0.634923901995511
0.640522360650554	0.724859744416479	0	0	0.0530143071585567	-0.0184987441636688	0	0
0	0	-0.82958892344396	-0.195977261486375	0	0	-0.00891514600051314	0.0722573274316564
4.9	0.017510969964182	-0.012852319624463	0	0	0.73034726803419	-0.631515346539993	0	0
0	0	-0.0392261594552502	0.0585433215363213	0	0	0.855405382390763	0.205847998219098
0.73034726803419	-0.631515346539993	0	0	-0.0811218832437281	-0.0285221139343564	0	0
0	0	0.200543075006076	0.821653716463928	0	0	-0.0836786579321075	0.00421113601229382
5	-0.0221918426532861	0.00472969102071199	0	0	0.619422009903252	0.72562180721122	0	0
0	0	3.34470836697672E-05	0.0205701603049145	0	0	0.830688314501103	-0.299116385224467
0.619422009903252	0.72562180721122	0	0	-0.0475776497116987	0.0410327574831849	0	0
0	0	-0.644613002165663	0.534480170140812	0	0	0.0414361527818496	-0.00911826217452397
5.1	0.0236863295148825	0.00520536424746175	0	0	0.72708673712688	-0.605718641573124	0	0
0	0	0.0385474817232559	-0.0330802632097918	0	0	-0.532976661241323	0.695043264202667
0.72708673712688	-0.605718641573124	0	0	-0.0216653821266489	-0.0411362118730627	0	0
0	0	0.749419779636835	0.344660578245445	0	0	0.0724171045923873	-0.0196112923834903
5.2	-0.0213166766166746	-0.0163136978545693	0	0	0.582387399543349	0.745343996619551	0	0
0	0	0.0158885114291924	-0.0738853950724762	0	0	-0.079859442952479	0.870928341954251
0.582387399543349	0.745343996619551	0	0	0.0381739736169277	0.0226626370140033	0	0
0	0	0.0140425786482418	0.831705553194217	0	0	0.0264826160946442	0.0664224531306171
5.3	0.015072689143078	0.0259242453477869	0	0	0.764833348150341	-0.569450281433825	0	0
0	0	-0.0146005009461667	-0.0410195814758452	0	0	-0.409706441302229	-0.771668786260067
0.764833348150341	-0.569450281433825	0	0	-0.0320278618985803	0.0246751127017546	0	0
0	0	0.743574159753982	-0.371857706129054	0	0	-0.0434021190107576	0.0117006728553943
5.4	-0.00596473575441978	-0.0319277618455791	0	0	0.560687347623724	0.771176663585562	0	0
0	0	-0.0318561255050128	0.0147133846248999	0	0	-0.765393389261922	-0.431542803479787
0.560687347623724	0.771176663585562	0	0	0.0698666469178994	0.0882899006985842	0	0
0	0	0.65518066179766	0.512679890284137	0	0	-0.00961690592901536	0.0218082927166074
5.5	-0.00492992530600417	0.0343431948672683	0	0	0.783546845237	-0.557744003488834	0	0
0	0	0.0226884755177408	0.0599091181303484	0	0	0.878494573800878	-0.0396991574552404
0.783546845237	-0.557744003488834	0	0	-0.00614672280445037	-0.0276900786074188	0	0
0	0	0.162335571943007	-0.816735382760232	0	0	0.0212274784350035	0.0388841755234468
5.6	0.0165380176162176	-0.0318134497728461	0	0	0.543880887830178	0.790705443163307	0	0
0	0	0.0419517954182398	0.0563087509658921	0	0	0.703202420927639	-0.505295097610659
0.543880887830178	0.790705443163307	0	0	0.00338238055902371	-0.109868756497665	0	0
0	0	0.803166345960767	-0.197553012203289	0	0	0.00960247050618344	0.118376542247572
5.7	-0.0272852662440432	0.0253038721222555	0	0	0.805408487900408	-0.536247637497667	0	0
0	0	0.0204237773563937	-0.00746320937144554	0	0	-0.324721607795574	0.80882042189341
0.805408487900408	-0.536247637497667	0	0	-0.0126953619011397	0.052010037815113	0	0
0	0	-0.53405305251565	-0.655346587849357	0	0	0.0586307746403983	0.0358089940026686
5.8	0.0340689202930946	-0.0147956323661606	0	0	0.519943533997608	0.806615346087188	0	0
0	0	-0.0220126350483305	-0.0318496134341358	0	0	0.150935768593437	0.860099011506892
0.519943533997608	0.806615346087188	0	0	0.0602153240039749	-0.0267693502681275	0	0
0	0	0.331104792653917	-0.773788811180063	0	0	0.033668038962474	0.05683418362764
5.9	-0.0371033768437662	0.00169190878406847	0	0	0.821510548184091	-0.498115691309066	0	0
0	0	-0.0559137449027328	-0.0271348911196419	0	0	-0.586693161226217	-0.646258379891032
0.821510548184091	-0.498115691309066	0	0	-0.0748081316021484	0.0434607412767365	0	0
0	0	-0.834235262389875	0.0556908848102551	0	0	0.0372259199887483	0.0741492883728904
6	0.0357048428235104	0.0112918618937749	0	0	0.483901528878749	0.835566970736279	0	0
0	0	-0.0336371596605618	0.00573734683734697	0	0	-0.855561445430893	-0.200179362253474
0.483901528878749	0.835566970736279	0	0	-0.00294596568573769	0.0242819875911378	0	0
