# GHZ S RI R 50
0.2	-0.00589559045646547	0.0114195788583248	0	0	0.95775507502676	0.0584439643588683	0	0
0	0	0.0198651779452709	0.00564991306568445	0	0	-0.370655655095186	0.91093307974824
0.95775507502676	0.0584439643588683	0	0	0.0201368664420184	0.0412304025883192	0	0
0	0	0.569785847652411	-0.753809059954097	0	0	0.000614908852737643	-0.0325860790681059
0.3	0.00642433654146147	-0.0101594277073733	0	0	0.0341210342148083	-0.96506958667637	0	0
0	0	-0.00549938348124736	0.0020372621054585	0	0	-0.13363566613797	-0.974182530249032
0.0341210342148083	-0.96506958667637	0	0	-0.01507179710802	0.00426959543328512	0	0
0	0	-0.921820632796427	-0.2026992798944	0	0	-0.0336487724545695	-0.0176539273130199
0.4	-0.00884281653779443	0.00790150223020099	0	0	0.948536061861158	0.0629475104045709	0	0
0	0	-0.0394188543612561	0.000749638544543754	0	0	-0.666414847664025	-0.726451620857559
0.948536061861158	0.0629475104045709	0	0	-0.0349387195890229	-0.013838969211709	0	0
0	0	-0.234289934685715	-0.896053798636392	0	0	0.0206821270607094	0.0200064773457498
0.5	0.0115874937236854	-0.00471702356677777	0	0	0.129051581899849	-0.94892726138973	0	0
0	0	-0.0329290612953534	0.00432235232278003	0	0	0.963979153573444	0.208532544035261
0.129051581899849	-0.94892726138973	0	0	0.0362581641830651	0.0170313111425415	0	0
0	0	-0.679722104928747	0.635893660911332	0	0	0.00458337054611129	0.00797575513485325
0.6	-0.0123639183897254	0.00222665524227113	0	0	0.955424762569921	0.132996853857703	0	0
0	0	-0.00823951281964503	0.00536451986343316	0	0	0.913881915279861	-0.328163714957223
0.955424762569921	0.132996853857703	0	0	0.00486086499610755	-0.0195329109931944	0	0
0	0	-0.861950044210521	-0.346545424373246	0	0	-0.00552247516894749	-0.00701860690304164
0.7	0.0116679375971322	0.000148038804749099	0	0	0.110996455053002	-0.958565941430387	0	0
0	0	0.022834712870775	-0.0117386237115455	0	0	-0.613382382584534	0.748141210100512
0.110996455053002	-0.958565941430387	0	0	0.00797080994065816	0.00984577787419179	0	0
0	0	0.044171177709996	0.921621691304256	0	0	0.00226876671804952	-0.013010305082687
0.8	-0.0100238137341647	-0.00340885790210343	0	0	0.956638454590943	0.115803183073459	0	0
0	0	0.0444773829721811	-0.0424904453360604	0	0	-0.122640190740609	0.962422943356824
0.956638454590943	0.115803183073459	0	0	-0.0229181797821805	0.0124839696332707	0	0
0	0	-0.813995713082317	0.447831238118424	0	0	0.00612653965537426	0.0834573677515387
0.9	0.00714012715691669	0.00656218152139725	0	0	0.147206505327377	-0.942202826658219	0	0
0	0	0.0135067428388105	-0.0281807024844095	0	0	-0.434093126991281	-0.869251131084023
0.147206505327377	-0.942202826658219	0	0	-0.00234466616216629	-0.0623529647308048	0	0
0	0	0.765231439917174	0.527971096861685	0	0	0.0359112181366316	0.0137371292148356
1	-0.00401143449992333	-0.00855775081441307	0	0	0.945740433615842	0.183777171226653	0	0
0	0	-0.014191021394423	0.0116507205698593	0	0	-0.84060935696883	-0.484308384517529
0.945740433615842	0.183777171226653	0	0	0.00184917976284046	0.0424929736140662	0	0
0	0	-0.128079223623118	0.905607192463227	0	0	0.00244115160142824	0.00216504073229087
1.1	0.00107906839589529	0.00853313482046886	0	0	0.203257322149029	-0.953406202764764	0	0
0	0	-0.0115792208594414	0.0351081673107597	0	0	0.96052882597203	-0.0504066243494326
0.203257322149029	-0.953406202764764	0	0	0.0027486007287166	0.00248484271154735	0	0
0	0	0.872948773978055	-0.260635057628073	0	0	0.00784824708960267	0.0440521190140201
1.2	0.00128656038464565	-0.00655645704930705	0	0	0.96368360648559	0.203711699816997	0	0
0	0	0.00855010054276121	0.0647994171981246	0	0	0.774879590296765	-0.557278171887098
0.96368360648559	0.203711699816997	0	0	0.0536227337581514	0.000505526525760615	0	0
0	0	0.616783011675479	0.674792591892925	0	0	0.00639207432203805	0.101899231622502
1.3	-0.00320392049946003	0.00299894448928653	0	0	0.205479954594273	-0.947776611024058	0	0
0	0	0.0158511741500386	0.0192409050535383	0	0	-0.356262660016509	0.888006619060974
0.205479954594273	-0.947776611024058	0	0	-0.0549164167702371	0.00172941355187319	0	0
0	0	0.323156660206072	-0.863896998372052	0	0	0.0403602387085698	0.0160693675877987
1.4	0.00396913813002576	0.000848510433242332	0	0	0.929683966437848	0.233078403110785	0	0
0	0	-0.0137275604854522	-0.0436107898630385	0	0	0.182010767581043	0.941892603790169
0.929683966437848	0.233078403110785	0	0	0.0174222239834547	0.00914284520337021	0	0
0	0	0.903283720696956	-0.0858994159951821	0	0	0.0448457753554754	-0.00519545205699188
1.5	-0.00312139310335167	-0.00403400916506373	0	0	0.269824416506905	-0.927766335365762	0	0
0	0	-0.0388447081430226	-0.056393364766935	0	0	-0.679628231654434	-0.676960732977645
0.269824416506905	-0.927766335365762	0	0	0.0334156853144166	-0.0323419310521231	0	0
0	0	-0.465589007168758	-0.769988262684362	0	0	0.0339249001674584	0.0538426817269061
1.6	0.0012547354618299	0.00592440112425232	0	0	0.942414960012896	0.292838113730238	0	0
0	0	-0.0369926620815746	-0.0198569384343403	0	0	-0.941477144378213	-0.181416221763235
0.942414960012896	0.292838113730238	0	0	-0.0516422184649691	-0.026016505775119	0	0
0	0	0.497059411104805	-0.758815507928951	0	0	0.00175258202579963	0.0541046542127299
1.7	0.00114631231168092	-0.00587145118683096	0	0	0.287042698908014	-0.947360141850207	0	0
0	0	0.0148716439410992	0.00592322847489999	0	0	0.886561246951325	-0.348227206003137
0.287042698908014	-0.947360141850207	0	0	-0.000491845645449498	0.00571918635146603	0	0
0	0	-0.903985932736937	-0.108056851026761	0	0	0.0406374051463014	-0.0302332713236462
1.8	-0.00370653861728628	0.00385126050252091	0	0	0.920730050492493	0.287861040703291	0	0
0	0	0.0449590374326146	0.0375360931136208	0	0	0.571729842956003	-0.750053140336772
0.920730050492493	0.287861040703291	0	0	0.00747075278972275	0.0655796687556195	0	0
0	0	-0.314412590866712	-0.850088278764123	0	0	0.0280234228154513	-0.0339865353262124
1.9	0.00579128774321822	-0.000498859645977419	0	0	0.316952004765637	-0.89661544177752	0	0
0	0	0.0526032760087812	-0.00426983548574851	0	0	-0.0797509823937947	0.943238414073624
0.316952004765637	-0.89661544177752	0	0	0.0100411253803753	0.00888240598830282	0	0
0	0	-0.613416233403993	0.649039358849586	0	0	0.0416796449782752	0.0234694909736117
2	-0.00644514753914199	-0.00356607432202231	0	0	0.892798434937534	0.347333465208798	0	0
0	0	0.0152693882179838	-0.00540649009964207	0	0	0.460532716723331	0.831967820464687
0.892798434937534	0.347333465208798	0	0	-0.0500022640798913	-0.033002665431689	0	0
0	0	-0.84580240569021	-0.261140658320688	0	0	-0.0529342657121907	-0.0208262780752063
2.1	0.00522045619119432	0.00760299160652288	0	0	0.362478129381656	-0.898924398499746	0	0
0	0	-0.0287197350866136	0.00758544805271792	0	0	-0.831408638662406	-0.449864288556152
0.362478129381656	-0.898924398499746	0	0	0.0707529403276259	0.0160799624280886	0	0
0	0	0.137738383586494	0.878968928312148	0	0	-0.00478684774902427	0.00981599176887041
2.2	-0.00166115212470149	-0.011081739984365	0	0	0.898833651041094	0.374838354628095	0	0
0	0	-0.0475624821438838	0.0171040720645986	0	0	-0.931836417744383	0.0704009788794257
0.898833651041094	0.374838354628095	0	0	0.0147676860195678	-0.0108685814368902	0	0
0	0	-0.735970567927891	0.50738817854793	0	0	0.0427584111862499	-0.011273433271376
2.3	-0.00371820253511149	0.0131040402927591	0	0	0.385272221286561	-0.889474929374323	0	0
0	0	-0.0299047615200573	0.0193343580891066	0	0	0.735921512516214	-0.556153211418879
0.385272221286561	-0.889474929374323	0	0	0.0581714785166912	-0.0289362038278936	0	0
0	0	0.776388732164999	0.431323875934617	0	0	0.067170122870114	0.0464818244757188
2.4	0.00995304979035731	-0.0131041295007617	0	0	0.877774270905464	0.397784235623259	0	0
0	0	-0.000131640608221349	0.00111364323364997	0	0	0.323826998771092	-0.868017828405689
0.877774270905464	0.397784235623259	0	0	-0.0965332523554742	0.0137536469291167	0	0
0	0	-0.0387551482302121	0.882510477244118	0	0	0.0475501470861027	-0.0492952916661386
2.5	-0.0162448762527198	0.0105369411096377	0	0	0.415329028901017	-0.866530164859965	0	0
0	0	0.019475182178492	-0.0359506413617354	0	0	0.189541328926435	0.917858205386546
0.415329028901017	-0.866530164859965	0	0	-0.00991898586879891	-0.0274256395032622	0	0
0	0	0.805219855098005	-0.332309573007653	0	0	0.0130880779511304	-0.00105416852231005
2.6	0.021471039436449	-0.00561243769379012	0	0	0.859960385683756	0.429912736950727	0	0
0	0	0.0180582857834197	-0.0387605546245598	0	0	0.667623860233724	0.654206361648074
0.859960385683756	0.429912736950727	0	0	0.00570681026171282	-0.0340060632027219	0	0
0	0	0.631005166465431	0.597826285661688	0	0	0.0630840206830058	0.00967361659233512
2.7	-0.0249121071317014	-0.00126734889320666	0	0	0.444861003387574	-0.854632414239132	0	0
0	0	0.0211293481897315	-0.00964800433663435	0	0	-0.898817646252813	-0.1745883810676
0.444861003387574	-0.854632414239132	0	0	0.00330446493241621	-0.0135319133705389	0	0
0	0	0.276404057155549	-0.836682497315081	0	0	-0.0271278805792313	-0.00150043664528153
2.8	0.0254568575227106	0.00906142138089248	0	0	0.844901110439295	0.458546551310767	0	0
0	0	0.00942669849277115	0.0123323036989311	0	0	-0.844139611612511	0.313226833557969
0.844901110439295	0.458546551310767	0	0	0.00407477227098827	0.0635545484035053	0	0
0	0	0.873523757282697	-0.150461886902209	0	0	0.0264930907968347	-0.0646672329249561
2.9	-0.0223495294332746	-0.0168270404803703	0	0	0.474667473872414	-0.826636530942648	0	0
0	0	-0.000461067788512837	0.0360546690843855	0	0	0.568718997443067	-0.702941461289018
0.474667473872414	-0.826636530942648	0	0	-0.0539249613876161	0.0338088112212676	0	0
0	0	-0.51691951796522	-0.704510103594445	0	0	-0.0402968844429772	-0.0469342475464164
3	0.016388703684366	0.0238354018548496	0	0	0.818621083241181	0.498798697424122	0	0
0	0	-0.0111763897554363	0.0287275005704313	0	0	0.091130230344749	-0.923392462490652
0.818621083241181	0.498798697424122	0	0	-0.00713699985924882	-0.0181805329191968	0	0
0	0	0.407255309659538	-0.763596853983165	0	0	0.0138928721420468	0.085937659570012
3.1	-0.00790720175339171	-0.0282928990205659	0	0	0.519291778658519	-0.809257170674641	0	0
0	0	-0.020176896499135	0.0116033217633725	0	0	0.451277265333803	0.808829197285572
0.519291778658519	-0.809257170674641	0	0	0.0384867768688882	-0.0652654695739231	0	0
0	0	-0.872601044055737	-0.0487888464393197	0	0	-0.0760301271562269	0.00627674232962568
3.2	-0.00151073383993024	0.0302091254108749	0	0	0.808275219746649	0.542539333326404	0	0
0	0	-0.017526561921807	-0.00654182964976967	0	0	0.80225474056753	0.436815418984781
0.808275219746649	0.542539333326404	0	0	0.000613422514407581	0.0253856317442268	0	0
0	0	-0.340809592513378	-0.816277221639372	0	0	-0.059758175023621	0.0071213667218429
3.3	0.0105318454043664	-0.0280538801789723	0	0	0.553240113811593	-0.804593054437179	0	0
0	0	-0.000839729841691427	-0.0241614999471309	0	0	-0.908069984214471	0.0536758379901287
0.553240113811593	-0.804593054437179	0	0	0.0625153571234589	0.0241020149389141	0	0
0	0	-0.574462509816513	0.680036291395543	0	0	-0.0283944898777471	-0.10748748324668
3.4	-0.0180698072474138	0.0220522598061487	0	0	0.788056567690077	0.557031462067209	0	0
0	0	-0.0039115623887015	-0.0405482374571069	0	0	-0.732744283731698	0.548011826908174
0.788056567690077	0.557031462067209	0	0	-0.115587638433708	0.00984662716586576	0	0
0	0	-0.860445600321301	-0.21919444966058	0	0	-0.0200153179241274	-0.0397901948292745
3.5	0.0233885905635045	-0.0142182269426305	0	0	0.570733999891187	-0.778889684984873	0	0
0	0	0.00835072071555858	-0.0301237371813569	0	0	0.293255433779871	-0.872720384570976
0.570733999891187	-0.778889684984873	0	0	-0.0126936797027559	-0.0537449390016622	0	0
0	0	0.1726208609214	0.844356955450469	0	0	0.0846814733394027	-0.0737781739394331
3.6	-0.0253517465571843	0.00550976241957841	0	0	0.771369933582727	0.579617937248971	0	0
0	0	0.0198752514047586	0.00282896191039872	0	0	-0.215577757536434	-0.894293113806481
0.771369933582727	0.579617937248971	0	0	-0.0335903325991576	0.0609589209863476	0	0
0	0	-0.69049273885978	0.525473347804056	0	0	0.044577207859922	-0.0322412706167044
3.7	0.0232949125330835	0.00379199855293051	0	0	0.597933877624553	-0.750696271229955	0	0
0	0	0.0140455413666496	0.0367543962189211	0	0	0.643853376094862	0.644615256776232
0.597933877624553	-0.750696271229955	0	0	0.118500609128884	0.00580983062280533	0	0
0	0	0.773503503768871	0.404314505636794	0	0	0.0552887091813796	-0.0198682265963319
3.8	-0.0181074413812597	-0.0115580316757431	0	0	0.743587573136463	0.615838696979591	0	0
0	0	0.0151733576177787	0.0509754959813082	0	0	0.87115689454328	0.180278607098594
0.743587573136463	0.615838696979591	0	0	-0.0250190935782917	0.0211018316406916	0	0
0	0	-0.00990316040470185	0.870236145298688	0	0	-0.0585023220642251	-0.0244705420988168
3.9	0.010800411754107	0.0165049244019729	0	0	0.62012831354489	-0.741778243530748	0	0
0	0	0.0108843064634199	0.0159845587910242	0	0	-0.819749649820424	0.332117791388493
0.62012831354489	-0.741778243530748	0	0	-0.012383891670775	0.0830882236087579	0	0
0	0	0.778265649769107	-0.389573831669039	0	0	0.0245673702727072	-0.00602227391996576
4	-0.00211799098223878	-0.0181839193000521	0	0	0.723076834721386	0.628267431676201	0	0
0	0	-0.0170995263098512	-0.0120910628402099	0	0	-0.509755037173748	0.724982867558497
0.723076834721386	0.628267431676201	0	0	0.0497262569008891	-0.074282356006808	0	0
0	0	0.684572762895599	0.509942602612143	0	0	-0.00471550647049571	0.00953854586645043
4.1	-0.00579558704725695	0.016272823592642	0	0	0.633975406147297	-0.709090595537783	0	0
0	0	-0.0419673181857618	-0.0353894220625917	0	0	0.0502278226574775	-0.887957220163678
0.633975406147297	-0.709090595537783	0	0	0.0236630783663417	-0.111092315872645	0	0
0	0	0.178814047012497	-0.825332621072337	0	0	0.0267451205173059	0.080926815416793
4.2	0.0121751505140935	-0.0115119732408867	0	0	0.703105248079244	0.645701437550259	0	0
0	0	-0.0492583298546643	-0.0155407891907012	0	0	-0.434287275448161	-0.774857327791045
0.703105248079244	0.645701437550259	0	0	-0.0396382766604529	0.0166343557937002	0	0
0	0	0.826381105366413	-0.187057347238922	0	0	-0.0121050998770322	-0.0408072993085749
4.3	-0.0159395050747862	0.00452341919592142	0	0	0.655176045623956	-0.695606020477681	0	0
0	0	-0.00761619093083472	0.00653778717785543	0	0	0.775294217335907	0.419340870358187
0.655176045623956	-0.695606020477681	0	0	-0.0105287445467329	0.0667349189734861	0	0
0	0	-0.533524034454925	-0.668296462798653	0	0	-0.0142878067584219	0.00249553718383916
4.4	0.0161015353168022	0.0035774303903993	0	0	0.678266844398297	0.665639533200558	0	0
0	0	0.0380080920721585	0.00415321505023527	0	0	0.88336697956337	-0.0550077391374929
0.678266844398297	0.665639533200558	0	0	0.00121573078623994	-0.0497173444327342	0	0
0	0	0.342698095692189	-0.768747973019833	0	0	-0.0331886824679673	0.00339017010434499
4.5	-0.0125046535646264	-0.0108504357671817	0	0	0.673223704753996	-0.65990212150178	0	0
0	0	0.0647747213310475	-0.00461336205888643	0	0	-0.71844451291835	0.521148766183603
0.673223704753996	-0.65990212150178	0	0	-0.0493304215163999	0.0262220183326847	0	0
0	0	-0.831189139214829	0.011844151098749	0	0	-0.0850672188418416	0.0614864457557589
4.6	0.00585459016897877	0.0164101973337565	0	0	0.642090421771416	0.68893277317416	0	0
0	0	0.0468826273520697	-0.0248840402375532	0	0	-0.31197161472832	0.840920812377678
0.642090421771416	0.68893277317416	0	0	-0.0039134945857235	0.0135570924147784	0	0
0	0	-0.37012112238474	-0.741795600462795	0	0	-0.0794580917710268	-0.00977506499176912
4.7	0.00238081818678954	-0.0191066159141657	0	0	0.707205061938443	-0.635603015726877	0	0
0	0	-0.0242951588387307	-0.00512314413989356	0	0	-0.18985319652445	-0.871468832672258
0.707205061938443	-0.635603015726877	0	0	0.0651507857381387	-0.0177734449213105	0	0
0	0	-0.523246757862522	0.653357783351552	0	0	-0.07281469894813	0.0714580682326228
4.8	-0.0110088546353019	0.0183585840135087	0	0	0.636333903746413	0.723943206447198	0	0
0	0	-0.058510695162866	0.0346558595841178	0	0	-0.60550194458213	-0.634188443857812
0.636333903746413	0.723943206447198	0	0	0.0526341967826543	-0.0185036409321361	0	0
0	0	-0.826008473411156	-0.197443733456962	0	0	-0.00928589854541521	0.0712153431272737
4.9	0.0184975736692951	-0.0132075259941228	0	0	0.730297305154197	-0.629098612925321	0	0
0	0	-0.0398851423784093	0.0589624981524956	0	0	0.853547051781818	0.20713995940012
0.730297305154197	-0.629098612925321	0	0	-0.0809174157566728	-0.0291288799917966	0	0
0	0	0.198621060284876	0.820634120934537	0	0	-0.0835650281517979	0.00339838524136911
5	-0.0232036694474827	0.00504239387640971	0	0	0.618864886775328	0.725930142523049	0	0
0	0	-0.000777337072534525	0.020572309549827	0	0	0.830881938001217	-0.298462679952091
0.618864886775328	0.725930142523049	0	0	-0.0478779692219547	0.0406397801938331	0	0
0	0	-0.644996353391027	0.533959438569858	0	0	0.0412070149462205	-0.00947080886534234
5.1	0.0247812510168421	0.00479808155533525	0	0	0.727111409375072	-0.607150846849168	0	0
0	0	0.0377475108048089	-0.033456808692118	0	0	-0.5328618607546	0.696268015943105
0.727111409375072	-0.607150846849168	0	0	-0.0221509337938849	-0.0413749324545075	0	0
0	0	0.750520708354902	0.344299910873388	0	0	0.072179712792467	-0.0201040377270535
5.2	-0.0223650087744856	-0.0157439047961218	0	0	0.585448975076045	0.744499713012154	0	0
0	0	0.0152515181536041	-0.0745077420861323	0	0	-0.0773649890277665	0.872289451865991
0.585448975076045	0.744499713012154	0	0	0.0379862796188709	0.0224134083387272	0	0
0	0	0.0165411296409507	0.832736041202849	0	0	0.0265130150299612	0.0662742320133236
5.3	0.0159215836548225	0.0252977508342262	0	0	0.762438105470312	-0.573943983835922	0	0
0	0	-0.014916668314564	-0.0417003968736039	0	0	-0.41409531471335	-0.770205526514838
0.762438105470312	-0.573943983835922	0	0	-0.0322256759717223	0.0251008857090597	0	0
0	0	0.742283930578855	-0.376066692813518	0	0	-0.0438074940120816	0.0121661925396802
5.4	-0.00665388626363107	-0.0314686825801025	0	0	0.566011914668529	0.766929161142874	0	0
0	0	-0.0317461446295378	0.0141433362014249	0	0	-0.768296862886053	-0.425934452017971
0.566011914668529	0.766929161142874	0	0	0.0707995617652624	0.0873128512636063	0	0
0	0	0.658695188346873	0.507842378512911	0	0	-0.00965091100890645	0.022007091848384
5.5	-0.00413739677784533	0.0340779744958425	0	0	0.77694464713484	-0.563475343729681	0	0
0	0	0.0232005838255551	0.0595946221597284	0	0	0.876299995873501	-0.0472935985694448
0.77694464713484	-0.563475343729681	0	0	-0.00676246208933466	-0.0274185344239663	0	0
0	0	0.154855987781047	-0.816436452825858	0	0	0.0215987698282018	0.0383937315684575
5.6	0.015523018541615	-0.0315510060120805	0	0	0.54928714299166	0.781834054699846	0	0
0	0	0.0427119769946989	0.0563269971151231	0	0	0.695106439420089	-0.509783699251095
0.54928714299166	0.781834054699846	0	0	0.00108667894846817	-0.108986711105053	0	0
0	0	0.797588185492655	-0.204413519541209	0	0	0.0116454693737388	0.117059890607519
5.7	-0.0261885022601902	0.0247683027003722	0	0	0.794153097545863	-0.54039548709536	0	0
0	0	0.0212861321410224	-0.00715556423524693	0	0	-0.314379431018554	0.806227450477766
0.794153097545863	-0.54039548709536	0	0	-0.0115533121312857	0.0513786666191956	0	0
0	0	-0.53670773068136	-0.645351047153066	0	0	0.0583678135761902	0.0339662572135751
5.8	0.0331888454724565	-0.0140852844775323	0	0	0.522364263861935	0.793634076018872	0	0
0	0	-0.0213104824429262	-0.0313621161235152	0	0	0.157420026282535	0.850070395927431
0.522364263861935	0.793634076018872	0	0	0.058252468857223	-0.0273890021670514	0	0
0	0	0.320589193246299	-0.769108092289688	0	0	0.0337432191189949	0.0549727428256071
5.9	-0.0365299593323606	0.00104755893820369	0	0	0.807007574367921	-0.498264911173755	0	0
0	0	-0.0555205331203136	-0.026629881165678	0	0	-0.584320393947199	-0.633462813613994
0.807007574367921	-0.498264911173755	0	0	-0.0726273830136129	0.04372191502921	0	0
0	0	-0.823219442790445	0.0615258009528222	0	0	0.0369644360141741	0.0718100486941819
6	0.035320748018473	0.0116658722561137	0	0	0.481417643680284	0.820281600010923	0	0
0	0	-0.0336016382976664	0.00611562841747663	0	0	-0.843868428687852	-0.192360179329142
0.481417643680284	0.820281600010923	0	0	-0.00303484925553523	0.0240528878858094	0	0
