# GHZ S RI R 50
0.2	-0.00721349878687854	0.0101949227097597	0	0	0.957885622830329	0.0580114239577479	0	0
0	0	0.0200130699400767	0.00389834425271636	0	0	-0.370449976848837	0.911130980723616
0.957885622830329	0.0580114239577479	0	0	0.0221914527248597	0.0426458523217513	0	0
0	0	0.56964394358392	-0.754043736420917	0	0	0.00267016152218541	-0.0311128497967191
0.3	0.00723960416061867	-0.0100787194328229	0	0	0.0334853515488932	-0.965176230825914	0	0
0	0	-0.00543460548209929	0.00126622303840754	0	0	-0.134258964826515	-0.974269222969553
0.0334853515488932	-0.965176230825914	0	0	-0.0132339415014873	0.00423903473185716	0	0
0	0	-0.922105429344997	-0.202166589102989	0	0	-0.0317490835630892	-0.0176282918389176
0.4	-0.00879846574987204	0.00781388120371043	0	0	0.94856135016792	0.0620126536592018	0	0
0	0	-0.0393618235295315	0.00082053257882604	0	0	-0.667148109765626	-0.725803999307071
0.94856135016792	0.0620126536592018	0	0	-0.0338407725069612	-0.0145337583267985	0	0
0	0	-0.235183388151033	-0.895838107706651	0	0	0.0219562786800945	0.0192024705210642
0.5	0.0110588476549865	-0.00400928032070033	0	0	0.127746324277027	-0.948879773876242	0	0
0	0	-0.032744241932148	0.00511841778197735	0	0	0.964010140172663	0.207200162025157
0.127746324277027	-0.948879773876242	0	0	0.0366936427272391	0.0161176774991382	0	0
0	0	-0.678704982574538	0.636633563397557	0	0	0.00509974586990476	0.00711795843724394
0.6	-0.0120806322511434	0.000717884325767005	0	0	0.955024138446448	0.131368596790192	0	0
0	0	-0.00805215848318191	0.00671608373270595	0	0	0.912753151633414	-0.329368251298122
0.955024138446448	0.131368596790192	0	0	0.00482800733912527	-0.0199761922221225	0	0
0	0	-0.86190911751417	-0.344966611336209	0	0	-0.00545326245641416	-0.00747753863901998
0.7	0.0122653798337531	0.00195222873657548	0	0	0.109116048030626	-0.95773601228729	0	0
0	0	0.0228649002471403	-0.0100787880949262	0	0	-0.611408166512335	0.74829757647568
0.109116048030626	-0.95773601228729	0	0	0.00809879991551006	0.00973701832748818	0	0
0	0	0.0456683694496901	0.920470245783344	0	0	0.00234761776632795	-0.0130376607278615
0.8	-0.0113288778358895	-0.00479705048124724	0	0	0.955313969451937	0.11383610783215	0	0
0	0	0.0443596034590209	-0.0408168155059357	0	0	-0.120685934027033	0.961100771822443
0.955313969451937	0.11383610783215	0	0	-0.0223096422833935	0.0125858021515066	0	0
0	0	-0.811870388618021	0.448598049294703	0	0	0.00692320200325335	0.0832943368968056
0.9	0.00848195688122862	0.00723771608915668	0	0	0.14534863346294	-0.940283989945064	0	0
0	0	0.0133101007953334	-0.0268447287473502	0	0	-0.434481058382025	-0.866630987893837
0.14534863346294	-0.940283989945064	0	0	-0.00167363223175916	-0.062302801081209	0	0
0	0	0.764346456651513	0.525596199384408	0	0	0.0367813213003841	0.0134407635465768
1	-0.00481722075840983	-0.00874061306657497	0	0	0.943307143170021	0.181941268626825	0	0
0	0	-0.0144210936443446	0.0123325565705306	0	0	-0.838973216313183	-0.481933426914437
0.943307143170021	0.181941268626825	0	0	0.00289054228989154	0.0413913010277572	0	0
0	0	-0.12657702509967	0.903340925334519	0	0	0.00360808781094168	0.00137766900270872
1.1	0.00104618083847341	0.00881813320246545	0	0	0.201823230925377	-0.950474212393752	0	0
0	0	-0.0117607244200196	0.0349743110051037	0	0	0.957468816919435	-0.051104848367605
0.201823230925377	-0.950474212393752	0	0	0.0032691313637856	0.0009841057041183	0	0
0	0	0.869976226809636	-0.260595292279474	0	0	0.00874943220905757	0.0422297373221399
1.2	0.00179541665699484	-0.00758360438848272	0	0	0.960384765122481	0.202782921893829	0	0
0	0	0.00855161101662305	0.0639108707684128	0	0	0.772014142957436	-0.555659085279491
0.960384765122481	0.202782921893829	0	0	0.0530494762703896	-0.00129510999206542	0	0
0	0	0.614922356344416	0.672247860880206	0	0	0.00659376714058542	0.0991484020125265
1.3	-0.00352690794893761	0.00464574893805275	0	0	0.205329732961119	-0.94433478630304	0	0
0	0	0.0161637347524596	0.0179197272450925	0	0	-0.355148782441748	0.884591654686502
0.205329732961119	-0.94433478630304	0	0	-0.0553511203941291	1.25423707259334E-06	0	0
0	0	0.322160805105371	-0.860580574326421	0	0	0.0395649900947895	0.0138660659245518
1.4	0.00407818065006656	-0.000982336270926925	0	0	0.926227483640898	0.233339586173563	0	0
0	0	-0.0129045179136104	-0.0448757763463707	0	0	0.180421904628737	0.938526494888408
0.926227483640898	0.233339586173563	0	0	0.0161505397874288	0.00769585278878231	0	0
0	0	0.899970448773723	-0.0847089515403487	0	0	0.0436893464769527	-0.00701337155952667
1.5	-0.00305145155134021	-0.0019435420832476	0	0	0.270589662026156	-0.92427103285787	0	0
0	0	-0.0374683561481675	-0.0574065841920588	0	0	-0.676227147111113	-0.675676792843593
0.270589662026156	-0.92427103285787	0	0	0.0319606869468031	-0.0331794530326123	0	0
0	0	-0.462783218085469	-0.768050181698343	0	0	0.0323896539027407	0.0518917560406392
1.6	0.000640402167236168	0.00361212481540639	0	0	0.939220687380557	0.294322113572375	0	0
0	0	-0.0352438848439979	-0.020537910471723	0	0	-0.938228247127919	-0.182906748750145
0.939220687380557	0.294322113572375	0	0	-0.0527867795973991	-0.0268046913659025	0	0
0	0	0.497196595657703	-0.755436449184389	0	0	4.16210775912376E-05	0.0525485404235279
1.7	0.00242045241094919	-0.00393966945942593	0	0	0.28886242617391	-0.944587159305328	0	0
0	0	0.0166591838395	0.00564984896543273	0	0	0.885212271329367	-0.344857494673257
0.28886242617391	-0.944587159305328	0	0	-0.00197008766661372	0.00558593941680608	0	0
0	0	-0.901325223327681	-0.110283289620766	0	0	0.0390679893237549	-0.030455060632478
1.8	-0.00504274708150457	0.00261668327593903	0	0	0.918541392962716	0.289809092177717	0	0
0	0	0.0464189005407646	0.0377098640538325	0	0	0.572915406238437	-0.746901184473495
0.918541392962716	0.289809092177717	0	0	0.00601170430371028	0.0657206394180461	0	0
0	0	-0.31124430961511	-0.849427947229766	0	0	0.0268398608151606	-0.0337464846835947
1.9	0.00671957379507431	0.000342868627158242	0	0	0.319072913978361	-0.894874528424759	0	0
0	0	0.053472486108622	-0.00372747920521655	0	0	-0.0824190901515031	0.94183091053711
0.319072913978361	-0.894874528424759	0	0	0.00931159328052579	0.00935945826542781	0	0
0	0	-0.614557245362783	0.646432182433579	0	0	0.0405647116896736	0.0238755210455197
2	-0.00692375214200082	-0.00444466247525679	0	0	0.89157529088303	0.349523274054166	0	0
0	0	0.0154483851023202	-0.00463514448560193	0	0	0.458000408176187	0.832764268469701
0.89157529088303	0.349523274054166	0	0	-0.0501676003775728	-0.0328958098657996	0	0
0	0	-0.844617024294512	-0.263308904048276	0	0	-0.053293737151801	-0.0208834906452048
2.1	0.00554891548762944	0.00881090524506198	0	0	0.364375268716276	-0.898164428651824	0	0
0	0	-0.0292051199862655	0.00842554227477645	0	0	-0.830220808542895	-0.45171900421292
0.364375268716276	-0.898164428651824	0	0	0.0703684203288883	0.0165638572776161	0	0
0	0	0.135672419466143	0.879138283364079	0	0	-0.00525345234053312	0.00984651218812456
2.2	-0.0022420385713744	-0.0125215769931628	0	0	0.898525727319374	0.37646542188922	0	0
0	0	-0.0485105974567846	0.0178236579929845	0	0	-0.931984667917986	0.0686541271211401
0.898525727319374	0.37646542188922	0	0	0.0143686987575695	-0.0106750835445381	0	0
0	0	-0.736935180934556	0.506016348939816	0	0	0.0422557729569507	-0.011137335083251
2.3	-0.00278288437132006	0.0143269783249528	0	0	0.386388562710538	-0.889365768101548	0	0
0	0	-0.030972642047607	0.0198119337859125	0	0	0.73668712608591	-0.555217216043696
0.386388562710538	-0.889365768101548	0	0	0.0577037383328306	-0.0284948802080104	0	0
0	0	0.775862841130264	0.432362638449504	0	0	0.0662870098633275	0.0467860131738132
2.4	0.00900891371411045	-0.0137935432143888	0	0	0.877947785727243	0.398349479711867	0	0
0	0	-0.00100493399568755	0.00131336970130682	0	0	0.324621272251835	-0.867756212934165
0.877947785727243	0.398349479711867	0	0	-0.0971757089371326	0.0143493238908597	0	0
0	0	-0.0395524895677107	0.88250649122861	0	0	0.0467267304674981	-0.0487636085712749
2.5	-0.0157546293593173	0.0108021445739453	0	0	0.415365588309868	-0.866442124378654	0	0
0	0	0.0190559052646457	-0.0360164803751695	0	0	0.189153775985987	0.917674370000003
0.415365588309868	-0.866442124378654	0	0	-0.0102513537498227	-0.0264471772733686	0	0
0	0	0.805119229678951	-0.33192380220255	0	0	0.0122491461279508	-0.000194614937469784
2.6	0.0215717797253015	-0.00588707576252116	0	0	0.85954163063591	0.429473653355876	0	0
0	0	0.0181735943206136	-0.0389514453572141	0	0	0.667077541008884	0.653696601491206
0.85954163063591	0.429473653355876	0	0	0.00565186981916853	-0.0328549923271193	0	0
0	0	0.630489213113891	0.597360865921573	0	0	0.0623862688957852	0.010783146753808
2.7	-0.0253453102063036	-0.000699250285694407	0	0	0.444062185038538	-0.853746982282691	0	0
0	0	0.0216535129978683	-0.00978024114275559	0	0	-0.897556921671541	-0.174281659409291
0.444062185038538	-0.853746982282691	0	0	0.00349666769360637	-0.0124044333707562	0	0
0	0	0.275957332088813	-0.835516476499102	0	0	-0.0274008789637939	-0.000274605094262836
2.8	0.0259865088723322	0.00829195733027006	0	0	0.84347989094505	0.457550017320939	0	0
0	0	0.010117016736838	0.0124581280666609	0	0	-0.842345435178794	0.312487695462225
0.84347989094505	0.457550017320939	0	0	0.00444243879209917	0.0643213396865485	0	0
0	0	0.871653854748124	-0.150071067427849	0	0	0.0262310136730873	-0.0631902605722203
2.9	-0.0230417371144397	-0.0159848186542472	0	0	0.473740845744227	-0.824494672230433	0	0
0	0	0.000137286166791409	0.0366331050436218	0	0	0.567490236438291	-0.700762883392475
0.473740845744227	-0.824494672230433	0	0	-0.0532079690692262	0.0344575944121129	0	0
0	0	-0.515186060659821	-0.70282553857045	0	0	-0.0400013875627193	-0.0456005834739301
3	0.0173551420845257	0.0227463995829744	0	0	0.815710529721867	0.498030916561348	0	0
0	0	-0.0108460942739222	0.0297976676147366	0	0	0.0916200910109467	-0.920353863888469
0.815710529721867	0.498030916561348	0	0	-0.00652271386420916	-0.0174713502977007	0	0
0	0	0.406595977410464	-0.760802973917635	0	0	0.0138633608742088	0.0863393221703899
3.1	-0.00897830108751583	-0.0267441684046522	0	0	0.518879917037146	-0.805621734500783	0	0
0	0	-0.020244970028748	0.0130349615325209	0	0	0.448240683591621	0.806775442823633
0.518879917037146	-0.805621734500783	0	0	0.039003197205931	-0.0643891392037991	0	0
0	0	-0.869430487004333	-0.0501719861359842	0	0	-0.0751550139984364	0.00658749247394745
3.2	-0.000655593922594393	0.0282184787639435	0	0	0.804259740838219	0.542818995457362	0	0
0	0	-0.0180814522579023	-0.00503671999003496	0	0	0.798139764517018	0.437342576838953
0.804259740838219	0.542818995457362	0	0	0.000878581610734291	0.0253012170436339	0	0
0	0	-0.33738316117774	-0.814179904363448	0	0	-0.0590082329166739	0.0070583805254757
3.3	0.0100920157019062	-0.0259753074190986	0	0	0.554199683509075	-0.800153902221562	0	0
0	0	-0.00179521377833018	-0.0229206949198567	0	0	-0.905021473151525	0.0500077502418495
0.554199683509075	-0.800153902221562	0	0	0.0621312312450697	0.0243367991103796	0	0
0	0	-0.575006911532557	0.675400637378275	0	0	-0.0271911582858497	-0.106864275246708
3.4	-0.0178428455163325	0.0202127582034269	0	0	0.783643284079744	0.5592198641557	0	0
0	0	-0.00513350248856459	-0.0398694731003783	0	0	-0.7329723334728	0.542930546971432
0.783643284079744	0.5592198641557	0	0	-0.115116934608186	0.00874233506908701	0	0
0	0	-0.856748017563536	-0.222464121186969	0	0	-0.0195198474122796	-0.0397650777087513
3.5	0.0230857507395093	-0.0125117042673095	0	0	0.573749159091404	-0.774367936745136	0	0
0	0	0.00706964198962108	-0.0301337680491235	0	0	0.297235368397262	-0.868882562265765
0.573749159091404	-0.774367936745136	0	0	-0.0122186221532415	-0.0536198134439781	0	0
0	0	0.16759543427514	0.843119745268514	0	0	0.084902116140894	-0.0725153130954236
3.6	-0.0249794947415418	0.00367570336672785	0	0	0.767439245958078	0.583507392584957	0	0
0	0	0.0187080955399413	0.00208371851129501	0	0	-0.209927222682445	-0.894128178209863
0.767439245958078	0.583507392584957	0	0	-0.034346802122871	0.0605873364762495	0	0
0	0	-0.692494192684554	0.520531129859508	0	0	0.0446465509903336	-0.0315488874751584
3.7	0.0230692136483881	0.00577482772677839	0	0	0.602300778894548	-0.747077707622171	0	0
0	0	0.0132331106429901	0.0354971269422658	0	0	0.639444464753087	0.648281925469368
0.602300778894548	-0.747077707622171	0	0	0.118385928139119	0.00733896209330312	0	0
0	0	0.770526571419029	0.408931349150073	0	0	0.0553730458107806	-0.0190419897918289
3.8	-0.0182361161754815	-0.0134629015860922	0	0	0.740871259904564	0.62102453482631	0	0
0	0	0.014779922367848	0.0496473836403652	0	0	0.870728439833402	0.185857468169401
0.740871259904564	0.62102453482631	0	0	-0.0252794473417602	0.0209094563028676	0	0
0	0	-0.0153401133810619	0.870869855692013	0	0	-0.0582723592432056	-0.0251263053358989
3.9	0.0111338008004655	0.0179774757237471	0	0	0.62561812837052	-0.739990938727735	0	0
0	0	0.0109261065482579	0.0148961607435024	0	0	-0.823230190153699	0.327831221311029
0.62561812837052	-0.739990938727735	0	0	-0.0132444607825102	0.0832834060959508	0	0
0	0	0.782013365932757	-0.385639891558974	0	0	0.0248530201082685	-0.00568157380423014
4	-0.00221319919258378	-0.0192330445193551	0	0	0.721988836403767	0.633980837723838	0	0
0	0	-0.0166434735868786	-0.0126957755614573	0	0	-0.515037315566453	0.724360588838727
0.721988836403767	0.633980837723838	0	0	0.0509682644631703	-0.0743347951750939	0	0
0	0	0.683834171139133	0.515012071858726	0	0	-0.00463266100684829	0.0095469818640853
4.1	-0.00604654737045602	0.0172322060374591	0	0	0.639606250444093	-0.708914385821246	0	0
0	0	-0.0412538352912417	-0.0354077373122626	0	0	0.0542616646472533	-0.890881152249489
0.639606250444093	-0.708914385821246	0	0	0.0249743117808543	-0.111910183714385	0	0
0	0	0.183030935755443	-0.827476546496913	0	0	0.0264574487891497	0.0816637315543478
4.2	0.0125549811572031	-0.0126032555486922	0	0	0.703975644680894	0.651036051722679	0	0
0	0	-0.0485663390605336	-0.0150800123556516	0	0	-0.433352771255616	-0.779496744497914
0.703975644680894	0.651036051722679	0	0	-0.0400696948974334	0.0163147637897344	0	0
0	0	0.830370544759236	-0.184944722976843	0	0	-0.0117579313144078	-0.0413552867801278
4.3	-0.0162211638123855	0.00560001700062735	0	0	0.659862503292795	-0.697270711518428	0	0
0	0	-0.00719091418009524	0.00722564154218305	0	0	0.777523005468744	0.422974868972158
0.659862503292795	-0.697270711518428	0	0	-0.0110242179488617	0.0672265497372639	0	0
0	0	-0.534137572078049	-0.672386568666844	0	0	-0.0144122158253488	0.00233276047898229
4.4	0.0163857274631959	0.00279314048846462	0	0	0.680264510896277	0.669577144049136	0	0
0	0	0.0380069460070417	0.00476473958115445	0	0	0.887068484548676	-0.053955497064727
0.680264510896277	0.669577144049136	0	0	0.00126305361944987	-0.0500545257798764	0	0
0	0	0.345215195889412	-0.771404245175375	0	0	-0.0336276466563801	0.0033436446878127
4.5	-0.0130787223038337	-0.0103687445837926	0	0	0.676328688457947	-0.662117003950647	0	0
0	0	0.0643152707492083	-0.00433315457427654	0	0	-0.721431489054339	0.522733761542373
0.676328688457947	-0.662117003950647	0	0	-0.0497737314354875	0.0266647319159918	0	0
0	0	-0.834331269434894	0.0114478669622537	0	0	-0.0860056723509564	0.0621167474032015
4.6	0.00688372473347874	0.0159568889490897	0	0	0.644199902280828	0.691222600734703	0	0
0	0	0.0460901012790013	-0.0250718383244009	0	0	-0.312879139960632	0.843607358200707
0.644199902280828	0.691222600734703	0	0	-0.00373999985323736	0.0140718674030244	0	0
0	0	-0.371359905169614	-0.744105326946602	0	0	-0.0801195551829239	-0.00929267589899746
4.7	0.00104693529683541	-0.0183973402111204	0	0	0.708678007959803	-0.637419048284476	0	0
0	0	-0.0251323830955161	-0.00579819746230633	0	0	-0.190854704495901	-0.873436092484695
0.708678007959803	-0.637419048284476	0	0	0.0658881380934407	-0.0174582279153331	0	0
0	0	-0.524089408583656	0.655250427494145	0	0	-0.0730521967993141	0.0725977374389238
4.8	-0.00964397942344676	0.0173738021405074	0	0	0.637634460541523	0.724830518681382	0	0
0	0	-0.0590488424995227	0.0336183695070602	0	0	-0.606845795713956	-0.634648664298353
0.637634460541523	0.724830518681382	0	0	0.0534130674048488	-0.0182824406983081	0	0
0	0	-0.827343574870159	-0.197111405970692	0	0	-0.00896129401214179	0.0722001511672287
4.9	0.0172084509591601	-0.0122210010866447	0	0	0.730998563165031	-0.629643375278596	0	0
0	0	-0.0399030976790958	0.0578406754888523	0	0	0.854290072326	0.20693413502434
0.730998563165031	-0.629643375278596	0	0	-0.0803540708324881	-0.0289873685528638	0	0
0	0	0.199123971730201	0.821178547751805	0	0	-0.083260811487308	0.00421792735854124
5	-0.0218206366052099	0.00410791944579683	0	0	0.618677949897515	0.726480977101209	0	0
0	0	-0.000164201487256588	0.0195674021591067	0	0	0.83083509083251	-0.298402302407587
0.618677949897515	0.726480977101209	0	0	-0.0471964119417388	0.0406411697936765	0	0
0	0	-0.644974019272971	0.533890485476085	0	0	0.0417644003976745	-0.00881142291554447
5.1	0.0232494785440903	0.00592353607630782	0	0	0.72784612220654	-0.60600068124114	0	0
0	0	0.0388849651529481	-0.0341585161849154	0	0	-0.533055120352903	0.695438426091044
0.72784612220654	-0.60600068124114	0	0	-0.0212859871040916	-0.0415904069959326	0	0
0	0	0.749799059767621	0.344650288351791	0	0	0.0728291773239834	-0.0194843634154274
5.2	-0.0209150484485587	-0.0171413321927501	0	0	0.58372892469994	0.745584254574702	0	0
0	0	0.0166552126904458	-0.0748004630211468	0	0	-0.078584363805186	0.871486719846927
0.58372892469994	0.745584254574702	0	0	0.0385169985667991	0.0221940301353657	0	0
0	0	0.0153056266220898	0.832102410516657	0	0	0.0270636826956357	0.0664955141582777
5.3	0.0148109135426663	0.0267528916053588	0	0	0.76432140260945	-0.571703818037414	0	0
0	0	-0.0136431824496798	-0.0415422289566593	0	0	-0.411970274971373	-0.770863707654109
0.76432140260945	-0.571703818037414	0	0	-0.0319612524490088	0.024412157683498	0	0
0	0	0.742860783394694	-0.374029918429407	0	0	-0.0430795543805629	0.0118955350348191
5.4	-0.00579377443221839	-0.0326008375092207	0	0	0.563471032465449	0.769453669082285	0	0
0	0	-0.0309451966281141	0.014735906952122	0	0	-0.766858011249454	-0.42855387498053
0.563471032465449	0.769453669082285	0	0	0.0703952775699804	0.0874893319956835	0	0
0	0	0.656976229161467	0.510090019366942	0	0	-0.00924986879135823	0.0217353353462579
5.5	-0.00517858470691728	0.0348692229732184	0	0	0.780610692015787	-0.560672552785594	0	0
0	0	0.02332533747543	0.0604698741303446	0	0	0.87724208970016	-0.0437973073097132
0.780610692015787	-0.560672552785594	0	0	-0.00648765252038536	-0.0278689904183849	0	0
0	0	0.158283957473912	-0.816511332559883	0	0	0.0216642867922826	0.0384460232960332
5.6	0.0169415515702045	-0.0323235554729953	0	0	0.546514244511838	0.786487550641646	0	0
0	0	0.042160139830518	0.0572480520930875	0	0	0.69859442879441	-0.507816767809707
0.546514244511838	0.786487550641646	0	0	0.00229198618379636	-0.109682442241739	0	0
0	0	0.799979636972749	-0.20142846297382	0	0	0.0109488620203698	0.117570847765797
5.7	-0.0277599273793256	0.0259086403047072	0	0	0.799885314406651	-0.538413179586742	0	0
0	0	0.020204859450604	-0.00637097493257825	0	0	-0.318868503877642	0.807251481469799
0.799885314406651	-0.538413179586742	0	0	-0.011966205274752	0.0514494045756514	0	0
0	0	-0.535469337057196	-0.64964202620911	0	0	0.0587920417321126	0.0347971485871277
5.8	0.0344446948630418	-0.0154953720085299	0	0	0.521034192545902	0.80001008807438	0	0
0	0	-0.0225549743094077	-0.0309010387208006	0	0	0.154597692511223	0.85425972608477
0.521034192545902	0.80001008807438	0	0	0.0594129826121584	-0.027537147491843	0	0
0	0	0.325073669237461	-0.771003572671289	0	0	0.0342381200421965	0.0557444383717802
5.9	-0.0373290947286382	0.00233092224329649	0	0	0.814097376342181	-0.498072604625071	0	0
0	0	-0.0565854491098889	-0.026567808310168	0	0	-0.585198057875734	-0.638850625423407
0.814097376342181	-0.498072604625071	0	0	-0.0736315226922192	0.0428534913290079	0	0
0	0	-0.827785583038602	0.0589777597591058	0	0	0.0377797882866572	0.0725442011428003
6	0.035853796069224	0.010857844581455	0	0	0.482227312254086	0.827590825262217	0	0
0	0	-0.0342226610357079	0.00582341992445763	0	0	-0.848777721603317	-0.195664617310626
0.482227312254086	0.827590825262217	0	0	-0.00324606253513809	0.0232805552963081	0	0
