# GHZ S RI R 50
0.2	-0.00689464737564201	0.00998573928840386	0	0	0.957923109303284	0.0580455537916921	0	0
0	0	0.0203911014187854	0.00397009073189716	0	0	-0.370408399355001	0.911111196888076
0.957923109303284	0.0580455537916921	0	0	0.0218396331991392	0.0430487709879969	0	0
0	0	0.569600444346361	-0.754035671936882	0	0	0.00226319121447125	-0.0307666227285446
0.3	0.00712069350946147	-0.0099116670365853	0	0	0.033505563359336	-0.965205069534803	0	0
0	0	-0.00524794557375498	0.00134884724768678	0	0	-0.134256716382574	-0.974227642889578
0.033505563359336	-0.965205069534803	0	0	-0.013368018718826	0.0046781521326297	0	0
0	0	-0.922067230105733	-0.202154825012837	0	0	-0.0319718431026642	-0.0172250994761919
0.4	-0.0087807327645114	0.00782630364494992	0	0	0.94858175869849	0.0620178835662463	0	0
0	0	-0.0393777097210555	0.000838231651436348	0	0	-0.667123152280795	-0.725791986653847
0.94858175869849	0.0620178835662463	0	0	-0.0337967949042665	-0.0141739165486706	0	0
0	0	-0.235167939306151	-0.895817167515451	0	0	0.021895452224207	0.0195621952930073
0.5	0.0110343720593449	-0.00422265150345088	0	0	0.127760466959458	-0.948875878743908	0	0
0	0	-0.0329514384380882	0.00505986518295409	0	0	0.964007088821647	0.207215881985959
0.127760466959458	-0.948875878743908	0	0	0.0368182785936755	0.0163357304719328	0	0
0	0	-0.678715539977772	0.636622749909374	0	0	0.00514065371831456	0.00736711656489052
0.6	-0.0119178130999958	0.00106817061002896	0	0	0.955004445894124	0.131391312393252	0	0
0	0	-0.0083878619351203	0.00654947322890267	0	0	0.912774210295563	-0.329385750485696
0.955004445894124	0.131391312393252	0	0	0.00492370265510535	-0.019887611746993	0	0
0	0	-0.861935298520898	-0.344967493302753	0	0	-0.00540334714890807	-0.00735787205548761
0.7	0.0119048213157683	0.00162683149605042	0	0	0.109186796435613	-0.957704828781201	0	0
0	0	0.0224916988469265	-0.0103578624250729	0	0	-0.611392133127342	0.748352199690266
0.109186796435613	-0.957704828781201	0	0	0.00809220243427815	0.00977546824624424	0	0
0	0	0.0457146373795485	0.920498654582154	0	0	0.00232412919309202	-0.0130074673355669
0.8	-0.010871891104735	-0.00461133649007104	0	0	0.955295563455905	0.11393706731433	0	0
0	0	0.0440175633709459	-0.0411532203026422	0	0	-0.120659884640107	0.961131133157617
0.955295563455905	0.11393706731433	0	0	-0.0224112057451534	0.0126738216772483	0	0
0	0	-0.811879195566636	0.448635331168169	0	0	0.00679661618266048	0.0833222767932402
0.9	0.00808728169654034	0.00719426548705296	0	0	0.145423116639073	-0.940319398860617	0	0
0	0	0.0130615893247395	-0.0271532388222348	0	0	-0.434534834035974	-0.866582044590535
0.145423116639073	-0.940319398860617	0	0	-0.00177680335116538	-0.0620876195188216	0	0
0	0	0.764368917997297	0.525530348269603	0	0	0.0365544413198925	0.0135494293199962
1	-0.00458628572281291	-0.00875992892732964	0	0	0.943384152987153	0.182016244753276	0	0
0	0	-0.0145214775353218	0.0121306947345541	0	0	-0.838930236615969	-0.481888618461036
0.943384152987153	0.182016244753276	0	0	0.00287559065310763	0.041750858508218	0	0
0	0	-0.126552941236584	0.903287573905622	0	0	0.00336907416831543	0.00164651824632706
1.1	0.0010153878401772	0.00876073833240667	0	0	0.201824881309327	-0.950549479945179	0	0
0	0	-0.0116975632857977	0.0349394400240972	0	0	0.957432520373569	-0.0510515919716683
0.201824881309327	-0.950549479945179	0	0	0.00345611522968092	0.00138249740335703	0	0
0	0	0.869954693111811	-0.260538172891978	0	0	0.00860230701259401	0.042655636514101
1.2	0.00172997892589105	-0.0073196206741381	0	0	0.96041464564591	0.202741685467935	0	0
0	0	0.00873586038025149	0.0640743499566509	0	0	0.772090619247702	-0.555572624381128
0.96041464564591	0.202741685467935	0	0	0.0534432917926951	-0.000977916551159162	0	0
0	0	0.61484866191044	0.672330280070163	0	0	0.0066049650073816	0.099676027217165
1.3	-0.00351156723070464	0.0042235975073035	0	0	0.205232718477927	-0.944304077530444	0	0
0	0	0.0163766471674582	0.0182544135161044	0	0	-0.355282200904679	0.884650114295977
0.205232718477927	-0.944304077530444	0	0	-0.0548388939128015	0.000194758296011215	0	0
0	0	0.322288055753623	-0.860639946260968	0	0	0.0397574920211773	0.0144035028498518
1.4	0.00410263471590103	-0.0005067940318418	0	0	0.926167208948743	0.233274988035138	0	0
0	0	-0.0128044166059766	-0.0444352247621335	0	0	0.180376505338462	0.938688791185811
0.926167208948743	0.233274988035138	0	0	0.0166811722331288	0.00777160999156731	0	0
0	0	0.900119127745879	-0.0846514837826608	0	0	0.0439646056573185	-0.00651335099613701
1.5	-0.00310581100470165	-0.00248691377257599	0	0	0.270530353512668	-0.924200239881178	0	0
0	0	-0.0375334578060305	-0.056905192150199	0	0	-0.67630342800322	-0.675866745708961
0.270530353512668	-0.924200239881178	0	0	0.0324766181934023	-0.0331989247421933	0	0
0	0	-0.4628096978299	-0.768240358626448	0	0	0.0327137938778456	0.0523619534695509
1.6	0.00081641361001243	0.0042145928942709	0	0	0.939078493219104	0.294248996800163	0	0
0	0	-0.0354597662018903	-0.0200198842493735	0	0	-0.938427842290187	-0.182976080164082
0.939078493219104	0.294248996800163	0	0	-0.0523087861794663	-0.0269513450328707	0	0
0	0	0.497328992047577	-0.755586227567465	0	0	0.000423506953981113	0.0529099924761972
1.7	0.00208468095855536	-0.00445910424803493	0	0	0.288886803556845	-0.944433773671584	0	0
0	0	0.0163364091937089	0.00609479381332829	0	0	0.885361700656729	-0.345015739440446
0.288886803556845	-0.944433773671584	0	0	-0.00164050666430156	0.00532487189394936	0	0
0	0	-0.901522643061397	-0.110217690930066	0	0	0.039479370674108	-0.0302873537760813
1.8	-0.00468848939275055	0.00296193318779602	0	0	0.918404715153366	0.28990164325716	0	0
0	0	0.0460563605485042	0.0379935038299922	0	0	0.572908435803402	-0.747091905444262
0.918404715153366	0.28990164325716	0	0	0.00616814285889076	0.0654263024269707	0	0
0	0	-0.311402679432191	-0.849520465089938	0	0	0.0271872821921552	-0.0337170721392299
1.9	0.00646854384905283	0.000102226665541201	0	0	0.319138648039161	-0.894781061043778	0	0
0	0	0.0531432842666684	-0.00365074564267504	0	0	-0.0823215633438514	0.941976133011258
0.319138648039161	-0.894781061043778	0	0	0.00936515075056492	0.00913010051462097	0	0
0	0	-0.614570672604799	0.646596669432835	0	0	0.0408305302170672	0.0238415117453777
2	-0.00679996268035647	-0.00420355539010369	0	0	0.891482557955221	0.349546157002242	0	0
0	0	0.0152108262878788	-0.00476486009075495	0	0	0.458113417428986	0.832817281735326
0.891482557955221	0.349546157002242	0	0	-0.050141240520719	-0.0330505698864361	0	0
0	0	-0.844727059587698	-0.263271565201052	0	0	-0.0531492279896538	-0.02091616861745
2.1	0.0054880922557148	0.0084817031941634	0	0	0.364420701655139	-0.898062697751609	0	0
0	0	-0.0293117401944504	0.00812230045838674	0	0	-0.830375896064528	-0.451722877609136
0.364420701655139	-0.898062697751609	0	0	0.0703874842658617	0.0164605781088418	0	0
0	0	0.135758019487368	0.879256567242304	0	0	-0.00512950033157661	0.00985329982532355
2.2	-0.00213233270541325	-0.0121082582680094	0	0	0.898390535458704	0.376498535609899	0	0
0	0	-0.0484782069036314	0.0174306009365185	0	0	-0.932142936748273	0.0687777712317002
0.898390535458704	0.376498535609899	0	0	0.0144318170384627	-0.0108028776307267	0	0
0	0	-0.737006340603243	0.506194805637852	0	0	0.0424229556188936	-0.0111149319782504
2.3	-0.00299733392073377	0.013943777302583	0	0	0.38645732914502	-0.889238774878588	0	0
0	0	-0.0308421268962177	0.0194360467001988	0	0	0.736748121822195	-0.555443283520851
0.38645732914502	-0.889238774878588	0	0	0.0577503389551324	-0.028678639627898	0	0
0	0	0.776085657103667	0.432328276761851	0	0	0.0665517311582445	0.0467984508803187
2.4	0.00925937827790558	-0.0135535964582824	0	0	0.87777472190932	0.398432210283708	0	0
0	0	-0.000833713800962855	0.00104289001735979	0	0	0.324507876682627	-0.867918854012722
0.87777472190932	0.398432210283708	0	0	-0.09718394646688	0.0140445366703489	0	0
0	0	-0.0394018503572519	0.882620712471865	0	0	0.0470114958928438	-0.0488612818407606
2.5	-0.0159068500687051	0.0107096917916108	0	0	0.415447111656623	-0.866328566816603	0	0
0	0	0.0192044041797884	-0.0361140998943497	0	0	0.189307421068358	0.917751249186477
0.415447111656623	-0.866328566816603	0	0	-0.0103837835255507	-0.0267384108757186	0	0
0	0	0.80516277295657	-0.332077434330151	0	0	0.0125523359444539	-0.000383015981650314
2.6	0.0215541818448172	-0.00583783493788781	0	0	0.859438623609736	0.429538941694347	0	0
0	0	0.0182373625336635	-0.0388784572608002	0	0	0.667239892852961	0.653697012970302
0.859438623609736	0.429538941694347	0	0	0.00541806435208937	-0.0331056206492083	0	0
0	0	0.630640174777315	0.597358705673517	0	0	0.0626664292724587	0.0104912842591241
2.7	-0.0252034590120193	-0.00080286464612996	0	0	0.444115209272312	-0.853634177783588	0	0
0	0	0.0216024270151261	-0.00960336901120239	0	0	-0.897693277004121	-0.174207353557364
0.444115209272312	-0.853634177783588	0	0	0.00320471939913945	-0.0125986081300994	0	0
0	0	0.275903049487664	-0.835655712138325	0	0	-0.0272011784204866	-0.000596336626184753
2.8	0.0257904104957942	0.00844404271512274	0	0	0.843350295935302	0.457591121314305	0	0
0	0	0.00994577724663359	0.0126308522660898	0	0	-0.842429665983461	0.312642129399796
0.843350295935302	0.457591121314305	0	0	0.00411697473747548	0.0641722538077534	0	0
0	0	0.871763292774036	-0.150205282563972	0	0	0.0263792654078781	-0.0635561955570934
2.9	-0.0227795830881026	-0.0161447289297861	0	0	0.473743953002975	-0.824395644969269	0	0
0	0	-0.000148614894713859	0.0366830713328403	0	0	0.567495390811389	-0.700910888285428
0.473743953002975	-0.824395644969269	0	0	-0.0535088689318015	0.0343680271203426	0	0
0	0	-0.51532310520648	-0.702866787386436	0	0	-0.0399210396433784	-0.0459387891546335
3	0.0169768170527684	0.0229538554553615	0	0	0.815624827506299	0.49800943815152	0	0
0	0	-0.0112128443006117	0.0296577847004288	0	0	0.0916274665268838	-0.920532254336314
0.815624827506299	0.49800943815152	0	0	-0.00679362498380022	-0.0174767618247132	0	0
0	0	0.406665836161448	-0.760954134899019	0	0	0.0139068905944048	0.0860694906042398
3.1	-0.00851515803109722	-0.0270794366212657	0	0	0.518847384699705	-0.805531879518948	0	0
0	0	-0.0206257843415735	0.0126919139699286	0	0	0.448335047016875	0.806918118394526
0.518847384699705	-0.805531879518948	0	0	0.0387894870336526	-0.0643196570018461	0	0
0	0	-0.869591865673294	-0.0501688283346713	0	0	-0.0752189744750993	0.00636012933196552
3.2	-0.00111231636240729	0.0287108023515759	0	0	0.8040889404731	0.542726742231281	0	0
0	0	-0.0183696098079161	-0.00554635250216453	0	0	0.798344098212612	0.437430008262589
0.8040889404731	0.542726742231281	0	0	0.000763084326877696	0.025367844942616	0	0
0	0	-0.337484412666291	-0.814369821842322	0	0	-0.0591041822912439	0.00692839696229145
3.3	0.0104441517922816	-0.0265484562660399	0	0	0.554154258604958	-0.799964829428807	0	0
0	0	-0.0019098376231475	-0.0234988831840537	0	0	-0.905216052694342	0.0501271891825138
0.554154258604958	-0.799964829428807	0	0	0.0620731811535558	0.0243880009866907	0	0
0	0	-0.575053477639866	0.675619161140462	0	0	-0.0272805864434424	-0.106959125555568
3.4	-0.0181084329346132	0.0207460849177133	0	0	0.78345527711387	0.55905943669988	0	0
0	0	-0.00501784702297498	-0.040402631649058	0	0	-0.733109538751199	0.543147486317708
0.78345527711387	0.55905943669988	0	0	-0.115050651717685	0.00874452536463887	0	0
0	0	-0.856995455291451	-0.222435473990999	0	0	-0.0195490318553565	-0.0397695964717798
3.5	0.0233665346752655	-0.0130001087188806	0	0	0.57362610518307	-0.774227071358889	0	0
0	0	0.00740797924257216	-0.0305151410386428	0	0	0.297174882039937	-0.869185697168122
0.57362610518307	-0.774227071358889	0	0	-0.0121972593780111	-0.0536341244658304	0	0
0	0	0.167786832616038	0.84333674977055	0	0	0.0849681545006282	-0.0725532857428483
3.6	-0.0253027682252735	0.00419349294524261	0	0	0.767209295692727	0.583358444886355	0	0
0	0	0.0192351449159715	0.00192143951640859	0	0	-0.210126729571846	-0.894380355943819
0.767209295692727	0.583358444886355	0	0	-0.0343344802178995	0.0605065454139564	0	0
0	0	-0.692636270569137	0.520799097823299	0	0	0.0447199962808691	-0.031570914827882
3.7	0.0233785981870854	0.00518511720633733	0	0	0.602261710247303	-0.746875499557846	0	0
0	0	0.0138247686099527	0.0355859876757077	0	0	0.639780602156886	0.648366232224677
0.602261710247303	-0.746875499557846	0	0	0.118308032574281	0.00732153233527748	0	0
0	0	0.770857987325894	0.408911905358118	0	0	0.0554434699784797	-0.0190907783534975
3.8	-0.0184297729371294	-0.0128380473577649	0	0	0.74064459351103	0.620934494593621	0	0
0	0	0.0152863361149919	0.0498978137026662	0	0	0.870970686378495	0.185763824678089
0.74064459351103	0.620934494593621	0	0	-0.0253037292298281	0.0208977998762373	0	0
0	0	-0.0152048184638612	0.871084912575548	0	0	-0.0583020056986473	-0.0251542440503097
3.9	0.0111988956699129	0.0174535698175994	0	0	0.625586360631066	-0.739799889312015	0	0
0	0	0.0112467752902731	0.0152306460422633	0	0	-0.823318022307157	0.32806032238578
0.625586360631066	-0.739799889312015	0	0	-0.0132808825115506	0.0832913551703185	0	0
0	0	0.782081694039462	-0.385871456921996	0	0	0.0248307601191305	-0.0057361028973615
4	-0.0022902081209317	-0.0188800302326225	0	0	0.721946428323767	0.633905783235432	0	0
0	0	-0.0165843528618843	-0.0123547563591598	0	0	-0.515022572336431	0.724523919705913
0.721946428323767	0.633905783235432	0	0	0.0509454217178886	-0.0742572545122649	0	0
0	0	0.683991818994389	0.515002188543701	0	0	-0.00469660277411712	0.00951482737300593
4.1	-0.00586708179428116	0.0169641531865816	0	0	0.639466520596078	-0.70890549846426	0	0
0	0	-0.041456667619216	-0.0351464253580754	0	0	0.054226140835439	-0.89104587870643
0.639466520596078	-0.70890549846426	0	0	0.024964994981998	-0.111813050097246	0	0
0	0	0.183022052494877	-0.827636306545513	0	0	0.0263886354080311	0.0816742307543268
4.2	0.0123054308629039	-0.0123115193872123	0	0	0.703896812900585	0.650832197064734	0	0
0	0	-0.0489272032155782	-0.0149676443272151	0	0	-0.433450929566657	-0.779605103553124
0.703896812900585	0.650832197064734	0	0	-0.0400094999734944	0.0163707239718292	0	0
0	0	0.830496257328311	-0.185005108495919	0	0	-0.0118406788179952	-0.0413494447547904
4.3	-0.0160030802213609	0.00529550288035932	0	0	0.659684433173585	-0.697145283117754	0	0
0	0	-0.00755838727886242	0.00716772345845763	0	0	0.77768472166699	0.423012394240611
0.659684433173585	-0.697145283117754	0	0	-0.0109778597690963	0.0672095643681069	0	0
0	0	-0.534267783153609	-0.672481361286647	0	0	-0.0144442990935935	0.00236558019988779
4.4	0.0162121010454713	0.0030014894995445	0	0	0.680194456410638	0.6694323924455	0	0
0	0	0.0377807521188805	0.00456861304013441	0	0	0.887187085862216	-0.0540098281878683
0.680194456410638	0.6694323924455	0	0	0.00124825220942659	-0.0500804563456236	0	0
0	0	0.345221639805878	-0.771528133919994	0	0	-0.0335884795108995	0.0033592326130735
4.5	-0.0128549150868996	-0.0104246738511144	0	0	0.676182226893169	-0.662084482964311	0	0
0	0	0.064334064740953	-0.0046037892364361	0	0	-0.721499791581073	0.522773068008235
0.676182226893169	-0.662084482964311	0	0	-0.0498483581567675	0.0265988801390955	0	0
0	0	-0.834404770885044	0.011441150929173	0	0	-0.0859042147924713	0.062069550750262
4.6	0.00650510955336746	0.0159226946305643	0	0	0.644209535151647	0.691056370607282	0	0
0	0	0.0463664189861891	-0.0253250002304953	0	0	-0.312936519393095	0.843629660730382
0.644209535151647	0.691056370607282	0	0	-0.00391577309280336	0.0140215237035763	0	0
0	0	-0.371338693029651	-0.744158124834712	0	0	-0.0799837701157268	-0.00945786187410287
4.7	0.00158366916955622	-0.0183953535196751	0	0	0.708515560024663	-0.63743086189295	0	0
0	0	-0.0246571501018542	-0.00592064565674079	0	0	-0.190749416619317	-0.87354417983906
0.708515560024663	-0.63743086189295	0	0	0.0656207717341208	-0.0174562801491626	0	0
0	0	-0.524230431563846	0.655237523430131	0	0	-0.0729616263715065	0.0723392200793842
4.8	-0.0102398937441496	0.0174590522198652	0	0	0.637659936856459	0.724658388358882	0	0
0	0	-0.0585257882168661	0.0337171322837267	0	0	-0.606852993823353	-0.634812507015196
0.637659936856459	0.724658388358882	0	0	0.0531200468631895	-0.0182065424215646	0	0
0	0	-0.827435587476029	-0.197240890874371	0	0	-0.00890877717946908	0.0718930979521287
4.9	0.0177892584965235	-0.0123183458938727	0	0	0.730758584695895	-0.62975281022215	0	0
0	0	-0.0394897194040526	0.0581633032276679	0	0	0.85430385961748	0.207082531712859
0.730758584695895	-0.62975281022215	0	0	-0.0806142562473753	-0.0287921276874201	0	0
0	0	0.199003214635019	0.821255640921999	0	0	-0.0832680246767257	0.00384268765123727
5	-0.0224396664709861	0.00416745140055603	0	0	0.618795022168867	0.726195406946618	0	0
0	0	2.09452215755635E-05	0.0200909707461994	0	0	0.83096715561399	-0.298307901314333
0.618795022168867	0.726195406946618	0	0	-0.0473986132486761	0.0408661172638928	0	0
0	0	-0.64512224169937	0.533848830957265	0	0	0.0417142503446053	-0.00915882086643308
5.1	0.0239732981219591	0.00582400238593574	0	0	0.727523048408751	-0.606174912114046	0	0
0	0	0.0387899627080631	-0.0335359771555756	0	0	-0.533275404890846	0.695462113328502
0.727523048408751	-0.606174912114046	0	0	-0.021487725129554	-0.0413005090105064	0	0
0	0	0.749866720865865	0.344847668668442	0	0	0.0727193703282463	-0.0197976581385818
5.2	-0.0216759577336027	-0.0169235178230452	0	0	0.583803282190443	0.745215063761278	0	0
0	0	0.0163099239276228	-0.0742122032929491	0	0	-0.0788264433328283	0.871733304735855
0.583803282190443	0.745215063761278	0	0	0.0384256972520588	0.0224489003100189	0	0
0	0	0.0151020866310868	0.832360457040616	0	0	0.0268206637667618	0.0662757369430715
5.3	0.0154683638842494	0.0264381357176616	0	0	0.763892214867522	-0.571743730549363	0	0
0	0	-0.0141317207323263	-0.041145967626222	0	0	-0.411908887992245	-0.771174370547874
0.763892214867522	-0.571743730549363	0	0	-0.0319053235500553	0.0246836125126408	0	0
0	0	0.743154888858123	-0.373964319968134	0	0	-0.0433779696666161	0.0117276013849898
5.4	-0.0062948310724716	-0.032344396451554	0	0	0.563458243405729	0.769117987540785	0	0
0	0	-0.0314570245838709	0.0148206783767341	0	0	-0.766995105835466	-0.428791057873511
0.563458243405729	0.769117987540785	0	0	0.0704847800498046	0.0876019481730186	0	0
0	0	0.657070872462122	0.510331516932789	0	0	-0.00950686188114104	0.0216966594917679
5.5	-0.00468809461638029	0.0347732606153692	0	0	0.780254405000764	-0.560776580231473	0	0
0	0	0.0229230205154979	0.060216420554062	0	0	0.877457848233256	-0.0436633687882762
0.780254405000764	-0.560776580231473	0	0	-0.00641221327393525	-0.0277298268177781	0	0
0	0	0.158455944620702	-0.816679400629519	0	0	0.0214859991061239	0.0384697893945532
5.6	0.0163160281378169	-0.0323202708361004	0	0	0.546713001677382	0.786132170757507	0	0
0	0	0.0419717070723467	0.0567293157144062	0	0	0.69892633634342	-0.507779452418776
0.546713001677382	0.786132170757507	0	0	0.00224906761537762	-0.109531143093068	0	0
0	0	0.800260544721911	-0.201277237032045	0	0	0.0107730581017677	0.117596234850331
5.7	-0.0269857712278162	0.0258176438459561	0	0	0.799393608275085	-0.538529102410057	0	0
0	0	0.0202681400642803	-0.00703534728912018	0	0	-0.319138484450865	0.807415652259362
0.799393608275085	-0.538529102410057	0	0	-0.0119168509824692	0.051585376257512	0	0
0	0	-0.535481928396322	-0.649948254905295	0	0	0.0586595606177988	0.0347294851410983
5.8	0.0337111384985324	-0.0152275904484439	0	0	0.521162148770833	0.799560199775384	0	0
0	0	-0.0222882328008691	-0.0315183995133777	0	0	0.154455847319455	0.854582274734975
0.521162148770833	0.799560199775384	0	0	0.0593902844079615	-0.0272920355350698	0	0
0	0	0.325358032456654	-0.771189247008484	0	0	0.0339593578519893	0.055632879385627
5.9	-0.0367888302179802	0.00199658262291573	0	0	0.813546593285229	-0.498137678015297	0	0
0	0	-0.056205515814154	-0.0269775636231703	0	0	-0.585273435696508	-0.639177721210569
0.813546593285229	-0.498137678015297	0	0	-0.0733651319188658	0.0432253731872469	0	0
0	0	-0.828075945276235	0.0588396501841009	0	0	0.037326201513376	0.0724956227487205
6	0.0355255236353589	0.0110758641635212	0	0	0.482317895834222	0.827099763417694	0	0
0	0	-0.0338491630277609	0.0057111065773787	0	0	-0.848967254637963	-0.195945076865014
0.482317895834222	0.827099763417694	0	0	-0.00287165118241608	0.0236165468856652	0	0
