# GHZ S RI R 50
0.2	-0.00612176796504304	0.00939123222006576	0	0	0.95796674605879	0.0580625294748035	0	0
0	0	0.0213437553455506	0.00421648036281338	0	0	-0.3703723598971	0.911098326025072
0.95796674605879	0.0580625294748035	0	0	0.0208774530631922	0.0440268667138938	0	0
0	0	0.569563799001897	-0.75403265283016	0	0	0.00129645796707105	-0.0297930355265139
0.3	0.00686985408114491	-0.00946725450371855	0	0	0.0335117835694367	-0.96520017724959	0	0
0	0	-0.00480675739939681	0.00160053657175761	0	0	-0.134244562010821	-0.974205624630758
0.0335117835694367	-0.96520017724959	0	0	-0.0138094465710938	0.00577269778402429	0	0
0	0	-0.922043366179287	-0.20215847114014	0	0	-0.0324175269511088	-0.0161323698842221
0.4	-0.00873096915285789	0.00787353664763283	0	0	0.948575727527978	0.0620159017257668	0	0
0	0	-0.0394421262209246	0.000863781570624972	0	0	-0.667115927659852	-0.72578872600609
0.948575727527978	0.0620159017257668	0	0	-0.0337923033756974	-0.0132428005042905	0	0
0	0	-0.235163372002404	-0.895811285803082	0	0	0.0218930586130823	0.0204928348802832
0.5	0.0108700113733757	-0.00476879751570006	0	0	0.127785827708802	-0.948871162933164	0	0
0	0	-0.0334627258349322	0.00480592351149737	0	0	0.963998825493759	0.207221922920136
0.127785827708802	-0.948871162933164	0	0	0.0370490256295436	0.0169320524210151	0	0
0	0	-0.67871578731605	0.636613092879482	0	0	0.00536707493498167	0.00796428667311507
0.6	-0.0113175926936969	0.00186206739605458	0	0	0.955017218934928	0.131382844247181	0	0
0	0	-0.00914130967478399	0.00594684881699616	0	0	0.912769458407661	-0.329392924263027
0.955017218934928	0.131382844247181	0	0	0.00511947902911808	-0.0196265150568089	0	0
0	0	-0.861936463438763	-0.344959343562215	0	0	-0.00521005901350194	-0.00709463355268122
0.7	0.0108241993550907	0.00104944505443219	0	0	0.109207023236395	-0.957704485344955	0	0
0	0	0.0217504334549284	-0.0112687378756484	0	0	-0.611383088118699	0.748366555475984
0.109207023236395	-0.957704485344955	0	0	0.00806022584913911	0.00986592494211028	0	0
0	0	0.0457302164958168	0.920503032256116	0	0	0.00229119888498114	-0.0129176562992752
0.8	-0.00966268641483577	-0.0044728960295957	0	0	0.95526438961464	0.113960575003148	0	0
0	0	0.0434343043153542	-0.0421808543063384	0	0	-0.120763821305689	0.961139245561535
0.95526438961464	0.113960575003148	0	0	-0.0227059483611677	0.0128380630536781	0	0
0	0	-0.811944087456095	0.448559467786937	0	0	0.0064910677715	0.0834862106264271
0.9	0.00715143650918404	0.00736934733098086	0	0	0.145372096623059	-0.940298161585775	0	0
0	0	0.0127205558460282	-0.028035402900233	0	0	-0.434558529976322	-0.866610938904059
0.145372096623059	-0.940298161585775	0	0	-0.00219680800248244	-0.0616319273297913	0	0
0	0	0.76440212015592	0.525543618671382	0	0	0.0361319736649969	0.0139971439486853
1	-0.00409399314590532	-0.00895238960999661	0	0	0.943401550284499	0.182038650511011	0	0
0	0	-0.0145768934995426	0.0116284174947084	0	0	-0.838929339362866	-0.481886290503998
0.943401550284499	0.182038650511011	0	0	0.00259577013466107	0.0425678808106597	0	0
0	0	-0.126551220351512	0.903285970498201	0	0	0.00307695141250856	0.00245745510231019
1.1	0.000900077253089693	0.00860405732936337	0	0	0.20182527555238	-0.950554026259035	0	0
0	0	-0.0115204577345879	0.0349672839811185	0	0	0.95742797026974	-0.0510406624547585
0.20182527555238	-0.950554026259035	0	0	0.00357449439933641	0.00244273668448201	0	0
0	0	0.869952942321429	-0.260527097143091	0	0	0.00870083497018864	0.043717315791438
1.2	0.00185336968042759	-0.00663167596312634	0	0	0.96043213672004	0.202772673303559	0	0
0	0	0.00898480270634915	0.0646516668540546	0	0	0.77207674606428	-0.555503677184979
0.96043213672004	0.202772673303559	0	0	0.0540581179173765	7.6040447362799E-05	0	0
0	0	0.614781523072593	0.672324793965529	0	0	0.00719146948369035	0.100735736479314
1.3	-0.00392183330246721	0.0032787719198147	0	0	0.205178600881221	-0.944270601156611	0	0
0	0	0.0164913224049398	0.0192140027413264	0	0	-0.355331296943493	0.884661570934623
0.205178600881221	-0.944270601156611	0	0	-0.0538824411998158	0.00105076598982699	0	0
0	0	0.322335110692306	-0.860652103334284	0	0	0.0406934715177257	0.0152792214981464
1.4	0.00466587174291617	0.000474486957407884	0	0	0.926173202143549	0.233286664790255	0	0
0	0	-0.0130692460016362	-0.0433967377323617	0	0	0.180368422865364	0.938748959558844
0.926173202143549	0.233286664790255	0	0	0.017753963644862	0.00843406325098752	0	0
0	0	0.90017504150678	-0.0846384151548998	0	0	0.0450247634559678	-0.00582586972571181
1.5	-0.00381463996233081	-0.00353578390967112	0	0	0.270514297276224	-0.924256920553882	0	0
0	0	-0.0382187434254134	-0.0559564860218107	0	0	-0.676265950468022	-0.675937639656612
0.270514297276224	-0.924256920553882	0	0	0.0336026632489094	-0.0327432227332564	0	0
0	0	-0.462759545570782	-0.7682964205813	0	0	0.0338249088398557	0.0528525033277634
1.6	0.00182941876421623	0.00519924449019837	0	0	0.939022153724374	0.29417079137193	0	0
0	0	-0.0364574131621133	-0.0192483212429809	0	0	-0.938416173002247	-0.183040292116654
0.939022153724374	0.29417079137193	0	0	-0.0512017919179075	-0.0267999014645745	0	0
0	0	0.497380998771237	-0.755552942497447	0	0	0.00152033679119206	0.0530850817658047
1.7	0.000880283867748941	-0.00506612946220263	0	0	0.288884122534796	-0.944421383782422	0	0
0	0	0.0152396849319469	0.00656439463104053	0	0	0.885388773640346	-0.34509174899972
0.288884122534796	-0.944421383782422	0	0	-0.000712768468979937	0.00514994160020837	0	0
0	0	-0.901579834933491	-0.110165951267463	0	0	0.0404116323993753	-0.0304413809734935
1.8	-0.00367422344794472	0.00320673560409105	0	0	0.918405892139046	0.289962819225501	0	0
0	0	0.0451034218212371	0.0380905260698934	0	0	0.572868962743505	-0.747140464224821
0.918405892139046	0.289962819225501	0	0	0.00680260381163318	0.0650642698751917	0	0
0	0	-0.311462406842441	-0.849513426207307	0	0	0.0278332094369277	-0.0340637861538976
1.9	0.00577422378074961	-6.97809145767835E-05	0	0	0.319135458430944	-0.894776543896758	0	0
0	0	0.0525210969250407	-0.00389452132923785	0	0	-0.082310580262058	0.942008929993485
0.319135458430944	-0.894776543896758	0	0	0.00972431729286225	0.00875733518188573	0	0
0	0	-0.61458185213524	0.646627324769516	0	0	0.0412030684713865	0.0234798246569291
2	-0.00632283198727174	-0.00388635586625385	0	0	0.891442955251005	0.349510869712787	0	0
0	0	0.0150092332421537	-0.0052495131286503	0	0	0.458110553633731	0.832773599242552
0.891442955251005	0.349510869712787	0	0	-0.0499400862472886	-0.03331282823363	0	0
0	0	-0.844696954569477	-0.263244100924707	0	0	-0.05294042710706	-0.0211724457335803
2.1	0.0050013503572969	0.00796167568319919	0	0	0.36444387955867	-0.898087096031172	0	0
0	0	-0.029088405968188	0.00752556390629731	0	0	-0.830368790256649	-0.451715454394595
0.36444387955867	-0.898087096031172	0	0	0.0705751395232068	0.0163023380201986	0	0
0	0	0.135759520442935	0.879247013015658	0	0	-0.00493696749116568	0.00970062788517548
2.2	-0.00146888528792464	-0.0115439870944351	0	0	0.898384962524758	0.376485017165044	0	0
0	0	-0.0479443437978908	0.0168806035961951	0	0	-0.932170212071006	0.0688037230774805
0.898384962524758	0.376485017165044	0	0	0.014697668820913	-0.0109583490566441	0	0
0	0	-0.737016365361831	0.506229396710081	0	0	0.0426954977366321	-0.0112627450092265
2.3	-0.00376411543356788	0.0135789379555476	0	0	0.386428675695366	-0.889267128987457	0	0
0	0	-0.030212010772604	0.019048593730439	0	0	0.736797545403991	-0.555476262829411
0.386428675695366	-0.889267128987457	0	0	0.0580760162297457	-0.0289630803062026	0	0
0	0	0.776133949502217	0.432358946852385	0	0	0.0668933045779361	0.0465303498805651
2.4	0.00987785054100412	-0.0134495820730206	0	0	0.877693118683812	0.39845554060813	0	0
0	0	-0.000310286046229378	0.000867553961038445	0	0	0.324457890778841	-0.86793024778486
0.877693118683812	0.39845554060813	0	0	-0.0968940194573907	0.0135595766036633	0	0
0	0	-0.0393531608816473	0.882616363910764	0	0	0.0473080176434363	-0.049329247680747
2.5	-0.0161912924620607	0.0106828162187447	0	0	0.415439910647774	-0.866301351255582	0	0
0	0	0.019454173766074	-0.0360808429468733	0	0	0.189315033742407	0.917742231007959
0.415439910647774	-0.866301351255582	0	0	-0.0102568765273849	-0.0273706897738643	0	0
0	0	0.8051532176825	-0.332082820963726	0	0	0.0127037895700549	-0.00101050294502844
2.6	0.0215603437652412	-0.0056491289811537	0	0	0.859423438903335	0.429535500766563	0	0
0	0	0.018153086318402	-0.038736489417701	0	0	0.667236944113291	0.653699601506933
0.859423438903335	0.429535500766563	0	0	0.00535620726026544	-0.0337898778126319	0	0
0	0	0.630637473570758	0.597361158700892	0	0	0.0626330018198651	0.00980414280911849
2.7	-0.0251281282346298	-0.0012158062458536	0	0	0.44411381114251	-0.853617392509914	0	0
0	0	0.0212555461575918	-0.00949219499596792	0	0	-0.897679534106303	-0.174194249513934
0.44411381114251	-0.853617392509914	0	0	0.00300273037953077	-0.0132496386472859	0	0
0	0	0.275888862569888	-0.835644193345668	0	0	-0.0273734693902045	-0.00125525863957545
2.8	0.0257177106801309	0.00897739708902247	0	0	0.843295233746519	0.45760605564607	0	0
0	0	0.00948632225388692	0.0125651226031837	0	0	-0.84244662545557	0.312668209449778
0.843295233746519	0.45760605564607	0	0	0.0038280982087032	0.0635875392282685	0	0
0	0	0.871784420822022	-0.150227453576036	0	0	0.0261202026071172	-0.0641508738332571
2.9	-0.0226474463471066	-0.0167615917736872	0	0	0.473716864310172	-0.824343548054242	0	0
0	0	-0.000552914048083251	0.0363132483797177	0	0	0.56746283775194	-0.700930418509176
0.473716864310172	-0.824343548054242	0	0	-0.0538422161624955	0.0338831549184117	0	0
0	0	-0.515349369625681	-0.702841173399385	0	0	-0.0402362525700297	-0.0464331937679478
3	0.016785294003688	0.0237611234024649	0	0	0.815619085594458	0.497996039231041	0	0
0	0	-0.0114415859601716	0.0289702142553918	0	0	0.0916899479578167	-0.920488722123237
0.815619085594458	0.497996039231041	0	0	-0.0071579103812218	-0.017821462363205	0	0
0	0	0.406704204126286	-0.760894365656194	0	0	0.0135531062832796	0.085704369339955
3.1	-0.0084067900447432	-0.0281137118814084	0	0	0.518846068440557	-0.805592870198079	0	0
0	0	-0.0205972713284699	0.0117825161280502	0	0	0.448324257065425	0.806840267218903
0.518846068440557	-0.805592870198079	0	0	0.0384497375520743	-0.0645039211869811	0	0
0	0	-0.869524363837776	-0.0501381111061713	0	0	-0.0755420809234957	0.00616376848389617
3.2	-0.00100827548455266	0.0298765716853007	0	0	0.804044520779794	0.542738964433117	0	0
0	0	-0.0180270661571417	-0.00648299968819421	0	0	0.798292109924909	0.437393481664016
0.804044520779794	0.542738964433117	0	0	0.000520917264740147	0.025325616805196	0	0
0	0	-0.337467311737668	-0.814310719020159	0	0	-0.0593384748812729	0.00687477957654377
3.3	0.0101311017598909	-0.0276393297441421	0	0	0.554212447430471	-0.799979997215727	0	0
0	0	-0.00130789207761898	-0.0242507249953906	0	0	-0.905186381366774	0.0502438849952814
0.554212447430471	-0.799979997215727	0	0	0.061967206756888	0.0244211810900709	0	0
0	0	-0.57495072502045	0.675676838548689	0	0	-0.0274015088265193	-0.106929198948108
3.4	-0.0177603231760481	0.0216671553368788	0	0	0.783328011117514	0.558989973949849	0	0
0	0	-0.00425288846310049	-0.040791006171973	0	0	-0.733069261579336	0.543166160067998
0.783328011117514	0.558989973949849	0	0	-0.115021843832154	0.00876533959120666	0	0
0	0	-0.856985002376845	-0.222393679602111	0	0	-0.0195430030550438	-0.0397423975258512
3.5	0.0230875986482521	-0.0138792628718448	0	0	0.573565360942074	-0.774219242123685	0	0
0	0	0.00818959995422191	-0.0304649246745531	0	0	0.297130881777535	-0.869275934896532
0.573565360942074	-0.774219242123685	0	0	-0.0121349892869285	-0.0536525299356394	0	0
0	0	0.167864854124871	0.843389134543244	0	0	0.0850335679690144	-0.0725841607610856
3.6	-0.025023595157492	0.00512968772305166	0	0	0.767113841448417	0.583373906531615	0	0
0	0	0.0199171935563992	0.00240525278586939	0	0	-0.21016762633272	-0.89441068995424
0.767113841448417	0.583373906531615	0	0	-0.0342822533973135	0.0604377717725191	0	0
0	0	-0.692646949376549	0.520845924212103	0	0	0.044777627467915	-0.0316301125297216
3.7	0.0230032012311515	0.00423006035863603	0	0	0.602318727955862	-0.746947010099814	0	0
0	0	0.01425910372743	0.03635707332566	0	0	0.639835877600633	0.648378926608367
0.602318727955862	-0.746947010099814	0	0	0.118324631934492	0.00725905196055378	0	0
0	0	0.77091215068532	0.408907639303144	0	0	0.0554590590771087	-0.0191570251203408
3.8	-0.0179249517960541	-0.012014296582865	0	0	0.740577087222592	0.620937005810026	0	0
0	0	0.0154534090767175	0.05068184276741	0	0	0.87090670670339	0.185753194459354
0.740577087222592	0.620937005810026	0	0	-0.0253402412274591	0.0208571912214997	0	0
0	0	-0.0152065970582755	0.871021489429966	0	0	-0.0583322698050189	-0.0251918049521703
3.9	0.0107189718550844	0.0168762801668143	0	0	0.625642731390178	-0.739741963795439	0	0
0	0	0.0111601746200187	0.0158417796619407	0	0	-0.82331600746862	0.328068308144628
0.625642731390178	-0.739741963795439	0	0	-0.0133611777652185	0.0832932936611522	0	0
0	0	0.782079096195893	-0.385879133538392	0	0	0.0247579989024315	-0.00573404423778168
4	-0.00202514710898278	-0.0184327844362205	0	0	0.721950841688157	0.633872068673769	0	0
0	0	-0.0168878113539921	-0.0120540785574251	0	0	-0.515029056804419	0.72450291869888
0.721950841688157	0.633872068673769	0	0	0.0508562365338821	-0.0741991320182364	0	0
0	0	0.683971427566482	0.515007877526695	0	0	-0.00478608501846169	0.00956345719317499
4.1	-0.00595749923163438	0.0164716075735618	0	0	0.639423453243229	-0.708918127124507	0	0
0	0	-0.0418669750053082	-0.0352009562013673	0	0	0.0542830608192578	-0.891049437296436
0.639423453243229	-0.708918127124507	0	0	0.0248913568377275	-0.111713697684827	0	0
0	0	0.183075963504675	-0.827631201300094	0	0	0.0263055912368225	0.081765276782608
4.2	0.01237218264711	-0.0117322580797767	0	0	0.703836122466773	0.650819838424711	0	0
0	0	-0.0492820381979423	-0.0152904795903135	0	0	-0.433442428992128	-0.7795905269404
0.703836122466773	0.650819838424711	0	0	-0.0400299012637314	0.0164682862273902	0	0
0	0	0.8304806217616	-0.185001287083661	0	0	-0.0118691522795756	-0.0412495131087204
4.3	-0.0161038927070043	0.00475395221103289	0	0	0.65971185295076	-0.697079245549955	0	0
0	0	-0.00772358010538286	0.00674623251118622	0	0	0.777660234169465	0.423029888548624
0.65971185295076	-0.697079245549955	0	0	-0.0109635320168116	0.0672541265688335	0	0
0	0	-0.534239284079226	-0.672487706686192	0	0	-0.0144275176930704	0.00241546424103084
4.4	0.0162323156194313	0.00341889728683151	0	0	0.680172833550482	0.669422471528044	0	0
0	0	0.0378669616385291	0.0042371365985646	0	0	0.887170886887924	-0.0539792177701033
0.680172833550482	0.669422471528044	0	0	0.00128927906091597	-0.0501275569494427	0	0
0	0	0.345240304447604	-0.771500999374193	0	0	-0.0335452542557781	0.00331066533587061
4.5	-0.0126756267833203	-0.0107924451968389	0	0	0.676175848217251	-0.662034596524884	0	0
0	0	0.0646584628428356	-0.00469668110175437	0	0	-0.721488216621338	0.522713676387601
0.676175848217251	-0.662034596524884	0	0	-0.0498543448270578	0.0264299888800711	0	0
0	0	-0.834363888988809	0.0114019033378661	0	0	-0.0858994884383418	0.0618956811929249
4.6	0.00613510076415511	0.0163963035418253	0	0	0.644174221908713	0.691065188630782	0	0
0	0	0.046826590149419	-0.0251231574115166	0	0	-0.312926540432528	0.843591923109041
0.644174221908713	0.691065188630782	0	0	-0.00402048040884037	0.0137760806650097	0	0
0	0	-0.37131954236057	-0.744127548156661	0	0	-0.0800648078211403	-0.00971185243542681
4.7	0.00200789425129877	-0.019051589788708	0	0	0.708573684142496	-0.637435382613036	0	0
0	0	-0.0242334560623935	-0.0054354553652907	0	0	-0.190671531787354	-0.873490902443349
0.708573684142496	-0.637435382613036	0	0	0.065396454075653	-0.0177133880905872	0	0
0	0	-0.524237604743922	0.655149254017205	0	0	-0.0731712418302491	0.0720492244469429
4.8	-0.0105997158896623	0.0182201732819943	0	0	0.637672331099651	0.724705677962288	0	0
0	0	-0.0583317133448461	0.0343618027402859	0	0	-0.606781392460571	-0.634863741006475
0.637672331099651	0.724705677962288	0	0	0.0527990942132306	-0.0184347146328999	0	0
0	0	-0.827404288437182	-0.197320216722517	0	0	-0.00922240033407709	0.0716373179179835
4.9	0.0181206833871704	-0.0130592620129638	0	0	0.730698751377779	-0.629729690125591	0	0
0	0	-0.0396137555597641	0.0587973466596371	0	0	0.854245723224982	0.207093798269215
0.730698751377779	-0.629729690125591	0	0	-0.0809917365940579	-0.0289572245984485	0	0
0	0	0.19896799974711	0.821210914009371	0	0	-0.0836310760883562	0.00364014315392231
5	-0.0228206001428767	0.00491687443433108	0	0	0.618734954840559	0.726180548926784	0	0
0	0	-0.000450910135529067	0.0205825907230824	0	0	0.831022721275125	-0.298288713135107
0.618734954840559	0.726180548926784	0	0	-0.0478127400678648	0.0407702774810466	0	0
0	0	-0.645177990301172	0.533849618824402	0	0	0.0413134373668959	-0.0092803087764098
5.1	0.0243575752228315	0.00495849565927241	0	0	0.727490532308118	-0.606194453964246	0	0
0	0	0.03806903595934	-0.0332871797088258	0	0	-0.533350953134235	0.695510818841959
0.727490532308118	-0.606194453964246	0	0	-0.0219086398281489	-0.0412900353776488	0	0
0	0	0.749927197409958	0.344906904736482	0	0	0.0723114923302716	-0.0198201123652995
5.2	-0.0219536904027373	-0.0159794367626344	0	0	0.583798413783431	0.745261596734993	0	0
0	0	0.0155116597657811	-0.0742367383022	0	0	-0.0789297696156838	0.871773264481817
0.583798413783431	0.745261596734993	0	0	0.0380515794006706	0.0225795880844197	0	0
0	0	0.0150084967448809	0.83240886486186	0	0	0.0264298150093776	0.0663806032745219
5.3	0.0155966994804206	0.0255678501077114	0	0	0.763886316427169	-0.571695217540466	0	0
0	0	-0.0147810387769574	-0.0414099587106924	0	0	-0.411859370729997	-0.771189033058725
0.763886316427169	-0.571695217540466	0	0	-0.0321720275470052	0.0249005353005689	0	0
0	0	0.743167689117365	-0.373916875075308	0	0	-0.043663958400433	0.0119184716398172
5.4	-0.00640473910552289	-0.0316700686590692	0	0	0.563436370628075	0.769198031674816	0	0
0	0	-0.0317819044693611	0.0143808438294367	0	0	-0.766988903294925	-0.428839932703567
0.563436370628075	0.769198031674816	0	0	0.0703413949290595	0.087846014437966	0	0
0	0	0.657058124105772	0.5103763871688	0	0	-0.00966856209212814	0.0219173833019799
5.5	-0.00442616431999591	0.0341916081055016	0	0	0.780242345239704	-0.560779687554013	0	0
0	0	0.0229984061074309	0.0597197491197754	0	0	0.877491826234173	-0.043609671800177
0.780242345239704	-0.560779687554013	0	0	-0.00647531905135105	-0.0275517234146028	0	0
0	0	0.15851300798373	-0.81669848865179	0	0	0.0214047464857753	0.0386447152418062
5.6	0.0159098177992815	-0.0316596637407689	0	0	0.546786877912435	0.786097423630882	0	0
0	0	0.0424033693288131	0.0563108560032469	0	0	0.699011369338721	-0.50769155777821
0.546786877912435	0.786097423630882	0	0	0.00216077074317603	-0.109420409943259	0	0
0	0	0.800304626628469	-0.201169060664065	0	0	0.0106626885412611	0.117706578914484
5.7	-0.0266041081098974	0.0249891241137198	0	0	0.799404650345443	-0.538470296823833	0	0
0	0	0.0209382825318402	-0.00728759400934066	0	0	-0.319225687706245	0.807456683235731
0.799404650345443	-0.538470296823833	0	0	-0.012082958152757	0.0516910818609589	0	0
0	0	-0.535475813537841	-0.650041534308135	0	0	0.0584899146313213	0.0348326689425388
5.8	0.0335215382121019	-0.01437965599871	0	0	0.521203636788198	0.799575895671148	0	0
0	0	-0.0215990081964647	-0.0315680718025371	0	0	0.15439229467283	0.854656994285862
0.521203636788198	0.799575895671148	0	0	0.0591443437189651	-0.0270769419102825	0	0
0	0	0.325448683289753	-0.771216095173389	0	0	0.0336897501340816	0.0558344988131929
5.9	-0.0367404417835557	0.00132140003862398	0	0	0.813537489268185	-0.498060328514228	0	0
0	0	-0.0556896892035653	-0.026842318906353	0	0	-0.585267086549829	-0.639274614930566
0.813537489268185	-0.498060328514228	0	0	-0.0736069742707528	0.0436168112969174	0	0
0	0	-0.828144888856411	0.0587772148525351	0	0	0.0370408795684605	0.072881441945164
6	0.035450886755824	0.0114954380768267	0	0	0.482291881698648	0.827107730176196	0	0
0	0	-0.0336314007036214	0.00595709853601275	0	0	-0.848954331813902	-0.196022995791717
0.482291881698648	0.827107730176196	0	0	-0.00299562451964315	0.0241877712627214	0	0
