# GHZ S RI R 50
0.2	-0.0057460089684061	0.00660970501166832	0	0	0.958263519316	0.0577131530431682	0	0
0	0	0.0237939505187434	0.00280120612861411	0	0	-0.370101421919596	0.911275850458201
0.958263519316	0.0577131530431682	0	0	0.0209205910184329	0.0479889694510828	0	0
0	0	0.569356263977078	-0.754264582184248	0	0	0.00128353832561448	-0.0258404904915159
0.3	0.0071818550431416	-0.00832365460170577	0	0	0.0329238903839588	-0.965374333672222	0	0
0	0	-0.00366705387686069	0.0013026694301593	0	0	-0.134830677882043	-0.974267590865734
0.0329238903839588	-0.965374333672222	0	0	-0.0127231987817221	0.00834822270380957	0	0
0	0	-0.92229355904659	-0.201651072898928	0	0	-0.0313588855271672	-0.0135395725566532
0.4	-0.00856335917317691	0.0078801260597306	0	0	0.948657608662034	0.0610847891286101	0	0
0	0	-0.0395211767573779	0.00101374410699492	0	0	-0.6678488808296	-0.725162395286509
0.948657608662034	0.0610847891286101	0	0	-0.0324804370004335	-0.0118541080874569	0	0
0	0	-0.236047215552632	-0.895613140319236	0	0	0.0232791366527809	0.0217747590157624
0.5	0.00991354698722099	-0.00524888310180926	0	0	0.126526851752349	-0.948856209784839	0	0
0	0	-0.0344702593884676	0.00516380608799507	0	0	0.964055263173641	0.205904657685924
0.126526851752349	-0.948856209784839	0	0	0.0381194038087823	0.0172869330993344	0	0
0	0	-0.677724068114584	0.637364620469074	0	0	0.00643154339205343	0.0084053152965497
0.6	-0.00965330503450121	0.00204664136068178	0	0	0.954635022150713	0.129727794119582	0	0
0	0	-0.0107468868210766	0.0061482682335408	0	0	0.911649148856761	-0.330658677942139
0.954635022150713	0.129727794119582	0	0	0.00555796493942555	-0.0195305158851266	0	0
0	0	-0.86194050749362	-0.343342146144523	0	0	-0.00471486669271636	-0.00698124856392415
0.7	0.00903388477469407	0.00163950437266832	0	0	0.107398984973575	-0.956823338761574	0	0
0	0	0.0199596494649311	-0.0114393204098008	0	0	-0.609338921631413	0.748592945149445
0.107398984973575	-0.956823338761574	0	0	0.00813091439321256	0.00997653336871839	0	0
0	0	0.0473216805196641	0.919356425715379	0	0	0.00229516930657465	-0.0127325729361845
0.8	-0.00831784135125044	-0.0055680835448206	0	0	0.953803239535069	0.112121917420847	0	0
0	0	0.0418234301564226	-0.0426384455875309	0	0	-0.118965384633658	0.959806161635161
0.953803239535069	0.112121917420847	0	0	-0.0226938127300038	0.0133609105406357	0	0
0	0	-0.809898190159102	0.449199533449469	0	0	0.00664503535715335	0.0836807558094228
0.9	0.00641509498797194	0.00841100927969569	0	0	0.143512901873401	-0.938266047468803	0	0
0	0	0.0115888013932046	-0.0285866348108498	0	0	-0.434963016558312	-0.863927734384112
0.143512901873401	-0.938266047468803	0	0	-0.00231596874917567	-0.0605143421936068	0	0
0	0	0.763501886457662	0.523108228636123	0	0	0.0360806515631954	0.0146449591381269
1	-0.00376105664413476	-0.00956479034383363	0	0	0.940938596976468	0.180383473356975	0	0
0	0	-0.0150483099921409	0.0111667482971094	0	0	-0.837102051902807	-0.479489090307971
0.940938596976468	0.180383473356975	0	0	0.00317516440884559	0.0432640359522076	0	0
0	0	-0.125096774496798	0.900844677839334	0	0	0.00356510659607069	0.0033829414739231
1.1	0.000579172809831149	0.00861049194206538	0	0	0.200528030536455	-0.947544134197966	0	0
0	0	-0.0113293956032032	0.0347825389192347	0	0	0.95421522748755	-0.0515046898517348
0.200528030536455	-0.947544134197966	0	0	0.00453478357002461	0.0031981124483943	0	0
0	0	0.866892034597902	-0.26023768237239	0	0	0.00968779189648362	0.0441681047456138
1.2	0.00258563982264668	-0.00621076016547045	0	0	0.957034005044066	0.202069970053591	0	0
0	0	0.00964771347041759	0.0649093077438099	0	0	0.769307786582067	-0.55343549652446
0.957034005044066	0.202069970053591	0	0	0.0549974562717601	0.000452599444529148	0	0
0	0	0.612504450032693	0.66992207517861	0	0	0.00847529471847814	0.100321001692364
1.3	-0.00506306037067986	0.00285489174313643	0	0	0.205127756147835	-0.940590802360086	0	0
0	0	0.0172876907830676	0.0199352550730117	0	0	-0.354674103247425	0.881138496951506
0.205127756147835	-0.940590802360086	0	0	-0.0520539159749713	0.000951396537012657	0	0
0	0	0.321781833133961	-0.857241871259915	0	0	0.0418199583839706	0.0151069033253016
1.4	0.0059333580109937	0.000805992922451481	0	0	0.922546779188091	0.233864681984121	0	0
0	0	-0.0125263115913968	-0.0423351481840997	0	0	0.178357617117361	0.935677355496284
0.922546779188091	0.233864681984121	0	0	0.0189414868520173	0.00818567809755087	0	0
0	0	0.897100755373118	-0.0830239806551988	0	0	0.0460929390645769	-0.00599426710137731
1.5	-0.0051717583689523	-0.00374105389004773	0	0	0.271631624824522	-0.920699044695793	0	0
0	0	-0.0380277753929425	-0.0547484956931977	0	0	-0.672579405823343	-0.675288765528685
0.271631624824522	-0.920699044695793	0	0	0.0346909960031257	-0.0328090537513571	0	0
0	0	-0.459550250640051	-0.76687190924222	0	0	0.0345581321542856	0.0521822587756164
1.6	0.00327421242727911	0.00511389980991925	0	0	0.935544272352926	0.295989664852106	0	0
0	0	-0.0366269722411207	-0.0179846759425735	0	0	-0.935350475591886	-0.185234380142726
0.935544272352926	0.295989664852106	0	0	-0.0499104283000675	-0.0275623562785847	0	0
0	0	0.498199779309709	-0.752081428830916	0	0	0.00207345693547468	0.0521377405379937
1.7	-0.000369470683068482	-0.00461341742148924	0	0	0.291349463986477	-0.94153879299061	0	0
0	0	0.0147877891411119	0.00762870232032809	0	0	0.884635934725572	-0.341565440807212
0.291349463986477	-0.94153879299061	0	0	-0.000242039384351641	0.00443171141848676	0	0
0	0	-0.899350138849233	-0.112794018732753	0	0	0.040938468568854	-0.0307884060854694
1.8	-0.00283267678102096	0.00265555364990064	0	0	0.916272556161075	0.292788964351702	0	0
0	0	0.0445139423432809	0.038765902757527	0	0	0.574657942464818	-0.744177045641177
0.916272556161075	0.292788964351702	0	0	0.00653173577066462	0.0643297375163791	0	0
0	0	-0.308136522762384	-0.849439854780683	0	0	0.0281694202993696	-0.0344290774523238
1.9	0.00518699297410461	0.000297372748431137	0	0	0.322036149591734	-0.893239068441824	0	0
0	0	0.0519303585628159	-0.00367858078705733	0	0	-0.0854924803634043	0.941259349421228
0.322036149591734	-0.893239068441824	0	0	0.00967504898369362	0.00836944449807691	0	0
0	0	-0.61648876881149	0.644203485820118	0	0	0.0410010133278688	0.0232696677472001
2	-0.00577874005478432	-0.00402276081946686	0	0	0.890507615234571	0.352410815248375	0	0
0	0	0.0145474853022691	-0.00546132188057595	0	0	0.455534905652689	0.834395097223223
0.890507615234571	0.352410815248375	0	0	-0.0497598153627612	-0.0339277224584402	0	0
0	0	-0.844014802198428	-0.265993936661426	0	0	-0.0528514544334242	-0.0218183229700646
2.1	0.00433678841304286	0.00799094591568927	0	0	0.367145194818774	-0.897905661797284	0	0
0	0	-0.0293361322980862	0.0069857122383463	0	0	-0.829832741322421	-0.454333373996438
0.367145194818774	-0.897905661797284	0	0	0.0706521961180253	0.0164876104136316	0	0
0	0	0.133494276555746	0.880339700732632	0	0	-0.00496448292070071	0.00946140359564207
2.2	-0.00070003302999156	-0.0116624956359496	0	0	0.898727416093418	0.378762360298359	0	0
0	0	-0.0479574990689773	0.0161964553249169	0	0	-0.933461969581205	0.0670069148316372
0.898727416093418	0.378762360298359	0	0	0.0148632921389425	-0.0111951913733609	0	0
0	0	-0.738949859544779	0.505367555139162	0	0	0.042918919716747	-0.0113900102767974
2.3	-0.00444029376440595	0.0138642003440311	0	0	0.388073380558855	-0.889994900051543	0	0
0	0	-0.0300560074106785	0.0184253915845624	0	0	0.738563303806134	-0.555314336193219
0.388073380558855	-0.889994900051543	0	0	0.0583462585181075	-0.0292702602836634	0	0
0	0	0.776679256477125	0.433976790563693	0	0	0.0669739894352094	0.0464596110340088
2.4	0.0103078802347874	-0.0137724263664935	0	0	0.878533930392163	0.399526927098664	0	0
0	0	-7.84564500957708E-05	0.000456824689788587	0	0	0.325356790129243	-0.868796271469213
0.878533930392163	0.399526927098664	0	0	-0.0972657326068785	0.0130381320990223	0	0
0	0	-0.0399141524645102	0.883665999290142	0	0	0.0473440575820012	-0.049843523781915
2.5	-0.0164021475638486	0.0108369160719524	0	0	0.415784891800039	-0.867057733380163	0	0
0	0	0.0196636612111044	-0.0361968068710235	0	0	0.189482860919022	0.918534065620458
0.415784891800039	-0.867057733380163	0	0	-0.0105445064141299	-0.0278328531572187	0	0
0	0	0.805847131626963	-0.332373439520581	0	0	0.0124129832553438	-0.00143937009658896
2.6	0.0217277722040307	-0.00556467911848013	0	0	0.859871618587164	0.429273386995024	0	0
0	0	0.0182382971336429	-0.0385931742820945	0	0	0.667717733449343	0.653603200221689
0.859871618587164	0.429273386995024	0	0	0.0049495759170182	-0.0341371344211397	0	0
0	0	0.631083003017099	0.597263994122881	0	0	0.062247592222824	0.0094227282642681
2.7	-0.0253721884295525	-0.00144857377482172	0	0	0.443392705490568	-0.853554554795089	0	0
0	0	0.0211657952838332	-0.0092223884214488	0	0	-0.897397939188819	-0.17356884008578
0.443392705490568	-0.853554554795089	0	0	0.00255875306522807	-0.0134600091262178	0	0
0	0	0.27525747265891	-0.83545174812782	0	0	-0.0278233187987103	-0.00144571411424417
2.8	0.0260093203635247	0.0092714031757945	0	0	0.842569736918163	0.456649298483722	0	0
0	0	0.00922090555448972	0.0127892934674286	0	0	-0.841295137892309	0.312775273227975
0.842569736918163	0.456649298483722	0	0	0.00345428720062966	0.0633037353879578	0	0
0	0	0.870689477281941	-0.150539290000755	0	0	0.0255194532651232	-0.0641668616124259
2.9	-0.0229372004085061	-0.0171470485165228	0	0	0.472694448557534	-0.822877323022626	0	0
0	0	-0.000959485653858289	0.0363371307934575	0	0	0.566260229763703	-0.699729040787361
0.472694448557534	-0.822877323022626	0	0	-0.0540331615458705	0.0337108022995715	0	0
0	0	-0.514522686340836	-0.701421590347131	0	0	-0.0405310591394251	-0.0462966411417867
3	0.0171504575847899	0.0242755254124973	0	0	0.813453173950336	0.49712168503358	0	0
0	0	-0.0119104049121471	0.0287382907167067	0	0	0.0918996895079902	-0.918244633314108
0.813453173950336	0.49712168503358	0	0	-0.00745484382418402	-0.0177454699727387	0	0
0	0	0.40608620395771	-0.758885126811822	0	0	0.0130485938635464	0.0853280038075433
3.1	-0.00894715244223275	-0.0286792794623845	0	0	0.518337345358525	-0.802796781887109	0	0
0	0	-0.0210365222139714	0.0113119932112366	0	0	0.44606975508522	0.805102734622495
0.518337345358525	-0.802796781887109	0	0	0.0381608684773488	-0.0640174784677984	0	0
0	0	-0.867000833876818	-0.0510575844253468	0	0	-0.0753847558748681	0.00600764210040613
3.2	-0.000307317711887963	0.0303781177051418	0	0	0.800610342165576	0.542902763012448	0	0
0	0	-0.0183023120498674	-0.00711568476160118	0	0	0.795025430459238	0.437817564450044
0.800610342165576	0.542902763012448	0	0	0.000283675341299359	0.0252502594104018	0	0
0	0	-0.334743839961604	-0.812649987055846	0	0	-0.059157224842468	0.00666344740874619
3.3	0.00938158427856953	-0.0280007303190071	0	0	0.555180770550558	-0.796208190293501	0	0
0	0	-0.00134399728143772	-0.0249148093801016	0	0	-0.902819740937485	0.0473907132404746
0.555180770550558	-0.796208190293501	0	0	0.0614489769987978	0.0247187704822635	0	0
0	0	-0.575377284676431	0.672074321571448	0	0	-0.0266427278547244	-0.106453678263078
3.4	-0.0170792080065051	0.0219348281163429	0	0	0.779304369534403	0.560881545308899	0	0
0	0	-0.00402489352191399	-0.0413523434650889	0	0	-0.733549252586461	0.53903817766163
0.779304369534403	0.560881545308899	0	0	-0.114578296128254	0.0078296913800393	0	0
0	0	-0.854160783083621	-0.225272460285548	0	0	-0.0191292711929361	-0.0397033511609856
3.5	0.0224627604091827	-0.0141608674374223	0	0	0.576359948589399	-0.770347167580171	0	0
0	0	0.00862266825071662	-0.0308044975088092	0	0	0.300742095289188	-0.866596024130905
0.576359948589399	-0.770347167580171	0	0	-0.0115956575762513	-0.0536292802902837	0	0
0	0	0.163681993991734	0.842916149089818	0	0	0.0854676013279573	-0.0715910566340658
3.6	-0.0243698905052094	0.00540872166154317	0	0	0.763623035153334	0.587217187672871	0	0
0	0	0.0204885716953556	0.00232009247301882	0	0	-0.20534133822637	-0.895063401044715
0.763623035153334	0.587217187672871	0	0	-0.0349213197161483	0.0599894579546968	0	0
0	0	-0.695041769249308	0.516925727964418	0	0	0.0450532049839275	-0.0311440022100152
3.7	0.0223194781328422	0.00399797159103476	0	0	0.606882615306697	-0.744144656706921	0	0
0	0	0.0148192296426402	0.0365317773051589	0	0	0.636636753121377	0.652364369096929
0.606882615306697	-0.744144656706921	0	0	0.118357899310128	0.0085670280766245	0	0
0	0	0.769132417757252	0.413468529102116	0	0	0.0557082260563276	-0.0185692375254509
3.8	-0.0172650793090229	-0.0118977977461596	0	0	0.738508370848633	0.62626276825477	0	0
0	0	0.0158742754834457	0.0509903795090832	0	0	0.871468828919376	0.190985614894043
0.738508370848633	0.62626276825477	0	0	-0.0257114711665263	0.0206431123756993	0	0
0	0	-0.0201253386679951	0.872541428565997	0	0	-0.0583050346038226	-0.0259297646317914
3.9	0.0101893628722575	0.0168473703174547	0	0	0.631463297134059	-0.738815082345348	0	0
0	0	0.0113774997693085	0.0161906247812958	0	0	-0.827565970107481	0.324812817801836
0.631463297134059	-0.738815082345348	0	0	-0.0143366351044209	0.0836872533711769	0	0
0	0	0.786501318289375	-0.383016478199077	0	0	0.0249419178294439	-0.00547827948518178
4	-0.00164127532223943	-0.0183593388876793	0	0	0.722154428860711	0.639706126486439	0	0
0	0	-0.0169104015218795	-0.0117462580884352	0	0	-0.520421527556063	0.725234420676905
0.722154428860711	0.639706126486439	0	0	0.051941083584145	-0.0743240924654389	0	0
0	0	0.684533377442237	0.520219181148945	0	0	-0.00491762626151301	0.00965617353868746
4.1	-0.00629385238083822	0.0163080471868191	0	0	0.645024396403899	-0.71028551924524	0	0
0	0	-0.0420976706484781	-0.0350078111786398	0	0	0.0576243161707463	-0.895366788886573
0.645024396403899	-0.71028551924524	0	0	0.0259260425089018	-0.112607549744074	0	0
0	0	0.186849980915185	-0.831184692749404	0	0	0.0260249898566118	0.0828392965509117
4.2	0.0127345719689652	-0.0115335086779251	0	0	0.706276522195045	0.655982886271201	0	0
0	0	-0.0496079153887726	-0.015249645112856	0	0	-0.434119473218195	-0.784835437134886
0.706276522195045	0.655982886271201	0	0	-0.0405204472130474	0.0165098841342311	0	0
0	0	0.835460776369734	-0.184198271855881	0	0	-0.0117828276768281	-0.0417073122794892
4.3	-0.0164447767702178	0.00460079309700429	0	0	0.664093183135795	-0.700434627807508	0	0
0	0	-0.00799154036544114	0.00664940451529238	0	0	0.781660895555325	0.426100379199328
0.664093183135795	-0.700434627807508	0	0	-0.0112377545460444	0.0680139194623082	0	0
0	0	-0.5366488271943	-0.676745946243785	0	0	-0.014597684421876	0.00241969093240976
4.4	0.0164699407468356	0.00356764738548619	0	0	0.684071457550171	0.672755172418944	0	0
0	0	0.0377537034522298	0.00405797703974104	0	0	0.891891664537404	-0.0545932348321736
0.684071457550171	0.672755172418944	0	0	0.00119860296769119	-0.0506992225094562	0	0
0	0	0.346801961537206	-0.775750204502436	0	0	-0.0339554073261865	0.00332475136420317
4.5	-0.0128117890466144	-0.0110236911369059	0	0	0.678422127577104	-0.666138110928692	0	0
0	0	0.0647532653754664	-0.00488642452487632	0	0	-0.724135334225238	0.526199737126128
0.678422127577104	-0.666138110928692	0	0	-0.0503734208769927	0.0267725787044785	0	0
0	0	-0.838270548976276	0.0126448353037129	0	0	-0.0866571429725767	0.0626569123152571
4.6	0.00626278138809368	0.0167582641806369	0	0	0.648189669106756	0.69226309829949	0	0
0	0	0.0470886755622125	-0.025268667508209	0	0	-0.312222892619334	0.847491034084566
0.648189669106756	0.69226309829949	0	0	-0.00413486118691212	0.013848425365827	0	0
0	0	-0.374394320541172	-0.746116635485509	0	0	-0.080895913446354	-0.00948222052296153
4.7	0.00181817501533312	-0.0195026574428403	0	0	0.708814051561494	-0.641145372494677	0	0
0	0	-0.0238623675218771	-0.00543968922945669	0	0	-0.193512404294799	-0.875379654334906
0.708814051561494	-0.641145372494677	0	0	0.0654776388857146	-0.018164693443968	0	0
0	0	-0.523936180774477	0.658336670795297	0	0	-0.0734097974026348	0.0728402538409199
4.8	-0.0103360836981527	0.0186591968142444	0	0	0.640774112280296	0.724139344636561	0	0
0	0	-0.0580022186304974	0.0345160337237144	0	0	-0.609551278159438	-0.634250987014125
0.640774112280296	0.724139344636561	0	0	0.0526806750749252	-0.0187912751769887	0	0
0	0	-0.829335100094732	-0.195365240579976	0	0	-0.0090697829038947	0.0719563612479306
4.9	0.0178718632590516	-0.0134842352833129	0	0	0.729570045424461	-0.631925892888459	0	0
0	0	-0.0394154158271088	0.0590912022015593	0	0	0.855281417646663	0.205083164485922
0.729570045424461	-0.631925892888459	0	0	-0.0814406765269815	-0.0285546101785493	0	0
0	0	0.201142170927706	0.821211165005561	0	0	-0.0839359832016097	0.00414081948583586
5	-0.0225960470758826	0.00537681209100083	0	0	0.619974466213256	0.724856035049749	0	0
0	0	-0.00044998263043224	0.0209572431646272	0	0	0.830278737334758	-0.299868532536477
0.619974466213256	0.724856035049749	0	0	-0.04783465596056	0.040988076455094	0	0
0	0	-0.644005295621037	0.535019130469272	0	0	0.0410520299761081	-0.00933459386865215
5.1	0.0240906459546445	0.00445254795197587	0	0	0.726217705747519	-0.606513914385344	0	0
0	0	0.0378735564135	-0.032932561062346	0	0	-0.532118083467816	0.695609385384988
0.726217705747519	-0.606513914385344	0	0	-0.0221305366036982	-0.0411033227737792	0	0
0	0	0.749760801639444	0.343754055855449	0	0	0.0719820130696535	-0.019829966707865
5.2	-0.0216276826983322	-0.0154904229887224	0	0	0.583319728196525	0.744400992972034	0	0
0	0	0.0151809848432747	-0.0739894722539362	0	0	-0.07868591216107	0.870877581867672
0.583319728196525	0.744400992972034	0	0	0.0378748857096583	0.0226173060700978	0	0
0	0	0.0151469748426393	0.831536890281915	0	0	0.0263014366297185	0.0663772013433849
5.3	0.015253473198629	0.0251586875021857	0	0	0.763629618561759	-0.570473982238251	0	0
0	0	-0.0151458530170649	-0.0413263278261034	0	0	-0.410798353828893	-0.770728595635423
0.763629618561759	-0.570473982238251	0	0	-0.032191951906483	0.0249163858582616	0	0
0	0	0.74270508515262	-0.372918221060539	0	0	-0.0436117967897937	0.0119753893803683
5.4	-0.00612178625043086	-0.0313262870098052	0	0	0.561775856195114	0.769795609082438	0	0
0	0	-0.0320926125976212	0.0142783673779075	0	0	-0.765759143248021	-0.429928422721174
0.561775856195114	0.769795609082438	0	0	0.0699500613446567	0.0881240459456608	0	0
0	0	0.655752348056631	0.511220636193274	0	0	-0.00970204692340983	0.0219928340766432
5.5	-0.00464752209075968	0.0338238909501637	0	0	0.781784046443054	-0.558849061543394	0	0
0	0	0.022814441987947	0.0594629567971345	0	0	0.877712936508175	-0.0413733633437872
0.781784046443054	-0.558849061543394	0	0	-0.00633472969349857	-0.0274771086147435	0	0
0	0	0.160619273726815	-0.816395628722216	0	0	0.0212450158558358	0.038877912033552
5.6	0.0161287455118289	-0.0312308657857971	0	0	0.544959321157227	0.788641719013618	0	0
0	0	0.0423875938743665	0.0559720344035497	0	0	0.701400122897323	-0.506085863739025
0.544959321157227	0.788641719013618	0	0	0.00282091658624652	-0.109540085256244	0	0
0	0	0.801850345905405	-0.198895492934455	0	0	0.00995313245839173	0.118150464308608
5.7	-0.026885028084135	0.024556412566847	0	0	0.803083752184143	-0.537036922354045	0	0
0	0	0.0210698115847474	-0.00762408122820445	0	0	-0.322624227762098	0.808281911465058
0.803083752184143	-0.537036922354045	0	0	-0.0125790758624731	0.0519800078969132	0	0
0	0	-0.534580672995474	-0.653313561821798	0	0	0.0584584791381155	0.0355328142053079
5.8	0.0338510122672605	-0.0140168391226956	0	0	0.520567985490389	0.804076952402226	0	0
0	0	-0.0213693346268418	-0.03182519668846	0	0	0.152277104231836	0.858207698996879
0.520567985490389	0.804076952402226	0	0	0.0596563365311898	-0.0267328402125663	0	0
0	0	0.329026014548397	-0.772968449979063	0	0	0.0335215574933844	0.0566459878415201
5.9	-0.0370333493908541	0.0010624626755451	0	0	0.818761172511394	-0.498342459980467	0	0
0	0	-0.0554449635255859	-0.0269614373435884	0	0	-0.586469409966452	-0.643832451140838
0.818761172511394	-0.498342459980467	0	0	-0.0745670227413648	0.0438579600456649	0	0
0	0	-0.832281333192417	0.0569668350818851	0	0	0.0370404823552919	0.0740143580548065
6	0.0356295550746571	0.0116849713645378	0	0	0.483815335684787	0.832717823674554	0	0
0	0	-0.0334501891392032	0.0059839803928963	0	0	-0.85359923461529	-0.198493839114984
0.483815335684787	0.832717823674554	0	0	-0.00303118487098876	0.0246806391900618	0	0
