# GHZ S RI R 50
0.2	-0.00715405829306874	0.00885088411198666	0	0	0.958053327509116	0.0578502062127559	0	0
0	0	0.0211383080073217	0.0030552132780567	0	0	-0.370274056273524	0.911205432481227
0.958053327509116	0.0578502062127559	0	0	0.022445954577868	0.0446069316734376	0	0
0	0	0.569499078148067	-0.754156438739924	0	0	0.00283168319599084	-0.0292204646601553
0.3	0.00743512215106781	-0.00957243004173874	0	0	0.0331911128007517	-0.965301042580006	0	0
0	0	-0.00490472758599798	0.00103425106441197	0	0	-0.134576787535048	-0.974261562668776
0.0331911128007517	-0.965301042580006	0	0	-0.0125111336913437	0.00541717415225731	0	0
0	0	-0.922203930277441	-0.201877767427923	0	0	-0.0311439153128723	-0.0164824098194903
0.4	-0.00872076653562833	0.0078142068868534	0	0	0.948627720783438	0.0615228812859823	0	0
0	0	-0.0393924620071492	0.000899106889518697	0	0	-0.667509366501648	-0.725453470997461
0.948627720783438	0.0615228812859823	0	0	-0.0330841663475419	-0.0139765255205058	0	0
0	0	-0.235637389122547	-0.895705713408379	0	0	0.0226311541691984	0.0197025469697594
0.5	0.0106268227630196	-0.00417508368719248	0	0	0.127076064936586	-0.948862160449441	0	0
0	0	-0.0332035825743153	0.00539717071295984	0	0	0.964033773771255	0.206512272257734
0.127076064936586	-0.948862160449441	0	0	0.0372670768535095	0.0161765730845003	0	0
0	0	-0.678183959334403	0.637021488834281	0	0	0.00557346957023333	0.00725944374245031
0.6	-0.0113893050936116	0.000728440150284803	0	0	0.95477916925978	0.130521746730618	0	0
0	0	-0.00882125978928186	0.00700683693065196	0	0	0.912176837130903	-0.330052364984918
0.95477916925978	0.130521746730618	0	0	0.00505552630069648	-0.0199897807223787	0	0
0	0	-0.861932168999102	-0.344111110967248	0	0	-0.00524840088402229	-0.0074464757928876
0.7	0.0115809285381347	0.00224626641731044	0	0	0.108229395097235	-0.957219080496685	0	0
0	0	0.0219476698854094	-0.00991816562576713	0	0	-0.610304544905141	0.748462500470424
0.108229395097235	-0.957219080496685	0	0	0.00815538920970474	0.0097798129040924	0	0
0	0	0.0465548795687211	0.91988142589292	0	0	0.0023494869255827	-0.0129643008003128
0.8	-0.0108543407738084	-0.00524978345277414	0	0	0.954522351518539	0.112969821044418	0	0
0	0	0.0434726210298281	-0.0407924054344027	0	0	-0.11963743332593	0.960409771226618
0.954522351518539	0.112969821044418	0	0	-0.0222314094940568	0.0128605468572066	0	0
0	0	-0.810744325415846	0.449019821052166	0	0	0.00705207689380042	0.0833216879292508
0.9	0.00824444363259887	0.00763176060441912	0	0	0.144493307808997	-0.939245561550131	0	0
0	0	0.0126307197428337	-0.0269153359860424	0	0	-0.434728097765062	-0.865121223975809
0.144493307808997	-0.939245561550131	0	0	-0.00158622277297704	-0.0617362761068334	0	0
0	0	0.76385621667502	0.524216892790152	0	0	0.0367558723668819	0.0136347146080042
1	-0.00472242890077575	-0.00895534859993387	0	0	0.942064854651116	0.181149458523504	0	0
0	0	-0.0147574786543419	0.0122094864201177	0	0	-0.837934214624184	-0.480616856079365
0.942064854651116	0.181149458523504	0	0	0.00337333735342802	0.0416817708987221	0	0
0	0	-0.12579068502537	0.90196914292805	0	0	0.00378446453112675	0.00168688356836922
1.1	0.000950814085603168	0.00881296155532579	0	0	0.201153151004611	-0.948950709479944	0	0
0	0	-0.0116971121235533	0.0348676619160361	0	0	0.955713098458427	-0.0512760196837536
0.201153151004611	-0.948950709479944	0	0	0.0039636216827983	0.00119238042789247	0	0
0	0	0.86832186531465	-0.260361267845247	0	0	0.00907106692363413	0.0423074162553979
1.2	0.00202763109687534	-0.00743686568535555	0	0	0.958595620840858	0.202363107285185	0	0
0	0	0.00897417392095961	0.0639155183686339	0	0	0.770649999591141	-0.554477830252425
0.958595620840858	0.202363107285185	0	0	0.053671685042382	-0.00140865393682717	0	0
0	0	0.613646101149759	0.67108230564131	0	0	0.00695739222351397	0.0988584587585942
1.3	-0.00387270663023589	0.00450482453349937	0	0	0.205243368487755	-0.942357667711044	0	0
0	0	0.0167820823910833	0.0181085232348083	0	0	-0.354950050355309	0.882775176422401
0.205243368487755	-0.942357667711044	0	0	-0.0543472045041171	-0.000419382171557545	0	0
0	0	0.322010569785743	-0.858825461555742	0	0	0.0398273541591613	0.0138101538855544
1.4	0.00442211950297758	-0.000868098086284528	0	0	0.924225365251004	0.233586160511314	0	0
0	0	-0.0123232667352916	-0.0444508469868212	0	0	0.179283518849625	0.937061197806569
0.924225365251004	0.233586160511314	0	0	0.016745618819656	0.00717990325111466	0	0
0	0	0.898487618697634	-0.0837701370064379	0	0	0.0439258740277136	-0.00699392717234218
1.5	-0.00337334784595411	-0.00204001582051086	0	0	0.27114669601892	-0.922267587677884	0	0
0	0	-0.0370179628729448	-0.0567805050959379	0	0	-0.674377731626752	-0.675536567302639
0.27114669601892	-0.922267587677884	0	0	0.0324522161083275	-0.0335760694409621	0	0
0	0	-0.461131313986103	-0.767504233986794	0	0	0.0324696159310549	0.0517377715714346
1.6	0.000962423372206118	0.00366363808179245	0	0	0.937252897080282	0.295270590848058	0	0
0	0	-0.0349577898896373	-0.0197499675405328	0	0	-0.936860517244995	-0.184131198141231
0.937252897080282	0.295270590848058	0	0	-0.0522268959642932	-0.0275368636979568	0	0
0	0	0.497776822201404	-0.753799429907374	0	0	0.000101496818388939	0.0523146692373839
1.7	0.0021446437806403	-0.00392506637698959	0	0	0.290214216652711	-0.942899892575013	0	0
0	0	0.0167501973782467	0.00643700353163814	0	0	0.884994244883953	-0.343126540424925
0.290214216652711	-0.942899892575013	0	0	-0.00192536345862536	0.00495165461404805	0	0
0	0	-0.900358297901169	-0.111641897736259	0	0	0.0392397255159933	-0.030394766151107
1.8	-0.00485729754778776	0.00258000267793551	0	0	0.917263592274875	0.291379919404013	0	0
0	0	0.0463131688531424	0.0383339738502327	0	0	0.573891001893151	-0.745540318851545
0.917263592274875	0.291379919404013	0	0	0.00563314210373655	0.0651757551192892	0	0
0	0	-0.309637689907586	-0.849519188869129	0	0	0.0270037767977003	-0.0337233723310591
1.9	0.00659862242329524	0.000349764575188123	0	0	0.320683810862039	-0.893964639257468	0	0
0	0	0.0532080252000457	-0.00336877803065633	0	0	-0.0839869200247581	0.941595850498223
0.320683810862039	-0.893964639257468	0	0	0.00909767206669716	0.00909574641076284	0	0
0	0	-0.61557579959845	0.645336950525166	0	0	0.0405152443975202	0.0239317041283247
2	-0.00683793384670327	-0.0044118504937964	0	0	0.891004193008174	0.351093115632639	0	0
0	0	0.0150933137445342	-0.00458340429196132	0	0	0.456790427283957	0.833707866555742
0.891004193008174	0.351093115632639	0	0	-0.0501903513855689	-0.0332497570485171	0	0
0	0	-0.844413895062465	-0.264722743484102	0	0	-0.0532285545299074	-0.0211115843444517
2.1	0.00547644397702572	0.00874646565684548	0	0	0.365824977216911	-0.897923838803988	0	0
0	0	-0.0295755492493033	0.0081852097239637	0	0	-0.830124441159649	-0.453092638450332
0.365824977216911	-0.897923838803988	0	0	0.0702939403724196	0.0166254699372561	0	0
0	0	0.134589346923778	0.879850007852057	0	0	-0.00525960129406211	0.00981448804284135
2.2	-0.00217392453437709	-0.0124398551124349	0	0	0.898530837648329	0.37769684882977	0	0
0	0	-0.0488139813544695	0.0173851797888626	0	0	-0.932814017948079	0.0678438798136722
0.898530837648329	0.37769684882977	0	0	0.0143407632858137	-0.0108660187871121	0	0
0	0	-0.738011018415706	0.50574671386883	0	0	0.0423769749390881	-0.0110963832828903
2.3	-0.00284749936951422	0.01424382938951	0	0	0.387343189588552	-0.889548734198889	0	0
0	0	-0.0311597551738996	0.0193286276744177	0	0	0.737629597658107	-0.555360198610102
0.387343189588552	-0.889548734198889	0	0	0.0576632851659654	-0.0287041363901273	0	0
0	0	0.776355895801339	0.433136789449619	0	0	0.0663964842433714	0.0469195475877781
2.4	0.00907227021223282	-0.0137292852078206	0	0	0.87820281825972	0.3989819893948	0	0
0	0	-0.00106073655707027	0.000923097537153062	0	0	0.324988007566706	-0.868361479080634
0.87820281825972	0.3989819893948	0	0	-0.0975884564095728	0.0140105660431082	0	0
0	0	-0.0397073532162329	0.883163263298444	0	0	0.0468640558278286	-0.0488556676818971
2.5	-0.0157889939036608	0.0107626947486664	0	0	0.415646355121788	-0.866678340680582	0	0
0	0	0.0191142538583976	-0.0361971423266418	0	0	0.189395562985759	0.918150616490598
0.415646355121788	-0.866678340680582	0	0	-0.0106743989609671	-0.0266367203399091	0	0
0	0	0.80551214657693	-0.332227203065568	0	0	0.0123258108903315	-0.00024839005291357
2.6	0.0215591357031626	-0.00586038847039741	0	0	0.859615405340727	0.429422145103026	0	0
0	0	0.0182716825744725	-0.0388867323861444	0	0	0.667472773335206	0.653635770871985
0.859615405340727	0.429422145103026	0	0	0.00516269532167057	-0.0328963216162306	0	0
0	0	0.630855748526698	0.597298115080901	0	0	0.0624952366419652	0.010676324056567
2.7	-0.025286814847183	-0.000736423128108727	0	0	0.443759166207756	-0.853536669442799	0	0
0	0	0.0216994999272204	-0.00953022114026131	0	0	-0.89753386444596	-0.173894993730243
0.443759166207756	-0.853536669442799	0	0	0.00300683573157177	-0.0123242213300014	0	0
0	0	0.275585410870646	-0.835541677677845	0	0	-0.0273250142465901	-0.000333765191119948
2.8	0.0258979233534761	0.00834294063931987	0	0	0.842916725103954	0.4571033487633	0	0
0	0	0.0100214136451301	0.012773695784945	0	0	-0.841811997065473	0.312660728400184
0.842916725103954	0.4571033487633	0	0	0.00399926418742164	0.0643726003532144	0	0
0	0	0.871168932564345	-0.150334977469065	0	0	0.0262234471407074	-0.063236700922456
2.9	-0.0229198037559016	-0.0160377140630209	0	0	0.473244899331419	-0.823577698887219	0	0
0	0	-0.000176686520818768	0.0368828111772601	0	0	0.566898033102865	-0.700239259168913
0.473244899331419	-0.823577698887219	0	0	-0.0534900175123229	0.0345725993485635	0	0
0	0	-0.51484249718154	-0.702143221522376	0	0	-0.0398896068764486	-0.045605985187174
3	0.0171778156641997	0.0227993119017731	0	0	0.814413002112571	0.497587464617715	0	0
0	0	-0.0113746243348665	0.0298928577429191	0	0	0.0917575958135385	-0.9193699586035
0.814413002112571	0.497587464617715	0	0	-0.00680062999828629	-0.0172007614757716	0	0
0	0	0.406364282868101	-0.759905824599214	0	0	0.0138278723986726	0.0860642505693761
3.1	-0.00874818424970861	-0.0268261360102106	0	0	0.518620108969204	-0.803947810253435	0	0
0	0	-0.020921547507762	0.0129195516461042	0	0	0.447104133369458	0.806087077951801
0.518620108969204	-0.803947810253435	0	0	0.0387931525169276	-0.0639015306565253	0	0
0	0	-0.868307817469556	-0.050730243857748	0	0	-0.0749673436623187	0.00637202713415107
3.2	-0.000920961234951809	0.0283516782604409	0	0	0.802218745832395	0.542842534511836	0	0
0	0	-0.0187607057232262	-0.00538902892297497	0	0	0.796648147374828	0.437747430853906
0.802218745832395	0.542842534511836	0	0	0.000755565892152883	0.025390178090204	0	0
0	0	-0.336011503037973	-0.813581050264459	0	0	-0.0588878185360062	0.00683974244904028
3.3	0.0103446404967236	-0.0261560234816361	0	0	0.554684800160077	-0.797883096149836	0	0
0	0	-0.00232041244814014	-0.0234612257843807	0	0	-0.904030625576398	0.0484980158215347
0.554684800160077	-0.797883096149836	0	0	0.0618526738493175	0.0245592065260648	0	0
0	0	-0.575408972786803	0.673679757780318	0	0	-0.0268020007872021	-0.10673561945976
3.4	-0.0180666491621377	0.0203920972649769	0	0	0.78135121947702	0.560139306916413	0	0
0	0	-0.00537041111295448	-0.0405144459996338	0	0	-0.733470600421464	0.540952105777769
0.78135121947702	0.560139306916413	0	0	-0.11482273104278	0.00822267955145921	0	0
0	0	-0.855557941073984	-0.22404636809735	0	0	-0.0193286966478721	-0.0397702317254122
3.5	0.0233231210032686	-0.0126710918450793	0	0	0.575189272975227	-0.77214844831528	0	0
0	0	0.00717540083133923	-0.0307617760883391	0	0	0.299171163428543	-0.867778478330149
0.575189272975227	-0.77214844831528	0	0	-0.0119404167581849	-0.0536256922476483	0	0
0	0	0.165509425040239	0.843135387389003	0	0	0.0851861221768549	-0.0720170842475594
3.6	-0.0252538372623748	0.00383483726759603	0	0	0.765385870891007	0.585409448720403	0	0
0	0	0.0191593212331074	0.00155763551228595	0	0	-0.207551583178738	-0.89480364758985
0.765385870891007	0.585409448720403	0	0	-0.0347153467604102	0.0602886618926443	0	0
0	0	-0.693978857555813	0.518735877978536	0	0	0.044847235159326	-0.0312909512973227
3.7	0.023370059439775	0.0055816774469881	0	0	0.604678642044988	-0.745320126609715	0	0
0	0	0.0139095817161692	0.0351867165375177	0	0	0.638127175281612	0.650528823064178
0.604678642044988	-0.745320126609715	0	0	0.118304426478679	0.00804986344259043	0	0
0	0	0.769967656211748	0.411363066135212	0	0	0.0555792376359691	-0.0187533593673128
3.8	-0.0185088307425192	-0.0132237481599529	0	0	0.739577130835749	0.623756537813271	0	0
0	0	0.0154608471634293	0.0495547428163984	0	0	0.871391936836416	0.18852962962497
0.739577130835749	0.623756537813271	0	0	-0.0254876664502132	0.0208106294701113	0	0
0	0	-0.0177815645315585	0.872007512582155	0	0	-0.0582827608733479	-0.0255278954864489
3.9	0.0113318268366041	0.0177479679437032	0	0	0.628616012850138	-0.739332311067913	0	0
0	0	0.0114574299336577	0.0150078721430386	0	0	-0.825595939584365	0.326392669309183
0.628616012850138	-0.739332311067913	0	0	-0.0137486914529855	0.0835112507211858	0	0
0	0	0.784445928971099	-0.384412884018347	0	0	0.0249727451399392	-0.00560655950936062
4	-0.00237734690556077	-0.0190881022973478	0	0	0.722051778321966	0.636988994499627	0	0
0	0	-0.0163831757421336	-0.0124078375257995	0	0	-0.517847551194834	0.724963683877687
0.722051778321966	0.636988994499627	0	0	0.0515742706657468	-0.0743366573846397	0	0
0	0	0.684340656774502	0.517733751372354	0	0	-0.00471364772748205	0.0095372869438137
4.1	-0.00584758363435101	0.0171600706817839	0	0	0.642406137813759	-0.709611862207554	0	0
0	0	-0.0413085567708618	-0.0350331400113172	0	0	0.0559295200998504	-0.893321776820487
0.642406137813759	-0.709611862207554	0	0	0.0255602471816376	-0.112315150922737	0	0
0	0	0.184957164847144	-0.829518132896461	0	0	0.0262921828789134	0.0821880865649504
4.2	0.0122997973213524	-0.0125403544794993	0	0	0.705176626424737	0.653485649090622	0	0
0	0	-0.0488622200614308	-0.014757189276888	0	0	-0.433815496987179	-0.782365181383849
0.705176626424737	0.653485649090622	0	0	-0.0402319246634043	0.0163463692842037	0	0
0	0	0.833119255572003	-0.184590102682296	0	0	-0.0117837355657912	-0.0416431012417755
4.3	-0.0159602055256363	0.00551695335499639	0	0	0.661904372516839	-0.698870576757827	0	0
0	0	-0.00756746399288411	0.00737607794181739	0	0	0.779782598353073	0.424611800393681
0.661904372516839	-0.698870576757827	0	0	-0.0111104768081696	0.0675793881027348	0	0
0	0	-0.535535361833328	-0.674704746431246	0	0	-0.0145360930459729	0.00235292077209121
4.4	0.0161690074349051	0.00284530020593269	0	0	0.682175415196842	0.671152660101415	0	0
0	0	0.0377145136386697	0.0046914745201446	0	0	0.889645029882822	-0.0543258236560636
0.682175415196842	0.671152660101415	0	0	0.00118210874121583	-0.0503407753751262	0	0
0	0	0.346037860033155	-0.773738916239128	0	0	-0.0338129657523209	0.00340548762499739
4.5	-0.012877708470533	-0.010325545346531	0	0	0.677330275517281	-0.664181849924604	0	0
0	0	0.0642445757896772	-0.00461944920865881	0	0	-0.722885657034252	0.524572890511811
0.677330275517281	-0.664181849924604	0	0	-0.0501294234996367	0.0268727074731557	0	0
0	0	-0.836436436305257	0.0120725252134362	0	0	-0.0862821395998141	0.0625596966462698
4.6	0.00661871526274856	0.015814996028467	0	0	0.646247066161692	0.691659602806823	0	0
0	0	0.0462896978456832	-0.0254848067058042	0	0	-0.31262782322485	0.845633833143894
0.646247066161692	0.691659602806823	0	0	-0.0039607734648142	0.0142172072536345	0	0
0	0	-0.372885673042165	-0.745216271382654	0	0	-0.0803487032020252	-0.00920681443709515
4.7	0.00141875516248307	-0.0182276513488849	0	0	0.708608086755412	-0.639275158898571	0	0
0	0	-0.0246597542983048	-0.00617322569824185	0	0	-0.192178880749009	-0.874557188663113
0.708608086755412	-0.639275158898571	0	0	0.0657319823808943	-0.0174923759948694	0	0
0	0	-0.524124428473888	0.656878367764058	0	0	-0.0729643987136348	0.0728881061831115
4.8	-0.010077249454964	0.0172314974329388	0	0	0.639179279488179	0.724346094323001	0	0
0	0	-0.0584296534565688	0.033457527536013	0	0	-0.608255642658956	-0.634527333557987
0.639179279488179	0.724346094323001	0	0	0.0531780334944723	-0.0181799385978018	0	0
0	0	-0.828426545403318	-0.196271339018885	0	0	-0.00866206512629231	0.072195503831863
4.9	0.0176431131021901	-0.0120872916420283	0	0	0.730211228537134	-0.630841943853186	0	0
0	0	-0.0392942871177326	0.0579853217398876	0	0	0.854838395810189	0.20613991151768
0.730211228537134	-0.630841943853186	0	0	-0.0806721961040767	-0.0284071137918159	0	0
0	0	0.200044062356727	0.82129762251123	0	0	-0.0832181193981289	0.00419027935449327
5	-0.0222797118096825	0.00393734404328862	0	0	0.619401530948497	0.725520816770036	0	0
0	0	0.000297659780547174	0.0200468840697233	0	0	0.830596335366294	-0.29901387991732
0.619401530948497	0.725520816770036	0	0	-0.0472106122532568	0.0411263828874706	0	0
0	0	-0.64456398354255	0.534359095844932	0	0	0.0418076369874403	-0.00911025550724175
5.1	0.0237998881103165	0.00609866967749248	0	0	0.7269023837175	-0.606264602552099	0	0
0	0	0.0390978389437121	-0.0334388700570096	0	0	-0.532727508785913	0.695411437599051
0.7269023837175	-0.606264602552099	0	0	-0.0213682337612899	-0.0410990431055546	0	0
0	0	0.749706000387462	0.3443550233074	0	0	0.0727863658828243	-0.0197671073525017
5.2	-0.0215328586671548	-0.0172524345872358	0	0	0.583468402657345	0.744766845563987	0	0
0	0	0.0165915757680253	-0.0740051830476709	0	0	-0.0788111497517885	0.871288287845999
0.583468402657345	0.744766845563987	0	0	0.0385608763717515	0.0225082761452905	0	0
0	0	0.0150707887326245	0.831938105018197	0	0	0.0269493610861769	0.0662368633500419
5.3	0.0153935472744678	0.0267740948629165	0	0	0.763798794240371	-0.571056071134105	0	0
0	0	-0.0139455051291107	-0.0408900851277492	0	0	-0.411278229123785	-0.771080108738309
0.763798794240371	-0.571056071134105	0	0	-0.031714521187801	0.0246498274513771	0	0
0	0	0.743050598718236	-0.373366569632325	0	0	-0.0432014308579606	0.0116425804575087
5.4	-0.00625839186591889	-0.0326188021339675	0	0	0.562519899036807	0.76944592987334	0	0
0	0	-0.0314215320041868	0.0150633516913898	0	0	-0.766374360529372	-0.429516646678677
0.562519899036807	0.76944592987334	0	0	0.0704135125863995	0.0876770962501224	0	0
0	0	0.65638673583352	0.510922562490333	0	0	-0.00943611482994961	0.0216182610396978
5.5	-0.00476505565368624	0.0349970721759659	0	0	0.781154141701838	-0.559741114961925	0	0
0	0	0.0227957345928421	0.060383308429695	0	0	0.877682075696339	-0.0423890794149253
0.781154141701838	-0.559741114961925	0	0	-0.00624115601116055	-0.0277737613222995	0	0
0	0	0.159678367670349	-0.816597149526433	0	0	0.0214509465211893	0.0385080336202057
5.6	0.0164630594926238	-0.0325600565380898	0	0	0.545737979163783	0.787579894771932	0	0
0	0	0.0417171231775002	0.0567787961598721	0	0	0.700314036797092	-0.506968537174545
0.545737979163783	0.787579894771932	0	0	0.00269007263860542	-0.109656949942115	0	0
0	0	0.801201887555592	-0.200064483329449	0	0	0.0104396294111039	0.11779757878878
5.7	-0.0271479115153403	0.0261554765467471	0	0	0.801354843267517	-0.537850679901558	0	0
0	0	0.0199288136121557	-0.00710330352044313	0	0	-0.321015245773913	0.807929953428981
0.801354843267517	-0.537850679901558	0	0	-0.0120558505943857	0.0517313634384587	0	0
0	0	-0.53503733749576	-0.651782659528056	0	0	0.0587511819604616	0.0350587744533606
5.8	0.0337906300300603	-0.0156127800354662	0	0	0.520857250979713	0.801942805307909	0	0
0	0	-0.0226130200613663	-0.0316693602257916	0	0	0.153349125172258	0.856561365494165
0.520857250979713	0.801942805307909	0	0	0.0598602369617095	-0.0271641435166542	0	0
0	0	0.327293647900632	-0.772204018198195	0	0	0.0340266733340301	0.0559636608756853
5.9	-0.0367732956796219	0.00234402463713198	0	0	0.816262433807964	-0.498406742779806	0	0
0	0	-0.0564439475729972	-0.0271579741561102	0	0	-0.585972229009887	-0.641627568804322
0.816262433807964	-0.498406742779806	0	0	-0.0736120987289427	0.0432236480336335	0	0
0	0	-0.830330565978148	0.0579060014434019	0	0	0.0374927551512377	0.0728881575260411
6	0.035472789632626	0.0108292397783158	0	0	0.483197624842887	0.829989947626677	0	0
0	0	-0.0339600876687524	0.00555453791390616	0	0	-0.851509148164649	-0.197228441673202
0.483197624842887	0.829989947626677	0	0	-0.00264427741118677	0.0235983666941821	0	0
