# GHZ S RI R 50
0.2	-0.00574915284514901	0.00658791105520891	0	0	0.958246941453459	0.0576962841426756	0	0
0	0	0.0237979500111982	0.00282760746566242	0	0	-0.370128356767044	0.911285277769811
0.958246941453459	0.0576962841426756	0	0	0.0208867642555545	0.0479655717927006	0	0
0	0	0.569383604076276	-0.754266660339535	0	0	0.00129309794850007	-0.0258189306368468
0.3	0.0071908639110793	-0.00830586371622261	0	0	0.03291849610975	-0.96534879184195	0	0
0	0	-0.0036663477441473	0.00132347841928115	0	0	-0.134819078652403	-0.97429501512158
0.03291849610975	-0.96534879184195	0	0	-0.0127708615199686	0.00833776991939189	0	0
0	0	-0.922314414950488	-0.201670615826597	0	0	-0.0313354503195864	-0.0135212114776145
0.4	-0.0085600934018109	0.00786871803125481	0	0	0.948638701981739	0.0610933523455897	0	0
0	0	-0.0395144042382174	0.00101616852033809	0	0	-0.66785819123136	-0.725180562770123
0.948638701981739	0.0610933523455897	0	0	-0.0325290971733803	-0.0118468297396487	0	0
0	0	-0.236046966230798	-0.895632317862651	0	0	0.0233127658400929	0.0217833799003891
0.5	0.00988442129079881	-0.00523356774867979	0	0	0.126539858590733	-0.94885819387635	0	0
0	0	-0.0344508354998424	0.00513884516927481	0	0	0.964053907063243	0.205911222069207
0.126539858590733	-0.94885819387635	0	0	0.0380815461501212	0.0173082262290953	0	0
0	0	-0.677728432689987	0.637360041384147	0	0	0.00645998101733541	0.00840003067716758
0.6	-0.00960129240125209	0.00200545213768619	0	0	0.954656911935959	0.129728172581332	0	0
0	0	-0.0107059660519557	0.00609878464377406	0	0	0.911642797569971	-0.330628278279078
0.954656911935959	0.129728172581332	0	0	0.00553920426133786	-0.0195140901689809	0	0
0	0	-0.861916636543489	-0.343359838147836	0	0	-0.0046986099089901	-0.00698948503546571
0.7	0.00898449864007224	0.00172117844838981	0	0	0.107373765919989	-0.956853842480552	0	0
0	0	0.0200266239343401	-0.0115008091932464	0	0	-0.609374256381116	0.748544773756804
0.107373765919989	-0.956853842480552	0	0	0.00812318730879452	0.00997395891792669	0	0
0	0	0.0472658769233974	0.919344922432427	0	0	0.00230216834338235	-0.0127287920213425
0.8	-0.00829291902069542	-0.00567496911267323	0	0	0.953817513075205	0.112077903636282	0	0
0	0	0.0419073120568334	-0.0426998946271239	0	0	-0.119049170041613	0.959795014632596
0.953817513075205	0.112077903636282	0	0	-0.0227132211995037	0.0133338376233474	0	0
0	0	-0.809936812879655	0.449128404387642	0	0	0.00664050760982594	0.0837054871146519
0.9	0.0064142193385228	0.00851126187117996	0	0	0.143468662793926	-0.938244009231859	0	0
0	0	0.0116676127494136	-0.028635677231854	0	0	-0.434909819295304	-0.864006560546401
0.143468662793926	-0.938244009231859	0	0	-0.00237779395675262	-0.0605553178895673	0	0
0	0	0.763493710813544	0.523198855107359	0	0	0.0361151092516761	0.0146901843264265
1	-0.00376424825797339	-0.00963696628850732	0	0	0.940903289362156	0.180366941083953	0	0
0	0	-0.0150010659663522	0.0111421112662152	0	0	-0.837141046036633	-0.479563746513286
0.940903289362156	0.180366941083953	0	0	0.00306903712691014	0.043231418591698	0	0
0	0	-0.125148368910309	0.900905037703193	0	0	0.0036361393435194	0.00341624070693684
1.1	0.000551555197505003	0.00864997654855902	0	0	0.200563314289144	-0.947510859577873	0	0
0	0	-0.0113378111959538	0.0347842525978047	0	0	0.954277161898392	-0.0515132837336911
0.200563314289144	-0.947510859577873	0	0	0.00438653817825498	0.00322217470780431	0	0
0	0	0.86694713004571	-0.260259406990552	0	0	0.00979538083555047	0.044172745215386
1.2	0.00267298466170151	-0.00624912167161868	0	0	0.95704620442202	0.202147668948573	0	0
0	0	0.00956882194200313	0.0649234798529573	0	0	0.769292665704889	-0.553484977350142
0.95704620442202	0.202147668948573	0	0	0.0548419577654729	0.000561194288117291	0	0
0	0	0.612549828454492	0.669902157265095	0	0	0.0086060944043498	0.10026939188662
1.3	-0.00519247035612207	0.00292602002774475	0	0	0.205227090422427	-0.940643215393937	0	0
0	0	0.0171494956640204	0.0199356157393708	0	0	-0.354620819821823	0.881126569185779
0.205227090422427	-0.940643215393937	0	0	-0.0522012880005947	0.00110698293551851	0	0
0	0	0.321730753390221	-0.857229164966665	0	0	0.0419314712403062	0.0149990046061568
1.4	0.00608208135860965	0.000709272211084719	0	0	0.922640645711083	0.23395497971595	0	0
0	0	-0.0126853273778232	-0.0423872822268122	0	0	0.178379343413902	0.93561556444069
0.922640645711083	0.23395497971595	0	0	0.0188296636007189	0.00838859186076285	0	0
0	0	0.897044551818109	-0.0830500418500034	0	0	0.0461846364387439	-0.00612707106837626
1.5	-0.00534218298236148	-0.0036161939420714	0	0	0.271705601016948	-0.920820856739146	0	0
0	0	-0.0381835951210735	-0.0548654635418162	0	0	-0.672530818178514	-0.675207980204229
0.271705601016948	-0.920820856739146	0	0	0.0346210275621882	-0.0325954134990075	0	0
0	0	-0.459524290450522	-0.766787376782076	0	0	0.0346302110984369	0.0520222956812215
1.6	0.00344954367876842	0.00493519247097154	0	0	0.935692487896278	0.296051985304956	0	0
0	0	-0.0367664202861476	-0.0181574576395007	0	0	-0.935239883529995	-0.185222774933805
0.935692487896278	0.296051985304956	0	0	-0.0499517183795838	-0.0273460742674217	0	0
0	0	0.498149885583559	-0.75198880626943	0	0	0.00210647875313584	0.0519680444833103
1.7	-0.000498415939458768	-0.00439047385762138	0	0	0.291353083918588	-0.941713116882083	0	0
0	0	0.0146880161045074	0.00743072152680436	0	0	0.884581064979231	-0.341478357928337
0.291353083918588	-0.941713116882083	0	0	-0.000201326555181707	0.00463421115652118	0	0
0	0	-0.899264533642789	-0.112842501095133	0	0	0.040920361094349	-0.0309231667531818
1.8	-0.00275858977510561	0.00245009663136474	0	0	0.916439786320152	0.292755181951845	0	0
0	0	0.0444727909845883	0.0385852945971446	0	0	0.574685539406952	-0.744085452597498
0.916439786320152	0.292755181951845	0	0	0.00662942780464251	0.0644933227242398	0	0
0	0	-0.308047983700475	-0.849415103303151	0	0	0.0281210529072376	-0.0345292080224185
1.9	0.00512202841297226	0.000456743226158758	0	0	0.321998427362312	-0.893369259942062	0	0
0	0	0.0519536737318104	-0.00380492840065674	0	0	-0.0855671867083218	0.941211955456048
0.321998427362312	-0.893369259942062	0	0	0.00976982268878055	0.00845689169960959	0	0
0	0	-0.616516022550336	0.64412459471407	0	0	0.0409345906380796	0.023206422178804
2	-0.00568272552410712	-0.0041486646319929	0	0	0.890622426735037	0.352396560758011	0	0
0	0	0.0146269413009828	-0.00550879595720088	0	0	0.45547326224388	0.834382999449194
0.890622426735037	0.352396560758011	0	0	-0.0497065811201443	-0.0338773950709943	0	0
0	0	-0.843965632703119	-0.266025590244314	0	0	-0.0528900130794377	-0.021862919556782
2.1	0.00419491960823582	0.00812443018278829	0	0	0.367124831973156	-0.898053752689614	0	0
0	0	-0.0292169261096262	0.00702531057851112	0	0	-0.829756531124857	-0.454344666875723
0.367124831973156	-0.898053752689614	0	0	0.0707161040133843	0.0165341919118867	0	0
0	0	0.133442335993176	0.880289106202806	0	0	-0.00499236510687922	0.00942010298212311
2.2	-0.000540451586878443	-0.0118385163071308	0	0	0.898890014312842	0.378740765230059	0	0
0	0	-0.0478268958199626	0.0163056856399287	0	0	-0.933392038551428	0.0669310290342948
0.898890014312842	0.378740765230059	0	0	0.0149109152347	-0.0111227859821028	0	0
0	0	-0.738928663676979	0.50527114370893	0	0	0.042885688466974	-0.0114401427353469
2.3	-0.00456491102927067	0.0140703494981085	0	0	0.388015420105263	-0.890161764169407	0	0
0	0	-0.0299411688347814	0.0185604145165037	0	0	0.738565522374608	-0.555183448016457
0.388015420105263	-0.890161764169407	0	0	0.0584421288484284	-0.0291927860578724	0	0
0	0	0.776564872843059	0.434029733984081	0	0	0.0668967692678397	0.0463907436506644
2.4	0.0103800592062964	-0.0139526194331723	0	0	0.878694343014774	0.399485674689073	0	0
0	0	1.37832384508615E-06	0.000570138402346144	0	0	0.325435750220991	-0.868719244319409
0.878694343014774	0.399485674689073	0	0	-0.0971367554048579	0.013150975317259	0	0
0	0	-0.0400084050758158	0.883619323017949	0	0	0.0472471529272943	-0.0498973815455268
2.5	-0.0164601864094468	0.0109461880069046	0	0	0.415730999574684	-0.867190899817134	0	0
0	0	0.0197002696864612	-0.0361440537412869	0	0	0.1893823379723	0.918519228227895
0.415730999574684	-0.867190899817134	0	0	-0.0103475969292622	-0.0277979221591076	0	0
0	0	0.805851023084459	-0.332279077153852	0	0	0.0122680414640958	-0.0014741531801698
2.6	0.0218268656043894	-0.00561076588485821	0	0	0.860002376323723	0.429235172899455	0	0
0	0	0.0182458657619337	-0.0386181692907085	0	0	0.667636961055014	0.653632979050829
0.860002376323723	0.429235172899455	0	0	0.00517230224568051	-0.0341689875277417	0	0
0	0	0.631008367020537	0.597292947669243	0	0	0.062077418230396	0.00943837966780925
2.7	-0.0255303354543179	-0.00142310338307971	0	0	0.443368737040031	-0.85369812008511	0	0
0	0	0.0211743425969956	-0.00930822274350091	0	0	-0.897345424258704	-0.173629961094984
0.443368737040031	-0.85369812008511	0	0	0.00278053923531702	-0.0135362053035329	0	0
0	0	0.275309405977207	-0.835394155284682	0	0	-0.0279833844644192	-0.00140854971991581
2.8	0.0262046117265517	0.00924855676451561	0	0	0.84272675742107	0.456644469338095	0	0
0	0	0.00927022438389544	0.0126804267089014	0	0	-0.841284787349315	0.312691878361353
0.84272675742107	0.456644469338095	0	0	0.00367204895908891	0.0632164784425173	0	0
0	0	0.870664380220392	-0.15046045981043	0	0	0.025375639282519	-0.0640923274002407
2.9	-0.0231633231307666	-0.0171448189561485	0	0	0.472714612944326	-0.82301328989651	0	0
0	0	-0.000828541482147854	0.0362500297184468	0	0	0.566279117168752	-0.699678208953073
0.472714612944326	-0.82301328989651	0	0	-0.0538685626837106	0.0336014758668587	0	0
0	0	-0.514470533845941	-0.701426728534024	0	0	-0.0406538384500726	-0.0462159831261002
3	0.017441109058597	0.024292115703287	0	0	0.813599871222519	0.497161817508726	0	0
0	0	-0.0116851196603946	0.0287024510178951	0	0	0.0918929359558487	-0.918171827905752
0.813599871222519	0.497161817508726	0	0	-0.00732910711725381	-0.0178872426726321	0	0
0	0	0.40605446580718	-0.758824766925351	0	0	0.0129471478899817	0.0854084910573573
3.1	-0.00931377733462936	-0.0286742924685586	0	0	0.518383724971105	-0.802975621622395	0	0
0	0	-0.0207390496849883	0.0113484779320002	0	0	0.446055333681312	0.805024972892067
0.518383724971105	-0.802975621622395	0	0	0.03824102196831	-0.0641749581202476	0	0
0	0	-0.866931569322661	-0.0510298068765528	0	0	-0.0754281736300676	0.00609825251297322
3.2	0.000112855841973464	0.0303138107409596	0	0	0.800836473217235	0.542997777016185	0	0
0	0	-0.0179891066044741	-0.00698610862440007	0	0	0.794939452914455	0.43774532706643
0.800836473217235	0.542997777016185	0	0	0.000305795039387501	0.0251675397028279	0	0
0	0	-0.334722732473909	-0.812543311926539	0	0	-0.059159968408942	0.00673013251886072
3.3	0.00896769621278716	-0.0278734410429563	0	0	0.555244401285325	-0.796477026754806	0	0
0	0	-0.00108353084423253	-0.0247043421623512	0	0	-0.902736340255267	0.0473861505880194
0.555244401285325	-0.796477026754806	0	0	0.0614757441576723	0.024676630048427	0	0
0	0	-0.575324263493438	0.672012112041444	0	0	-0.026630216647799	-0.106398021547481
3.4	-0.016704636424952	0.0217942154340741	0	0	0.779527288818525	0.560993470243285	0	0
0	0	-0.00388221072646056	-0.0410852975774629	0	0	-0.733457941343188	0.538973119950409
0.779527288818525	0.560993470243285	0	0	-0.114645364217634	0.00785104372457443	0	0
0	0	-0.854055999362306	-0.225243174468725	0	0	-0.0191167172193054	-0.039694630442222
3.5	0.0220882109049116	-0.0140390399930048	0	0	0.576427704765426	-0.770578557561871	0	0
0	0	0.00861103860836043	-0.0305234090684572	0	0	0.300724304641344	-0.866486704711435
0.576427704765426	-0.770578557561871	0	0	-0.0116023895689694	-0.0536266299703505	0	0
0	0	0.163645034105985	0.842819283056486	0	0	0.0854409213288479	-0.0715903053971945
3.6	-0.0239669606962612	0.00528366298441862	0	0	0.763905249400503	0.587321932956857	0	0
0	0	0.0203154794265844	0.00258004014339886	0	0	-0.205304686911661	-0.894927065024658
0.763905249400503	0.587321932956857	0	0	-0.0349056403048441	0.0600542593576496	0	0
0	0	-0.694937939380173	0.516842349259941	0	0	0.0450227386843372	-0.0311522764876754
3.7	0.021898527518197	0.00415389011081821	0	0	0.606894257293647	-0.744464222721817	0	0
0	0	0.0145269804486085	0.0367182346458251	0	0	0.636512278232715	0.652277380172241
0.606894257293647	-0.744464222721817	0	0	0.118451317239691	0.00853559736501345	0	0
0	0	0.768993681382327	0.4134247587994	0	0	0.0556709241356043	-0.0185651042549614
3.8	-0.0168759880267484	-0.0121000768678	0	0	0.738794382636306	0.626288928062072	0	0
0	0	0.0155643270363068	0.0510907906189211	0	0	0.871331968394792	0.190960702493411
0.738794382636306	0.626288928062072	0	0	-0.025699753696579	0.0206438202996384	0	0
0	0	-0.0201270568087263	0.872405351447594	0	0	-0.0582985302745501	-0.0259116438775785
3.9	0.00987775034339549	0.0170460404431898	0	0	0.631452859151423	-0.739074663944857	0	0
0	0	0.011125064793119	0.0162006605889719	0	0	-0.827493003704327	0.324764136536396
0.631452859151423	-0.739074663944857	0	0	-0.0143147788138811	0.083685524679029	0	0
0	0	0.786433532243223	-0.382963047488709	0	0	0.0249378409710153	-0.00544959793988851
4	-0.0013701562840227	-0.0184799167010433	0	0	0.722305923895771	0.639669869639727	0	0
0	0	-0.0170465210618394	-0.011827658953616	0	0	-0.52035080783675	0.725196425173518
0.722305923895771	0.639669869639727	0	0	0.0519066686396363	-0.0743991761556879	0	0
0	0	0.684498661455336	0.520150087557068	0	0	-0.00489879969995907	0.00968891811599493
4.1	-0.00658938681282495	0.0163639377956968	0	0	0.645027171578291	-0.710397532052178	0	0
0	0	-0.0420962311187639	-0.0351509082023545	0	0	0.0575412368089124	-0.895266994745016
0.645027171578291	-0.710397532052178	0	0	0.0258671777756695	-0.112674133394261	0	0
0	0	0.186757261737255	-0.831103422295991	0	0	0.0260668046737967	0.0828455455132622
4.2	0.013072274587724	-0.0115823559404154	0	0	0.706418515551229	0.656055630730665	0	0
0	0	-0.0494993349809246	-0.0153947673887795	0	0	-0.434144515791719	-0.784679418083729
0.706418515551229	0.656055630730665	0	0	-0.0405839928500256	0.0165065343452841	0	0
0	0	0.835324884395824	-0.184263479156825	0	0	-0.0117513243303235	-0.0416822132373297
4.3	-0.0167712155813822	0.0046640243739387	0	0	0.664148421344204	-0.700606160549592	0	0
0	0	-0.0078467442641928	0.0065610035826469	0	0	0.781571634096871	0.425972184833633
0.664148421344204	-0.700606160549592	0	0	-0.0112488289741719	0.068043761564453	0	0
0	0	-0.536617683028059	-0.676597631104433	0	0	-0.0145785917635323	0.00241673044107571
4.4	0.0167505785359025	0.00354297273134391	0	0	0.684188648584841	0.672757899660038	0	0
0	0	0.0378588460790125	0.00406432412331287	0	0	0.891771731198129	-0.0546470682891073
0.684188648584841	0.672757899660038	0	0	0.00122674152676996	-0.0506926388394082	0	0
0	0	0.346703767485524	-0.77567283184	0	0	-0.0339708205299209	0.00331526375753648
4.5	-0.0130788400050904	-0.0110882968083988	0	0	0.678447191772635	-0.66620598851335	0	0
0	0	0.0647574737076931	-0.00477880824634013	0	0	-0.724010394640383	0.52622469529451
0.678447191772635	-0.66620598851335	0	0	-0.0502765367770871	0.0267692105128654	0	0
0	0	-0.838188313502829	0.0127313027620433	0	0	-0.0867001680393863	0.0626665125322448
4.6	0.00658418938277737	0.0169071971537096	0	0	0.648229124100998	0.692310369580226	0	0
0	0	0.0469693872581947	-0.0250928498633305	0	0	-0.312074957052331	0.847469024233177
0.648229124100998	0.692310369580226	0	0	-0.00398789382084087	0.0137867381479543	0	0
0	0	-0.37447294992971	-0.746002937472008	0	0	-0.0809911707083633	-0.00941711413982759
4.7	0.0014096441470103	-0.0196801821909362	0	0	0.708868135971974	-0.641192905143869	0	0
0	0	-0.0241028509689017	-0.00527022832525388	0	0	-0.193659540891985	-0.875234797404339
0.708868135971974	-0.641192905143869	0	0	0.0656464883272798	-0.0183032930026919	0	0
0	0	-0.523743620205641	0.658358362430777	0	0	-0.0734838675304285	0.0729437592718418
4.8	-0.0098746342851683	0.0188155438684608	0	0	0.640812514169184	0.72419999132209	0	0
0	0	-0.0583059381296306	0.0345862700832915	0	0	-0.609573579128635	-0.634057824625988
0.640812514169184	0.72419999132209	0	0	0.0528391355173914	-0.0189860732241334	0	0
0	0	-0.829251664192	-0.195196394718471	0	0	-0.00915728766479389	0.0720771162172646
4.9	0.0174088927244233	-0.013638517091523	0	0	0.729667150558368	-0.631875124938351	0	0
0	0	-0.0397099851106259	0.0590124172067238	0	0	0.85524820368413	0.204880516273682
0.729667150558368	-0.631875124938351	0	0	-0.0813289010041437	-0.0288068943197158	0	0
0	0	0.201300743485341	0.821093592779637	0	0	-0.0840084098649165	0.00433958700431603
5	-0.0221172577486071	0.00555808287317687	0	0	0.619918371672766	0.725011259653498	0	0
0	0	-0.00067766959243906	0.0207052865873698	0	0	0.830129391118829	-0.300018039439706
0.619918371672766	0.725011259653498	0	0	-0.047781032450294	0.0407207713991161	0	0
0	0	-0.643823901756081	0.535104372284883	0	0	0.0409804584129163	-0.00916572336979675
5.1	0.0235491064567043	0.00426829490309125	0	0	0.726388738989256	-0.606440783163521	0	0
0	0	0.0377579376170947	-0.0333147598395346	0	0	-0.531870773479343	0.695639260723322
0.726388738989256	-0.606440783163521	0	0	-0.0221100383252778	-0.0413902875526513	0	0
0	0	0.749736702239897	0.343520692356448	0	0	0.071935089677499	-0.0196679359522746
5.2	-0.0210423072470078	-0.0153464538617492	0	0	0.583332871802188	0.744627412809962	0	0
0	0	0.0151930648787209	-0.074417805130532	0	0	-0.0784282419456276	0.870680403140959
0.583332871802188	0.744627412809962	0	0	0.0378169554520688	0.0223871496020552	0	0
0	0	0.0153703365425887	0.831323955958721	0	0	0.0263669556587589	0.0665131301536666
5.3	0.0146920167409804	0.025074432693124	0	0	0.763883323284298	-0.570497433070547	0	0
0	0	-0.015019362543107	-0.0416823104893248	0	0	-0.410908267990512	-0.770416415288124
0.763883323284298	-0.570497433070547	0	0	-0.0323424628700314	0.0247294318651544	0	0
0	0	0.742410661149514	-0.373030017824668	0	0	-0.0434951892381843	0.0121324081420721
5.4	-0.00564217164016586	-0.0312455008844017	0	0	0.561867084413746	0.770001234685084	0	0
0	0	-0.0318763988404493	0.0140917468868374	0	0	-0.76567955408612	-0.42963979952216
0.561867084413746	0.770001234685084	0	0	0.0698169801769179	0.088059437945917	0	0
0	0	0.655718841623908	0.510939153958948	0	0	-0.00958211049307617	0.0220710966140896
5.5	-0.00509514513443481	0.0336669093782368	0	0	0.78195783657794	-0.558842218131674	0	0
0	0	0.0230666199791124	0.0594948496576063	0	0	0.877506946825792	-0.0415908858039278
0.78195783657794	-0.558842218131674	0	0	-0.00645274897604668	-0.0275471998274862	0	0
0	0	0.160372644681742	-0.816255461136212	0	0	0.0213424195951942	0.0388961868318921
5.6	0.0166214246667814	-0.0309981299265524	0	0	0.544896778048752	0.788787916705012	0	0
0	0	0.0426112521636676	0.0562080938392292	0	0	0.701047830904884	-0.50616922774123
0.544896778048752	0.788787916705012	0	0	0.00277105671895227	-0.109634332989814	0	0
0	0	0.801567762263458	-0.199094791090178	0	0	0.0100800238278716	0.118136791439846
5.7	-0.0274751119678222	0.0243253284324605	0	0	0.803353635249953	-0.537010517295749	0	0
0	0	0.0212216084511633	-0.00723633498537992	0	0	-0.322280271009347	0.808150977426095
0.803353635249953	-0.537010517295749	0	0	-0.0126772429070171	0.0518741100488904	0	0
0	0	-0.534631023048946	-0.652960148292101	0	0	0.058501945119567	0.0355643723663669
5.8	0.0344570394865109	-0.0138828260848464	0	0	0.520563436685589	0.804288297914382	0	0
0	0	-0.0213072716268084	-0.0314117807380212	0	0	0.15249071737691	0.857867803634729
0.520563436685589	0.804288297914382	0	0	0.0595358567667195	-0.0269185334628397	0	0
0	0	0.32867458251025	-0.772806567188705	0	0	0.0336418138966608	0.0567289541783905
5.9	-0.0375513977477421	0.000995835411072453	0	0	0.81904179153785	-0.498325120799284	0	0
0	0	-0.0554690840340019	-0.0266373415199819	0	0	-0.58644318053366	-0.643440616438999
0.81904179153785	-0.498325120799284	0	0	-0.0749065013023865	0.0436506593405117	0	0
0	0	-0.831971634371214	0.0571803642914243	0	0	0.0372661982674287	0.0740952415776756
6	0.0360122117859131	0.0117759020490192	0	0	0.483791271140432	0.832936098763674	0	0
0	0	-0.0335306290042392	0.00613807328899953	0	0	-0.853354006303021	-0.198156278473123
0.483791271140432	0.832936098763674	0	0	-0.00347744607591754	0.0245644679054285	0	0
