# GHZ S RI R 50
0.2	-0.00668673280126285	0.0122633074653693	0	0	0.957686104525503	0.0584429709235018	0	0
0	0	0.0187036964514119	0.00553655767590508	0	0	-0.370693173260111	0.910932961972718
0.957686104525503	0.0584429709235018	0	0	0.0210822350613044	0.0399131187183214	0	0
0	0	0.569820647608799	-0.753799654983249	0	0	0.00156064000345212	-0.0339033530927024
0.3	0.00664524198437009	-0.0107067754991683	0	0	0.0341400578833756	-0.965048871891685	0	0
0	0	-0.00604066872690045	0.00180990457208786	0	0	-0.133622853091033	-0.974176210466004
0.0341400578833756	-0.965048871891685	0	0	-0.01472085773312	0.00296720142424553	0	0
0	0	-0.921810690953329	-0.202708725486564	0	0	-0.0333022445373761	-0.0189584659989785
0.4	-0.00891020130602555	0.00786536099678245	0	0	0.948512847963763	0.0630001339059103	0	0
0	0	-0.0393565188585399	0.000704061049489971	0	0	-0.66635842077527	-0.726467049418822
0.948512847963763	0.0630001339059103	0	0	-0.0350402181375545	-0.014880353131399	0	0
0	0	-0.23423629647462	-0.896041822302785	0	0	0.0205677271154131	0.0189694858823525
0.5	0.0118364801711332	-0.00414757654720632	0	0	0.129105027130694	-0.948899479217661	0	0
0	0	-0.0323466310966661	0.00453974304832626	0	0	0.963950570297044	0.208607251888824
0.129105027130694	-0.948899479217661	0	0	0.0359471013158272	0.0163965046967715	0	0
0	0	-0.679764712197627	0.635831344726351	0	0	0.00426928488524075	0.00733870207427453
0.6	-0.0131065325314706	0.00143406243731466	0	0	0.95539937156587	0.133123140186047	0	0
0	0	-0.0073645601601078	0.00594857124749955	0	0	0.913934740535828	-0.328054077516761
0.95539937156587	0.133123140186047	0	0	0.00462962526692052	-0.0198070238083292	0	0
0	0	-0.861918088195019	-0.346657388013976	0	0	-0.00575996642279982	-0.007293510977822
0.7	0.0129058906672755	0.0006589068053608	0	0	0.111120080366102	-0.958588233960891	0	0
0	0	0.0237177719147933	-0.0108085600781241	0	0	-0.613522282400695	0.748081573165885
0.111120080366102	-0.958588233960891	0	0	0.00799401895381352	0.00974856181691408	0	0
0	0	0.0440340395788197	0.92166892164276	0	0	0.00229675532177793	-0.013111655512376
0.8	-0.0113585091327824	-0.00342876512045887	0	0	0.956742984869871	0.115937710929397	0	0
0	0	0.0451962738209462	-0.0414140959529185	0	0	-0.122670580390942	0.962480210151292
0.956742984869871	0.115937710929397	0	0	-0.0226146709420064	0.0122888213850093	0	0
0	0	-0.814057170583134	0.447840013861464	0	0	0.00642391063552824	0.0832752918344067
0.9	0.00814529326259339	0.00626104200213577	0	0	0.147423317031836	-0.942357129269828	0	0
0	0	0.0139548952176079	-0.0272410327512945	0	0	-0.434015711864679	-0.869401407740001
0.147423317031836	-0.942357129269828	0	0	-0.00188553639807706	-0.0628857531921171	0	0
0	0	0.765235967644653	0.52813278508693	0	0	0.0363481438576203	0.013232209963911
1	-0.0045242586077805	-0.00827478701955285	0	0	0.945897326237531	0.183901796996522	0	0
0	0	-0.0140753978087405	0.0121974982757825	0	0	-0.840720882926278	-0.484492878782223
0.945897326237531	0.183901796996522	0	0	0.00211776985292785	0.0416072578706979	0	0
0	0	-0.128201395398271	0.905769619452715	0	0	0.00270418321396175	0.00125783762515762
1.1	0.00120960849707978	0.008668243903765	0	0	0.203366127159748	-0.953631191594	0	0
0	0	-0.0117506185922169	0.0350959880190005	0	0	0.960768025902512	-0.0503639347616556
0.203366127159748	-0.953631191594	0	0	0.00258291572413941	0.00133095241077225	0	0
0	0	0.873178485038872	-0.260649111457051	0	0	0.00766018202862038	0.0429224165791802
1.2	0.00108846333269664	-0.00726426476811252	0	0	0.963931574058726	0.203728866479853	0	0
0	0	0.0082606547228204	0.0642047718361655	0	0	0.775118292540201	-0.557501946641437
0.963931574058726	0.203728866479853	0	0	0.0529495111418892	-0.000619312969566087	0	0
0	0	0.617022577776095	0.674994634892641	0	0	0.00567830749870916	0.100857360425741
1.3	-0.00266918348613673	0.00393982190623025	0	0	0.20550867077951	-0.948102697856491	0	0
0	0	0.0156768729357211	0.0182407467542688	0	0	-0.356262734946034	0.888289584713234
0.20550867077951	-0.948102697856491	0	0	-0.055998480104233	0.000845239178164401	0	0
0	0	0.32315030056245	-0.864169702713214	0	0	0.0393206292325988	0.0152113970377497
1.4	0.00328677179483101	-0.000109604168748598	0	0	0.929964079833963	0.232972557992388	0	0
0	0	-0.0134999898856627	-0.0447013981393242	0	0	0.182213433566635	0.942085254792838
0.929964079833963	0.232972557992388	0	0	0.0162792966198559	0.00844736262017177	0	0
0	0	0.903483485267047	-0.0860727416906161	0	0	0.0436958911252766	-0.00587091741203685
1.5	-0.00229271005683462	-0.00299799495145082	0	0	0.269678873533582	-0.927986480449608	0	0
0	0	-0.038156502551299	-0.0574061899057072	0	0	-0.680005077827565	-0.676905616661381
0.269678873533582	-0.927986480449608	0	0	0.0322085412711289	-0.0328566998348033	0	0
0	0	-0.465944535945193	-0.770023320913133	0	0	0.0327502648636069	0.0533964580672602
1.6	9.74592118364714E-05	0.00496936738102653	0	0	0.94272512156404	0.292670875086428	0	0
0	0	-0.0359556102557031	-0.0207028942401609	0	0	-0.941740429966381	-0.181090760272341
0.94272512156404	0.292670875086428	0	0	-0.0528651199055137	-0.0261554582839897	0	0
0	0	0.496869161259625	-0.759162881716054	0	0	0.000599154203350438	0.0540041910033047
1.7	0.00249001624589214	-0.00533883939548404	0	0	0.286731004292932	-0.947550487719171	0	0
0	0	0.016029132918666	0.00538409195298646	0	0	0.88651470943542	-0.348518565359713
0.286731004292932	-0.947550487719171	0	0	-0.00148012157812763	0.00590760555891021	0	0
0	0	-0.904078612332484	-0.107790496154374	0	0	0.0396376097586752	-0.0300465931211287
1.8	-0.00482578905471051	0.00369149851490335	0	0	0.920818170447581	0.287443684019149	0	0
0	0	0.0459865707666554	0.0373965625130109	0	0	0.571482000112335	-0.750249650989228
0.920818170447581	0.287443684019149	0	0	0.00683955486245516	0.0659539038709809	0	0
0	0	-0.314699649949808	-0.84998829419564	0	0	0.0273274089028603	-0.0336018504844259
1.9	0.00656682680859763	-0.000399474422467731	0	0	0.316581135798639	-0.896638251229112	0	0
0	0	0.0532956246304792	-0.00403769973753599	0	0	-0.0793759207034156	0.943152296071379
0.316581135798639	-0.896638251229112	0	0	0.00966034497532806	0.0092649949430667	0	0
0	0	-0.613088876972853	0.649196337162203	0	0	0.0413169165712289	0.0238384788597502
2	-0.00700064669136987	-0.00382894073152412	0	0	0.892775864776751	0.346978497877066	0	0
0	0	0.0155252470169806	-0.00490412172692729	0	0	0.460761141023373	0.831684065091234
0.892775864776751	0.346978497877066	0	0	-0.0502200052669294	-0.032678067738365	0	0
0	0	-0.845772608740603	-0.260802875575626	0	0	-0.0531346260962679	-0.0204944738009779
2.1	0.00579523182041201	0.00807585569356133	0	0	0.362082341572063	-0.898726144362945	0	0
0	0	-0.0289149195627172	0.00822263180372267	0	0	-0.831326244310998	-0.449484908055717
0.362082341572063	-0.898726144362945	0	0	0.0705220036124262	0.0161929384183589	0	0
0	0	0.137975309342623	0.878690771750519	0	0	-0.00496830637919508	0.00998626481468115
2.2	-0.00242107632606196	-0.0115937173653881	0	0	0.89857647793572	0.374518790166714	0	0
0	0	-0.0481007051011759	0.0177048607587643	0	0	-0.931467624655355	0.0705691371534723
0.89857647793572	0.374518790166714	0	0	0.0144760247595031	-0.0107112482201494	0	0
0	0	-0.73558479469016	0.507349327418286	0	0	0.0424521138248137	-0.0111184455554223
2.3	-0.002857350467439	0.0134078890248453	0	0	0.385043170727358	-0.889107761660718	0	0
0	0	-0.0305696553700237	0.0197711693583204	0	0	0.735496921118777	-0.556002339902231
0.385043170727358	-0.889107761660718	0	0	0.0577715563687537	-0.0286422503576007	0	0
0	0	0.776090481194124	0.431008795189065	0	0	0.066791976445595	0.0467158554191959
2.4	0.00924915991229439	-0.0131366560749575	0	0	0.877471145599756	0.397570153650175	0	0
0	0	-0.000713357268167401	0.00133429298309105	0	0	0.323711433088618	-0.867658299938682
0.877471145599756	0.397570153650175	0	0	-0.0967690731539413	0.0142294546782301	0	0
0	0	-0.0387559335154839	0.882150398716943	0	0	0.0472193458239184	-0.0487628340687821
2.5	-0.015892110879739	0.0104984872355208	0	0	0.415244900468429	-0.86614861340534	0	0
0	0	0.0191590207777173	-0.0359552318107534	0	0	0.189396705837766	0.917506870317283
0.415244900468429	-0.86614861340534	0	0	-0.010074342118438	-0.0267545060875687	0	0
0	0	0.804924138905734	-0.33211656395093	0	0	0.0129419450428655	-0.000391702173752885
2.6	0.0214057032522772	-0.00575426109876935	0	0	0.859564496241534	0.429916190060128	0	0
0	0	0.0180851670630304	-0.0388945669192815	0	0	0.667275865851659	0.654077282102832
0.859564496241534	0.429916190060128	0	0	0.00573327637287482	-0.0332595262835177	0	0
0	0	0.630679578559955	0.597711717596575	0	0	0.0630910391657172	0.0104083500711851
2.7	-0.0249211658839353	-0.000881172197196151	0	0	0.444947923580317	-0.854259259349881	0	0
0	0	0.0214387541773342	-0.00977284558219527	0	0	-0.898527831850025	-0.174763392646941
0.444947923580317	-0.854259259349881	0	0	0.00347236534207016	-0.012827194815702	0	0
0	0	0.276535734978947	-0.836384475647844	0	0	-0.026912247793916	-0.000822886777582672
2.8	0.0254497139475918	0.00854520210721586	0	0	0.844613666260411	0.458686116579466	0	0
0	0	0.00986928656446707	0.0123691551139837	0	0	-0.844043962820531	0.31289537599962
0.844613666260411	0.458686116579466	0	0	0.00429078591720602	0.0641591441803042	0	0
0	0	0.873371257795355	-0.150158429260216	0	0	0.0268080107727972	-0.0640059927153298
2.9	-0.0223926698315264	-0.0162223267943445	0	0	0.474893060936575	-0.826427439165937	0	0
0	0	-5.9836596189593E-05	0.0363908455679107	0	0	0.56890541884693	-0.702676665983409
0.474893060936575	-0.826427439165937	0	0	-0.0536182682718677	0.0343074838700028	0	0
0	0	-0.516626173518569	-0.704619137482459	0	0	-0.0399140620497767	-0.0464272669128916
3	0.0164884164739005	0.0230309636610949	0	0	0.818446404116453	0.499036349964844	0	0
0	0	-0.0109492418440794	0.0293929361572364	0	0	0.0913357089227193	-0.923400367334552
0.818446404116453	0.499036349964844	0	0	-0.00676304227743574	-0.0177847087351244	0	0
0	0	0.407435261950755	-0.7635305256971	0	0	0.0142317565131183	0.0863269838956552
3.1	-0.00791277155907288	-0.027251974992971	0	0	0.519515428298377	-0.809098574010223	0	0
0	0	-0.0202069384871739	0.0125089574841078	0	0	0.45113160971734	0.809078029304436
0.519515428298377	-0.809098574010223	0	0	0.0388707520050721	-0.0650311444374991	0	0
0	0	-0.872725818522727	-0.0490306123793148	0	0	-0.075689786345042	0.00644021140282722
3.2	-0.00173952807558866	0.0290293678818148	0	0	0.808299811156362	0.542700844074231	0	0
0	0	-0.017882159531312	-0.00558578796817843	0	0	0.802354541384927	0.4370380689895
0.808299811156362	0.542700844074231	0	0	0.000860855591003984	0.0254534997835856	0	0
0	0	-0.340749926416796	-0.816505839122472	0	0	-0.0595221624378204	0.00715212212963321
3.3	0.0109854048460824	-0.0269616278613352	0	0	0.553293180648451	-0.804617147079055	0	0
0	0	-0.00146326664115189	-0.0233790175742219	0	0	-0.908254777532178	0.0535175831435517
0.553293180648451	-0.804617147079055	0	0	0.0626386160298449	0.0240866497640586	0	0
0	0	-0.574699362415347	0.680060564220221	0	0	-0.0282659635750987	-0.107564553465149
3.4	-0.0185544493089115	0.0211430527838924	0	0	0.788287831992684	0.557105019290839	0	0
0	0	-0.00470477996662176	-0.0401323123680123	0	0	-0.732864193162497	0.548115394796189
0.788287831992684	0.557105019290839	0	0	-0.115638287941224	0.00983593818743905	0	0
0	0	-0.860596894079672	-0.219221853104839	0	0	-0.020037630866618	-0.0398289453903495
3.5	0.0238017176010907	-0.0133510977867369	0	0	0.570706512009557	-0.779006978991454	0	0
0	0	0.00753688302490096	-0.0301616771896899	0	0	0.293196459026525	-0.87275292331936
0.570706512009557	-0.779006978991454	0	0	-0.0127787635494505	-0.0537313435961103	0	0
0	0	0.172683896303367	0.844355590268096	0	0	0.0846022668012543	-0.0737828867335397
3.6	-0.0257626643308844	0.00457802077420769	0	0	0.771538404977444	0.579386302611991	0	0
0	0	0.0191638496208787	0.00232944457276264	0	0	-0.215741910338991	-0.894213084905746
0.771538404977444	0.579386302611991	0	0	-0.0336204582347332	0.0610385168295926	0	0
0	0	-0.690361346466858	0.525584741417306	0	0	0.0445008760683938	-0.0321912175503064
3.7	0.0238099035325435	0.00474744547030236	0	0	0.597581134810693	-0.750623651996299	0	0
0	0	0.0135912202233875	0.0359396095448831	0	0	0.643899657248542	0.644344255109069
0.597581134810693	-0.750623651996299	0	0	0.118435708978904	0.00582138629158281	0	0
0	0	0.773468005128387	0.404053536853698	0	0	0.0552498890898518	-0.0198177413620101
3.8	-0.0187587928707742	-0.012376173138582	0	0	0.743577264108647	0.615441261168265	0	0
0	0	0.0149974860657424	0.0501288664799363	0	0	0.87105045373828	0.179988775762671
0.743577264108647	0.615441261168265	0	0	-0.0249576761005336	0.0211553489506654	0	0
0	0	-0.00964481109259974	0.870079648524491	0	0	-0.0584532757230592	-0.0243796804846249
3.9	0.01142401823879	0.0170678581603994	0	0	0.619617042817968	-0.741631547756946	0	0
0	0	0.0109728643066444	0.0153016965049732	0	0	-0.819330793601486	0.332179043691899
0.619617042817968	-0.741631547756946	0	0	-0.0122542847431191	0.0830300124486989	0	0
0	0	0.777850017768845	-0.389601320455864	0	0	0.0246181676355628	-0.0060296970948556
4	-0.0025191767258695	-0.0186182514120496	0	0	0.722753236679621	0.627843418501206	0	0
0	0	-0.0167820633805592	-0.0124577475216737	0	0	-0.509349599744514	0.724691665955456
0.722753236679621	0.627843418501206	0	0	0.0497419316981407	-0.0742571661949542	0	0
0	0	0.684303090628832	0.509544550822425	0	0	-0.0046185158602359	0.00947998574476711
4.1	-0.0055749497702154	0.0167556435995841	0	0	0.633568900306082	-0.708626444103958	0	0
0	0	-0.0415292336732266	-0.0353804606895977	0	0	0.0501047244606459	-0.887370595339355
0.633568900306082	-0.708626444103958	0	0	0.0237072129205587	-0.111033565445041	0	0
0	0	0.178611585946929	-0.82480070569981	0	0	0.0267983087615356	0.080724704172313
4.2	0.0119812462804398	-0.0120864340636376	0	0	0.702561693666316	0.645289411199213	0	0
0	0	-0.0488664589087137	-0.0152335775544352	0	0	-0.433895120750174	-0.774363241543286
0.702561693666316	0.645289411199213	0	0	-0.0395445339510234	0.0165058717858758	0	0
0	0	0.825822919244749	-0.186832688376686	0	0	-0.0120483418173997	-0.0408550188562992
4.3	-0.0157123612124049	0.00507328775261709	0	0	0.654810247001247	-0.694927199837455	0	0
0	0	-0.00740817328817567	0.00697987091797411	0	0	0.774617210587512	0.419223953588053
0.654810247001247	-0.694927199837455	0	0	-0.010564431866972	0.06655878386203	0	0
0	0	-0.532963695682584	-0.667935507994398	0	0	-0.0142948911727717	0.00242011782428917
4.4	0.0159513577121974	0.00314443806522243	0	0	0.677455174838355	0.665443841341157	0	0
0	0	0.0379658125501131	0.00452671530588757	0	0	0.882749872108633	-0.0545970679743756
0.677455174838355	0.665443841341157	0	0	0.00120068055502159	-0.0496092068439102	0	0
0	0	0.342772426740972	-0.768046990159504	0	0	-0.0331977559767613	0.0033946346787508
4.5	-0.0125546441062638	-0.0104660287201483	0	0	0.673152880410762	-0.65905814551742	0	0
0	0	0.0644888232702645	-0.00447152446311799	0	0	-0.718279879034294	0.520396599431808
0.673152880410762	-0.65905814551742	0	0	-0.0493248148114586	0.0262867890284448	0	0
0	0	-0.830657570842098	0.0113568252499227	0	0	-0.0850445622057201	0.0614678156804314
4.6	0.00610215287823875	0.0159133086003173	0	0	0.641199510819984	0.688995697561094	0	0
0	0	0.0464541983464779	-0.0250470106455608	0	0	-0.312458298436431	0.840214529596234
0.641199510819984	0.688995697561094	0	0	-0.00386534764202129	0.0138028691057366	0	0
0	0	-0.369337174612067	-0.741677615416164	0	0	-0.079269197383871	-0.00962166922990261
4.7	0.00208119908744567	-0.0184123551902536	0	0	0.707384744204731	-0.634663615532255	0	0
0	0	-0.0247056337656935	-0.00558380571130763	0	0	-0.189045639012668	-0.871305359308178
0.707384744204731	-0.634663615532255	0	0	0.0653027907461063	-0.0173357443744098	0	0
0	0	-0.523604726371504	0.652672365947812	0	0	-0.072667697667473	0.0715690870565341
4.8	-0.0107833316461304	0.0175445226525379	0	0	0.635425078447889	0.724297484050149	0	0
0	0	-0.0587097752720788	0.0340149022123044	0	0	-0.604775803320857	-0.634567461708467
0.635425078447889	0.724297484050149	0	0	0.0529272743656319	-0.0181091713954912	0	0
0	0	-0.825617137055205	-0.198133873131742	0	0	-0.00909819025952329	0.0714166691459196
4.9	0.0183126431032388	-0.0124145247088407	0	0	0.730893204803323	-0.628341308892259	0	0
0	0	-0.0397774765237982	0.0583262570607537	0	0	0.853316580999739	0.207984449601343
0.730893204803323	-0.628341308892259	0	0	-0.0804828965619984	-0.0290540347304165	0	0
0	0	0.197797898460109	0.820808816708042	0	0	-0.0831781425611284	0.00342851525120191
5	-0.0229645343471204	0.0042476979756698	0	0	0.618279310205526	0.726575730539103	0	0
0	0	-0.000318213700923065	0.0200848942005461	0	0	0.831204204107707	-0.29767286837895
0.618279310205526	0.726575730539103	0	0	-0.0475498097017635	0.0407185782687843	0	0
0	0	-0.645538312492859	0.533358747790933	0	0	0.0416543858706886	-0.00927149409348447
5.1	0.0245300633966782	0.00571751806294959	0	0	0.72783662509178	-0.606645568868996	0	0
0	0	0.0384742238183387	-0.0336896822572443	0	0	-0.533576699597442	0.69590328579824
0.72783662509178	-0.606645568868996	0	0	-0.0216526918749745	-0.0413728643632706	0	0
0	0	0.750334696214521	0.34503245001652	0	0	0.0726847191502451	-0.0199643221393612
5.2	-0.0222251596277724	-0.0167616344109239	0	0	0.585094112434986	0.745139455693186	0	0
0	0	0.0160790278557031	-0.0744580579446534	0	0	-0.078001235857628	0.872536329246225
0.585094112434986	0.745139455693186	0	0	0.0383858667462871	0.0224136599961761	0	0
0	0	0.0159649203677983	0.83303489425079	0	0	0.0268340176175074	0.0662521621775525
5.3	0.0159491973620083	0.0262456918380678	0	0	0.763093330816415	-0.573776803027067	0	0
0	0	-0.0142215299079801	-0.0414113918053858	0	0	-0.413840399413966	-0.770838405432801
0.763093330816415	-0.573776803027067	0	0	-0.0319745780079907	0.0249030316513691	0	0
0	0	0.742880068423601	-0.375809524143832	0	0	-0.0435758006730163	0.0119116411824693
5.4	-0.00670452225117809	-0.032205854375693	0	0	0.565922748889917	0.767426392581773	0	0
0	0	-0.0313741304071308	0.0146025721766085	0	0	-0.768481176842272	-0.426476610165803
0.565922748889917	0.767426392581773	0	0	0.0709596178062036	0.0872220180591211	0	0
0	0	0.658790714397597	0.508376067491805	0	0	-0.00952927872503764	0.0217848369970045
5.5	-0.00424847829650119	0.0347161177594585	0	0	0.777437982931461	-0.563483753396827	0	0
0	0	0.0231574844317628	0.0601024938298881	0	0	0.876688275029262	-0.0470699144467641
0.777437982931461	-0.563483753396827	0	0	-0.00666707600959013	-0.0276148490364779	0	0
0	0	0.155149541540517	-0.816742835605141	0	0	0.0216617665508622	0.0382643818934725
5.6	0.0157905728514939	-0.0322797769722925	0	0	0.549282793874591	0.782222461614654	0	0
0	0	0.0422859974585363	0.0567491452490099	0	0	0.695399169411745	-0.509911474784925
0.549282793874591	0.782222461614654	0	0	0.00122472341022816	-0.109153019903228	0	0
0	0	0.797893135954354	-0.204422570627328	0	0	0.0117075707776608	0.11704568599856
5.7	-0.0264172929759801	0.0256702843973822	0	0	0.79432550359385	-0.540512768906066	0	0
0	0	0.0206033296714737	-0.00690460269977742	0	0	-0.314488337211358	0.806357116729269
0.79432550359385	-0.540512768906066	0	0	-0.0113614966700551	0.0513251695568889	0	0
0	0	-0.536766657950631	-0.645504360633317	0	0	0.058577078450888	0.0338946032692296
5.8	0.0332283011059247	-0.0150098552790604	0	0	0.522325015521644	0.793683099617981	0	0
0	0	-0.0220425466127854	-0.0313222521567646	0	0	0.157418429041208	0.850120766907128
0.522325015521644	0.793683099617981	0	0	0.0585595451324754	-0.0275555501440424	0	0
0	0	0.320617008962184	-0.76914791245905	0	0	0.034025918092986	0.054784124736431
5.9	-0.0364326726221407	0.00180631821166152	0	0	0.806949430209205	-0.498265266796128	0	0
0	0	-0.0561018102688544	-0.0267822036368495	0	0	-0.58424240126984	-0.633419398333862
0.806949430209205	-0.498265266796128	0	0	-0.0722932695378478	0.0433668149999293	0	0
0	0	-0.823140437610951	0.0614931046822059	0	0	0.0372390261773825	0.0714206091105195
6	0.0352514140507633	0.0111570407756779	0	0	0.481236494423388	0.820139306706754	0	0
0	0	-0.0338954029892071	0.00584963303151238	0	0	-0.843719209531836	-0.192401804220557
0.481236494423388	0.820139306706754	0	0	-0.00280310449434646	0.0235030916765422	0	0
