# GHZ S RI R 50
0.2	-0.00664093700430087	0.0103396204977681	0	0	0.957887654928897	0.0581602522752987	0	0
0	0	0.0202683876084122	0.00438010974061528	0	0	-0.370475057179322	0.911062351564844
0.957887654928897	0.0581602522752987	0	0	0.0214186253366704	0.0426236406338488	0	0
0	0	0.569650222530249	-0.753973812105446	0	0	0.00184676891754425	-0.0312035800444437
0.3	0.00694673038554006	-0.00997843592110591	0	0	0.0336759108745389	-0.96518245112604	0	0
0	0	-0.00531149092937248	0.00151366423087657	0	0	-0.134089828517696	-0.974217620875292
0.0336759108745389	-0.96518245112604	0	0	-0.013776922033867	0.00459820897043028	0	0
0	0	-0.922002856908494	-0.202301826896568	0	0	-0.0323906530558477	-0.0173177663211686
0.4	-0.00879783182478475	0.00785988047528273	0	0	0.948582566988677	0.0622665801208542	0	0
0	0	-0.0394002176818313	0.000809600784167967	0	0	-0.666935688840265	-0.725971981246784
0.948582566988677	0.0622665801208542	0	0	-0.0340583529153487	-0.0140801321683475	0	0
0	0	-0.234933184424061	-0.895884290356976	0	0	0.0215960380153656	0.0196856632254426
0.5	0.0111739203199615	-0.00437002044321966	0	0	0.12810344097465	-0.948897920079276	0	0
0	0	-0.0329690143048759	0.00487175027821176	0	0	0.964008409441681	0.207567415387018
0.12810344097465	-0.948897920079276	0	0	0.0367006179454825	0.0165112175487398	0	0
0	0	-0.678988997845518	0.636434903124986	0	0	0.00500719261153897	0.00752547476043801
0.6	-0.0120255078804825	0.00138603938952934	0	0	0.95511783156102	0.131816780738883	0	0
0	0	-0.00838038462422413	0.00625159169684438	0	0	0.913075859839661	-0.329072060898653
0.95511783156102	0.131816780738883	0	0	0.0049210584245157	-0.0198041953654659	0	0
0	0	-0.861951455977954	-0.345383545209373	0	0	-0.00542957625491909	-0.00727236061099389
0.7	0.0118380976469805	0.00123052082895498	0	0	0.10967072054066	-0.957929512141206	0	0
0	0	0.022546511327956	-0.0107016870029662	0	0	-0.611911427453735	0.748312002640379
0.10967072054066	-0.957929512141206	0	0	0.00806390687548247	0.00979567749960191	0	0
0	0	0.0453214153426931	0.920802189311043	0	0	0.00230976911906105	-0.0130081382035536
0.8	-0.0106564539671253	-0.00428552671093581	0	0	0.955646369443928	0.114440306603507	0	0
0	0	0.0441059843364881	-0.041479588793205	0	0	-0.121161259805639	0.961476154535115
0.955646369443928	0.114440306603507	0	0	-0.0225360850810944	0.0126422033883683	0	0
0	0	-0.812428956392565	0.448441878682123	0	0	0.00662578342292619	0.0833638940478845
0.9	0.00785545670855657	0.00700799205359365	0	0	0.145906815215017	-0.940814780812092	0	0
0	0	0.0131582002906074	-0.0273936484303429	0	0	-0.434426437971991	-0.86726111170227
0.145906815215017	-0.940814780812092	0	0	-0.00189378031744104	-0.0621291602151637	0	0
0	0	0.764591697834415	0.526149482440873	0	0	0.0363937004495218	0.0136049352963309
1	-0.0044537410282478	-0.00867325027275204	0	0	0.943999035152908	0.182489335869727	0	0
0	0	-0.0144361349862139	0.0120335331565354	0	0	-0.839347593668455	-0.482508649666476
0.943999035152908	0.182489335869727	0	0	0.00266494084693394	0.0419636137594794	0	0
0	0	-0.126948563436262	0.903870664703382	0	0	0.00314161327114357	0.00178454289839909
1.1	0.0010436360428904	0.00866038179842622	0	0	0.202207522401926	-0.951289000194415	0	0
0	0	-0.0116474870968093	0.035008475278001	0	0	0.95821436041965	-0.0508598545229621
0.202207522401926	-0.951289000194415	0	0	0.00335067647205834	0.00165754926315372	0	0
0	0	0.870717161629831	-0.260536053736401	0	0	0.00841945433572163	0.0430104039827177
1.2	0.00160643565122684	-0.00707931210166881	0	0	0.961246137979939	0.203005696626825	0	0
0	0	0.00872612483637175	0.0642851197342493	0	0	0.772831277429789	-0.555970500914647
0.961246137979939	0.203005696626825	0	0	0.0535679864016125	-0.000643818960832508	0	0
0	0	0.615309983925629	0.672990346309434	0	0	0.0065529718689492	0.100237743497376
1.3	-0.00342003668295005	0.00386391880091594	0	0	0.205313735068092	-0.945175751033594	0	0
0	0	0.0162853886268693	0.0185372794781625	0	0	-0.355589235729286	0.885504323665059
0.205313735068092	-0.945175751033594	0	0	-0.0547871209063465	0.000509724986345533	0	0
0	0	0.322564538262821	-0.86147015286078	0	0	0.0399214257251475	0.0148262399594464
1.4	0.00405328789170423	-0.000110122279869252	0	0	0.927044183100324	0.233257698150786	0	0
0	0	-0.0130058890097892	-0.044180160700542	0	0	0.180740209903859	0.939548382860833
0.927044183100324	0.233257698150786	0	0	0.0169311738764738	0.00803376798397551	0	0
0	0	0.900961412456646	-0.0849159109039101	0	0	0.0442040806404339	-0.00617966209937638
1.5	-0.00309123323684919	-0.00292987252988379	0	0	0.270398262783114	-0.92508973724886	0	0
0	0	-0.0378406153248902	-0.0567216986924934	0	0	-0.67713696338262	-0.676227949575098
0.270398262783114	-0.92508973724886	0	0	0.0327662682761781	-0.033072847410444	0	0
0	0	-0.463486813138074	-0.768757706958551	0	0	0.0330254883211677	0.0527414747077628
1.6	0.000904801156306176	0.00469874817473684	0	0	0.939908260949164	0.293951978484258	0	0
0	0	-0.035823815148579	-0.019918276248541	0	0	-0.939258196196036	-0.182656631074168
0.939908260949164	0.293951978484258	0	0	-0.0521174783743955	-0.026826680116544	0	0
0	0	0.497347756553057	-0.756427750685836	0	0	0.000758573419086823	0.0532112851268514
1.7	0.00187660696930443	-0.00486938558341973	0	0	0.288503401554495	-0.945167532605566	0	0
0	0	0.0159901142675346	0.00610331422245342	0	0	0.885756758285806	-0.345808734606016
0.288503401554495	-0.945167532605566	0	0	-0.00136407136770737	0.00533177892041865	0	0
0	0	-0.902214121896555	-0.109728862832416	0	0	0.0397843122866813	-0.0302807862777339
1.8	-0.00447524292119487	0.0032381555758302	0	0	0.919001369154143	0.289479881502817	0	0
0	0	0.0458040725580436	0.0379154970968381	0	0	0.572700700264109	-0.747878787436242
0.919001369154143	0.289479881502817	0	0	0.00645139886000662	0.0654043646099335	0	0
0	0	-0.312148215514182	-0.849756927343886	0	0	0.0274053547300707	-0.0337935472842278
1.9	0.006339184798685	-0.000102501600870906	0	0	0.318685641631612	-0.895274143685303	0	0
0	0	0.0530284689325473	-0.00378564919352281	0	0	-0.0817261173219009	0.94238645979601
0.318685641631612	-0.895274143685303	0	0	0.00949745089758211	0.00903002955668077	0	0
0	0	-0.614372598687791	0.647249503206205	0	0	0.041049516197347	0.0237535377887132
2	-0.00675860508492112	-0.00398650114173626	0	0	0.891864309976585	0.34908309649688	0	0
0	0	0.0152399935689728	-0.00492073632221667	0	0	0.458739124936131	0.832723879111837
0.891864309976585	0.34908309649688	0	0	-0.0501377857610716	-0.0330751536347981	0	0
0	0	-0.845086661970106	-0.262805192032246	0	0	-0.0531063617350704	-0.0209052889483317
2.1	0.00547254300166843	0.00819958959734927	0	0	0.364031424436111	-0.898335261869572	0	0
0	0	-0.029160394804628	0.00798189723753635	0	0	-0.830732364115384	-0.451351354878099
0.364031424436111	-0.898335261869572	0	0	0.070474138450378	0.0163553146049987	0	0
0	0	0.136239496269984	0.879311356414186	0	0	-0.00504469035528276	0.00984487544406615
2.2	-0.00206843215125493	-0.0117877322122464	0	0	0.898571407369619	0.376176515366304	0	0
0	0	-0.0482622941705216	0.0173384561446361	0	0	-0.932214105610318	0.0691730249406054
0.898571407369619	0.376176515366304	0	0	0.0145060891434105	-0.0108536964851108	0	0
0	0	-0.736874597913174	0.506555684590201	0	0	0.0425235105018342	-0.0111584802323261
2.3	-0.00311960856562136	0.013672402587682	0	0	0.386259974871222	-0.889380577430002	0	0
0	0	-0.0306403508002905	0.0194037751705532	0	0	0.736666837645857	-0.555712528102046
0.386259974871222	-0.889380577430002	0	0	0.0578426875145889	-0.0287893461276616	0	0
0	0	0.776291062986401	0.432151816200488	0	0	0.0667314958406407	0.0467305987298139
2.4	0.00936860936950681	-0.0133806862738942	0	0	0.877875822425896	0.39835398517876	0	0
0	0	-0.000710995605413545	0.0010621890159142	0	0	0.32438561035999	-0.868099844230524
0.877875822425896	0.39835398517876	0	0	-0.0971074619631711	0.0139212249551027	0	0
0	0	-0.0392377741873374	0.882748972418157	0	0	0.0471654191746859	-0.0489953380320238
2.5	-0.0159192131318724	0.0106050263385644	0	0	0.415500138532588	-0.86649967005286	0	0
0	0	0.0192062759315272	-0.0360624053640192	0	0	0.189427081134469	0.917939248554245
0.415500138532588	-0.86649967005286	0	0	-0.0103565215066619	-0.0269471871456481	0	0
0	0	0.805313676908975	-0.332219312577968	0	0	0.0126911552584181	-0.000558892103623962
2.6	0.0214564611587581	-0.00571758225204137	0	0	0.859703630829729	0.429699383940924	0	0
0	0	0.018123147992355	-0.0388344161955821	0	0	0.667487692211747	0.653920515636367
0.859703630829729	0.429699383940924	0	0	0.00539045218291334	-0.0333428657970963	0	0
0	0	0.630874079969269	0.59756263793609	0	0	0.0627928637439853	0.010279929890522
2.7	-0.0250496598683039	-0.000982714866660882	0	0	0.44434934632782	-0.85402371400093	0	0
0	0	0.0214191907505226	-0.00960797011707712	0	0	-0.89815738685205	-0.174275736644433
0.44434934632782	-0.85402371400093	0	0	0.00312797734166578	-0.0128151001390286	0	0
0	0	0.276024994203879	-0.836090395811762	0	0	-0.0271970996645865	-0.000822378823259041
2.8	0.0256203681995535	0.00866000954704152	0	0	0.843874488661324	0.45785640062574	0	0
0	0	0.00975732858832942	0.0125440875082353	0	0	-0.84299285314066	0.312922169040035
0.843874488661324	0.45785640062574	0	0	0.00401761677688233	0.0640721751576303	0	0
0	0	0.872358934987728	-0.150374435100929	0	0	0.026402728173486	-0.0638643077618865
2.9	-0.0225773378774912	-0.0163748176594029	0	0	0.473975975398182	-0.825099923616846	0	0
0	0	-0.000282958950136966	0.0364887195647135	0	0	0.567831658999612	-0.701601909348731
0.473975975398182	-0.825099923616846	0	0	-0.0537076996048593	0.0342954467934428	0	0
0	0	-0.515886103526406	-0.703351133654587	0	0	-0.0400468886781836	-0.0461936283931727
3	0.0167288284775727	0.0232329111502289	0	0	0.816517939515602	0.498194515111571	0	0
0	0	-0.0112620541535264	0.0293703566094966	0	0	0.0914333831076669	-0.921415105365881
0.816517939515602	0.498194515111571	0	0	-0.00694818589616908	-0.017598419512573	0	0
0	0	0.406812783926798	-0.761784307537043	0	0	0.0139178898900965	0.0860663097340383
3.1	-0.00825966647091606	-0.0274392819875859	0	0	0.518938940237695	-0.806598040439981	0	0
0	0	-0.020575037182616	0.0123602027140771	0	0	0.449226798803983	0.807480423995
0.518938940237695	-0.806598040439981	0	0	0.0386760446270214	-0.064514981098979	0	0
0	0	-0.870490425950065	-0.0497420268842375	0	0	-0.0754441856613651	0.0063609642451695
3.2	-0.00132216845916415	0.0291392996054819	0	0	0.805250636255025	0.542642102471368	0	0
0	0	-0.0182123139961069	-0.00585347449199638	0	0	0.799499540552999	0.437263138951624
0.805250636255025	0.542642102471368	0	0	0.000721669464956441	0.0254172777868253	0	0
0	0	-0.33845794877366	-0.81494449594002	0	0	-0.0592849448487993	0.00699215287696529
3.3	0.0105826202742635	-0.0269763620601401	0	0	0.553894411995197	-0.801222671572131	0	0
0	0	-0.00168302419267635	-0.0237133435005521	0	0	-0.906064363654207	0.0511259941032037
0.553894411995197	-0.801222671572131	0	0	0.0622011097849798	0.0243270995908158	0	0
0	0	-0.574917525315831	0.676894344326426	0	0	-0.0275909456479301	-0.107120001009545
3.4	-0.0182185108694155	0.021121687128037	0	0	0.784716735766543	0.558505519728371	0	0
0	0	-0.00476145534479574	-0.0404780929381674	0	0	-0.733073753100846	0.544533294492567
0.784716735766543	0.558505519728371	0	0	-0.115194900974238	0.00904110510403367	0	0
0	0	-0.858019989429696	-0.221563683173721	0	0	-0.0196807921708175	-0.0397841169089463
3.5	0.0234989649888995	-0.0133507869773667	0	0	0.572873696071545	-0.775505547621302	0	0
0	0	0.00764638185447233	-0.0304511825182685	0	0	0.296143206085939	-0.870245497955706
0.572873696071545	-0.775505547621302	0	0	-0.0123355366459938	-0.053682231231661	0	0
0	0	0.169120043101038	0.843710053937195	0	0	0.0849077172487787	-0.0729051640036189
3.6	-0.0254430867357988	0.00456693987500267	0	0	0.768352466393547	0.582383788372438	0	0
0	0	0.0194233200832739	0.00211199978561721	0	0	-0.211632210297333	-0.89448928646075
0.768352466393547	0.582383788372438	0	0	-0.0341552282226479	0.0606246583306709	0	0
0	0	-0.692159140581827	0.522140517305378	0	0	0.0446916149293559	-0.0317588821892823
3.7	0.0234897212012064	0.00480090839368763	0	0	0.601169216383227	-0.747931151507581	0	0
0	0	0.0139259074969248	0.0358349524748996	0	0	0.641000686175455	0.647460947562971
0.601169216383227	-0.747931151507581	0	0	0.118360660431316	0.0069244783589446	0	0
0	0	0.771713203000199	0.407734264158134	0	0	0.0554192117949121	-0.0193050356924226
3.8	-0.0184885892543041	-0.0124880797550971	0	0	0.741505248500548	0.619641038509213	0	0
0	0	0.0153064100820563	0.050114583870499	0	0	0.871206290714056	0.184303408570934
0.741505248500548	0.619641038509213	0	0	-0.0252434619618777	0.0209666872105091	0	0
0	0	-0.0137584253539083	0.87103755073788	0	0	-0.0583824946854246	-0.0249742094837567
3.9	0.0112454350315269	0.0171883408734455	0	0	0.624199271364892	-0.740435202484188	0	0
0	0	0.0111960515903427	0.0153612529336092	0	0	-0.822516783254629	0.329260257704397
0.624199271364892	-0.740435202484188	0	0	-0.0130422573333933	0.0832780257991429	0	0
0	0	0.781202363037263	-0.386986148636988	0	0	0.0247706913356335	-0.00581641479628438
4	-0.0023979884574849	-0.0186825953425483	0	0	0.722408724387749	0.632487817908428	0	0
0	0	-0.0166856248780905	-0.0123391397939308	0	0	-0.513676811189216	0.724844701212416
0.722408724387749	0.632487817908428	0	0	0.0506425533888964	-0.0742756982215999	0	0
0	0	0.68433620164591	0.513714927694666	0	0	-0.00470075241293362	0.00952657330767713
4.1	-0.00569560026056411	0.0167695516045881	0	0	0.63806684538958	-0.709157530090576	0	0
0	0	-0.0415637795247807	-0.0352386045179804	0	0	0.0530895449649577	-0.890435692166727
0.63806684538958	-0.709157530090576	0	0	0.0246273263207297	-0.111651907537409	0	0
0	0	0.181865574079518	-0.827232621623303	0	0	0.0265141264521418	0.081508063483521
4.2	0.0121159573432705	-0.012092339980833	0	0	0.703906696809783	0.649482295703743	0	0
0	0	-0.0489897229523582	-0.0151186017035251	0	0	-0.433881781577446	-0.778485589343713
0.703906696809783	0.649482295703743	0	0	-0.0398955532994665	0.0164648063823086	0	0
0	0	0.829589268011526	-0.185702693073851	0	0	-0.0119252279612105	-0.0412241189441029
4.3	-0.0158264804647162	0.00509071190332611	0	0	0.65847665365617	-0.696968992225912	0	0
0	0	-0.00754165041143077	0.00702650621048955	0	0	0.777321239782088	0.422010939163986
0.65847665365617	-0.696968992225912	0	0	-0.0108299337448567	0.0670989949346682	0	0
0	0	-0.534322630896353	-0.671449219045321	0	0	-0.0144107031801663	0.00240089240982347
4.4	0.0160183485701752	0.00314861231436679	0	0	0.679952205733446	0.668409923256504	0	0
0	0	0.0378845416015085	0.00449676286876311	0	0	0.886375421445022	-0.0544817067734859
0.679952205733446	0.668409923256504	0	0	0.00120218458713968	-0.0500203592689698	0	0
0	0	0.344466450231543	-0.771051874084775	0	0	-0.0335012813012444	0.00337886048816678
4.5	-0.0125963963073971	-0.0105298761989443	0	0	0.675334193460201	-0.661798697449062	0	0
0	0	0.0645049844539129	-0.00456663757147842	0	0	-0.720704287532012	0.522636973258686
0.675334193460201	-0.661798697449062	0	0	-0.0497619900894978	0.0265279861511982	0	0
0	0	-0.833722137076206	0.0117657566779742	0	0	-0.0856935311897642	0.0619823700761299
4.6	0.00617207566871568	0.0160396929490461	0	0	0.643956379143257	0.690394515164725	0	0
0	0	0.0465624073090681	-0.0251830587323966	0	0	-0.312496402075319	0.843153912870108
0.643956379143257	0.690394515164725	0	0	-0.00397750574308949	0.0139264327723129	0	0
0	0	-0.371295872599775	-0.743560630254324	0	0	-0.0798852341556222	-0.00949902836241825
4.7	0.00195750238521237	-0.0185625399326161	0	0	0.70803070846746	-0.637258862711955	0	0
0	0	-0.0245054331169023	-0.00569306931667412	0	0	-0.190804769373909	-0.873066635013487
0.70803070846746	-0.637258862711955	0	0	0.0654223488868654	-0.017532820219305	0	0
0	0	-0.523849526355529	0.654995715116201	0	0	-0.0729054101940003	0.0721771305797211
4.8	-0.0106143428315692	0.0176649129827205	0	0	0.637618712603476	0.724279699149973	0	0
0	0	-0.058483521667346	0.0339808831369515	0	0	-0.606772064182124	-0.634517600417959
0.637618712603476	0.724279699149973	0	0	0.0529215015220391	-0.0182427579616805	0	0
0	0	-0.827214680751623	-0.197043570437348	0	0	-0.00896169224882611	0.0717428552731051
4.9	0.018154417215661	-0.012516568741297	0	0	0.730389892674903	-0.629896337422204	0	0
0	0	-0.0395761458512998	0.0583991185302463	0	0	0.85421774238009	0.206817435863239
0.730389892674903	-0.629896337422204	0	0	-0.0807685072959122	-0.0287134750923756	0	0
0	0	0.199191874126848	0.821065372228211	0	0	-0.0833496371917865	0.00379036646411904
5	-0.0228192791972805	0.00436285100969487	0	0	0.619092149019566	0.725829413634523	0	0
0	0	-0.000186703389993783	0.0202632684910768	0	0	0.830847178681965	-0.298625327490374
0.619092149019566	0.725829413634523	0	0	-0.0475152147814634	0.0409563289534033	0	0
0	0	-0.644912939565938	0.534093323918894	0	0	0.0415786889381631	-0.00926185485156712
5.1	0.0243617693452427	0.00559366939366084	0	0	0.727095024833821	-0.606681101825057	0	0
0	0	0.0385152332367464	-0.0334508380354118	0	0	-0.532930572293376	0.695815184007319
0.727095024833821	-0.606681101825057	0	0	-0.021693119542423	-0.041177037193533	0	0
0	0	0.750119131620478	0.344457385241773	0	0	0.0725656008769649	-0.0199170119872959
5.2	-0.0220343980872432	-0.0166690938177363	0	0	0.58442784387047	0.744681568628734	0	0
0	0	0.016039175876306	-0.0742178773779071	0	0	-0.0781896820338214	0.871853186791899
0.58442784387047	0.744681568628734	0	0	0.0383499836989551	0.0225088216700696	0	0
0	0	0.0157164941195324	0.832408335331207	0	0	0.0267813644022846	0.0662534585231081
5.3	0.0157746292654969	0.0262058723597266	0	0	0.76315137050721	-0.572482031853827	0	0
0	0	-0.0143185048936938	-0.041230750703878	0	0	-0.412649676524869	-0.770751501975575
0.76315137050721	-0.572482031853827	0	0	-0.0318968348730119	0.0248834956062199	0	0
0	0	0.742769794338628	-0.374678823374635	0	0	-0.0434710863951135	0.0118610840353344
5.4	-0.00658276428172325	-0.0321816387175225	0	0	0.56422852745911	0.76819941849698	0	0
0	0	-0.0315091876496984	0.0146782515042134	0	0	-0.767356617048241	-0.427814797801626
0.56422852745911	0.76819941849698	0	0	0.0706578282987182	0.0874872863931502	0	0
0	0	0.657547948084504	0.50946899871145	0	0	-0.00952873031091118	0.0217750917963034
5.5	-0.00434705170835511	0.0346575897722124	0	0	0.779066652220431	-0.561596921663766	0	0
0	0	0.0230123339510086	0.0600560372132388	0	0	0.877038277196947	-0.0447856143633724
0.779066652220431	-0.561596921663766	0	0	-0.00646644868312442	-0.0276106572294418	0	0
0	0	0.157329107464068	-0.816547625594959	0	0	0.0215271102652034	0.0384315110897289
5.6	0.0159174105639016	-0.0321916026284021	0	0	0.547503679175547	0.784712100083183	0	0
0	0	0.042163788071403	0.0565971696345239	0	0	0.697761049969955	-0.508358703345716
0.547503679175547	0.784712100083183	0	0	0.00191426065489471	-0.109317151180976	0	0
0	0	0.799433875098643	-0.202205477746733	0	0	0.0110392699415054	0.117427700840049
5.7	-0.0265903605385925	0.025632712307267	0	0	0.797698513700164	-0.539113553804901	0	0
0	0	0.0205025390786481	-0.00711734121691675	0	0	-0.317741430020467	0.807067871347817
0.797698513700164	-0.539113553804901	0	0	-0.0117597592737634	0.051563711381614	0	0
0	0	-0.535842640874787	-0.648599192333098	0	0	0.0585812638321577	0.0345022436645774
5.8	0.0333878287233253	-0.0150284271663869	0	0	0.521561098217531	0.797717144769174	0	0
0	0	-0.0220912220106019	-0.031537059267402	0	0	0.155337864323331	0.853305117579564
0.521561098217531	0.797717144769174	0	0	0.0591173311967832	-0.0272585521631545	0	0
0	0	0.323973459619332	-0.77062276768295	0	0	0.0339154864533196	0.0554366455836959
5.9	-0.0365322549290372	0.00186217061455918	0	0	0.811526011965213	-0.498277506142884	0	0
0	0	-0.0561062967772893	-0.0269412812778918	0	0	-0.585066502083702	-0.637544294485355
0.811526011965213	-0.498277506142884	0	0	-0.0729940531459896	0.0434562613826231	0	0
0	0	-0.826726829738755	0.0596565348257097	0	0	0.0372511545643445	0.0722876201369778
6	0.0352782984294431	0.011106507941359	0	0	0.482187926149127	0.825025619701589	0	0
0	0	-0.0338746816649955	0.00577682037891326	0	0	-0.84759932933782	-0.194863459543108
0.482187926149127	0.825025619701589	0	0	-0.00271580195035231	0.0237712822824241	0	0
