# GHZ S RI R 50
0.2	-0.00628310856810671	0.0100842784836443	0	0	0.95787049553399	0.0581313991481418	0	0
0	0	0.0206756408362401	0.00457495600400074	0	0	-0.370488295552942	0.911069783539849
0.95787049553399	0.0581313991481418	0	0	0.0209007594079668	0.0429680785353859	0	0
0	0	0.569664353446997	-0.753977431423324	0	0	0.00139666708256995	-0.0307880490434855
0.3	0.00683504712967239	-0.00976697171777781	0	0	0.0336588248495643	-0.965124999100879	0	0
0	0	-0.00512902166472765	0.00167353241631077	0	0	-0.134075474037468	-0.974235595598175
0.0336588248495643	-0.965124999100879	0	0	-0.0140874107554524	0.0050531699577553	0	0
0	0	-0.922014287336374	-0.202320717845258	0	0	-0.0325886957264437	-0.0168169527732733
0.4	-0.00877340276204146	0.0078719172002964	0	0	0.94853220043019	0.0622701828872771	0	0
0	0	-0.0394256848200203	0.000818201232739297	0	0	-0.666940201628252	-0.725980725722938
0.94853220043019	0.0622701828872771	0	0	-0.0341597331556424	-0.0136484108080174	0	0
0	0	-0.234933090539505	-0.895893534818401	0	0	0.0216222048919018	0.020117651508011
0.5	0.0110692241510691	-0.00460704033036198	0	0	0.1281306204503	-0.948878916773652	0	0
0	0	-0.0331683461794078	0.00469501423564161	0	0	0.963983472866953	0.207573492541629
0.1281306204503	-0.948878916773652	0	0	0.0367288851095946	0.0168204459001902	0	0
0	0	-0.678980315105967	0.636412290167719	0	0	0.00514254682410508	0.00779367140530316
0.6	-0.0116871869712333	0.0017068618414533	0	0	0.955141665847365	0.131814204474169	0	0
0	0	-0.0086447718382782	0.00586950936058966	0	0	0.913047327145399	-0.329018598574961
0.955141665847365	0.131814204474169	0	0	0.00497543463898319	-0.0196535977913159	0	0
0	0	-0.861897063688903	-0.345403618263351	0	0	-0.00531826944046602	-0.00716158430353655
0.7	0.011274420694704	0.00106533050450679	0	0	0.109644429792585	-0.95796635816254	0	0
0	0	0.0223393705669436	-0.0112424187405717	0	0	-0.611961225911599	0.74822664127766
0.109644429792585	-0.95796635816254	0	0	0.00803654238934366	0.00983238554420999	0	0
0	0	0.0452315997720893	0.920773611900206	0	0	0.00230564430742134	-0.0129623028545046
0.8	-0.0100643632246377	-0.00436438348921522	0	0	0.955651069052691	0.114384958702343	0	0
0	0	0.0440025712892199	-0.0420667428378087	0	0	-0.12135320182	0.961452974395311
0.955651069052691	0.114384958702343	0	0	-0.022703569170443	0.0126681546583099	0	0
0	0	-0.812519259821292	0.448280259573822	0	0	0.0064730844934656	0.0834736329231879
0.9	0.00742785036894633	0.00722703375097236	0	0	0.145815273307157	-0.940775704985473	0	0
0	0	0.0131545247078439	-0.0278833384857659	0	0	-0.434347294834486	-0.867412646243046
0.145815273307157	-0.940775704985473	0	0	-0.0021925787057484	-0.0619932045658941	0	0
0	0	0.764595358379258	0.526313022857189	0	0	0.0362487691869819	0.0138833883254095
1	-0.00424330895951301	-0.0088563192130299	0	0	0.943963166219256	0.182472624846731	0	0
0	0	-0.0143694771119044	0.0117709175361454	0	0	-0.839429913639444	-0.48263673462697
0.943963166219256	0.182472624846731	0	0	0.00235365449256507	0.0422865442179274	0	0
0	0	-0.127031660576278	0.903987709766484	0	0	0.00311706500687292	0.00221697579635803
1.1	0.000960946805539319	0.0086240676730305	0	0	0.202257419440882	-0.951263834672646	0	0
0	0	-0.011577751913058	0.035044799003441	0	0	0.958340216586083	-0.0508895879596376
0.202257419440882	-0.951263834672646	0	0	0.00315499333548818	0.00219215588815623	0	0
0	0	0.870826383764215	-0.260591494837898	0	0	0.00864353801526683	0.0435186492415254
1.2	0.00179186459013069	-0.00679304927920382	0	0	0.96131416166852	0.20312293059145	0	0
0	0	0.00870057591920324	0.0646023829354288	0	0	0.772801277945918	-0.556065601769527
0.96131416166852	0.20312293059145	0	0	0.0535997972665023	2.71716953780428E-05	0	0
0	0	0.615397095211745	0.672951172735761	0	0	0.00705006929094221	0.100655974195072
1.3	-0.00380607628740552	0.00351608261498132	0	0	0.205397951304276	-0.94529045165041	0	0
0	0	0.0160950540006184	0.0190055459197043	0	0	-0.355487344433341	0.885540104518854
0.205397951304276	-0.94529045165041	0	0	-0.0545858951882955	0.00117138516972815	0	0
0	0	0.322465529204873	-0.861502319955322	0	0	0.0405447221516711	0.0150566600837612
1.4	0.00453656515136221	0.000213672179480163	0	0	0.927240553392497	0.23333603684937	0	0
0	0	-0.0134078469016062	-0.0437746284602425	0	0	0.180855436812578	0.939489658403841
0.927240553392497	0.23333603684937	0	0	0.017249211864098	0.00866786505387566	0	0
0	0	0.900916579489636	-0.0850297224755652	0	0	0.0448505020461766	-0.00608199819112132
1.5	-0.00368218513499498	-0.00324620753568408	0	0	0.270414843283898	-0.925352438979817	0	0
0	0	-0.0384337528015293	-0.056477281229778	0	0	-0.6771249535927	-0.676061349905617
0.270414843283898	-0.925352438979817	0	0	0.0331690814414138	-0.032525244246428	0	0
0	0	-0.463513560814103	-0.768603326232178	0	0	0.0336810480495693	0.0526992726444451
1.6	0.00164928294800333	0.00489463385455115	0	0	0.940152532427947	0.293889014055218	0	0
0	0	-0.0365329110882443	-0.0198626875956478	0	0	-0.939081676846078	-0.182536163822863
0.940152532427947	0.293889014055218	0	0	-0.0516746409903082	-0.026389867030498	0	0
0	0	0.497178896364474	-0.756316542230748	0	0	0.0013443489427527	0.0530032330632257
1.7	0.00111969037857748	-0.00481118547926307	0	0	0.288351824438027	-0.945448597263015	0	0
0	0	0.0153103217669111	0.00597237275372504	0	0	0.885587347579361	-0.345819152175544
0.288351824438027	-0.945448597263015	0	0	-0.00086099820868437	0.00557582976883455	0	0
0	0	-0.90207621072651	-0.109643422889521	0	0	0.0401770876779862	-0.0305956545059523
1.8	-0.00389921990985559	0.00303702276777135	0	0	0.919243512542198	0.289279863838477	0	0
0	0	0.0453013498158175	0.0376406595562128	0	0	0.572560083761023	-0.747781772812653
0.919243512542198	0.289279863838477	0	0	0.00692752991290428	0.065483517891582	0	0
0	0	-0.312141865411387	-0.849592869556457	0	0	0.0276109802453497	-0.0341345674158685
1.9	0.00593418860261437	5.61975695666762E-05	0	0	0.318437365794467	-0.895422102958137	0	0
0	0	0.0527981567750783	-0.00412271388897367	0	0	-0.0816821047889598	0.942219613908426
0.318437365794467	-0.895422102958137	0	0	0.00981820153111153	0.00898740532583861	0	0
0	0	-0.614242029156535	0.647152280061935	0	0	0.0411080559125412	0.0234546991026406
2	-0.00640792621474339	-0.00401900473327715	0	0	0.891935797857185	0.348848001355111	0	0
0	0	0.0153041246900029	-0.0052298519487752	0	0	0.458688289894466	0.832475994981191
0.891935797857185	0.348848001355111	0	0	-0.0499528392504413	-0.0330938437685591	0	0
0	0	-0.844892619050227	-0.262671654022797	0	0	-0.0530647511157604	-0.0210782562398848
2.1	0.00504251887732956	0.00814634725958836	0	0	0.36381820390207	-0.89844262950127	0	0
0	0	-0.0288356846725063	0.00777671311349842	0	0	-0.830492326585192	-0.451165417097097
0.36381820390207	-0.89844262950127	0	0	0.0706375967835851	0.0163265351319883	0	0
0	0	0.13624168452832	0.879025599559963	0	0	-0.00499819375675219	0.00970243247132965
2.2	-0.00152572677307222	-0.0117838325827056	0	0	0.8986475597526	0.375956164631281	0	0
0	0	-0.0477864095410204	0.017282022950389	0	0	-0.931882151502508	0.0691367598114356
0.8986475597526	0.375956164631281	0	0	0.0146936628634076	-0.0108138630300277	0	0
0	0	-0.736617810803605	0.506365692452415	0	0	0.0425736254125554	-0.0113130708497067
2.3	-0.00365224211054804	0.0138155930947872	0	0	0.385999893557173	-0.889443980781362	0	0
0	0	-0.0301629307818845	0.0194736604374892	0	0	0.736460641425242	-0.5554082514292
0.385999893557173	-0.889443980781362	0	0	0.058105536397082	-0.0287942561455222	0	0
0	0	0.77594281771198	0.432088795756391	0	0	0.0667357423755393	0.0464565773994278
2.4	0.00973608338832919	-0.0136081696025723	0	0	0.877854080569841	0.398167640894693	0	0
0	0	-0.000355534507471971	0.00120122892790611	0	0	0.324388084319192	-0.867736381851774
0.877854080569841	0.398167640894693	0	0	-0.0967222502402734	0.0138699655259658	0	0
0	0	-0.0393467893769907	0.882420000866001	0	0	0.0471124386061286	-0.0492851561618953
2.5	-0.0160956544411117	0.0107478525908551	0	0	0.415316360301619	-0.866438158142541	0	0
0	0	0.0193476498721502	-0.0359343447269337	0	0	0.189180773755879	0.917649237256638
0.415316360301619	-0.866438158142541	0	0	-0.00998608177921955	-0.0271665732360339	0	0
0	0	0.80509159698242	-0.331944093815411	0	0	0.0125053168348777	-0.000920796509290646
2.6	0.0215657825737672	-0.00566943739829723	0	0	0.859631847831776	0.429582007697591	0	0
0	0	0.0180535619488509	-0.0388007954013696	0	0	0.667111059371519	0.653837211882632
0.859631847831776	0.429582007697591	0	0	0.0057118869528424	-0.0336848804926161	0	0
0	0	0.63052258090053	0.597491080906548	0	0	0.0624409567555814	0.0099758293623729
2.7	-0.0252230597435962	-0.00117696501248819	0	0	0.444293723247779	-0.853970406219639	0	0
0	0	0.0212295497048001	-0.00970979299472398	0	0	-0.897801623228346	-0.174426199293341
0.444293723247779	-0.853970406219639	0	0	0.00338490001727609	-0.013223848591463	0	0
0	0	0.276125185670416	-0.835732417288656	0	0	-0.0275500625958089	-0.00108526091541615
2.8	0.0258612764065714	0.00891289757663079	0	0	0.8438313714435	0.45787065292252	0	0
0	0	0.00959027944387721	0.0123045164618568	0	0	-0.842827334029509	0.312593748234086
0.8438313714435	0.45787065292252	0	0	0.00420798465261944	0.0636391098165387	0	0
0	0	0.872139370573036	-0.150086551174302	0	0	0.0260257567094388	-0.0639877611298827
2.9	-0.022842061272013	-0.0166946421821461	0	0	0.474030093222314	-0.825045634610638	0	0
0	0	-0.000274703362222751	0.0361333261488152	0	0	0.56785021823844	-0.701279882668385
0.474030093222314	-0.825045634610638	0	0	-0.0535844202438579	0.0338684304813837	0	0
0	0	-0.515580595205427	-0.70328920954813	0	0	-0.0403892304461117	-0.046288521935304
3	0.0170700684174967	0.0236767156983095	0	0	0.816520164312049	0.498307520745447	0	0
0	0	-0.0110005517503858	0.0289529236774352	0	0	0.0916105721027788	-0.921094245834729
0.816520164312049	0.498307520745447	0	0	-0.00690302311239171	-0.0179807865246897	0	0
0	0	0.406851320308164	-0.761444628942769	0	0	0.0135244100563144	0.0860089785884639
3.1	-0.00877147326955693	-0.0279633724346556	0	0	0.519082200708862	-0.806707568342102	0	0
0	0	-0.0200513305208523	0.0119639295988743	0	0	0.448989093204088	0.807280226927213
0.519082200708862	-0.806707568342102	0	0	0.0386536057299584	-0.0648324753007596	0	0
0	0	-0.870210806089993	-0.049830387546182	0	0	-0.075668893544643	0.00640148921518949
3.2	-0.000613513507932871	0.0296153384103749	0	0	0.80540666936418	0.542871535363517	0	0
0	0	-0.0175128522449141	-0.00608907612102536	0	0	0.79916511947062	0.437206989840596
0.80540666936418	0.542871535363517	0	0	0.00063196557090716	0.0252579532992492	0	0
0	0	-0.338239513128439	-0.814699311463949	0	0	-0.0593936386358202	0.00706810321869653
3.3	0.00978763216612273	-0.0272987738123416	0	0	0.554085033101379	-0.801499564577041	0	0
0	0	-0.00094999803295963	-0.0237130295951484	0	0	-0.905828367149906	0.0510349048184822
0.554085033101379	-0.801499564577041	0	0	0.0621718100528281	0.0242877918193861	0	0
0	0	-0.574822922102215	0.6766655781926	0	0	-0.0275884054442024	-0.106994252353271
3.4	-0.017481523082972	0.0213347355876471	0	0	0.784873457438214	0.55868877342388	0	0
0	0	-0.00415610709747547	-0.0402028751755651	0	0	-0.732899996147409	0.544288674629387
0.784873457438214	0.55868877342388	0	0	-0.115268375738084	0.00905801354814499	0	0
0	0	-0.857729370208449	-0.221581605872209	0	0	-0.0196412153423039	-0.0397572144858263
3.5	0.0228036284397194	-0.0135759841927043	0	0	0.572967079192789	-0.775735622517354	0	0
0	0	0.00799114437238724	-0.0299452000190424	0	0	0.296152538707863	-0.869984620259169
0.572967079192789	-0.775735622517354	0	0	-0.012302253986215	-0.0536750558935905	0	0
0	0	0.16898991429414	0.8435032271965	0	0	0.08489088046247	-0.0728919695523906
3.6	-0.0246964332340593	0.00481710985649636	0	0	0.768617162501141	0.58254022745764	0	0
0	0	0.0194405111549844	0.00278110373965081	0	0	-0.211486828514884	-0.894179449505279
0.768617162501141	0.58254022745764	0	0	-0.0340968754570394	0.0606749300350277	0	0
0	0	-0.691946734074152	0.521897413556199	0	0	0.0446555554868412	-0.0317937846043476
3.7	0.0226642360136163	0.00460140500544925	0	0	0.601167422169571	-0.748316572850734	0	0
0	0	0.0136216077910388	0.0365009418468862	0	0	0.640665821928417	0.647265564732437
0.601167422169571	-0.748316572850734	0	0	0.11848730577631	0.00685609883427733	0	0
0	0	0.771351063690113	0.407651824189481	0	0	0.0553419273465996	-0.0193205294457425
3.8	-0.0176596166664769	-0.0124399533472054	0	0	0.741744450154214	0.619605595615828	0	0
0	0	0.0148462452422993	0.0506257619328352	0	0	0.870758741312335	0.184286363528081
0.741744450154214	0.619605595615828	0	0	-0.0252279877733182	0.0209378795936052	0	0
0	0	-0.0138258996906546	0.870604631375908	0	0	-0.0583639917425936	-0.0249631129374295
3.9	0.0105692506861031	0.0172567029245382	0	0	0.624109034195372	-0.740590692095426	0	0
0	0	0.0107155250619359	0.0156258409134978	0	0	-0.82222280567053	0.329020748119535
0.624109034195372	-0.740590692095426	0	0	-0.0130476655383936	0.0832355274113964	0	0
0	0	0.78093263225888	-0.38672833130678	0	0	0.0247158603035114	-0.00575940136086712
4	-0.00190183077009208	-0.0186818816063815	0	0	0.722369349878652	0.632317003340181	0	0
0	0	-0.0170644458309105	-0.0123781054621675	0	0	-0.513510598035928	0.724494969947156
0.722369349878652	0.632317003340181	0	0	0.0505356365856576	-0.0743092591645076	0	0
0	0	0.684003860377309	0.513545661303687	0	0	-0.00471182168769316	0.00960006987757944
4.1	-0.0061438138851252	0.0166328709809695	0	0	0.637963743603746	-0.709005393195601	0	0
0	0	-0.0417452384473561	-0.0355405596452684	0	0	0.0531240417243925	-0.889976690628353
0.637963743603746	-0.709005393195601	0	0	0.0245218472410374	-0.111628428962421	0	0
0	0	0.181829845439834	-0.82679702403939	0	0	0.0264992217178759	0.0815243097112436
4.2	0.0126228390913746	-0.0118967301178195	0	0	0.703704494358475	0.649521269943975	0	0
0	0	-0.0489459856457128	-0.0155321846171506	0	0	-0.433590401477065	-0.778062301415197
0.703704494358475	0.649521269943975	0	0	-0.0399851382958177	0.0164715714763827	0	0
0	0	0.829123153868064	-0.185550997166744	0	0	-0.0118550211851257	-0.041106869356192
4.3	-0.0163403817863602	0.00493662175658279	0	0	0.658558712704674	-0.696759232315014	0	0
0	0	-0.00732795067077013	0.00668340569171325	0	0	0.776758939150911	0.421886211200293
0.658558712704674	-0.696759232315014	0	0	-0.0108880397419606	0.0671212520891739	0	0
0	0	-0.533867697173443	-0.671124753080932	0	0	-0.0143468508808907	0.00240576423715821
4.4	0.0164167065572496	0.00329785564874644	0	0	0.679648179730357	0.66844522059619	0	0
0	0	0.0381569640175902	0.0043707670366832	0	0	0.885873615425733	-0.0542040132521907
0.679648179730357	0.66844522059619	0	0	0.00128794103790764	-0.0499826303816497	0	0
0	0	0.344479486829634	-0.770506636911025	0	0	-0.0334729345144568	0.00330117982470171
4.5	-0.0128674175117934	-0.0108008039154509	0	0	0.675452462120081	-0.661378828691139	0	0
0	0	0.0647124412908565	-0.00439972640083127	0	0	-0.720490632027544	0.522144389423937
0.675452462120081	-0.661378828691139	0	0	-0.0496158678379124	0.0264078386822709	0	0
0	0	-0.833292959176973	0.0115036691179168	0	0	-0.0857608698771303	0.0617773115009747
4.6	0.00642863986617894	0.0165140204516468	0	0	0.643470193134238	0.690614927267533	0	0
0	0	0.0466079649699876	-0.0247523581168944	0	0	-0.312608614179663	0.842704349105627
0.643470193134238	0.690614927267533	0	0	-0.00380437453441469	0.0137287045696575	0	0
0	0	-0.370921713677294	-0.743352257018031	0	0	-0.0800371478894181	-0.00959894257191483
4.7	0.00157478490697338	-0.019178610198165	0	0	0.708365180250029	-0.636794993344038	0	0
0	0	-0.0247074229473436	-0.00514006210939999	0	0	-0.19045552440538	-0.872730615098389
0.708365180250029	-0.636794993344038	0	0	0.0655879936746608	-0.0177610008888107	0	0
0	0	-0.523810879062925	0.654542520235058	0	0	-0.073204550872807	0.07209256648476
4.8	-0.0100949730945036	0.0182929665964663	0	0	0.637151090991	0.724703592908054	0	0
0	0	-0.0589244087791996	0.0344355351955515	0	0	-0.606292856606581	-0.634516329368389
0.637151090991	0.724703592908054	0	0	0.0530255622396367	-0.0185672134683246	0	0
0	0	-0.826824223727335	-0.197294530656163	0	0	-0.00936417356649713	0.0718001639260136
4.9	0.0176199100728973	-0.0131168056193533	0	0	0.73088126450415	-0.629310095267048	0	0
0	0	-0.0401612806186725	0.0585912771906194	0	0	0.853956211431438	0.207035171325013
0.73088126450415	-0.629310095267048	0	0	-0.0807268012366472	-0.0292721898665733	0	0
0	0	0.198890688872301	0.820937685217493	0	0	-0.0836583154408761	0.00393029863403045
5	-0.0222907493804905	0.00501267272481786	0	0	0.618524991240144	0.726485940256307	0	0
0	0	-0.000818806257116484	0.0200850548472775	0	0	0.830863312422863	-0.298327150658597
0.618524991240144	0.726485940256307	0	0	-0.0476816640635399	0.0404456544221707	0	0
0	0	-0.645023408711422	0.533832541834263	0	0	0.0412712552567169	-0.00896202596521161
5.1	0.0237237539634145	0.00487423306459574	0	0	0.727817902299301	-0.606180012496675	0	0
0	0	0.0379685361886655	-0.0339782620722013	0	0	-0.533070689841743	0.695640732841386
0.727817902299301	-0.606180012496675	0	0	-0.0218125781719461	-0.0416498009279258	0	0
0	0	0.749988109552757	0.344622428386802	0	0	0.0723323848129125	-0.0195416205082911
5.2	-0.0212545565765759	-0.0159896426193716	0	0	0.584106478605543	0.745562645461389	0	0
0	0	0.0156874529101922	-0.0749647876992029	0	0	-0.0783442045831217	0.871668092145446
0.584106478605543	0.745562645461389	0	0	0.0380653286515683	0.0222728882655517	0	0
0	0	0.0155513552737826	0.832249210351446	0	0	0.0266425261238393	0.0666191684666652
5.3	0.0149611809934678	0.0256888565092735	0	0	0.764063553098609	-0.572227467834379	0	0
0	0	-0.0143937541920328	-0.0419731190187648	0	0	-0.412488541645564	-0.770654671862623
0.764063553098609	-0.572227467834379	0	0	-0.0323106977299626	0.0246810139483365	0	0
0	0	0.742673945867243	-0.37452778315656	0	0	-0.0434296365518263	0.0121950644991764
5.4	-0.00591921541417947	-0.031779235566265	0	0	0.564156713161937	0.769054859428535	0	0
0	0	-0.0312721631287897	0.0141452889313106	0	0	-0.767225748839609	-0.427864115101982
0.564156713161937	0.769054859428535	0	0	0.070336013720548	0.0876359611663502	0	0
0	0	0.657418438577239	0.509496575559171	0	0	-0.00941399777813156	0.0220209612315577
5.5	-0.00486263766394746	0.0341609961810318	0	0	0.779806671869904	-0.561436294256286	0	0
0	0	0.023498745290248	0.0598784258520182	0	0	0.877004743217136	-0.044745131291216
0.779806671869904	-0.561436294256286	0	0	-0.00665497042814995	-0.0276427635446697	0	0
0	0	0.157358740406713	-0.816507629174309	0	0	0.0216384901563276	0.0385839997090011
5.6	0.0164445677320656	-0.0315119800766124	0	0	0.547321168621028	0.785362968344509	0	0
0	0	0.0427600182400614	0.0568142515288664	0	0	0.69762983144246	-0.508346126297125
0.547321168621028	0.785362968344509	0	0	0.00189215213391644	-0.109466289814088	0	0
0	0	0.799313090510596	-0.202241040442146	0	0	0.0111094418839072	0.117535925345389
5.7	-0.0272925513010875	0.0248735929241369	0	0	0.798524241858619	-0.538934569122954	0	0
0	0	0.0210830133802408	-0.00656199157314534	0	0	-0.317580102879955	0.807005960996125
0.798524241858619	-0.538934569122954	0	0	-0.0120081997530799	0.051482261381214	0	0
0	0	-0.535865834071255	-0.648433195871061	0	0	0.0585889754752183	0.0346894915545397
5.8	0.0342237221793199	-0.0144309729810246	0	0	0.521466640827486	0.798415341492191	0	0
0	0	-0.0216855911921633	-0.0308383016221798	0	0	0.155448503751717	0.853052608617349
0.521466640827486	0.798415341492191	0	0	0.0588806352402319	-0.0274109571399753	0	0
0	0	0.323751171139723	-0.770477198283082	0	0	0.0339792605201567	0.055755346422232
5.9	-0.0372930520170501	0.00147783855041684	0	0	0.812280517825332	-0.498096154645536	0	0
0	0	-0.0559580060727088	-0.0263064949781106	0	0	-0.584970853348341	-0.637250411067941
0.812280517825332	-0.498096154645536	0	0	-0.073669415604288	0.0433107019716381	0	0
0	0	-0.826449329642231	0.059759662639314	0	0	0.0374814807624925	0.0726976490273315
6	0.0357929784903857	0.0113933916604766	0	0	0.481988661821567	0.825663342505007	0	0
0	0	-0.0339786112984925	0.00617176550473077	0	0	-0.847289939363587	-0.194616661061469
0.481988661821567	0.825663342505007	0	0	-0.00345416857919098	0.0238730982279204	0	0
