# GHZ S RI R 50
0.2	-0.00764403416103911	0.0127776704297082	0	0	0.957662719793966	0.0584117852721311	0	0
0	0	0.0176991032624874	0.00509899194338507	0	0	-0.370743426790166	0.910966529360371
0.957662719793966	0.0584117852721311	0	0	0.022312429907199	0.0390048606611763	0	0
0	0	0.569875616110523	-0.753818365508839	0	0	0.00279959642757069	-0.0348044467140852
0.3	0.00699447014563241	-0.011169506426641	0	0	0.0341052218301126	-0.965084481750434	0	0
0	0	-0.00650150513308051	0.00146403429099222	0	0	-0.133666105811111	-0.974233875767521
0.0341052218301126	-0.965084481750434	0	0	-0.0140682989703648	0.00179135658401788	0	0
0	0	-0.921876977516629	-0.202688889075035	0	0	-0.0326386841122508	-0.0201292824087408
0.4	-0.00896019694685144	0.00779989336326929	0	0	0.948548506326385	0.0629501012079133	0	0
0	0	-0.0392757842730532	0.000685405807518703	0	0	-0.66643003100903	-0.726455521626624
0.948548506326385	0.0629501012079133	0	0	-0.0349357855580502	-0.0159505316647745	0	0
0	0	-0.234300830170333	-0.896063708321924	0	0	0.0206971753817619	0.0178956503412837
0.5	0.0119595140764648	-0.00348521177316054	0	0	0.128995238504595	-0.948934865140955	0	0
0	0	-0.0317760337549389	0.00489646944964325	0	0	0.963994662028371	0.208519873312005
0.128995238504595	-0.948934865140955	0	0	0.0357454795831676	0.0156680161385706	0	0
0	0	-0.679720606311067	0.635912501345172	0	0	0.00407808918771165	0.00661156681442579
0.6	-0.013720699907318	0.00042254308671202	0	0	0.955392622598273	0.133018597866768	0	0
0	0	-0.00653723566369133	0.00673966570456406	0	0	0.913892214039686	-0.328145185329031
0.955392622598273	0.133018597866768	0	0	0.00441521293172805	-0.0201363450580954	0	0
0	0	-0.861945623314425	-0.346565218868452	0	0	-0.00596387123280083	-0.00762603681104006
0.7	0.0141286282583415	0.00146999105464162	0	0	0.110955503464952	-0.958564095815264	0	0
0	0	0.02451420853299	-0.00965324991392273	0	0	-0.61340406699437	0.748106653808204
0.110955503464952	-0.958564095815264	0	0	0.00803621374564158	0.00964390006669776	0	0
0	0	0.0441337390645349	0.921611097315902	0	0	0.00233594225789616	-0.0132110055379549
0.8	-0.0127947858951662	-0.00372107471592506	0	0	0.956710762291266	0.115757223085816	0	0
0	0	0.0458102402659952	-0.0401348024746735	0	0	-0.122404383601025	0.962406380308241
0.956710762291266	0.115757223085816	0	0	-0.0222412598722694	0.0121280000564781	0	0
0	0	-0.813849914680504	0.448004392556605	0	0	0.00682688155361605	0.0831006622192804
0.9	0.00928510007814871	0.00613576518690029	0	0	0.147329193399936	-0.94225899401598	0	0
0	0	0.0143054512829823	-0.0261607975249826	0	0	-0.434040151626024	-0.869188527324155
0.147329193399936	-0.94225899401598	0	0	-0.00135565865285668	-0.0633812328433128	0	0
0	0	0.765158132727115	0.527943099533713	0	0	0.0369017992966199	0.0127249815640079
1	-0.00511569320365871	-0.00808258938285532	0	0	0.945705813413187	0.183726880723348	0	0
0	0	-0.0140312242721635	0.0127889258380521	0	0	-0.840614906317181	-0.484311681640009
0.945705813413187	0.183726880723348	0	0	0.00252852253655765	0.0406094162011343	0	0
0	0	-0.128080156545985	0.905613206046857	0	0	0.00314143391452159	0.000292576982415757
1.1	0.00130238354345741	0.00888356694591075	0	0	0.203253962111773	-0.953398378107288	0	0
0	0	-0.011952409703296	0.0350218590392676	0	0	0.960538548365859	-0.0504312651796448
0.203253962111773	-0.953398378107288	0	0	0.00249753827128223	1.6263995691451E-05	0	0
0	0	0.872952227848597	-0.260659908613796	0	0	0.00763255739832929	0.0415811423976236
1.2	0.00101204871986147	-0.00814338745477799	0	0	0.963644774665132	0.20363859752131	0	0
0	0	0.00799072057187773	0.0634629694424316	0	0	0.774916068403114	-0.557434870848729
0.963644774665132	0.20363859752131	0	0	0.052212479577111	-0.00194027622144745	0	0
0	0	0.616936154090461	0.674809767235867	0	0	0.00503464471135492	0.0994470444428083
1.3	-0.00224385654374615	0.00513859903835566	0	0	0.205600379004134	-0.947856450746404	0	0
0	0	0.0155749829264526	0.0170584905834964	0	0	-0.356155224576922	0.887984013275984
0.205600379004134	-0.947856450746404	0	0	-0.0570998252795439	-0.000239891352629116	0	0
0	0	0.323053635230576	-0.863872770461812	0	0	0.0382137140494951	0.0140658662138483
1.4	0.0026886284854829	-0.00134732400483404	0	0	0.92967127681531	0.233048205270719	0	0
0	0	-0.013135662345175	-0.0459445266207605	0	0	0.182029961070603	0.941763656171243
0.92967127681531	0.233048205270719	0	0	0.0149905475680578	0.00760835879901516	0	0
0	0	0.903164061028598	-0.085929185829299	0	0	0.0424348369385377	-0.00677344149703849
1.5	-0.00153509962406841	-0.00165103069316471	0	0	0.269855232311341	-0.927637812200521	0	0
0	0	-0.0372680833491517	-0.0585186385661501	0	0	-0.679721788768501	-0.676805055566426
0.269855232311341	-0.927637812200521	0	0	0.0308501455600695	-0.0334247756621369	0	0
0	0	-0.465709387573701	-0.769867701756036	0	0	0.0313885278736682	0.052696488385036
1.6	-0.00105046197745577	0.00365799453483393	0	0	0.942543140302164	0.293011810411709	0	0
0	0	-0.0346891867612187	-0.0215947632875158	0	0	-0.941514901038318	-0.181264964490961
0.942543140302164	0.293011810411709	0	0	-0.0541980637160189	-0.0263962463476717	0	0
0	0	0.496940593969561	-0.75890290128186	0	0	-0.000781379694919798	0.0536865691890224
1.7	0.00391589253575965	-0.00448297346029236	0	0	0.287041489113482	-0.947385790645269	0	0
0	0	0.0173960274289876	0.00485649282624116	0	0	0.886500405302096	-0.348063907540418
0.287041489113482	-0.947385790645269	0	0	-0.0026397201093391	0.00610886235516961	0	0
0	0	-0.903860807304448	-0.108166796120179	0	0	0.0384811976207829	-0.0298786868323831
1.8	-0.00604633440527611	0.00329862564595015	0	0	0.920721682898912	0.287712786799281	0	0
0	0	0.0471558231979206	0.0373178376941837	0	0	0.571812819630993	-0.749949958556208
0.920721682898912	0.287712786799281	0	0	0.00599554696448384	0.0664008868834595	0	0
0	0	-0.314286139818204	-0.850102505969662	0	0	0.0265261810080411	-0.0331898585508203
1.9	0.00739323885298053	-0.000124396228117002	0	0	0.316952462761403	-0.896620146844721	0	0
0	0	0.0540374925788928	-0.0037168948635818	0	0	-0.0797657341688192	0.943162564255654
0.316952462761403	-0.896620146844721	0	0	0.00920773738469026	0.00973416462991735	0	0
0	0	-0.613382521586992	0.648974723002038	0	0	0.040822188555915	0.0243013750976549
2	-0.00754469161759138	-0.00426783898550808	0	0	0.892883158087412	0.347405180605246	0	0
0	0	0.0157402023550794	-0.00430766663511288	0	0	0.460546835169047	0.832060086200306
0.892883158087412	0.347405180605246	0	0	-0.0504641150398332	-0.0324021789124174	0	0
0	0	-0.84587140807264	-0.261193461740144	0	0	-0.0534096753019022	-0.0202355732692266
2.1	0.00633406892412318	0.00876660743788022	0	0	0.362419862601424	-0.898859656510411	0	0
0	0	-0.0292210615395446	0.00893677822062821	0	0	-0.83142552871731	-0.449872920047163
0.362419862601424	-0.898859656510411	0	0	0.0703289178585188	0.016437264694702	0	0
0	0	0.137741561590987	0.878986494936864	0	0	-0.00521740444037449	0.0101651492998871
2.2	-0.00317232756560871	-0.0123539606314039	0	0	0.898835593123359	0.374862753206298	0	0
0	0	-0.04877824483436	0.0183471219203211	0	0	-0.931770785642323	0.0703493973489713
0.898835593123359	0.374862753206298	0	0	0.0141711310949343	-0.0105273648954997	0	0
0	0	-0.735941207297688	0.507313920425833	0	0	0.0421496114060544	-0.0109448286382665
2.3	-0.0019638572419529	0.0139327558402988	0	0	0.385333047794574	-0.889397132392675	0	0
0	0	-0.0313503491311262	0.0202102732928538	0	0	0.735799974309749	-0.556081702270528
0.385333047794574	-0.889397132392675	0	0	0.0574285723494102	-0.0283135105185166	0	0
0	0	0.776278420368671	0.431244718449106	0	0	0.0663988593120984	0.0470719775245288
2.4	0.00851186967081893	-0.0133277051215672	0	0	0.87794762223813	0.397725819558486	0	0
0	0	-0.0013482962767536	0.00152455684301605	0	0	0.323935609394734	-0.867986848541746
0.87794762223813	0.397725819558486	0	0	-0.0972137451014002	0.0148312148674266	0	0
0	0	-0.0388627700717193	0.882514280824135	0	0	0.0468614830973483	-0.0482491604450696
2.5	-0.0155661443708412	0.0105644857713183	0	0	0.415345376483151	-0.86658026576226	0	0
0	0	0.018877893016762	-0.0360045596581553	0	0	0.189524779984059	0.917872282058718
0.415345376483151	-0.86658026576226	0	0	-0.0102513594807064	-0.0259936747390564	0	0
0	0	0.805235579657864	-0.332296904195841	0	0	0.0127134628744879	0.000368875470277126
2.6	0.0214443142469987	-0.00600154289520077	0	0	0.859984411570322	0.429920859777953	0	0
0	0	0.0182245623253604	-0.0390589445292544	0	0	0.667627551313484	0.654198588664132
0.859984411570322	0.429920859777953	0	0	0.00579555647233642	-0.0324318028146487	0	0
0	0	0.631008476702391	0.597819000483894	0	0	0.0631229896654516	0.0112517226978379
2.7	-0.0250795792736991	-0.000353516983456587	0	0	0.444864653864402	-0.854658743298474	0	0
0	0	0.0219001420531962	-0.00988611381716621	0	0	-0.898844486557937	-0.174616510183072
0.444864653864402	-0.854658743298474	0	0	0.00371478179633554	-0.0120176813014897	0	0
0	0	0.276434185970488	-0.836704684177061	0	0	-0.026769735125479	2.62203654918958E-05
2.8	0.0256065000190632	0.00786410120344075	0	0	0.845013494020566	0.45851384065966	0	0
0	0	0.0104572539132807	0.0124790868183543	0	0	-0.844099411904001	0.313166621695464
0.845013494020566	0.45851384065966	0	0	0.00468911287223999	0.0649238628592377	0	0
0	0	0.873473967199365	-0.150410888909485	0	0	0.0270544682345707	-0.0632810508868918
2.9	-0.02262235057527	-0.0154499943855532	0	0	0.47472792249427	-0.826745623178859	0	0
0	0	0.00044254448949878	0.0368737201906263	0	0	0.568792767063531	-0.702896969080021
0.47472792249427	-0.826745623178859	0	0	-0.0531910897875078	0.0349710421580214	0	0
0	0	-0.516859780498525	-0.704568090722009	0	0	-0.0395936262052657	-0.0457579927427509
3	0.0168112856098368	0.0220352822780013	0	0	0.818626662339845	0.498827307782048	0	0
0	0	-0.0106801611460407	0.0302644833024302	0	0	0.0909923690405223	-0.92349168534729
0.818626662339845	0.498827307782048	0	0	-0.00630840061789659	-0.0173388594496578	0	0
0	0	0.407171782226756	-0.763731465356065	0	0	0.0147048807981896	0.0868167171769394
3.1	-0.00815967897104693	-0.0259576122789433	0	0	0.519291116230479	-0.809110263879126	0	0
0	0	-0.0202722341810601	0.0136566247391614	0	0	0.451299847060111	0.809008104715846
0.519291116230479	-0.809110263879126	0	0	0.0392775257168525	-0.0648138394569539	0	0
0	0	-0.872755049667478	-0.0488612017408853	0	0	-0.0752724171206145	0.00674600428003155
3.2	-0.0017533452642179	0.0275534651257249	0	0	0.808366893902801	0.542506856808278	0	0
0	0	-0.0183293726368732	-0.00441559222670771	0	0	0.802376317257447	0.436901517082176
0.808366893902801	0.542506856808278	0	0	0.00117975635090678	0.0254896179856807	0	0
0	0	-0.340849171863607	-0.816415948730594	0	0	-0.0592087187237784	0.00724559782735493
3.3	0.0112699576159358	-0.0255695436561295	0	0	0.553102278416478	-0.804546400087902	0	0
0	0	-0.00222138504549714	-0.0224492649335425	0	0	-0.908141790060704	0.0534107487410973
0.553102278416478	-0.804546400087902	0	0	0.0627594594969809	0.0240210859379297	0	0
0	0	-0.574698895755203	0.679908392148635	0	0	-0.0281155365266477	-0.107564698673302
3.4	-0.0188914584953342	0.0199691490541173	0	0	0.788339088314009	0.557178102645769	0	0
0	0	-0.00565104282751045	-0.0396636643622214	0	0	-0.732836278271223	0.54797391814678
0.788339088314009	0.557178102645769	0	0	-0.115660791362468	0.00979678395815235	0	0
0	0	-0.860473056170765	-0.219287018446126	0	0	-0.0200405818201664	-0.039855614849024
3.5	0.0240462298471481	-0.0122403087312536	0	0	0.570864195469133	-0.778898327981521	0	0
0	0	0.00658382545670764	-0.0302376999928526	0	0	0.293353995614132	-0.872518821141115
0.570864195469133	-0.778898327981521	0	0	-0.0128488438555644	-0.0536975881307686	0	0
0	0	0.172446359115034	0.844240074884447	0	0	0.08451944512935	-0.0737032168066502
3.6	-0.0259976746463326	0.00338733955409522	0	0	0.771572865019328	0.57957128636972	0	0
0	0	0.0183356597648879	0.00171618135012655	0	0	-0.215487915864397	-0.894223400432977
0.771572865019328	0.57957128636972	0	0	-0.033723048835701	0.0611325756641355	0	0
0	0	-0.690466623512935	0.525369312949496	0	0	0.0444315818985728	-0.0320863618005396
3.7	0.0241649683999426	0.00596953373126793	0	0	0.597796200034341	-0.750515217744367	0	0
0	0	0.013069039456744	0.0349826887720907	0	0	0.643728798310222	0.644582609213506
0.597796200034341	-0.750515217744367	0	0	0.118449373284136	0.00597467276029433	0	0
0	0	0.773380273322015	0.404320430303269	0	0	0.0552453713785226	-0.019695827768816
3.8	-0.0192852078698137	-0.0134416508423801	0	0	0.743724213745684	0.615822567724494	0	0
0	0	0.0148009183147581	0.0491695639956679	0	0	0.871300643234162	0.180299018991226
0.743724213745684	0.615822567724494	0	0	-0.0249391404777376	0.0212115019557395	0	0
0	0	-0.00989583060527222	0.87037799317817	0	0	-0.0584366452321754	-0.0243675912412837
3.9	0.0119345674883829	0.0178228868518343	0	0	0.619989051941029	-0.741889806673889	0	0
0	0	0.0110842045648342	0.0145680557695702	0	0	-0.819746925619799	0.332097270750016
0.619989051941029	-0.741889806673889	0	0	-0.0122029429637613	0.0830933629722688	0	0
0	0	0.778264574433865	-0.389553490521738	0	0	0.0247304716992506	-0.00601629327013393
4	-0.00276944364039198	-0.0191941540440735	0	0	0.723050974404098	0.628341282594074	0	0
0	0	-0.0164115720754192	-0.0128016804631855	0	0	-0.509736957081453	0.72502087508507
0.723050974404098	0.628341282594074	0	0	0.0499306697435077	-0.074401369394038	0	0
0	0	0.684609834696782	0.509926198059168	0	0	-0.00451181438164533	0.00943439345837476
4.1	-0.00554905041185137	0.017372831456499	0	0	0.634068955901407	-0.709048349462704	0	0
0	0	-0.0410396294427844	-0.0352872315264541	0	0	0.050107703182269	-0.887937667250805
0.634068955901407	-0.709048349462704	0	0	0.0238401520506967	-0.111307366655804	0	0
0	0	0.178698491130501	-0.825332099957076	0	0	0.0269371587973345	0.0807225823491943
4.2	0.011998793285212	-0.0128097554069279	0	0	0.703221636163592	0.64572150515826	0	0
0	0	-0.0484576968030225	-0.0148173917246138	0	0	-0.434294585321608	-0.774889164821288
0.703221636163592	0.64572150515826	0	0	-0.0395736935397831	0.0164110732238527	0	0
0	0	0.826412203050371	-0.187055399477847	0	0	-0.0120262988751016	-0.0410345861359931
4.3	-0.0156898546309487	0.00576360242040693	0	0	0.655109293603978	-0.695733248544709	0	0
0	0	-0.00723906173130571	0.0075085746917552	0	0	0.775338907659916	0.419308042186678
0.655109293603978	-0.695733248544709	0	0	-0.0105793331226266	0.0666011530127977	0	0
0	0	-0.533576387271797	-0.668284077942602	0	0	-0.014342807334849	0.00235198843117871
4.4	0.0160129280475201	0.00261197197948573	0	0	0.678295611340718	0.665665089706623	0	0
0	0	0.0378272185341166	0.00492918851945293	0	0	0.883398874487684	-0.0550641102958881
0.678295611340718	0.665665089706623	0	0	0.00108967097195124	-0.049636117757308	0	0
0	0	0.342664632277244	-0.768799682215361	0	0	-0.0333176786378195	0.00347224572703722
4.5	-0.0128549947002914	-0.0100180766122872	0	0	0.673238340629186	-0.659997724511551	0	0
0	0	0.0640655695332551	-0.0043799918138558	0	0	-0.718472031406228	0.521267393455361
0.673238340629186	-0.659997724511551	0	0	-0.0493723162047695	0.0265927624355216	0	0
0	0	-0.831274164766095	0.0119201718222487	0	0	-0.0851271705555599	0.0618642472999405
4.6	0.00666091798679234	0.015356903038364	0	0	0.642153764444607	0.688916091749948	0	0
0	0	0.0458689801657494	-0.025337205919432	0	0	-0.312008938989934	0.840995189762388
0.642153764444607	0.688916091749948	0	0	-0.0037211809886914	0.0141304231887771	0	0
0	0	-0.370147709862255	-0.741867774659709	0	0	-0.079308135823308	-0.00919072685545893
4.7	0.00143518741882033	-0.0176304805157038	0	0	0.707079012557432	-0.635578276447894	0	0
0	0	-0.0252317074225163	-0.00622536697309614	0	0	-0.190006573336945	-0.871593902100961
0.707079012557432	-0.635578276447894	0	0	0.0656171764913941	-0.0171447875249176	0	0
0	0	-0.523247325207058	0.653543517244431	0	0	-0.0723750961950051	0.0721448215743938
4.8	-0.0102105490361572	0.0166145009718387	0	0	0.636290784025769	0.723842461308974	0	0
0	0	-0.0589443763830456	0.0331830937369521	0	0	-0.605652282954309	-0.63408835497363
0.636290784025769	0.723842461308974	0	0	0.0533436518940119	-0.0179576277874764	0	0
0	0	-0.826078126705898	-0.197283264609162	0	0	-0.00858637280906135	0.0718085399723657
4.9	0.0177881055225268	-0.0115113257791112	0	0	0.730439568548247	-0.629144600270632	0	0
0	0	-0.0396119747023261	0.0575232754529283	0	0	0.853678590252849	0.207134777763238
0.730439568548247	-0.629144600270632	0	0	-0.0800692544550616	-0.0287263199373051	0	0
0	0	0.198683379387098	0.820744257812325	0	0	-0.0827435149089764	0.00386770706261151
5	-0.0223793973947843	0.00334999027106957	0	0	0.618994261259466	0.725967217388264	0	0
0	0	0.000282638741787956	0.0194730152993207	0	0	0.830770287106911	-0.298489035566379
0.618994261259466	0.725967217388264	0	0	-0.0469373220201993	0.0408847108617985	0	0
0	0	-0.644888266000762	0.533946972638989	0	0	0.0421241639264103	-0.00918281290443974
5.1	0.0239238466974028	0.006757311637976	0	0	0.727188550400412	-0.607102588007069	0	0
0	0	0.0393845522687013	-0.0339951489822146	0	0	-0.532711439547066	0.696153810485453
0.727188550400412	-0.607102588007069	0	0	-0.0211809935650259	-0.0413774576845419	0	0
0	0	0.750384471431968	0.344185558795594	0	0	0.0731229844377911	-0.020046992383349
5.2	-0.0217472952038101	-0.0179125904312349	0	0	0.585454091446114	0.744394935667174	0	0
0	0	0.0170809658749681	-0.0744294694396564	0	0	-0.0771492219771513	0.872210326160332
0.585454091446114	0.744394935667174	0	0	0.0388571841463647	0.0221241527366226	0	0
0	0	0.0167370091050409	0.832639038927561	0	0	0.0274163951023178	0.0660296716904628
5.3	0.015673954512663	0.0273125888632835	0	0	0.762450716260916	-0.574051576629553	0	0
0	0	-0.0134152744719845	-0.0410944871688132	0	0	-0.41420070044355	-0.770193006173225
0.762450716260916	-0.574051576629553	0	0	-0.0316041813277173	0.024601237691411	0	0
0	0	0.742274463327421	-0.376167234822572	0	0	-0.0431519702270575	0.0117116465966937
5.4	-0.00646886437444975	-0.0330129445347085	0	0	0.566050377977783	0.766746882738373	0	0
0	0	-0.0309850267884504	0.0151310804249192	0	0	-0.768314526207731	-0.425842529224154
0.566050377977783	0.766746882738373	0	0	0.0711232890556988	0.0867519778217681	0	0
0	0	0.658724779609197	0.507758839400087	0	0	-0.00929467069612366	0.021490953672748
5.5	-0.00468361030636147	0.0353848128700653	0	0	0.776971557194624	-0.563468523239344	0	0
0	0	0.023039053029379	0.0607005761487772	0	0	0.876235635519567	-0.0473998464431979
0.776971557194624	-0.563468523239344	0	0	-0.00662945647618308	-0.0278137545703418	0	0
0	0	0.154743728687884	-0.816401323479899	0	0	0.0217634110034153	0.0380023464231195
5.6	0.0164263178498235	-0.0330416847568046	0	0	0.549122109857231	0.78191084332361	0	0
0	0	0.0417263028807112	0.0572539039365304	0	0	0.694934297465297	-0.50997663647479
0.549122109857231	0.78191084332361	0	0	0.00128068213150282	-0.10921006288958	0	0
0	0	0.797504285867421	-0.204645810617101	0	0	0.0118790469942043	0.116835231295307
5.7	-0.0270352570444118	0.0266545345460176	0	0	0.794120951089235	-0.540526901462785	0	0
0	0	0.0197583284671592	-0.00660310906449184	0	0	-0.314200549669853	0.806140579729616
0.794120951089235	-0.540526901462785	0	0	-0.0111540705883132	0.0511599690064679	0	0
0	0	-0.536717979718076	-0.645158432542169	0	0	0.058769001441317	0.0337494645187807
5.8	0.0336033910393531	-0.0160303285995676	0	0	0.522265537934481	0.793592676341618	0	0
0	0	-0.0228909782392368	-0.031270187512889	0	0	0.157551710271026	0.84991545593226
0.522265537934481	0.793592676341618	0	0	0.058838940280563	-0.0278536060878399	0	0
0	0	0.320401298589112	-0.769052366689315	0	0	0.0343723153197214	0.0545286460340394
5.9	-0.0366181067718559	0.00261549947120438	0	0	0.807018572171414	-0.498437082918037	0	0
0	0	-0.0567160396085444	-0.0269562054411289	0	0	-0.584330475471234	-0.633259910191073
0.807018572171414	-0.498437082918037	0	0	-0.072038624266798	0.0428567683326051	0	0
0	0	-0.823073156253674	0.0616541333834343	0	0	0.0376277364537914	0.0709481052473448
6	0.0354505611518735	0.0106720803513592	0	0	0.481468986760372	0.820256165268224	0	0
0	0	-0.0341273616275384	0.00554467380701131	0	0	-0.84390383481439	-0.192199801569097
0.481468986760372	0.820256165268224	0	0	-0.00270008289436944	0.0227754318407893	0	0
