# GHZ S RI R 50
0.2	-0.00603435210929472	0.00812621941863614	0	0	0.958099737713163	0.0579116938349432	0	0
0	0	0.0224062626293099	0.00350767580913571	0	0	-0.370264853544387	0.911175300624598
0.958099737713163	0.0579116938349432	0	0	0.0210108982384913	0.0458106014928684	0	0
0	0	0.56948306942526	-0.754130746616348	0	0	0.00140782520906546	-0.0280125948146725
0.3	0.00704754189714876	-0.00896931130483676	0	0	0.0332609476257004	-0.965281286923667	0	0
0	0	-0.00431075077245712	0.00143032278001262	0	0	-0.134494314273308	-0.974241835577684
0.0332609476257004	-0.965281286923667	0	0	-0.0132417373729279	0.00687680268508343	0	0
0	0	-0.922158809960933	-0.201945513667608	0	0	-0.031859172523737	-0.0150202109790933
0.4	-0.00865596833609767	0.00786778782780518	0	0	0.948613142248817	0.0616141186764442	0	0
0	0	-0.0394696431333185	0.000934461355258977	0	0	-0.667435502969692	-0.725520921263461
0.948613142248817	0.0616141186764442	0	0	-0.0331682558322555	-0.0126864416893876	0	0
0	0	-0.235546416628314	-0.895729278813996	0	0	0.0225526715312665	0.0210033257283543
0.5	0.010431888688151	-0.00493290280810216	0	0	0.127238076955402	-0.948861257642886	0	0
0	0	-0.0338827978499401	0.00500639962177257	0	0	0.964018808921894	0.206649637474319
0.127238076955402	-0.948861257642886	0	0	0.0375314313074829	0.0170421076598653	0	0
0	0	-0.678282498192041	0.636936074468548	0	0	0.00584972833256897	0.00811086982504256
0.6	-0.0105898570178453	0.00185872263261189	0	0	0.954834264522596	0.130664880704235	0	0
0	0	-0.00982109550724847	0.00611039820053286	0	0	0.912268595553653	-0.329932365671982
0.954834264522596	0.130664880704235	0	0	0.00531133510575004	-0.0196082277779342	0	0
0	0	-0.861921454736199	-0.344255238823483	0	0	-0.00499189015667756	-0.00707024110235138
0.7	0.0100875707356415	0.00139925942970618	0	0	0.108426760182105	-0.957293841522286	0	0
0	0	0.0209783738016393	-0.0112492570620413	0	0	-0.610486377603662	0.748432990732379
0.108426760182105	-0.957293841522286	0	0	0.00809702016143823	0.00990833273868896	0	0
0	0	0.0464073242109791	0.919976785972702	0	0	0.00230044811761788	-0.0128414607803528
0.8	-0.00915274013211612	-0.0050188102950691	0	0	0.954588877561564	0.113178917671877	0	0
0	0	0.0427275885747917	-0.0422852264512817	0	0	-0.119996562527059	0.960519788575915
0.954588877561564	0.113178917671877	0	0	-0.022674232545257	0.0130624445408648	0	0
0	0	-0.811031995304197	0.448803927888921	0	0	0.00657989961323761	0.0835654276879513
0.9	0.00690521282571602	0.00785697933528195	0	0	0.144601968302004	-0.939355444273084	0	0
0	0	0.012213374905353	-0.0281993120099754	0	0	-0.434669789486216	-0.865417035697626
0.144601968302004	-0.939355444273084	0	0	-0.00219975918587364	-0.0611551153933505	0	0
0	0	0.763943969769962	0.524491718293767	0	0	0.036150980001134	0.0142680083153742
1	-0.00399535867601776	-0.00923017707651362	0	0	0.942259342194192	0.181373078280312	0	0
0	0	-0.0148008669883793	0.0114668986267754	0	0	-0.838051219547894	-0.480877309017095
0.942259342194192	0.181373078280312	0	0	0.00288792562520876	0.0428200806310991	0	0
0	0	-0.125977374837661	0.902163070494436	0	0	0.00334193414897847	0.00281633728318532
1.1	0.000763757312918265	0.00862476013591481	0	0	0.201347948487819	-0.94916701805032	0	0
0	0	-0.0114524742936904	0.0348795765756218	0	0	0.955981014732459	-0.0511432781822626
0.201347948487819	-0.94916701805032	0	0	0.00401836889439846	0.00269409150342404	0	0
0	0	0.868598095503958	-0.260298831413826	0	0	0.00915719011438193	0.0438296073049549
1.2	0.00219332338710717	-0.00650600839403783	0	0	0.958878404966935	0.202586635743645	0	0
0	0	0.00927483131419796	0.064710665531639	0	0	0.770911347923623	-0.554478928550849
0.958878404966935	0.202586635743645	0	0	0.0544487919083109	0.00015654799535041	0	0
0	0	0.613676374962603	0.671330795142017	0	0	0.00772387508486255	0.100442563636873
1.3	-0.00442719324869101	0.00318777921344826	0	0	0.205317318820994	-0.942607756272104	0	0
0	0	0.0168614569176684	0.0194472377696254	0	0	-0.355175476848422	0.883042464102538
0.205317318820994	-0.942607756272104	0	0	-0.0531325612144882	0.00089499059841338	0	0
0	0	0.322221744682832	-0.8590881788348	0	0	0.041139671169111	0.0151108370388625
1.4	0.00520974910301933	0.000515438714000883	0	0	0.924549520038173	0.233720642175262	0	0
0	0	-0.0127797261833645	-0.0430122168767971	0	0	0.179313584032145	0.937438913236729
0.924549520038173	0.233720642175262	0	0	0.0182003806238898	0.00825361491825481	0	0
0	0	0.898845956694074	-0.0837641719448119	0	0	0.0454351146002998	-0.00597445327501615
1.5	-0.00438412209506278	-0.00351215491443132	0	0	0.271212089999358	-0.92268085918822	0	0
0	0	-0.0380545418550605	-0.0554936570808707	0	0	-0.674542038091759	-0.675816398495576
0.271212089999358	-0.92268085918822	0	0	0.0340159797064898	-0.0328168094669921	0	0
0	0	-0.461217599712782	-0.767796141112523	0	0	0.0340528514785442	0.0525053266364723
1.6	0.00241369384719731	0.00504526107147405	0	0	0.937519337115943	0.295208050056179	0	0
0	0	-0.0364315484099979	-0.0187328004523386	0	0	-0.937111854797817	-0.184217421143726
0.937519337115943	0.295208050056179	0	0	-0.0507197036008852	-0.0271968459912176	0	0
0	0	0.497942593899666	-0.753988424987362	0	0	0.00165706532063063	0.0526300626757512
1.7	0.000409449374694434	-0.00477457312565602	0	0	0.290206807947498	-0.94322037130691	0	0
0	0	0.0151420595757359	0.00702011894569939	0	0	0.885239804048657	-0.34338988016343
0.290206807947498	-0.94322037130691	0	0	-0.000589571420274934	0.00483218748299757	0	0
0	0	-0.900684211089228	-0.111531325314148	0	0	0.0405847536131341	-0.030599897552199
1.8	-0.0033783403833299	0.00290569902541354	0	0	0.917571383242493	0.291431405609088	0	0
0	0	0.0449244009528811	0.0384023635533216	0	0	0.573904024008184	-0.745839248392328
0.917571383242493	0.291431405609088	0	0	0.00660053959098974	0.064787369259683	0	0
0	0	-0.309873586301811	-0.849683632924645	0	0	0.0279385252856863	-0.0342139966666205
1.9	0.00556565960558868	0.000135125258331774	0	0	0.320634474383097	-0.894227085204254	0	0
0	0	0.0523051806156236	-0.0037628978541497	0	0	-0.0838980739605596	0.941848449199559
0.320634474383097	-0.894227085204254	0	0	0.0096667801391297	0.00862086120365005	0	0
0	0	-0.615658763228227	0.64557555670306	0	0	0.0410787335560255	0.0234323803701932
2	-0.00611122928207106	-0.0039967830513353	0	0	0.891184947458459	0.351005683851062	0	0
0	0	0.0148087466095826	-0.00529429786554683	0	0	0.456949462767149	0.833748496752467
0.891184947458459	0.351005683851062	0	0	-0.0498955142879546	-0.0335931721631681	0	0
0	0	-0.844546825645946	-0.264647399851646	0	0	-0.0529452632481194	-0.0214658658338358
2.1	0.00473381737802117	0.00804292791690243	0	0	0.365828879740999	-0.898182504542756	0	0
0	0	-0.02923264415789	0.00733725293631916	0	0	-0.830275388870204	-0.453082194603787
0.365828879740999	-0.898182504542756	0	0	0.0706199691344602	0.0164219564411673	0	0
0	0	0.134683300169918	0.879957023375005	0	0	-0.00497725415164514	0.00960793500067458
2.2	-0.0011707701129694	-0.011671347395832	0	0	0.898730694650353	0.377669726562774	0	0
0	0	-0.0480087048220226	0.0166179460180532	0	0	-0.932974907911721	0.0679350922491193
0.898730694650353	0.377669726562774	0	0	0.0147534248058746	-0.0110519181798749	0	0
0	0	-0.738099978462712	0.505899638204977	0	0	0.0427869327102486	-0.011307549684578
2.3	-0.00400852384188411	0.0137628286897912	0	0	0.387314919993322	-0.889789423805026	0	0
0	0	-0.0302033961264402	0.0187954517553963	0	0	0.737798642451191	-0.55548809027698
0.387314919993322	-0.889789423805026	0	0	0.0581975083542085	-0.0290794589839098	0	0
0	0	0.776534359870111	0.433235811924853	0	0	0.0669173868552997	0.0465515322509443
2.4	0.0100253189026238	-0.0136240573497234	0	0	0.878279487578537	0.399072686080535	0	0
0	0	-0.000252046666235952	0.000686951109113175	0	0	0.324985024155097	-0.868513198621782
0.878279487578537	0.399072686080535	0	0	-0.0971377896066265	0.0133711183511877	0	0
0	0	-0.0396600776767717	0.883300012352061	0	0	0.0473191742803194	-0.0495386478619497
2.5	-0.0162705781199397	0.0107699994309833	0	0	0.415723643866544	-0.866845845238591	0	0
0	0	0.0195338495047398	-0.0361455572983317	0	0	0.189405346041985	0.918328469557469
0.415723643866544	-0.866845845238591	0	0	-0.0103997782636891	-0.0275323478318595	0	0
0	0	0.805672848286689	-0.332266991529078	0	0	0.0125593306799152	-0.00114563164560459
2.6	0.0216486031472952	-0.00563992232686579	0	0	0.859831125431874	0.429539856008786	0	0
0	0	0.0182111323726786	-0.0386889903080478	0	0	0.667601857797885	0.653829076564913
0.859831125431874	0.429539856008786	0	0	0.00518611044275016	-0.0338988936639042	0	0
0	0	0.630978799296735	0.597475829507864	0	0	0.0624867666411354	0.00970459536068531
2.7	-0.0252632482780551	-0.00127256202049967	0	0	0.443907855833424	-0.853798876607719	0	0
0	0	0.0212591525800715	-0.00937757301609035	0	0	-0.897770410757894	-0.173968783107797
0.443907855833424	-0.853798876607719	0	0	0.00282740534541078	-0.0132911950073873	0	0
0	0	0.275684731213019	-0.835758472118403	0	0	-0.0275786907278764	-0.00127877499619913
2.8	0.0258780515532142	0.00904971217479551	0	0	0.843185378206131	0.457291630329392	0	0
0	0	0.00941836943314165	0.0126824615405835	0	0	-0.842134203834012	0.312784891855655
0.843185378206131	0.457291630329392	0	0	0.00369267176956087	0.0635445608929152	0	0
0	0	0.871503188041365	-0.150396865087289	0	0	0.0258828225627363	-0.0641303770132606
2.9	-0.0228137720920487	-0.0168653451841221	0	0	0.473378445785884	-0.823898875469099	0	0
0	0	-0.000695534577111327	0.0363732072193914	0	0	0.567067998689064	-0.700559456010629
0.473378445785884	-0.823898875469099	0	0	-0.0539230668287397	0.03386515920263	0	0
0	0	-0.515099889410768	-0.702380875176618	0	0	-0.0403691769787254	-0.046344388201214
3	0.016993150610177	0.0239031161738147	0	0	0.814859455450712	0.497728823421441	0	0
0	0	-0.0116339195972545	0.0289457932540402	0	0	0.0918009611845476	-0.919719158020088
0.814859455450712	0.497728823421441	0	0	-0.00726117183404937	-0.0177692949330784	0	0
0	0	0.406525969422945	-0.760191425089528	0	0	0.0133564323715337	0.085616783014511
3.1	-0.0086880571982783	-0.0282578708874198	0	0	0.518752772737713	-0.80455118160626	0	0
0	0	-0.0208056353564572	0.0116691002354522	0	0	0.447433607023697	0.806278403501872
0.518752772737713	-0.80455118160626	0	0	0.0383737593159916	-0.0642986550549645	0	0
0	0	-0.868626712192653	-0.0505642575579158	0	0	-0.0754809978434496	0.00612401074375362
3.2	-0.000670717613130897	0.0299792070604403	0	0	0.802745614226784	0.542961826766841	0	0
0	0	-0.0181919479702452	-0.00667531670392386	0	0	0.79705633740472	0.437704018762057
0.802745614226784	0.542961826766841	0	0	0.000438045830268737	0.0253091519111377	0	0
0	0	-0.336346007240976	-0.813795800475071	0	0	-0.0592678304001023	0.00679376943173958
3.3	0.00979188554602265	-0.0276819517593253	0	0	0.554798650019478	-0.798548851454276	0	0
0	0	-0.00139012037955802	-0.024480457774143	0	0	-0.904398317238142	0.0489811746536957
0.554798650019478	-0.798548851454276	0	0	0.0617848056059554	0.0245642443220382	0	0
0	0	-0.575314427052822	0.674266359188086	0	0	-0.0270667534382028	-0.10678029028948
3.4	-0.0174586397365039	0.0216826017404151	0	0	0.781820915399472	0.56001124674173	0	0
0	0	-0.00422991186328109	-0.0410132612737589	0	0	-0.733511783676338	0.541515154812936
0.781820915399472	0.56001124674173	0	0	-0.114903133174169	0.00835637080712081	0	0
0	0	-0.856008173659633	-0.223734235819656	0	0	-0.0193709330011201	-0.0397532109973348
3.5	0.0228088189267323	-0.0139041433927827	0	0	0.574985510319781	-0.772804906858942	0	0
0	0	0.00830375831229527	-0.0306315701653012	0	0	0.298806792400037	-0.868393755365139
0.574985510319781	-0.772804906858942	0	0	-0.011910990522421	-0.05368149106068	0	0
0	0	0.166093513762537	0.843462328545172	0	0	0.08527539687653	-0.0722027644464219
3.6	-0.0247294538524686	0.00515104086767999	0	0	0.765923840046239	0.585246906853997	0	0
0	0	0.0201098350405012	0.00231372980194569	0	0	-0.208171939415172	-0.895020154311926
0.765923840046239	0.585246906853997	0	0	-0.0345881717701533	0.0602972854447536	0	0
0	0	-0.693930455188081	0.519353745268483	0	0	0.0449235882329471	-0.0314430162744246
3.7	0.0227044061460079	0.00423101311175808	0	0	0.604485310590526	-0.746088346486015	0	0
0	0	0.0144735941957751	0.0363589726186508	0	0	0.638750685483552	0.650324055277151
0.604485310590526	-0.746088346486015	0	0	0.118439001272183	0.00781763111506305	0	0
0	0	0.770478731575045	0.410996924763532	0	0	0.0556072138282696	-0.0189221734345994
3.8	-0.0176498951684808	-0.0120548435450676	0	0	0.740098563569066	0.623420382649177	0	0
0	0	0.0156321516275269	0.0507481224626157	0	0	0.871554403406364	0.187990580530314
0.740098563569066	0.623420382649177	0	0	-0.0255149185494404	0.0207917531261824	0	0
0	0	-0.0172335471561953	0.872062527657359	0	0	-0.058375896457306	-0.0255162447053007
3.9	0.010501852808076	0.0169316248081226	0	0	0.628291436052768	-0.739805135122114	0	0
0	0	0.011271613608585	0.0159480744159747	0	0	-0.825454683150366	0.326962327304331
0.628291436052768	-0.739805135122114	0	0	-0.0137545588355111	0.0835428969737743	0	0
0	0	0.784263037180063	-0.384960681821304	0	0	0.0248638609260299	-0.0056386009926433
4	-0.00185339797675561	-0.0184526034075455	0	0	0.72252215898672	0.636481913777589	0	0
0	0	-0.0168655365350025	-0.011933084647216	0	0	-0.517393585320397	0.725270200894884
0.72252215898672	0.636481913777589	0	0	0.0513372514759678	-0.0743524835166076	0	0
0	0	0.684647762600499	0.517304754574606	0	0	-0.00483332012701269	0.00961044783392751
4.1	-0.00612521855157573	0.0164530704772777	0	0	0.641877867922905	-0.710009729823219	0	0
0	0	-0.0419324297394466	-0.0350972421032067	0	0	0.0554505208293798	-0.893298719316643
0.641877867922905	-0.710009729823219	0	0	0.0252895323563195	-0.112218939934202	0	0
0	0	0.184504508858703	-0.829567556182591	0	0	0.0262686024489768	0.082271175956082
4.2	0.0125550012388033	-0.0117048838810527	0	0	0.705413895312919	0.653028303782654	0	0
0	0	-0.0494007198550181	-0.0152329847200573	0	0	-0.434197879178694	-0.781979104122899
0.705413895312919	0.653028303782654	0	0	-0.0402598047194325	0.0165205535478033	0	0
0	0	0.83286986549722	-0.185044485383406	0	0	-0.0118702319355433	-0.0414772419967611
4.3	-0.0162743353365258	0.00474185682632164	0	0	0.661520433471466	-0.699055389869657	0	0
0	0	-0.00783826732044244	0.00674498784550594	0	0	0.779827967583687	0.424153521329444
0.661520433471466	-0.699055389869657	0	0	-0.0110328057121285	0.0676297251871762	0	0
0	0	-0.535749535267408	-0.674312644352539	0	0	-0.0145078146828529	0.00242612311083889
4.4	0.0163649607325248	0.00344245476424073	0	0	0.682365791831739	0.670726981526278	0	0
0	0	0.0377949481176854	0.00418481463487904	0	0	0.88942911240088	-0.0546825615953
0.682365791831739	0.670726981526278	0	0	0.00120072110172582	-0.0504021076957997	0	0
0	0	0.345642097325427	-0.773714053747172	0	0	-0.0337404693334606	0.00335279301013673
4.5	-0.0127820786101103	-0.0108591965838375	0	0	0.676966397920155	-0.664299460859466	0	0
0	0	0.0646573504528238	-0.00478112359245339	0	0	-0.72252869217514	0.524703543137703
0.676966397920155	-0.664299460859466	0	0	-0.0500694739172612	0.0266510288690055	0	0
0	0	-0.83623347278136	0.0123650228007168	0	0	-0.0862024095085506	0.0623513155600029
4.6	0.00625953296061602	0.0165143889056528	0	0	0.646378813673804	0.691359819917863	0	0
0	0	0.0468888123925772	-0.0252214689221559	0	0	-0.312230964450379	0.845580032146633
0.646378813673804	0.691359819917863	0	0	-0.00404418500954083	0.0138323513887407	0	0
0	0	-0.373100144988668	-0.744914573149815	0	0	-0.0804559047256693	-0.00951150007582762
4.7	0.00184791021024338	-0.0191935568914105	0	0	0.708405713205031	-0.639482826441968	0	0
0	0	-0.0241116921540345	-0.00549816811782388	0	0	-0.19239505718794	-0.874298541269779
0.708405713205031	-0.639482826441968	0	0	0.0654504613270576	-0.0179661341860087	0	0
0	0	-0.523808104523476	0.656883163623105	0	0	-0.0731969166658348	0.0725094742392026
4.8	-0.0104122266654547	0.0183468885719606	0	0	0.639427179720307	0.724149376093639	0	0
0	0	-0.0581998645609459	0.0343597824124379	0	0	-0.60835140141928	-0.634294514503331
0.639427179720307	0.724149376093639	0	0	0.0527695853898707	-0.0186292538367224	0	0
0	0	-0.828382006555947	-0.196031608117159	0	0	-0.00905436332157142	0.0718216707405201
4.9	0.017941511787465	-0.013180550007962	0	0	0.729884040180098	-0.631050895392822	0	0
0	0	-0.0395051179825754	0.058861129219089	0	0	0.854795928212207	0.205772203057519
0.729884040180098	-0.631050895392822	0	0	-0.0811741828889161	-0.0286884119070722	0	0
0	0	0.200339628547212	0.82109949801898	0	0	-0.0837257426401553	0.00397172046558124
5	-0.0226487720482547	0.00505211718685545	0	0	0.619600989158461	0.725263574301798	0	0
0	0	-0.000395475511443889	0.0206983939311461	0	0	0.830493003921252	-0.299376814265503
0.619600989158461	0.725263574301798	0	0	-0.0477347703617879	0.040910101748249	0	0
0	0	-0.644354866086503	0.534649546598496	0	0	0.0412213509735032	-0.00932406664205116
5.1	0.0241669251180574	0.00481301353962625	0	0	0.726592690299964	-0.60661303011885	0	0
0	0	0.0380585018871159	-0.0331543953152087	0	0	-0.532422413735566	0.695736368631454
0.726592690299964	-0.60661303011885	0	0	-0.0219982482323284	-0.0411888191363585	0	0
0	0	0.749940847823135	0.344007100286454	0	0	0.0721735969046674	-0.0198787060287541
5.2	-0.0217455758480528	-0.0158477007110718	0	0	0.583854392733392	0.744545199013895	0	0
0	0	0.0154436167640687	-0.0741227461862782	0	0	-0.0784102490382776	0.871309393402446
0.583854392733392	0.744545199013895	0	0	0.0380214165328766	0.0225395509695682	0	0
0	0	0.0154520249363455	0.831916838761948	0	0	0.0264673405237102	0.066337664062876
5.3	0.0153943045708792	0.025465306618643	0	0	0.763447781937283	-0.571417997712258	0	0
0	0	-0.0148841988424762	-0.0413436530313847	0	0	-0.411676849634024	-0.770708095415627
0.763447781937283	-0.571417997712258	0	0	-0.0321282545573231	0.024904412744117	0	0
0	0	0.742705949574447	-0.373754395165837	0	0	-0.0435865263022024	0.0119663198885856
5.4	-0.00623296370956902	-0.0315786480945373	0	0	0.562962960361541	0.769130110256039	0	0
0	0	-0.0318965988642179	0.0143817189694823	0	0	-0.766528678504862	-0.428934389473679
0.562962960361541	0.769130110256039	0	0	0.0702382169248442	0.0878651191657851	0	0
0	0	0.656613895501798	0.510399436638921	0	0	-0.00963996043229275	0.0219359466017891
5.5	-0.00458346182864089	0.0340784360123272	0	0	0.780594674459324	-0.560186230018744	0	0
0	0	0.0229001398204778	0.0596560351044618	0	0	0.877452720725795	-0.04299945160974
0.780594674459324	-0.560186230018744	0	0	-0.00642893302368545	-0.0275242549624477	0	0
0	0	0.159065236381257	-0.816524415524331	0	0	0.0213757722738531	0.0387041023274813
5.6	0.0160799523047213	-0.0315232552205247	0	0	0.546244481201222	0.786883842599187	0	0
0	0	0.0423477942430119	0.0562006457601331	0	0	0.699734486157597	-0.507236753446836
0.546244481201222	0.786883842599187	0	0	0.00236521839964682	-0.10945964520421	0	0
0	0	0.800783672702219	-0.200508526446557	0	0	0.0104678943012244	0.11785160647654
5.7	-0.0268083170791571	0.0248716587140913	0	0	0.800667179145702	-0.538139404741741	0	0
0	0	0.0209226536634402	-0.00741687552577219	0	0	-0.32028157374457	0.807846419555222
0.800667179145702	-0.538139404741741	0	0	-0.012237308411444	0.0517937220932572	0	0
0	0	-0.535310886089063	-0.651120719519646	0	0	0.0585076861239849	0.0350610045361792
5.8	0.0337262826865497	-0.0142964467193921	0	0	0.521228711595513	0.801161566696019	0	0
0	0	-0.021564885544439	-0.0316839562195157	0	0	0.153874561350446	0.855979707570161
0.521228711595513	0.801161566696019	0	0	0.0593428351718242	-0.0270109183321932	0	0
0	0	0.326563183984435	-0.772011188211765	0	0	0.0336892079688193	0.0561140706524283
5.9	-0.0369120311495657	0.00126672475994059	0	0	0.815402903184525	-0.4985140923522	0	0
0	0	-0.0556236748798961	-0.026915634307932	0	0	-0.586009564050789	-0.640808530335135
0.815402903184525	-0.4985140923522	0	0	-0.0739357284334518	0.0437287780585036	0	0
0	0	-0.829738066679413	0.0584215049289544	0	0	0.037136362031203	0.0732648106844994
6	0.0355714932414968	0.0115460120073019	0	0	0.483287159142789	0.829078497275936	0	0
0	0	-0.0335579999260347	0.00593860682792819	0	0	-0.850862531862752	-0.196567463159895
0.483287159142789	0.829078497275936	0	0	-0.00298415459768998	0.0243258790546035	0	0
