# GHZ S RI R 50
0.2	-0.0060118814789881	0.00792330611675176	0	0	0.958093746590086	0.0578418715224595	0	0
0	0	0.0225658124388915	0.00346081788211331	0	0	-0.370262275031357	0.911207198347055
0.958093746590086	0.0578418715224595	0	0	0.0209620059270774	0.0460441306228815	0	0
0	0	0.569488578816584	-0.754160997004754	0	0	0.00141392682054646	-0.0277146818772502
0.3	0.00708471939780333	-0.00888700349524261	0	0	0.0331796817938339	-0.965252131464717	0	0
0	0	-0.00425289902242259	0.00143633676295405	0	0	-0.134551124744629	-0.974274942070008
0.0331796817938339	-0.965252131464717	0	0	-0.0132319063870983	0.00704542804600957	0	0
0	0	-0.922207471207087	-0.201905320456102	0	0	-0.0317514461254017	-0.0148081333233768
0.4	-0.0086437605582181	0.00788281647026522	0	0	0.948586391587065	0.0615182773212905	0	0
0	0	-0.039492048071324	0.000931333866197389	0	0	-0.667524250504436	-0.725467297961759
0.948586391587065	0.0615182773212905	0	0	-0.0331375271254455	-0.0125725135424555	0	0
0	0	-0.23564367530083	-0.895723734887996	0	0	0.0227074218676313	0.0211063831383597
0.5	0.0103250310666663	-0.00498334328715372	0	0	0.127117059695824	-0.948857178100828	0	0
0	0	-0.0339526846629511	0.00496825771904613	0	0	0.964019405690055	0.206512296738098
0.127117059695824	-0.948857178100828	0	0	0.0375640261772948	0.0170918521960456	0	0
0	0	-0.678176258661245	0.637010327750175	0	0	0.00597639074713112	0.00813274369415854
0.6	-0.0103909066709648	0.00185105305916015	0	0	0.95483161060058	0.130484914068617	0	0
0	0	-0.00989161027829692	0.00602034112430686	0	0	0.912143753831473	-0.330032064087109
0.95483161060058	0.130484914068617	0	0	0.00531951837140793	-0.0195810436494637	0	0
0	0	-0.861895610788893	-0.344104585413946	0	0	-0.00492753913593251	-0.00707611811037451
0.7	0.0098801627645687	0.00152959179976482	0	0	0.108188070278736	-0.95726212567509	0	0
0	0	0.0209491854233158	-0.0113772196242074	0	0	-0.610321532711775	0.748410234156859
0.108188070278736	-0.95726212567509	0	0	0.00809454923371104	0.00991242112476989	0	0
0	0	0.0465094429221201	0.919855295318285	0	0	0.00231074778531074	-0.0128215034239573
0.8	-0.00902423804380611	-0.00522806360560457	0	0	0.954487820642835	0.112897196059022	0	0
0	0	0.0427516157303445	-0.0424155792844787	0	0	-0.119900766749319	0.960389586440245
0.954487820642835	0.112897196059022	0	0	-0.0226934325617887	0.0130753427422381	0	0
0	0	-0.810877207143955	0.448804640173555	0	0	0.00660152513866154	0.0836197457687629
0.9	0.00687433461554754	0.00804706935910907	0	0	0.14430657490617	-0.939159860779865	0	0
0	0	0.0122761478883178	-0.0282923027686749	0	0	-0.434691344789047	-0.865261924031413
0.14430657490617	-0.939159860779865	0	0	-0.00229351433880352	-0.0611096149333403	0	0
0	0	0.763890397326737	0.524351776340463	0	0	0.0362110130929488	0.0143916268008574
1	-0.00401300471838376	-0.00932774794938951	0	0	0.942003250800186	0.181114100274969	0	0
0	0	-0.014731986210165	0.0114430649839881	0	0	-0.8379896711414	-0.480694728249134
0.942003250800186	0.181114100274969	0	0	0.00282147223170325	0.0428365137557002	0	0
0	0	-0.125839304236898	0.902045033946721	0	0	0.00351379810818669	0.00295003677076258
1.1	0.000730754518975359	0.00860445413064256	0	0	0.201174672262443	-0.948867089221473	0	0
0	0	-0.0114224302966688	0.0349362683975052	0	0	0.955769396127478	-0.0513044181058832
0.201174672262443	-0.948867089221473	0	0	0.00392936561202268	0.00278400403626344	0	0
0	0	0.868367354828596	-0.260399965838077	0	0	0.00944799962141778	0.0438652565934242
1.2	0.00236959755288553	-0.00644334644832933	0	0	0.958603548610667	0.202505854736881	0	0
0	0	0.00922343358906033	0.0648271028898847	0	0	0.770548659268055	-0.55445242173572
0.958603548610667	0.202505854736881	0	0	0.0543509545440812	0.000300665266155336	0	0
0	0	0.613610596997273	0.670988745496915	0	0	0.00809378304219084	0.100295145451068
1.3	-0.00471136805527399	0.0031852769073813	0	0	0.205294385241173	-0.942351318549366	0	0
0	0	0.016715619856465	0.0195729996281055	0	0	-0.354893582891598	0.882732760634956
0.205294385241173	-0.942351318549366	0	0	-0.0531370188888093	0.00107474517902015	0	0
0	0	0.321957114483422	-0.858783300650949	0	0	0.0414373527385208	0.0148785390505438
1.4	0.00553030481461835	0.000465322383950376	0	0	0.924343072025417	0.233724823631316	0	0
0	0	-0.012997541015552	-0.0429546012138274	0	0	0.179315581804783	0.936990351873615
0.924343072025417	0.233724823631316	0	0	0.018180862676256	0.00845100026004287	0	0
0	0	0.898423828047797	-0.0838067514862837	0	0	0.0456854961301144	-0.00625436397566116
1.5	-0.00474405459294868	-0.00340602646760264	0	0	0.271219429171047	-0.922505177615742	0	0
0	0	-0.0383052968142336	-0.055540037493011	0	0	-0.674207594385428	-0.675455146866062
0.271219429171047	-0.922505177615742	0	0	0.0340193154688303	-0.0325992595324766	0	0
0	0	-0.460994844482736	-0.767391631764808	0	0	0.034261680197347	0.0521209012089171
1.6	0.00277843286122093	0.00481892218860166	0	0	0.937362343484999	0.295235987410646	0	0
0	0	-0.0366730706840028	-0.0188867121580396	0	0	-0.936596410570212	-0.184187525146356
0.937362343484999	0.295235987410646	0	0	-0.0506527583347673	-0.0270036753320312	0	0
0	0	0.497731225084072	-0.753548039661082	0	0	0.00178404047011528	0.0522122638202176
1.7	0.000154534225329481	-0.00444029803706159	0	0	0.290196910608077	-0.943116650373346	0	0
0	0	0.0149671078185068	0.00678980254143086	0	0	0.884882656320686	-0.343068213747894
0.290196910608077	-0.943116650373346	0	0	-0.000498351000490318	0.00498738327606072	0	0
0	0	-0.900237955531713	-0.111640501450312	0	0	0.0405676893977358	-0.0309004579923255
1.8	-0.00326603381726383	0.00259800589809378	0	0	0.91748731101208	0.291397129381628	0	0
0	0	0.044862291619335	0.0381551154766978	0	0	0.573848112894587	-0.745404098245068
0.91748731101208	0.291397129381628	0	0	0.0067107653257097	0.0648747724522193	0	0
0	0	-0.309549215893261	-0.849414261401815	0	0	0.0278477086113468	-0.0344397975114929
1.9	0.00550457804491644	0.000341903376703532	0	0	0.320604522174048	-0.89411893071994	0	0
0	0	0.0523691648144804	-0.00396060490561721	0	0	-0.0841042591233415	0.941502733771713
0.320604522174048	-0.89411893071994	0	0	0.00976546204393959	0.00867120015845911	0	0
0	0	-0.615607625522551	0.645199258913326	0	0	0.0409236390900724	0.0232652574432019
2	-0.00600854341440326	-0.00411738780434988	0	0	0.891085284486347	0.351006409285455	0	0
0	0	0.0149780403011648	-0.00539018280016917	0	0	0.456646069531588	0.833580352833166
0.891085284486347	0.351006409285455	0	0	-0.0498107482414883	-0.0335623115531074	0	0
0	0	-0.844234757518746	-0.264730316442485	0	0	-0.0529943096454771	-0.0215779935676153
2.1	0.00454332360858631	0.0081623713123202	0	0	0.365821517507368	-0.898152692541768	0	0
0	0	-0.0290014383359961	0.00737521041648789	0	0	-0.829931798471681	-0.453088794162164
0.365821517507368	-0.898152692541768	0	0	0.070665323897376	0.0164565868333442	0	0
0	0	0.134482294638081	0.879703632867429	0	0	-0.00502806212770016	0.00950448650786005
2.2	-0.000946729758862472	-0.0118769850073466	0	0	0.89874333543431	0.377634530833333	0	0
0	0	-0.0477841209931753	0.0167797507158059	0	0	-0.932688671614077	0.0677348443513092
0.89874333543431	0.377634530833333	0	0	0.0148086899337306	-0.0109966376993425	0	0
0	0	-0.737960017717132	0.505596198577064	0	0	0.0427165036991485	-0.0114198489509665
2.3	-0.00414857942049346	0.0140420241636299	0	0	0.387198077811199	-0.889818837678784	0	0
0	0	-0.0300486205406078	0.0190222737747007	0	0	0.737673641920827	-0.555145215433932
0.387198077811199	-0.889818837678784	0	0	0.0582837093846548	-0.0290237867626556	0	0
0	0	0.776183759956229	0.433259321472139	0	0	0.0667481756367427	0.0463693777941376
2.4	0.0100296077352304	-0.013859765779681	0	0	0.87830765656986	0.39893031243596	0	0
0	0	-0.000204402203451221	0.000906798636869617	0	0	0.325046809038041	-0.868197574797474
0.87830765656986	0.39893031243596	0	0	-0.0969756726884479	0.0134503582474341	0	0
0	0	-0.0398088409638395	0.883031858591982	0	0	0.0470952008930505	-0.0496671485205255
2.5	-0.0162138593712014	0.0108543399165858	0	0	0.415530738105858	-0.866814319752518	0	0
0	0	0.0194636515421531	-0.0360134627839624	0	0	0.189214946886636	0.918062879864579
0.415530738105858	-0.866814319752518	0	0	-0.0102152997139798	-0.0275211689569592	0	0
0	0	0.805463368465175	-0.332047059852782	0	0	0.0122398943661734	-0.00125418611628542
2.6	0.0216557436535663	-0.00557768026039965	0	0	0.859762073534325	0.429335730112547	0	0
0	0	0.018066891528355	-0.0386962924690796	0	0	0.667280077280283	0.65366092830812
0.859762073534325	0.429335730112547	0	0	0.00537827703813733	-0.0339450147086157	0	0
0	0	0.630676973199368	0.597324524678787	0	0	0.0620748633765675	0.00969034231587294
2.7	-0.0253818470909281	-0.00138892065509304	0	0	0.443695781029415	-0.85369537575901	0	0
0	0	0.0211154709263215	-0.00952444574146642	0	0	-0.897360221377541	-0.17397313696265
0.443695781029415	-0.85369537575901	0	0	0.00301724933360805	-0.0133835747778746	0	0
0	0	0.275638803837914	-0.835366379150005	0	0	-0.0279218233316626	-0.00122405362283038
2.8	0.0260633333711395	0.00917243709210576	0	0	0.843027813665259	0.457092895867209	0	0
0	0	0.00935974693740134	0.0124410611026855	0	0	-0.841764807787267	0.312524420065992
0.843027813665259	0.457092895867209	0	0	0.00388012527980011	0.0633909070829386	0	0
0	0	0.871098617738553	-0.150211604213069	0	0	0.0255259816393775	-0.0639467575751305
2.9	-0.0230488793310142	-0.0170283830478433	0	0	0.473205832115955	-0.823653565762598	0	0
0	0	-0.000589165587438359	0.0361092549821227	0	0	0.566845495778923	-0.700116559764031
0.473205832115955	-0.823653565762598	0	0	-0.0537398988365415	0.0337110283052453	0	0
0	0	-0.514740764588315	-0.702063921523417	0	0	-0.0406128074404252	-0.0461506021788727
3	0.0173444203227678	0.0241114285539992	0	0	0.814568168524721	0.497607221811662	0	0
0	0	-0.0113421239594912	0.0287326402857395	0	0	0.0918616410554742	-0.919090555430096
0.814568168524721	0.497607221811662	0	0	-0.00715015180655142	-0.017900683678639	0	0
0	0	0.406354520615262	-0.759627921111938	0	0	0.0130863408175397	0.0856941079996111
3.1	-0.00919328448751957	-0.0284230886431616	0	0	0.518675244962839	-0.804248135722514	0	0
0	0	-0.0203652485431036	0.0115757003285373	0	0	0.446990933666605	0.805773462105156
0.518675244962839	-0.804248135722514	0	0	0.0384171984172282	-0.0643902322042945	0	0
0	0	-0.8680006751195	-0.0506620846702163	0	0	-0.0755183480031815	0.00627091297449182
3.2	-6.37675168456325E-05	0.0300103777969426	0	0	0.802426266297634	0.543006114212134	0	0
0	0	-0.0176992140509428	-0.00658007884604422	0	0	0.796321876297146	0.437563193284425
0.802426266297634	0.543006114212134	0	0	0.000434803605559335	0.0252044551290897	0	0
0	0	-0.335876893228868	-0.813244102505075	0	0	-0.0592259485652724	0.00689445227357629
3.3	0.00920668794662061	-0.0275711060153936	0	0	0.554872899817152	-0.798241042550674	0	0
0	0	-0.000962353964467505	-0.0242047072689002	0	0	-0.903757325533831	0.0486015385837876
0.554872899817152	-0.798241042550674	0	0	0.061729481324415	0.0245467327449592	0	0
0	0	-0.575151225444968	0.67355581447343	0	0	-0.0269336684901371	-0.106568555945585
3.4	-0.0169641839666981	0.0215296752126756	0	0	0.781419099928176	0.560225091411576	0	0
0	0	-0.0039810035821973	-0.0405985986006926	0	0	-0.733225043128459	0.540756011285561
0.781419099928176	0.560225091411576	0	0	-0.114871526669721	0.00826993604325693	0	0
0	0	-0.855260192156516	-0.223980497804319	0	0	-0.0192862023322615	-0.0397127507048253
3.5	0.0223300088885512	-0.0137863457510363	0	0	0.575232633572606	-0.77240064582949	0	0
0	0	0.00831114120200827	-0.0301658925687343	0	0	0.299137024416585	-0.867615414508618
0.575232633572606	-0.77240064582949	0	0	-0.0118531890273451	-0.0536442804430745	0	0
0	0	0.165460449393564	0.842987327591637	0	0	0.0852293215231672	-0.0720373867024208
3.6	-0.024202586291982	0.00502105395590695	0	0	0.765587286496346	0.585639301725319	0	0
0	0	0.0198493588873266	0.00274118632288678	0	0	-0.207427936254017	-0.894561503558729
0.765587286496346	0.585639301725319	0	0	-0.0346248388282582	0.0602798653246755	0	0
0	0	-0.69381666221669	0.518537227414983	0	0	0.0448690087395643	-0.0313784439746636
3.7	0.0221464352845782	0.00444507898018184	0	0	0.604831269625281	-0.745827759163633	0	0
0	0	0.0140152346127707	0.0366341369476308	0	0	0.637861502132159	0.650431793326042
0.604831269625281	-0.745827759163633	0	0	0.11846081713338	0.0079385021091677	0	0
0	0	0.769696988862782	0.411350653296771	0	0	0.0555245528178611	-0.0188233369023891
3.8	-0.0171725812631624	-0.0123850953178522	0	0	0.739831651709649	0.623863363201793	0	0
0	0	0.0151376758035826	0.0508341494616899	0	0	0.870986474915326	0.188579906381497
0.739831651709649	0.623863363201793	0	0	-0.0255269590594669	0.0207506309504639	0	0
0	0	-0.0179057952997946	0.87162761618187	0	0	-0.0583087343579972	-0.0255583838614434
3.9	0.0102029267511621	0.0172667195563802	0	0	0.628748583233572	-0.739558488545736	0	0
0	0	0.0108632974573108	0.015842788221305	0	0	-0.825479173260456	0.326180157539503
0.628748583233572	-0.739558488545736	0	0	-0.0138517080905052	0.0835090804668329	0	0
0	0	0.784347927728569	-0.3841953398465	0	0	0.0248563752885552	-0.00553702070114191
4	-0.00165580536790368	-0.0186428149613118	0	0	0.722199250620043	0.636977643960899	0	0
0	0	-0.0170792318672818	-0.0122036066248143	0	0	-0.517833531123699	0.724767335535187
0.722199250620043	0.636977643960899	0	0	0.0514102465045292	-0.0743467685922571	0	0
0	0	0.684151978276088	0.517715069099014	0	0	-0.00481123733042416	0.0096736443004783
4.1	-0.00635883148056815	0.016514485216518	0	0	0.642456046424315	-0.709723269418833	0	0
0	0	-0.0418917180188827	-0.0354491657188345	0	0	0.0560128891378278	-0.893133284228216
0.642456046424315	-0.709723269418833	0	0	0.0253979244788486	-0.112263601419032	0	0
0	0	0.185007395264903	-0.829328986762534	0	0	0.0262266612239418	0.0823489883789274
4.2	0.012861598354611	-0.0117544165827249	0	0	0.705233561284182	0.653690662256723	0	0
0	0	-0.0491430303456172	-0.0155371416765611	0	0	-0.433737979102226	-0.782153685772196
0.705233561284182	0.653690662256723	0	0	-0.0403587561043447	0.0164719417733616	0	0
0	0	0.832904819414419	-0.184576559247966	0	0	-0.0117429508826055	-0.0414543086123303
4.3	-0.0165505339125403	0.00483150027086649	0	0	0.662146115398232	-0.698978132185639	0	0
0	0	-0.00747242443740817	0.00660189344673951	0	0	0.779552750177125	0.424532305883399
0.662146115398232	-0.698978132185639	0	0	-0.0111348831031101	0.0676840145851756	0	0
0	0	-0.535360204625594	-0.674546653701336	0	0	-0.0144725664906609	0.00240300191300191
4.4	0.0165368782654259	0.00340975912366697	0	0	0.68228135542772	0.671261663757585	0	0
0	0	0.0381273084577966	0.00425979530570998	0	0	0.889447240879297	-0.0542636237322284
0.68228135542772	0.671261663757585	0	0	0.00127776681322125	-0.0504128021430213	0	0
0	0	0.346003171613777	-0.773544820732425	0	0	-0.0337894133171946	0.00328843223925269
4.5	-0.01291218492501	-0.0109940910648432	0	0	0.677459666938068	-0.664172430431915	0	0
0	0	0.0648249318566077	-0.00448993314986282	0	0	-0.722728213191785	0.524457934345791
0.677459666938068	-0.664172430431915	0	0	-0.0500304193359433	0.0266130553779248	0	0
0	0	-0.836253881332172	0.0120693561327926	0	0	-0.0864046044011791	0.0622880975927232
4.6	0.00648247918754188	0.0168131684652089	0	0	0.646209968551248	0.691846692266835	0	0
0	0	0.0468244468522495	-0.0247960050917777	0	0	-0.312459395964223	0.84553852612636
0.646209968551248	0.691846692266835	0	0	-0.00391946097817048	0.0137752852756657	0	0
0	0	-0.372927807597565	-0.745042436223152	0	0	-0.0806850365711485	-0.00948138727344104
4.7	0.00145887138760795	-0.0195448711711652	0	0	0.708883858416708	-0.639313971663759	0	0
0	0	-0.0244371756827922	-0.00508348256010697	0	0	-0.192228696698029	-0.874276729946465
0.708883858416708	-0.639313971663759	0	0	0.0656486216243437	-0.0180437228117592	0	0
0	0	-0.523890498886465	0.656748975211393	0	0	-0.0734782870686068	0.0726596683770173
4.8	-0.00992068088938226	0.0186414962764967	0	0	0.639212318397415	0.724612371418243	0	0
0	0	-0.0587112119999633	0.0345856778651746	0	0	-0.608140757750544	-0.634353817438317
0.639212318397415	0.724612371418243	0	0	0.0529401518850742	-0.0187837131349249	0	0
0	0	-0.828241853266106	-0.196190613473163	0	0	-0.00933630871083518	0.0720736155675241
4.9	0.0174561314478332	-0.0134536138238377	0	0	0.730363867226745	-0.630679624109665	0	0
0	0	-0.0400610791090434	0.0588141503915046	0	0	0.854701535163759	0.205896625059476
0.730363867226745	-0.630679624109665	0	0	-0.0810683091538286	-0.0290320285666406	0	0
0	0	0.200191750375481	0.821073585156433	0	0	-0.0839196728896851	0.00427382021087936
5	-0.0221372839263954	0.00537776853880105	0	0	0.619160039592312	0.725832162038628	0	0
0	0	-0.00086765010589057	0.0203411967161992	0	0	0.830485323409583	-0.299161278729556
0.619160039592312	0.725832162038628	0	0	-0.0477562554341274	0.0405906966556	0	0
0	0	-0.644417463984647	0.534454809120892	0	0	0.0410768649643246	-0.00892632143863675
5.1	0.0235259558016373	0.00448179221471159	0	0	0.727223328351027	-0.606107927807471	0	0
0	0	0.037790716872557	-0.0337515179184639	0	0	-0.53251306096344	0.695500252991263
0.727223328351027	-0.606107927807471	0	0	-0.0219459257106029	-0.0415118871272851	0	0
0	0	0.749742881753065	0.344139558757571	0	0	0.0721114396679177	-0.0194400335608259
5.2	-0.0210077462032723	-0.0156274132354737	0	0	0.583407458047642	0.745306911809353	0	0
0	0	0.0154411747798382	-0.074818626784103	0	0	-0.0786245491018729	0.871023311308897
0.583407458047642	0.745306911809353	0	0	0.0379252801898795	0.0223755011375316	0	0
0	0	0.0152199803428118	0.831668373099214	0	0	0.026491942909018	0.0666945951651087
5.3	0.0147103378449187	0.025403039710739	0	0	0.764312610386037	-0.570949761567704	0	0
0	0	-0.0146287780244314	-0.0419369894572332	0	0	-0.411312616695503	-0.770639737661624
0.764312610386037	-0.570949761567704	0	0	-0.0323429693346582	0.0246851907013807	0	0
0	0	0.742632478028215	-0.373409490982463	0	0	-0.0433931003070986	0.0122243251362765
5.4	-0.00572907472282795	-0.0315458825037403	0	0	0.562548659301397	0.77000921605399	0	0
0	0	-0.0314387443389493	0.014062385907624	0	0	-0.766195138997081	-0.42921585158052
0.562548659301397	0.77000921605399	0	0	0.069985323052791	0.0879775991835986	0	0
0	0	0.656261693405922	0.510615534419832	0	0	-0.00944076977012459	0.0220974249475778
5.5	-0.00499817402362119	0.0339012912989344	0	0	0.781547092378051	-0.559654087288734	0	0
0	0	0.0234341315782188	0.0597025071342647	0	0	0.877427156798581	-0.042546253883209
0.781547092378051	-0.559654087288734	0	0	-0.00650446674808233	-0.027612179674288	0	0
0	0	0.159476152237009	-0.816398333826315	0	0	0.0215101835322353	0.0388197525036849
5.6	0.0165857038775498	-0.0311990145704912	0	0	0.545664129693471	0.787912827431337	0	0
0	0	0.0428028195702796	0.0565971865139875	0	0	0.699960729138162	-0.50689418720041
0.545664129693471	0.787912827431337	0	0	0.00252775078531693	-0.109637719154006	0	0
0	0	0.800862261360415	-0.200124350916714	0	0	0.0104665869475828	0.117975356406241
5.7	-0.0275010069865431	0.0245658938616648	0	0	0.801969936604626	-0.537630161929631	0	0
0	0	0.0211955081038157	-0.00675873943108544	0	0	-0.320723076536479	0.807782133403994
0.801969936604626	-0.537630161929631	0	0	-0.0124608877076166	0.0517455462769492	0	0
0	0	-0.535049041509926	-0.651465274124935	0	0	0.0585870019497392	0.0353282314087092
5.8	0.0344690786067629	-0.0142043053999681	0	0	0.520824956576189	0.802492343197336	0	0
0	0	-0.0215401599226054	-0.0309775923455699	0	0	0.153492002546803	0.856206780383711
0.520824956576189	0.802492343197336	0	0	0.0593572401178635	-0.0270970077893812	0	0
0	0	0.326991580424047	-0.771993026354992	0	0	0.0338541235406126	0.0564813769747654
5.9	-0.0374858902773722	0.00135275409402941	0	0	0.81689849944093	-0.498202942967244	0	0
0	0	-0.0558378449698291	-0.026360407115467	0	0	-0.585882824141472	-0.641276134062557
0.81689849944093	-0.498202942967244	0	0	-0.0744971208944361	0.0434918053155902	0	0
0	0	-0.830013587580845	0.0580480693566104	0	0	0.0375068365829014	0.0736874922822412
6	0.0358652067056271	0.0114699422196932	0	0	0.483062764818786	0.830566332689352	0	0
0	0	-0.033928900530818	0.00619658130208836	0	0	-0.851171374011093	-0.196914476240687
0.483062764818786	0.830566332689352	0	0	-0.00347330848023996	0.0242846791251044	0	0
