# GHZ S RI R 50
0.2	-0.00690392163279883	0.0125087125320585	0	0	0.95767752534641	0.0584710462036577	0	0
0	0	0.0183760399264742	0.00550523760167092	0	0	-0.37072457266209	0.910930168530974
0.95767752534641	0.0584710462036577	0	0	0.0213455098375149	0.0395526165750912	0	0
0	0	0.569849104417704	-0.75378928212531	0	0	0.00181829509442982	-0.0342751508380478
0.3	0.00670523698637682	-0.0108697912877639	0	0	0.0341796040242883	-0.965066119848533	0	0
0	0	-0.00619848349536875	0.00174195694445975	0	0	-0.133591572060245	-0.974192658255505
0.0341796040242883	-0.965066119848533	0	0	-0.0146155846649653	0.00260985685912206	0	0
0	0	-0.921815132554253	-0.202742356772275	0	0	-0.0332119239850285	-0.0193242202960191
0.4	-0.00893079211509622	0.00786893363000204	0	0	0.948538672333489	0.0630513630746205	0	0
0	0	-0.03935030330934	0.000684902691265218	0	0	-0.666333948755595	-0.726516876210901
0.948538672333489	0.0630513630746205	0	0	-0.0350571897237898	-0.0151715445005432	0	0
0	0	-0.234194083852786	-0.896072450517608	0	0	0.020531424149197	0.0186856288319434
0.5	0.0119113841714412	-0.00400744776727444	0	0	0.129161108040562	-0.948929730599168	0	0
0	0	-0.0321997433618546	0.00459492847388042	0	0	0.963978787056283	0.20867429171563
0.129161108040562	-0.948929730599168	0	0	0.0358740869891649	0.0162212884880582	0	0
0	0	-0.679831887436742	0.635817218517622	0	0	0.00417951334933596	0.0071647846867266
0.6	-0.0133189281441974	0.00123721280857279	0	0	0.95543956168138	0.13319998552356	0	0
0	0	-0.00713773578822436	0.00610772254351244	0	0	0.91401628195039	-0.328016483366833
0.95543956168138	0.13319998552356	0	0	0.00457332863808387	-0.0198889176071134	0	0
0	0	-0.861952471059984	-0.346736112947473	0	0	-0.00582754250763152	-0.00736970356826073
0.7	0.0132535616938477	0.000773333602865943	0	0	0.111194916936006	-0.958651108343059	0	0
0	0	0.0239474568190231	-0.0105496233454822	0	0	-0.613618072084152	0.748109398132078
0.111194916936006	-0.958651108343059	0	0	0.00800226875724954	0.00972482818685878	0	0
0	0	0.0439840340484597	0.921749852549638	0	0	0.00230394736130487	-0.0131409830499785
0.8	-0.0117322246585953	-0.0034046365403519	0	0	0.956839386445037	0.116011900061201	0	0
0	0	0.0453831907485257	-0.0411083967336262	0	0	-0.122690278368721	0.962569069430481
0.956839386445037	0.116011900061201	0	0	-0.0225309164964758	0.0122462601558587	0	0
0	0	-0.814137048596606	0.447874880181358	0	0	0.00650503451703327	0.0832377154273985
0.9	0.00842960272637677	0.0061474354005732	0	0	0.147514498415141	-0.9424787477511	0	0
0	0	0.0140730528636267	-0.0269659694261048	0	0	-0.434030504080454	-0.869500138948819
0.147514498415141	-0.9424787477511	0	0	-0.00174056184270395	-0.0630259762614288	0	0
0	0	0.765293961534128	0.528208692384813	0	0	0.0364717024147601	0.0130942780186662
1	-0.00467602168807085	-0.00816498205234282	0	0	0.946021975475101	0.183955608072352	0	0
0	0	-0.0140396801885416	0.0123691513401023	0	0	-0.840808333453444	-0.484568423312634
0.946021975475101	0.183955608072352	0	0	0.00222662743638441	0.0413841614714958	0	0
0	0	-0.12823672907932	0.905872678668993	0	0	0.00277392047825621	0.00100828248522448
1.1	0.00125987675174755	0.00867213244572421	0	0	0.20340050940639	-0.953772286482823	0	0
0	0	-0.011783768250137	0.0351157927934626	0	0	0.960891533232886	-0.0503552832215672
0.20340050940639	-0.953772286482823	0	0	0.00258856521558723	0.0010085945587768	0	0
0	0	0.873294106320271	-0.260668694327142	0	0	0.00760519543350479	0.0426177089871628
1.2	0.00101664926627969	-0.00742241658372391	0	0	0.964064479478425	0.203729450075493	0	0
0	0	0.00820688787346248	0.0640640248252405	0	0	0.775240189584374	-0.55759031228174
0.964064479478425	0.203729450075493	0	0	0.0528286437875283	-0.000963730509310416	0	0
0	0	0.617120270082555	0.675100708904004	0	0	0.00547787789115948	0.100586499856095
1.3	-0.0025031189093015	0.00415801623791652	0	0	0.205510860920692	-0.94824168392745	0	0
0	0	0.0156583584018593	0.0179909128616795	0	0	-0.356301953191645	0.888427122411752
0.205510860920692	-0.94824168392745	0	0	-0.0562486196882558	0.00054881759154821	0	0
0	0	0.323184970128266	-0.8643031434294	0	0	0.0390391323944983	0.0149818944372473
1.4	0.00307826338697067	-0.000329297038995472	0	0	0.930079229985703	0.232953297224581	0	0
0	0	-0.0134156753000832	-0.0449685783000558	0	0	0.182262121828334	0.94221519764386
0.930079229985703	0.232953297224581	0	0	0.0160140626042016	0.00819059941921577	0	0
0	0	0.903610240950137	-0.0861067906144989	0	0	0.0433886593343796	-0.00605244706355765
1.5	-0.00203856685592841	-0.00275799518643454	0	0	0.269668861044316	-0.928080456301037	0	0
0	0	-0.0379521212969402	-0.0576464370585448	0	0	-0.680144414788577	-0.676974971719374
0.269668861044316	-0.928080456301037	0	0	0.0319162338070626	-0.0330728011350286	0	0
0	0	-0.466055695237488	-0.770117973105518	0	0	0.0324300054519429	0.0532878275227001
1.6	-0.000250554728507977	0.00475653145172911	0	0	0.942842667462762	0.292677547318002	0	0
0	0	-0.0356533545359728	-0.0208933685399979	0	0	-0.941905666916132	-0.181062576944013
0.942842667462762	0.292677547318002	0	0	-0.0531875974297646	-0.0262811335113664	0	0
0	0	0.496903865601454	-0.759317626928013	0	0	0.000281327749781894	0.0539912484231866
1.7	0.00289014273928225	-0.00524487796145997	0	0	0.28673190106987	-0.94764620949075	0	0
0	0	0.0163667234171551	0.00527253471679905	0	0	0.886626918634691	-0.348598961465048
0.28673190106987	-0.94764620949075	0	0	-0.00176126038106719	0.0058877953787258	0	0
0	0	-0.904209465059873	-0.107773593207189	0	0	0.0393791342396518	-0.0299961558958167
1.8	-0.0051665263093227	0.00369884913478313	0	0	0.920907602418428	0.287440210774521	0	0
0	0	0.0462908642659309	0.0373843248117935	0	0	0.571539162300732	-0.750380700267833
0.920907602418428	0.287440210774521	0	0	0.00662807636404979	0.0660182504018065	0	0
0	0	-0.314776579881541	-0.85010214324133	0	0	0.0271490427698898	-0.03350154257608
1.9	0.00681756270874825	-0.000421653795704551	0	0	0.316610345319257	-0.896744339035974	0	0
0	0	0.0535063728000539	-0.00395867190951794	0	0	-0.0793444931211155	0.943290626773207
0.316610345319257	-0.896744339035974	0	0	0.00952610857824301	0.00934280738132603	0	0
0	0	-0.613147020735617	0.649316876449217	0	0	0.0412302634773606	0.0239541001972983
2	-0.00719658302222994	-0.00385130044480617	0	0	0.892910911517613	0.347021377884356	0	0
0	0	0.0156100168855617	-0.00476102369304764	0	0	0.460875286724528	0.831817370925489
0.892910911517613	0.347021377884356	0	0	-0.0503161693253451	-0.0326286292182221	0	0
0	0	-0.845935210270374	-0.260818681697718	0	0	-0.0532092519527055	-0.0204187093514815
2.1	0.00600091937032612	0.00815351887468854	0	0	0.362124151769137	-0.898849006742823	0	0
0	0	-0.0289654068321211	0.00839586263727266	0	0	-0.831505400926347	-0.449540403228228
0.362124151769137	-0.898849006742823	0	0	0.0704746333679964	0.0162229532299635	0	0
0	0	0.13803600838497	0.878856527282496	0	0	-0.00502045995766893	0.0100374808654613
2.2	-0.00268152351821401	-0.0116804366850924	0	0	0.898730094080661	0.37457467409892	0	0
0	0	-0.0482609093766591	0.0178653564336319	0	0	-0.931661430943358	0.0706230055448255
0.898730094080661	0.37457467409892	0	0	0.0143911653284856	-0.0107006321415218	0	0
0	0	-0.735718953971797	0.507487265390191	0	0	0.0423962976558325	-0.011082439137381
2.3	-0.00256611870057601	0.0134371620155621	0	0	0.385115476247619	-0.889276022102978	0	0
0	0	-0.0307817211710101	0.0198890057203942	0	0	0.735622604330248	-0.556180242332514
0.385115476247619	-0.889276022102978	0	0	0.0576713334190149	-0.0286151241033499	0	0
0	0	0.776296087741662	0.431050154856007	0	0	0.0667390424784395	0.0468078685666785
2.4	0.00899818444867884	-0.0130933988718903	0	0	0.877703946931622	0.397611082957549	0	0
0	0	-0.000919082177012149	0.00139577579353104	0	0	0.323734268948659	-0.867915284365014
0.877703946931622	0.397611082957549	0	0	-0.0969461984794411	0.0143417787229925	0	0
0	0	-0.0387011560364815	0.882390218692163	0	0	0.0471600747405255	-0.0486611877776464
2.5	-0.0157336878373207	0.0104373646315276	0	0	0.415293791082811	-0.866402686620754	0	0
0	0	0.0190171937528655	-0.0359505642651433	0	0	0.189558408108852	0.917748747538582
0.415293791082811	-0.866402686620754	0	0	-0.0101978796549465	-0.0266091973327046	0	0
0	0	0.805116945277936	-0.332306178446075	0	0	0.0129151473793503	-0.000213447013787471
2.6	0.0213218861889096	-0.0057438421222621	0	0	0.859847677970272	0.429942035034191	0	0
0	0	0.0180363359492594	-0.0389238604557609	0	0	0.667576006340961	0.654177675214613
0.859847677970272	0.429942035034191	0	0	0.00565504383485556	-0.0330816502646801	0	0
0	0	0.630960222478958	0.597800362432466	0	0	0.0631511578297717	0.0105943161430624
2.7	-0.0248523816174239	-0.000823536219777115	0	0	0.444941900993957	-0.854567184832677	0	0
0	0	0.021472627446038	-0.00980606701129312	0	0	-0.898851546559747	-0.174646768757555
0.444941900993957	-0.854567184832677	0	0	0.0034356778044396	-0.0126266574691733	0	0
0	0	0.276463932429005	-0.836707729043187	0	0	-0.0268718677681849	-0.000622594070623855
2.8	0.0253706359961155	0.00845092793566126	0	0	0.844945863060796	0.458636611728339	0	0
0	0	0.00994597963690657	0.0123660933097846	0	0	-0.844238524214709	0.313193556512697
0.844945863060796	0.458636611728339	0	0	0.00431445478928422	0.0643972965276239	0	0
0	0	0.873613458169317	-0.150411797515844	0	0	0.0268764709692202	-0.0638879266825421
2.9	-0.022321904402721	-0.016104163894101	0	0	0.474812110360157	-0.826781019542982	0	0
0	0	8.34387881986185E-06	0.0364517630605413	0	0	0.568888943567289	-0.703053609419715
0.474812110360157	-0.826781019542982	0	0	-0.0536126145842831	0.034543263323915	0	0
0	0	-0.516982489595481	-0.704696527057623	0	0	-0.039870712255859	-0.0462899664854208
3	0.0164269412103625	0.0228573865186635	0	0	0.818799597307975	0.498913642312995	0	0
0	0	-0.0109290809917641	0.0295305098336078	0	0	0.0910557841734594	-0.923712136966153
0.818799597307975	0.498913642312995	0	0	-0.00673137114263258	-0.0176303885222602	0	0
0	0	0.407304923714566	-0.763898938273382	0	0	0.0144017800481691	0.0864746381678365
3.1	-0.00782228354248586	-0.0270054608808688	0	0	0.519350071576742	-0.809427962701472	0	0
0	0	-0.0202660756708883	0.0127143437887381	0	0	0.451540803206858	0.809158339844186
0.519350071576742	-0.809427962701472	0	0	0.0389096468998204	-0.064972387605513	0	0
0	0	-0.872996488197884	-0.0487450176730097	0	0	-0.0756271531450801	0.00655249788935353
3.2	-0.00190545779874742	0.0287451109498439	0	0	0.808638046736405	0.542477242848727	0	0
0	0	-0.0180225176802683	-0.00536356844946586	0	0	0.802732133660572	0.436847462381718
0.808638046736405	0.542477242848727	0	0	0.000944600622255746	0.025512152801202	0	0
0	0	-0.34115058819212	-0.816590904586498	0	0	-0.05947479070567	0.00721275183076083
3.3	0.011217559846265	-0.0267026909864715	0	0	0.553031203967759	-0.804907944096608	0	0
0	0	-0.00166948879770423	-0.0231970901723304	0	0	-0.908424377870386	0.0538671171210688
0.553031203967759	-0.804907944096608	0	0	0.0627073537803176	0.0240517450371231	0	0
0	0	-0.574565939727051	0.680416583173909	0	0	-0.0283302554185457	-0.107596572747945
3.4	-0.0187958143208278	0.0209330886391003	0	0	0.788607564658678	0.556836685926112	0	0
0	0	-0.00494307934526594	-0.0400442997089375	0	0	-0.732766952884433	0.548506977344682
0.788607564658678	0.556836685926112	0	0	-0.115650682976805	0.00992301236993669	0	0
0	0	-0.860833280395589	-0.218909728508851	0	0	-0.0200805767550687	-0.0398326320287088
3.5	0.0240241372042535	-0.0131515031293957	0	0	0.570437701014898	-0.779264729895749	0	0
0	0	0.00731549163783047	-0.0301966472010357	0	0	0.292883287355548	-0.872960346732081
0.570437701014898	-0.779264729895749	0	0	-0.0128458852507312	-0.0537304657807193	0	0
0	0	0.173034903710946	0.844376381129101	0	0	0.0845427482370306	-0.073860604479017
3.6	-0.0259896135131586	0.00435792463194745	0	0	0.771775181120627	0.579075290690493	0	0
0	0	0.0189873281390578	0.00216304670751126	0	0	-0.216114806830772	-0.894207755048962
0.771775181120627	0.579075290690493	0	0	-0.0336033843811057	0.0610756914628756	0	0
0	0	-0.690215261908326	0.525904741872817	0	0	0.0444666788458971	-0.0322112647689567
3.7	0.0240682356709697	0.00498074224639615	0	0	0.597295954287572	-0.750779559693372	0	0
0	0	0.013501527034386	0.0356783050929828	0	0	0.644190510333517	0.644137123238591
0.597295954287572	-0.750779559693372	0	0	0.118410340829109	0.00575984891350553	0	0
0	0	0.773674368979413	0.403780731895867	0	0	0.0552386232076644	-0.0198400943335111
3.8	-0.0190601285696954	-0.0125761622636595	0	0	0.743772200250076	0.615171167797885	0	0
0	0	0.014988202465682	0.049849666621112	0	0	0.871195424895827	0.179674817083434
0.743772200250076	0.615171167797885	0	0	-0.0249440018623683	0.0211932646625078	0	0
0	0	-0.00931619763068675	0.870160031688202	0	0	-0.0584711136199078	-0.0243235705974995
3.9	0.0117218139750598	0.017198714489778	0	0	0.619347291889326	-0.741815524234848	0	0
0	0	0.0110312978089971	0.0150634704386996	0	0	-0.819249236548869	0.332487397469419
0.619347291889326	-0.741815524234848	0	0	-0.0121825202855752	0.0830505399289236	0	0
0	0	0.777746020860095	-0.389897444867872	0	0	0.0246362379877511	-0.00604620069282035
4	-0.00275784784553922	-0.0187185944351746	0	0	0.722949398292346	0.627641090199872	0	0
0	0	-0.0166690336040114	-0.0126015003597748	0	0	-0.509127267162212	0.72490273470167
0.722949398292346	0.627641090199872	0	0	0.04972962083925	-0.0742832742572383	0	0
0	0	0.684512181777672	0.509336056032356	0	0	-0.00458754808750905	0.00947122879142645
4.1	-0.00538404273466112	0.0168725511995283	0	0	0.633376049156561	-0.708844185291859	0	0
0	0	-0.0413875890636946	-0.0354036122313195	0	0	0.0498096474921222	-0.887437375643488
0.633376049156561	-0.708844185291859	0	0	0.0236765885747455	-0.111061864360245	0	0
0	0	0.178344749272004	-0.8249071041197	0	0	0.0268771185114562	0.0806920545512603
4.2	0.0117936571337379	-0.0122314575736817	0	0	0.702807255663337	0.645067183853637	0	0
0	0	-0.0487376300104065	-0.0151540405052834	0	0	-0.434184493911605	-0.774299856753192
0.702807255663337	0.645067183853637	0	0	-0.0395064749835768	0.0165150760690374	0	0
0	0	0.825843417705182	-0.187114512777082	0	0	-0.0120661708704101	-0.0408832625677978
4.3	-0.0155107060391645	0.00521548421600884	0	0	0.654577384841693	-0.695186332257992	0	0
0	0	-0.00732312027409243	0.00711468167278333	0	0	0.774853898868236	0.419003334950918
0.654577384841693	-0.695186332257992	0	0	-0.0105085810518385	0.0665454452044237	0	0
0	0	-0.533258682442136	-0.667828158542939	0	0	-0.0143028431445444	0.00241237788184916
4.4	0.0157683246473692	0.00302870949313551	0	0	0.677749230116281	0.665242292036094	0	0
0	0	0.0379930624708073	0.00465583867799954	0	0	0.882841312948064	-0.0549413895287399
0.677749230116281	0.665242292036094	0	0	0.00114310268433944	-0.0496221123020179	0	0
0	0	0.342522498139476	-0.768275707457157	0	0	-0.0332176310931876	0.0034307160884128
4.5	-0.0124253446055157	-0.0103585739428405	0	0	0.672924072642975	-0.659398326991224	0	0
0	0	0.0644583642612536	-0.00439956638932721	0	0	-0.718149766319267	0.520764934441146
0.672924072642975	-0.659398326991224	0	0	-0.0493503411360215	0.0263678012884963	0	0
0	0	-0.830756480451979	0.0117090700772035	0	0	-0.0850185271224448	0.0615984772426241
4.6	0.00602920900912804	0.0157689849006432	0	0	0.641574226972874	0.688743647005811	0	0
0	0	0.0463872252946817	-0.0250664319795324	0	0	-0.312122261099756	0.840453423028911
0.641574226972874	0.688743647005811	0	0	-0.00389278971801484	0.0138919458097994	0	0
0	0	-0.369710653621261	-0.741601889774758	0	0	-0.0792743645389898	-0.00948520773332795
4.7	0.002144692443352	-0.018207725218284	0	0	0.707086521667983	-0.635056881596965	0	0
0	0	-0.0247712015532682	-0.00568992370357314	0	0	-0.18949743853874	-0.871311726534185
0.707086521667983	-0.635056881596965	0	0	0.0652770893933568	-0.017284714097501	0	0
0	0	-0.523342412782349	0.653005554900116	0	0	-0.0725557811345739	0.0717319802766204
4.8	-0.0108768929511123	0.0172999313754642	0	0	0.635843364451379	0.723945363453317	0	0
0	0	-0.0587354550281682	0.0338604125299089	0	0	-0.605167976747183	-0.634281624100739
0.635843364451379	0.723945363453317	0	0	0.0529309837374688	-0.0180298668621152	0	0
0	0	-0.825785822525572	-0.197695145432551	0	0	-0.00893550789668896	0.0715035736054334
4.9	0.0184211234816786	-0.0121715323826772	0	0	0.730497734756748	-0.628804748472222	0	0
0	0	-0.0397385200030413	0.0581766706677901	0	0	0.853462226685669	0.207504143183734
0.730497734756748	-0.628804748472222	0	0	-0.0804646096674721	-0.0288107568170879	0	0
0	0	0.198272484297263	0.82072190545873	0	0	-0.0830739999878277	0.00357428101882442
5	-0.0230588937585462	0.00400346410716537	0	0	0.618733466802524	0.726094615749005	0	0
0	0	-0.000198697405432592	0.0199886165303859	0	0	0.830980265602575	-0.298151612077631
0.618733466802524	0.726094615749005	0	0	-0.0474057707103513	0.0409089090731785	0	0
0	0	-0.645184295072908	0.533713641592523	0	0	0.0417528065944846	-0.00929101996822482
5.1	0.0246218239618158	0.00599809637034713	0	0	0.727305296166175	-0.607060725112708	0	0
0	0	0.0386624637721222	-0.0337039032178222	0	0	-0.533089435572728	0.696136396311912
0.727305296166175	-0.607060725112708	0	0	-0.0215936331437317	-0.0412205452751692	0	0
0	0	0.750447249750249	0.344536351833391	0	0	0.0727602944467027	-0.0200468362546895
5.2	-0.0223485245619946	-0.0170785939855355	0	0	0.585459914360634	0.744523721298797	0	0
0	0	0.0163019741302402	-0.0743901214008335	0	0	-0.0774458941614426	0.872436091426514
0.585459914360634	0.744523721298797	0	0	0.0385298733466322	0.0224135493152762	0	0
0	0	0.0164797090323672	0.832883013195344	0	0	0.0270113849997092	0.0661615524520396
5.3	0.0161225418325738	0.0265518366455327	0	0	0.762437079178947	-0.574112285812321	0	0
0	0	-0.0140209399428777	-0.0412868934432418	0	0	-0.414207948371833	-0.770423595948007
0.762437079178947	-0.574112285812321	0	0	-0.0317873793690404	0.0249418949194529	0	0
0	0	0.742493987667637	-0.376168783949261	0	0	-0.0434659913293843	0.0118941654421299
5.4	-0.00688614033016586	-0.0324576921508851	0	0	0.566158402257435	0.766728948653112	0	0
0	0	-0.0312524217815262	0.0147534435415103	0	0	-0.768489197054794	-0.425910585240182
0.566158402257435	0.766728948653112	0	0	0.0711115324764173	0.0870309583817826	0	0
0	0	0.658878620540867	0.507847356309661	0	0	-0.00945984421854869	0.0217139201162827
5.5	-0.00410702656414555	0.0349448133352899	0	0	0.776764022241018	-0.563687167880894	0	0
0	0	0.0231651358019249	0.0602408604566515	0	0	0.876335025365163	-0.047502120030666
0.776764022241018	-0.563687167880894	0	0	-0.00663072003031333	-0.0276134835858976	0	0
0	0	0.154672186971017	-0.8165158580179	0	0	0.0217008552228273	0.0381640521565604
5.6	0.0156931552157881	-0.032539069428109	0	0	0.549425022763687	0.781573888089924	0	0
0	0	0.0421765945505491	0.0568412862171864	0	0	0.694881090649356	-0.510021313293898
0.549425022763687	0.781573888089924	0	0	0.00115520101148381	-0.109053187176315	0	0
0	0	0.797473029058238	-0.204704350851757	0	0	0.0118232715223805	0.116912143832467
5.7	-0.0263155787661134	0.0259906009147471	0	0	0.793636389028265	-0.540620780817788	0	0
0	0	0.0203949885919911	-0.00687822364009532	0	0	-0.314049445080602	0.806121164324145
0.793636389028265	-0.540620780817788	0	0	-0.0112296065868053	0.0513016192480805	0	0
0	0	-0.53677244213505	-0.64502106357849	0	0	0.0585965101099985	0.0337915535135659
5.8	0.0330745281061926	-0.0153427698149514	0	0	0.522350490303335	0.793049528144327	0	0
0	0	-0.0222866891668599	-0.0313596371165926	0	0	0.157618112193748	0.849704962080995
0.522350490303335	0.793049528144327	0	0	0.0586016974693258	-0.0275531852993177	0	0
0	0	0.320236846254558	-0.768917417006679	0	0	0.0341028524032725	0.0546574923054953
5.9	-0.0362406909889236	0.00210435914436971	0	0	0.806333938721565	-0.498313643400918	0	0
0	0	-0.0563235483021749	-0.0268670132266264	0	0	-0.584160750437219	-0.632998606167535
0.806333938721565	-0.498313643400918	0	0	-0.071999336601407	0.0433497255655243	0	0
0	0	-0.822776018918698	0.0616822731018415	0	0	0.0373204905574679	0.0712329285985058
6	0.0350652870713217	0.0109188068865446	0	0	0.481246088757368	0.81957818514913	0	0
0	0	-0.0340493406999124	0.00574561784797139	0	0	-0.843447471032255	-0.192140717610226
0.481246088757368	0.81957818514913	0	0	-0.00257102085843114	0.0233792510680032	0	0
