# GHZ S RI R 50
0.2	-0.00723216183041537	0.0127555201307531	0	0	0.957656384505349	0.0584644732104476	0	0
0	0	0.0179731950625993	0.00540712356781498	0	0	-0.370751006392346	0.910937793039185
0.957656384505349	0.0584644732104476	0	0	0.0217445473422085	0.0391245095972862	0	0
0	0	0.56987553264703	-0.753789810847586	0	0	0.0022304149744318	-0.0346914344298161
0.3	0.00681207211373212	-0.0110477356820773	0	0	0.0341803740571998	-0.965063073911269	0	0
0	0	-0.00637915463245434	0.00164186184304618	0	0	-0.133589413614878	-0.974209994569006
0.0341803740571998	-0.965063073911269	0	0	-0.0144434966185693	0.00213696895478886	0	0
0	0	-0.92183003255705	-0.202750050330039	0	0	-0.0330211241623888	-0.0197899674749289
0.4	-0.00895094660837675	0.00783478765272488	0	0	0.948536309791308	0.0630608945766826	0	0
0	0	-0.0393111337007152	0.000679744993382267	0	0	-0.666334787598688	-0.726527043767911
0.948536309791308	0.0630608945766826	0	0	-0.035075283151489	-0.0155693558042695	0	0
0	0	-0.234190313727208	-0.896081262774025	0	0	0.0205351546732233	0.0182892288455278
0.5	0.0119758158735943	-0.00375712511003668	0	0	0.129161884010098	-0.948931395918985	0	0
0	0	-0.0319663259094542	0.0047061308518066	0	0	0.963980521310061	0.208682483674715
0.129161884010098	-0.948931395918985	0	0	0.035761659691568	0.0159714025904437	0	0
0	0	-0.679839175205476	0.635814162727268	0	0	0.00408495917278743	0.00690790577639423
0.6	-0.0135671454055216	0.00087463247109704	0	0	0.955438766809323	0.13321571770691	0	0
0	0	-0.00679897252222825	0.00636560607974493	0	0	0.914022083107066	-0.32799547650555
0.955438766809323	0.13321571770691	0	0	0.00448134412456358	-0.019996669267061	0	0
0	0	-0.861943259877979	-0.346754818268836	0	0	-0.00591019075850176	-0.00748453394052478
0.7	0.0137102317919172	0.0010498294447958	0	0	0.111194907847784	-0.958659918211703	0	0
0	0	0.0242824063766665	-0.0101631418051988	0	0	-0.613643195254114	0.748084395942849
0.111194907847784	-0.958659918211703	0	0	0.00801108130349183	0.00968615989987802	0	0
0	0	0.0439502695885163	0.921748218745676	0	0	0.00231717673575673	-0.0131784855494902
0.8	-0.0122469288843495	-0.00349445893326249	0	0	0.95685981234362	0.116009005901336	0	0
0	0	0.0456509945503386	-0.0406783601879341	0	0	-0.122683633558965	0.962566234491222
0.95685981234362	0.116009005901336	0	0	-0.0224104347593204	0.0121667594021317	0	0
0	0	-0.814131107352533	0.447878423983092	0	0	0.00663077757095046	0.0831726781883896
0.9	0.00882350996690619	0.00609977630061187	0	0	0.14754492661437	-0.942487857007416	0	0
0	0	0.0142336597731558	-0.026607096695785	0	0	-0.433994416996796	-0.869523854801774
0.14754492661437	-0.942487857007416	0	0	-0.00157421121824458	-0.0632407760700854	0	0
0	0	0.765274672633876	0.528245233121326	0	0	0.0366595684177629	0.0129076093094339
1	-0.00486901683241081	-0.00811101223714694	0	0	0.946013868318672	0.183964166794149	0	0
0	0	-0.0140107325940227	0.0125564500962104	0	0	-0.840819298239357	-0.484610823170401
0.946013868318672	0.183964166794149	0	0	0.00230934404384927	0.0410122631566747	0	0
0	0	-0.128269962819901	0.905897178313954	0	0	0.00290718247951295	0.000655466040526608
1.1	0.00128290652641975	0.00877822471425701	0	0	0.203433266034761	-0.953771723270631	0	0
0	0	-0.0118689383862029	0.0350701247255514	0	0	0.960926114304987	-0.0503428885046948
0.203433266034761	-0.953771723270631	0	0	0.00247653662145475	0.000548216330221837	0	0
0	0	0.873328703575575	-0.2606649975692	0	0	0.00756412868568864	0.0421541008360372
1.2	0.000985106593284572	-0.00776683721200047	0	0	0.964073543865298	0.203759633241669	0	0
0	0	0.00807257804786159	0.0637838769481065	0	0	0.775271847307328	-0.557628656731963
0.964073543865298	0.203759633241669	0	0	0.0524944671870944	-0.00138159680409701	0	0
0	0	0.617160286515749	0.675126535466297	0	0	0.00522045333040342	0.100128827438588
1.3	-0.00234290445924677	0.00460768369488478	0	0	0.205585701324633	-0.948288683896504	0	0
0	0	0.0155708063826646	0.0175519079446404	0	0	-0.356296367319958	0.888432802592197
0.205585701324633	-0.948288683896504	0	0	-0.0567274239025952	0.00023962494955215	0	0
0	0	0.323179457742544	-0.864308490625013	0	0	0.0386358560661696	0.0146057743712695
1.4	0.00286267784344115	-0.000789622033814707	0	0	0.930120475057033	0.232995541330059	0	0
0	0	-0.013332897016358	-0.0454424826212799	0	0	0.182256494231717	0.942206137016637
0.930120475057033	0.232995541330059	0	0	0.0155043851189548	0.00798393244158377	0	0
0	0	0.903601199984708	-0.086102314449715	0	0	0.0429364114594075	-0.00634894827679544
1.5	-0.00177250569800338	-0.00225964771297867	0	0	0.269720085954857	-0.928109531755715	0	0
0	0	-0.0376773798145131	-0.0580900141976316	0	0	-0.680160977830091	-0.676959661799008
0.269720085954857	-0.928109531755715	0	0	0.0313983011920458	-0.0331889966380613	0	0
0	0	-0.466074236175222	-0.770107781845245	0	0	0.0319519653614646	0.053072803823842
1.6	-0.000647324739898128	0.00427459215986761	0	0	0.942933154973923	0.292753217037991	0	0
0	0	-0.0352420752297742	-0.0212686282538241	0	0	-0.941916593300689	-0.181051812990761
0.942933154973923	0.292753217037991	0	0	-0.0536935094485349	-0.0262620219147551	0	0
0	0	0.496898370712117	-0.759331057497732	0	0	-0.000198880024223295	0.0539127446584775
1.7	0.00337352330292653	-0.00492461250249539	0	0	0.286755966205258	-0.947727842764196	0	0
0	0	0.0168159753322114	0.00502786572462981	0	0	0.886640436256984	-0.34854883417554
0.286755966205258	-0.947727842764196	0	0	-0.00215309384820754	0.0060501703819341	0	0
0	0	-0.90419815957964	-0.107821912662373	0	0	0.0389748952315364	-0.0299281010053248
1.8	-0.0055675575440064	0.00353676037670841	0	0	0.920983691717637	0.287425116456282	0	0
0	0	0.046677469076936	0.0373096127257494	0	0	0.571590998813567	-0.750364239596077
0.920983691717637	0.287425116456282	0	0	0.00638598187177343	0.066247958868534	0	0
0	0	-0.314736537881795	-0.850135738514668	0	0	0.0268695712781209	-0.0333516433264184
1.9	0.0070740433644638	-0.000295192526024413	0	0	0.316619036795715	-0.896813699384665	0	0
0	0	0.0537519379240658	-0.00387568979157005	0	0	-0.0793735920477925	0.943305468070638
0.316619036795715	-0.896813699384665	0	0	0.00940822607809793	0.00954325307962207	0	0
0	0	-0.613177216061477	0.649310717819674	0	0	0.0410698789796541	0.0241144436673673
2	-0.00735137660758911	-0.00404002086031905	0	0	0.89299001236034	0.34704893597914	0	0
0	0	0.0156822332495769	-0.00456292409640314	0	0	0.460878263567308	0.83186856306084
0.89299001236034	0.34704893597914	0	0	-0.0503824050067335	-0.0324961254323123	0	0
0	0	-0.845970236255729	-0.260851112201429	0	0	-0.0533016029222272	-0.0203104527785864
2.1	0.00615269505305408	0.00843213268680638	0	0	0.362120395145164	-0.898912584941457	0	0
0	0	-0.0290619249817903	0.0086502657213717	0	0	-0.831526281717441	-0.449563996158197
0.362120395145164	-0.898912584941457	0	0	0.0704235223222193	0.0163114865858951	0	0
0	0	0.13803026591487	0.878885618329783	0	0	-0.00510195032750037	0.0101036603312689
2.2	-0.00290321054596703	-0.0119818343476773	0	0	0.898808863298157	0.374586396966165	0	0
0	0	-0.0484731638865969	0.0181033372337349	0	0	-0.931671403734983	0.0706021855199036
0.898808863298157	0.374586396966165	0	0	0.0142977885540796	-0.0106071499810019	0	0
0	0	-0.73573723071492	0.507474870993437	0	0	0.042284078122292	-0.0110201890986064
2.3	-0.00230237135570895	0.0136558603520087	0	0	0.385122321389778	-0.889342004553208	0	0
0	0	-0.0310171053331733	0.0200558087466096	0	0	0.735629380359598	-0.556165046297005
0.385122321389778	-0.889342004553208	0	0	0.0575708921983813	-0.0284649116454421	0	0
0	0	0.776285347258109	0.431062041095515	0	0	0.0665951302861477	0.0469231854606917
2.4	0.00879685628801294	-0.0131974847503124	0	0	0.87781138005051	0.397605400865305	0	0
0	0	-0.00109250637731644	0.00146876177148214	0	0	0.323778478637624	-0.867928710602042
0.87781138005051	0.397605400865305	0	0	-0.0970277556445314	0.0145922546142015	0	0
0	0	-0.038737314733754	0.882415384768424	0	0	0.0470347728129754	-0.0484656859073626
2.5	-0.0156812073425664	0.0105030894823587	0	0	0.415294472726185	-0.866481996025118	0	0
0	0	0.0189727171403457	-0.0359706705304841	0	0	0.189545687802842	0.917785031029398
0.415294472726185	-0.866481996025118	0	0	-0.0101790387255043	-0.0263201963187565	0	0
0	0	0.80515228282924	-0.332300858215265	0	0	0.0128448604071981	5.46697732961114E-05
2.6	0.0213977620824113	-0.00587738503375329	0	0	0.859922333442818	0.429945032822461	0	0
0	0	0.0181382014960163	-0.0389911252854986	0	0	0.667594354402557	0.65420345889559
0.859922333442818	0.429945032822461	0	0	0.00576798947590907	-0.0327921671092298	0	0
0	0	0.630977686398343	0.597824048792688	0	0	0.0631616887784255	0.0108937062502708
2.7	-0.02497039558005	-0.000590998696221623	0	0	0.444949691839033	-0.854648946078286	0	0
0	0	0.0216825062062215	-0.00985378203288788	0	0	-0.898884611302195	-0.174669511787514
0.444949691839033	-0.854648946078286	0	0	0.00361080521346345	-0.0123663184276078	0	0
0	0	0.276489679777999	-0.83673651531652	0	0	-0.0268070317331243	-0.000335290261361173
2.8	0.0254897033653397	0.00816601402767024	0	0	0.845055427092353	0.458643999170832	0	0
0	0	0.0101966636349683	0.0124074146902495	0	0	-0.844260268879516	0.313181839920206
0.845055427092353	0.458643999170832	0	0	0.00452704156265329	0.0646287766025384	0	0
0	0	0.873632381888753	-0.15039652706016	0	0	0.0269846073532727	-0.0636298614165653
2.9	-0.0224683203318724	-0.015789820269307	0	0	0.474846808306016	-0.82688544238144	0	0
0	0	0.000229171038003701	0.0366403761983936	0	0	0.56893168084628	-0.70306895507434
0.474846808306016	-0.82688544238144	0	0	-0.0533997690200875	0.0347241226985888	0	0
0	0	-0.516986310451971	-0.704740243223436	0	0	-0.0397415948819476	-0.0460710099652828
3	0.0166095016801362	0.0224666312084509	0	0	0.81888746595709	0.498944381440657	0	0
0	0	-0.010783855256912	0.0298694627292044	0	0	0.091019174497163	-0.923770008450508
0.81888746595709	0.498944381440657	0	0	-0.00651373633365049	-0.0175303504520259	0	0
0	0	0.407293963468309	-0.763961859685212	0	0	0.0145581921164673	0.0866485344133845
3.1	-0.00797977854335228	-0.0265159928961377	0	0	0.519375653130651	-0.809496736996746	0	0
0	0	-0.0202289446791086	0.0131561546076256	0	0	0.451581692388574	0.809217712634085
0.519375653130651	-0.809496736996746	0	0	0.0390985313518828	-0.0649597821831088	0	0
0	0	-0.873064462691928	-0.0487424115986664	0	0	-0.0754899360035481	0.00664538225230448
3.2	-0.00183370954425125	0.0281968630516969	0	0	0.808775225981792	0.542509687332599	0	0
0	0	-0.0181203298653409	-0.00491051912377869	0	0	0.802795483606649	0.436856497633534
0.808775225981792	0.542509687332599	0	0	0.00106307395764938	0.0254944456582577	0	0
0	0	-0.341192937769365	-0.816636141427167	0	0	-0.0593745768271607	0.00723933706412322
3.3	0.0112339100202353	-0.0261881455976917	0	0	0.553031115432162	-0.80503689650839	0	0
0	0	-0.00188508509829433	-0.0228306899591337	0	0	-0.908473314638506	0.0538458382793905
0.553031115432162	-0.80503689650839	0	0	0.0627669271507943	0.0240156666373784	0	0
0	0	-0.574614035882104	0.680436926628284	0	0	-0.028285980425558	-0.107617932228696
3.4	-0.0188255595715671	0.0204975868963109	0	0	0.788789022593445	0.556901228300194	0	0
0	0	-0.00524334274216685	-0.039841971630275	0	0	-0.732788993862295	0.548548096232656
0.788789022593445	0.556901228300194	0	0	-0.115699176572308	0.00993063994842229	0	0
0	0	-0.860877762937849	-0.218901304905382	0	0	-0.0200903619916258	-0.0398465885463161
3.5	0.0240167796338642	-0.0127387786120898	0	0	0.570477249302486	-0.779401604508956	0	0
0	0	0.0069872175255423	-0.0301855922617742	0	0	0.29287039984438	-0.872967006364511
0.570477249302486	-0.779401604508956	0	0	-0.0128819265213426	-0.0537194335598082	0	0
0	0	0.173048466707558	0.844375717722098	0	0	0.0845106135303711	-0.0738594240326317
3.6	-0.0259751811170666	0.00392014921672403	0	0	0.771968528433612	0.579086645928316	0	0
0	0	0.018676975896413	0.00199188963659872	0	0	-0.216156207817185	-0.8942045963417
0.771968528433612	0.579086645928316	0	0	-0.0336150606088642	0.061143891902351	0	0
0	0	-0.690196826059293	0.525939296117441	0	0	0.0444368177366435	-0.0321884721249566
3.7	0.0240915210189312	0.00542203609188642	0	0	0.597255437747002	-0.75091533611091	0	0
0	0	0.0132770900168247	0.0353927811799902	0	0	0.644219873538366	0.644103557693538
0.597255437747002	-0.75091533611091	0	0	0.118447135718599	0.00577009811726179	0	0
0	0	0.77369156977602	0.40374162517697	0	0	0.0552294570035707	-0.0198146255103112
3.8	-0.0191346595938009	-0.0129581879818334	0	0	0.743956157510935	0.615151783883602	0	0
0	0	0.014872081046079	0.0495681642146445	0	0	0.87124615614979	0.17961769486256
0.743956157510935	0.615151783883602	0	0	-0.0249198058248542	0.021218832912957	0	0
0	0	-0.00925184661908257	0.870198041776664	0	0	-0.0584640835173311	-0.0242958798719906
3.9	0.0117837421015951	0.0174738660129568	0	0	0.619290456639368	-0.741990008566592	0	0
0	0	0.0110282704683438	0.0148598870154971	0	0	-0.819241284951358	0.332556419844077
0.619290456639368	-0.741990008566592	0	0	-0.012129089379702	0.0830561257374672	0	0
0	0	0.777732849709656	-0.389964531669436	0	0	0.0246668699025417	-0.00604848051427612
4	-0.00272715871150774	-0.0189301185999002	0	0	0.723065984093051	0.627595298876764	0	0
0	0	-0.0165709540543506	-0.0126816940825203	0	0	-0.509063258431579	0.724973299640058
0.723065984093051	0.627595298876764	0	0	0.0497453654030787	-0.0743459127130156	0	0
0	0	0.684581813070062	0.5092762898374	0	0	-0.00454768368961105	0.00945362784182444
4.1	-0.00549319823959179	0.0170964980411368	0	0	0.63333568638979	-0.708937620349133	0	0
0	0	-0.0412398833483176	-0.0353520864405594	0	0	0.049685329231838	-0.88744781907448
0.63333568638979	-0.708937620349133	0	0	0.0236673721217808	-0.111135433147934	0	0
0	0	0.178229704739906	-0.824935338271666	0	0	0.0269323188869688	0.0806492015419464
4.2	0.0119218610643621	-0.012488894566865	0	0	0.702935981595945	0.645035527971389	0	0
0	0	-0.0486142218437889	-0.0150110397025999	0	0	-0.434272886581346	-0.774239874538771
0.702935981595945	0.645035527971389	0	0	-0.0395175556650986	0.0164754369621395	0	0
0	0	0.825812530964434	-0.187211614054876	0	0	-0.0120605298868909	-0.0409213624898088
4.3	-0.0156297206335049	0.00545880990073519	0	0	0.654525026969503	-0.695324094382053	0	0
0	0	-0.00728632318346831	0.00728057995104101	0	0	0.774887673155155	0.418894387179566
0.654525026969503	-0.695324094382053	0	0	-0.010519833912668	0.0665340115693058	0	0
0	0	-0.533330129709231	-0.667743654137276	0	0	-0.0143123919778364	0.00238745740832012
4.4	0.0159193682721317	0.00284350221625163	0	0	0.677844796564082	0.665182406594264	0	0
0	0	0.0379130541553093	0.00476976320434737	0	0	0.88281121325983	-0.0550459016339395
0.677844796564082	0.665182406594264	0	0	0.0011153450857922	-0.0495968451810802	0	0
0	0	0.342421156297324	-0.768296368871349	0	0	-0.0332397907838329	0.00345229314810898
4.5	-0.0126596025437709	-0.0102054222958189	0	0	0.672874331784835	-0.659492056083413	0	0
0	0	0.0642688699342994	-0.00439506823899464	0	0	-0.718081562385433	0.520850304731632
0.672874331784835	-0.659492056083413	0	0	-0.0493166990539584	0.026454942242544	0	0
0	0	-0.830750265092319	0.011811221553621	0	0	-0.0850126926519284	0.0616841869589577
4.6	0.00635273680738347	0.0155832457825455	0	0	0.641650413511893	0.688686511917501	0	0
0	0	0.0461335325698865	-0.0251874856149625	0	0	-0.312024913201247	0.840476887760018
0.641650413511893	0.688686511917501	0	0	-0.00379084355003278	0.0139838319041745	0	0
0	0	-0.369787993204527	-0.741551049990617	0	0	-0.0792438173885845	-0.00935612447246023
4.7	0.0017880009805036	-0.0179491344136726	0	0	0.707003464662635	-0.635114138130158	0	0
0	0	-0.0250037716769624	-0.00592829394224341	0	0	-0.189629305098099	-0.871278557926844
0.707003464662635	-0.635114138130158	0	0	0.0654357060741479	-0.017225053841729	0	0
0	0	-0.523240311696667	0.653082106117914	0	0	-0.0724502134686982	0.0718741780573253
4.8	-0.0105402194115991	0.0169953471376258	0	0	0.635891194338481	0.7238723651555	0	0
0	0	-0.0588547565150634	0.0335548966917218	0	0	-0.605244266497305	-0.634157119549782
0.635891194338481	0.7238723651555	0	0	0.0531289173082384	-0.0180123377849326	0	0
0	0	-0.825782405357073	-0.197553755713432	0	0	-0.00878630024838502	0.0716108126569465
4.9	0.0180986068435871	-0.0118803424459167	0	0	0.730488243220604	-0.628840064802168	0	0
0	0	-0.0397014770118611	0.0578730971989071	0	0	0.853476836602298	0.207390987099371
0.730488243220604	-0.628840064802168	0	0	-0.0802531965119755	-0.0288226979347637	0	0
0	0	0.198375621296944	0.820684591080456	0	0	-0.0829118605707507	0.00368266665889311
5	-0.02271532750277	0.003715725074505	0	0	0.618787069489614	0.726080787998417	0	0
0	0	5.57528373289831E-06	0.0197347301688877	0	0	0.830882822966485	-0.298250915769943
0.618787069489614	0.726080787998417	0	0	-0.0471901995153045	0.0408487578231973	0	0
0	0	-0.645065376704035	0.533770825168302	0	0	0.0419189477725917	-0.00924673892464401
5.1	0.0242707189305233	0.00633176872327534	0	0	0.727300318691131	-0.607071725994139	0	0
0	0	0.0389816025618728	-0.0338668664197809	0	0	-0.532933409577059	0.696150824881132
0.727300318691131	-0.607071725994139	0	0	-0.0214061951207841	-0.0413374986101102	0	0
0	0	0.750427986557559	0.344390045581351	0	0	0.0729240074105455	-0.0200548398711501
5.2	-0.0220409266373715	-0.0174406095941028	0	0	0.585511150038784	0.744500653680942	0	0
0	0	0.0166501826004773	-0.0744438336879156	0	0	-0.0772693059283252	0.872365109254813
0.585511150038784	0.744500653680942	0	0	0.0386693633423739	0.0222464766348474	0	0
0	0	0.0166393808683335	0.832797739449089	0	0	0.0271972907143354	0.0660971987022404
5.3	0.0158808783674409	0.0268755869687949	0	0	0.762443932826478	-0.574188780464452	0	0
0	0	-0.0137495729072188	-0.0412316644011961	0	0	-0.414306744018533	-0.770294043047497
0.762443932826478	-0.574188780464452	0	0	-0.0317296243066183	0.0247692676238947	0	0
0	0	0.742373036446926	-0.376265770046149	0	0	-0.0433321131264808	0.0118187849066462
5.4	-0.00665500688486493	-0.0326875098444092	0	0	0.566254628840341	0.766682222251373	0	0
0	0	-0.0311309471777229	0.0149041715131084	0	0	-0.768491240197356	-0.425748142368979
0.566254628840341	0.766682222251373	0	0	0.07112263488388	0.0868751107341003	0	0
0	0	0.658903606591167	0.507695585340465	0	0	-0.00938586710890207	0.021615383477275
5.5	-0.00441177806397084	0.0351234280412391	0	0	0.776732749579209	-0.5637411535763	0	0
0	0	0.0231136208065271	0.0604451155561824	0	0	0.876247637494161	-0.0476560952776437
0.776732749579209	-0.5637411535763	0	0	-0.00666128542248992	-0.0277077953252718	0	0
0	0	0.154510831951923	-0.816470358088638	0	0	0.021739229490208	0.0380776146779226
5.6	0.0160657487432434	-0.0327451466332623	0	0	0.54943059491253	0.781531541183238	0	0
0	0	0.0419844700956776	0.0570403948347215	0	0	0.694695032740594	-0.510136568958806
0.54943059491253	0.781531541183238	0	0	0.00114830322048112	-0.109116833691082	0	0
0	0	0.797349142079748	-0.204872741434094	0	0	0.0119056877128363	0.116845551431656
5.7	-0.0266810665514273	0.0262625716579494	0	0	0.793603935644104	-0.54069712856149	0	0
0	0	0.0201254236506334	-0.00673019363673925	0	0	-0.313831128181673	0.806073768508261
0.793603935644104	-0.54069712856149	0	0	-0.0111728360044251	0.0512075628194284	0	0
0	0	-0.536834710918477	-0.6448135100788	0	0	0.0586734324899411	0.0337221284701294
5.8	0.0333557930769987	-0.0156200376180422	0	0	0.522387741375006	0.792986409952902	0	0
0	0	-0.0225372108704275	-0.0312914596179635	0	0	0.157779765778518	0.849532201645092
0.522387741375006	0.792986409952902	0	0	0.0586495706718947	-0.0277337688128302	0	0
0	0	0.320015374478715	-0.768863088621789	0	0	0.0342344349810649	0.0545471612279903
5.9	-0.0364582188110964	0.00229805930274644	0	0	0.80629881173467	-0.498383554283629	0	0
0	0	-0.0564765649994778	-0.0268830482107426	0	0	-0.584189664286235	-0.632761933647134
0.80629881173467	-0.498383554283629	0	0	-0.0719965451854326	0.0431033601417858	0	0
0	0	-0.822615596066303	0.0618448388262339	0	0	0.0374617279567468	0.0710364229333403
6	0.0352903342367755	0.0108443468260312	0	0	0.481294444373614	0.81950859207974	0	0
0	0	-0.034061188257977	0.00567078168962196	0	0	-0.843343938759004	-0.19193569593258
0.481294444373614	0.81950859207974	0	0	-0.00268157392018936	0.0230768525512903	0	0
