# GHZ S RI R 50
0.2	-0.00592604626523897	0.00791302827954502	0	0	0.958126723343972	0.0578792906604847	0	0
0	0	0.0226473437476777	0.00344685085216683	0	0	-0.370215545758188	0.911186703887785
0.958126723343972	0.0578792906604847	0	0	0.0209199871591135	0.0461609644931587	0	0
0	0	0.569440120974907	-0.754153549252827	0	0	0.00129430546504414	-0.027678337897267
0.3	0.00703792039966321	-0.00887143685382943	0	0	0.0331985365864479	-0.965296600354455	0	0
0	0	-0.00420720283342188	0.00142994062165117	0	0	-0.134561776086636	-0.974224439509072
0.0331985365864479	-0.965296600354455	0	0	-0.0132044475549686	0.0071591611959626	0	0
0	0	-0.922165512989705	-0.201878977780962	0	0	-0.0318509554732207	-0.0147460253555547
0.4	-0.00864416425826595	0.00789622079647819	0	0	0.948619101259636	0.0615155806637959	0	0
0	0	-0.0394999078928175	0.000934971259032805	0	0	-0.667498301772554	-0.725443427185764
0.948619101259636	0.0615155806637959	0	0	-0.0330646476462982	-0.0124983196262493	0	0
0	0	-0.235632612705291	-0.895692511541293	0	0	0.0226319165158551	0.0211794042786527
0.5	0.0103668381236129	-0.00505052723333257	0	0	0.127112440621328	-0.948853428227038	0	0
0	0	-0.0340234216065287	0.00499299039400461	0	0	0.964019876439354	0.206518184785097
0.127112440621328	-0.948853428227038	0	0	0.0376433074423353	0.0171159300163896	0	0
0	0	-0.678181080012485	0.637007529473319	0	0	0.00593652433547003	0.00820290653689844
0.6	-0.0104364319651827	0.00199367094489424	0	0	0.954796351463052	0.130504642437479	0	0
0	0	-0.0100261912384179	0.00605513992226042	0	0	0.912167294739977	-0.33006933934602
0.954796351463052	0.130504642437479	0	0	0.00536799122232753	-0.0195821348906902	0	0
0	0	-0.861936141590202	-0.344092909202333	0	0	-0.004943104390346	-0.00703303096178105
0.7	0.00987194209717793	0.00132722427171148	0	0	0.108259917212177	-0.957214328491925	0	0
0	0	0.020764016091909	-0.011352792555455	0	0	-0.610282719879119	0.748490764171971
0.108259917212177	-0.957214328491925	0	0	0.00810271697677195	0.00992525574897606	0	0
0	0	0.0465883948832313	0.919887476486374	0	0	0.00229373188248698	-0.0128203631987676
0.8	-0.00894970649313439	-0.0050200962768593	0	0	0.95447092551734	0.113006668977292	0	0
0	0	0.0425453534741967	-0.0424079198309898	0	0	-0.119788661048705	0.960422760914364
0.95447092551734	0.113006668977292	0	0	-0.0226929574002657	0.0131325511330284	0	0
0	0	-0.810839661018929	0.448910108837053	0	0	0.00657262354355666	0.0835877578209783
0.9	0.00677217398998432	0.00788713659522058	0	0	0.144410941936688	-0.939214244411611	0	0
0	0	0.0120965889840106	-0.0283003386380035	0	0	-0.434775025873616	-0.865154838833975
0.144410941936688	-0.939214244411611	0	0	-0.00223082545196939	-0.061003944934525	0	0
0	0	0.763911068013144	0.524223389641599	0	0	0.0360989422119076	0.0143454766448951
1	-0.00394111497134018	-0.0092331431160892	0	0	0.942092653951705	0.181178244283345	0	0
0	0	-0.0148309995362724	0.0114203929998341	0	0	-0.83792964243039	-0.48059721338217
0.942092653951705	0.181178244283345	0	0	0.00296271480855209	0.0429705216700642	0	0
0	0	-0.125775110298351	0.901958236831863	0	0	0.00333675270176387	0.002960025386786
1.1	0.000757800698706004	0.00854895758387294	0	0	0.201141827297201	-0.948956562964269	0	0
0	0	-0.0113994686659385	0.0349112871453687	0	0	0.955693298017678	-0.0512642277438091
0.201141827297201	-0.948956562964269	0	0	0.0041793998780313	0.00284645911361397	0	0
0	0	0.868306268550239	-0.260345996807401	0	0	0.00923138521772925	0.0439649560461565
1.2	0.00221950493719181	-0.00634113503783722	0	0	0.958616928184618	0.202396779691656	0	0
0	0	0.00938064794264578	0.0648298537531805	0	0	0.77062052844819	-0.554364839443388
0.958616928184618	0.202396779691656	0	0	0.0546628808514079	0.000226956272880639	0	0
0	0	0.613535320560797	0.671066907505927	0	0	0.00787813537089725	0.100517728346665
1.3	-0.0045053739365334	0.00298929156117418	0	0	0.205139252811576	-0.94229410689755	0	0
0	0	0.0169693525506662	0.0196381794276627	0	0	-0.355024338324057	0.88278971813089
0.205139252811576	-0.94229410689755	0	0	-0.0528134751816122	0.000906935487473434	0	0
0	0	0.322081832831681	-0.858841164421685	0	0	0.0413023389914194	0.0151914185177677
1.4	0.00530673473316398	0.000715932598531614	0	0	0.924219126434669	0.233587554254871	0	0
0	0	-0.0127367022170683	-0.042782612104702	0	0	0.179273236097307	0.937153376944493
0.924219126434669	0.233587554254871	0	0	0.0184641277535869	0.00819025708945758	0	0
0	0	0.898573470200131	-0.0837520924809881	0	0	0.045604090356995	-0.00591175738549969
1.5	-0.00449580507241452	-0.00371687106717267	0	0	0.271104485808897	-0.922338317498359	0	0
0	0	-0.038086850888862	-0.0552514009444619	0	0	-0.67432080462184	-0.675645678217957
0.271104485808897	-0.922338317498359	0	0	0.0342423915216354	-0.0329007327176537	0	0
0	0	-0.461054812102561	-0.767590687845758	0	0	0.0342237765518782	0.0525025059743109
1.6	0.00255475385346771	0.00523057989128863	0	0	0.937140344757912	0.295131553833748	0	0
0	0	-0.0365167239109529	-0.0185056225687004	0	0	-0.936843294600096	-0.184225336384038
0.937140344757912	0.295131553833748	0	0	-0.0504816384079984	-0.0273398450437657	0	0
0	0	0.497853025649961	-0.753750531669125	0	0	0.00182356025242783	0.0525836029879045
1.7	0.000260985088662286	-0.00490244464860844	0	0	0.290199932244768	-0.942852568598113	0	0
0	0	0.0150332341706783	0.0071954590027733	0	0	0.88502821911005	-0.343255236627206
0.290199932244768	-0.942852568598113	0	0	-0.000475447291827928	0.0046431789455408	0	0
0	0	-0.90044514404027	-0.111548924787881	0	0	0.0407010386930407	-0.0306374001854035
1.8	-0.00327676063497517	0.00298852978002477	0	0	0.917236383022855	0.291470083342805	0	0
0	0	0.044824080113314	0.0384987557617735	0	0	0.57381447360847	-0.745617183209534
0.917236383022855	0.291470083342805	0	0	0.00661333575604108	0.0645781673736072	0	0
0	0	-0.30973946342399	-0.849496647863577	0	0	0.0280145631877891	-0.0342686549008403
1.9	0.005522332206454	5.22645950801914E-05	0	0	0.320674388644488	-0.893931714259384	0	0
0	0	0.0522376384082998	-0.00374914906693484	0	0	-0.083958529505865	0.941636939014106
0.320674388644488	-0.893931714259384	0	0	0.0096473476635892	0.00849451086920178	0	0
0	0	-0.615579010780957	0.645383958073548	0	0	0.0411005699965783	0.0233617497920518
2	-0.00610454187956821	-0.00388310813667669	0	0	0.890917735122391	0.35103039875884	0	0
0	0	0.0147837519266823	-0.00535008764539212	0	0	0.456787231135533	0.833625251879769
0.890917735122391	0.35103039875884	0	0	-0.0498798923869236	-0.0336696159684219	0	0
0	0	-0.844358448518581	-0.264669369248703	0	0	-0.0528970277981175	-0.0215132222376934
2.1	0.00472650717976991	0.00789583917226368	0	0	0.365858226766706	-0.897933407402615	0	0
0	0	-0.0292189918077332	0.00723705139876154	0	0	-0.830107082552159	-0.453071605224502
0.365858226766706	-0.897933407402615	0	0	0.0705832507992523	0.0163671298516937	0	0
0	0	0.134595183483386	0.879825013640492	0	0	-0.00495127408299377	0.0095736206538589
2.2	-0.00114400583554703	-0.0115218275687987	0	0	0.898491511592044	0.377671519147379	0	0
0	0	-0.0479750528087676	0.0165090606704353	0	0	-0.932848663281311	0.0678906628837327
0.898491511592044	0.377671519147379	0	0	0.0147593309097269	-0.0111271335706728	0	0
0	0	-0.738017090153068	0.505802069237666	0	0	0.0428129928854906	-0.0113335619663879
2.3	-0.00403600268288007	0.0136455452445571	0	0	0.387298582387005	-0.889561494710638	0	0
0	0	-0.0301793758610676	0.0187122055414606	0	0	0.737695101960592	-0.555413776543315
0.387298582387005	-0.889561494710638	0	0	0.0581651463718433	-0.0291755794975287	0	0
0	0	0.776428589981585	0.433173594141521	0	0	0.0669396448129051	0.046485372241963
2.4	0.0100136665927298	-0.0135395421349281	0	0	0.878044401668693	0.399015957643408	0	0
0	0	-0.000261275997023333	0.000652658475175928	0	0	0.324900015757275	-0.868371238269691
0.878044401668693	0.399015957643408	0	0	-0.0971556727189342	0.0132171396347491	0	0
0	0	-0.0396246685946257	0.883146267352219	0	0	0.0473246565241519	-0.0496037502133251
2.5	-0.016200730010137	0.0106854913174115	0	0	0.415635977958438	-0.866607982723995	0	0
0	0	0.01947540098015	-0.0361305902159201	0	0	0.189410844076864	0.918123099231092
0.415635977958438	-0.866607982723995	0	0	-0.0105199119879741	-0.0276442196981596	0	0
0	0	0.80548436927536	-0.332236382404493	0	0	0.0125511143160295	-0.00124255166033832
2.6	0.0215373171646649	-0.00552339842526217	0	0	0.859564192795987	0.429416158939763	0	0
0	0	0.0181047717476791	-0.0386461001112489	0	0	0.667461003331335	0.653630125536514
0.859564192795987	0.429416158939763	0	0	0.00501140836722741	-0.0339661440937069	0	0
0	0	0.630844716320028	0.597293050405122	0	0	0.062424402361154	0.009596198084609
2.7	-0.0251387880154764	-0.00142236075344957	0	0	0.443754714435931	-0.853479954425307	0	0
0	0	0.0211212162326024	-0.00934529494235738	0	0	-0.897500299460601	-0.173867835391099
0.443754714435931	-0.853479954425307	0	0	0.00263575794051193	-0.0133286367387522	0	0
0	0	0.275555387668849	-0.835512953004709	0	0	-0.0276115600416402	-0.00136246927868671
2.8	0.0257482128061266	0.00921489354507987	0	0	0.842795184871823	0.457122921517459	0	0
0	0	0.00926816024404111	0.0126654594243157	0	0	-0.841827732567669	0.312701376771127
0.842795184871823	0.457122921517459	0	0	0.0034947971286559	0.0634759929076766	0	0
0	0	0.871191510650357	-0.150371467713627	0	0	0.0258011436388786	-0.0641600785089586
2.9	-0.0226701632839403	-0.0170421670609657	0	0	0.473193000379474	-0.823463311378238	0	0
0	0	-0.000840771197972569	0.036279069337269	0	0	0.566836367848487	-0.700260873961256
0.473193000379474	-0.823463311378238	0	0	-0.0540493170910081	0.0338413087512949	0	0
0	0	-0.514877875751578	-0.702090914779389	0	0	-0.0403928450042934	-0.0463675000042658
3	0.0168370097956616	0.0241073758098243	0	0	0.814370768612165	0.497556279682874	0	0
0	0	-0.0117645312451324	0.0287795660469111	0	0	0.091862466774429	-0.919286879995589
0.814370768612165	0.497556279682874	0	0	-0.00739543428576291	-0.0177054175365082	0	0
0	0	0.406425116822635	-0.759796874179073	0	0	0.0132690882933769	0.0855018609154267
3.1	-0.00854403818303737	-0.028486002779299	0	0	0.518607958673854	-0.804007183433682	0	0
0	0	-0.0209077021631196	0.0114573338144426	0	0	0.447072429619295	0.805955483954301
0.518607958673854	-0.804007183433682	0	0	0.0382519507589723	-0.0641568398949733	0	0
0	0	-0.868186916857377	-0.0506890543273897	0	0	-0.0754664090216623	0.00606916299743974
3.2	-0.000795152498256319	0.0302104647730358	0	0	0.80210333105893	0.542847869805293	0	0
0	0	-0.0182468504857206	-0.00689002294562039	0	0	0.796551913714072	0.437693590043062
0.80210333105893	0.542847869805293	0	0	0.000377331323262915	0.0253388042202667	0	0
0	0	-0.335971496634696	-0.813482045060403	0	0	-0.0592482203433442	0.00675582115241525
3.3	0.00989879767944032	-0.0278957296532439	0	0	0.554766827949284	-0.797854952563728	0	0
0	0	-0.00138775722219743	-0.0246645946076992	0	0	-0.903972047525117	0.0486716275122609
0.554766827949284	-0.797854952563728	0	0	0.0616837766050128	0.024616453596441	0	0
0	0	-0.575246367846623	0.673755331430644	0	0	-0.0269859155187326	-0.106688892065045
3.4	-0.0175683757614739	0.0218682691191153	0	0	0.781102508186586	0.560014041569111	0	0
0	0	-0.00416850060372401	-0.0411405778052924	0	0	-0.733405725346754	0.540964730852358
0.781102508186586	0.560014041569111	0	0	-0.114766110376218	0.00824851913140974	0	0
0	0	-0.855527926563835	-0.223989688361321	0	0	-0.019319165253632	-0.0397284165611209
3.5	0.0229339328318729	-0.0140844381455651	0	0	0.575086670301874	-0.772085928653583	0	0
0	0	0.0084157183968502	-0.0306933142834691	0	0	0.299113488035673	-0.867906587118007
0.575086670301874	-0.772085928653583	0	0	-0.0118439723204152	-0.0536533755744379	0	0
0	0	0.165616311852457	0.843212008071416	0	0	0.0852857351157709	-0.0720600047020971
3.6	-0.0248612539070391	0.00533169144754219	0	0	0.765176463132562	0.585425000548562	0	0
0	0	0.0202495208479192	0.00230556446863368	0	0	-0.207595375614004	-0.894848293176229
0.765176463132562	0.585425000548562	0	0	-0.0346399984826754	0.0601737628464719	0	0
0	0	-0.694000796771	0.51879063498904	0	0	0.0449354848481354	-0.0313759000665135
3.7	0.0228294305508032	0.00406225456708766	0	0	0.604772919409241	-0.745368719033423	0	0
0	0	0.0146133913646399	0.0363838881938712	0	0	0.638195340856375	0.650558577527613
0.604772919409241	-0.745368719033423	0	0	0.118312473448624	0.00796562724955469	0	0
0	0	0.770038498038671	0.411370691768679	0	0	0.055602501715529	-0.0188490349968019
3.8	-0.0177717561286747	-0.0119148202672513	0	0	0.739410460184933	0.623764403020089	0	0
0	0	0.0157409558194833	0.050767138741657	0	0	0.871281802661234	0.188534600689355
0.739410460184933	0.623764403020089	0	0	-0.0255482572407661	0.0207491732702986	0	0
0	0	-0.0178069693474761	0.871902695613922	0	0	-0.0583292469955081	-0.0255860150479127
3.9	0.0106413707938698	0.0168258245447892	0	0	0.628713753640946	-0.739181225585476	0	0
0	0	0.011331416841762	0.0159435131861205	0	0	-0.825594561194927	0.326377554017299
0.628713753640946	-0.739181225585476	0	0	-0.0138826539737804	0.0835140171399148	0	0
0	0	0.784445753134952	-0.384397949826396	0	0	0.024856975617272	-0.0056004492685165
4	-0.00202916597990231	-0.0183672798299736	0	0	0.722012419962519	0.636957322158452	0	0
0	0	-0.016858109900533	-0.0119604691185682	0	0	-0.517880237056658	0.724905228841276
0.722012419962519	0.636957322158452	0	0	0.0514416792602381	-0.074228958209012	0	0
0	0	0.684283512066766	0.51776367889407	0	0	-0.00485602211675331	0.00961333810980607
4.1	-0.00592331551987937	0.0163633157918492	0	0	0.642358202248864	-0.709593488323375	0	0
0	0	-0.0419552503897554	-0.0351391030194876	0	0	0.0560601447051054	-0.893321084185169
0.642358202248864	-0.709593488323375	0	0	0.0254615495546637	-0.112146124951126	0	0
0	0	0.185079570167747	-0.829498108265412	0	0	0.0261547282283847	0.0823326437621732
4.2	0.0123438017024227	-0.0116086106602334	0	0	0.705037056470188	0.653477739016621	0	0
0	0	-0.0494202865127968	-0.0152751855924395	0	0	-0.43376878479693	-0.782366991242703
0.705037056470188	0.653477739016621	0	0	-0.0402508514294398	0.0164956750778824	0	0
0	0	0.833108244464702	-0.184546892739381	0	0	-0.0118209811840987	-0.0414896644449681
4.3	-0.0160589072444185	0.00465843345764053	0	0	0.661963246367832	-0.698720570245713	0	0
0	0	-0.00781815662820363	0.00671868952613013	0	0	0.779733133607228	0.424677922661561
0.661963246367832	-0.698720570245713	0	0	-0.0110942788662736	0.0676325116983642	0	0
0	0	-0.535466128941896	-0.674745057429611	0	0	-0.0145137968911889	0.00241799895864444
4.4	0.016130566672377	0.00350189553694245	0	0	0.682105826708467	0.671162870626678	0	0
0	0	0.0378722940571335	0.00418444947768021	0	0	0.889631689698252	-0.0542410417460729
0.682105826708467	0.671162870626678	0	0	0.00123549527677357	-0.0504291610453371	0	0
0	0	0.346103440685176	-0.773690332483783	0	0	-0.0337554404643359	0.00331353142993623
4.5	-0.0125176281970724	-0.0109089013886099	0	0	0.677339707386972	-0.664074102922491	0	0
0	0	0.0647883886547161	-0.00474745391729235	0	0	-0.722893895489423	0.524452552893401
0.677339707386972	-0.664074102922491	0	0	-0.0501746173119835	0.0265962299614231	0	0
0	0	-0.836377874602119	0.0119759187450456	0	0	-0.0862988121242026	0.0622712120158078
4.6	0.00596556746164502	0.0165713658500136	0	0	0.646165796659039	0.691693419211368	0	0
0	0	0.0470522474598146	-0.025155404979855	0	0	-0.312652925699007	0.845568406590028
0.646165796659039	0.691693419211368	0	0	-0.0041659730595183	0.0138418226580807	0	0
0	0	-0.372825677722184	-0.745191863205924	0	0	-0.0804921007870709	-0.00961339635361981
4.7	0.00215351846996173	-0.0192663480473987	0	0	0.708722011519189	-0.639258546336551	0	0
0	0	-0.0239597361197639	-0.00539826895849921	0	0	-0.192013098973826	-0.87449528064044
0.708722011519189	-0.639258546336551	0	0	0.0653388412984251	-0.0178606545007767	0	0
0	0	-0.52417724463205	0.656720909249897	0	0	-0.0733186505681563	0.0724358088174977
4.8	-0.0107150222434217	0.0184215844259343	0	0	0.639176162604858	0.7244416559886	0	0
0	0	-0.0581084009339594	0.0344829940878236	0	0	-0.608123154850467	-0.634649672810953
0.639176162604858	0.7244416559886	0	0	0.052640517397671	-0.0184995741859383	0	0
0	0	-0.828383112293088	-0.196440519556302	0	0	-0.00917111885278894	0.0717989029151399
4.9	0.0182478646587664	-0.0132456927468769	0	0	0.730130513648885	-0.630795452559308	0	0
0	0	-0.0394904270758478	0.0590010939348974	0	0	0.854750054393608	0.206202246187588
0.730130513648885	-0.630795452559308	0	0	-0.081290169013317	-0.0286262205846154	0	0
0	0	0.199951909518741	0.821249556653921	0	0	-0.0837974978158411	0.0038688571920536
5	-0.0229615788449345	0.00511835956291049	0	0	0.619294303121755	0.725504477866885	0	0
0	0	-0.000455628263389413	0.0208488574124067	0	0	0.830715637082447	-0.298946141274323
0.619294303121755	0.725504477866885	0	0	-0.0478775898622434	0.0410218997768993	0	0
0	0	-0.644692229938658	0.534337112377782	0	0	0.0411780142921603	-0.00929270582232676
5.1	0.0244773388353908	0.00473665314446204	0	0	0.726858221138394	-0.606286492137312	0	0
0	0	0.0379533277380884	-0.0330141389706307	0	0	-0.532897494295971	0.695475985715484
0.726858221138394	-0.606286492137312	0	0	-0.0220293073729457	-0.0410354408564766	0	0
0	0	0.749800707452775	0.344497692177596	0	0	0.0721527040831395	-0.0197927146352009
5.2	-0.0220419068147635	-0.0157818191597775	0	0	0.583440918745473	0.744842807985599	0	0
0	0	0.0153330470771427	-0.0740147060900368	0	0	-0.0790265202378835	0.871374690122178
0.583440918745473	0.744842807985599	0	0	0.037985661686329	0.0227545636643793	0	0
0	0	0.0148760324415762	0.832041946782737	0	0	0.0263329325552854	0.0664072396406945
5.3	0.0156795850749695	0.0254276981635368	0	0	0.763788878534186	-0.570959413749248	0	0
0	0	-0.0149606686469165	-0.0412897375092688	0	0	-0.411170545258593	-0.771152896116019
0.763788878534186	-0.570959413749248	0	0	-0.0321112148850481	0.0250155923278755	0	0
0	0	0.743117343759688	-0.37326244429643	0	0	-0.0436537212611885	0.0119332186292901
5.4	-0.00652288775130136	-0.0315737708860965	0	0	0.562451716547349	0.769577596903416	0	0
0	0	-0.0319220801384442	0.0143707558209653	0	0	-0.76636543289766	-0.429650506040807
0.562451716547349	0.769577596903416	0	0	0.0702022289769367	0.0880776424845797	0	0
0	0	0.656359365291689	0.511046598836431	0	0	-0.00969737850992044	0.0219616902782149
5.5	-0.00426536966264533	0.0340908550702455	0	0	0.78114731550766	-0.559727710504933	0	0
0	0	0.022923080055926	0.0595875762794605	0	0	0.877766680731591	-0.0422519904919728
0.78114731550766	-0.559727710504933	0	0	-0.00632568807840656	-0.0274812568474668	0	0
0	0	0.159823566347664	-0.816643912741416	0	0	0.0213128806974286	0.0387904522562569
5.6	0.0157461670520361	-0.0315341817677596	0	0	0.545843113741499	0.787543285229691	0	0
0	0	0.0423986552021641	0.0560987204225833	0	0	0.700509717945902	-0.506800578301707
0.545843113741499	0.787543285229691	0	0	0.00256447011528457	-0.109463654062006	0	0
0	0	0.801315543173451	-0.199845952837121	0	0	0.0102454492941925	0.117989544828021
5.7	-0.0264673898447441	0.0248708948502691	0	0	0.801379357922441	-0.537738624775502	0	0
0	0	0.0209818169909314	-0.00752586905125795	0	0	-0.32122356830382	0.808008905888176
0.801379357922441	-0.537738624775502	0	0	-0.0123046657206852	0.0519241110603212	0	0
0	0	-0.535006545379177	-0.651996545501874	0	0	0.0584865852662519	0.0352395551775394
5.8	0.0334165596812217	-0.0143055128862663	0	0	0.520901548456959	0.801985384157436	0	0
0	0	-0.0215430294826171	-0.0317723126898389	0	0	0.153197575869008	0.85673501242191
0.520901548456959	0.801985384157436	0	0	0.0595024708737453	-0.0267834937153714	0	0
0	0	0.327507429975122	-0.772264383260155	0	0	0.0336004518462333	0.0562987476258942
5.9	-0.0366209740300568	0.00132045721380197	0	0	0.816259057998999	-0.498269522062548	0	0
0	0	-0.0556604551853539	-0.026964274295288	0	0	-0.585952022259137	-0.641855698186586
0.816259057998999	-0.498269522062548	0	0	-0.0739438706745224	0.0438800425833873	0	0
0	0	-0.830489759176495	0.0577550554825171	0	0	0.0370404993487802	0.0735180831376779
6	0.0352715737680191	0.0114426158379932	0	0	0.483140235005754	0.830024456625744	0	0
0	0	-0.0336562599310656	0.00593186570498302	0	0	-0.851529484394232	-0.197418015905168
0.483140235005754	0.830024456625744	0	0	-0.00276129163762157	0.0245302518250505	0	0
