# GHZ S RI R 50
0.2	0.0059023103332478	0.00124328837308266	0.00304833864447005	-0.000897935341608541	0.00305870730031852	-0.00089112646019767	-0.0140480864165467	0.00489518704103243
0.3	0.00621774630740063	-0.000704459492314959	0.00290411847186834	-0.00132135861880758	0.00289687234230053	-0.00130841994275856	-0.0132537566842308	0.00509617164872339
0.4	0.00597370326619137	-0.00235096868016776	0.00267248065368652	-0.00169312246455376	0.00267774790868749	-0.00170168300539007	-0.0127328161499654	0.00564023232095967
0.5	0.00526974552843131	-0.00374396607605927	0.00241361566493132	-0.00204979899770902	0.00242515258406966	-0.00206203871162816	-0.0122147459064865	0.00624873092737503
0.6	0.00425906476567304	-0.00480398550689004	0.00210107670629789	-0.00236423679754042	0.00210029016168812	-0.00237138597745235	-0.0117345588486054	0.00681454030665865
0.7	0.00297540984317539	-0.00549752768044481	0.00175393056908601	-0.00264194291710641	0.00175197468505426	-0.00264214170398971	-0.0113840880910953	0.00740929155248487
0.8	0.00164392915347037	-0.0058481560446268	0.00136853059727746	-0.0028592667436904	0.00135593157747832	-0.00286381530948132	-0.0110440395752107	0.00814283058856716
0.9	0.000219882327566721	-0.00582823029890718	0.000951512393146443	-0.0030227548216714	0.000952547100384415	-0.0030334531234131	-0.010650219049528	0.00892288892592963
1	-0.00115829225181609	-0.00551792329771936	0.000526737225097971	-0.00312612115209565	0.000516876372808739	-0.00312686100290754	-0.0101430824334717	0.00973966794410169
1.1	-0.0025209522698818	-0.00497332273149567	7.11927302638773E-05	-0.00315488673798911	6.76858600109231E-05	-0.00317253526377136	-0.00962164833929289	0.0106189430498364
1.2	-0.00380854900745264	-0.00441052399978543	-0.000370859099068592	-0.00314425562684082	-0.000371670758826058	-0.0031421794446177	-0.00869099620230453	0.0114967553523371
1.3	-0.00516229242882486	-0.00393955140963201	-0.000797892423836383	-0.00306104460585813	-0.000801132070360038	-0.00306304953404199	-0.00715197652523827	0.0121466129898541
1.4	-0.00634247338292126	-0.003346603916836	-0.0012191006933926	-0.00291281810145793	-0.00121788782840263	-0.00291835055376019	-0.00545941443401603	0.0120385204206513
1.5	-0.00687564266797798	-0.00225132376651445	-0.00161987935771878	-0.00271699807592897	-0.00161826753112782	-0.00272549731152434	-0.00410440389556542	0.0115639198192646
1.6	-0.00681330125054753	-0.000775555382103193	-0.00198037251372359	-0.00246465366479685	-0.00198058335707683	-0.00246988730498141	-0.00353231160871903	0.0114062569656856
1.7	-0.00622791963079614	0.00068881947505877	-0.00230876746866071	-0.00216788529514843	-0.00230973313438395	-0.00216162455434479	-0.00292824186692021	0.0115685836792939
1.8	-0.00533024321986494	0.00208961400403315	-0.00257980359274215	-0.00181649513852807	-0.00259076809877483	-0.00182213149158629	-0.00226452531340746	0.0117312050226114
1.9	-0.0041533037672562	0.0031552982288744	-0.00280518666573028	-0.00144586465546751	-0.00281762531168025	-0.00143971249298352	-0.00161269009141167	0.0118848042595799
2	-0.00282017089059431	0.00391315581719544	-0.00298093115649462	-0.00103825480326561	-0.00299055217000071	-0.00103354713797334	-0.000975103375312228	0.0120989697921882
2.1	-0.00137505768511652	0.00427573557354746	-0.00309446387476725	-0.000609840856929609	-0.00309038092728412	-0.000611832383281822	-0.000176495514111035	0.0122280030873723
2.2	6.19979426097142E-05	0.00432295199975917	-0.00315186629058084	-0.000171513800347307	-0.00316316902021218	-0.000174349297442559	0.000793130612545831	0.0122224583042423
2.3	0.00143469089932533	0.00393514311769529	-0.00314717947478279	0.000271966356702774	-0.00314687744628684	0.000265084078060163	0.00171561774946371	0.0119563861529058
2.4	0.00262485189491906	0.00326764880330503	-0.00307463744237292	0.000710372678659056	-0.00307717873771009	0.000706115999517068	0.00255536600914012	0.0116472771345717
2.5	0.00360020386939515	0.00231284140945053	-0.00293740710731111	0.00112270296305646	-0.00294829424474482	0.0011290838767819	0.00337810401050255	0.011231329562109
2.6	0.00439285104754112	0.00117105625796815	-0.00276325288876302	0.00152574352380852	-0.00275969851083211	0.00151342163885555	0.00419442544627956	0.0107278918277985
2.7	0.00503478274988076	-0.000128796970223991	-0.00251707215154486	0.00189703076415331	-0.00252235152608008	0.00189704288046107	0.0048526999296198	0.0101336130476644
2.8	0.00555086285433764	-0.00161806380769715	-0.00223386389159174	0.0022243605511515	-0.00222604884552931	0.00223414693476816	0.00537513455508651	0.00966339575561182
2.9	0.00588793647372913	-0.00332827468100347	-0.00189923210458101	0.00252425601816829	-0.00189552384193916	0.00252382815329848	0.00607443436290433	0.00935909226812824
3	0.00583797653303872	-0.00523087440703417	-0.00151269499923209	0.00275930827032266	-0.00152747067905103	0.00276541047767229	0.00695445936290124	0.00903558221654642
3.1	0.0053901192817854	-0.00718606594784445	-0.00112227961262272	0.00293601455484041	-0.00111762166413481	0.00294435382443804	0.00780895063207415	0.00852588958266742
3.2	0.00437089295064334	-0.0090895761444374	-0.000701714253513013	0.00307272046426486	-0.000703458400744987	0.0030721104277158	0.00842764815522929	0.00801274032468992
3.3	0.00288317071825953	-0.0108805526592604	-0.000263347008082119	0.00314208732548947	-0.000261699619847986	0.00313834788577222	0.00911794174459296	0.00740535585228151
3.4	0.000872572035568754	-0.012292021803623	0.000183315020002074	0.00313563011661064	0.000177115343327685	0.00315219089949918	0.00978366768848509	0.00657045726427953
3.5	-0.00146954966620112	-0.0133149814465601	0.000604854245709409	0.00309244843063842	0.00061044829824113	0.00309252285981125	0.010172521113382	0.0054901013116694
3.6	-0.00408676302406629	-0.013773494296274	0.00103308290032051	0.00297300373711133	0.00104127225303778	0.00297268493747054	0.0103481870907829	0.00458001363708985
3.7	-0.00676111295920136	-0.0136497249124769	0.00144342249001928	0.00279184109886402	0.00143384121060525	0.00280551443535902	0.010553305087535	0.00374006205464425
3.8	-0.00939312023561965	-0.0129458960260915	0.00182133579385428	0.0025645701976429	0.00182374072123271	0.00257371722268206	0.0106855470865987	0.00289511124114085
3.9	-0.0117508690600527	-0.011727488676369	0.00216696527152446	0.00229135346274013	0.00215970144584378	0.00228957560486098	0.0107241648711182	0.00207982050021114
4	-0.0138190820363172	-0.0101068377121069	0.00245151858664433	0.00197008068200393	0.00245596603598532	0.00196764625655703	0.0107787087649054	0.00140475016544748
4.1	-0.0155432352698692	-0.008151212579172	0.00270334348784296	0.00161004334688469	0.00270209127688074	0.00161077914952886	0.0109877077410041	0.000783370162219742
4.2	-0.0169342558809679	-0.00588007604870082	0.00290242166203117	0.00120870085845722	0.00290688542837354	0.00119998619993	0.0112330500191091	6.91979656077351E-05
4.3	-0.0179157178110768	-0.00343660207959039	0.00304523525892698	0.000796482982042076	0.00305165534861199	0.000788680767651434	0.0114276289224251	-0.000825056149800868
4.4	-0.0185640140463269	-0.000789934032414698	0.00312128249228827	0.000362283435124657	0.00312365599128724	0.000360027029204176	0.0114140407990423	-0.00173556894480093
4.5	-0.018766057704289	0.00201523064500075	0.00314370779384353	-7.57291264340877E-05	0.00314906627143411	-7.91025310564022E-05	0.0113580029337622	-0.00259881239816057
4.6	-0.0185283249419514	0.00484466723955845	0.00309931340823266	-0.000518453349876979	0.00310054431930486	-0.000505544125020531	0.0111980270059324	-0.00353729552420893
4.7	-0.0176882878097739	0.00767288891026261	0.00299377929181946	-0.000937070844330613	0.00300905765538919	-0.000946687534991476	0.0108747398417239	-0.00447026152005562
4.8	-0.0163502714889512	0.0103196479231489	0.00283245593211548	-0.00135086213186514	0.00284092950184845	-0.00135695047061898	0.0104502782107083	-0.00527390022830947
4.9	-0.0143323834363668	0.0126574852985782	0.00261153107224426	-0.00173462195972453	0.00261569591854066	-0.00173171941038679	0.0100598245888172	-0.00590448032483767
5	-0.0118514697936082	0.0144505436849568	0.00235172405394025	-0.00208931024430875	0.002355344342944	-0.00208664833314429	0.00994490339480957	-0.00643428638025168
5.1	-0.00889612499650755	0.0156936760484836	0.00204096823915674	-0.00239942010424784	0.00204326763789068	-0.00239806371795129	0.00995766205442577	-0.00713318542501888
5.2	-0.00584180712642238	0.0162450994999552	0.00168355324909776	-0.00264882603303961	0.00168526435303329	-0.00265396523526074	0.00988546121936798	-0.00791431203288667
5.3	-0.00278684815888417	0.016185651168878	0.00129715696924218	-0.00286379099351675	0.00130028714773954	-0.00286173037855922	0.00972421373552987	-0.00864389487300012
5.4	9.46408949315519E-05	0.0155810220695014	0.000872764465843906	-0.00301090839429393	0.000889913993539004	-0.00302210822837858	0.00953564849267451	-0.00952808624293856
5.5	0.00267059698217195	0.0145361367083079	0.000459689178279753	-0.00310848525322107	0.000469733046567116	-0.00311790514063916	0.00908044499590199	-0.0105328791999476
5.6	0.00491410291000625	0.013095619963713	2.17455725619753E-05	-0.00314445204251615	1.32276580358702E-05	-0.00314766811468282	0.00825949960034916	-0.011359932044367
5.7	0.00672181509929349	0.0113623952952099	-0.000408760922466603	-0.00311393375742201	-0.000425358575206065	-0.00311759205652071	0.00726749299750941	-0.0118697140741655
5.8	0.0081290640169155	0.00937414226930613	-0.000854136771985721	-0.00301911075266627	-0.000857667962782144	-0.00303308787625115	0.0062990967222885	-0.0123433006119309
5.9	0.0090552551350598	0.00726267955784854	-0.00125856184810297	-0.00287932838769672	-0.00126678529435672	-0.00287924772073606	0.00519304785578611	-0.0126988036325108
6	0.00949006577233726	0.00500228399172326	-0.00165639563920881	-0.00267332629114398	-0.00165283741462574	-0.00267349237299866	0.0039583469751072	-0.0127947282746592
6.1	0.0094499988504145	0.00269536057822748	-0.00201114847874701	-0.00241908364775004	-0.00201278691188434	-0.00241508280658218	0.00298173417407998	-0.0125975336942774
6.2	0.00892619823527294	0.000364416110331469	-0.0023236258767468	-0.00210617464103995	-0.00232733112025927	-0.00211803601038401	0.00232357162494295	-0.0124911037305131
6.3	0.0080038733408208	-0.00190061436193051	-0.00260109685503299	-0.0017719773398589	-0.00261021783973876	-0.00176624365948453	0.00181271630700705	-0.0126582705074729
6.4	0.0065876668431556	-0.00403039517348301	-0.00282709979982905	-0.00138164811142241	-0.00281738317335195	-0.00138654635409308	0.0013307127318261	-0.0129624902172442
6.5	0.00480488380646047	-0.00582565724670346	-0.0029834487885735	-0.000977032486301375	-0.00299130349587935	-0.000972555239281183	0.000869943225812491	-0.0133896736569251
6.6	0.00271469531787716	-0.00708587835781031	-0.00309149138045498	-0.000552479531116205	-0.00309312288050013	-0.000556453112044304	0.000326099462154052	-0.0138693631873033
6.7	0.000458750082407418	-0.00774576054386855	-0.00314209399312587	-0.000115164181249709	-0.00315094154555354	-0.000108891992414632	-0.000577553132601157	-0.0142270192729275
6.8	-0.00186666277794981	-0.00779566180048426	-0.00312071331704345	0.000325828819067283	-0.00313179834579093	0.000330870444580372	-0.00164452250139211	-0.0142456246261416
6.9	-0.00414924078841035	-0.00727460121389153	-0.00304561034530355	0.000758722562304688	-0.00304859551806435	0.000761110505968614	-0.00261273309369396	-0.0140211971258735
7	-0.00620592239384299	-0.00620165211388211	-0.00290931502752244	0.00117903056985155	-0.00292213373703509	0.00117683247542885	-0.00345950651227959	-0.0137501556510687
7.1	-0.00804051408102642	-0.00468920636764043	-0.00273205968380498	0.00156743964785059	-0.00272840131606971	0.0015761001055548	-0.00433796305729651	-0.0133382872866489
7.2	-0.00953498192924019	-0.00277453843587185	-0.00247626029955772	0.00193511565603846	-0.00248278613189633	0.00193719064640689	-0.0050461515901819	-0.0127713380016068
7.3	-0.0106952701629637	-0.000575114552656196	-0.00218161438720083	0.00225405643134116	-0.0021928227458355	0.00225910106505338	-0.00550927755253171	-0.0122766651336318
7.4	-0.0114720584139138	0.00183285623045241	-0.00184093886724272	0.00253735279497664	-0.00184782634837151	0.00255094943202485	-0.00598727451538469	-0.0120176186449272
7.5	-0.0117703013757493	0.00437906512374653	-0.00147621397063249	0.00277700125200729	-0.00146922973781733	0.00278439834818569	-0.00636840204566423	-0.0118727604072339
7.6	-0.0114160449781532	0.00690384983127272	-0.00107073060369212	0.00295616540890896	-0.00107210145460843	0.00295146899618578	-0.00669272510256931	-0.0119245009657617
7.7	-0.0105559680217984	0.00921785491925137	-0.000642898019180276	0.00307830402186481	-0.000644237074474435	0.00307724154924268	-0.00727381208857972	-0.0124170617904577
7.8	-0.00894940369051508	0.0111528252181371	-0.00021743163881449	0.00312832912512263	-0.000225243041539214	0.00313477992977727	-0.00813397660672712	-0.0126735065833838
7.9	-0.00679761159511203	0.012559065267249	0.000223709617549034	0.00313635214307304	0.000231650029490261	0.00313785660592381	-0.00902875064047199	-0.012607037632056
8	-0.00428366916151045	0.0134463477335245	0.000665769505634098	0.00306504760599539	0.000665847583039872	0.00306994794012398	-0.00996520736487984	-0.0123691529050804
8.1	-0.00158158742913159	0.0137938977213328	0.00107677317076445	0.00294797497369515	0.00109592407283228	0.00294907354559868	-0.0108411953147015	-0.0119295133392136
8.2	0.00108983846936852	0.0136024853039568	0.00148206580267672	0.00276752722988213	0.00149131924172847	0.00276033526165884	-0.0115790178652583	-0.0112962987975534
8.3	0.00365110627249269	0.0128814825969004	0.00185917023576429	0.00252871447742966	0.00185752027298777	0.00254226883715518	-0.0121752735219867	-0.0106436830070218
8.4	0.00597285882224228	0.0117406809009267	0.0021955479292727	0.00225103549796435	0.0021925164298049	0.00225080989786592	-0.0127576171323396	-0.0100577527843533
8.5	0.00801809928088593	0.0101437981046324	0.00248188351532793	0.0019202691361685	0.00248098535292838	0.00192345386243633	-0.0134320733360605	-0.00940325013789346
8.6	0.00968482873855167	0.00820964313154033	0.00272844371995107	0.00155967227460725	0.00273794795675542	0.00155312990494986	-0.0140511799876768	-0.00866856695964896
8.7	0.0109645964051537	0.0059222738095651	0.00291447979399218	0.00115671354812374	0.00292004173431951	0.001157437349576	-0.0145927949077069	-0.00790986883300871
8.8	0.0117721472532932	0.00337628980823714	0.0030512501793266	0.000745603303309361	0.00305702139152482	0.000736840484062665	-0.0151592751160264	-0.00719425321063486
8.9	0.0121390122441895	0.000567627773042399	0.00312880379922152	0.000311423286759714	0.00312793258955762	0.000309175360905447	-0.0155173358478194	-0.0062825512588053
9	0.0119158428405896	-0.00246288533490523	0.00313868662368501	-0.000132007507654621	0.00314184454642241	-0.000127904908463806	-0.0155826061014369	-0.00529616295125166
9.1	0.0110663061415429	-0.00556998391697038	0.00309261064348163	-0.000573605098140876	0.00309549590960801	-0.000560704270729508	-0.0153813729428619	-0.00443094508307536
9.2	0.00942371638729536	-0.00854533698165255	0.00298325054282913	-0.000991407402286752	0.00299091033726658	-0.00099428478605894	-0.0151180285957926	-0.00376846337744309
9.3	0.00706960347044795	-0.0111205970782669	0.00281480728678449	-0.00139695854085703	0.00281407634377367	-0.00140195053302125	-0.0148022469856754	-0.00316837922352481
9.4	0.00410332880775746	-0.0131195341659427	0.00259248351167418	-0.0017875634753158	0.00259899697017799	-0.00177996327976475	-0.0145241645122551	-0.00270586250573902
9.5	0.000630428293587152	-0.0142581606843564	0.00231744447211654	-0.0021222814783631	0.00232485887760837	-0.00212362921189585	-0.014346195494746	-0.00224214585656817
9.6	-0.00311757752739801	-0.0145920560970122	0.00200046219426155	-0.00242645589964011	0.0020007921334999	-0.00242547357296535	-0.0144180309851446	-0.00181630737784535
9.7	-0.00693180463002854	-0.0140050122048327	0.0016332210767469	-0.00267758278271521	0.00163875768296098	-0.00268489134039099	-0.014534755373659	-0.00122172537438785
9.8	-0.0106241995462702	-0.0125816195892628	0.00124808796679361	-0.00288706673780169	0.00125378769539183	-0.00287856564567539	-0.0146413356135035	-0.000524085084326839
9.9	-0.014002534344592	-0.0102641069504219	0.00084249171718464	-0.00302690627637439	0.000835158069289851	-0.00302567968940399	-0.0147963260967809	0.000304015668016298
10	-0.0168879066257929	-0.00723865280317149	0.000411877432353963	-0.00311668821236928	0.000404385780371841	-0.00312913568488554	-0.0148185120134271	0.0012301037930656
10.1	-0.0190562316577017	-0.00358792345358922	-3.08845330174534E-05	-0.00314855672899717	-4.11197568893103E-05	-0.00314316189823654	-0.0145994038666924	0.00210656125289188
10.2	-0.0204024004806713	0.000471167964385783	-0.000477634221961355	-0.00311187827434276	-0.000481042191704548	-0.00310909808648473	-0.0141800000425589	0.00290241910880585
10.3	-0.0208752481291161	0.0047873155783013	-0.000910729939450656	-0.00300612685663436	-0.000902637025504567	-0.00301520400969119	-0.0136231586944379	0.00353979295405412
10.4	-0.020424694651227	0.00914576593902867	-0.00130850827983719	-0.00285124932896789	-0.00130681280353495	-0.00285744760232378	-0.0128942699387028	0.00388125023566279
10.5	-0.0191096801741622	0.0134435537678664	-0.00170040043590033	-0.00265215557336981	-0.00169729347557215	-0.00263915068522302	-0.0122524248504716	0.00406321780647672
10.6	-0.016905072745881	0.0174759919258345	-0.00205327429128745	-0.00238172839379173	-0.00205108787874581	-0.00238555293766215	-0.0117321879622305	0.00411367377754901
10.7	-0.0138943743259247	0.0211691391263954	-0.00236851714195828	-0.00207932032764222	-0.00236502012122027	-0.00207403877310412	-0.011313487597206	0.00423889852980732
10.8	-0.0100790040991707	0.0242921336993613	-0.00263750614143139	-0.00171891502356859	-0.00263230835842002	-0.00172784452435459	-0.0109918788119188	0.00437355603092478
10.9	-0.00565949251318413	0.0267031690526128	-0.00284544529855805	-0.00134452572730434	-0.00285063376403326	-0.00134379300168146	-0.0107502319233255	0.00454326545640068
11	-0.000634117762569403	0.028261096151966	-0.00300438022901647	-0.000927914781946331	-0.00300922702154956	-0.000934654537993259	-0.0104630465955702	0.00483735552370665
11.1	0.00473154834922396	0.0288189905425911	-0.00311257796619109	-0.000502904353763512	-0.00310171699489084	-0.000500047321689532	-0.0100415539919061	0.0051067593317707
11.2	0.0102443534052047	0.0282352077309419	-0.00314176885946297	-6.52325850144198E-05	-0.00314892306156174	-7.00675900858109E-05	-0.0094478752625217	0.00532255496814009
11.3	0.0157007510924301	0.0264690864401269	-0.00311489585468287	0.000383395244236453	-0.00312643961048705	0.000373360456876192	-0.00863390920031666	0.00542633193136882
11.4	0.0206376754252609	0.0236365912323625	-0.00304123949990232	0.000811107179753886	-0.00303632421540536	0.000818672089934389	-0.00788012504500593	0.00528719783764503
11.5	0.0249459699018244	0.0198350451155211	-0.00289807057538766	0.00122663668571507	-0.0029008473876228	0.00123691281496901	-0.00732272743624607	0.00487096948680366
11.6	0.0285152688095245	0.0151633190464649	-0.00270385480725789	0.00161700791117324	-0.00270383551552297	0.001619948017504	-0.00683567637536872	0.00431889751846843
11.7	0.0311444795577454	0.00986174809598643	-0.0024427372227377	0.00197184339048464	-0.0024433002122928	0.00198044837917035	-0.00642790123774738	0.00364291283905198
11.8	0.0327842913191476	0.00413805629063102	-0.00214753918308535	0.00230420485417099	-0.00215165430737984	0.0023059038205757	-0.00615827806655035	0.0029899431435979
11.9	0.0334389333138256	-0.00184003482516115	-0.00179829591779844	0.00258058416949739	-0.00181131760729531	0.00258489308824637	-0.00601894500433443	0.00263119373768956
12	0.0328165021744145	-0.00790776610658382	-0.00142482430178577	0.00280392508647168	-0.00142422812629642	0.00280533692071436	-0.0059348401306726	0.00233131550852013
