# GHZ S RI R 50
0.2	0.00590240109953583	0.00124323821952678	0.00304834007171171	-0.000897933450548102	0.003058708725533	-0.000891124560114157	-0.0140481170156085	0.004895004864552
0.3	0.00621782664984515	-0.000704596929236801	0.00290412146687567	-0.0013213564705694	0.00289687532017776	-0.00130841779433099	-0.0132538068960271	0.00509596119569812
0.4	0.00597366398199903	-0.00235117106284255	0.00267248546660473	-0.00169312081144939	0.00267775273765008	-0.00170168135427964	-0.0127328691812859	0.00563999382415637
0.5	0.00526954132072253	-0.00374409697549205	0.00241362236362459	-0.00204979869002356	0.00242515931830682	-0.00206203840625563	-0.0122147846394857	0.00624846036287484
0.6	0.00425880265930469	-0.00480390148023665	0.00210108499070638	-0.00236423875341424	0.00210029845542465	-0.00237138795028636	-0.0117345681186545	0.00681422523731344
0.7	0.00297530834537626	-0.00549722556243552	0.00175393983689459	-0.00264194800714948	0.0017519839473933	-0.00264214679764581	-0.011384059450634	0.00740891214583595
0.8	0.00164415510440603	-0.00584784124976727	0.00136853985890628	-0.00285927563438592	0.00135594079782057	-0.00286382423536959	-0.0110439738949514	0.00814236211715173
0.9	0.000220370184406475	-0.00582821077271728	0.000951520370975969	-0.00302276791679743	0.000952555095490514	-0.00303346626759365	-0.0106501263283318	0.00892230648678588
1	-0.00115787737431702	-0.0055183678290133	0.0005267425089464	-0.00312613842102828	0.000516881601504433	-0.00312687828330123	-0.0101429787945436	0.00973894714422768
1.1	-0.0025210195265599	-0.00497402815788307	7.119367584602E-05	-0.00315490760213703	6.76867850437388E-05	-0.00317255624522127	-0.00962155717679148	0.010618045306023
1.2	-0.00380885930683425	-0.00441062574089236	-0.00037086377001798	-0.003144279183032	-0.00037167543468059	-0.00314220298462727	-0.00868951606903937	0.0114954034277508
1.3	-0.00516242696253454	-0.00393892348949852	-0.000797903826177831	-0.00306106935375699	-0.00080114350320928	-0.00306307429403477	-0.007150264889675	0.0121448341163881
1.4	-0.0063420129146809	-0.00334582394155565	-0.00121911967924115	-0.00291284213172947	-0.00121790681735173	-0.00291837463887665	-0.00545792291742362	0.0120364384896891
1.5	-0.00687666636967043	-0.00225110646153673	-0.00161990631236218	-0.00271701926322299	-0.0016182945025193	-0.00272551859107159	-0.00410532026873422	0.0115629043765899
1.6	-0.0068126261052932	-0.000774510579106486	-0.00198040676198065	-0.00246466976123839	-0.00198061763510508	-0.00246990345659484	-0.00353153530927012	0.0114037505642408
1.7	-0.00622693600452754	0.000689508133330291	-0.00230880816463183	-0.00216789406480558	-0.00230977379880049	-0.00216163324694258	-0.00292760819428501	0.0115664064370677
1.8	-0.00532973898060155	0.00208999920861302	-0.00257984883844866	-0.00181649451872611	-0.00259081351924143	-0.00182213084495045	-0.00226460154236381	0.0117302011379718
1.9	-0.00415281846464839	0.00315527019283901	-0.00280523434232054	-0.00144585331026406	-0.00281767307257502	-0.00143970094945949	-0.00161269169340976	0.0118837628167586
2	-0.0028199509599306	0.00391299460435538	-0.00298097855031448	-0.00103823164114208	-0.00299059962114511	-0.00103352380628032	-0.000975031986469393	0.0120978755834915
2.1	-0.00137494448848524	0.00427577995956941	-0.00309450796290172	-0.000609805712002947	-0.00309042499537447	-0.000611797317050964	-0.000176329503520036	0.012226830110225
2.2	6.24246417219043E-05	0.00432319325969351	-0.00315190412846749	-0.000171467170821961	-0.00316320702798614	-0.000174302525496962	0.000793374282857972	0.0122211513071102
2.3	0.00143567795730163	0.0039351246229934	-0.0031472081473032	0.000272023178725022	-0.00314690623356786	0.000265140822010829	0.00171588845734807	0.0119549000782402
2.4	0.00262687460537597	0.00326647290510824	-0.00307465438802926	0.000710437493711727	-0.0030771957884531	0.000706180820401752	0.00255492042688265	0.0116444563462571
2.5	0.0036018657715476	0.0023105190767283	-0.00293741045343776	0.00112277302283752	-0.00294829755792181	0.00112915421609331	0.00337740060554368	0.0112285419955328
2.6	0.00439354361610878	0.0011680589161388	-0.00276324114005854	0.00152581630616359	-0.00275968700498411	0.0015134942458858	0.00419350753581489	0.0107252142145539
2.7	0.00503438460580423	-0.000131693325023406	-0.00251704446523926	0.00189710245565643	-0.00252232387473022	0.00189711469585337	0.00485158075860211	0.0101311664327394
2.8	0.00554962863387302	-0.00162033825139124	-0.0022338205570944	0.00222442780499504	-0.00222600522664906	0.00223421404665556	0.00537391678246567	0.00966139586593275
2.9	0.00588605704679188	-0.0033289587586461	-0.0018991734700016	0.00252431517879086	-0.00189546520441135	0.00252388721553759	0.00607448264226102	0.00935718362653217
3	0.00583561310521238	-0.00523120023425513	-0.00151262318783218	0.00275935547593412	-0.00152739873380426	0.00276545809884119	0.00695440333095568	0.00903340587311171
3.1	0.00538815683134757	-0.00718619152346448	-0.00112219724666493	0.00293604745022246	-0.00111753906093944	0.00294438659189842	0.00780902213158704	0.00852318180093467
3.2	0.0043679397138052	-0.00908893016047094	-0.000701624010102468	0.00307273643042876	-0.000703368172546013	0.00307212644540796	0.00842584943703469	0.00801002800626402
3.3	0.00288134776364177	-0.0108791995571779	-0.000263252852696026	0.0031420843384893	-0.000261605581103688	0.00313834486273756	0.00911653129090438	0.00740318691282789
3.4	0.000871618675009764	-0.0122906948316551	0.000183408473287649	0.00313560719842246	0.000177209329949867	0.00315216807622194	0.00978268127668368	0.00656849714619249
3.5	-0.00146974430585735	-0.0133139694104588	0.000604943422306634	0.00309240602136383	0.000610537433597902	0.00309248028013462	0.010172653624575	0.00548792721429851
3.6	-0.00408694993582153	-0.0137722009848674	0.00103316271779441	0.00297294261562164	0.001041351978787	0.0029726235707988	0.0103482006660842	0.00457779526449078
3.7	-0.00676059673021733	-0.0136484193228848	0.00144348852401461	0.00279176334206449	0.00143390777327014	0.00280543679768833	0.0105536826572682	0.00373733536282226
3.8	-0.00939180996409603	-0.0129450948685766	0.00182138465859969	0.00256447903866637	0.00182378982013077	0.00257362585904004	0.0106859987243447	0.00289189662862409
3.9	-0.0117492878707873	-0.0117275679451318	0.00216699406316793	0.00229125285261635	0.00215973030952253	0.00228947523219771	0.0107245162524977	0.00207616940362177
4	-0.0138178344010972	-0.0101075413443014	0.00245152564840869	0.00196997603496596	0.00245597294626984	0.00196754153439165	0.0107787345628297	0.00140086888290612
4.1	-0.0155423478745865	-0.00815194115484408	0.00270332792269048	0.00160993950063056	0.0027020757571996	0.00161067532005902	0.0109874299407123	0.000779470186659617
4.2	-0.0169332471485016	-0.0058808450751768	0.00290238396513963	0.00120860335317382	0.00290684741952977	0.00119988878778663	0.0112324782075624	6.5469322862623E-05
4.3	-0.0179151821271064	-0.00343694040882594	0.00304517769485846	0.000796396665437078	0.00305159745551926	0.000788594502611916	0.0114267890507394	-0.000827576198240309
4.4	-0.0185637048431733	-0.000790802703843623	0.00312120854247568	0.000362212940262802	0.00312358193568808	0.00035995654647387	0.0114130815456195	-0.00173800211135116
4.5	-0.0187665553523555	0.00201411186424103	0.00314362170871922	-7.57806644087364E-05	0.00314897998428148	-7.91540693697005E-05	0.0113568877800318	-0.00260111148702455
4.6	-0.0185290589353603	0.00484339057430892	0.00309922029202182	-0.000518483637704886	0.00310045135490989	-0.000505574787328278	0.0111971582936489	-0.00354080153537495
4.7	-0.0176893255944549	0.00767226366210909	0.00299368476895076	-0.00093707948224754	0.00300896259391732	-0.000946696081948287	0.0108736241697208	-0.00447370399531148
4.8	-0.0163522582372821	0.010319526293119	0.00283236511771673	-0.00135084958165778	0.00284083839765726	-0.00135693782587034	0.0104476368444728	-0.00527637138915331
4.9	-0.0143343856844033	0.0126578258661561	0.00261144899794173	-0.00173459026460859	0.00261561374771847	-0.00173168782005411	0.0100572152473109	-0.00590639114360559
5	-0.011853515862403	0.0144514161320486	0.00235165454303561	-0.00208926252983088	0.00235527474464639	-0.00208660070153449	0.0099426876581533	-0.00643573563198422
5.1	-0.0088976991589797	0.0156952698462994	0.00204091456432514	-0.00239936053625771	0.0020432139055385	-0.00239800418614466	0.00995610095230413	-0.0071344300487068
5.2	-0.00584229021923959	0.0162468530435636	0.00168351745233313	-0.00264875959343278	0.00168522852411786	-0.00265389866943872	0.00988462131766291	-0.00791573541454956
5.3	-0.00278643198704866	0.0161866486144895	0.00129713960527861	-0.00286372211578316	0.00130026970591467	-0.00286166153409782	0.00972391599274539	-0.00864574820698798
5.4	9.49414503340566E-05	0.0155809944977586	0.000872765123541705	-0.00301084215624039	0.000889914372344129	-0.00302204165934785	0.00953562540792094	-0.00953039592829589
5.5	0.00267010225183162	0.0145359476481839	0.000459705610553519	-0.0031084256066412	0.000469749372812352	-0.00311784524453331	0.00908050754101673	-0.0105354789225954
5.6	0.00491324198112027	0.0130962489285408	2.17754068557037E-05	-0.00314440281086667	1.3257655986978E-05	-0.00314761891462939	0.00825959580729717	-0.0113626786585169
5.7	0.00672129023898847	0.0113633150354753	-0.000408721333022533	-0.00311389781759153	-0.00042531872993903	-0.00311755625190252	0.00726708016630509	-0.0118729389931079
5.8	0.00812967470625147	0.0093750424491074	-0.00085409121499229	-0.00301909029188363	-0.000857622199207613	-0.0030330673155841	0.00629876778964325	-0.0123465083414799
5.9	0.00905647521216508	0.00726262435890254	-0.001258514795365	-0.00287932388645334	-0.00126673818256882	-0.00287924332819135	0.00519275937341944	-0.0127019643172826
6	0.00949081541543565	0.00500128517736833	-0.00165635158719153	-0.00267333790946545	-0.00165279337538494	-0.00267350394132398	0.00395807413552873	-0.0127977562519694
6.1	0.00944980651855609	0.0026943615993973	-0.00201111185369475	-0.00241910994348158	-0.00201275034236498	-0.00241510912979794	0.00298151353939124	-0.0126002912992804
6.2	0.00892564710350747	0.000364100775000834	-0.00232360090441202	-0.00210621312554937	-0.00232730598532274	-0.00211807457616944	0.00232355225378845	-0.0124934987584021
6.3	0.00800449225973949	-0.00190189124539828	-0.0026010866171647	-0.00177202476542956	-0.00261020773663557	-0.00176629118211728	0.00181479903792974	-0.0126613954018855
6.4	0.0065876078801165	-0.00403185178415128	-0.00282710726733905	-0.00138169996573733	-0.00281739048242019	-0.00138659812055783	0.00133287435344539	-0.0129660379181355
6.5	0.00480399886397845	-0.00582648462019429	-0.0029834750306506	-0.000977083557631609	-0.00299132989769343	-0.000972606353376943	0.000872150182192973	-0.0133935985482768
6.6	0.00271399438051568	-0.00708561600707837	-0.00309153654797191	-0.00055252440848097	-0.00309316802937458	-0.000556498074478771	0.00032844416041234	-0.0138737370067629
6.7	0.000459159415310811	-0.00774529196110709	-0.00314215668056599	-0.000115197227653779	-0.00315100447397689	-0.000108924997902569	-0.000575081644597066	-0.0142320451006714
6.8	-0.00186562455585922	-0.00779631433145656	-0.00312079022754321	0.000325813020340128	-0.00313187555882223	0.000330854682400496	-0.00164207551042605	-0.0142515025643272
6.9	-0.00414858057885097	-0.00727512442844408	-0.00304569694497997	0.000758728262557498	-0.00304868221069066	0.000761116256552221	-0.00261233445666459	-0.0140261425628983
7	-0.00620635727646346	-0.00620256403301164	-0.00290940555395758	0.00117906124457223	-0.00292222464921526	0.00117686306058169	-0.00345913777338863	-0.013755317511994
7.1	-0.00804166901073937	-0.00468929997451485	-0.00273214780210225	0.00156749674893899	-0.00272848929697717	0.00157615748833454	-0.00433761175421547	-0.0133436740313642
7.2	-0.00953553230168902	-0.0027738201242427	-0.00247633774135558	0.00193519931163103	-0.00248286379532748	0.00193727441415523	-0.00504564506349288	-0.0127770186090655
7.3	-0.0106945880077683	-0.000575456053204827	-0.00218167406858514	0.00225416404364079	-0.00219288280042344	0.00225920898263417	-0.005508003772201	-0.0122830132127155
7.4	-0.0114691967561614	0.00183713030430129	-0.00184097436999882	0.00253748012074163	-0.00184786192368989	0.00255107739635294	-0.00599237444295101	-0.0120198320874549
7.5	-0.0117672880803494	0.00438231980880592	-0.0014762196175145	0.0027771427913718	-0.00146923495673433	0.00278454005127041	-0.00637484692907594	-0.0118741155345222
7.6	-0.0114205857028191	0.00689748989693654	-0.0010707009482872	0.00295631287238584	-0.00107207197191433	0.0029516163016981	-0.00669178726989714	-0.0119387884339012
7.7	-0.0105550106228827	0.00921644594829424	-0.000642833080532697	0.0030784486931009	-0.000644172221944657	0.00307738621677938	-0.00727731333074409	-0.0124202576398483
7.8	-0.00894929037857305	0.0111502087361869	-0.000217332019066899	0.00312846198333362	-0.00022514351135196	0.00313491331692416	-0.00813596474910321	-0.0126773990896111
7.9	-0.00679959403008853	0.0125564036577714	0.000223842214514966	0.00313646505923447	0.000231782994145492	0.00313796926677569	-0.00903181394599043	-0.0126104106414422
8	-0.00428655450099944	0.0134432054501775	0.00066592963009341	0.0030651314533883	0.000666007927047831	0.00307003196518031	-0.00996578350714621	-0.0123758354752108
8.1	-0.00158551892141529	0.0137954684026087	0.0010769537814491	0.00294802493862119	0.00109610540139112	0.00294912261805452	-0.0108425879777795	-0.0119334417447035
8.2	0.00108826462407995	0.0136052959511372	0.00148225910262919	0.00276753765918374	0.00149151245866019	0.00276034497308539	-0.0115799949268803	-0.0113006553538994
8.3	0.00365168867576741	0.0128838134449251	0.00185936685702107	0.00252868254542567	0.00185771761234848	0.00254223739025039	-0.0121761123464527	-0.0106483996371567
8.4	0.00597422598702329	0.0117416584655385	0.00219573879988751	0.00225096131239985	0.00219270720961603	0.00225073588821897	-0.012758484978748	-0.0100627799871514
8.5	0.00801906596645142	0.0101440664187557	0.00248205854353569	0.00192015468082329	0.00248116056213219	0.00192333953306614	-0.0134330641012154	-0.00940855638682931
8.6	0.00968567743797416	0.00821033205287848	0.00272859483216168	0.00155952101506248	0.00273809880921205	0.00155297790465045	-0.0140522959389368	-0.00867422381837765
8.7	0.0109636720306899	0.00592340159055021	0.00291459850423317	0.00115653149926857	0.00292016057032193	0.00115725493287059	-0.0145947214484935	-0.00791402863351128
8.8	0.0117727004245501	0.00337714501332132	0.00305133118025837	0.000745397284738401	0.0030571018352139	0.000736633979365937	-0.0151612418666127	-0.00719825238474297
8.9	0.0121400253727299	0.00056668037179707	0.00312884180832624	0.000311201540205835	0.00312797043382311	0.000308953665195585	-0.0155193159178141	-0.00628646855951243
9	0.0119153891051856	-0.00246547817855661	0.0031386784955799	-0.000132235232425788	0.00314183671735433	-0.000128132860402723	-0.015584581491769	-0.00530011013643781
9.1	0.0110660956988611	-0.00557209443258847	0.00309255532932071	-0.000573829328936194	0.00309544152871322	-0.000560928768366589	-0.0153830674512185	-0.00443505680976513
9.2	0.00942278538180159	-0.00854717586045953	0.00298315027836513	-0.000991618022026369	0.0029908097909274	-0.000994495943553473	-0.0151197344109345	-0.0037725994085885
9.3	0.00706812437498403	-0.0111224906332567	0.00281466490032952	-0.00139714582071684	0.00281393360056807	-0.00140213768878128	-0.0148039792229019	-0.00317242661142146
9.4	0.00409536567954208	-0.0131163474663349	0.00259230325155218	-0.0017877187483305	0.0025988171409002	-0.0017801191742776	-0.0145286781660701	-0.00270162466265862
9.5	0.000624112513948572	-0.0142631985852519	0.00231723605916603	-0.0021223959593037	0.00232465018785694	-0.00212374419138999	-0.0143494272513325	-0.00224913465502033
9.6	-0.00312498873416488	-0.0145934474937639	0.00200023383171532	-0.00242652453825973	0.0020005638299495	-0.00242554226348459	-0.014421296026348	-0.00182247087845779
9.7	-0.00693794285233113	-0.0140030879410421	0.0016329841468669	-0.00267760132513977	0.00163852006938589	-0.0026849100063137	-0.0145377109313943	-0.00122708513647291
9.8	-0.0106278407185982	-0.0125781421782921	0.00124785268113932	-0.00288703468027543	0.00125355273656388	-0.00287853428833942	-0.0146437710237619	-0.00052876568385232
9.9	-0.0140003840630274	-0.0102629531802807	0.000842270006947342	-0.0030268261822935	0.000834936752913465	-0.00302559920024218	-0.0147947005657098	0.000298812217999401
10	-0.0168859973559659	-0.00723868744762241	0.000411680345549802	-0.00311656335359713	0.000404188341223559	-0.00312900980714669	-0.0148166258429612	0.00122452517017356
10.1	-0.0190546297384222	-0.00358804459413529	-3.10472132933368E-05	-0.00314839383955237	-4.1281631436221E-05	-0.00314299875115267	-0.0145973833707788	0.00210058156392218
10.2	-0.0204001522666531	0.000471033041171177	-0.000477754139739276	-0.00311168697843525	-0.000481161794202384	-0.00310890678176392	-0.0141779851906504	0.00289611768739383
10.3	-0.0208722899096288	0.00478600887430427	-0.000910801907412389	-0.00300591898846318	-0.000902709825482331	-0.00301499595966496	-0.013621250932751	0.00353327890269787
10.4	-0.0204224518640085	0.00914267021750763	-0.00130853174050815	-0.00285103709125362	-0.00130683658019727	-0.00285723506219668	-0.0128925703063637	0.00387462284491915
10.5	-0.0191095366475491	0.0134397924178906	-0.00170037573658382	-0.00265194969988527	-0.00169726858746871	-0.00263894567126823	-0.0122509856677423	0.00405648016920431
10.6	-0.0169067134337953	0.0174731997226768	-0.00205320542341922	-0.0023815415585044	-0.00205101922546596	-0.00238536592413186	-0.011731043382724	0.00410684568590968
10.7	-0.0139504073488852	0.021141673680718	-0.00236842342733593	-0.002079164326433	-0.00236492650606594	-0.00207388312386773	-0.0113101357556913	0.00418034501448313
10.8	-0.0100813215202245	0.0242910424577332	-0.00263737210666098	-0.00171879231398265	-0.00263217470368377	-0.00172772135513176	-0.010991423097427	0.00436643189283129
10.9	-0.00566062370629928	0.0267030624504159	-0.00284529455678472	-0.00134444318542676	-0.00285048273704214	-0.00134371048288201	-0.0107499357336215	0.00453801616889035
11	-0.00063650276240351	0.0282617360362315	-0.00300422338451507	-0.000927874545456696	-0.00300906991094717	-0.000934613966927742	-0.0104624462229892	0.00483197202904248
11.1	0.00472894019868736	0.028821732193014	-0.00311242548563255	-0.000502904732084053	-0.00310156505502751	-0.000500047751290816	-0.0100406202520353	0.0051010691109742
11.2	0.0102435307153364	0.0282398346743472	-0.00314163157030993	-6.52696664105655E-05	-0.00314878540024463	-7.01045523680681E-05	-0.00944669062257396	0.00531640099005922
11.3	0.0157012329221218	0.0264738606968771	-0.0031147817893848	0.000383327259718723	-0.00312632492703263	0.000373292663961153	-0.00863356640885184	0.00541827128004374
11.4	0.0206401508183052	0.0236402886338843	-0.00304115445579604	0.000811016582949676	-0.00303623949379596	0.000818581342000497	-0.00788032405650329	0.00527921079225842
11.5	0.024949839416509	0.0198369146935534	-0.00289801915693374	0.00122653253602839	-0.00290079613931258	0.00123680831115317	-0.00732211940338917	0.00486389979308049
11.6	0.0285192398901161	0.0151643927000188	-0.00270383840778879	0.0016168995138808	-0.00270381919544381	0.00161983955567437	-0.00683517059812744	0.00431148209627013
11.7	0.0311491949221955	0.00986179650846137	-0.00244275531015794	0.00197174073386883	-0.00244331854076801	0.00198034556802493	-0.00642766007783849	0.00363535413992599
11.8	0.0327889407086941	0.00413609821636103	-0.0021475890293518	0.00230411631274086	-0.00215170416565501	0.00230581513603183	-0.00615861733068328	0.00298264888478379
11.9	0.0334482673347952	-0.00184623267112366	-0.00179837233079872	0.0025805192426854	-0.00181139411736713	0.00258482773508615	-0.00601543372074398	0.00262112242163997
12	0.0328151487895686	-0.0079088699495755	-0.00142492041593608	0.00280388760464053	-0.0014243242846128	0.0028052994628894	-0.00593927399846655	0.00232810606003128
