# GHZ S RI R 50
0.2	0.00566157676206415	0.00147937957789296	0.00304834897845136	-0.00089792016545277	0.00305871761520401	-0.000891111214964103	-0.0142889903630434	0.00513105633544638
0.3	0.00614240248594655	-0.000546441731574987	0.00290413462637614	-0.00132135821784354	0.00289688843518055	-0.00130841949886213	-0.0133293182430071	0.00525411702669464
0.4	0.00595397866652258	-0.00236364666366054	0.00267249045968175	-0.00169313465284681	0.00267775772567513	-0.00170169524215147	-0.0127526012818157	0.00562760334983433
0.5	0.00516483305180367	-0.00391002441570558	0.00241361463806163	-0.00204981511662544	0.00242515154230628	-0.00206205491503334	-0.0123194652407383	0.00608264612700328
0.6	0.00398785128169348	-0.00500886702534589	0.00210106667595607	-0.00236425130205777	0.00210028009158525	-0.00237140048715447	-0.0120054255767195	0.00660936181779494
0.7	0.00256933676748041	-0.00560526864496859	0.00175391228937553	-0.00264195297501802	0.00175195640511197	-0.00264215174897041	-0.0117898802190378	0.00730094040241539
0.8	0.00122696221271584	-0.00579338762797524	0.00136850613436545	-0.00285926694438815	0.00135590712404004	-0.00286381540724245	-0.0114609744955117	0.00819682410958713
0.9	-7.57265559091406E-05	-0.00566504334132152	0.000951489570252968	-0.0030227422005674	0.000952524210623448	-0.00303344044440882	-0.0109460403868263	0.00908538795995405
1	-0.00128944827287619	-0.00538808838115951	0.000526723069058314	-0.00312610100683934	0.000516862283397842	-0.00312684081946231	-0.0102744488467268	0.00986911383602196
1.1	-0.00257572928279219	-0.00500284407422891	7.11868197540412E-05	-0.00315486574438947	6.76799425729264E-05	-0.00317251414600876	-0.0096763052371851	0.0105892065598203
1.2	-0.00393792515621885	-0.0045994176180132	-0.000370860230467416	-0.00314423575158809	-0.000371671882935707	-0.00314215958133723	-0.00881989708311384	0.0113074513578885
1.3	-0.00542442124322682	-0.00416927219773401	-0.000797887582017143	-0.00306102404218522	-0.000801127207228005	-0.00306302895647077	-0.00741347971712607	0.0119161135530837
1.4	-0.00667677781978871	-0.00354880100344317	-0.00121908797851684	-0.00291279995142549	-0.0012178751135699	-0.00291833236398202	-0.005793070351522	0.0118351837500279
1.5	-0.00727333386183916	-0.00241929235391842	-0.00161986277417538	-0.00271698385660899	-0.00161825093942831	-0.00272548303302802	-0.00450152495657937	0.0113943790730602
1.6	-0.007272636367486	-0.000847550036688569	-0.00198035156522062	-0.00246464304050914	-0.00198056239113456	-0.00246987664591699	-0.00399138032820252	0.0113324477316869
1.7	-0.00666665011359043	0.000750494076986262	-0.00230874109878386	-0.00216788038726182	-0.00230970678624338	-0.00216161969552101	-0.00336730869357437	0.0116283448155647
1.8	-0.00566543245813142	0.00222788687300724	-0.00257977475596951	-0.0018165003781727	-0.00259073915325663	-0.00182213676707943	-0.00260037672516797	0.0118679559292791
1.9	-0.00438215359559277	0.00327122365343337	-0.00280516294132145	-0.00144588098458856	-0.00281760158314334	-0.00143972894866444	-0.00184214722088855	0.0119996702791064
2	-0.00301679037420903	0.00395289401779382	-0.00298091735005469	-0.00103827684736523	-0.00299053838374877	-0.00103356926797263	-0.00117193472917128	0.012137732852553
2.1	-0.00161636237047017	0.00427218196046728	-0.00309445996612418	-0.00060986263568741	-0.00309037700417786	-0.000611854133615039	-0.000417812076426215	0.0122232646649997
2.2	-0.000229526947026198	0.00435695118883209	-0.00315186948157642	-0.000171530847545314	-0.00316317221078452	-0.00017436640865378	0.000501436315261248	0.0122548690722515
2.3	0.0011662965338054	0.00404940285920796	-0.00314718483385266	0.000271955893913161	-0.00314688278120489	0.000265073606642687	0.00144663927412097	0.0120690582219153
2.4	0.00245791617271606	0.00341412232590905	-0.00307463924914332	0.000710367069308329	-0.00307718053695486	0.000706110384765686	0.00238756616010465	0.0117926912109601
2.5	0.00353219253036986	0.0023942972022634	-0.0029374060418691	0.0011226970123175	-0.00294829317900499	0.00112907790178978	0.00330960064299689	0.0113123138355262
2.6	0.0043406894625569	0.0011436670529611	-0.00276325100223621	0.00152573619512621	-0.00275969660865655	0.00151341433665555	0.00414245789807757	0.0107001307923184
2.7	0.00493363693952813	-0.000222002927536666	-0.00251706922564977	0.00189702313746117	-0.00252234858857536	0.00189703524649295	0.00475215809375088	0.0100396961943596
2.8	0.00540917071348628	-0.00172928284149042	-0.00223385798825836	0.00222435080007318	-0.00222604297811913	0.0022341371561399	0.00523423027975681	0.00955116168772028
2.9	0.00572328929188976	-0.00346575612307191	-0.0018992238560328	0.00252423890713125	-0.00189551561474833	0.00252381104911333	0.00591078815610898	0.00922034317542463
3	0.00561874127228939	-0.00540669946777903	-0.00151268991858808	0.00275928320144045	-0.00152746549844261	0.00276538532575049	0.00673646677948895	0.00885803878129106
3.1	0.00507919747702673	-0.00735736534509074	-0.00112228369450895	0.00293598574848054	-0.00111762582113685	0.00294432497144275	0.00749934404144953	0.008352172295547
3.2	0.00399106821782402	-0.00919233673087734	-0.000701726080510569	0.00307268373074078	-0.000703470205567194	0.00307207368970466	0.00804847377334333	0.00790688658051913
3.3	0.00250213915666942	-0.0108975565958492	-0.000263375638415113	0.00314205121893123	-0.000261728230318195	0.00313831183553019	0.0087367721754861	0.00738524553007378
3.4	0.000534563030431784	-0.0122680213324452	0.000183270334514036	0.00313560484062767	0.00017707048536785	0.00315216539158753	0.00944510046795286	0.00659163833155835
3.5	-0.00178497144534978	-0.0132978068880098	0.000604803267712316	0.00309244092730494	0.000610397288651311	0.00309251544233414	0.0098567769846288	0.0055045506866237
3.6	-0.0044214405602234	-0.013754296777196	0.00103302778876289	0.00297301525649411	0.00104121712838013	0.00297269660287482	0.0100130378899058	0.00459644337905136
3.7	-0.00711225246202209	-0.0135796345745764	0.00144337277466235	0.0027918714772721	0.00143379122976196	0.00280554465467088	0.0102012344499345	0.00380728222965166
3.8	-0.00970090143522168	-0.0128111550272539	0.00182129847347249	0.00256461728123702	0.00182370324591812	0.00257376439917403	0.0103762718591735	0.0030273852875132
3.9	-0.0119721169813309	-0.0115841542999461	0.00216694663866702	0.00229141109814347	0.00215968277598208	0.00228963310148169	0.0105014736949948	0.00222150168687855
4	-0.0139844997469553	-0.010020239353024	0.00245152030062243	0.0019701400661512	0.00245596783945621	0.00196770567481688	0.0106125634545267	0.00149019406676982
4.1	-0.0157178737516349	-0.00812158756463531	0.00270336402294733	0.00161009796251895	0.00270211178532588	0.00161083376133177	0.0108130376095085	0.000811603000442474
4.2	-0.0171366418364559	-0.00585704733129424	0.00290245871085797	0.00120874478447946	0.00290692262265233	0.00120003002169461	0.011030816128684	9.04536893363454E-05
4.3	-0.0181063967276108	-0.00339595356117922	0.00304528518227622	0.000796510336596253	0.00305170541887699	0.000788708013541262	0.0112370140290107	-0.00078629844973242
4.4	-0.0187119950634356	-0.000767488830149873	0.00312133546778635	0.000362289339414124	0.00312370900687574	0.000360032895034588	0.0112662721049739	-0.00171470918860911
4.5	-0.0188990449140286	0.0019728347723752	0.00314375343873902	-7.57423255541867E-05	0.00314911198165598	-7.9115800079237E-05	0.0112259091048205	-0.00264276942421579
4.6	-0.0187066351849756	0.00474248365044249	0.00309934621246946	-0.000518476361710564	0.00310057720871465	-0.000505566995109107	0.0110211243841305	-0.00364181412522791
4.7	-0.0179339395887896	0.00756704564098965	0.00299379703696563	-0.000937099508834913	0.00300907545711449	-0.000946716385075964	0.0106303801736174	-0.00457924549179774
4.8	-0.0166262354768634	0.0102495935654747	0.00283245943992427	-0.00135088716977025	0.00284093300640011	-0.0013569755925267	0.0101751633148032	-0.00534739835012119
4.9	-0.0146015223458868	0.0126031842581816	0.00261152491980401	-0.00173463940003528	0.00261568978871561	-0.00173173687033285	0.00979128813894127	-0.00596216520327437
5	-0.012131870399884	0.0143810104196231	0.00235171421772878	-0.00208931713042391	0.00235533451341948	-0.00208665523505694	0.00966518197047624	-0.00650734679722541
5.1	-0.00922379765925396	0.0156346098967699	0.00204096105724277	-0.00239941710729052	0.00204326045243482	-0.00239806072655896	0.00963059316968249	-0.00719633020525726
5.2	-0.00619312627412588	0.0162501187738761	0.0016835537180957	-0.0026488167251147	0.00168526482671001	-0.00265395591195126	0.0095340649351688	-0.00791369279758064
5.3	-0.00309324692956001	0.0162508534383156	0.00129716790955995	-0.0028637807219361	0.00130029807392548	-0.00286172009601811	0.00941706030513094	-0.00858256471499701
5.4	-0.000142047564008055	0.0156384271250307	0.000872785007971793	-0.00301090314540442	0.000889934615079433	-0.00302210286599262	0.00929843619579583	-0.00947367954297604
5.5	0.00245246209311467	0.0145358955465502	0.00045971689999554	-0.0031084889022036	0.000469760873381976	-0.0031179087266677	0.00886249460098457	-0.0105360826044819
5.6	0.00464936559597025	0.013063639368505	2.17775350557343E-05	-0.00314446854705819	1.32596077790864E-05	-0.003147684722619	0.00799523959482195	-0.0113956770600948
5.7	0.00640788524738651	0.0113696646173392	-0.000408735213240274	-0.00311397134562402	-0.000425333009886872	-0.00311762984482717	0.00695362602450892	-0.0118671751234744
5.8	0.00782924525872901	0.00945599218992661	-0.000854124755149037	-0.00301916270381191	-0.000857655884051127	-0.0030331400644694	0.00599835220499927	-0.0122662580948005
5.9	0.00883548463452835	0.00737875068900002	-0.00125857131397217	-0.00287938697516526	-0.00126679491106603	-0.00287930634546043	0.00497144960639702	-0.012586277725069
6	0.00934934525179108	0.00507577481263089	-0.00165642775733715	-0.00267337960695559	-0.00165286946235392	-0.00267354569121975	0.00381645036235518	-0.0127238415958543
6.1	0.00932674483916431	0.00269148195932934	-0.00201119734829381	-0.00241912371438992	-0.00201283579857853	-0.00241512278806263	0.00285820147226253	-0.0126036564335894
6.2	0.00877460585168508	0.000315635494336566	-0.00232368567528969	-0.00210619774498694	-0.002327391076658	-0.00211805931335052	0.00217254317686536	-0.0125423587709904
6.3	0.0078381837155022	-0.0019630008660128	-0.00260116106517728	-0.00177197898227676	-0.00261028214298271	-0.00176624510269494	0.00164775080281155	-0.0127234151095774
6.4	0.00641744077531241	-0.00413252525551682	-0.00282716079001941	-0.00138162849062276	-0.00281744409008077	-0.00138652694229039	0.00116194304506759	-0.0130673473837442
6.5	0.00457619958178758	-0.00597640433493979	-0.00298349897331195	-0.000976995066598789	-0.00299135369782239	-0.00097251764008976	0.000643497540773537	-0.0135440694448105
6.6	0.00239020672424225	-0.0072169627801873	-0.00309152685174101	-0.000552429611401274	-0.00309315843543089	-0.000556403196595336	3.54824919963753E-06	-0.0140057293470984
6.7	8.96333829981512E-05	-0.00778710480591648	-0.00314211266846167	-0.000115106010199875	-0.00315096015006485	-0.000108833622852468	-0.00094610364503255	-0.0142744239454275
6.8	-0.00219575821080893	-0.00776023398512204	-0.00312071161930462	0.000325889948448315	-0.00313179656651936	0.000330931796891838	-0.00197438083796865	-0.0142157196092588
6.9	-0.00441402786109357	-0.00723773332169439	-0.00304558754787685	0.000758776473983707	-0.00304857266797844	0.000761164465753917	-0.00287839907297195	-0.0139890159744846
7	-0.00645822940641127	-0.00621346436414098	-0.00290927660571758	0.00117906893633211	-0.00292209526364082	0.00117687106090319	-0.00371183644038741	-0.013766366482759
7.1	-0.00834786441560845	-0.00472160456382432	-0.00273201545408109	0.00156745796307112	-0.00272835701609041	0.00157611829634619	-0.00464495077699004	-0.0133760334245904
7.2	-0.00990202086259394	-0.00274795168448607	-0.0024762212121601	0.00193511521962675	-0.00248274696430113	0.0019371902387456	-0.00541378168213821	-0.0127511246825632
7.3	-0.011047643713129	-0.000439773646198114	-0.00218158799351897	0.00225404533815686	-0.00219279623998355	0.0022590899697248	-0.00586429140429805	-0.0121476148005964
7.4	-0.0117243135590907	0.00203984419336038	-0.00184092502666233	0.0025373412241362	-0.00184781245023755	0.00255093779499141	-0.00624338246914516	-0.011815076394891
7.5	-0.0119018817190901	0.00456730256749956	-0.00147620850838311	0.00277699431602888	-0.00146922429117581	0.00278439138829023	-0.00650339930240124	-0.0116867496997
7.6	-0.0114804075524914	0.00701585903082857	-0.00107072981256069	0.00295616546169077	-0.00107210066451917	0.00295146904962793	-0.00675929288626563	-0.0118132370963579
7.7	-0.0106035750557482	0.00927122867243661	-0.000642899872854948	0.0030783096902073	-0.000644238930451719	0.00307724721530312	-0.00732247320508608	-0.0123644204867447
7.8	-0.00897853302646097	0.0111470417356576	-0.000217432519799095	0.00312834365663053	-0.000225243958522053	0.00313479449155216	-0.00816276864527722	-0.0126799848319498
7.9	-0.00683632498624657	0.0124574747244955	0.000223714223451692	0.00313637363463897	0.000231654691822347	0.00313787810016312	-0.00906521673365652	-0.0127099653845561
8	-0.0044052781565011	0.0132592862369437	0.000665782161971546	0.00306507308452766	0.00066586025093745	0.00306997346157939	-0.0100832644964767	-0.0125585280566902
8.1	-0.00182646749543759	0.0135978953879121	0.00107680083319865	0.00294800035636624	0.00109595194470877	0.00294909883452584	-0.0110821242273873	-0.0121308278406577
8.2	0.000763113134561883	0.0134764162192746	0.00148210846169846	0.00276754592367311	0.00149136194274992	0.00276035378672806	-0.0119035369765055	-0.0114292434049432
8.3	0.00332235710962549	0.0128326184289601	0.00185922590530377	0.00252871690412595	0.00185757611165168	0.00254227143752708	-0.0125033944638038	-0.0106994333995259
8.4	0.00567979375866043	0.0117127938549115	0.00219560776448354	0.00225101429924712	0.00219257623523277	0.00225078875280566	-0.0130505876982213	-0.0100916585913018
8.5	0.00772684254460104	0.0100893866958414	0.0024819354507411	0.00192022383599435	0.00248103735313404	0.00192340859516746	-0.0137227694926458	-0.00946339960350097
8.6	0.00933939737604216	0.0081484840736892	0.00272847875705223	0.00155960766962958	0.00273798283592882	0.00155306508119125	-0.0143957033693699	-0.00873655971505425
8.7	0.0105639858885695	0.00592132575012473	0.00291449145373957	0.0011566358742507	0.00292005338012269	0.00115735953590129	-0.0149935643372882	-0.0079187853721734
8.8	0.0113834258030918	0.0034730205697553	0.00305123294693383	0.000745521872220559	0.00305700388358778	0.000736759015773938	-0.0155500275572515	-0.00710527991281202
8.9	0.0118300550707934	0.000718522496477381	0.0031287564877399	0.000311350653455545	0.0031278852447911	0.000309102785129575	-0.0158292761488999	-0.00613788904031265
9	0.0116811952545804	-0.00233102003709116	0.00313861475102677	-0.000132058879454541	0.00314177267472106	-0.000127956425856184	-0.0158197057901325	-0.00516900437200095
9.1	0.010855412388561	-0.00547413236565422	0.00309252677420251	-0.000573626427051652	0.00309541211699609	-0.000560725955179095	-0.0155937964047241	-0.00433954233451536
9.2	0.00922328793266415	-0.00845967439940685	0.00298316667638447	-0.000991396817085159	0.00299082625374749	-0.000994274164920827	-0.0153197754597603	-0.00368735772024391
9.3	0.00690547413365682	-0.0110491571730301	0.0028147373282936	-0.00139691960262615	0.0028140064098775	-0.00140191146860533	-0.0149675557551564	-0.00310084732982195
9.4	0.00396928841329652	-0.0131074745507851	0.00259243583440766	-0.00178750082052938	0.00259894907897594	-0.00177990075479605	-0.0146582562060275	-0.00269716811328673
9.5	0.000469627438316314	-0.0143175500067864	0.00231741898257509	-0.00212221524305671	0.00232483325175289	-0.00212356287463644	-0.014505368163881	-0.00230559565289645
9.6	-0.00335474449173245	-0.0146768609451476	0.00200046229766998	-0.0024263909764987	0.00200079221881302	-0.00242540866103616	-0.0146531070811787	-0.00190699869812425
9.7	-0.00722898971255966	-0.014046032749967	0.00163324345924321	-0.00267752879358405	0.00163878011482733	-0.0026848371876263	-0.0148310530076485	-0.0012699085881692
9.8	-0.0109170184020233	-0.0125580947323314	0.00124812525585566	-0.00288703125196592	0.0012538248217797	-0.00287853012037065	-0.0149344041470017	-0.000507810203612276
9.9	-0.0142449526607665	-0.0102184564658088	0.000842528989396936	-0.00302689407642802	0.000835195330373166	-0.0030256675816395	-0.0150398131241536	0.000343618617153941
10	-0.0171022976876437	-0.00722040644094577	0.000411909517720221	-0.00311669366331033	0.00040441796598709	-0.00312914124800534	-0.0150335163540519	0.00124316596063576
10.1	-0.019286720927942	-0.0035897752857945	-3.08647510633384E-05	-0.00314857541661963	-4.11000692413015E-05	-0.0031431806191028	-0.0148296064612229	0.00209915821235824
10.2	-0.0206465672921944	0.000492375766066809	-0.000477632534466901	-0.00311190250120066	-0.000481040534575234	-0.00310912229823462	-0.0144244147146685	0.00291748508087617
10.3	-0.0210835987627609	0.0048363416291346	-0.000910747514984493	-0.00300614550219198	-0.000902654574933026	-0.00301522275097235	-0.0138327038287455	0.00358347249498637
10.4	-0.0205749849920103	0.00916809663619433	-0.00130853977826448	-0.00285125192949693	-0.00130684434802675	-0.00285745024837303	-0.0130451600262071	0.00389968431781555
10.5	-0.0192478954540817	0.0133931373488933	-0.00170043590713284	-0.00265213564030868	-0.00169732877682611	-0.0026391307824532	-0.0123893884185436	0.00400886954016348
10.6	-0.0170918356020075	0.0173733473766625	-0.00205330112179115	-0.00238168498918603	-0.00205111477914073	-0.00238550954819563	-0.0119166614635254	0.00400615088664096
10.7	-0.0141356859881965	0.0210698084557505	-0.00236852309978151	-0.00207925935969377	-0.00236502603537002	-0.00207397792022397	-0.01155225603003	0.00413322450560755
10.8	-0.0103355030882331	0.024212757279346	-0.00263748293979669	-0.00171884879570229	-0.00263228537005217	-0.00172777820944032	-0.0112466262695465	0.00428749041956866
10.9	-0.0059143885270505	0.0266116804350315	-0.00284539407289481	-0.00134447235646054	-0.00285058241829406	-0.00134373960340542	-0.0110024322767952	0.00444521901147087
11	-0.000927544729925016	0.0281378889004512	-0.00300430943724366	-0.000927881125870847	-0.00300915613435202	-0.000934620698246722	-0.0107529784942272	0.00470663200899387
11.1	0.00435571014875657	0.0287037055246767	-0.00311249537619494	-0.00050289502607348	-0.0031016346944553	-0.000500038055553428	-0.0104135049300621	0.00498177026851282
11.2	0.00980182940194349	0.0281981294791214	-0.00314168288088504	-6.52513494814388E-05	-0.00314883685655138	-7.00862696649608E-05	-0.00988835126780823	0.00527338908916871
11.3	0.0152642409896688	0.0265427412072623	-0.00311481601636439	0.000383343404998464	-0.00312635932408441	0.000373308737877078	-0.00907133420393246	0.00548794573378531
11.4	0.0202638572970046	0.0237738097337065	-0.00304118100860263	0.000811029956049284	-0.00303626598654509	0.000818594775552024	-0.00825706766502725	0.00541394790512932
11.5	0.0246259140367879	0.0199839496154397	-0.00289803889560415	0.00122654603915107	-0.00290081588318358	0.00123682189500242	-0.00764654915676425	0.00500986792076743
11.6	0.0282241789456606	0.0153234068485091	-0.00270385525950856	0.00161691122619714	-0.00270383604572849	0.00161985128708808	-0.00713078465871592	0.00446987329717845
11.7	0.0308976438997136	0.0100544251682739	-0.00244277167554002	0.00197175367440932	-0.0024433349104671	0.00198035856571117	-0.00667985550999552	0.0038270389312217
11.8	0.0326268231670588	0.00433934337703952	-0.0021476032941388	0.00230413683801269	-0.00215171846084589	0.00230583567929647	-0.00632188827652289	0.00318537461158804
11.9	0.0333754589543409	-0.00170149635815793	-0.00179837518495741	0.00258054885493438	-0.00181139705887753	0.00258485744324852	-0.00608695451784675	0.00276685985555412
12	0.0327781520203966	-0.00787776474907633	-0.00142490311516833	0.00280391999989979	-0.00142430696634361	0.00280533186188823	-0.00597474794052359	0.00235956173397072
