# GHZ S RI R 50
0.2	0.0059031654477897	-0.000145001778016398	0.00304838460304481	-0.000899068191346285	0.00305875674768138	-0.000892262032892961	-0.0140485238396385	0.00351403260786153
0.3	0.00602744129709805	-0.00125223366270766	0.0029036137292787	-0.00132330890550335	0.00289637485523146	-0.00131036431080003	-0.0134427365651804	0.00456125881085708
0.4	0.00605590843913371	-0.00236844405573291	0.00267086425425218	-0.00169566491510736	0.00267612334907987	-0.00170423045903116	-0.0126428492603552	0.00564081376632157
0.5	0.00577936423791714	-0.00364572857744994	0.00241040741059813	-0.00205239131877666	0.00242192586938549	-0.00206464283212445	-0.0116875365547137	0.00636711704900873
0.6	0.00505751913058794	-0.00493235074002883	0.00209612591297899	-0.00236604069086289	0.00209532877783112	-0.00237318426677351	-0.0109074044764306	0.00670366402192823
0.7	0.00376267621674301	-0.00597081941446736	0.00174749814687553	-0.00264205598412838	0.00174554405919771	-0.00264225121002327	-0.0105581631614706	0.00694582760369529
0.8	0.00215649798160235	-0.00653080239575076	0.00136135144573094	-0.0028569391770549	0.0013487652392637	-0.00286145853886596	-0.0104861631935676	0.0074581658271012
0.9	0.000394482297875206	-0.00644228364626556	0.000944651513360916	-0.00301757370002898	0.000945667092999989	-0.00302824999191665	-0.0104295129582244	0.00829273270525241
1	-0.00114858246668839	-0.00583832789378418	0.000521393810036927	-0.0031181966360656	0.00051155910346905	-0.00311892216187942	-0.0100944348388586	0.00939014450204744
1.1	-0.00239022507392886	-0.00499266748206389	6.85832097270311E-05	-0.00314488508717487	6.50741883602578E-05	-0.00316247471423951	-0.00946821359712075	0.0105645917419504
1.2	-0.00338844347102261	-0.00433601949200522	-0.000369996519156471	-0.00313325323484692	-0.000370805068437064	-0.0031311841734014	-0.00827355320709029	0.0115347952900869
1.3	-0.00454743077228606	-0.0039790671369725	-0.000793311065259856	-0.00305048377974886	-0.000796537940931906	-0.00305248331059569	-0.00656528494735496	0.012083104323399
1.4	-0.00569946843191157	-0.00349319334132616	-0.00121111944482511	-0.00290415317359569	-0.00120990379534119	-0.00290966467949326	-0.00485180315142212	0.0118673753471196
1.5	-0.00623436383318089	-0.00250355893569491	-0.00160940759202486	-0.00271139027339203	-0.00160778450111677	-0.00271985903876047	-0.0035073944809915	0.0112825894656203
1.6	-0.00624189610496024	-0.00119235194303679	-0.0019687950700657	-0.00246280202993034	-0.00196899231413283	-0.00246802180147136	-0.00299287626864672	0.0109677050023305
1.7	-0.00583814698634851	0.000170541494771185	-0.00229757246843336	-0.00216986793480653	-0.00229855406558027	-0.00216362342172721	-0.00257422274147487	0.0110354615815915
1.8	-0.0051370626055389	0.00160958098866591	-0.00257044027622406	-0.00182172999828799	-0.00258137137457958	-0.00182739166630123	-0.00210038902378532	0.0112510704436788
1.9	-0.00404786908586887	0.00281055255368656	-0.00279858276088696	-0.00145325721547919	-0.00281103032763687	-0.00144714771808837	-0.00152947684206886	0.0115447605560749
2	-0.00268219159017917	0.00367825533441923	-0.00297752900341565	-0.00104646536587316	-0.00298716168835396	-0.00104178550809894	-0.000852384007777497	0.0118696651633564
2.1	-0.00116778403742994	0.00405157626308134	-0.00309404169973943	-0.000617483470009519	-0.00308995258922769	-0.00061946585531065	2.08532573637823E-05	0.0120072280252595
2.2	0.000273616175114789	0.00403825485810011	-0.00315362868967432	-0.000177505317604917	-0.00316493359825768	-0.000180363767467799	0.000998688163033303	0.0119371099008839
2.3	0.00155988492781163	0.00361759573512597	-0.00314995241271067	0.000268208137764923	-0.00314964147330249	0.000261320925959369	0.00183643735574819	0.0116331329710581
2.4	0.00264441341982126	0.00300808560319915	-0.00307713500066876	0.000708796923151227	-0.00307967514065039	0.000704535750792325	0.00257157836902864	0.0113854009798996
2.5	0.00359551233481724	0.00218692651681667	-0.00293853602885284	0.00112263796826968	-0.00294942767786179	0.00112901936908981	0.00337316298704764	0.011100374887746
2.6	0.00445974703139036	0.00114148772628316	-0.00276241270096646	0.00152606573713784	-0.00275886166236048	0.0015137453404716	0.00426472855205364	0.0106910548847393
2.7	0.00518459740520888	-0.000144327122029782	-0.00251429433803534	0.00189642368848844	-0.00251956938031359	0.00189643778322984	0.0050090861026226	0.0101063403470806
2.8	0.00573820553215275	-0.00164389842231006	-0.00222983719187129	0.00222165528249175	-0.00222203108230868	0.00223142459122867	0.00556936621711137	0.00961779428739669
2.9	0.006108904163552	-0.00333744956231264	-0.0018952185892681	0.00251868526080116	-0.00189151836556265	0.00251825849257391	0.00629490963321322	0.0093141746551927
3	0.00612634464093747	-0.00523709648583432	-0.00151028998426069	0.00275085813408543	-0.00152502923050291	0.00275693455902623	0.0072252220118741	0.00898283755722637
3.1	0.00574662856389486	-0.00725664030912971	-0.00112291946366046	0.00292538541636287	-0.00111828754446907	0.00293370546034284	0.00813171320227744	0.00840827724514556
3.2	0.00473523773635312	-0.00925028152723777	-0.000706549130724274	0.00306127491132074	-0.000708286293380316	0.00306066280764537	0.008737391757158	0.00780658600488524
3.3	0.0032041628129684	-0.0110973237932501	-0.000272782725886183	0.00313171459120146	-0.00027112814770545	0.00312799184072644	0.00935954715115985	0.00715453717759449
3.4	0.00115449428497667	-0.0125139872412181	0.000169777110150837	0.0031283494828718	0.000163524322638236	0.00314484194147961	0.00996542470492064	0.00633803639453292
3.5	-0.00118139529028179	-0.0135297354498245	0.000588458382979403	0.0030897752728058	0.000594041822842771	0.00308987722102736	0.010343458846297	0.00530033043405192
3.6	-0.00378641688396293	-0.014031336861935	0.00101582080735359	0.00297608156824905	0.00102400473591928	0.00297580810341782	0.0105361061376551	0.00438225023386336
3.7	-0.0064910553197022	-0.0139762807297309	0.00142759994673142	0.00280080424045076	0.00141793749150724	0.00281442520464299	0.010724632118004	0.003512739758619
3.8	-0.00921029960637913	-0.0133094645406803	0.00180909212505259	0.00257856804510609	0.00181144776013837	0.00258774147066206	0.0107999094715293	0.00266468043978868
3.9	-0.0116559410584559	-0.0120608826856354	0.0021599671739718	0.00230875362634418	0.00215269491160011	0.00230693210431758	0.0107945275706877	0.00189934177907007
4	-0.0137614272765533	-0.0103797643872916	0.00245061715033891	0.00198857309275642	0.00245509158193176	0.0019861514272886	0.0108629799430126	0.00128619514377229
4.1	-0.0154855841300448	-0.00838726058088853	0.00270847725221645	0.00162733465348104	0.00270721690487798	0.00162806868979094	0.0111203272455138	0.000683358866910831
4.2	-0.016888600058862	-0.00610317234928794	0.00291257551333431	0.00122264687306523	0.00291708506463064	0.00121390410838443	0.0113912692344749	-5.4052526868638E-05
4.3	-0.0179058924672993	-0.00362678373091454	0.00305859208329581	0.000805663473230891	0.00306505690524856	0.000797834692183612	0.0115722355906555	-0.000955392494680345
4.4	-0.0185697112696176	-0.000908708736994981	0.00313563567344254	0.000366084115927439	0.00313802179555695	0.000363818758931512	0.0115466817475719	-0.00184061803310583
4.5	-0.0187320972874506	0.00197195013121187	0.00315692417382742	-7.68965587122191E-05	0.00316230430312354	-8.02856137044191E-05	0.0115189180798479	-0.00266958920399202
4.6	-0.0184159969820657	0.0048288598041252	0.00310963696929306	-0.000523360816023535	0.00311088507291631	-0.000510407664644448	0.0114055064344381	-0.00362045855100216
4.7	-0.0175099456436838	0.00763068065252776	0.003000260526922	-0.000943844950268181	0.00301556498729049	-0.000953508862419909	0.011110444479697	-0.0045942046788662
4.8	-0.0161589336877014	0.0102312171038191	0.00283506118305238	-0.00135754484318189	0.00284353934342959	-0.00136365658449698	0.0106570574868571	-0.00543412529949573
4.9	-0.0141376682086488	0.0125531340815802	0.00261114669773944	-0.00173945757419682	0.00261531859902681	-0.00173655847781546	0.010244229219475	-0.00605813755028908
5	-0.0116360895468061	0.014335518440733	0.00234993702976016	-0.00209122113720461	0.0023535594550406	-0.00208856229252767	0.0101380676025752	-0.00656811166899573
5.1	-0.00866437382720887	0.0155366715285397	0.00203969036422374	-0.00239821919647725	0.00204198857494561	-0.00239686370312009	0.0101713803602294	-0.00727690839169879
5.2	-0.00564409514519272	0.0160354335230303	0.00168453938304578	-0.00264532061017809	0.00168625360416291	-0.00265045435544368	0.0100856194074455	-0.00808633265191792
5.3	-0.00266288256587319	0.0159673354411832	0.00130158955547337	-0.00285955512814136	0.00130471392120377	-0.00285749008325444	0.00988210884552968	-0.00881642800467235
5.4	0.000167816933509168	0.0154109526611152	0.000880894982265419	-0.00300801177667033	0.000898072453925415	-0.00301916262630841	0.00967600550281609	-0.00966242906857201
5.5	0.00274953267795508	0.0144214797209887	0.00047078605453442	-0.00310884391753625	0.000480868996571753	-0.00311823481487615	0.00925399528970968	-0.010638724880764
5.6	0.00502913713940468	0.0129962575861453	3.41425441641822E-05	-0.00314961353116325	2.56230585193812E-05	-0.00315286845330735	0.00848092627645721	-0.0114889870574484
5.7	0.00683928845569866	0.0112493756894553	-0.000397333277206112	-0.00312447582477183	-0.000413963512206491	-0.00312821169665749	0.00747920578419099	-0.0120542476892912
5.8	0.0082309699568153	0.00925198497774697	-0.000846197980469495	-0.00303464279465549	-0.000849690694342805	-0.00304869022443754	0.00647224356946214	-0.0125672297487799
5.9	0.00913437622060044	0.00716743960183316	-0.00125605316669032	-0.00289829277998434	-0.00126431971202897	-0.00289823758536062	0.00531072001069839	-0.012915009679028
6	0.00957751066199842	0.00495389918314529	-0.00166074440304462	-0.00269338527343942	-0.00165716393190411	-0.00269354460579667	0.00404743905379547	-0.0129686845869149
6.1	0.00957655546658066	0.00267137293922567	-0.00202250220366347	-0.00243746626566358	-0.00202415562138589	-0.00243343979004276	0.00307756605593342	-0.012738907167622
6.2	0.0090840734675246	0.000325535873473198	-0.00234100156367315	-0.00212012914817028	-0.00234473812049588	-0.00213207308375252	0.00242608132429062	-0.0126320012555722
6.3	0.00815238810049929	-0.00196385104443119	-0.00262258046953264	-0.00177954011735223	-0.00263175459968469	-0.00177374939462665	0.00189223374822097	-0.0128058579200565
6.4	0.00674045653361556	-0.00410112053370078	-0.00284992965026205	-0.00138153400210957	-0.00284016560478229	-0.00138649536647931	0.00141176896637898	-0.0130933912550098
6.5	0.00498378976266413	-0.00591381275760975	-0.0030046132032962	-0.000969453113510582	-0.00301249266602742	-0.000964916043491696	0.000986143832523736	-0.0135181870072766
6.6	0.00290508537350375	-0.0072181984621256	-0.00310838948902207	-0.000538656831424979	-0.00311004934579904	-0.000542639769588697	0.000463578835497058	-0.0140337107601835
6.7	0.000615420997174007	-0.00791389674795614	-0.00315282528440658	-9.72983843381462E-05	-0.00316166477264493	-9.09547627215467E-05	-0.000471794924264652	-0.0144250889037235
6.8	-0.00176047404575711	-0.00795096770389708	-0.00312444910796438	0.000344901780268581	-0.00313552440328269	0.000350018206047734	-0.0015942373702131	-0.0144284243413693
6.9	-0.00405327106180141	-0.0073994161767148	-0.00304282788186071	0.000776251189406244	-0.00304580106459024	0.00077865711919725	-0.0025657289257464	-0.0141683667580326
7	-0.0060785896065434	-0.00628669606883389	-0.00290155711651119	0.00119273132178317	-0.00291437841058266	0.0011905984081113	-0.0033903371590691	-0.0138506497583857
7.1	-0.00786064726376773	-0.00478705133502996	-0.00272167059404499	0.00157607233888892	-0.00271798289960988	0.00158470512957129	-0.00422490531994953	-0.0134373798888297
7.2	-0.00933409895532545	-0.00293082262277877	-0.00246581523474072	0.0019384339629668	-0.00247232224723076	0.00194052365289122	-0.00491857465960225	-0.012908384011461
7.3	-0.0105266245941673	-0.000783819969223918	-0.00217340433761833	0.00225316074853821	-0.0021845815097655	0.00225821401819241	-0.00541942913428815	-0.0124403246522107
7.4	-0.0113875362763097	0.00156587454708112	-0.00183641717217757	0.00253415877867978	-0.00184328540074619	0.00254773660574401	-0.00590094533929322	-0.0122373951181081
7.5	-0.0117518237657708	0.00414692445002785	-0.0014757339249394	0.00277385917010653	-0.00146875882576779	0.00278125154471128	-0.00630972899397917	-0.0120532839120379
7.6	-0.0113340747900502	0.00680800247568544	-0.00107350324424346	0.00295530495609409	-0.00107486982241445	0.00295060707701395	-0.00666926863398922	-0.0118930097538625
7.7	-0.0105677281756287	0.00914530776219796	-0.000647098816444272	0.00308126093625327	-0.000648438284851574	0.00308019570199666	-0.00724432937698124	-0.0124957494899598
7.8	-0.00895224748249777	0.0111441136100449	-0.000220729435220086	0.00313555279493468	-0.000228565095467239	0.00314201194667123	-0.00811371151083468	-0.0127144129800322
7.9	-0.00687686913195832	0.012646529122719	0.0002236752082172	0.00314719688601878	0.000231642545412891	0.00314870855857531	-0.00897599869021811	-0.0127310902172355
8	-0.00410130025376121	0.0135352767604415	0.000670881153640566	0.00307765361746446	0.000670963188363291	0.00308257483519197	-0.00981489649654908	-0.0122892961888262
8.1	-0.00139469462516462	0.0138782462195613	0.00108780944664771	0.00295989774875256	0.0011070539868965	0.002960963271009	-0.0107156634148173	-0.0120030003338942
8.2	0.00132343154033706	0.0136077252238026	0.00149874112410308	0.00277594170398422	0.00150801505488098	0.00276868308759471	-0.0114679351233184	-0.0114101924745837
8.3	0.00389462840718774	0.0128278699870224	0.00187987928931835	0.00253112756004347	0.00187828773751438	0.00254475131190475	-0.0121042552426512	-0.0107641387413681
8.4	0.00621956800111969	0.0116502812764304	0.00221773555908	0.00224588235156285	0.00221469128285015	0.00224567468647438	-0.0127116315250686	-0.0101467721718115
8.5	0.00827632459311053	0.0100152965343332	0.00250233028884264	0.00190714562932758	0.00250145302870695	0.00191034516952375	-0.0133726929993329	-0.00945366637860188
8.6	0.00994541424547036	0.00801988329551866	0.00274409043347663	0.00153947801468083	0.00275355278115756	0.00153285172747493	-0.0139545786033814	-0.00870980744839316
8.7	0.0111981266810002	0.00565443080595834	0.00292266888341576	0.00113170555249551	0.00292823402409	0.00113238239270639	-0.0144615062271462	-0.00797912287564443
8.8	0.0119267092159904	0.00306783355499835	0.00305064033094275	0.000718826505765532	0.00305632661330927	0.000710035545061792	-0.0150405447806804	-0.00727639839760365
8.9	0.0122084583666239	0.000279494614210097	0.0031192428380789	0.000286373517826954	0.0031183578082415	0.000284140811801046	-0.0154115950923649	-0.00634276321004012
9	0.0119392163526691	-0.00268955214632251	0.00312155069899697	-0.000152031767644108	0.00312471932509183	-0.000147971263759389	-0.0154598211346649	-0.00531881639562808
9.1	0.0110515400700683	-0.0057216494479582	0.00307044898229183	-0.000586256562019048	0.00307338397355902	-0.000573450762417931	-0.0152357079578273	-0.00443976476000767
9.2	0.00941895347287661	-0.00863975979625184	0.0029594247445172	-0.000995677073345512	0.0029670221429635	-0.000998563175359241	-0.0149487183536531	-0.00378427506071048
9.3	0.00708344835549345	-0.0111619687870324	0.00279263934341969	-0.00139319703035799	0.00279190310552053	-0.00139815331280146	-0.0146258427185169	-0.00319380141090209
9.4	0.00417839167496044	-0.0131507044149286	0.00257474402316301	-0.00177742865976417	0.00258121954069774	-0.00176988116764598	-0.0143420412584685	-0.00278461568968697
9.5	0.000771844975188836	-0.0142282688058245	0.00230585320700613	-0.00210858740909888	0.00231322659496975	-0.00210992215222005	-0.0141268013105328	-0.00228520104671785
9.6	-0.00291471914116531	-0.0146092939034669	0.00199532592005436	-0.00241214143884165	0.0019956527512282	-0.00241116304330847	-0.0141827048726602	-0.00190715188629404
9.7	-0.00671528289768677	-0.0140964016121623	0.00163355785488622	-0.00266540839231877	0.00163909186604509	-0.00267268144033107	-0.0143192090012275	-0.00136781224813019
9.8	-0.0104443968212013	-0.0127310070485034	0.00125181230892666	-0.00287883428602156	0.00125748295297285	-0.002870337508641	-0.0144761530269602	-0.000700057747904294
9.9	-0.0139009375678737	-0.0104072487151804	0.000847000699584172	-0.00302329219759774	0.000839670282231131	-0.00302207889873139	-0.0147008166213332	0.000151977905728346
10	-0.01681857760989	-0.00736226854047252	0.000414681587029906	-0.00311706674057523	0.000407198976009265	-0.00312952366002065	-0.0147405161731475	0.00110475644826498
10.1	-0.0190035366442189	-0.00368839172719653	-3.16718330454741E-05	-0.00315118785481799	-4.19143297278051E-05	-0.00314578602779566	-0.0145252200714078	0.00199516015875988
10.2	-0.0203630957514797	0.000393661794164852	-0.000482826981716278	-0.00311429280249338	-0.000486234178603728	-0.00311150465198838	-0.0141173616049835	0.00279423316521808
10.3	-0.0208408704177381	0.00474752405232438	-0.000919816426061656	-0.00300572356561131	-0.000911743187030536	-0.00301482992367763	-0.0135793313544671	0.00344918032161418
10.4	-0.0203636011094705	0.00915449799334831	-0.00131979601317367	-0.00284597171784979	-0.00131812520312643	-0.00285217655045613	-0.0128482938836779	0.00382816459879118
10.5	-0.0189780147637968	0.013481374679994	-0.00171133768264954	-0.00264076214408306	-0.00170817096747432	-0.00262778762548819	-0.0121675490105863	0.0040437574701319
10.6	-0.0166862579794836	0.0174926892487418	-0.00206075954147478	-0.00236441447305481	-0.00205859949314652	-0.00236824081437825	-0.0115920525094574	0.00409656400360853
10.7	-0.0136104423615011	0.0211202839100114	-0.00236983070253998	-0.00205758168373954	-0.00236631967124179	-0.00205234159621831	-0.0111347351895128	0.00420025821743055
10.8	-0.00977074130086699	0.0241592136168955	-0.00263060263586433	-0.00169557869657346	-0.00262548020132711	-0.00170448170823182	-0.0107959167757765	0.0043149367660507
10.9	-0.00535135639070951	0.0264581016568811	-0.00282985940167605	-0.00132300096235071	-0.00283500649300351	-0.00132225255143018	-0.0105024017243401	0.00447931382658943
11	-0.000371057006711072	0.0279380713067383	-0.00298094971916397	-0.000911864828947669	-0.00298577275306739	-0.000918533468593359	-0.0101840166934102	0.00474486264915538
11.1	0.00492039807955368	0.0284277169922828	-0.00308368565183687	-0.000495211148109756	-0.00307292445289623	-0.000492391360401482	-0.00973961049675148	0.0049629039523274
11.2	0.0103224569149134	0.0278041646325035	-0.00311111355600157	-6.76791857123375E-05	-0.0031181933551665	-7.2474130042586E-05	-0.00915475399555467	0.0051144395552616
11.3	0.0156624094042179	0.0261398462711785	-0.00308646002420641	0.000370603657321105	-0.00309786473561926	0.000360630186142153	-0.00846637201519941	0.00523402697221218
11.4	0.0205073131480673	0.0233708848359165	-0.00301860221802121	0.000789578260651749	-0.00301376572955662	0.000797100642032655	-0.00773597986592693	0.00509182245186762
11.5	0.024731629828003	0.0196441561425256	-0.00288411236504994	0.00119927547642398	-0.00288693293728961	0.00120945737369346	-0.00718881115316608	0.00460525423707889
11.6	0.0283024383312028	0.0150985430849351	-0.00269986843548076	0.00158754478616534	-0.00269987094564904	0.00159046772966163	-0.00675401304793813	0.0040600650096102
11.7	0.0309689253302121	0.00989899244651342	-0.00244844370603096	0.00194428723506402	-0.00244907298649101	0.00195285246307251	-0.00640503162488868	0.00339786784931656
11.8	0.0326690724827735	0.00424880880849923	-0.00216116216273474	0.00228169872032989	-0.00216528156399626	0.00228336074884736	-0.00619183308853824	0.00277342919027549
11.9	0.0334019119799744	-0.00160257772761465	-0.00181683902807926	0.00256543745294302	-0.00182988586551936	0.00256964503605124	-0.00605540461850441	0.00256907561278001
12	0.0328769179844378	-0.00778825195616868	-0.00144478412703539	0.0027967450087656	-0.00144419689864233	0.00279816201808011	-0.00597989555997617	0.00217513920223929
