# GHZ S RI R 50
0.2	0.00591418688230996	0.00125529677046646	0.00304834009083818	-0.000897934537514006	0.00305870874794391	-0.000891125649767073	-0.0140592092567886	0.00488348798927136
0.3	0.00622977650738811	-0.000698974743999076	0.00290412046141775	-0.00132135864958189	0.00289687432448049	-0.00130841996794513	-0.0132648533204612	0.00509043917354381
0.4	0.00597262977653865	-0.00234932677111953	0.00267248223603823	-0.00169312331732885	0.0026777494943667	-0.00170168386280643	-0.0127312687047624	0.00563785456746068
0.5	0.00524916506230999	-0.00373126729922941	0.0024136164872757	-0.00204979981309691	0.00242515341027604	-0.00206203953180392	-0.0121944430082648	0.00623548741399656
0.6	0.00422858965446899	-0.0047637628919446	0.00210107748214147	-0.00236423688497485	0.00210029093856681	-0.00237138606632926	-0.011704622029573	0.00677464525258026
0.7	0.0029569814531435	-0.00542709544212644	0.00175393234158599	-0.00264194271724211	0.0017519764571517	-0.00264214150515548	-0.0113655099572769	0.00734001625802769
0.8	0.00165536768129613	-0.0057657361226862	0.00136853346089724	-0.00285926760158131	0.00135593443628345	-0.00286381617905086	-0.0110540504935449	0.00806148742736713
0.9	0.000256877451711462	-0.00576301519571493	0.000951514996202319	-0.00302275766753072	0.000952549710079153	-0.00303345598054329	-0.0106849641117122	0.00885749477004476
1	-0.00112588729359833	-0.00548645053071885	0.000526737775189426	-0.00312612523072849	0.000516876910074034	-0.00312686508207936	-0.0101738166017232	0.00970637258591611
1.1	-0.00252921182290053	-0.0049592753786603	7.11907898887165E-05	-0.00315488986010914	6.76839049729457E-05	-0.00317253840086866	-0.00961357944285388	0.0106024174975072
1.2	-0.00386500814773536	-0.00437247586648299	-0.000370861919142185	-0.00314425620915446	-0.000371673577340714	-0.00314218002563495	-0.00863652550654976	0.0114572600165326
1.3	-0.00523626865449978	-0.00385518060552107	-0.000797894129131704	-0.00306104298574361	-0.000801133775795248	-0.00306304791109794	-0.00708035819421919	0.0120625393400352
1.4	-0.0064122013844738	-0.00323062569736454	-0.00121910100083868	-0.00291281584890276	-0.00121788813862188	-0.00291834829821544	-0.00539147321930294	0.0119238738821552
1.5	-0.006937224724355	-0.00210371802738875	-0.00161987820592491	-0.00271699590141485	-0.00161826638092017	-0.00272549513047073	-0.00404372446967118	0.0114182994195628
1.6	-0.0068407172340095	-0.000594251729681093	-0.00198037027201596	-0.00246465311346728	-0.00198058111292644	-0.00246988675071024	-0.00350453149665942	0.0112271316353774
1.7	-0.00620101821241036	0.00087221754098111	-0.00230876537069637	-0.0021678872058231	-0.0023097310419458	-0.00216162646632014	-0.00295351337500334	0.0113867131324295
1.8	-0.00526806570634424	0.0022374349565035	-0.0025798033997742	-0.00181649881122198	-0.00259076790704503	-0.00182213517859614	-0.00232460066769633	0.0115837694861989
1.9	-0.00409847605390899	0.00326137250316072	-0.00280518872156095	-0.0014458681949902	-0.00281762738540241	-0.00143971603446884	-0.0016657781964781	0.0117781967270772
2	-0.00280032064307072	0.0040088600077385	-0.00298093446048862	-0.0010382570898221	-0.00299055548739574	-0.00103354942202227	-0.000993869724670201	0.0120025406544771
2.1	-0.00137697578751213	0.00439939217482724	-0.00309446732695853	-0.000609841970126736	-0.00309038437454248	-0.000611833498203268	-0.000173871381082239	0.012104001462161
2.2	8.00104656954251E-05	0.00448000012572415	-0.00315186942757288	-0.000171514466854936	-0.00316317216810409	-0.000174349968569516	0.000776179681175051	0.0120655120199919
2.3	0.00149899989966197	0.00408670276043604	-0.00314718265332789	0.000271965549902363	-0.00314688062218773	0.000265083264614219	0.00165309534925488	0.0118048348846004
2.4	0.00271141285289136	0.00336603703638883	-0.00307464092206321	0.000710371733257215	-0.00307718221765979	0.000706115048455991	0.00247101637189332	0.0115480894759867
2.5	0.0036506595582019	0.00235411523541499	-0.00293741151244113	0.00112270191133942	-0.00294829866800484	0.00112908282380663	0.00332946959443158	0.0111884145647458
2.6	0.00437541043491178	0.00120345307489154	-0.00276325866728803	0.00152574272424712	-0.00275970427045771	0.0015134208249898	0.00421287170978076	0.0106937116960253
2.7	0.00497246919194575	-6.25014226039233E-05	-0.002517079435372	0.00189703094094955	-0.00252235881983994	0.00189704305017256	0.0049155757345371	0.0100659656254383
2.8	0.00547367376882065	-0.00152105693331013	-0.00223387248341641	0.00222436277273376	-0.00222605743230263	0.00223414919123917	0.00545282801188907	0.00956541284861879
2.9	0.00578908432613236	-0.00321139100999234	-0.00189924031464945	0.00252426155531696	-0.0018955320405786	0.00252383369296775	0.00617347793303175	0.00924142802092897
3	0.00570673169404105	-0.00506951051322758	-0.00151270118751446	0.00275931645159347	-0.00152747691788234	0.00276541867160696	0.00708525296428256	0.00887422039847846
3.1	0.00525720035804701	-0.00694838514353224	-0.00112228346998956	0.00293602549610279	-0.00111762550351043	0.00294436479601708	0.00794140098225678	0.00828990375006204
3.2	0.00428774543634729	-0.00878837402432743	-0.000701713500362618	0.00307273046856429	-0.000703457653472863	0.00307212043179761	0.00851155021181267	0.00771467181950638
3.3	0.00286817640576676	-0.0105677470135002	-0.000263343695356215	0.00314209560760729	-0.000261696307690377	0.00313835615634392	0.00913542345296746	0.00709608831602594
3.4	0.000892701848297368	-0.012005469206557	0.000183319444304271	0.00313563673520127	0.000177119775329365	0.00315219756224349	0.00976730873049024	0.00628698476393683
3.5	-0.00145394480262764	-0.0130394311163254	0.000604860714950917	0.00309245415799232	0.00061045477978996	0.00309252857800765	0.0101614679381625	0.00521764634447493
3.6	-0.0040680405675375	-0.0134726563278539	0.00103308996106582	0.00297300889323463	0.00104127933198199	0.00297269007991543	0.0103352219944786	0.00428235928848496
3.7	-0.0066939121607632	-0.0133255248921158	0.00144343172278921	0.00279184463304602	0.00143385044949727	0.00280551802170102	0.0104939516260527	0.00341806757371661
3.8	-0.00926202630445902	-0.0126548186843012	0.0018213469820431	0.00256457089949839	0.00182375194015617	0.00257371793837656	0.010563352991756	0.00260346684995154
3.9	-0.0116079379643696	-0.0115139052866511	0.00216697738260576	0.00229135019090599	0.00215971353700567	0.00228957235512073	0.0105886376408311	0.00186311287705043
4	-0.013729540999512	-0.0099438399367736	0.00245152963500564	0.00197007300376283	0.00245597707973368	0.00196763855712208	0.0106940661797156	0.00123854285659463
4.1	-0.0155097376103902	-0.00797449589674603	0.0027033512235916	0.00161003232025018	0.0027020990153708	0.00161076812847469	0.0109584889398885	0.000605129003146316
4.2	-0.0169062493898283	-0.00567008353505801	0.00290242505400551	0.0012086894781417	0.00290688878584746	0.0011999748062948	0.0112107280209816	-0.000141708496255708
4.3	-0.0178677268986445	-0.00323494466583881	0.00304523707075615	0.000796472871300083	0.0030516571334151	0.000788670638019565	0.0113863418753701	-0.00102923528893058
4.4	-0.0185350793498574	-0.000631281516107028	0.00312128518678662	0.000362274496372071	0.00312365868042921	0.000360018082327462	0.0113904960929355	-0.00189854022544627
4.5	-0.0188096869200925	0.00216030258520574	0.00314371210594702	-7.57402820107415E-05	0.0031490705794883	-7.91137103733902E-05	0.0114048524525294	-0.00274783541679883
4.6	-0.0186416268559875	0.00504488980209507	0.00309931719867498	-0.000518468820787256	0.00310054817232694	-0.000505559575819929	0.0113141629906837	-0.0037395731490118
4.7	-0.0178084048058265	0.00795618381203776	0.00299377794060817	-0.000937090899934529	0.0030090562671628	-0.000946707700193059	0.0109988268699485	-0.00475447482729951
4.8	-0.0164303442544737	0.0106451413767339	0.00283244667117042	-0.00135088361466335	0.00284092019794763	-0.00135697201826577	0.0105352766889506	-0.00560035169831915
4.9	-0.0143947742118521	0.0129817928597531	0.0026115141923763	-0.00173464004332329	0.00261567905587694	-0.00173173753015832	0.0101274976060374	-0.00622951186399101
5	-0.011933058236176	0.0147954885109522	0.00235170172089728	-0.00208932181535564	0.00235532201940141	-0.00208665993884167	0.0100333153451625	-0.00677898629815974
5.1	-0.00896508683684143	0.0161040805013143	0.00204094389339261	-0.0023994228634453	0.00204324329090014	-0.00239806649787762	0.0100367520274331	-0.00754387279824927
5.2	-0.00582973689561319	0.0166922019767855	0.00168353207011721	-0.00264882012095551	0.00168524314106233	-0.00265395930441962	0.00988590120655962	-0.00836506344710776
5.3	-0.00269666063505313	0.0165813368020209	0.00129714264143338	-0.00286378067631487	0.0013002728104498	-0.00286172008014643	0.00964571050400443	-0.00904706888810752
5.4	0.000175329238067743	0.0158906642360347	0.000872755636640097	-0.00301089909629922	0.000889905080982399	-0.00302209892192323	0.00946417665966837	-0.00984671551321783
5.5	0.00267394120824125	0.014825613787387	0.000459680904409598	-0.00310847787544243	0.000469724724196476	-0.00311789776006065	0.00908511918925504	-0.0108311460512564
5.6	0.00487245415871855	0.0134539394141381	2.17359759818633E-05	-0.00314444266749116	1.32180772784977E-05	-0.0031476587041784	0.00830949729363335	-0.0117271466725417
5.7	0.00673283591917638	0.0117963837958223	-0.000408769594127815	-0.00311391988422096	-0.000425367192261557	-0.00311757811362612	0.00726535422256758	-0.0123135994270145
5.8	0.00824584837166981	0.00979678792938433	-0.000854138167375646	-0.00301909313043987	-0.000857669366873093	-0.00303307017326182	0.0061907311080422	-0.0127775025111231
5.9	0.00922420583862917	0.00757724057607977	-0.0012585550067888	-0.00287931324080292	-0.00126677840956063	-0.00287923257478628	0.00503056605382237	-0.013026639055583
6	0.00959967009423988	0.00520491879059214	-0.00165638498184838	-0.00267331817082277	-0.00165282677117336	-0.00267348424659334	0.00385366697231749	-0.0130108306391559
6.1	0.00944450758965633	0.00287394382918202	-0.00201113944430719	-0.0024190811840786	-0.00201277788027821	-0.00241508035545409	0.00299039289738211	-0.0127897244421726
6.2	0.00885028426947339	0.000589274010582118	-0.00232361976874948	-0.00210617411005977	-0.00232732499246295	-0.00211803546531493	0.00240088754420999	-0.012728718310417
6.3	0.00790475673914532	-0.00164908181441764	-0.00260109129695577	-0.00177197638693423	-0.00261021227105732	-0.00176624272268889	0.00191212664895816	-0.0129216305834906
6.4	0.00642420805058511	-0.00376736895186065	-0.00282709498395241	-0.00138164682828647	-0.00281737837107559	-0.00138654506037274	0.00149346539354197	-0.0132357096765498
6.5	0.00455934627868645	-0.00546488623769744	-0.00298344330007214	-0.000977029672673786	-0.00299129799075518	-0.000972552431922266	0.00111440971250038	-0.0137588087960273
6.6	0.00249505054138555	-0.00656143119451348	-0.00309148338773178	-0.000552476208661661	-0.00309311488573796	-0.000556449777923467	0.000545366779421211	-0.0144002491380054
6.7	0.000384145544175341	-0.00713574585915449	-0.00314208375770886	-0.000115162099928844	-0.00315093127772917	-0.000108889926851261	-0.000502034853739656	-0.0148422355523996
6.8	-0.00181085928338	-0.00724142320071688	-0.00312070145009611	0.000325828994579049	-0.00313178643493983	0.000330870606126986	-0.00169825556903135	-0.0148050186293073
6.9	-0.00408769348222213	-0.00682229980655982	-0.00304559877055547	0.000758717987235025	-0.00304858393282002	0.000761105919950434	-0.00267165245008498	-0.0144788409984731
7	-0.00622766264939916	-0.00576569902292751	-0.00290930497460572	0.00117902262550998	-0.00292212363136569	0.00117682452504951	-0.00343536061304117	-0.0141907129838846
7.1	-0.00810000150019401	-0.00414976901881211	-0.00273205380054026	0.00156742886978117	-0.00272839546260818	0.00157608930615778	-0.0042752233671751	-0.0138810672552334
7.2	-0.00949017063576909	-0.00211871679339523	-0.00247626112694488	0.00193510578321143	-0.00248278695348282	0.00193718075277736	-0.00508584011873342	-0.0134302810794706
7.3	-0.0104510023105743	6.5389305743659E-05	-0.0021816205281204	0.00225405378850783	-0.00219282890528171	0.00225909840369565	-0.00574702376305827	-0.0129221794621428
7.4	-0.0110901039646037	0.00229836314451395	-0.00184094296197547	0.00253736168798099	-0.0018478304559269	0.00255095837086914	-0.00636464352660286	-0.0124901752910573
7.5	-0.0114168629187543	0.00462498448194387	-0.00147620615514858	0.00277701765838883	-0.00146922186396503	0.00278441474758426	-0.00672073476160504	-0.0121250002650207
7.6	-0.0112023616772957	0.00702615913022272	-0.00107070832560152	0.00295618103094664	-0.00107207921884915	0.00295148461906822	-0.00690755022850397	-0.0120495645577013
7.7	-0.0104514041319979	0.00931012224663094	-0.000642867973193603	0.00307830775811152	-0.000644207037624896	0.00307724529917758	-0.00737929049516354	-0.0125082033067262
7.8	-0.00895679135861399	0.011211142629115	-0.000217399023530519	0.0031283209318038	-0.000225210334500006	0.0031347717946258	-0.00812547294860104	-0.0127267679649548
7.9	-0.0069913410925506	0.0126358296607563	0.000223739642767471	0.00313632830684778	0.000231680015202226	0.00313783267943152	-0.00883080702368223	-0.0126751715850532
8	-0.00464732453469689	0.0136881754729322	0.000665783842518122	0.00306501047908428	0.000665861953297231	0.00306991076073922	-0.00958969928199472	-0.0126010228573077
8.1	-0.00196661641721571	0.014283643898646	0.00107676601115958	0.0029479337106947	0.0010959166643352	0.00294903222282233	-0.0104352931804455	-0.0124124719925607
8.2	0.000842299629865226	0.0142620706643246	0.00148204063022216	0.00276749708054525	0.00149129397413512	0.00276030522388966	-0.0113066929919872	-0.0119585140948
8.3	0.00355841784752057	0.0135516555342666	0.00185913943506662	0.00252869973445351	0.00185748941867254	0.00254225395563725	-0.0120600761388639	-0.0113236798813677
8.4	0.00592243170759599	0.0123438180850074	0.00219551857867708	0.00225102961776442	0.00219248710423866	0.00225080400314061	-0.0126880350601441	-0.0106729850019366
8.5	0.00791151787513249	0.0107484295287759	0.00248185189748262	0.00192026721897732	0.00248095372448018	0.00192345191357191	-0.0133060756298651	-0.010020663886072
8.6	0.00956152668352126	0.00893355304383154	0.00272840499000265	0.00155968006467006	0.0027379091909057	0.00155313783553968	-0.0139052545546556	-0.00940938906589565
8.7	0.0109656865096052	0.00677095458805102	0.00291444076191456	0.00115674141920495	0.00292000264682465	0.0011574652861471	-0.0145720229276963	-0.00878459440823631
8.8	0.0119808588765937	0.00420971622039759	0.00305122422986521	0.000745649067398934	0.00305699555691615	0.000736886381170949	-0.0153544778612416	-0.00806175071124172
8.9	0.0124665595505668	0.00123855404513029	0.00312879890844349	0.000311476271349078	0.00312792773671696	0.00030922833047975	-0.0158428562140587	-0.00698756468074771
9	0.0122048323360416	-0.00194675910378495	0.00313870093496669	-0.000131959164619646	0.00314185880617563	-0.000127856500251902	-0.0158767901075607	-0.00584016322950104
9.1	0.0112776943115917	-0.00510033245457436	0.00309263988749902	-0.000573567922309805	0.00309552500199012	-0.000560666966351909	-0.0155997169424745	-0.00492257222603205
9.2	0.00961447641059755	-0.00809216067812671	0.00298328567843624	-0.000991385566273943	0.00299094556644685	-0.000994262896777585	-0.0153158941864385	-0.00423918962000196
9.3	0.00723291008646541	-0.010744049396564	0.00281483981966916	-0.00139695183080532	0.00281410890309549	-0.00140194386929141	-0.0149716688166663	-0.00355799835428907
9.4	0.00413532572915898	-0.0128116346882133	0.00259250550440069	-0.00178756304082859	0.00259901896884477	-0.00177996277560791	-0.0145585026575104	-0.00302373098207725
9.5	0.000494204538669429	-0.0138914528015187	0.0023174574128602	-0.00212227951719887	0.00232487184211851	-0.00212362723020332	-0.0142086751233075	-0.00262037075198949
9.6	-0.00332340575954305	-0.0140442182327501	0.00200047512656064	-0.00242644865492257	0.00200080506155508	-0.00242546632587265	-0.014211440472418	-0.00237858337795635
9.7	-0.00704291030670178	-0.0133027550885975	0.00163323998679829	-0.00267757534379719	0.00163877664588591	-0.00268488387428567	-0.0144263793253523	-0.00193876662916454
9.8	-0.0105807390671214	-0.0118738103236843	0.00124811078670848	-0.00288706563774385	0.00125381047214164	-0.00287856448514981	-0.0146891620184198	-0.00124290776803694
9.9	-0.0138984090344019	-0.00966839268878118	0.000842511043149873	-0.00302691260957207	0.000835177362343538	-0.00302568605771897	-0.0149041773870166	-0.000300629113195994
10	-0.0168466896980433	-0.00670876528891782	0.000411892316568122	-0.00311669603798836	0.000404400695837152	-0.0031291435816896	-0.0148630491862401	0.000691705562846712
10.1	-0.0190669298622907	-0.00301462609097097	-3.08704159331794E-05	-0.00314856326357748	-4.11056848772129E-05	-0.00314316846797894	-0.0145925029594032	0.00152637136895338
10.2	-0.0203568636677132	0.00108806827207813	-0.000477617403035435	-0.00311188600161392	-0.000481025393994861	-0.00310910582855641	-0.0142288174603269	0.0022805121722425
10.3	-0.0207545204629959	0.00532221943402762	-0.000910711317074562	-0.00300614001979347	-0.000902618322057296	-0.00301521713792694	-0.0137457105201271	0.00299998427794211
10.4	-0.020367267856333	0.00953343645467154	-0.00130849184074593	-0.00285126940796109	-0.00130679631224357	-0.00285746769124549	-0.0129539899726643	0.00348742190930843
10.5	-0.019277445675161	0.0137531915044589	-0.00170040144037915	-0.00265217775583355	-0.00169729450706126	-0.00263917277740026	-0.0121198382458265	0.00366221709758194
10.6	-0.0171831396384872	0.0179640738237912	-0.00205327209299895	-0.00238175542777395	-0.00205108564376992	-0.00238557998136016	-0.0114622684051425	0.00362523503793303
10.7	-0.0141673205294673	0.0218136690829676	-0.00236852338856282	-0.00207934532117452	-0.00236502636893568	-0.00207406371484026	-0.0110456308549065	0.00360146908181977
10.8	-0.0103510573421937	0.0249645466069796	-0.00263752914871086	-0.0017189431251765	-0.00263233127741784	-0.00172787270598188	-0.0107783975185439	0.00363604899369793
10.9	-0.00590846942426002	0.0273987484834461	-0.00284545370190173	-0.00134454300309366	-0.00285064219489431	-0.00134381029375097	-0.0104996314917864	0.00385737823689355
11	-0.000974702953386609	0.0290690618468832	-0.00300439237776912	-0.000927933617385892	-0.0030092391658671	-0.000934673432384594	-0.0101209771237836	0.00404398131324454
11.1	0.00440845582704639	0.0298698030182915	-0.00311259980691934	-0.00050292171026437	-0.00310173876415887	-0.000500064609094783	-0.00971026303858386	0.00408178193422328
11.2	0.0101442889997499	0.0294908796790978	-0.00314180077013019	-6.52398250459647E-05	-0.00314895503507134	-7.0074894404742E-05	-0.0093215210064271	0.00409748085693134
11.3	0.0159256569242689	0.0277212202267118	-0.00311493056794759	0.000383401201312651	-0.00312647445849824	0.000373366307611482	-0.00881453387974849	0.00419681250038247
11.4	0.0210566128019111	0.0247145106235802	-0.00304127044156698	0.000811133645844971	-0.003036355057434	0.00081869861678859	-0.0082472491813743	0.00421519110468739
11.5	0.0254070374024131	0.0207580919866632	-0.00289807971348414	0.00122667793838192	-0.00290085643491092	0.00123695417799882	-0.00772988078444895	0.003940344150242
11.6	0.0290132844059097	0.0160013740050633	-0.00270384415252188	0.00161704548249016	-0.00270382482552902	0.00161998559805025	-0.00728180027646363	0.00346310102242335
11.7	0.0317385409507574	0.0105697479803532	-0.00244271770296884	0.00197186634162262	-0.00244328060982717	0.00198047133358902	-0.00697433207935832	0.00290475677803001
11.8	0.0334020166830767	0.00458469844048701	-0.00214752450195866	0.00230421534823172	-0.00215163961355572	0.00230591433675542	-0.00674398099145236	0.00250302875200024
11.9	0.0338685882642408	-0.00166629719649814	-0.00179829341839734	0.00258059165404048	-0.0018113151187303	0.00258490060544864	-0.00643605935326161	0.00242152981215252
12	0.0329256620918815	-0.00780269840495941	-0.00142483179333725	0.0028039394409903	-0.00142423561485751	0.00280535128253136	-0.00604014462736203	0.00220616062276913
