# GHZ S RI R 50
0.2	0.00590242851873968	0.00124340908697091	0.00304833865770632	-0.000897935337406849	0.0030587073135757	-0.000891126455945963	-0.0140481982585781	0.00489507066570869
0.3	0.00621786602828183	-0.000704403100764739	0.00290411848891141	-0.0013213586247479	0.00289687235929608	-0.00130841994862974	-0.0132538682574457	0.005096115887134
0.4	0.0059736925834767	-0.00235094993781913	0.00267248066425274	-0.00169312248014197	0.00267774791926213	-0.00170168302103752	-0.0127328005925549	0.00564021091000096
0.5	0.00526954070145063	-0.00374383669809494	0.0024136156645087	-0.00204979901372066	0.00242515258363541	-0.00206203872772408	-0.0122145417855073	0.00624860089787617
0.6	0.0042587614591621	-0.0048035815840524	0.00210107670125395	-0.00236423680584559	0.00210029015662247	-0.00237138598576168	-0.011734257864789	0.00681414297989037
0.7	0.0029752264654697	-0.005496822483445	0.00175393056947264	-0.00264194292050867	0.0017519746854389	-0.0026421417073912	-0.0113839012462642	0.00740859949619357
0.8	0.00164404305563076	-0.0058473309858903	0.00136853060437434	-0.00285926675383564	0.00135593158452955	-0.00286381531965212	-0.0110441400823584	0.00814201778634327
0.9	0.000220250524030983	-0.00582757591569462	0.000951512394314018	-0.00302275484604307	0.000952547101538746	-0.00303345314786646	-0.0106505682296624	0.0089222370218393
1	-0.00115796980764896	-0.00551760407121476	0.000526737203947067	-0.00312612118148016	0.000516876351572631	-0.00312686103221793	-0.0101433913227783	0.00973933937802935
1.1	-0.00252103449960597	-0.00497317624943586	7.11926852215013E-05	-0.00315488674918818	6.76858147039805E-05	-0.00317253527497704	-0.0096215670858708	0.010618783721151
1.2	-0.00380911090130146	-0.0044101380405617	-0.000370859149072501	-0.00314425560405931	-0.000371670808791354	-0.00314217942183378	-0.0086904484442512	0.0114963656859604
1.3	-0.00516302865664058	-0.00393870378573872	-0.000797892456139435	-0.00306104455374131	-0.00080113210264793	-0.00306304948185289	-0.00715125641956338	0.0121457758113936
1.4	-0.00634316729966763	-0.00334544104293953	-0.00121910070261419	-0.00291281803756652	-0.0012178878377036	-0.0029183504897845	-0.00545873130902604	0.0120373765501228
1.5	-0.00687625546346687	-0.00224984542512918	-0.00161987934128848	-0.00271699801017515	-0.00161826751478314	-0.00272549724560614	-0.0041037938156779	0.0115624652425352
1.6	-0.00681357385063767	-0.000773740991548747	-0.0019803724748461	-0.00246465361654124	-0.00198058331819508	-0.00246988725662323	-0.00353203211350242	0.0114044662943351
1.7	-0.00622765143739579	0.000690655197304203	-0.00230876742079978	-0.00216788527622326	-0.00230973308654593	-0.00216162453551998	-0.0029284954960788	0.0115667659236562
1.8	-0.00532962395927693	0.0020910960131216	-0.00257980355600144	-0.00181649514456035	-0.00259076806189522	-0.00182213149766174	-0.00226512880731193	0.0117297338330857
1.9	-0.00415275779248884	0.00315636528344789	-0.00280518664575303	-0.00144586466838316	-0.00281762529169656	-0.00143971250600355	-0.00161322348263408	0.0118837440227107
2	-0.00281997311308303	0.00391412033006863	-0.00298093114539061	-0.00103825481267076	-0.00299055215889285	-0.0010335471474277	-0.000975291850123492	0.01209801254619
2.1	-0.00137507655125435	0.00427697895516383	-0.00309446386389138	-0.000609840863724285	-0.00309038091641481	-0.000611832390059234	-0.000176468960643212	0.0122267693749634
2.2	6.21775278405551E-05	0.00432452834888327	-0.0031518662772951	-0.000171513810877639	-0.00316316900687087	-0.000174349308001726	0.000792960491901124	0.0122208940857889
2.3	0.00143533131802588	0.00393666534243683	-0.00314717946341208	0.000271966337961223	-0.00314687743487881	0.000265084059348496	0.00171498963256599	0.0119548766601538
2.4	0.00262571364143663	0.00326864229788258	-0.00307463743522448	0.000710372652181752	-0.00307717873051861	0.000706115973037716	0.00255451836801186	0.0116462944406212
2.5	0.00360070607776605	0.00231326718388995	-0.00293740711151157	0.00112270292910659	-0.00294829424898428	0.00112908384270042	0.00337761514489158	0.011230913180245
2.6	0.00439267746305273	0.00117139449411543	-0.00276325290850576	0.00152574348596529	-0.00275969853040938	0.00151342160106432	0.00419461078244172	0.0107275640307157
2.7	0.0050341626150676	-0.000128120589188	-0.00251707218827041	0.00189703072829081	-0.00252235156281875	0.00189704284451359	0.0048533318802655	0.0101329496111862
2.8	0.00555009473202751	-0.00161708107898767	-0.00223386394545843	0.00222436052585916	-0.00222604889951919	0.00223414690967753	0.00537591547463046	0.00966242808116891
2.9	0.00588695272935253	-0.00332709339377548	-0.00189923216312966	0.00252425601641521	-0.00189552390044164	0.00252382815159693	0.00607542988566341	0.00935792741820167
3	0.00583667039272384	-0.00522924965681021	-0.00151269504796367	0.0027593082875364	-0.00152747072803029	0.00276541049479889	0.00695577397606949	0.00903397886055271
3.1	0.00538879657784563	-0.00718368079335167	-0.00112227965050215	0.0029360145926106	-0.00111762170200001	0.00294435386237014	0.00781028190906914	0.00852353696576839
3.2	0.00437006587053441	-0.00908655798118478	-0.0007017142625986	0.0030727204880477	-0.000703458409843839	0.00307211045149177	0.00842849159350545	0.00800976443351282
3.3	0.0028830223005138	-0.0108774184058916	-0.000263347010269403	0.00314208733314854	-0.000261699622029366	0.00313834789342283	0.00911811773261229	0.00740226799294909
3.4	0.000872773361343792	-0.0122891483066246	0.000183315010160491	0.0031356301132042	0.000177115333443197	0.00315219089605279	0.00978350357175068	0.0065676292500274
3.5	-0.00146939327781678	-0.0133122168134255	0.000604854235453917	0.00309244842832492	0.000610448287977885	0.00309252285751473	0.0101724102475862	0.00548738477319949
3.6	-0.00408657534695422	-0.0137704773429029	0.00103308287955963	0.00297300374745482	0.00104127223228692	0.00297268494787359	0.0103480571387673	0.00457704459068074
3.7	-0.00676044234084166	-0.013646475046604	0.00144342248017764	0.00279184111761094	0.00143384120065113	0.00280551445410583	0.0105527091999612	0.00373684900941287
3.8	-0.00939181346751668	-0.0129429758785847	0.00182133580061432	0.00256457021455743	0.00182374072799384	0.00257371723965135	0.0106843197965503	0.00289220350039563
3.9	-0.0117494449211445	-0.0117253397456962	0.00216696529188583	0.00229135346611742	0.00215970146616024	0.00228957560825773	0.0107228032727854	0.0020776662950295
4	-0.0138181897295433	-0.0101051916913152	0.00245151860796172	0.00197008066456224	0.0024559660572899	0.00196764623907283	0.010777858305111	0.00140310426239375
4.1	-0.0155429009794655	-0.00814942927558969	0.0027033434930233	0.00161004331567926	0.00270209128207255	0.00161077911833246	0.0109874142930074	0.000781604135641456
4.2	-0.0169339762801965	-0.00587796085090327	0.00290242164587511	0.00120870083803448	0.00290688541215011	0.0011999861795524	0.0112328259487566	6.71043587737201E-05
4.3	-0.0179152393800355	-0.00343456935340106	0.00304523525181653	0.000796482979513907	0.0030516553414846	0.000788680765140578	0.01142721437118	-0.000827081512971647
4.4	-0.0185637254672209	-0.000788328815711313	0.00312128251508857	0.000362283444427936	0.0031236560141102	0.000360027038495409	0.0114138045545342	-0.00173717958509217
4.5	-0.0187664916453128	0.00201670144318803	0.0031437078533201	-7.57291425166771E-05	0.00314906633099694	-7.91025472281554E-05	0.0113584741758147	-0.00260028211138367
4.6	-0.0185294523903423	0.00484668768443562	0.0030993134799317	-0.000518453419389842	0.00310054439126914	-0.000505544194218001	0.0111991947429823	-0.0035392999807056
4.7	-0.0176894830922764	0.00767573685735789	0.00299377932296494	-0.000937070969449247	0.00300905768652393	-0.000946687660852052	0.0108759875451914	-0.0044730889036402
4.8	-0.0163510682063844	0.0103229164099478	0.00283245589314113	-0.0013508622809085	0.00284092946265879	-0.00135695062012713	0.0104511330667956	-0.00527715165608385
4.9	-0.0143330043172825	0.012660742581493	0.00261153096746094	-0.00173462208223162	0.00261569581387957	-0.00173171953312452	0.0100605052564973	-0.00590771702648233
5	-0.011852281948685	0.014454006989811	0.0023517239039719	-0.0020893103123307	0.00235534419302593	-0.00208664840139603	0.00994579224423009	-0.00643772027843285
5.1	-0.00889681173748574	0.0156977917481358	0.00204096807570988	-0.0023994200938989	0.00204326747441147	-0.00239806370773732	0.00995845683618924	-0.00713728171816357
5.2	-0.00584168732728831	0.0162495815309557	0.00168355312601246	-0.00264882594548713	0.0016852642297785	-0.00265396514751018	0.00988546550844705	-0.00791880982929689
5.3	-0.00278595048118484	0.0161896221528331	0.00129715692482001	-0.00286379087629103	0.00130028710318761	-0.00286173026140762	0.00972342507789087	-0.00864791369284503
5.4	9.5444126684635E-05	0.0155841371464823	0.000872764483273864	-0.00301090830551809	0.000889914010677145	-0.00302210813908862	0.00953493069333161	-0.00953125493871919
5.5	0.00267063014885857	0.0145390515995546	0.000459689207162968	-0.00310848520432018	0.00046973307541629	-0.0031179050914917	0.00908049243655878	-0.0105358428035063
5.6	0.00491368805477427	0.0130992208352677	2.17455892058718E-05	-0.00314445200087837	1.32276748095228E-05	-0.00314766807304841	0.00826000236347303	-0.0113635880488448
5.7	0.00672192434090808	0.011366750278159	-0.000408760903606209	-0.00311393370115346	-0.000425358556024663	-0.0031175920002444	0.00726747154065892	-0.011874139789181
5.8	0.00813022640400293	0.00937838526713687	-0.000854136701569604	-0.00301911068754796	-0.000857667892051134	-0.00303308781082456	0.00629800794335193	-0.0123476281435675
5.9	0.00905693705040698	0.00726584729815263	-0.00125856172280693	-0.00287932836762581	-0.00126678516888403	-0.00287924770094622	0.00519141552836633	-0.0127020618236084
6	0.0094911569906445	0.00500433793635734	-0.00165639550778812	-0.00267332635377514	-0.00165283728321551	-0.00267349243546514	0.00395729540122919	-0.0127968632026086
6.1	0.00944994420091908	0.00269717568848201	-0.0020111483972564	-0.00241908377249009	-0.00201278683059763	-0.00241508293134055	0.00298182129582125	-0.0125994278293872
6.2	0.00892544252683183	0.000366692501849627	-0.0023236258619613	-0.00210617478172348	-0.00232733110514061	-0.00211803615151828	0.00232434844683369	-0.0124934536263108
6.3	0.00800288654372346	-0.00189807181767651	-0.00260109688048693	-0.00177197746167285	-0.00261021786560968	-0.00176624378138541	0.00181371505035701	-0.0126608784733
6.4	0.00658603960485015	-0.00402773771577624	-0.00282709986142735	-0.00138164820446313	-0.00281738323456514	-0.00138654644710891	0.00133234798933627	-0.012965196690445
6.5	0.00480243947884438	-0.00582202629154153	-0.00298344886137181	-0.000977032536091658	-0.00299130356892464	-0.000972555289012375	0.000872399595045869	-0.0133933435054691
6.6	0.00271250860068506	-0.00708061736825704	-0.0030914914411958	-0.000552479546838727	-0.00309312294126731	-0.000556453127848454	0.000328302477938262	-0.013874657812679
6.7	0.000458007477554836	-0.00773964696061124	-0.00314209403813748	-0.000115164178171749	-0.00315094159068189	-0.000108891989233876	-0.00057679436654854	-0.0142331605146664
6.8	-0.00186610678167423	-0.00779010310193838	-0.00312071334582605	0.00032582883466497	-0.00313179837466016	0.000330870460270893	-0.0016450621587342	-0.0142512046258919
6.9	-0.00414862751992132	-0.00727005738025244	-0.00304561036697547	0.000758722562337211	-0.00304859553976013	0.000761110506012162	-0.00261332467148036	-0.0140257545966527
7	-0.00620613854669193	-0.00619727044945817	-0.00290931504744234	0.0011790305641488	-0.0029221337570126	0.00117683246966248	-0.00345926370964684	-0.0137545410585581
7.1	-0.00804110616589874	-0.00468379391259787	-0.00273205972301572	0.00156743963100481	-0.00272840135534444	0.00157610008881903	-0.0043373328360324	-0.01334369934976
7.2	-0.00953453582418207	-0.00276796618158618	-0.00247626038599584	0.00193511565804763	-0.00248278621851252	0.00193719064835455	-0.00504655074779349	-0.0127779162231549
7.3	-0.0106928374124913	-0.000568694285209411	-0.00218161450829294	0.0022540565141823	-0.00219282286748848	0.0022591011480206	-0.00551166604126008	-0.0122831077742368
7.4	-0.0114682545001236	0.00183753318738866	-0.00184093894935109	0.00253735299800172	-0.001847826430718	0.00255094963608773	-0.0059910647680914	-0.012022324168831
7.5	-0.011766782911327	0.00438155588281349	-0.0014762139194671	0.00277700153171142	-0.00146922968574175	0.00278439862802233	-0.00637194190559236	-0.0118752524074557
7.6	-0.0114139184806719	0.00690511248409324	-0.00107073039531904	0.00295616568715528	-0.00107210124675267	0.00295146927427405	-0.00669488524239516	-0.0119257128197221
7.7	-0.0105549279716806	0.00921881937823838	-0.000642897710998733	0.00307830418651919	-0.000644236766447996	0.00307724171400669	-0.00727487267341872	-0.0124179324680223
7.8	-0.00894947696164796	0.0111534532852362	-0.0002174312853894	0.00312832916949351	-0.000225242687431742	0.00313477997507471	-0.0081338915055682	-0.0126739951389242
7.9	-0.006799539011668	0.0125598776566773	0.0002237099633227	0.00313635203307878	0.000231650375217744	0.00313785649499809	-0.00902675945633131	-0.0126076755656048
8	-0.00428728463120082	0.0134488027648139	0.000665769722544481	0.00306504736430593	0.000665847800356836	0.00306994769813089	-0.00996143119501343	-0.012371436032967
8.1	-0.0015854172719454	0.0137988179264613	0.00107677320754012	0.00294797468866123	0.00109592410809755	0.00294907325966795	-0.0108371151121827	-0.0119343230708336
8.2	0.00108737440111348	0.0136090963031291	0.00148206570097521	0.00276752703626333	0.00149131913937832	0.00276033506853589	-0.0115762832654564	-0.0113029090754322
8.3	0.00365018318299312	0.0128882010784434	0.00185917011174616	0.00252871439862517	0.00185752014881171	0.00254226875773126	-0.0121741188733742	-0.0106504692595594
8.4	0.00597235717417307	0.0117467330379809	0.00219554783649663	0.00225103546215663	0.00219251633711896	0.00225080986202477	-0.0127569202781926	-0.0100638867202263
8.5	0.00801703911594519	0.0101498650993576	0.00248188340808139	0.00192026909598057	0.00248098524567883	0.00192345382212768	-0.0134308090656903	-0.00940940613364571
8.6	0.0096836009644969	0.00821689619528288	0.00272844354514963	0.00155967227847603	0.00273794778168844	0.00155312990940306	-0.0140497168885132	-0.00867596353467157
8.7	0.0109646039417831	0.00593076987799975	0.00291447959559744	0.00115671369068273	0.00292004153564348	0.00115743749246942	-0.0145925923037161	-0.00791860930366254
8.8	0.0117742205320919	0.00338463787011189	0.00305125007385789	0.000745603579075454	0.00305702128680534	0.000736840760470175	-0.0151612435310664	-0.00720291626606923
8.9	0.0121422703098721	0.000574360975529613	0.00312880385846096	0.000311423598658527	0.00312793264898989	0.000309175672655676	-0.0155206109143727	-0.00628957832148387
9	0.0119187191728969	-0.00245769295547299	0.00313868681441652	-0.000132007267551088	0.00314184473701162	-0.000127904667875381	-0.0155855636987491	-0.00530157181064962
9.1	0.0110684098656801	-0.00556525435805367	0.00309261091392423	-0.000573604963416816	0.00309549617952645	-0.000560704134848866	-0.0153835673644869	-0.00443582782863458
9.2	0.00942561504038259	-0.00854077111730184	0.0029832508238944	-0.000991407395971963	0.00299091061906354	-0.000994284779755945	-0.0151200164968495	-0.0037731360285858
9.3	0.00707122905513437	-0.0111167933392229	0.00281480750506555	-0.0013969586608405	0.00281407656198026	-0.0014019506533977	-0.0148039484756102	-0.00317223689280614
9.4	0.00410364834919728	-0.0131164137352121	0.0025924835873663	-0.00178756362833111	0.00259899704637894	-0.00177996343259174	-0.0145245077046241	-0.00270899951532029
9.5	0.000629074179632671	-0.0142544538304909	0.00231744443978396	-0.00212228157703774	0.00232485884533614	-0.00212362931081196	-0.014344810665048	-0.00224588870287157
9.6	-0.00311962329771786	-0.0145865477410093	0.00200046214614549	-0.00242645590816824	0.00200079208539478	-0.00242547358150519	-0.0144159509201144	-0.00182190150837425
9.7	-0.00693290951242807	-0.013997968438016	0.00163322108331374	-0.00267758274868851	0.00163875768953739	-0.00268489130626321	-0.0145336640607642	-0.00122887644571097
9.8	-0.0106237676204937	-0.012574518285272	0.00124808802012768	-0.00288706673309842	0.00125378774861964	-0.00287856564083457	-0.0146418159563801	-0.000531252823652992
9.9	-0.0140014984055502	-0.0102581190520039	0.000842491747995954	-0.00302690632669006	0.000835158099962841	-0.00302567973973554	-0.0147974095196374	0.000297997716591585
10	-0.0168874954174155	-0.00723331959718997	0.000411877418405741	-0.00311668826329337	0.000404385766226791	-0.00312913573595369	-0.0148189576820183	0.00122475232807448
10.1	-0.0190563362401949	-0.00358215733637962	-3.08845603045991E-05	-0.00314855674221262	-4.11197841735407E-05	-0.00314316191134087	-0.014599331992924	0.00210078948637943
10.2	-0.0204019449585315	0.000477367694575564	-0.000477634219874224	-0.00311187826715644	-0.00048104218961012	-0.00310909807930633	-0.0141804884696642	0.00289622788299183
10.3	-0.0208740449128976	0.00479270015068581	-0.000910729909674018	-0.00300612687107531	-0.000902636995620171	-0.00301520402406329	-0.0136243887336806	0.00353442804787773
10.4	-0.0204241208289017	0.00914968680941384	-0.00130850825673837	-0.002851249379172	-0.00130681278033413	-0.00285744765257664	-0.0128948679907686	0.00387735397111753
10.5	-0.0191110061199304	0.0134471545643446	-0.00170040045069971	-0.00265215564009781	-0.001697293490406	-0.002639150751663	-0.0122511284042217	0.00405965651046044
10.6	-0.0169535677477988	0.017444888444786	-0.00205328493416972	-0.00238172727983957	-0.00205109852805737	-0.00238555183725187	-0.0117215193226073	0.00406009269508738
10.7	-0.0138970833631979	0.0211756156891934	-0.00236851723162955	-0.00207932032120236	-0.00236502021071473	-0.00207403876662901	-0.011310789214019	0.00423255403504381
10.8	-0.0100811597947145	0.0242991133525192	-0.00263750621425373	-0.00171891494825049	-0.00263230843150165	-0.00172784444926206	-0.0109896886516326	0.00436671693780087
10.9	-0.00566196230568255	0.0267101534552418	-0.00284544529600027	-0.00134452565302036	-0.00285063376140401	-0.0013437929272957	-0.0107477064635614	0.00453643514489921
11	-0.000637497888279595	0.0282691990294703	-0.00300438019908991	-0.000927914732544219	-0.00300922699163845	-0.000934654488438931	-0.0104595987996233	0.00482944459309305
11.1	0.00472834555861254	0.0288295056681214	-0.00311257795980345	-0.000502904330599985	-0.00310171698851757	-0.000500047298610158	-0.0100382117109822	0.00509651621612601
11.2	0.0102433664826306	0.0282477551673745	-0.00314176890918578	-6.52325319853718E-05	-0.00314892311147825	-7.00675370085187E-05	-0.00944659575233985	0.00531029385185776
11.3	0.0157029901701974	0.0264815973767954	-0.0031148959165369	0.000383395362575168	-0.00312643967297142	0.000373360575376594	-0.00863572393740736	0.00541402531016033
11.4	0.020641841497391	0.0236473727610292	-0.00304123950804008	0.00081110743417577	-0.00303632422284265	0.000818672344152121	-0.00788381851423403	0.00527647865852381
11.5	0.024950554481466	0.0198442887291307	-0.00289807038532351	0.00122663700324627	-0.00290084719631663	0.00123691313265621	-0.00732682417478929	0.00486167475168319
11.6	0.0285202187447388	0.0151717185122894	-0.00270385446344952	0.00161700813507147	-0.00270383517137171	0.00161994824123182	-0.00684016534850778	0.00431035735175027
11.7	0.0311503851471159	0.00986885821560678	-0.0024427368333872	0.00197184343633667	-0.00244329982212499	0.00198044842432112	-0.00643339906007683	0.00363555839610459
11.8	0.0327904331811712	0.00414256895227861	-0.00214753888008413	0.00230420474449246	-0.0021516540039247	0.00230590371093434	-0.00616416884003392	0.00298511802713352
11.9	0.0334432054489672	-0.00183823474670833	-0.00179829578416613	0.00258058400493086	-0.00181131747276644	0.00258489292345458	-0.0060231387010817	0.00262915826449051
12	0.032817586961553	-0.00790664890969389	-0.00142482431427243	0.00280392498272182	-0.00142422813882563	0.00280533681693652	-0.00593589675489561	0.00233012860183727
