# GHZ S RI R 50
0.2	0.00590269287047598	0.00124333294280515	0.00304832465518021	-0.000897937476294342	0.00305869328206934	-0.000891128641921835	-0.0140477284427739	0.00489513574097779
0.3	0.00621798156252189	-0.000704765404523313	0.0029040938248192	-0.00132134926681144	0.00289684776187115	-0.00130841069359478	-0.0132534705184474	0.0050957702753206
0.4	0.0059735577069264	-0.00235135760662046	0.00267245165206807	-0.00169309242856757	0.00267771886617504	-0.00170165284321468	-0.0127327313918455	0.00563965724276098
0.5	0.00526928151687223	-0.00374407470918202	0.00241359404763477	-0.00204974265939511	0.00242513088576675	-0.00206198206319307	-0.0122148057333069	0.00624815533769973
0.6	0.00425862719584745	-0.00480362310950557	0.0021010776948343	-0.00236415594764299	0.00210029128815403	-0.00237130500597977	-0.0117346006921144	0.00681399194008456
0.7	0.00297539731772915	-0.00549685494333471	0.00175396837753962	-0.00264184742303633	0.00175201253496511	-0.00264204625824737	-0.0113840148908772	0.00740862433496363
0.8	0.00164447927490552	-0.00584761594696448	0.00136861360782176	-0.00285917441293881	0.00135601494123556	-0.00286372336668295	-0.0110439556344137	0.00814185913909806
0.9	0.00022071294302595	-0.00582823541478677	0.000951639949482537	-0.00302268737538862	0.000952675127340903	-0.00303338554290077	-0.0106503916078337	0.00892159346157826
1	-0.00115772464556977	-0.00551849335702359	0.000526897670502937	-0.00312609855168265	0.000517036842414012	-0.00312683890732291	-0.0101437315812894	0.00973829088277246
1.1	-0.00252104016131703	-0.00497398583923368	7.13640421241948E-05	-0.00315492381356678	6.78580795431253E-05	-0.00317257275765799	-0.00962270176602338	0.0106178431653152
1.2	-0.0038090689206708	-0.00441071742022697	-0.000370702418239965	-0.00314435463304911	-0.000371514208142596	-0.00314227844124729	-0.00869209507425175	0.0114959534733534
1.3	-0.00516311173584692	-0.00393933892798119	-0.000797777318482123	-0.00306119485025071	-0.000801016989551941	-0.00306320000506149	-0.00715298621449506	0.0121457697745157
1.4	-0.0063436142177111	-0.00334639247515554	-0.00121904772428166	-0.00291299750776776	-0.00121783459661029	-0.00291853016882917	-0.00546052022330383	0.0120375362746195
1.5	-0.0068769164036747	-0.00225081967345537	-0.00161989603764111	-0.00271717671615699	-0.00161828392120987	-0.00272567634766148	-0.00410539653166751	0.0115635038589551
1.6	-0.0068139738750429	-0.000774585097774793	-0.00198045117535851	-0.00246479921445039	-0.00198066198015668	-0.00247003312599794	-0.00353275289853923	0.0114059422816885
1.7	-0.00622771238591901	0.000689744432245013	-0.00230888613821445	-0.00216797212025452	-0.00230985181298136	-0.00216171108547543	-0.00292813832801291	0.0115681667634361
1.8	-0.00532958544941204	0.00209005619644755	-0.00257992832086515	-0.00181650978914898	-0.00259089331749118	-0.00182214613154279	-0.00226417760504701	0.0117304146468621
1.9	-0.00415277989490203	0.00315520382794329	-0.00280528086446824	-0.00144581203380298	-0.00281771957010051	-0.00143965940063339	-0.00161242163240887	0.0118836698025432
2	-0.00282003682352785	0.00391298323567277	-0.00298096229980417	-0.00103815666026235	-0.00299058315105849	-0.00103344868554031	-0.000974953861368962	0.0120976921040271
2.1	-0.00137501981326405	0.0042758527284223	-0.00309441256614222	-0.000609734085530548	-0.00309032977043431	-0.000611725689828708	-0.000176321431521802	0.0122266316384609
2.2	6.24258599703512E-05	0.00432320519400077	-0.00315173203935378	-0.000171442262812589	-0.00316303433267125	-0.000174277406338154	0.000793391799755695	0.0122208465065477
2.3	0.00143557538728832	0.00393494954332383	-0.00314698331595061	0.000271960895377763	-0.00314668133112507	0.000265079042447218	0.00171579299106723	0.0119543939531937
2.4	0.00262566528182595	0.00326671339887755	-0.00307441984294309	0.000710261197759336	-0.00307696086688812	0.000706004790433014	0.00255516114926726	0.0116449890239684
2.5	0.0036002352345415	0.00231145173018972	-0.00293721964248106	0.00112247786645683	-0.00294810618627592	0.00112885776555461	0.0033773462351918	0.0112291177876198
2.6	0.00439205648449709	0.00117005483320799	-0.00276314718125348	0.00152541868580667	-0.00275959217371232	0.00151309803770622	0.00419328320799761	0.0107260359202721
2.7	0.00503378273032001	-0.000129034983368595	-0.00251709227853152	0.00189664688480171	-0.00252237129421439	0.00189665846650209	0.00485143622188558	0.0101320790442343
2.8	0.00555010424482948	-0.00161793538045263	-0.00223403094574167	0.00222397332706639	-0.00222621750129101	0.0022337602024175	0.00537377829567205	0.00966195408770697
2.9	0.00588712059847988	-0.00332816186948662	-0.00189954425296727	0.00252392915564729	-0.00189583601622697	0.00252350182423127	0.00607292562731819	0.00935785218889142
3	0.00583704808093595	-0.00523051504942329	-0.00151311728181428	0.00275910156049295	-0.00152789397447784	0.0027652016047013	0.00695299707584751	0.00903459312857546
3.1	0.00538976333475085	-0.0071849508664711	-0.00112275592576342	0.00293596295618537	-0.00111809902597025	0.00294430323574924	0.00780775659612603	0.00852551128734402
3.2	0.00437157132493661	-0.00908869185595854	-0.000702178505501562	0.00307283698096195	-0.000703922690209851	0.00307222666631872	0.0084273419200593	0.00801225023921074
3.3	0.0028843576197147	-0.0108804265918136	-0.000263729668159087	0.00314235213926019	-0.000262081699352372	0.00313861253635286	0.00911800587962259	0.0074045533633812
3.4	0.00087345754482098	-0.0122927608508305	0.000183069246126862	0.00313599345541292	0.000176867476394422	0.00315255554896863	0.00978386330369482	0.00656935601339799
3.5	-0.00146953916095325	-0.0133157275683766	0.00060476786371693	0.00309284341565602	0.000610362571195816	0.00309291813869677	0.0101725718129588	0.00548892032424705
3.6	-0.00408725014488894	-0.013773939306144	0.00103315315245488	0.00297335598455008	0.00104134343591403	0.00297303727704427	0.0103487066173822	0.00457851810903071
3.7	-0.00676139978463571	-0.0136496108829802	0.00144361008978108	0.00279208605952486	0.00143402811990512	0.00280576088258262	0.0105541454336365	0.00373808386761544
3.8	-0.00939294276897272	-0.0129457812694505	0.00182157554728206	0.00256466836956893	0.00182398104512164	0.00257381592506454	0.0106864049551374	0.00289240697845339
3.9	-0.0117506073253639	-0.0117275955254235	0.00216718029205909	0.00229129825928239	0.00215991610901811	0.00228952078791202	0.0107245926249211	0.00207658058286959
4	-0.0138189471569548	-0.0101066956132378	0.00245163475297289	0.00196990268799447	0.00245608200896928	0.00196746797965632	0.0107785696580059	0.00140149186245108
4.1	-0.0155426391146154	-0.0081504096901684	0.00270330826087034	0.00160980358557433	0.00270205615473501	0.00161053942725749	0.0109872233611692	0.000780413173765662
4.2	-0.016932397566186	-0.00587916770899592	0.0029022150105023	0.00120848159400114	0.00290667804547699	0.00119976752331302	0.0112323945818369	6.65333204841564E-05
4.3	-0.0179126052640778	-0.00343675492570431	0.00304487706187345	0.000796368052820087	0.00305129633448841	0.000788566727574761	0.0114268813171244	-0.000827553925015784
4.4	-0.0185607608125883	-0.000791913164171069	0.00312083152241629	0.000362342649129149	0.00312320476777619	0.000360086643686574	0.0114130184597793	-0.00173777676285905
4.5	-0.018763831867127	0.00201181239086677	0.00314324867113867	-7.54582868350794E-05	0.00314860663408919	-7.88307495373813E-05	0.0113568195051739	-0.00260044694579725
4.6	-0.0185275557277	0.00484072226771458	0.00309894456429877	-0.000517974531457501	0.00310017361184198	-0.000505066964471256	0.011196986850367	-0.00353801174461647
4.7	-0.017688686663612	0.00766891820921139	0.00299358723464904	-0.000936433402885101	0.0030088654671804	-0.000946046264531507	0.0108743862613718	-0.00447049998522102
4.8	-0.0163517052978137	0.0103158932198636	0.00283250350775362	-0.00135014749436061	0.00284097765395506	-0.00135623352253889	0.0104509176407337	-0.00527387992230337
4.9	-0.0143354668698004	0.0126540364644879	0.00261183784228576	-0.00173393597394321	0.00261600183767133	-0.00173103255483527	0.0100609060122452	-0.00590471285819758
5	-0.0118563167290812	0.0144483988139831	0.00235226370686179	-0.00208875565701152	0.00235588338213622	-0.00208609282652004	0.0099463728975758	-0.00643487371383303
5.1	-0.00890161731953061	0.0156937134446167	0.00204166866218154	-0.00239908345048441	0.00204396788134494	-0.00239772643052769	0.00995967512125521	-0.00713446317835378
5.2	-0.005846404662936	0.0162468335762607	0.00168430848316642	-0.00264875384848356	0.00168602088183095	-0.00265389324569306	0.00988787063536612	-0.00791682465750151
5.3	-0.00279002940263095	0.0161879432556593	0.00129785793189228	-0.00286398190436656	0.00130098820461272	-0.0028619204285537	0.00972648018964026	-0.00864763732299513
5.4	9.23411284425436E-05	0.0155833143671549	0.000873305262568681	-0.00301131091657073	0.000890459184239879	-0.00302251044134025	0.00953736294160757	-0.00953258690418207
5.5	0.00266894471067079	0.0145388060974541	0.000460006957009372	-0.00310900647141666	0.000470053335764176	-0.00311842728279717	0.00908160016285223	-0.0105375652813504
5.6	0.00491363242036765	0.0130988635647291	2.1815167939395E-05	-0.00314498138004813	1.32958857043938E-05	-0.00314819817267521	0.00826027176597511	-0.0113645646589241
5.7	0.00672330828907954	0.0113654663821528	-0.000408907952260862	-0.00311435940736621	-0.000425508041743082	-0.00311801774270517	0.00726810437414683	-0.0118743149918968
5.8	0.00813196034352419	0.00937549896110114	-0.000854425014007253	-0.00301934584476626	-0.000857957498151217	-0.00303332408549068	0.00629907295299739	-0.012348141400646
5.9	0.00905796474306534	0.00726158592005838	-0.00125888035263153	-0.0028793338425309	-0.00126710413836212	-0.0028792524141447	0.00519204898949989	-0.0127035247160049
6	0.00949099619930954	0.00499952555760752	-0.00165662645851441	-0.00267311256793435	-0.00165306831824253	-0.00267327899597297	0.00395656784145681	-0.0127986712940607
6.1	0.00944897089583761	0.00269256016818205	-0.00201119065998136	-0.00241871794491736	-0.00201282862212565	-0.00241471728843526	0.00298001453102516	-0.0126003584783289
6.2	0.00892436519207259	0.000362507521837769	-0.002323417799538	-0.0021057657493054	-0.00232712315377563	-0.00211762530410124	0.00232278154466916	-0.0124930150812474
6.3	0.00800212772953941	-0.00190173866406072	-0.00260063112327466	-0.00177164909000024	-0.00260975044042247	-0.00176591642122587	0.00181324155969629	-0.0126594179036593
6.4	0.00658562771009885	-0.00403057760631463	-0.00282642846110291	-0.00138152522261759	-0.00281671357676786	-0.00138642187307591	0.00133239625735039	-0.0129631320724252
6.5	0.00480279671367848	-0.00582380296910989	-0.00298267796183128	-0.000977198674441127	-0.00299053153308085	-0.00097272339377091	0.000872619835733116	-0.013389925458123
6.6	0.00271419747526507	-0.00708204144238178	-0.00309075385116018	-0.000552969928123045	-0.00309238424386596	-0.000556943017777857	0.000329853759875379	-0.0138698031742348
6.7	0.000460976836898573	-0.00774200926902	-0.00314153001032141	-0.000115951552863253	-0.00315037766879655	-0.000109682703045387	-0.000572823868032881	-0.0142285497537925
6.8	-0.00186269662311757	-0.0077942032371213	-0.0031204423251416	0.000324835662250089	-0.00313152757928832	0.000329873298657962	-0.00163944148582913	-0.0142487164315041
6.9	-0.00414599844972869	-0.00727595148881123	-0.00304570011418579	0.000757654968577549	-0.00304868592899886	0.000760041776269138	-0.00260825460918759	-0.0140259705094515
7	-0.00620447358585576	-0.00620406553889922	-0.00290977263977092	0.00117804150673749	-0.00292259080197694	0.00117583893047027	-0.0034553637681474	-0.0137557067457649
7.1	-0.00804042273658228	-0.00469100983294409	-0.00273282298395337	0.00156666541954272	-0.00272916718561944	0.00157532785947229	-0.00433397862264429	-0.0133446113625586
7.2	-0.00953490500914831	-0.00277533298435193	-0.0024772145478094	0.0019346688896949	-0.00248374199059838	0.00193674224377556	-0.0050424832281692	-0.012778716347757
7.3	-0.0106945463073325	-0.000575862659505243	-0.00218260750622836	0.00225397570954452	-0.00219381936333544	0.00225901861032381	-0.00550653440028034	-0.0122852063827041
7.4	-0.0114723247269963	0.00183195494386539	-0.00184181860113604	0.00253761433116006	-0.00184871010467307	0.00255121290009158	-0.00598786687646325	-0.0120275064084788
7.5	-0.0117717965221543	0.00437812393832875	-0.00147685667327629	0.00277751478264164	-0.00146987153136557	0.00278491437986347	-0.00637126188757634	-0.0118821899998416
7.6	-0.0114181172476727	0.00690188003042615	-0.00107105797912481	0.00295679449999021	-0.0010724289967784	0.00295209699642023	-0.00669450740870716	-0.0119333215744593
7.7	-0.0105574768389312	0.00921671539710977	-0.000642904871253055	0.00307889295114699	-0.000644244211031335	0.00307783033169001	-0.00727718755250667	-0.0124244212386385
7.8	-0.00895038697362938	0.0111501891598231	-0.000217186193636723	0.00312873632521593	-0.000224998004085206	0.00313518861075421	-0.00813697021424386	-0.0126799678049347
7.9	-0.00679831117297668	0.0125562509595096	0.000224088699537479	0.0031364830156551	0.000232029685710182	0.00313798662250724	-0.00903200983342554	-0.0126117100780906
8	-0.00428597537564258	0.0134433161524655	0.000666125533451612	0.00306487006830646	0.000666204210860198	0.00306977023985089	-0.00996671574574389	-0.0123733135314575
8.1	-0.00158300901406936	0.0137917632817385	0.00107695528855197	0.00294753422807082	0.00109610415851198	0.00294863071039427	-0.0108411229172783	-0.0119318450535322
8.2	0.00108900136278165	0.0136004997713759	0.001481952989702	0.00276693263963861	0.00149120431157012	0.0027597414599809	-0.0115770676743943	-0.0112986456021813
8.3	0.00364977380117197	0.012878533306836	0.00185870391920437	0.00252812395017308	0.00185705423989998	0.00254167504871552	-0.0121719721272566	-0.0106467949393615
8.4	0.00596928017691627	0.0117374013931513	0.00219474745852239	0.00225061715067619	0.00219171680677109	0.00225039134132064	-0.012753474506852	-0.0100617221462892
8.5	0.0080118718850063	0.010142446815035	0.00248084630441404	0.00192017268321225	0.00247994782697159	0.00192335635720055	-0.0134271126833929	-0.00940806646625152
8.6	0.00967781627969918	0.00821221623219516	0.00272732017980888	0.00155999143447751	0.00273682368333098	0.00155345328981691	-0.0140453752905154	-0.00867452312872576
8.7	0.0109597760208479	0.00592854663513816	0.00291346004204399	0.00115746797870692	0.00291902054607679	0.00115819353669264	-0.014586811252628	-0.00791757460228337
8.8	0.0117708826872209	0.00338415383044832	0.00305050651057844	0.000746728374219003	0.00305628042761933	0.000737969157731017	-0.0151540586937687	-0.00720418921416202
8.9	0.0121407205975289	0.00057492289937461	0.00312847672504744	0.000312784131664565	0.0031276065595012	0.000310535957950315	-0.0155141809267077	-0.00629426102066294
9	0.0119193392408432	-0.0024569237510808	0.0031388444688197	-0.000130599075211379	0.00314200064421198	-0.000126494926125942	-0.0155819145792612	-0.00530875629695037
9.1	0.0110713015844169	-0.00556632141291304	0.00309323477700491	-0.000572345169893334	0.0030961148474474	-0.000559441527127108	-0.0153824452244429	-0.00444412279689581
9.2	0.00942962784296497	-0.00854445057894439	0.00298423340154936	-0.000990466729646349	0.00299189584652478	-0.000993341765288479	-0.0151211199726911	-0.00378193751933743
9.3	0.00707488644726489	-0.011123355128495	0.00281598619120335	-0.00139644929810477	0.00281525661242284	-0.00140144283621354	-0.0148075242085045	-0.00318114983227465
9.4	0.00410558922711557	-0.0131257784481024	0.00259366494826817	-0.00178751775887222	0.00260017865544543	-0.00177991381346498	-0.0145310238276111	-0.00271758226445813
9.5	0.000629805837010856	-0.0142639411838499	0.00231843406022316	-0.00212263344964904	0.00232585092385217	-0.0021239806336553	-0.0143524086691316	-0.0022507984379359
9.6	-0.00312063555320074	-0.014595815819266	0.00200112118850435	-0.00242707294882477	0.00200145118545766	-0.00242609033031874	-0.014423436327034	-0.00182279867386246
9.7	-0.00693526964888936	-0.0140063454674229	0.00163347988008072	-0.00267827968226034	0.00163901744367668	-0.00268559019097087	-0.0145387899813879	-0.00122693434529725
9.8	-0.0106270205893729	-0.0125814078482741	0.00124797232033073	-0.00288765281288423	0.00125367385610077	-0.00287915100459431	-0.0146441693708557	-0.000528722748172614
9.9	-0.0140044170533204	-0.0102631169109098	0.000842110428394193	-0.0030272183459634	0.000834776493476635	-0.00302599062885213	-0.0147977605511844	0.000299833899571609
10	-0.0168888176764823	-0.00723656379039374	0.000411398596513562	-0.00311663042221258	0.000403905380974697	-0.00312907630631042	-0.0148185473361765	0.00122601268056933
10.1	-0.0190546262078102	-0.00358496330564414	-3.12628703834911E-05	-0.00314811983706504	-4.14960306869451E-05	-0.00314272450476019	-0.0145975861283117	0.00210210318207197
10.2	-0.0203970254425775	0.000472878037319788	-0.000477726357794854	-0.00311114757438903	-0.000481133382548665	-0.00310836779340051	-0.0141763748694869	0.00289676698005593
10.3	-0.0208673441055086	0.00478485832128373	-0.000910408929316891	-0.00300526773846598	-0.000902318205636836	-0.00301434209672594	-0.0136185402096888	0.00353243905969257
10.4	-0.0204176986643158	0.00913822367419773	-0.00130773807619903	-0.00285046459345869	-0.0013060424226167	-0.00285666062153891	-0.0128896601414831	0.00387258513109342
10.5	-0.0191065849864594	0.0134326885557583	-0.00169922726965141	-0.00265165213260203	-0.00169612430690579	-0.00263865090174421	-0.0122482366920999	0.00405373216044829
10.6	-0.0169066503932717	0.0174643326956698	-0.00205184918395964	-0.00238168013612427	-0.00204966216937579	-0.0023855027752451	-0.0117284730422605	0.00410338862233381
10.7	-0.0139003373007636	0.0211580198711519	-0.00236704347704982	-0.0020798145929645	-0.00236354957495101	-0.00207453285693526	-0.0113107133073855	0.0042275366814121
10.8	-0.0100896175273988	0.0242825938431398	-0.0026362242938976	-0.00171994771967042	-0.00263102291387252	-0.00172887318974387	-0.0109907156146809	0.00436134416285931
10.9	-0.00567693734032544	0.0266972242114876	-0.00284455677945668	-0.00134597967850105	-0.0028497453390194	-0.0013452497883961	-0.0107514499834239	0.00452902209545004
11	-0.000654564599343785	0.0282628159720363	-0.00300403737981524	-0.000929603732337227	-0.00300888075990978	-0.000936346497898053	-0.010466349699344	0.00482408978351256
11.1	0.00471256240725139	0.0288297977819335	-0.00311282757267414	-0.000504596400002372	-0.00310196630041666	-0.000501733283246761	-0.0100460098462794	0.0050946844894812
11.2	0.0102315033060125	0.0282530247238117	-0.00314255412759517	-6.66820352132183E-05	-0.00314970798099789	-7.15215565882111E-05	-0.00945315877091944	0.0053112169920113
11.3	0.0156988461684895	0.0264865799311263	-0.00311606981785223	0.000382377660132707	-0.00312761371434509	0.000372335302325943	-0.00863587545391351	0.00541668979052261
11.4	0.0206417910751207	0.0236526400944807	-0.00304258413039713	0.000810618105632387	-0.00303766898238281	0.000818187114551326	-0.00788372639324042	0.00527758311407566
11.5	0.0249545386304976	0.0198496786576978	-0.00289934449758841	0.00122668155969516	-0.00290212384692957	0.00123696117523013	-0.00732945655061413	0.00486365033434546
11.6	0.0285279884242946	0.0151725935947084	-0.00270484551396876	0.00161748231692791	-0.00270482631010529	0.0016204234445939	-0.00684087242928611	0.0043129456740401
11.7	0.0311592559146451	0.00986360273691177	-0.00244329553009422	0.00197255962122372	-0.00244385811185413	0.00198116707090574	-0.00643092916033777	0.00363712513094679
11.8	0.0327969337656809	0.00413156096424902	-0.0021476220131474	0.00230493698827388	-0.00215173767438462	0.00230663684701263	-0.00615957278674165	0.00298342065243006
11.9	0.0334444770496769	-0.00185175112407645	-0.00179796483800907	0.00258110033954231	-0.00181098672068796	0.00258541192542042	-0.00602048255034323	0.00262496400697382
12	0.0328138850142733	-0.00791997686840837	-0.00142424128325904	0.00280405436751612	-0.00142364487638202	0.00280546602531157	-0.00593449563933014	0.0023243510989844
