# GHZ S RI R 50
0.2	0.0059023977911766	0.00124328450543277	0.00304833954878668	-0.000897934125657467	0.00305870820329785	-0.000891125238484654	-0.0140481270123084	0.00489506086281973
0.3	0.00621783198734175	-0.000704564468425401	0.00290412038269668	-0.00132135724342913	0.00289687424218661	-0.00130841856727723	-0.0132538037045148	0.00509600583226297
0.4	0.00597367464751541	-0.00235114931301271	0.00267248372849607	-0.00169312141738245	0.00267775099373477	-0.00170168195951814	-0.0127328556899377	0.00564003010216793
0.5	0.00526955533615479	-0.00374408913784392	0.00241361994238383	-0.00204979883235292	0.00242515688420045	-0.00206203854791325	-0.0122147642867522	0.00624848451593098
0.6	0.00425881381824766	-0.00480390985185624	0.0021010819808608	-0.00236423811095499	0.00210029544207508	-0.0023713873017691	-0.0117345486398609	0.00681423376371022
0.7	0.00297530834013376	-0.00549725537538953	0.00175393643090971	-0.00264194627446417	0.00175198054334285	-0.00264214506359284	-0.0113840525951518	0.00740890398816533
0.8	0.001644128237821	-0.00584789220416713	0.00136853637589351	-0.00285927256995169	0.00135593732916098	-0.00286382115758278	-0.0110439964327417	0.00814234342801982
0.9	0.000220297483320368	-0.00582828371818247	0.000951517223334954	-0.00302276335298399	0.000952551940609719	-0.0030334616864262	-0.0106501997963027	0.00892229415839964
1	-0.00115802667647715	-0.00551845355317174	0.000526740154664941	-0.00312613231804375	0.000516879266854	-0.00312687217475385	-0.0101431285506973	0.00973897921602875
1.1	-0.00252127797603398	-0.00497411431507669	7.11926802425763E-05	-0.00315490007851922	6.76857932066649E-05	-0.00317254867849445	-0.00962180342276806	0.0106181748501865
1.2	-0.00380978657117256	-0.00441176804619663	-0.00037086302503405	-0.00314427048295095	-0.000371674687276122	-0.00314219429019781	-0.00869242236266258	0.0114962332683297
1.3	-0.00516411196443134	-0.00394022991012722	-0.000797900834587004	-0.00306105985528872	-0.000801140501116238	-0.00306306478977386	-0.00715372765877904	0.0121464382993893
1.4	-0.00634441264817269	-0.00334655845018405	-0.00121911399044644	-0.00291283238491527	-0.00121790113025286	-0.00291836487189098	-0.00546109466806821	0.0120387828083326
1.5	-0.00687600384947674	-0.00225026666004543	-0.00161989749963522	-0.00271701001756608	-0.00161828568852155	-0.00272550931050703	-0.00410337525609221	0.0115636954738883
1.6	-0.00681437728355151	-0.000774721995972089	-0.00198039506230015	-0.00246466166027283	-0.00198060592781712	-0.00246989533331542	-0.00353302251255927	0.0114064171379341
1.7	-0.00622829261176187	0.000689588291970463	-0.00230879350852223	-0.00216788803059617	-0.00230975914931007	-0.00216162724373758	-0.00292865721479803	0.0115684356011343
1.8	-0.00532954758500091	0.00209044560020922	-0.00257983162673515	-0.00181649152033074	-0.0025907962393016	-0.00182212784424701	-0.00226418351469403	0.0117302114011369
1.9	-0.00415267917018859	0.00315558575258418	-0.00280521516894088	-0.00144585398159092	-0.00281765385152264	-0.00143970169038475	-0.00161240031740407	0.0118837209338056
2	-0.00281985798408681	0.0039132167162634	-0.0029809582004187	-0.00103823672169145	-0.00299057923490677	-0.00103352894802313	-0.00097481728140782	0.0120977693995794
2.1	-0.00137491957096125	0.00427592908118862	-0.00309448747519362	-0.00060981568845016	-0.00309040452250885	-0.000611807264224395	-0.000176211292426613	0.0122266705473352
2.2	6.23503190377934E-05	0.00432331714589484	-0.00315188463081216	-0.000171482329015822	-0.00316318744901895	-0.000174317724932904	0.000793379730853101	0.0122209725244933
2.3	0.00143547267765014	0.00393527086375621	-0.00314719093372701	0.000272002838412128	-0.00314688898087697	0.000265120524672879	0.00171578513854709	0.0119547502686248
2.4	0.00262444041598671	0.00326742700095136	-0.00307464073591166	0.000710412425930108	-0.00307718209227818	0.000706155760980478	0.00255580980840638	0.0116462414852283
2.5	0.00359938720580796	0.00231233983939063	-0.00293740163135964	0.00112274387585559	-0.00294828872014102	0.00112912494791922	0.00337857395166342	0.0112301168896354
2.6	0.00439147585799352	0.00117080735657149	-0.00276323827511955	0.00152578383154744	-0.00275968405497447	0.00151346187278935	0.00419483893025901	0.0107266001104267
2.7	0.00503327924691098	-0.000128505796063305	-0.00251704860639346	0.00189706809715505	-0.00252232798690132	0.00189708028715125	0.00485307911687417	0.0101322817858046
2.8	0.00554954680729743	-0.00161745196657306	-0.00223383223930971	0.0022243930483915	-0.00222601705118603	0.00223417932110907	0.00537543751933153	0.00966199022956335
2.9	0.00588737853788239	-0.00332808369353762	-0.00189919337325535	0.00252428176765684	-0.00189548512008388	0.00252385384864931	0.00607384452600765	0.00935773556938911
3	0.00583789801240919	-0.005230036553043	-0.00151265095262573	0.00275932550508614	-0.00152742651301879	0.00276542792094209	0.00695420075701316	0.00903494093696966
3.1	0.00538853802660205	-0.00718522371133422	-0.00112223200091566	0.00293602256557566	-0.00111757394094964	0.00294436173977903	0.00780869240473289	0.00852382876769897
3.2	0.00437022197812255	-0.00908761435293233	-0.000701665082119942	0.00307271827780879	-0.000703409231298386	0.00307210827004912	0.00842772693682719	0.00801109216515042
3.3	0.00288317969443315	-0.0108786613230533	-0.000263298677621024	0.00314207471630618	-0.000261651353929251	0.00313833527166522	0.00911791384598351	0.00740354991474525
3.4	0.00087292351067638	-0.0122905534807123	0.000183359915189116	0.00313560737673528	0.000177160521453465	0.00315216814483012	0.0097835726457404	0.00656854425273533
3.5	-0.00146859855761863	-0.0133146862496224	0.000604893888249136	0.00309241657850209	0.000610487899857864	0.00309249092719318	0.0101736897903108	0.00548825694773658
3.6	-0.00408642842923871	-0.0137722502893261	0.00103311493567258	0.00297296389107383	0.00104130421342643	0.00297264498141322	0.0103479186768591	0.00457791066780135
3.7	-0.00676036685096113	-0.0136484386948387	0.00144344505289745	0.00279179521387878	0.00143386404502749	0.00280546854347268	0.0105529389948307	0.00373793667413061
3.8	-0.00939187028400641	-0.0129450811908843	0.00182134772158278	0.00256452059716399	0.00182375273511869	0.00257366749529672	0.0106851354743253	0.00289296037223972
3.9	-0.0117496222060679	-0.0117275066575738	0.002166965897523	0.00229130272491433	0.0021597021358483	0.00228952496891843	0.0107237225938627	0.00207772948543866
4	-0.013818430309054	-0.0101073245633099	0.00245150808688794	0.00197003191814793	0.00245595545712726	0.00196759747822949	0.010778365420189	0.00140273368907762
4.1	-0.0155431037218742	-0.00815150007799043	0.0027033225201124	0.00160999919592914	0.00270207033167215	0.00161073499990383	0.0109875195604511	0.000781402661272384
4.2	-0.0169340536090585	-0.00587995681219889	0.00290239174429047	0.00120866397685204	0.00290685538879898	0.00119994940216953	0.0112330743850482	6.72192026873956E-05
4.3	-0.0179145682951626	-0.00343703154356884	0.0030451987469754	0.000796455174788575	0.00305161870647899	0.000788653029370037	0.0114283741792022	-0.000827953830352172
4.4	-0.0185629097142864	-0.000791053885461584	0.00312124223092034	0.000362266199825019	0.00312361568924892	0.000360009814624289	0.0114149254664363	-0.0017387860237212
4.5	-0.0187656436909413	0.002013716091163	0.00314366679829346	-7.57354180875571E-05	0.00314902519849894	-7.91087913072946E-05	0.0113588367449581	-0.00260245765150096
4.6	-0.0185291397347698	0.00484384709608949	0.00309927492868504	-0.000518449127657693	0.00310050583359129	-0.00050554006243042	0.0111979441039601	-0.00354004888913634
4.7	-0.0176891890687948	0.00767276631037356	0.00299374605504446	-0.000937057697150605	0.00300902425303017	-0.000946674265781406	0.0108747087767314	-0.00447306320103327
4.8	-0.0163504226170888	0.0103201601211395	0.00283243017871972	-0.00135084206725176	0.00284090367599106	-0.00135693032518223	0.0104509770581218	-0.00527662932273073
4.9	-0.014332357528474	0.0126578188086923	0.00261151427788082	-0.00173459778614046	0.00261567907778513	-0.00173169524773114	0.0100605276311441	-0.00590740163617999
5	-0.0118516777441424	0.0144508838440114	0.00235171670034942	-0.00208928494324787	0.0023553369518149	-0.00208662303480759	0.00994554510573868	-0.00643744786912897
5.1	-0.008896336162146	0.0156944292783022	0.00204096994876034	-0.00239939677988962	0.00204326932826614	-0.00239804038878431	0.00995815548242122	-0.00713660044506001
5.2	-0.00584142299263546	0.0162460285829906	0.00168356264145473	-0.00264880751416655	0.00168527376886142	-0.0026539466893083	0.00988572409000097	-0.00791792045547545
5.3	-0.00278595331709105	0.0161859707813225	0.00129717202908599	-0.00286377936886214	0.00130030219109186	-0.00286171873833849	0.00972421854174508	-0.0086475704430666
5.4	9.52085831591996E-05	0.0155805184919296	0.000872782483024418	-0.0030109051682218	0.000889932086243427	-0.00302210490957593	0.00953545667002421	-0.00953170078108116
5.5	0.00267023915572816	0.0145355720625345	0.000459707317895996	-0.00310849080425546	0.000469751263576638	-0.00311791066132916	0.00908016108345574	-0.0105363680264487
5.6	0.00491327208067267	0.0130959329801714	2.17609053097001E-05	-0.0031444661242908	1.32429679341146E-05	-0.00314768225223636	0.00825923728121795	-0.0113632890120748
5.7	0.0067225281384827	0.0113640922058904	-0.000408751029837664	-0.00311395512531272	-0.000425348773072835	-0.00311761351412292	0.00726822984174258	-0.0118724121731129
5.8	0.00813124226106229	0.00937539074107763	-0.000854134676010279	-0.00301913757382645	-0.000857665853700935	-0.00303311482032469	0.00630019676599704	-0.0123463417056966
5.9	0.00905822881010053	0.00726233173387977	-0.00125856890229492	-0.00287935830857133	-0.00126679242783188	-0.00287927765527966	0.00519437952752022	-0.0127022970225262
6	0.0094925126078858	0.005000202234916	-0.00165641293537337	-0.00267335654830277	-0.00165285467131806	-0.00267352263060054	0.00395975652564586	-0.0127987111964044
6.1	0.00945113878904173	0.00269240331556747	-0.00201117610932022	-0.00241911141331069	-0.00201281455833061	-0.0024151105207036	0.00298308076450592	-0.0126019988188522
6.2	0.00892625948509995	0.000361374127324644	-0.00232366326071114	-0.00210619688916232	-0.0023273685872139	-0.00211805840959216	0.00232474243117248	-0.0124959894912873
6.3	0.00800351365272623	-0.00190185614161286	-0.00260114291698225	-0.00177199150788246	-0.00261026400921262	-0.00176625770240337	0.0018128731158669	-0.0126616813812467
6.4	0.00658653413030775	-0.00403176724093748	-0.00282715256891694	-0.00138165148914596	-0.00281743582280481	-0.00138654987010289	0.00133084044362931	-0.0129660262231501
6.5	0.00480280490097297	-0.00582623414840429	-0.00298350561522518	-0.000977023348316533	-0.0029913604129274	-0.000972545962355361	0.000870019159911908	-0.0133933482239691
6.6	0.00271280801922165	-0.00708495540055543	-0.00309154940880435	-0.00055245631752196	-0.00309318097823398	-0.000556429948385309	0.000326118333160602	-0.0138731158797067
6.7	0.0004583130958534	-0.00774411928958533	-0.00314214979352169	-0.000115126018288969	-0.00315099741877343	-0.00010885360793756	-0.000577545120730162	-0.014230760095407
6.8	-0.00186575085253569	-0.00779475182502221	-0.00312076290787583	0.000325881769180564	-0.00313184805395419	0.000330923650641852	-0.00164440142202134	-0.0142492811703107
6.9	-0.00414959463977236	-0.00727453010441583	-0.00304565005695841	0.000758789416531102	-0.00304863523968698	0.000761177454375474	-0.00261259269724827	-0.0140256447635092
7	-0.00620699648126533	-0.00620159818780791	-0.00290934099789535	0.00117910934991361	-0.00292215997081488	0.00117691147623273	-0.00345923665969588	-0.0137547034309403
7.1	-0.00804179482452704	-0.00468807215983776	-0.00273206898982499	0.00156752756753599	-0.00272841036494874	0.00157618808453752	-0.00433754711761913	-0.0133430418597516
7.2	-0.00953504126210302	-0.00277229150568636	-0.00247624958245654	0.00193520836207323	-0.00248277546320816	0.00193728354994144	-0.00504564960613326	-0.0127764073385163
7.3	-0.0106931020767768	-0.000573156930045539	-0.00218158231373947	0.00225414918306086	-0.00219279069001168	0.00225919420091042	-0.00550887519543351	-0.012282091362112
7.4	-0.0114699268474263	0.00183227524080784	-0.00184088461984852	0.00253744011976617	-0.00184777177341387	0.00255103713434444	-0.00598683311966747	-0.0120230456238284
7.5	-0.011768605722021	0.00437661053251394	-0.00147613844009198	0.00277707790664706	-0.00146915389420541	0.00278447485062475	-0.0063683213066934	-0.0118791663806603
7.6	-0.0114157454595788	0.00689854272974744	-0.00107063648034207	0.0029562253570846	-0.0010720075045433	0.0029515289555344	-0.00669153513249802	-0.0119324544258985
7.7	-0.0105571395249413	0.00921436098606513	-0.000642789277166487	0.00307834264104172	-0.000644128377722616	0.00307728021184563	-0.0072752771634212	-0.0124233193292968
7.8	-0.00895265036100933	0.0111501646494002	-0.00021731430215761	0.00312834321603462	-0.00022512547683014	0.00313479432688332	-0.00813521954976882	-0.0126787791744487
7.9	-0.0067872860510452	0.0125611841522687	0.000223830914968111	0.00313633940361202	0.000231771374936851	0.00313784355668454	-0.00903892860728905	-0.0126026611709179
8	-0.00429360072658321	0.0134407306355168	0.000665884887499419	0.00306500681309173	0.000665963154209319	0.00306990712018167	-0.00996284158786231	-0.0123846737460236
8.1	-0.00158148749130194	0.013791725752789	0.00107687884529622	0.00294790876172397	0.00109602963179057	0.00294900658024674	-0.0108432912612698	-0.0119334412078647
8.2	0.00108952573593209	0.0136029142236349	0.00148215425522525	0.00276743825856949	0.00149140731131971	0.00276024602072669	-0.0115805322107405	-0.0113000499360985
8.3	0.00365163335973384	0.0128822177642236	0.00185923622179764	0.00252860760069967	0.00185758678673485	0.0025421618185897	-0.0121763786405308	-0.0106473817317586
8.4	0.00597335724649681	0.0117407388168138	0.0021955882389777	0.00225091671787017	0.00219255678633213	0.00225069122962966	-0.0127583380773195	-0.0100614630540714
8.5	0.00801765097834116	0.0101437464777659	0.00248189601419028	0.00192014555771983	0.00248099797756197	0.00192333024743654	-0.0134323819008203	-0.00940709670176214
8.6	0.00968379188531242	0.00821068627169705	0.00272842837511093	0.00155955034412922	0.00273793218412319	0.00155300783107542	-0.0140511861286092	-0.00867267039897899
8.7	0.0109653197895079	0.00592372212519221	0.00291443810571387	0.00115660045252153	0.00291999992402252	0.00115732407621846	-0.014593245924655	-0.00791677512246718
8.8	0.0117745184989808	0.00337644157926369	0.0030511855788312	0.000745504173295564	0.00305695640662462	0.000736741446009749	-0.0151594675540017	-0.00720121935224126
8.9	0.0121417453072878	0.000565366724675672	0.00312872051937194	0.000311343050052956	0.00312784928368721	0.000309095208963828	-0.0155174031548773	-0.00628964073840663
9	0.0119170290130355	-0.00246678219639853	0.00313859012164963	-0.000132065257804492	0.00314174803055259	-0.000127962843438072	-0.0155826635004302	-0.005303211470426
9.1	0.0110672053888989	-0.00557042064150277	0.00309250669987502	-0.000573638397675145	0.00309539208985965	-0.00056073801195881	-0.0153816436341501	-0.00443577300394863
9.2	0.00942474345038566	-0.00854605576530251	0.00298314530695485	-0.000991416303209266	0.00299080482679384	-0.000994293699589922	-0.0151173465291296	-0.00377341267740475
9.3	0.00707045632367975	-0.0111224639780362	0.0028147063636602	-0.00139694372618648	0.00281397539301754	-0.00140193555692652	-0.0148005588653297	-0.00317438050118073
9.4	0.00410333381492861	-0.0131225729130713	0.0025923920552879	-0.00178752663016429	0.00259890536688393	-0.00177992671145381	-0.0145240078186668	-0.0027119527460438
9.5	0.000629066563626145	-0.0142580983161501	0.00231736716191314	-0.00212222629606909	0.00232478134000687	-0.00212357401634038	-0.0143455921113838	-0.00224631298709744
9.6	-0.00311905116225221	-0.0145901126585754	0.00200040281359645	-0.00242638630706502	0.002000732743722	-0.00242540400912607	-0.0144172151561083	-0.00182047263763204
9.7	-0.00693171550811098	-0.0140015677803986	0.0016331827055959	-0.00267750389592025	0.00163871917704039	-0.0026848122354114	-0.0145337334497588	-0.00122594674385854
9.8	-0.0106218651963163	-0.0125783150530874	0.00124807176686931	-0.00288698374106675	0.00125377129693999	-0.00287848283948785	-0.014640061853691	-0.000528375511697867
9.9	-0.0140003057651327	-0.0102603295608822	0.000842497657951824	-0.00302682539144184	0.000835164177517315	-0.00302559889825306	-0.0147963653390259	0.000299549366543088
10	-0.016885477546516	-0.00723596207891403	0.000411904667482749	-0.00311661487560337	0.000404413325200402	-0.0031290621616205	-0.0148188360878777	0.00122579982369839
10.1	-0.0190535709350157	-0.003585543322666	-3.08385505503161E-05	-0.00314849637662241	-4.1073654549451E-05	-0.00314310179757453	-0.0145995599143299	0.00210250338305027
10.2	-0.0203987249390465	0.00047299738032902	-0.00047757364810661	-0.00311183590574633	-0.0004809816097662	-0.00310905582083796	-0.0141797877211252	0.00289833926430832
10.3	-0.0208707856604362	0.00478715300905161	-0.00091066042289696	-0.00300610617265691	-0.000902567436954526	-0.00301518305429733	-0.0136226518703472	0.00353539108982954
10.4	-0.0204211628635461	0.00914310054777158	-0.00130843623869856	-0.00285125195007741	-0.00130674064582551	-0.00285745013279499	-0.0128936530470051	0.00387642533760395
10.5	-0.0191085991523791	0.0134397110039136	-0.00170033241203225	-0.00265218218884924	-0.00169722576150225	-0.00263917728912711	-0.0122517918070603	0.004058100656571
10.6	-0.0169553315341571	0.0174354255085989	-0.00205322816310461	-0.00238177650660856	-0.00205104166545267	-0.00238560101203795	-0.0117237800766704	0.00405665881943417
10.7	-0.0138960430332106	0.0211669699628304	-0.00236847848704661	-0.002079387918242	-0.00236498157691719	-0.00207410625300179	-0.0113123251244844	0.00423350892251136
10.8	-0.0100810293726592	0.0242900754147716	-0.00263749117244619	-0.00171899555239459	-0.0026322931230047	-0.00172792501743878	-0.0109900863379074	0.00436770959842451
10.9	-0.00566535765955714	0.0267039926869133	-0.00284545735222822	-0.00134461255843447	-0.00285064591390792	-0.00134387994257902	-0.0107516133170747	0.00453505263497287
11	-0.000640646651512013	0.0282640100716622	-0.00300442127005714	-0.000927998967745096	-0.00300926801487647	-0.000934738966408541	-0.010464920321465	0.00482928141422193
11.1	0.00472562229015151	0.0288251257281425	-0.00311264705121959	-0.000502977602402772	-0.00310178586028123	-0.000500120286810992	-0.0100439474276998	0.00509882360647983
11.2	0.0102410930990562	0.0282440716722077	-0.00314186213534836	-6.52862476744921E-05	-0.00314901647272349	-7.01215156803996E-05	-0.0094509285797594	0.00531480201557447
11.3	0.0157023482234596	0.0264680124523718	-0.00311500674699332	0.000383367435078881	-0.00312655076356686	0.000373332155316801	-0.00862621271766351	0.00541410983466858
11.4	0.0206396928742908	0.0236350371276228	-0.00304136167380628	0.000811110656882716	-0.00303644627115768	0.000818675896855366	-0.00787457324504804	0.00527278049277489
11.5	0.0249507325161589	0.0198398831920361	-0.00289819563818889	0.00122667564747411	-0.00290097260746504	0.00123695219104465	-0.00732552723147295	0.00486379470737348
11.6	0.0285210476121095	0.0151663885633371	-0.00270397258280061	0.00161708156824657	-0.00270395328763408	0.00162002180417031	-0.00683807061310675	0.00431181077993514
11.7	0.0311515823670786	0.00986264597766262	-0.00244283783636231	0.00197194924408653	-0.00244340079933698	0.00198055463305518	-0.00642997075934488	0.00363596852647956
11.8	0.0327920136303971	0.00413550209320644	-0.00214761474545436	0.00230433905085186	-0.00215173004577641	0.00230603814531494	-0.00615967506874081	0.00298343941145233
11.9	0.0334434355965377	-0.00184527756271067	-0.00179833870272066	0.00258073894032192	-0.00181136094604926	0.00258504828754585	-0.00602169613592014	0.00262356274931137
12	0.032818566442466	-0.00791620949663522	-0.00142483058198628	0.00280409230210915	-0.00142423434620933	0.00280550419124834	-0.00593557792939135	0.00232298231944907
