# GHZ S RI R 50
0.2	0.00561620542255172	0.000954598374576973	0.00305076351089188	-0.000897144547995899	0.0030611359337334	-0.000890326450873194	-0.0143044683690175	0.00464193148947514
0.3	0.00598072043638056	-0.000848188008489216	0.00290734328472333	-0.00132082461829396	0.00290008360417004	-0.001307879072808	-0.0134722458754341	0.00498814052617564
0.4	0.00580435495623992	-0.00226507175339292	0.00267654340678031	-0.00169334670017005	0.00268182194636265	-0.00170191354761651	-0.012911720444583	0.00575970126613899
0.5	0.00560088273469722	-0.00376887314654998	0.00241767483703828	-0.00205166016452622	0.00242923209100647	-0.00206391208954954	-0.0119725014184034	0.00628815274329433
0.6	0.00429202332065671	-0.00528380343088573	0.00210455782875474	-0.00236644535576491	0.00210377286393532	-0.00237360377617971	-0.0118174884162408	0.0065193670561821
0.7	0.00274774369091285	-0.00588708662077668	0.00175748121794778	-0.00264492589003406	0.00175552267186159	-0.00264512576271231	-0.0116782969626343	0.00729546373039086
0.8	0.00125851320185214	-0.00613809201244925	0.00137167085792841	-0.00286335575772795	0.00135905332151104	-0.00286791580297043	-0.0114169959390529	0.00818028939605333
0.9	-0.000397986826031674	-0.00583398309386762	0.000953488888032935	-0.00302786072180582	0.000954526568254838	-0.0030385773539116	-0.0111447955602169	0.00922836093900116
1	-0.00132667595234345	-0.00489420925725889	0.000527405092412993	-0.00313076971136747	0.00051752961002649	-0.0031315103039251	-0.0101634965696306	0.0105194348134601
1.1	-0.00227343416006804	-0.00484329999249488	7.19434543579513E-05	-0.00316000173852403	6.8434434538493E-05	-0.00317767966370795	-0.00937738255382958	0.0108610974573232
1.2	-0.00368646394344091	-0.00438836497547775	-0.000371345943815205	-0.00315008193438504	-0.000372159232065576	-0.00314800197135285	-0.00866576482976633	0.0116716333301995
1.3	-0.00505532799578489	-0.00398610289495036	-0.000799828945521811	-0.00306678640677037	-0.000803075052257854	-0.00306879473009329	-0.00721879647234662	0.0123479680664477
1.4	-0.00632737043461194	-0.00339199718616128	-0.00122211898275361	-0.00291773685005079	-0.00122090547832647	-0.00292327963389461	-0.00560835526203623	0.0123722638026267
1.5	-0.00656276353535515	-0.00253050725734562	-0.00162284565523013	-0.00272196854471711	-0.00162123088585937	-0.00273048333400018	-0.00396648967869792	0.0117723390350562
1.6	-0.00701729464704568	-0.00137781042204993	-0.00198547960147064	-0.00246982556170317	-0.0019856921546232	-0.0024750711212672	-0.00377551195257293	0.0114837819275624
1.7	-0.00664262738244343	0.000328427478487216	-0.0023152819101952	-0.00217152517856486	-0.00231624621387182	-0.00216524957367309	-0.00319982378756535	0.0118779448350412
1.8	-0.00579206671809014	0.00193893644277389	-0.00258682587529505	-0.00181860531956944	-0.00259781869618534	-0.00182424604633728	-0.00248672728129835	0.0121600395140068
1.9	-0.00451887645495602	0.00335741122554242	-0.00281231619298205	-0.00144704488397235	-0.00282477762542371	-0.00144087057406586	-0.00172318149643019	0.0125268544481796
2	-0.00246064004604721	0.00408848474702007	-0.00298968257458781	-0.00103856107557007	-0.00299932522312759	-0.00103383304255818	-0.000532221282187181	0.0126218861293692
2.1	-0.00117347038827818	0.00381360472771431	-0.00310321204797844	-0.000606886860666178	-0.00309912162688696	-0.000608889387583089	-1.70698251324971E-06	0.0122791145505471
2.2	-3.15225447478498E-05	0.00382974996573752	-0.00315945564788334	-0.000166871032422304	-0.00317078914444773	-0.000169695033686806	0.000751293811678982	0.0123664667466012
2.3	0.00111983769268628	0.00351827507641637	-0.00315390328893972	0.000277890776692906	-0.00315361216949911	0.000270992283078651	0.00159034812844994	0.0122014253622854
2.4	0.00209624039053845	0.00319307833568077	-0.00308080256556822	0.000717831130108677	-0.00308335798098706	0.000713568817966346	0.00236317093301149	0.0121132745194126
2.5	0.00361527081753761	0.0027110833433592	-0.00294144998242867	0.00113297870342799	-0.00295234634775434	0.00113940295827577	0.0036651847996674	0.0118957157905233
2.6	0.00469977482510493	0.00108610883353803	-0.00276403180070887	0.0015357141187104	-0.00276050383117975	0.00152336135378339	0.00451732494164284	0.0108898757924527
2.7	0.00524786126026187	-0.000406974617841416	-0.00251630143974127	0.00190675297764992	-0.00252158955297556	0.00190677889589986	0.00495060534531209	0.0102139031806365
2.8	0.00561916974049253	-0.00197173422321459	-0.00223129731347732	0.00223419842476122	-0.00222344230430741	0.00224397894031244	0.00528961538499136	0.00979560732086547
2.9	0.00588219430093359	-0.00351064868228771	-0.00189399263108084	0.0025340139999988	-0.00189028027465898	0.0025335737040088	0.00592407369418358	0.00972206344784811
3	0.00628913327164231	-0.00548299983225	-0.00150453966879973	0.00276627171323587	-0.00151930525241619	0.00277242745593386	0.0071313711201424	0.00937023478562777
3.1	0.00559382932624793	-0.00793335388351736	-0.00111448122732338	0.00294120413708348	-0.00110979597918724	0.00294953533964611	0.00769084306730665	0.00862922396353245
3.2	0.00430992003102806	-0.00983274407377001	-0.000692754568897637	0.00307693677472409	-0.000694501759233522	0.00307633168178035	0.00819486445940801	0.00830861064651698
3.3	0.002622829961121	-0.011553806894548	-0.000253175749318352	0.00314432457343828	-0.000251539882231827	0.00314057810399946	0.00886095419868935	0.00783539832519389
3.4	0.000484535629767489	-0.0126770302353391	0.00019378813245826	0.00313484412273747	0.000187644165118019	0.00315142471842071	0.00955211599590334	0.00722413352157714
3.5	-0.00136068878337494	-0.0136089612446536	0.000613140431980021	0.00308993095944691	0.00061873312557971	0.00308999007302435	0.0103732689394563	0.00613731645836892
3.6	-0.00420395587599686	-0.0145607777384131	0.00104188259817025	0.00297026413798098	0.00105007179991063	0.00296992134024372	0.0103219681477573	0.00490820997539765
3.7	-0.00724770171147326	-0.014306353540391	0.00145203527094775	0.00278676513983136	0.00144249910553794	0.00280046649895544	0.0103735126700329	0.00425123193053385
3.8	-0.0100611891105221	-0.0132878422911078	0.00182850045072148	0.00255750755646499	0.00183093302587679	0.00256664230781344	0.0105351158803926	0.00358747492326715
3.9	-0.0123444775944115	-0.0115434291274365	0.00217197454230054	0.00228352243763899	0.00216471080867677	0.00228176662280251	0.0107272748077038	0.0029944275417694
4	-0.0135677211878862	-0.00977447218428978	0.00245662485539548	0.0019626302447094	0.00246106436228446	0.00196018361498644	0.0113510896140834	0.002174709942103
4.1	-0.0152311338619944	-0.00845216456872047	0.00270729454305196	0.00159967128097448	0.00270604565000684	0.00160041098738477	0.0113181195810132	0.00104570483164875
4.2	-0.0168073680983166	-0.00629180490672429	0.00290345030748262	0.00119754899991231	0.00290787970386586	0.00118882841509825	0.0113361162855012	0.000376273382666389
4.3	-0.017910294907999	-0.00382290642308029	0.00304398838542231	0.000785584571912918	0.00305037503702193	0.000777771321420434	0.0114455454507668	-0.000450157806763517
4.4	-0.0186022522597949	-0.000906147609452746	0.0031187490184319	0.000351778857948538	0.00312111241853369	0.000349517467733727	0.0114040664039603	-0.00118958635286303
4.5	-0.0180839112747888	0.00200661947398272	0.00313880686622725	-8.79610986618587E-05	0.0031441442522359	-9.13506018449904E-05	0.0117774145581549	-0.0021106320394792
4.6	-0.0178205227066726	0.00406876774329166	0.0030899867663199	-0.000528471766552863	0.00309126163574504	-0.000515598014431411	0.0113104246211123	-0.00351546998308348
4.7	-0.0172783158854851	0.00667493440951031	0.00298293437020871	-0.000944368991849675	0.00299814166193576	-0.000954010337249331	0.0106790146015458	-0.00435032238793835
4.8	-0.0162091030347924	0.00926517220486138	0.00282053344869232	-0.00135603050715445	0.00282896495999742	-0.00136212873895871	0.0100988675467108	-0.00499661618996327
4.9	-0.0144056264840994	0.0118281858154208	0.00259811075124725	-0.00173802631089451	0.00260227274893514	-0.0017351459987146	0.00964756747778967	-0.00533992394941807
5	-0.0114667262300517	0.0136137001205514	0.00233604759233772	-0.0020881834393806	0.00233966163025669	-0.00208554309130336	0.00990860973589037	-0.00585379336952204
5.1	-0.00894544602470335	0.0143605597271973	0.00202777225497849	-0.00239435954931464	0.00203006551515398	-0.00239301344811707	0.00959120665424195	-0.00672022539538108
5.2	-0.00630423152356608	0.0151497864198153	0.00167175904177003	-0.00264196206808504	0.00167345326848951	-0.00264708484494715	0.00945153882699491	-0.00720231533326696
5.3	-0.00337138922084092	0.015435593834397	0.00128645078068073	-0.00285460697972409	0.0012895721401007	-0.00285256068047998	0.00940318300181832	-0.00776088005297628
5.4	-0.000350750109080773	0.0153095724473914	0.0008639240784193	-0.00299858228889425	0.000880977301610426	-0.0030097587104022	0.00937881218562304	-0.00845348082969424
5.5	0.0031503024718697	0.0141115816320068	0.000455938333575537	-0.00309434308202051	0.000465930809753057	-0.00310372463270157	0.00947940849017282	-0.00974846905759592
5.6	0.00496737224574112	0.0118474039952121	2.01221792978555E-05	-0.00313182269557098	1.16369338957552E-05	-0.00313502167897842	0.00809537123514425	-0.0109769330856446
5.7	0.00619876416386984	0.0102097996034328	-0.00040855420775251	-0.00310079549555409	-0.000425084628894129	-0.00310443063591832	0.00683777667726206	-0.0111595859684087
5.8	0.00722096284130771	0.00857053899069497	-0.000850962939614632	-0.00300582171948404	-0.00085448127745182	-0.0030197373967293	0.00587310877524972	-0.0113453803018112
5.9	0.0079251186797842	0.00729172690057566	-0.0012518101064232	-0.00286735054020609	-0.0012599977898307	-0.00286727386009247	0.00487932815985613	-0.0112923432350545
6	0.00954389331661822	0.00591592722916926	-0.00164897002123958	-0.00266491427348157	-0.0016454242127294	-0.00266507764218073	0.0045571113879977	-0.0112370980436655
6.1	0.0102410943403565	0.00287091935339919	-0.00200317141882581	-0.00241004941541285	-0.0020048040336183	-0.00240606408137413	0.00364694141603688	-0.0118212652986893
6.2	0.00986432491720862	0.000109036513002096	-0.00231304341374492	-0.00209850425154433	-0.00231672792176168	-0.00211031816435104	0.00278730963341261	-0.0119057166940866
6.3	0.00887015675036904	-0.00254828495508645	-0.00258880534710169	-0.00176692245317002	-0.00259789364147916	-0.00176122041181647	0.0020909167246392	-0.0121668120239625
6.4	0.00731231052177257	-0.00462577835478002	-0.00281489536001324	-0.00137963518893142	-0.00280520979520547	-0.00138450402418565	0.00148972709414181	-0.0122738376708481
6.5	0.00609184617721955	-0.00689391410329801	-0.0029714111299874	-0.000974907571333572	-0.00297923802300804	-0.000970451903592006	0.00133128914778594	-0.0129726399969758
6.6	0.00319875993170597	-0.00880670761009594	-0.00307677329628539	-0.000553571487428209	-0.00307839273298209	-0.000557528882905735	0.00014996264379916	-0.0135015002495519
6.7	0.000444761231143074	-0.0092828598211366	-0.00312813246568437	-0.000120228631080124	-0.00313695239586396	-0.000113999584958817	-0.000810813815716654	-0.0135057183369871
6.8	-0.00219144163334663	-0.00911091158347846	-0.00310855814922375	0.000318148559149652	-0.00311960789554856	0.00032314695042193	-0.00186287238385393	-0.013376545465356
6.9	-0.00456412462643129	-0.00797786740321671	-0.00303483933790915	0.000749834419393972	-0.00303781710760391	0.00075220705044289	-0.00275421393060485	-0.0128194704952384
7	-0.00547254617283	-0.00695144870600105	-0.00289801460549807	0.0011666668199194	-0.00291076653410839	0.0011644498513356	-0.0028802561654711	-0.0128106799925555
7.1	-0.00777001807462521	-0.00655002854472766	-0.00272540980204611	0.00155143552894153	-0.00272179645363594	0.00156007050881162	-0.00438768247724597	-0.0129114575803873
7.2	-0.00999906239154128	-0.00467620819751344	-0.00247348933083311	0.00191880834982123	-0.00247999713590998	0.00192085213035826	-0.00538402394851492	-0.0119986922020563
7.3	-0.011801659461503	-0.00224848369240951	-0.00218170528389899	0.00223764214098195	-0.00219289018850287	0.00224262688689453	-0.00585788677987995	-0.0112357221416649
7.4	-0.0132134850086499	0.00100840940415519	-0.00184381312686961	0.00252003177025288	-0.001850727722292	0.00253354746136902	-0.00627038401380631	-0.0105407957337656
7.5	-0.0126182171761074	0.00464352902757453	-0.00148548838418788	0.00275957439884583	-0.00147856715699653	0.00276698189341111	-0.00571724449277559	-0.0102955083397191
7.6	-0.0119853504142268	0.00669843091451292	-0.00108322186320955	0.00294351174490915	-0.0010845654016038	0.00293881974967345	-0.00617708558521925	-0.0111777148562041
7.7	-0.01115982486465	0.00920624719521704	-0.000656827580892439	0.00306827526133918	-0.000658158369088592	0.00306720846423851	-0.00703756206813803	-0.0116647644522521
7.8	-0.00937782212653977	0.0113862547780163	-0.000233206743408522	0.00312076536054283	-0.000241035526594629	0.00312716238601579	-0.00803434035104859	-0.0118475550657469
7.9	-0.00669827983425878	0.0131220219745307	0.000205371963542613	0.00313235780347449	0.000213290403542727	0.00313390520916946	-0.00883923816458225	-0.0116120544939145
8	-0.00297209379417971	0.0132822609237834	0.000648318084274206	0.00306761659457249	0.00064836863614466	0.00307251550158686	-0.00947355871846232	-0.0117750557521161
8.1	-0.00088137480617936	0.0125532403363665	0.00106186275207101	0.00295193981705208	0.00108099978529669	0.00295313166317107	-0.0111489350260281	-0.0114427723286148
8.2	0.00130290403279638	0.0123230233808496	0.0014673301230592	0.00277370268766805	0.00147661554175257	0.00276656106690118	-0.0119865485736066	-0.0103324695535187
8.3	0.00356594841536787	0.0117111987435902	0.00184541886119326	0.00253822501621786	0.00184369697699115	0.00255176850315935	-0.0124816424673165	-0.00943019808535943
8.4	0.0058006488334924	0.0110959289319628	0.00218482448361027	0.00226413334800978	0.00218179236989239	0.00226389139471927	-0.0128845004906448	-0.00852815988649111
8.5	0.00903061258010113	0.00942986164623839	0.00247532887759041	0.00193260465940323	0.00247441606625628	0.00193578784484944	-0.0127839622934095	-0.0081410049795804
8.6	0.0103125020015915	0.00627896996559646	0.00272173829489325	0.00157323716278825	0.00273127672810075	0.0015667385756438	-0.0139515011083981	-0.00795592652345406
8.7	0.0108369770619928	0.00384756359284851	0.00291077940886873	0.00117251723875285	0.00291634188359952	0.00117327006860586	-0.0147470843285074	-0.0068889958328221
8.8	0.010998665226871	0.00152275185953843	0.0030514705826775	0.000761942231376387	0.00305729344786963	0.000753197061098518	-0.0152656965886479	-0.0059147012941318
8.9	0.0109089266851461	-0.000462612899686732	0.00313239635608717	0.000326033598029731	0.00313153389453017	0.000323778152107355	-0.0154216910961336	-0.00468385543001726
9	0.0116110759024126	-0.00282541904600585	0.00314206571504597	-0.000117572558817175	0.00314520740169183	-0.000113451702240794	-0.0146759958701512	-0.0038903694000255
9.1	0.0108722608996367	-0.00638182452437105	0.00310080889054427	-0.000557993282513893	0.00310362984828067	-0.000545055618666836	-0.0147632547787451	-0.00364467310467287
9.2	0.00926656480473031	-0.00926671998486094	0.0029952026660669	-0.000978537510883635	0.00300289483585599	-0.00098138261877876	-0.0146758321747528	-0.00303262666662535
9.3	0.00705476009634666	-0.0118430632999338	0.00282865144507399	-0.00138722918553794	0.00282794224523359	-0.00139223746553922	-0.0145224269932366	-0.00252308136476897
9.4	0.00430397889142639	-0.0136082122856722	0.00260692792215004	-0.00177980150520917	0.00261342165132083	-0.00177215306617038	-0.0143887176193786	-0.00191523091863601
9.5	0.00179329288980977	-0.0153544287537351	0.00233602371776138	-0.00211568436016727	0.00234346740768859	-0.00211699497318821	-0.0140201606385057	-0.00184911055743456
9.6	-0.0026849694829172	-0.0167208499143294	0.00202044792892089	-0.00242658060227771	0.00202077442004886	-0.0024255926643498	-0.0149711236190239	-0.00147502083344589
9.7	-0.00723254028080343	-0.0161256828351801	0.00165167938856325	-0.00268184403431213	0.00165727093446868	-0.00268915956660315	-0.0153191248706427	-0.0003319310222063
9.8	-0.0115108908400864	-0.0144106206498386	0.00126535497634745	-0.0028943274172743	0.00127104414802513	-0.00288576629283524	-0.015402848509349	0.000757049342140717
9.9	-0.0152393096107486	-0.0112423221322228	0.000859526296777	-0.00303726965045181	0.000852153362508389	-0.00303606920105178	-0.0153728416486915	0.00203451241581553
10	-0.0170755989316725	-0.00775855570420205	0.00042611847445052	-0.00313365271077882	0.000418629397863632	-0.00314620250830303	-0.0146286733393023	0.00285321400848596
10.1	-0.0193429928391971	-0.00472652398554252	-2.26394636450189E-05	-0.00316655502516357	-3.29473558127784E-05	-0.00316115687097552	-0.0147581360133405	0.00338065090832457
10.2	-0.0209671709604177	-0.000529477189399449	-0.000472450103149524	-0.0031304343348288	-0.000475884086354085	-0.00312764723879743	-0.0143574893048834	0.00443830571717948
10.3	-0.0216083726360945	0.00409316905816145	-0.000908846410055983	-0.00302595389457077	-0.000900684191042713	-0.00303506484910404	-0.0136375411550866	0.00518115904373107
10.4	-0.0210674957046131	0.00923205592249549	-0.00131160778273578	-0.00287261340345924	-0.00130988907374694	-0.00287884930083923	-0.0126732142950464	0.00566774899402061
10.5	-0.0183561347097991	0.0136759366328794	-0.00171044961401573	-0.00266998208528669	-0.00170732730070587	-0.0026568917136376	-0.0114085265021722	0.00536716667858851
10.6	-0.015951678581185	0.0168357436385743	-0.00206401461531462	-0.00239616205046053	-0.00206181415722563	-0.00240000752268337	-0.0114288831802626	0.00492273068391642
10.7	-0.0129307358769488	0.0201233893086839	-0.00238176021548032	-0.00209235270216124	-0.00237824438344771	-0.00208703888960673	-0.0113072474527113	0.00510235438041232
10.8	-0.00932104500836009	0.0228912864815892	-0.00265384626591712	-0.00172906208195961	-0.00264861792698608	-0.00173804682058062	-0.0112553481197843	0.00535399880435174
10.9	-0.00506977667596502	0.0254879092968497	-0.00286391377687206	-0.0013495934202914	-0.00286913257093892	-0.0013488508486978	-0.0110649363563957	0.005922179176061
11	0.000902397866429605	0.0266567114655111	-0.00301985229366547	-0.000929097483214225	-0.00302472977505869	-0.000935864377444677	-0.0102563568385694	0.00601278314859048
11.1	0.00561481261560952	0.0260587696851967	-0.00312940665629637	-0.000503591660365142	-0.00311848626206754	-0.000500726383958266	-0.0104838483319798	0.00611063731164332
11.2	0.0102954650676571	0.0253223047942544	-0.00315932164247063	-6.18866712876054E-05	-0.00316652134663629	-6.67401252823304E-05	-0.0100229649787276	0.006799563655517
11.3	0.0149941075883147	0.023816539134417	-0.00313096883866839	0.000390973358013521	-0.00314259244764843	0.000380905046417938	-0.00907254802030176	0.007266313832169
11.4	0.0194606520574776	0.0217798000625523	-0.00305391920934238	0.000821043181069739	-0.00304896557343566	0.000828633801074976	-0.00799910347205919	0.00746493468095063
11.5	0.0245976082679852	0.0181990156415087	-0.00291096326055628	0.0012361183677547	-0.00291374170739912	0.00124644860566171	-0.0066760245333515	0.00664742112270655
11.6	0.0276215519932607	0.0129591295687354	-0.00271575815763001	0.00163173614661621	-0.00271573266234047	0.00163469280123848	-0.00664174025728845	0.00571999879707961
11.7	0.0296236993850546	0.00810249024413225	-0.00245025747987647	0.00198900507307428	-0.00245079979606882	0.00199765719666879	-0.0062590155212998	0.00523527559616905
11.8	0.0309942244956235	0.00318767730568542	-0.00215113213320475	0.00232185047192478	-0.00215526225087404	0.00232357000624788	-0.00584389671250114	0.00462130075971124
11.9	0.0320621880854615	-0.00149208056903841	-0.00179983282889261	0.00259782788012126	-0.0018129049478763	0.00260219297827617	-0.00550942353920261	0.00429329722906433
12	0.0334126700706544	-0.0076550311579139	-0.0014233660726548	0.0028249086431264	-0.00142276162578227	0.0028263265298605	-0.00490220227843871	0.00319691194921056
