# GHZ S RI R 50
0.2	0.00611178951074227	0.00123659321803132	0.00304772854912244	-0.000898242224963399	0.00305809657850102	-0.000891435934657418	-0.0138801531152598	0.0048482344973118
0.3	0.00639781087075037	-0.000768270374113092	0.00290324581523176	-0.0013216317787152	0.00289600370653262	-0.00130869447955999	-0.0131074047881112	0.00499251776242743
0.4	0.00609170068939245	-0.00250266499878012	0.00267132907951959	-0.00169320121942059	0.00267659293744938	-0.00170176037891406	-0.012624290352684	0.00545360733879392
0.5	0.00518711321903503	-0.00385223544322385	0.00241243254035704	-0.00204945437559797	0.00242396341622117	-0.00206169157483512	-0.0122273336094666	0.0060816750567024
0.6	0.00421847519147181	-0.00476333720096337	0.00209994503154714	-0.00236380117281176	0.00209915749692681	-0.00237094777915018	-0.0116747924820557	0.00667621410344985
0.7	0.00297400342611526	-0.00544362594230592	0.00175271135190312	-0.0026412366149798	0.00175075620753139	-0.00264143493716646	-0.0113355597476144	0.00719419163933658
0.8	0.00167929532155691	-0.00578595855856414	0.00136737775474993	-0.00285819676529074	0.00135478371982056	-0.00286274093500582	-0.0110380776443584	0.00788793826076671
0.9	0.000331154984121496	-0.00584094155090358	0.000950641217436923	-0.00302134261316816	0.000951674025591053	-0.00303203561717305	-0.010676479771037	0.0086142441220171
1	-0.00118826773663662	-0.00574598872709102	0.000526160498350497	-0.00312474251421325	0.000516304093491267	-0.00312548096894626	-0.0103297075562544	0.00937113880416794
1.1	-0.00271711712637628	-0.00513282261403208	7.06259269036376E-05	-0.0031532322400885	6.71179486490632E-05	-0.0031708708555374	-0.00982543722786379	0.0103648308969793
1.2	-0.00407510065247033	-0.00463159179254681	-0.00037103989314638	-0.00314231802762762	-0.000371850798458641	-0.00314024298917818	-0.00886666166261683	0.0111407036797363
1.3	-0.00556610736307051	-0.0042073010098371	-0.00079762236601539	-0.0030590366337588	-0.000800860108242672	-0.00306104003620578	-0.00738254559048819	0.0116511856738808
1.4	-0.00681544650703495	-0.00358215453323307	-0.00121844234868887	-0.00291093087593761	-0.00121723046260244	-0.00291645987931421	-0.00576181547137223	0.0114452210895678
1.5	-0.00743787139428038	-0.00227229410346979	-0.0016190512385245	-0.00271500924831377	-0.00161744132384356	-0.00272350291110765	-0.00448550477356293	0.0110661392761816
1.6	-0.00714321097288258	-0.000529255245997998	-0.00197880186671832	-0.00246266599799414	-0.00197901257534404	-0.00246789544347125	-0.00381198276312979	0.0109934379049881
1.7	-0.00636038859983439	0.000983432375745187	-0.00230671056528758	-0.00216633966409893	-0.00230767600719519	-0.00216008406478629	-0.00319116648858817	0.0112049401600164
1.8	-0.00532480354402655	0.00236042330704658	-0.00257748754244394	-0.00181539702493071	-0.00258844249269515	-0.00182103037921324	-0.00249013616247824	0.0114293743685028
1.9	-0.00409726286249372	0.00330657500231336	-0.00280269960301835	-0.0014450799161862	-0.00281512898020194	-0.00143893450586782	-0.00180457539394671	0.0116032459592526
2	-0.00295492291838406	0.00404750111680686	-0.00297789917456772	-0.00103785358614777	-0.00298751198104059	-0.001033152272689	-0.00118334911594139	0.011896169355241
2.1	-0.00146518920439965	0.00460220200463619	-0.00309138573631242	-0.000610389961057432	-0.00308730584498112	-0.000612378179575437	-0.000226342448148658	0.0120483334662228
2.2	8.22907918231356E-05	0.00467588001323926	-0.00314897847902694	-0.000172633022248554	-0.00316026995632666	-0.000175470547272855	0.0007748379937437	0.0119424511235376
2.3	0.00156042774573226	0.00425742848156855	-0.00314443858546331	0.000270316072873552	-0.00314413376366074	0.000263440187802272	0.001663830882687	0.011620414474369
2.4	0.00284872077221758	0.00344003495080138	-0.0030720315192987	0.000708087238226719	-0.00307456814315127	0.000703833357176658	0.00245270615542087	0.011284180247661
2.5	0.00365002046893211	0.00226634001713031	-0.00293542622756251	0.00111950397480351	-0.00294630763317759	0.00112587091955701	0.0031724633887749	0.0109261998787257
2.6	0.00429090698749475	0.00122122486546397	-0.00276211535707426	0.00152240891441381	-0.00275855466643154	0.00151009987681698	0.00409813882039331	0.0105376283282833
2.7	0.00490962781807004	-1.89125743184893E-05	-0.00251646793130192	0.00189348315044117	-0.00252174293067636	0.00189349112037331	0.004867812312842	0.00988999000925414
2.8	0.00543895055903839	-0.00147588936996301	-0.0022339447407184	0.00222055930514619	-0.00222614474089987	0.00223034435916737	0.00544609097842741	0.00932313319664817
2.9	0.00576972591435835	-0.00323063218569396	-0.00190028730600316	0.00252033331836739	-0.00189658154465099	0.00251990955044824	0.00613336688185938	0.00891390643190858
3	0.00553231989492883	-0.00509080598418948	-0.00151474989392593	0.0027560227262924	-0.0015295232412722	0.00276210538528449	0.00696080842579366	0.00858142264132589
3.1	0.00511417070654379	-0.00682600912317314	-0.00112459827011264	0.00293310776252981	-0.00111995161825338	0.00294144677245297	0.00788732582883269	0.00801677485381623
3.2	0.00417559842912274	-0.00864776401961175	-0.000704674073511838	0.00307012878497192	-0.000706416517054716	0.00306951719381983	0.00844622166275523	0.00739683768244433
3.3	0.00277942320744039	-0.0104011102053528	-0.00026691570098333	0.00314012839580002	-0.000265264765368308	0.00313639286117115	0.00905480568879928	0.00675297562785861
3.4	0.00084519837669076	-0.0118719710420088	0.000179404764061807	0.00313460221083717	0.00017318729794143	0.00315114879360731	0.0096411664108223	0.0059097315239365
3.5	-0.00163003591006229	-0.0129152918958904	0.000601179441645331	0.00309202354994616	0.000606771418370503	0.00309210421038326	0.00994838922844276	0.00490329122745462
3.6	-0.004176312565607	-0.0131941923502681	0.00102900124135925	0.00297302586764398	0.00103718755376976	0.00297271725238333	0.0101981764844765	0.00399759978934882
3.7	-0.00669234496417351	-0.0130859862247118	0.00143927076139485	0.00279284109122256	0.00142967454401376	0.00280649735388106	0.0103416365430825	0.00307690649262854
3.8	-0.00922153006381759	-0.012503888066177	0.00181747680207308	0.00256645450822652	0.00181986887368593	0.00257560274273367	0.0103528298337149	0.00223610697080468
3.9	-0.0115956636916584	-0.0115080341712599	0.00216361634899307	0.00229383938814991	0.00215635599781342	0.00229205227090215	0.0102806598658229	0.00150607063537832
4	-0.0139876608615624	-0.00998060709197613	0.00244821830175878	0.00197297015189353	0.0024526680164275	0.00197054242523007	0.0102929365052633	0.00104018552168886
4.1	-0.0158192174228958	-0.00778583604767402	0.00270060764385287	0.00161405709765104	0.00269935441717844	0.00161479090137697	0.0106937135944139	0.000515781016761684
4.2	-0.0171681128769819	-0.00539368983137423	0.00290067583932583	0.00121324506925981	0.0029051532857996	0.0012045369443659	0.011008754076125	-0.000235360231980408
4.3	-0.0180812933687456	-0.00289345071014614	0.00304439255959339	0.00080129846205106	0.00305082554806628	0.000793505185253618	0.0112236501494278	-0.00111521486658573
4.4	-0.0186729298714549	-0.000302540913516541	0.00312122390841632	0.000367275033537587	0.0031236013635281	0.000365022006522604	0.0112434936537007	-0.00197661105355778
4.5	-0.019078981735366	0.00247579326485774	0.00314483388442935	-7.02423976619889E-05	0.00315019996848113	-7.36074752390829E-05	0.011265354043877	-0.00270781827486112
4.6	-0.0188423792976868	0.00558081832598313	0.00310193498657909	-0.000513610269799991	0.00310314519738423	-0.00050069166485603	0.0114133750029211	-0.00365146477005376
4.7	-0.0178503063321669	0.00850897986773575	0.00299717212150572	-0.000932945376186956	0.00301247542935245	-0.000942544103879169	0.0112503015373321	-0.00478852792875463
4.8	-0.0163648637034711	0.0111513729344264	0.00283656111775781	-0.00134737564454502	0.00284505017420416	-0.00135345499122843	0.0108590656609206	-0.00580420538038301
4.9	-0.0142432107610134	0.0133630372675813	0.00261645104962766	-0.00173181118366718	0.00262061458645967	-0.00172889955325708	0.0104140301357356	-0.00661436843632665
5	-0.0119176370186937	0.0150986105477592	0.00235749678748642	-0.00208793940831986	0.00236111688375925	-0.00208526902394943	0.0102147962877505	-0.00720264938861017
5.1	-0.00885951907704411	0.0164968058028201	0.00204648655948596	-0.00239926247479116	0.00204878662655931	-0.00239790145782198	0.0102451856933705	-0.00805396903251367
5.2	-0.00564781033398807	0.0169698197015321	0.00168905792963625	-0.00264956712503163	0.00169077794049037	-0.00265470987027054	0.00999451701086362	-0.00897075583784302
5.3	-0.00254110641809863	0.016747132178698	0.00130259772266855	-0.00286564847492108	0.00130572907479437	-0.00286358110819226	0.00965479123036771	-0.00967973177713301
5.4	0.000251368709014765	0.0159205044054094	0.00087778548807001	-0.00301411202283204	0.000894973538677601	-0.00302530634145389	0.00936372018962225	-0.0104807501652485
5.5	0.00241780512390763	0.0148939191313518	0.000463470765977528	-0.00311261433544968	0.000473538862079588	-0.0031220380997091	0.00890243750706548	-0.0113248057068683
5.6	0.00467013018795948	0.0138110956815625	2.49344896159831E-05	-0.00314888126087075	1.64077477269887E-05	-0.00315211044051446	0.00824137199961806	-0.0122368793460002
5.7	0.00665996713372589	0.0121780759515489	-0.000406361851033896	-0.00311907684592193	-0.000422981252276145	-0.0031227568295058	0.00712810527675475	-0.0128893335460176
5.8	0.00823954072590455	0.0101490530175429	-0.000852925739723355	-0.00302476836939827	-0.00085645063458792	-0.00303877132049308	0.00594559886585337	-0.0133480813819862
5.9	0.00928547490915552	0.00777868367928935	-0.00125870518143624	-0.00288499800278236	-0.00126694242823413	-0.00288492279983796	0.0046290073906671	-0.0135415607291589
6	0.00933661511087305	0.00520706889933723	-0.00165722281255445	-0.0026784796775997	-0.0016536590327049	-0.00267864373842932	0.00328711839619928	-0.0132253559881558
6.1	0.0090023835520394	0.00317249105557035	-0.0020128340915075	-0.00242452982516177	-0.00201447804675165	-0.00242052342580735	0.00268733877125388	-0.0127166218823554
6.2	0.00846803290255546	0.00104123831790787	-0.00232655145282703	-0.00211124646490141	-0.00233025650020532	-0.00212313103389971	0.00236924169273526	-0.0126567169724879
6.3	0.00762505154350147	-0.00110764170030154	-0.00260502628646103	-0.00177635447587145	-0.00261416638428243	-0.00177061446199849	0.00205564338145573	-0.0130164233662134
6.4	0.00627693567090902	-0.00332301539532072	-0.00283164365009463	-0.00138513002966483	-0.00282190793267655	-0.00139003350788541	0.00161305365710373	-0.0135595855447682
6.5	0.00424931859160426	-0.00500633412370252	-0.00298866739995675	-0.000980161903900647	-0.0029965388778984	-0.00097567957217032	0.00116682365404751	-0.0140813296576405
6.6	0.00237204941623631	-0.00595506215133654	-0.00309777815190239	-0.000554220288116611	-0.00309941225739549	-0.000558202402562872	0.000664519342718475	-0.0148604322915998
6.7	0.000359546605264176	-0.00659835086697996	-0.0031485276375742	-0.000115403513601357	-0.00315739331338415	-0.000109118491590025	-0.000448724342138047	-0.0153730476292478
6.8	-0.00177971287865396	-0.0067244652318765	-0.00312697724008436	0.000326847144469803	-0.00313808407024059	0.000331900230606202	-0.00166509952938361	-0.0153893563564899
6.9	-0.00399381573855669	-0.00645939260070198	-0.00305170446767975	0.0007607618113859	-0.00305469534871955	0.000763155110026516	-0.00272711490702943	-0.0151284742650288
7	-0.00646828921077733	-0.00542336773227416	-0.00291537560210293	0.00118271958921475	-0.00292822370605572	0.00118052125756738	-0.0035620923294485	-0.0146806809314293
7.1	-0.00824143904200495	-0.00347628063004512	-0.00273677646079031	0.00157252617982492	-0.00273310472403005	0.00158120244835385	-0.00421622502840633	-0.014430297466404
7.2	-0.00944467034460142	-0.00143463769035747	-0.00247976636917	0.00194088336822735	-0.00248630373744002	0.00194296748151542	-0.00508277600743145	-0.0141216673638086
7.3	-0.0102801656146903	0.000727175639932189	-0.00218398098389843	0.00226039964412239	-0.0021952071496503	0.00226546394093642	-0.00585945606180152	-0.0136987980279909
7.4	-0.0107334980190949	0.00280347893336429	-0.00184202693904071	0.00254432191305146	-0.00184891428636695	0.00255795284416182	-0.00669711375418315	-0.0133128659845093
7.5	-0.0112626950031167	0.00487391394927887	-0.00147519648253819	0.00278412085604014	-0.0014681893762102	0.00279152219845158	-0.00733154535995686	-0.0126333933886329
7.6	-0.0109721125025268	0.00747771430080943	-0.00106851861695871	0.00296238484405614	-0.00106989795941811	0.00295768265203044	-0.0073004301589145	-0.0122746665612377
7.7	-0.0100289663270606	0.00964437498255363	-0.000639685335434291	0.00308407979190004	-0.000641027979947948	0.00308301747289255	-0.00752556961081292	-0.0127309443180193
7.8	-0.00848246714063478	0.0112989216370649	-0.000213074877459567	0.00313350322222411	-0.000220888706536481	0.00313997574360897	-0.00811645943419985	-0.0131086649473988
7.9	-0.0066701424818422	0.012426600715693	0.000229350914306342	0.00314048056878148	0.000237305290802962	0.00314197372577284	-0.00887333342650381	-0.013189940258518
8	-0.00483484974033712	0.0135493208696931	0.00067172761843607	0.00306740032135095	0.000671814100846111	0.00307230609085125	-0.00957459352784493	-0.0130802731497073
8.1	-0.00212736474208326	0.0144397228515311	0.00108284222317463	0.00294964652243623	0.00110201720629379	0.00295071508672134	-0.0103073855123623	-0.013090644272202
8.2	0.000687149457202764	0.0144569821739356	0.00148863584496216	0.00276804690674126	0.00149788707013586	0.00276083043501832	-0.0112960211530145	-0.0127759354077704
8.3	0.00337970404897718	0.0138134209320303	0.00186586310634587	0.0025277404304423	0.0018642372507641	0.00254131166031923	-0.0121694172193917	-0.0122016175620732
8.4	0.00575356939060529	0.0125476528091256	0.0022017396778187	0.00224851606817067	0.002198705304974	0.00224829625653975	-0.0129837141114328	-0.0115478496704902
8.5	0.00736962534846328	0.0110013316835713	0.00248731331754618	0.00191711312205569	0.00248642038416477	0.00192030191213976	-0.0137008971387711	-0.0106443581990399
8.6	0.00908775159168544	0.00961145445252687	0.00273368436127915	0.00155522621679398	0.00274318223515257	0.00154865943082426	-0.0141156313615318	-0.0100387950405852
8.7	0.0107015284385352	0.00754153129529976	0.00291856028493285	0.00115102471173593	0.00292412679828137	0.00115173685511534	-0.0148433078782547	-0.00952175575854125
8.8	0.0118733989886579	0.0049911577840326	0.00305391247798131	0.0007392159084548	0.00305966658288422	0.000730437542457579	-0.0157677705093111	-0.00883888318402892
8.9	0.0125257946337778	0.00187718820221225	0.00313014760806581	0.000304947747783789	0.00312927150364964	0.00030270114675873	-0.0165118495501537	-0.00770252324079778
9	0.0120526397632399	-0.0014466719099517	0.00313933314853667	-0.000138932136191071	0.0031425010128919	-0.000134835240862208	-0.0167071821216157	-0.00614681206096379
9.1	0.0111844669862341	-0.00439631550556037	0.00309136947110837	-0.00058092325328016	0.00309428528281249	-0.000568028765462232	-0.016153722943534	-0.00495128924217212
9.2	0.0096484028347081	-0.00743353394808184	0.00298044828438213	-0.000998221874287391	0.0029881001078291	-0.00100111670105732	-0.0155834258578381	-0.00418482758242833
9.3	0.00731216529802984	-0.0101412917841969	0.00281072801635426	-0.00140307856994133	0.00280998570085795	-0.00140806738245343	-0.014942250303497	-0.00359671105823766
9.4	0.0042347331508459	-0.0123584052510332	0.00258728870993089	-0.00179302693776165	0.00259381771008656	-0.00178544498179789	-0.0143878223989197	-0.00326538544721223
9.5	0.000298481151694367	-0.0133752384425889	0.002310468955067	-0.00212681649237852	0.0023178749944188	-0.00212818234007426	-0.0139110882371013	-0.00288400103803538
9.6	-0.00335331351383757	-0.0132596971241662	0.00199271602672037	-0.00242881850472127	0.00199304797665776	-0.00242783793261664	-0.0137390604645016	-0.00297024320484822
9.7	-0.00688648299119655	-0.0125568113305223	0.00162535829814651	-0.00267831918952684	0.00163087225067628	-0.00268563219783284	-0.0140676770369495	-0.00279284165118035
9.8	-0.0102892848870524	-0.0112126361793422	0.00124014954332191	-0.00288629844887091	0.00124586115602831	-0.00287782042892508	-0.0144884374225857	-0.00226685521366934
9.9	-0.0134859696662369	-0.00927977306021969	0.000834502247877238	-0.00302449948340341	0.000827181765096667	-0.00302325817907165	-0.0149761540747651	-0.00139008596955419
10	-0.0167822038347306	-0.00655033785796367	0.000404761271713556	-0.00311198974081119	0.000397257445880878	-0.00312439973451367	-0.0150935571847057	-0.000190992625389895
10.1	-0.0190810926556641	-0.0026840820843742	-3.65374122020697E-05	-0.0031429201209791	-4.67447151818535E-05	-0.00313751629816378	-0.0147311903213972	0.000606402278403282
10.2	-0.0203706416224019	0.00140157655898322	-0.00048224752409816	-0.00310528460603406	-0.000485644286555852	-0.00310250353665771	-0.0145084790947632	0.00128472699575653
10.3	-0.0207796611025728	0.00563354742960687	-0.000914010899275918	-0.00299855680273849	-0.000905949617794953	-0.00300762951376775	-0.0142165686041121	0.00202265705037024
10.4	-0.0203773893136729	0.00969719876997108	-0.00130998165713181	-0.0028428913583322	-0.00130829948751981	-0.00284907844536421	-0.0136754253903726	0.00268479458639084
10.5	-0.0196397992469746	0.0139272613264393	-0.00169984280247895	-0.00264424927938184	-0.00169672702557767	-0.00263127685394634	-0.0128466583705841	0.00338601491362732
10.6	-0.0176164503879074	0.0183925248247833	-0.00205181467912532	-0.0023739788157059	-0.00204963782000335	-0.00237779781136824	-0.0118005771504666	0.00348945532676382
10.7	-0.0145706157478411	0.0223622626448182	-0.00236546302746072	-0.00207156531741627	-0.00236196784065166	-0.00206630041327854	-0.0110555387466362	0.00343396219533688
10.8	-0.010683990270287	0.0256668241078166	-0.00263263687112853	-0.00171182377002437	-0.00262746152595787	-0.00172073613716499	-0.0105524043283642	0.00323305216387412
10.9	-0.00610097260887561	0.0280322053834405	-0.00283907248408937	-0.00133882977698952	-0.00284424687322039	-0.00133809495752553	-0.010321945080792	0.00321068613349527
11	-0.00143694161759957	0.0297218081683524	-0.00299757651436155	-0.00092344102552531	-0.00300241611033957	-0.000930160524065732	-0.00996524868399412	0.00345259456227499
11.1	0.00409073167400955	0.0308414742280685	-0.00310443913072433	-0.000499440531202661	-0.00309360581734021	-0.000496598587557041	-0.00940657501898001	0.00327865605486503
11.2	0.0100294699352861	0.0304736205062125	-0.00313286396486046	-6.37011688770536E-05	-0.00313999989707099	-6.85193619165396E-05	-0.00912464417370557	0.00309046979565438
11.3	0.0159280581019896	0.0286378688528608	-0.00310591937169448	0.000382909776000767	-0.00311743210474808	0.00037290592609107	-0.00878626876848548	0.00307174322628839
11.4	0.0211798400982004	0.0254423582437427	-0.0030327331228756	0.000809030583004708	-0.00302783106312566	0.000816574163197776	-0.00848831748340777	0.00306087552110995
11.5	0.0252484380991525	0.0214305891356665	-0.00288942057343377	0.00122330705518339	-0.00289218821456001	0.00123355320425323	-0.00810190435760178	0.00302461021038139
11.6	0.0289721315108952	0.0169523317402138	-0.00269589691755014	0.00161129837555694	-0.00269587844679094	0.00161422937842572	-0.00759195592804398	0.00251062172383823
11.7	0.0319187562424285	0.0114827151621994	-0.00243633492817841	0.00196461456924211	-0.00243690060528426	0.001973193169147	-0.00745542652744464	0.00196146400783098
11.8	0.0337366322200845	0.00534842553863999	-0.00214268989198727	0.00229593894716757	-0.00214679392316719	0.00229763014040157	-0.0073962524866902	0.00169989814890742
11.9	0.0341764118653213	-0.00124662252486139	-0.00179481208084358	0.00257159898506516	-0.00180779812699371	0.00257588564208195	-0.00723067513263431	0.00198687556352591
12	0.0327829227593456	-0.00742971404420988	-0.00142321237409682	0.0027934837815405	-0.00142261957969241	0.00279489173373443	-0.00648099007866625	0.00228614442800064
