# GHZ S RI R 50
0.2	0.00500952627903903	-0.000732845189690016	0.00306138340931612	-0.000894453808117237	0.0030717746302154	-0.00088759730046868	-0.0149631152917707	0.00294305785950401
0.3	0.00567782278196943	-0.00181512252995229	0.0029209313214954	-0.00131935673498997	0.00291361669400249	-0.00130637931400737	-0.0138476214434169	0.00401302717065696
0.4	0.0056454155217837	-0.00245260288072837	0.00269318911109983	-0.00169487126956032	0.0026985130401671	-0.00170346568542551	-0.0131730134763779	0.00557574422658525
0.5	0.00705772967322939	-0.00414694872705258	0.00243464155822718	-0.00205969094533437	0.00244628366099544	-0.00207199523769004	-0.0106499958502832	0.00595873693983254
0.6	0.00463240123034549	-0.00731540957668226	0.00211876368180966	-0.00237639811926338	0.00211798357793095	-0.00238359568131494	-0.0116060745785966	0.00458473170582321
0.7	0.00194815371699334	-0.00739949554155983	0.00177163517640693	-0.00265778046648555	0.00176966549035407	-0.00265798438898191	-0.0125937058352358	0.00592036402546214
0.8	-8.97224874467649E-05	-0.00704515062085005	0.00138408693606008	-0.00288048980888859	0.00137139212353654	-0.00288509483436813	-0.0128532080486553	0.00744764985800432
0.9	-0.00240987809766925	-0.0056655503749454	0.00096131639888092	-0.00304897210542133	0.000962365228040512	-0.00305976428605009	-0.0131921414397279	0.00958860081336165
1	-0.0016496257288184	-0.00263422664027517	0.000529891810601061	-0.00315031838985561	0.000519954897018754	-0.00315106110134005	-0.0104889771692427	0.012918153405513
1.1	-0.00117679850973612	-0.00489171144984443	7.46132313845062E-05	-0.00318127523007999	7.10927539815233E-05	-0.00319907486973369	-0.00835202182106109	0.0109478335272146
1.2	-0.00373068327221348	-0.00527997716234742	-0.000373732898088854	-0.00317430248919868	-0.000374552730505978	-0.00317220668967088	-0.00879138606612612	0.0109375324463939
1.3	-0.00602302479530701	-0.00515106211367449	-0.000808233773999584	-0.0030907811914246	-0.000811507150284519	-0.00309280344395359	-0.00826113255424158	0.0113939269307024
1.4	-0.00793496588706879	-0.00404724476286138	-0.00123515193239293	-0.00293854557829129	-0.00123393611090588	-0.00294413234186342	-0.00724529167534908	0.011974322515583
1.5	-0.00691171934820411	-0.00344704011835824	-0.00163618085334975	-0.00274281730709364	-0.00163455556864819	-0.00275139895628137	-0.00435618991798733	0.0111158414341185
1.6	-0.00877113640493452	-0.00287838626053139	-0.00200752879759108	-0.00249132093429355	-0.00200774955399831	-0.00249661684354985	-0.0054864951995502	0.0103440991807372
1.7	-0.00854231994660876	9.76628155881958E-05	-0.00234337747924389	-0.00218665508318235	-0.00234433497152475	-0.00218031601469178	-0.0049809549361805	0.0119658016250528
1.8	-0.00730824742794171	0.00248898779085436	-0.00261735831738259	-0.00182719487404423	-0.00262847393363558	-0.00183285235188122	-0.00386424982956604	0.0129782842547425
1.9	-0.00535024105678217	0.00494903541723291	-0.00284368651562418	-0.00145117574895134	-0.00285624445136907	-0.00144490121626382	-0.00241727090958962	0.0143342559914904
2	-0.000761204988799404	0.00528906781376359	-0.00302730416832503	-0.00103819145692732	-0.00303703575858149	-0.00103337183853907	0.0012558378671856	0.0140196637093101
2.1	-0.000265608142852291	0.00281513584598385	-0.00314061040725063	-0.000592779722826791	-0.00313648932324505	-0.00059483097461422	0.000972073336334448	0.0115209793831747
2.2	-0.000148364494208167	0.00296395009052361	-0.00319158559422509	-0.000145170490027883	-0.00320305078078293	-0.000147938410793913	0.00072738072011906	0.0117727197142347
2.3	0.000474302927958482	0.00304874347932534	-0.00318167700815513	0.00030528582107287	-0.00318143727150908	0.000298319522315278	0.00108518773453108	0.0120089288221632
2.4	0.00106561543275427	0.00373904115216336	-0.00310514601283047	0.000751619280762266	-0.00310776367022944	0.000747336812829149	0.00151580725130447	0.012896626604614
2.5	0.00457147702917747	0.00431690241807813	-0.00295636085669592	0.00117756518009545	-0.00296728684645094	0.00118417575733405	0.00481225819992297	0.0136497558941876
2.6	0.00619385144358584	0.00058458082784941	-0.00276504753089251	0.00157883500297666	-0.00276164053154879	0.00156635544796588	0.00613230090178415	0.0105241007834869
2.7	0.00594845973558195	-0.00151645537456044	-0.00251036143895074	0.00194822504138363	-0.00251568327486206	0.00194831250011819	0.00573969471938869	0.00927773643867074
2.8	0.0055903127197969	-0.00313651726121589	-0.00221760938031623	0.0022753192575073	-0.00220958604753672	0.00228506355606902	0.00535666277182214	0.00884788031268708
2.9	0.0055064169021796	-0.00393414192998331	-0.00186937369831165	0.00257374347807805	-0.00186564734943975	0.00257324975361532	0.00568263278331245	0.00953771105978343
3	0.00727249716326166	-0.00609545729733878	-0.0014685129140661	0.00279393616406155	-0.00148322403230918	0.00280031614574888	0.00823699109966956	0.00896462854445869
3.1	0.00538198865615037	-0.00981214968194473	-0.00108008486744517	0.00296123954975086	-0.00107528586357504	0.00296952960758576	0.00756241356863129	0.00699519240436785
3.2	0.00321066590531745	-0.0110974575357892	-0.000654074111133523	0.00309243866465994	-0.000655832865734567	0.00309185509091742	0.0072795123513291	0.00735662800731497
3.3	0.00113740948595293	-0.0121458562475298	-0.000210193109413406	0.00315143307846041	-0.000208606918438984	0.003147659776899	0.00764049665018986	0.00752645305043848
3.4	-0.00100355965320546	-0.0120737948111242	0.000237283190016929	0.00312982306438598	0.000231374586996787	0.00314647689844322	0.00837677322982716	0.00801666192070231
3.5	-0.000887913560772153	-0.012877137247425	0.000647986768229957	0.00307832505245852	0.000653571976252937	0.00307831938742215	0.0110924840070169	0.00699614419098576
3.6	-0.00449564552662912	-0.0153845413905768	0.0010786599562772	0.00295722316299371	0.00108684456339166	0.00295677886157006	0.0102869486606275	0.00425608407499293
3.7	-0.00843117813712949	-0.0145432104748708	0.00148771121249825	0.00276419335589983	0.00147836919489846	0.00277800698029747	0.0095030470348534	0.00413046514921935
3.8	-0.0114221708800957	-0.0126613650567311	0.00185818523351808	0.00252689476505095	0.00186073379195119	0.00253597486344676	0.00950271829557282	0.00423138154380149
3.9	-0.0132068268660009	-0.00967897399189365	0.00219316176762633	0.00224953224394502	0.00218589953976356	0.00224787139175642	0.0101500485650408	0.00476838915654196
4	-0.0119613773927009	-0.0081261219275255	0.00247755864222581	0.00192891053090258	0.00248196085879279	0.00192641190748294	0.013162566329109	0.00364262552428957
4.1	-0.0141826433298304	-0.00883098925856136	0.00272228715974785	0.00155443029894775	0.00272105323693918	0.00155518612615076	0.0124236213178745	0.000437704171328971
4.2	-0.0165959492330056	-0.00661392761948659	0.00290594337125386	0.00114943761765242	0.00291022401208538	0.00114069750323741	0.0115015700435302	-0.000143161382059882
4.3	-0.0180219985481832	-0.00376503611392879	0.00303659038393462	0.000738787843207895	0.00304283070423092	0.00073093316146641	0.0112160556291982	-0.000581947530227685
4.4	-0.0186658224794563	8.65808828078833E-05	0.00310518345188929	0.00030696459831563	0.00310750192783529	0.000304684151257534	0.0111657245354353	-0.000401412130325371
4.5	-0.0158802352398596	0.00305090543452153	0.00311497404198344	-0.000138050944250423	0.00312021854955369	-0.000141502489138208	0.0136240383147425	-0.00134806477186462
4.6	-0.016104744712219	0.00276081755728653	0.00304891014526952	-0.000568583507371884	0.00305036210363457	-0.000555867154202218	0.0124279409663395	-0.00489247205844293
4.7	-0.0166616227391122	0.00519074345217984	0.00293604307333694	-0.000972965548057848	0.00295094741672101	-0.000982697031566612	0.0106633626846972	-0.005697797377595
4.8	-0.0162679607209746	0.00804848644878118	0.00276948669975855	-0.00137539493031062	0.00277773976323419	-0.00138152647399465	0.00942866764226939	-0.00595024005256226
4.9	-0.0147444867622382	0.0115733280706946	0.00254153023498052	-0.00174922076154214	0.00254567546560659	-0.00174643232473414	0.008713936124465	-0.00524505768136606
5	-0.00999847834280917	0.0131225680757458	0.00227192220942117	-0.0020808433954831	0.0022755068621729	-0.00207829043760811	0.0107003752597379	-0.00585600068852535
5.1	-0.00898237333180962	0.0124000035831881	0.0019741465554797	-0.00237159056312338	0.00197641302952618	-0.0023702859390578	0.00899732912003343	-0.00796200360499398
5.2	-0.00725492537657154	0.014043823711045	0.00162429592621477	-0.00261189758303029	0.00162592325562405	-0.00261695017097543	0.00811081373868095	-0.00752159949126238
5.3	-0.00441538328101546	0.0151403376246114	0.00124418453335525	-0.00281534588287184	0.00124726753941595	-0.00281335665925668	0.00808864141666895	-0.00726523728982915
5.4	-0.000910004825302735	0.0162059288894455	0.000830144342382068	-0.00294750572801143	0.000846812635758027	-0.00295857298127692	0.00862770505399313	-0.00677716982110625
5.5	0.00525499637813103	0.0140693470154273	0.000442093089858399	-0.00303758699372728	0.000451883463055571	-0.00304681140018971	0.011422246216461	-0.00903551736997244
5.6	0.00511851808788969	0.00963321052015521	1.41684150372266E-05	-0.00308070570662671	5.81601593946065E-06	-0.00308383719956152	0.00809273440319364	-0.0123605975919649
5.7	0.00486814143797102	0.00884799136884885	-0.000407047128052225	-0.00304776984122888	-0.000423304965708653	-0.00305131493730952	0.00549713587972306	-0.0116337414867137
5.8	0.00532380718807694	0.00830568139960433	-0.000837599132691353	-0.00295254348243512	-0.000841063005814376	-0.00296621272697927	0.00413877395281336	-0.0107516836246296
5.9	0.00596510694748564	0.00903245142841099	-0.0012246986263509	-0.00281957884005468	-0.00123274348921619	-0.00281951850199425	0.00324657730675202	-0.00885053086316205
6	0.0112322526878837	0.00893805525563697	-0.00161913098817457	-0.00263026553016847	-0.00161563591084572	-0.00263041846295201	0.00651549672025479	-0.00781837473808433
6.1	0.0126381983002166	0.00279085055263023	-0.001970157401114	-0.00237360306495333	-0.00197176708259848	-0.00236968130040523	0.00609659117766432	-0.0115383686496095
6.2	0.0113448125099753	-0.000815615227630325	-0.00226982917946924	-0.00206816217948163	-0.00227342704432723	-0.00207978564800974	0.00422742834068055	-0.0124190776478557
6.3	0.00953697461689059	-0.00361019607714241	-0.00253923701339549	-0.00174730559685084	-0.00254819588689055	-0.00174173219809677	0.00271101258644717	-0.0127767807067877
6.4	0.00785442597147718	-0.00469441304035166	-0.00276578660397022	-0.00137171035460518	-0.00275622554509211	-0.00137646049314082	0.00196305257672223	-0.0118933293035286
6.5	0.00857548332707265	-0.00831142877746908	-0.00292240709690708	-0.000967427448542856	-0.0029301232582496	-0.000963061890429057	0.00364272510487697	-0.0138974393094762
6.6	0.00319053555559538	-0.0114737236038913	-0.00301828095916445	-0.000559072135004245	-0.00301985111419694	-0.000562966058540794	-7.7194186154894E-06	-0.0154888825396161
6.7	-0.000473689273748857	-0.0108551843471567	-0.00307296457667247	-0.000141011658938823	-0.00308167697683653	-0.00013495520009041	-0.00176876745219827	-0.0143379556432805
6.8	-0.00347344886181096	-0.00981077959944097	-0.00306039265797456	0.000287236179414488	-0.00307130318563764	0.000292061490054503	-0.00310020012462977	-0.0133451942795443
6.9	-0.00552576086431107	-0.00682035798719931	-0.00299195571571853	0.000713621242694006	-0.00299490443075582	0.000715931994013695	-0.00361445477436487	-0.0109884453327913
7	-0.00261698251751045	-0.00651273877206216	-0.00285414704669605	0.00111636742878696	-0.00286663470706508	0.00111406907765006	-6.71880727895181E-05	-0.011771937245228
7.1	-0.00691018766571819	-0.0092650808454688	-0.00270029977103551	0.00148757457530795	-0.00269686657674509	0.00149611211343646	-0.0036475226740149	-0.014795709665939
7.2	-0.0109193482118825	-0.00682467892461017	-0.00246369154427057	0.00185395210947972	-0.00247013015023013	0.00185587083720392	-0.00627026003873516	-0.0131494450805632
7.3	-0.0137273500814137	-0.00349009194550304	-0.0021835228239472	0.002172469857746	-0.00219461990824118	0.00217721471068968	-0.00753492023902728	-0.011414040557641
7.4	-0.0157391812646749	0.00207185761979403	-0.00185741572291423	0.00245180599987899	-0.00186444807033333	0.0024650046069575	-0.00826851297276373	-0.00844560789770789
7.5	-0.0113750255649697	0.00709262045392622	-0.0015235236268236	0.00269323521246573	-0.00151684506828511	0.0027006906585748	-0.00388216620343614	-0.00708973361441007
7.6	-0.0107180757650147	0.00638783898482609	-0.00113291841060681	0.00289538473875319	-0.00113415532153913	0.00289070753585964	-0.00422651935720292	-0.0109536233098477
7.7	-0.0107353005049126	0.00877392770214657	-0.000712146295250656	0.00303022328064725	-0.000713445114809231	0.00302913887708695	-0.00604434592700662	-0.0116216862144624
7.8	-0.00924650534100291	0.0112961226955858	-0.000295778156309338	0.00309263029574206	-0.000303680250127936	0.00309881816028775	-0.00733843342002155	-0.0115729331471333
7.9	-0.00596918292726389	0.013852897214109	0.000133393880900085	0.00311908821091954	0.000141232063257651	0.00312080575619079	-0.00749830858949831	-0.0107928184732563
8	8.71186815685837E-05	0.0119373383416665	0.00058074770844693	0.00307910131447272	0.000580691211280137	0.00308399705178309	-0.00614159243715259	-0.0129720716168425
8.1	-0.000757659240145528	0.00919822351355179	0.00100301955446272	0.00296908538329696	0.0010221102639535	0.00297064896113537	-0.0109845651018022	-0.0144317020280897
8.2	-1.50009232213506E-05	0.0101686159752793	0.00140968664478484	0.00280050770695063	0.00141910690559258	0.00279356137403916	-0.0131225818112631	-0.0120027985258552
8.3	0.00166139226500835	0.0107233391622166	0.00179289517542002	0.00257842161267415	0.00179088704402598	0.00259193583365414	-0.0140851437618651	-0.00998130639312384
8.4	0.0041437772924784	0.012226971008407	0.00214528976162327	0.00231750693845825	0.00214225212856516	0.00231720101082279	-0.014222830661866	-0.00713393203278466
8.5	0.0112509658598087	0.0101900785450881	0.00245193506907001	0.00198245553071325	0.00245096427898144	0.00198563551469755	-0.0104775437172089	-0.007204888442572
8.6	0.0108814790911547	0.00395909755263439	0.00269829779248567	0.00162775252786214	0.00270797924215833	0.00162141829326068	-0.0134032464634001	-0.00992238866846467
8.7	0.00969876436942867	0.00213111747091199	0.0028995933000181	0.00123507274642005	0.00290516389104979	0.0012359389566937	-0.0158208581842233	-0.0081303428229214
8.8	0.00903921243703011	0.000856703661175967	0.00305561622367078	0.000825754296634062	0.00306164450842407	0.000817067720040576	-0.0170429741593993	-0.00607813595680402
8.9	0.00887270446259244	0.00104380162715491	0.00314925409375925	0.000382682290057388	0.00314842453647239	0.000380395683576544	-0.0171097599259162	-0.00277620309963577
9	0.0132644992390009	-0.000785665350680211	0.00315828560850635	-6.11253267800725E-05	0.00316136665796476	-5.6929026624963E-05	-0.0127236413126502	-0.00178152650694922
9.1	0.0121058314281679	-0.00673866388310657	0.003136679399913	-0.000498128616712696	0.00313925444550931	-0.000485031079237815	-0.0135522812526333	-0.00397958526329069
9.2	0.010070094564094	-0.00974415561393034	0.00304532680605244	-0.000930144920781643	0.00305315419057863	-0.000932869186574158	-0.0140585640473983	-0.00341948824338272
9.3	0.00758298711480155	-0.0124527234476675	0.00288590546950721	-0.00135135274376868	0.00288527953462886	-0.00135643055482194	-0.0142961819788101	-0.00293488587875574
9.4	0.00504538014942669	-0.0131360436639986	0.00266709259876557	-0.00175180886021217	0.00267351786255572	-0.00174396091845101	-0.013995635503589	-0.00126811047352417
9.5	0.00493320799882834	-0.0169773418923267	0.00241296841646486	-0.00209438232699406	0.00242054107231488	-0.00209555142368795	-0.0115924076719177	-0.00316011489193959
9.6	-0.00248981016980468	-0.0202754256581189	0.00210118688563102	-0.00243256191235828	0.0021015009814245	-0.00243155035080469	-0.0155427536990682	-0.00424458764903219
9.7	-0.00857576229349307	-0.018667730167906	0.00172577908260586	-0.00270452280501283	0.00173159281743574	-0.00271188254519076	-0.0172001053885395	-0.00182632453395533
9.8	-0.0136214171187411	-0.0158044206438368	0.00133412583277539	-0.00292979891570271	0.0013397908884317	-0.00292098714980221	-0.0177945596304791	0.000497418328042765
9.9	-0.0173869718362044	-0.0105612033843217	0.000925867053287906	-0.00308656664208859	0.000918321958398994	-0.00308545902998342	-0.0174919579100443	0.00385530815174472
10	-0.0158645696353984	-0.00721330767952818	0.000477809560386285	-0.00320866073526594	0.000470291134669262	-0.00322163047370864	-0.0133215392966664	0.00436253836512395
10.1	-0.0194828420605278	-0.00637966301404648	4.34740896362701E-06	-0.00324455006058254	-6.26069001687127E-06	-0.00323910893975073	-0.0147646366401673	0.00266133559497956
10.2	-0.0222338313549047	-0.00153506283050589	-0.000459576397136754	-0.00321007169761204	-0.000463115379439508	-0.00320724366695203	-0.0153641539599251	0.00432370516714305
10.3	-0.0233069814301495	0.00412531761519444	-0.000911370967436131	-0.00310884642554516	-0.000902939991652799	-0.00311813305283452	-0.0149240870841518	0.00594955890265612
10.4	-0.0221018496608657	0.0112485865404748	-0.00133547833556854	-0.00295809065735759	-0.00133368468357703	-0.00296449217324516	-0.0132166352692257	0.00807956278881676
10.5	-0.0156500025425702	0.0147622234162314	-0.00176021956131573	-0.00273802997545786	-0.00175699291871049	-0.00272459734488809	-0.00854669527338102	0.00644250676319451
10.6	-0.0145132834485766	0.0153156339547626	-0.00211539188539206	-0.00244980122921193	-0.00211314458609633	-0.00245373961672514	-0.0102140598596949	0.0035129699893715
10.7	-0.0126318883106609	0.0184767422709308	-0.00244259149315842	-0.00213891938373078	-0.00243898224116998	-0.002133483183174	-0.011399211547793	0.00370555271901342
10.8	-0.0099935568121414	0.0217237532243464	-0.00272582139409068	-0.00176229321703729	-0.002720496040745	-0.00177151937043038	-0.0124331825677163	0.00456499116038157
10.9	-0.00556925372691301	0.0260399367745921	-0.00294187081571121	-0.00136141067865153	-0.00294720887044405	-0.00136061322749078	-0.0120499203649806	0.00698525277422109
11	0.00359412308464689	0.026114641511822	-0.00308439033963645	-0.000926732474411061	-0.00308940745855268	-0.000933597206265085	-0.00819370845267985	0.00605053546591967
11.1	0.00608404331867799	0.0233148442865699	-0.0031996115416214	-0.000497847321631593	-0.00318844028054945	-0.000494978179252372	-0.0107908411248298	0.00419419224477385
11.2	0.009418726719923	0.0232826510318872	-0.00323033342126379	-3.91053159604987E-05	-0.00323773099299994	-4.40120677101056E-05	-0.0116281187646949	0.00585056215907954
11.3	0.0132440453995716	0.0230163769954836	-0.00319406931800692	0.000430217977151223	-0.00320604081481767	0.000420049003934326	-0.0114312259212128	0.00783904763725212
11.4	0.0179381381063299	0.0231549480579075	-0.00310265308272441	0.000868723562346979	-0.00309752618281109	0.000876404554710694	-0.00980261500953084	0.0102052611589863
11.5	0.0265607800707322	0.0187006133150465	-0.00296070818004983	0.00128357239500115	-0.00296346398487449	0.00129413407317141	-0.00504329787042443	0.00813470964520818
11.6	0.0277264431996374	0.0114328791191194	-0.00275766728054419	0.00170018434912413	-0.00275760660177285	0.00170320712740154	-0.0070015155062972	0.00556258066813759
11.7	0.0288152703409132	0.00755813652141074	-0.00247305804801825	0.00206533134426955	-0.00247348860554003	0.00207417159293288	-0.00725569586945787	0.00618269549360249
11.8	0.0302408369519509	0.00378533655313258	-0.00215751085804858	0.00239895244105404	-0.0021616945087408	0.00240076732659836	-0.00653030240858098	0.00664570077086174
11.9	0.0332789358209228	0.000835415348734053	-0.00179667411412256	0.00267412545775256	-0.00180993460050198	0.00267876515743114	-0.00424668280354661	0.00762010935604643
12	0.0385344164825197	-0.00834246905641252	-0.00140390572202678	0.00291369365791515	-0.00140326210012872	0.00291513220514978	-0.000266337512805531	0.00351618472885692
