# GHZ S RI R 50
0.2	0.00515051457982916	2.77508882110769E-05	0.00305758055372882	-0.000895191119924567	0.00306796436980336	-0.000888347795537825	-0.0148829608126575	0.00363214733742325
0.3	0.00568060096050769	-0.00132746268801555	0.00291620961144714	-0.00131957794274921	0.00290891328297992	-0.00130661268044585	-0.0138880820739926	0.00442756572055594
0.4	0.00557857754078501	-0.00217259844550255	0.00268761816085779	-0.00169403529581265	0.00269292735348491	-0.00170261955534047	-0.0132345334217459	0.00578816927227114
0.5	0.00652304483943261	-0.00378018378898566	0.00242902600229373	-0.00205685123571563	0.00244064012913793	-0.00206913723663942	-0.0110297690851704	0.00620601561479904
0.6	0.00443114751045051	-0.0063989358843096	0.00211403111803492	-0.0023728078494659	0.00211324985806488	-0.00237999195339197	-0.011598913150295	0.00515253702662016
0.7	0.00215071466864724	-0.00660403008098027	0.00176707100885355	-0.00265320964892134	0.00176510514846358	-0.00265341238863222	-0.012278787688929	0.00619577369011761
0.8	0.000324758134341048	-0.00644976557793643	0.00138022965272821	-0.00287459796999067	0.00136756123900526	-0.00287918926153132	-0.012476940575988	0.00742888250091458
0.9	-0.00181811997972979	-0.00543613736101032	0.000958966860180089	-0.00304199917702111	0.000960012789333869	-0.00305276657031517	-0.012846103414614	0.00923970092999343
1	-0.00164283429086103	-0.00294215028659183	0.000528964474591362	-0.00314374334589049	0.000519048248801012	-0.00314448506270197	-0.0107700458819013	0.0123271454962105
1.1	-0.00157277294288651	-0.00438439953343799	7.39186039328142E-05	-0.00317392115309212	7.04033572799861E-05	-0.00319167899942116	-0.00874770811408554	0.0112529090187644
1.2	-0.00367168873182818	-0.00430895165465335	-0.000372630665602226	-0.00316611217242661	-0.000373448468679894	-0.00316402182556601	-0.00854603204578785	0.0116268914751354
1.3	-0.00537235986261397	-0.00398129545199698	-0.000805169074485731	-0.00308273216951072	-0.000808433089423704	-0.00308474995315635	-0.00727850991393147	0.0120989367994356
1.4	-0.00694243388076199	-0.00317765288455148	-0.00123063227888029	-0.00293139016080917	-0.00122941719818908	-0.00293696176189504	-0.00594266498999977	0.0121377752430321
1.5	-0.00633628520934345	-0.00257686844357681	-0.00163090965481843	-0.00273548461120511	-0.00162928687892334	-0.00274404169120965	-0.00345056999963717	0.0110708742786526
1.6	-0.00790418217083035	-0.00195555972674598	-0.00199935859131533	-0.00248451256631689	-0.00199957516877345	-0.00248979135953986	-0.00455002705599934	0.00998886960919797
1.7	-0.00774608218328311	0.000611022399205757	-0.00233347127879593	-0.00218207262170625	-0.00233443241353567	-0.00217575507921131	-0.0044619875255199	0.0112225970709774
1.8	-0.00673651472218834	0.00273579040736138	-0.00260667170113259	-0.00182475537934108	-0.00261774464403742	-0.00183040918814813	-0.00374940942823038	0.0121375666914655
1.9	-0.00515197115231911	0.00491450606339703	-0.00283241656493317	-0.00145039292911128	-0.00284494231264282	-0.00144415623239974	-0.00270582972025915	0.013476344410209
2	-0.00132312686823546	0.00558038473338442	-0.00301429234422986	-0.00103990750115642	-0.00302399700211584	-0.00103512335080403	0.000534578728748324	0.0136630304835041
2.1	-0.000536011040996739	0.00373013022955615	-0.00312850754883084	-0.000598712817370911	-0.0031243951981414	-0.000600746730654981	0.000750727952894341	0.0114705352774347
2.2	-0.000116649263059733	0.00386175364820876	-0.00318129499630111	-0.000153496952716269	-0.00319271703844599	-0.000156287822748914	0.000654925510375955	0.0114708228998769
2.3	0.000668918068353783	0.00380493337021146	-0.00317305003294181	0.00029493778574333	-0.0031727903600535	0.000287993068404068	0.000910970241263198	0.0115242399752148
2.4	0.00126466919596348	0.00415625016989364	-0.00309832654531286	0.00073897477801371	-0.00310092201169908	0.000734696427212569	0.00107177460531042	0.0123024682664786
2.5	0.00407276052812553	0.00466209307331908	-0.00295355476976257	0.00116247751615418	-0.00296447960016213	0.00116902652030197	0.00379650411995433	0.0135115083700365
2.6	0.00569148206948768	0.00165895063494648	-0.00276603732098277	0.00156472702262784	-0.00276258694552486	0.0015522851514092	0.00560935658828579	0.0111508560751624
2.7	0.00580851321602067	-0.000245308753779331	-0.00251376712505608	0.00193461247437661	-0.00251907984296373	0.00193467827007198	0.00583264218631017	0.00988694250105516
2.8	0.00570942688861636	-0.0019407598463571	-0.00222384163970185	0.00226223607417424	-0.00221587267579385	0.00227199930898292	0.00578588515992444	0.00913471798750806
2.9	0.0056048589580676	-0.00298048149442915	-0.00187917089175159	0.00256211313054002	-0.00187544653050181	0.00256163726553665	0.00606224574350468	0.00947186907841127
3	0.00698437645169606	-0.0048894471354399	-0.0014804696485117	0.00278658851161917	-0.00149520468385947	0.00279290132921137	0.00847929951012432	0.00907373042166652
3.1	0.00551495103618931	-0.00827620871456898	-0.00109181892290985	0.00295558272760362	-0.0010870559791497	0.00296388911792988	0.00832719831412251	0.00689863437549185
3.2	0.00363210805399499	-0.00973646131713016	-0.000667186884136694	0.00308876487434567	-0.000668942639706668	0.00308817390197773	0.00803190572486978	0.00675406999251502
3.3	0.0016899345533833	-0.0110393615929098	-0.000224088384289759	0.00315077055021604	-0.000222485444696334	0.00314700391864785	0.00819725421834706	0.0065491586218368
3.4	-0.000571496811605526	-0.0113790195070954	0.000224158385992602	0.00313261646929723	0.00021817584875018	0.003149254784361	0.00852534159429392	0.00674634165641191
3.5	-0.00104599732061813	-0.0120192961033305	0.000636769757494863	0.00308196254501474	0.000642357204000944	0.00308197769646772	0.0107749135536086	0.00606624013030345
3.6	-0.00439375476743145	-0.0141617873666444	0.00106649045838995	0.00296259446225307	0.00107467921672108	0.00296218454882885	0.0102299124760504	0.00336191630442468
3.7	-0.00814989787555383	-0.0134560067708962	0.00147662360350163	0.00277265652426227	0.00146721443217168	0.00278643882701893	0.00921481675139307	0.00299489223343727
3.8	-0.0111412617978197	-0.0117686377588118	0.0018492118947174	0.00253754111512666	0.00185172391617798	0.00254664165231493	0.00881068624719095	0.00315059449206453
3.9	-0.0131690649012121	-0.00901566875893374	0.00218632534950341	0.00226107114076405	0.00217906190098316	0.0022593785089826	0.00905766495579058	0.00403451287808639
4	-0.0124444186653262	-0.00706435682850224	0.00247098152274489	0.00194212797531858	0.00247539936183028	0.001939647307271	0.01207965926071	0.00387328468857915
4.1	-0.0142303998761081	-0.00737635095827623	0.00271951371906345	0.00157059048009673	0.00271827387498665	0.00157134159348124	0.0123575132775538	0.000799784430558637
4.2	-0.0164060478586711	-0.00533411419351445	0.00290720353060519	0.00116562276321438	0.00291153472860813	0.00115688270264593	0.0117389326175285	-0.000259858472209986
4.3	-0.0178173402983459	-0.00271975247438726	0.00304095963511192	0.00075430636414494	0.00304725106008996	0.0007464598382104	0.011395200093686	-0.00100035928647501
4.4	-0.0186989331840387	0.000795114913820183	0.00311207743216212	0.00032208137673121	0.00311441260928833	0.000319805502597561	0.0110911698873017	-0.000972381923968258
4.5	-0.0166601567203031	0.00404400969596537	0.00312681415630293	-0.000123076617174266	0.00313209458425065	-0.000126514478163535	0.0133456213754702	-0.0013687424559322
4.6	-0.0166241139962509	0.00439703640868923	0.00306430177164075	-0.000558487421233259	0.00306570768426816	-0.000545710651875163	0.0129858761674644	-0.00485556583589358
4.7	-0.0168908827724831	0.0068982421434431	0.00295246139631921	-0.000966357869425554	0.00296746680486613	-0.000976076736800955	0.0115026905266552	-0.00617923953327398
4.8	-0.0163027889867162	0.00964393914070346	0.00278700500425197	-0.00137188128020262	0.00279531746370155	-0.00137801164060227	0.0102387913484475	-0.00691915516384953
4.9	-0.0148482453459723	0.0128568610664827	0.0025605678329172	-0.00174933518852512	0.00256472455074604	-0.00174651814514921	0.00914606519041766	-0.00663779543890782
5	-0.0106231097295309	0.0147482988507812	0.0022905208101517	-0.00208742998409101	0.00229412021287256	-0.00208485300994434	0.0107274542508712	-0.00689722182513717
5.1	-0.00915492819751117	0.014365481550297	0.00198915414542537	-0.00238084136215846	0.00199143051949897	-0.00237952554766181	0.00931971668705612	-0.00925068663898983
5.2	-0.00723789096178529	0.0159326356576986	0.00163756596469503	-0.00262341708681478	0.00163921069540925	-0.00262849451239398	0.00798123632515631	-0.00899981564395608
5.3	-0.00425755823221812	0.0169402991458863	0.00125512890787419	-0.00282975699528391	0.00125822684297228	-0.00282775220196804	0.00765849830120808	-0.0084972281588608
5.4	-0.000843526407643122	0.0176562072200751	0.000837059529226196	-0.00296470125101904	0.000853835330815274	-0.00297582424299592	0.00804273496046162	-0.0077941587935614
5.5	0.0047837583790213	0.0159772553705901	0.00044383972941735	-0.00305375673611748	0.000453680136005649	-0.00306303189844336	0.0110389690570354	-0.00928467056969062
5.6	0.00523142201735592	0.0117717682505462	1.48650934194131E-05	-0.00309644430484978	6.47065076770143E-06	-0.00309959349116332	0.00857833328877215	-0.0132092216165302
5.7	0.005192560402144	0.010731682187404	-0.000409302084228083	-0.00306421802347781	-0.000425647768968866	-0.00306778195534756	0.00560295979769574	-0.0131649662782553
5.8	0.00569495762147121	0.00989747183249892	-0.000843747018243208	-0.00296831177469366	-0.000847237081122536	-0.00298205423817927	0.00357960824689995	-0.0124465989997082
5.9	0.00606350068044707	0.0100977252850946	-0.00123408349015402	-0.00283269202551028	-0.0012421695470877	-0.00283262252306941	0.0018177172511294	-0.0102839421001452
6	0.0102366645391107	0.010342088913264	-0.0016283524118223	-0.00264153375523111	-0.00162484110176611	-0.0026416896041391	0.00450449966952535	-0.00757090670335393
6.1	0.0119834884028473	0.00514530219153269	-0.00198281133392604	-0.00238486746669697	-0.00198442652220293	-0.00238092308125173	0.00567566634659887	-0.0102455577998941
6.2	0.0112700193216524	0.00165789705361468	-0.00228532092457655	-0.0020760041067265	-0.00228895594690077	-0.00208768548025736	0.0050517356974976	-0.0114637337763108
6.3	0.00982347594696494	-0.00146564356086385	-0.00255571417412487	-0.00175135980416333	-0.00256470832991299	-0.00174574026522912	0.00411576707601637	-0.0126921931573381
6.4	0.00782901814168756	-0.00304145196186126	-0.00278169337705984	-0.00137300810981794	-0.00277209548508706	-0.00137779934925837	0.00303044340621378	-0.0125814246089641
6.5	0.00798343274005732	-0.00594307347217026	-0.00294024941921548	-0.000967417471748515	-0.00294800006459603	-0.000963013818638573	0.0046200676061004	-0.0142412191157034
6.6	0.00321426970370508	-0.0088060201687674	-0.00303647997107444	-0.000553217878763188	-0.00303807024069712	-0.000557128509924477	0.00131600642342018	-0.0166665338891261
6.7	-9.74949275033635E-05	-0.0082938422809488	-0.00308879067665092	-0.000131554385969593	-0.00309752659610445	-0.000125438843607712	-0.000910519164331591	-0.0159687089783851
6.8	-0.00283519943072776	-0.00765479540340434	-0.00307410774229657	0.000299007112677598	-0.00308505425719518	0.000303892634311848	-0.00259779238628047	-0.0152658347709959
6.9	-0.00526837425110413	-0.00538648243925714	-0.00300468585788958	0.000727698388002926	-0.00300764150659092	0.000730031190923263	-0.00386041697833401	-0.0131094662585228
7	-0.00341702664386021	-0.00439134296784703	-0.00286408038474304	0.00113624872062389	-0.0028766464199844	0.00113399870090803	-0.000585865356806995	-0.012723606360519
7.1	-0.00704912928515329	-0.0065864470954451	-0.0027036348049355	0.00150826713502739	-0.00270014150383076	0.00151682202099476	-0.00311253355658473	-0.0163260749003796
7.2	-0.0106974621883696	-0.00423450497025748	-0.00246315077307029	0.00187430821791453	-0.00246960371181559	0.00187626893765005	-0.00620391419301214	-0.0155349709937025
7.3	-0.0131684689359259	-0.00118822793620872	-0.00217921783330578	0.00219288250546749	-0.00219032882388517	0.00219770790858354	-0.00832445033517156	-0.0141998277580986
7.4	-0.0152501030547084	0.00349429353067043	-0.00184790788579612	0.00247235971691858	-0.00185487878727254	0.00248564969000727	-0.0105351431344352	-0.0112565086438761
7.5	-0.0121813321484183	0.00872088563357308	-0.00150768437673753	0.00270900894682745	-0.0015009410888239	0.00271643216382896	-0.00743741434951388	-0.0078263627053971
7.6	-0.011307279759093	0.00868626529442206	-0.00111646662028229	0.0029066844644465	-0.00111773457407482	0.00290200818266692	-0.00680250014045977	-0.0103946145631144
7.7	-0.0111292787198527	0.0112156853352605	-0.000693821073884712	0.00303889751085093	-0.000695128573524788	0.00303781989758326	-0.00796957186192843	-0.0105523910158857
7.8	-0.00955893280160799	0.013716683778228	-0.000275290867671134	0.00309758578117901	-0.000283158987580253	0.00310383265943373	-0.00859357576851682	-0.0101787955771652
7.9	-0.00656913961751878	0.0162968198483927	0.000155037523828461	0.00311798562435479	0.00016288718467761	0.00311964866350269	-0.00803084916217517	-0.00901377165582025
8	-0.000730774948859816	0.0154913410955788	0.000598286312310553	0.0030734232910048	0.000598258429655349	0.00307831571909721	-0.0053847848215411	-0.0106671115976077
8.1	-0.000481839377370165	0.0128709439575765	0.00102045066902976	0.00296245591284092	0.00103954640065877	0.00296390561700444	-0.00858460219145989	-0.0140163286055168
8.2	0.000680056238825963	0.0134509338251637	0.00142645268197912	0.00278960361806984	0.00143582228712633	0.00278260243594755	-0.0110591190758966	-0.0129817029611482
8.3	0.00259297579569782	0.0134886605734955	0.0018065603761425	0.0025633348739099	0.00180464051956143	0.00257684204539762	-0.0125450951056608	-0.0117722776786777
8.4	0.00468735289994604	0.0142030814197393	0.00215379936057956	0.00230047800533243	0.00215076646187836	0.00230018986198475	-0.0136044019269828	-0.00937331384381725
8.5	0.0107952226196371	0.0127844029208049	0.00245878585911951	0.00196715170733891	0.00245783273788913	0.00197033235106263	-0.0101810788365594	-0.00839021780535018
8.6	0.0110479160454473	0.00697853915106987	0.00270325070471528	0.00160857095256927	0.0027128765864681	0.00160218978880867	-0.0120535117187034	-0.0119092300322467
8.7	0.0101671957524941	0.00496965079614267	0.00289930795116924	0.00121501847026417	0.00290486922776513	0.00121585003522971	-0.0151051091016253	-0.0112672696766077
8.8	0.00974561152979907	0.00334906709861599	0.00305100661201697	0.000806982936610374	0.0030569706634422	0.000798289789734448	-0.017463987797434	-0.00971100732963613
8.9	0.00929815222160727	0.00276398532176954	0.00314272711538982	0.000366193792492145	0.00314188854243167	0.000363917363657359	-0.0192000156068744	-0.00623064431243089
9	0.0125120961344864	0.00138079716086816	0.00314954794688617	-8.02229778026169E-05	0.00315264642729051	-7.60565800789526E-05	-0.0157599898518676	-0.00299627451494781
9.1	0.0115993375732341	-0.00387857361632047	0.00312106426073109	-0.00051396055403904	0.00312370339674725	-0.000500931037770498	-0.0155162093062583	-0.00425722831774761
9.2	0.00982265351456673	-0.0065285478536179	0.0030275720380865	-0.000941736771013577	0.00303535208371687	-0.000944489406656485	-0.015409169421088	-0.00308017821827154
9.3	0.00785220935703131	-0.00924458446762387	0.00286686842033527	-0.00136001071463885	0.00286621979356987	-0.0013650637785043	-0.0145802729524541	-0.00242116755383436
9.4	0.00512865955052589	-0.0105912120580388	0.00264540776569334	-0.00175880319080425	0.00265184792314321	-0.00175102612592956	-0.0138448724214871	-0.00117623123340113
9.5	0.00458559803450476	-0.0136582848521661	0.00238590351668416	-0.00209419926024656	0.0023934210024581	-0.00209540255772985	-0.0103747362836642	-0.00272656219857538
9.6	-0.00227090468533623	-0.0169687905590376	0.00207740976330836	-0.00242496309406759	0.00207772587497252	-0.00242395950354184	-0.0134885378280508	-0.0056747711333537
9.7	-0.00825558946563367	-0.0154999484937871	0.00170424531141802	-0.00269305365316287	0.00170999304554571	-0.00270038635424573	-0.015987155778374	-0.00440366138390134
9.8	-0.0131786582572857	-0.0129038939183409	0.00131422389720782	-0.00291400918504766	0.00131988081933762	-0.00290527968639555	-0.0175905703257637	-0.00252634496328689
9.9	-0.0172970295754323	-0.00821276413709611	0.000908453462818655	-0.00306463253283148	0.000900972841078749	-0.00306350956440832	-0.0186726526091675	0.000937584293129773
10	-0.0165780658095225	-0.00411001811873648	0.000469843240198298	-0.00318217266939867	0.000462372348440541	-0.00319502375227415	-0.0148196376519586	0.00333945397043805
10.1	-0.0195906638997714	-0.00289339589003055	1.33581594455874E-06	-0.00321978025101169	-9.18628929200257E-06	-0.00321437093725841	-0.0151296897456919	0.00155924581799966
10.2	-0.0219950616144944	0.00182788339472904	-0.000457964866983731	-0.00318438999661095	-0.00046147407169433	-0.00318158210495865	-0.0158402574168973	0.00284989167075278
10.3	-0.0229000368033643	0.00702525958263703	-0.00090340774426233	-0.00308332283321719	-0.000895045015629972	-0.0030925316296587	-0.0158482210718227	0.00438497397115466
10.4	-0.022412895434024	0.0135257517040343	-0.00131986190387584	-0.00293584982122034	-0.00131807298394415	-0.00294219587315798	-0.0151196857007691	0.00709066330003648
10.5	-0.0169914172021063	0.0181175928050281	-0.00174270872757689	-0.00272424055578035	-0.00173953298215922	-0.00271088766060051	-0.0100195618804554	0.00781246655681828
10.6	-0.0150279382458003	0.0196812670821601	-0.00209834003942364	-0.00243670384943219	-0.00209610207219926	-0.0024406135969913	-0.00935474095211713	0.00502880983551645
10.7	-0.0122321987185543	0.0228843828754602	-0.00242186093206796	-0.00212852824923572	-0.00241828640521717	-0.00212312313263039	-0.00907159949389306	0.0042891169253466
10.8	-0.00905139098525156	0.0253821266481158	-0.00270264550701192	-0.00175735216353476	-0.00269733251459895	-0.00176650153471397	-0.00952138477537726	0.00344803503667399
10.9	-0.00522185776646879	0.0288308433058847	-0.00292025915799235	-0.00136275208435232	-0.00292556837495704	-0.0013619762707017	-0.010068617116527	0.00467640474681983
11	0.0030463781225596	0.0297630308904279	-0.00306525991877086	-0.000927262665902559	-0.00307023591825892	-0.000934098035869962	-0.00637477783569409	0.00442803152646633
11.1	0.00611443612969701	0.027279357214632	-0.00317669962475567	-0.000503387448319404	-0.00316561150116752	-0.000500506574082167	-0.00825006798604217	0.00100313144501233
11.2	0.00976849854103888	0.0272956244169592	-0.00320974785468217	-5.06104245541463E-05	-0.00321708075938964	-5.55130377834759E-05	-0.0100863090269361	0.00146282356571448
11.3	0.014160330170047	0.0266670496929247	-0.00317744983254617	0.000415179941374165	-0.00318931266842873	0.00040502215257045	-0.0112924480058341	0.00268403028982977
11.4	0.0186278268962863	0.0259448438284207	-0.00308894710816254	0.000853486057498018	-0.00308387391857237	0.000861143259005776	-0.0115128287902669	0.00518065513515463
11.5	0.0265238227466946	0.0222037865778701	-0.0029449239129868	0.00126327482338041	-0.00294770085794404	0.0012737521365042	-0.00700671156218499	0.00511750962983823
11.6	0.0283337029357691	0.0147806546873384	-0.00274988120088531	0.00167465300914195	-0.00274983736256492	0.00167765743195683	-0.00862944287351652	0.00191757032454976
11.7	0.0292861518840733	0.0104072119056357	-0.00247114158830989	0.00204017690051573	-0.0024716193965274	0.00204896645852185	-0.0101964218041513	0.00258960325209111
11.8	0.0301892796563623	0.00624409833486072	-0.00215947090885303	0.00237423961666421	-0.00216364254863097	0.00237602158542973	-0.0107632946452661	0.00416157497654984
11.9	0.0316072231333864	0.00336193189925824	-0.00180204347240712	0.00264732092255132	-0.00181525265249256	0.00265185301875118	-0.00974089127933031	0.00762391093785306
12	0.036795940366496	-0.00344513367422417	-0.00141998630430376	0.00288639917584394	-0.00141935789964453	0.00288783513151441	-0.00298942866523348	0.00731678150686586
