# GHZ S RI R 50
0.2	0.00587786868543256	0.000614122326758991	0.00305169538015453	-0.000897137051279486	0.00306207013310494	-0.000890316160830204	-0.0141433047609629	0.00421207985296947
0.3	0.00626859791058301	-0.00111091517507111	0.00290835501031779	-0.00132095760114226	0.00290109190498929	-0.00130800877457657	-0.0132722628916267	0.00463706252164821
0.4	0.00601239522494286	-0.00254228103195947	0.00267762393046358	-0.00169362352183662	0.00268290516836342	-0.00170219266654196	-0.0127455145080831	0.00540662247029728
0.5	0.00571355564038878	-0.00394002244513387	0.00241890123911619	-0.00205228826530482	0.00243046459821764	-0.00206454422696483	-0.0117376327560762	0.00599827976996648
0.6	0.00434719720005622	-0.0054522334663838	0.00210545796832744	-0.00236735694390916	0.00210467283747359	-0.00237451827276769	-0.011574011634564	0.00598285485654446
0.7	0.00269751407476103	-0.00593474730502746	0.00175827864972163	-0.00264590243225359	0.00175631933761897	-0.0026461024602287	-0.0116469825170303	0.0066936364162536
0.8	0.00121854391144882	-0.00605221030308084	0.00137237336776829	-0.00286451080314686	0.00135975067870169	-0.00286907331518874	-0.0115414967164043	0.00761574341889993
0.9	-0.000357588166787309	-0.00571731431778382	0.000953997124456261	-0.00302923633390433	0.000955035525167499	-0.00303995788750992	-0.0114128049989934	0.0087436095918726
1	-0.00125646896307287	-0.0048544516027463	0.000527505988845303	-0.00313219161423519	0.000517626061100325	-0.00313293211257516	-0.0104379998355301	0.0102850171256669
1.1	-0.00223439420607585	-0.00507296685165095	7.20433205409088E-05	-0.00316133623392061	6.85332056350004E-05	-0.00317902171069024	-0.00937252699565017	0.0104550298578634
1.2	-0.00399594976814157	-0.00491304401675835	-0.000371454097143243	-0.00315166186714093	-0.000372267841817442	-0.00314958088686809	-0.00879359019713836	0.0108918253269605
1.3	-0.00582475297885465	-0.00460182508133761	-0.000800307662988341	-0.00306845507573081	-0.000803555573940231	-0.00307046445569474	-0.00762361358970808	0.0112847105949442
1.4	-0.00734065600135561	-0.00378651460485221	-0.00122296821223928	-0.00291931491203622	-0.00122175432789925	-0.00292486088777067	-0.00625625912347173	0.0112546682171206
1.5	-0.00750147162846619	-0.00253090638754776	-0.00162380531746584	-0.00272341542144246	-0.0016221898884755	-0.00273193491280073	-0.0045263995551327	0.0107987037919963
1.6	-0.00770867683302877	-0.000997313831967527	-0.00198688417478429	-0.00247145715000356	-0.00198709699232538	-0.00247670626635618	-0.00435259584567269	0.0105055971971576
1.7	-0.00698447503892204	0.000956577624035461	-0.00231725093425795	-0.00217283676009611	-0.00231821517521246	-0.0021665564233366	-0.00380604506531444	0.0111506637601691
1.8	-0.00582242803965519	0.00260745921580919	-0.00258912580386263	-0.00181945901089897	-0.00260012798635144	-0.00182510179918167	-0.00299096241490217	0.0116528642923148
1.9	-0.00436731753858395	0.00392568606822457	-0.00281481430218016	-0.00144744801812036	-0.00282728368203995	-0.00144126592075911	-0.00208147076624066	0.0122109374708053
2	-0.00230173147377898	0.00455038451654901	-0.00299252500694589	-0.00103857665381549	-0.00300217448028308	-0.00103384180507944	-0.000515497499509755	0.0124005359203193
2.1	-0.00110485241155972	0.00428184916190108	-0.00310623345800383	-0.000605861078615591	-0.003102140460611	-0.000607867411159579	0.00016410369214036	0.0117068846632621
2.2	4.92647265104566E-05	0.00442012095322404	-0.0031620342316135	-0.000165053553526312	-0.00317337835027091	-0.000167872778911806	0.000762598557766865	0.0116501221164517
2.3	0.00133771993133941	0.00416645508713812	-0.00315598734808619	0.000280227538221817	-0.00315570069213443	0.000273323877222169	0.00144759067153546	0.0114915120565998
2.4	0.00249152562283237	0.00373998292362571	-0.00308241857388022	0.000720587886205971	-0.00308497888952811	0.000716324483163905	0.00208911374347838	0.0115582325638173
2.5	0.00405238278606416	0.00298880942634945	-0.00294243127406701	0.00113636078340427	-0.00295332929372241	0.001142799072871	0.00358689128732089	0.0116532985540601
2.6	0.004946614523074	0.00114726693348083	-0.00276387535342289	0.00153911645763904	-0.00276035760837392	0.00152675436840121	0.00480139833612502	0.0104669674849832
2.7	0.00529489183395513	-0.000371252185042546	-0.00251550327779415	0.00190987283632437	-0.00252079345718035	0.00190990373719583	0.00531869955648484	0.00952869186619002
2.8	0.0055335023491564	-0.00191138379612468	-0.00222992790032153	0.00223713633664015	-0.00222206069533443	0.00224691271867656	0.00561836022608997	0.00886578483340759
2.9	0.00566450149279392	-0.00343076472792441	-0.00189190992276391	0.002536706773087	-0.00188819695506799	0.00253626250106477	0.00611920457069952	0.00868907820492178
3	0.00585727667761927	-0.00532601252661592	-0.00150162939330551	0.00276816078538724	-0.00151638947610051	0.0027743332741698	0.00740350359811197	0.00829999797241778
3.1	0.00495951051988352	-0.007478261450721	-0.0011116684454241	0.00294222914365476	-0.00110697532502604	0.00295055578597159	0.00785231929910386	0.00725560514155731
3.2	0.00368404599683153	-0.0090321207447501	-0.000689909216962691	0.00307753740130841	-0.000691656943560313	0.0030769339266636	0.0080681036227066	0.00689696786813206
3.3	0.00215275949718996	-0.0104819458088929	-0.000250222760153285	0.00314439314110668	-0.000248590482894957	0.00314064534269115	0.00853296566465329	0.00653255488681749
3.4	0.000235403406485183	-0.0114732148074143	0.000196691287704075	0.0031342131097867	0.000190563704219612	0.0031507970706505	0.00911949111321679	0.00614989244754055
3.5	-0.00147085008572245	-0.0123956021713498	0.000615485503511837	0.00308879349557366	0.000621077073987065	0.00308884812000415	0.0101929635566567	0.00525745055602697
3.6	-0.00422784348535735	-0.0132657938535768	0.00104415535286106	0.00296919840665526	0.00105234362341025	0.00296884913915703	0.0102349986142768	0.00373641692139469
3.7	-0.00704258740025741	-0.0129559502864535	0.00145436644729762	0.00278520744461884	0.00144484335768932	0.00279891593548045	0.0100511449735605	0.00298201667317163
3.8	-0.00961004404039461	-0.0120680146011586	0.00183057788344844	0.00255538882342257	0.00183301855039818	0.00256451981651661	0.00998278430918936	0.00243803944844832
3.9	-0.0117805287129162	-0.0106206909171281	0.00217357928258754	0.00228101091760519	0.00216631558207585	0.00227926216996094	0.010081262330454	0.00218391221704277
4	-0.0131835839899441	-0.00916339965867985	0.00245805515660595	0.00196001398010293	0.00246249165046141	0.00195756360505296	0.0111154603247703	0.00167449800153467
4.1	-0.0151668801684327	-0.00782955998184786	0.00270836065137739	0.00159619537807883	0.00270711292757455	0.00159693628835897	0.0113738353697029	0.00023200135507437
4.2	-0.0168502383058662	-0.00551324805282093	0.0029034484859975	0.00119370555401707	0.00290786594958166	0.00118498403302975	0.0113153722652219	-0.000622970684948107
4.3	-0.0179464588722482	-0.00295689682282288	0.00304301970827225	0.0007818606557679	0.00304939420389873	0.000774045215629413	0.0113062172473366	-0.00144767946531627
4.4	-0.0186181414041944	-6.74631654422403E-05	0.00311710443143284	0.000348405026601323	0.00311946403336599	0.000346142700592858	0.0112213162839159	-0.00199616327458599
4.5	-0.0182598791478445	0.00273134965415492	0.0031365177874427	-9.13542395671763E-05	0.00314184771512134	-9.47472497083967E-05	0.011992184570558	-0.00271097087157032
4.6	-0.0183245882258899	0.00494856636798945	0.00308652729994823	-0.000531153293431284	0.00308781421595463	-0.000518293000461697	0.011804071739915	-0.00453418751679699
4.7	-0.0178827424165165	0.00789179520108498	0.00297907689385791	-0.000946047449947908	0.00299426025508291	-0.000955692460455292	0.0110661599083098	-0.00564327728253314
4.8	-0.0167208613926309	0.0107712944791261	0.00281649846744809	-0.00135691816753224	0.00282491625197316	-0.00136301692832354	0.010328783110965	-0.00640503131278959
4.9	-0.014708933562754	0.0134882458890553	0.0025938522672539	-0.00173823464766566	0.00259801204773282	-0.00173536087347613	0.00973519181164873	-0.00668225061592425
5	-0.0116505143452136	0.0152742006965812	0.00233135645942954	-0.00208717498906167	0.00233496768901953	-0.00208454089340989	0.0102492564899274	-0.00714469160758705
5.1	-0.00903999518362551	0.0161800880506504	0.00202383737782479	-0.00239204570622792	0.00202612813550224	-0.00239070255526342	0.00986883442350539	-0.00846690739959262
5.2	-0.00609025875319158	0.0170102142163843	0.00166853330984914	-0.00263908555937016	0.00167022333849349	-0.00264420217085259	0.00934530446476458	-0.00900961916243594
5.3	-0.00292063819627586	0.0171202964815916	0.00128380344138026	-0.00285116457315548	0.00128692124080977	-0.00284912203199088	0.0090651163140381	-0.00934016563634521
5.4	0.000163089126266559	0.0167334669763216	0.000862003022107725	-0.00299447687856965	0.000879029239760978	-0.00300564114294871	0.00908658477270337	-0.00963324115495332
5.5	0.00345027455088508	0.0153414919124183	0.000455402108455953	-0.00308983822151756	0.000465380475003519	-0.00309920576689497	0.00985403534815182	-0.0108052188240883
5.6	0.00508632592257423	0.0133310807997668	2.03910157688492E-05	-0.00312785040914195	1.19168280762692E-05	-0.0031310461346734	0.00861808479143293	-0.0127165490686542
5.7	0.00660476513000509	0.0119084398259219	-0.000407792901630987	-0.00309686558662495	-0.000424301923993506	-0.00310049735910401	0.00701681208052835	-0.0131757279940433
5.8	0.00805182165308635	0.010132014809874	-0.000849352892145832	-0.0030019484913925	-0.000852864338410454	-0.00301584617077615	0.00569616693195921	-0.0133740843344735
5.9	0.00908947913089187	0.00826383203998584	-0.00124915008709971	-0.00286390341053639	-0.00125732674439065	-0.00286382960433677	0.00437697978653459	-0.0130377213542285
6	0.0104284399439082	0.00588753049721091	-0.00164582777226137	-0.00266261386398434	-0.00164228597230414	-0.00266277539088452	0.00436056774951491	-0.0124931505956693
6.1	0.00999942266514822	0.00235578481691818	-0.00199993017795517	-0.00240805426572103	-0.00200156246292228	-0.0024040741518588	0.00373519644214192	-0.0134788409757161
6.2	0.00857324741265534	-4.98217685588273E-05	-0.00230924488531655	-0.00209715678640165	-0.00231291912707303	-0.00210895846617031	0.00257492965205809	-0.0137368962709696
6.3	0.00707687745683886	-0.00190097448429363	-0.0025847692344989	-0.00176655971096035	-0.00259385086423863	-0.00176086983485521	0.00163313497258761	-0.0138444636302883
6.4	0.00561365189429436	-0.00328350894298029	-0.00281116268480106	-0.00138022979471381	-0.0028014832867659	-0.0013850871051919	0.00106689042321162	-0.0135926085935542
6.5	0.00453254732191373	-0.00514299055730913	-0.00296812398299997	-0.000975603019384742	-0.00297594600318878	-0.000971155711309577	0.00157752215555659	-0.0143115509376023
6.6	0.00192857777836138	-0.00644350741200439	-0.00307305570839583	-0.000554850973332342	-0.00307467093977566	-0.000558805017180621	0.000338295459152679	-0.0155017722015185
6.7	-0.000231093072708225	-0.00661408176306927	-0.00312469553072065	-0.000122466050769003	-0.0031335107382157	-0.000116250338560508	-0.000971030274972995	-0.0155662753828814
6.8	-0.00234748722018435	-0.00642394743944123	-0.00310570649012337	0.000315276799744417	-0.00311674927642502	0.000320261110083629	-0.00220446246248429	-0.0152623630783261
6.9	-0.00432855436916477	-0.00548503101452943	-0.00303248975007843	0.000746653775454216	-0.00303546653613189	0.000749021691834222	-0.0030800089874689	-0.014293229842718
7	-0.00528266452805673	-0.00475179822123545	-0.00289570577153157	0.00116273820907245	-0.00290844099462639	0.00116051244516842	-0.00236006720467758	-0.0140892529139458
7.1	-0.00771450500692022	-0.00401928686620318	-0.00272437791359569	0.00154652612767925	-0.00272077873900415	0.00155515627862836	-0.00362586037905662	-0.0151020727882509
7.2	-0.00948624491030082	-0.00179078042040708	-0.00247375299452543	0.00191391430444028	-0.0024802576267415	0.00191594788781148	-0.00509335984165975	-0.014642747048614
7.3	-0.0105436382136758	0.000640513687740956	-0.00218294974513461	0.00223297075316584	-0.0021941324112079	0.00223793668963598	-0.00614667295294728	-0.0139435458275706
7.4	-0.0110659416251399	0.00338840521681178	-0.00184591964065909	0.00251553325520731	-0.00185284780733923	0.00252902896904362	-0.00715582872903628	-0.0128138739703241
7.5	-0.0101157754480424	0.00575224299029193	-0.00148906374167262	0.00275544420682217	-0.00148215887164596	0.00276285838715194	-0.00626372410727338	-0.0117368898848234
7.6	-0.010047841657947	0.00681623569697758	-0.00108753107311593	0.00294080709274317	-0.00108886671476089	0.00293611453582949	-0.00626675910001672	-0.0129270329357175
7.7	-0.0098587640498387	0.00883565902284995	-0.000661285727448565	0.00306641845743839	-0.000662614527117431	0.00306534994662665	-0.0072928571364353	-0.0134921501812108
7.8	-0.00880140003727984	0.0108561886378498	-0.000238023563207316	0.00311958433288097	-0.000245860296771202	0.00312596744803491	-0.0082908919507792	-0.0134954517527214
7.9	-0.00687180224827712	0.0126946212861761	0.000199949547497058	0.00313223094773383	0.000207864110151328	0.00313379174412021	-0.00879068453299246	-0.0129559291664118
8	-0.00397015315948807	0.0131678824876391	0.000642986708755661	0.00306940076460095	0.000643028544527096	0.00307430076664785	-0.00836175837901071	-0.0134852504235795
8.1	-0.00233005192113044	0.0135008272633557	0.00105734321346713	0.00295452170770687	0.00107648378730255	0.00295574516943365	-0.0101563176563052	-0.0142653130634811
8.2	3.30460204114533E-05	0.0139914405938566	0.00146330518969153	0.00277723766652457	0.00147260614456336	0.0027701086370143	-0.0116310439121261	-0.0135730218988855
8.3	0.00254660041780486	0.0137933578215866	0.00184233008967791	0.00254279805929004	0.00184058478498893	0.00255634682387133	-0.012736352507893	-0.012624605826424
8.4	0.00502290734686872	0.0133584171823708	0.00218324027100544	0.00226944520410902	0.00218020590513056	0.0022691983883372	-0.0135243871877202	-0.011179692441848
8.5	0.00815165045651798	0.0117323050056031	0.00247543545559533	0.00193729309259731	0.00247451810184966	0.00194047823259217	-0.012758656090036	-0.0103123661039787
8.6	0.00932576140399942	0.00923671895296851	0.0027220782079693	0.00157748684480699	0.00273163124074723	0.0015709939002671	-0.0136702893503335	-0.0108931249932445
8.7	0.0104321326356194	0.00740148960670863	0.00291187118721432	0.00117680079997667	0.00291743743874504	0.00117756057667484	-0.0149909064464412	-0.0102430259011847
8.8	0.0114511485136451	0.00518146279305472	0.00305349431361115	0.000765874783514386	0.00305933182327131	0.00075712766093219	-0.0162053194951815	-0.00925852218355437
8.9	0.0121942154738322	0.00268720589094691	0.0031350861944162	0.000329088655250913	0.00313422489032382	0.000326830310905655	-0.0170011237019354	-0.00742881720950652
9	0.013015590870601	-0.000696919904140526	0.00314440368931328	-0.000114998494177026	0.00314754412844483	-0.000110872044238266	-0.0158909017285195	-0.0058035989713071
9.1	0.0117763047810691	-0.00470742795656389	0.00310386183774844	-0.000555248845128854	0.00310667173866751	-0.000542297936293333	-0.0157138046030764	-0.00567710665497056
9.2	0.0097716921001154	-0.00772969718824806	0.00299894510108473	-0.000976422266276751	0.00300664721635998	-0.000979262247537871	-0.0156452118376315	-0.00484380776360693
9.3	0.00719590463409924	-0.0102493431660218	0.00283271700303022	-0.00138586347805524	0.0028320119118108	-0.00139087728369607	-0.0152350273944121	-0.00400868574056236
9.4	0.00420942419028202	-0.0118919962369907	0.00261107087592148	-0.00177893180342493	0.00261756323467668	-0.0017712699785228	-0.0145693141516097	-0.00304808267684754
9.5	0.00126734719955772	-0.0134749575120744	0.00234104190635611	-0.00211509397384639	0.00234849502790135	-0.00211639697895629	-0.0130483496668701	-0.00323209453255198
9.6	-0.00334390185596103	-0.0140398761852233	0.00202590536890737	-0.00242771890491133	0.00202623122767654	-0.00242672924242386	-0.0138166956871655	-0.00403638811931918
9.7	-0.00733097248288882	-0.0129163519777456	0.0016566885575356	-0.00268424922855208	0.00166229537979811	-0.0026915702862018	-0.0146204711265602	-0.00345327859976585
9.8	-0.010867978921762	-0.0111657195824397	0.00126992378726375	-0.00289773009979633	0.00127561421898219	-0.00288915048120663	-0.0152047576334958	-0.00250503918789167
9.9	-0.0139158184703932	-0.00853836453098541	0.000863751211105765	-0.0030417632710119	0.000856364409591496	-0.00304056737741159	-0.0155564395705057	-0.000892776803816112
10	-0.015836676908376	-0.00600752760745624	0.000429198308905843	-0.00314006301810554	0.000421701890716888	-0.00315264485024272	-0.0142281976565555	0.000199327097008171
10.1	-0.01866073148378	-0.00320902769055283	-2.18455976119099E-05	-0.00317342834880282	-3.21772815165264E-05	-0.00316802123193908	-0.0143007858293533	-0.00011875474986761
10.2	-0.0204939941801629	0.000969917939609212	-0.000473364256013654	-0.00313715068202969	-0.000476805677386126	-0.00313435772620537	-0.0146099362489923	0.000604395656859752
10.3	-0.021196454385107	0.00549800525679602	-0.000911377370668899	-0.00303222041120296	-0.000903199558155581	-0.00304135237740217	-0.0146204572529387	0.00161511588885653
10.4	-0.0207101201067751	0.0102441577602203	-0.00131572582116277	-0.00287813652948689	-0.00131400631428286	-0.00288438651602828	-0.0139980822290332	0.00296775000723725
10.5	-0.0187478019414976	0.0141261183625073	-0.00171609575110805	-0.00267358492697525	-0.00171295584788271	-0.00266047222541729	-0.0118865646711874	0.0033328540783206
10.6	-0.0174089674044642	0.017666657748201	-0.00206926519472319	-0.00239804322875624	-0.00206706470521207	-0.00240189651442879	-0.0114564434949672	0.00243453584250945
10.7	-0.0149766195615224	0.0217696585992708	-0.002386923231898	-0.00209348460909229	-0.00238339798386129	-0.00208816587863285	-0.0113276576867108	0.00240654579572311
10.8	-0.011477898533499	0.0254884827962113	-0.00265918706134767	-0.00172926012480586	-0.00265395895712019	-0.00173826240172454	-0.0113413540076234	0.00257638006795689
10.9	-0.00690072269536545	0.0287403511541847	-0.00286917590007858	-0.00134841578247553	-0.00287440093724032	-0.001347666758329	-0.0111352176765215	0.00342562384304548
11	-0.000924955050295812	0.0302620102836404	-0.0030237967383604	-0.000926977948211621	-0.00302868590067803	-0.000933746663934868	-0.00945261110768159	0.00355038733227885
11.1	0.00394933938448204	0.0307052546664863	-0.00313316589053688	-0.000501562426025417	-0.00312223146900556	-0.000498703045941573	-0.00955066640593758	0.00256759451109452
11.2	0.00958429238993024	0.0307235620701898	-0.00316293565283148	-5.91023030009595E-05	-0.00317014784990102	-6.39547189132056E-05	-0.00970722088857104	0.00270231264021902
11.3	0.015510557526578	0.0293806539051157	-0.00313390865471438	0.000394573886965269	-0.00314555489171587	0.000384506662948488	-0.00963655480749851	0.00315441948270297
11.4	0.0210704875068419	0.0268559743529859	-0.00305581298119467	0.000824966717639254	-0.00305084697032175	0.000832559007454794	-0.00915497999523544	0.00396496519024092
11.5	0.0265380172027762	0.0224606924541258	-0.00291266316131353	0.00123968972542211	-0.00291543564188413	0.0012500319381335	-0.00725554646239636	0.00361699010124443
11.6	0.0297871095194525	0.0170339520783294	-0.00271715709231138	0.00163628524949272	-0.00271712860194586	0.0016392451839901	-0.00730580470485249	0.00221804990197011
11.7	0.0324570310390818	0.0116712124263804	-0.00245052902762381	0.00199394848076882	-0.00245106186243395	0.00200261035389232	-0.00749942828342782	0.00190385387077276
11.8	0.0342736452728001	0.005709777120715	-0.0021504020428451	0.00232669549044912	-0.0021545340708829	0.00232842168151555	-0.00744354300207724	0.0019849667074475
11.9	0.0354164865463813	-0.000563017013240377	-0.00179868201213069	0.00260260315208688	-0.0018117625933282	0.00260698792773724	-0.00658760773084849	0.00278085705195263
12	0.0351609373501126	-0.00783934908013074	-0.00142144403714811	0.00283053380024686	-0.00142083689168333	0.00283195273939554	-0.00453080224149799	0.00216339316746127
