# GHZ S RI R 50
0.2	0.00580447181316614	0.000527226571641387	0.0030524837455135	-0.000896866516969087	0.00306285968318173	-0.000890042596422355	-0.0142115173224924	0.00413235283528265
0.3	0.00618985315203358	-0.0011812493347157	0.00290943195014924	-0.00132076031165417	0.00290216426726711	-0.00130780926203814	-0.0133491086125537	0.00457391471118105
0.4	0.00593391668792936	-0.00252060562268432	0.00267904770478551	-0.00169369521722533	0.00268433290692478	-0.00170226655239333	-0.0128296585025662	0.00543541683595457
0.5	0.00586181920449971	-0.00396713527483868	0.00242030912734031	-0.00205307193752264	0.00243187945820938	-0.00206533286376142	-0.011613377414393	0.00598747653708858
0.6	0.00434501475974895	-0.00571272016469439	0.00210653703250468	-0.00236822085233914	0.00210575208879909	-0.00237538531885672	-0.0116051567224818	0.00576617894299017
0.7	0.00254857223716164	-0.00616726520332307	0.0017593754018729	-0.00264700413411434	0.00175741516860906	-0.00264720444538655	-0.0118138480177961	0.00652599538510273
0.8	0.000961384154374656	-0.00625254807506374	0.00137330909839663	-0.0028660161939501	0.00136067968527649	-0.00287058200563725	-0.0117985048964314	0.00749303172986203
0.9	-0.000792136922138254	-0.00579398624500904	0.000954416849155176	-0.00303115663430559	0.000955455294154009	-0.00304188485460473	-0.0118208814860633	0.00874231438854007
1	-0.00155310533421718	-0.00454607987516172	0.000527216018325879	-0.00313373176148232	0.000517331389976522	-0.00313447091760685	-0.0107001874967728	0.0106330395259478
1.1	-0.00229523160374121	-0.00495027174670264	7.19706869747665E-05	-0.00316283358247768	6.84583153431626E-05	-0.00318052730380514	-0.00943515051745596	0.0106064848714781
1.2	-0.00408373985763766	-0.00481397816969435	-0.000371928654952629	-0.00315338162611572	-0.000372742674755964	-0.00315129942024393	-0.00890495251420937	0.0110271487199572
1.3	-0.00581932361616346	-0.00458237752848608	-0.000801294351783481	-0.00307004200535911	-0.000804544441744846	-0.00307205194847458	-0.00766198323293724	0.0113639207790872
1.4	-0.00736450685584727	-0.00390128180680803	-0.00122428661700842	-0.00292036844993607	-0.00122307358208194	-0.00292591733116026	-0.00632102661033922	0.0112340411831339
1.5	-0.00741571811330387	-0.00276684959628643	-0.0016245906806664	-0.00272433446291314	-0.00162297519247808	-0.00273285725977273	-0.00448125054649892	0.010678585237223
1.6	-0.00794216979559677	-0.00141010044472778	-0.00198832227559998	-0.00247280556336899	-0.00198853568092313	-0.00247805789227594	-0.00459613709240746	0.0102582847491841
1.7	-0.00737677800173453	0.000741559067491697	-0.00231919081207237	-0.00217364052712968	-0.00232015418528919	-0.00216735608089572	-0.00416427430153775	0.0110945947135431
1.8	-0.00625632377897614	0.00256149742434539	-0.00259108705852141	-0.00181968798755696	-0.00260209695444576	-0.00182533060275443	-0.0033685758702105	0.011741474512461
1.9	-0.0047819603782766	0.00413920448923952	-0.00281646444337926	-0.00144748372061902	-0.00282893825692442	-0.00144129587735461	-0.00243710478357895	0.012526244915734
2	-0.00226892479975291	0.00489854021434706	-0.00299479210035702	-0.00103892508219805	-0.00300444782708871	-0.00103418559966657	-0.000462603920670368	0.0128305721633711
2.1	-0.00102575440150545	0.00424944586712057	-0.0031087878072389	-0.000604943148395245	-0.00310469267586601	-0.000606952756573583	0.000239316056509563	0.0117930629805524
2.2	-9.00433808855912E-06	0.00430857630033699	-0.00316405994974692	-0.000163620878297305	-0.00317541241647301	-0.000166436334163426	0.000717779208214111	0.0116846377682606
2.3	0.00113851932502357	0.00403604331842469	-0.00315772770443692	0.000281858421727859	-0.00315744408283254	0.000274950536173008	0.00129255341737755	0.0115130343022529
2.4	0.002079939065299	0.00376002176935554	-0.00308427499027812	0.000722489239118744	-0.00308683904248202	0.000718223974178271	0.00175391075426528	0.011702130319011
2.5	0.0038453577892142	0.00342126330809863	-0.00294394224476552	0.00113971053473901	-0.00295484403674695	0.00114616308012253	0.00344220574213435	0.0121487819246713
2.6	0.00502894155518881	0.00140063322973428	-0.00276374828809065	0.00154233803382194	-0.00276024016379325	0.0015299670551451	0.00488965558084975	0.0107792482101772
2.7	0.00543238419143865	-0.000245719087186681	-0.00251496181219538	0.00191270283049515	-0.0025202541103836	0.00191273806764098	0.00543359713569893	0.00973863063052926
2.8	0.00563656212327394	-0.00191539404272099	-0.00222902130023933	0.00223997321791773	-0.00222114249916051	0.00224974725035605	0.00569174079891231	0.00897355391967677
2.9	0.00567432709589154	-0.00339212203484527	-0.00189021064600257	0.00253982195492308	-0.00188649639304771	0.0025393736915621	0.00609580040870551	0.00885175821477721
3	0.00613562706371828	-0.00525211095326896	-0.00149830995847289	0.00277018822636674	-0.00151306336182685	0.00277637931214801	0.00761938440178267	0.00850734341546583
3.1	0.00516597400324602	-0.00776780913807647	-0.00110900702677108	0.00294313963274094	-0.00110430659611717	0.00295146184453784	0.00798564391233317	0.00715604851724155
3.2	0.00370123224125509	-0.00938533687852522	-0.00068708550436092	0.00307835706816158	-0.000688833893403524	0.00307775518487359	0.00804684771992065	0.00678148843467569
3.3	0.00200234742962739	-0.0108522741741985	-0.000246909151781029	0.00314464148084662	-0.000245280830479095	0.00314089198112211	0.00838696817518736	0.00641333539791517
3.4	-0.000108864296934922	-0.0117089790334603	0.000200281951516033	0.0031331340050603	0.000194175312208254	0.00314972059044205	0.00881572398683779	0.00614582788145158
3.5	-0.00159487248808655	-0.0124543381595545	0.000617436728567691	0.0030865946963778	0.000623025188245133	0.00308664512979244	0.0100879389995299	0.00540882406541711
3.6	-0.00445730485902732	-0.0136477811326194	0.00104588210353872	0.00296781860440589	0.00105406824645202	0.00296746398908025	0.0100245974218666	0.00360659298902092
3.7	-0.00758462315229879	-0.0132677162381551	0.00145616208877629	0.00278324814486128	0.0014466526451215	0.00279696025744332	0.0095772386294234	0.00293232396632064
3.8	-0.0103644167020642	-0.0121397194740822	0.00183172661104866	0.00255284083769488	0.00183417321199859	0.00256196587997207	0.00934119956325388	0.00259714613364563
3.9	-0.012602493589879	-0.0102446356672943	0.00217349914165441	0.00227854018488005	0.00216623877836523	0.0022767962562766	0.00938391637444416	0.00272534274611002
4	-0.0134367791682458	-0.00840454812831497	0.00245819196873213	0.00195907850559824	0.00246262715395482	0.00195662734922795	0.010927855609079	0.00254455747175529
4.1	-0.0151491308609231	-0.00744622971396832	0.00270921319285294	0.00159417842137051	0.00270796609553855	0.00159492012484817	0.0113968458497897	0.000750593210912514
4.2	-0.0168740881996881	-0.00525151140046041	0.00290348352002429	0.00119132075155938	0.00290789358833974	0.00118259853740546	0.0112875880029516	-0.000192708627633264
4.3	-0.0180185153199357	-0.00271055774260826	0.00304253968761563	0.000779753866197846	0.00304890739757676	0.000771936989090661	0.0112384325139665	-0.00102297754938836
4.4	-0.0187548090630668	0.000333444242401522	0.00311689227593753	0.0003467289165118	0.00311925039469653	0.000344465641466921	0.0110981177673251	-0.00143812892313307
4.5	-0.0179224650099027	0.00339323313809922	0.00313668227783483	-9.4690849293168E-05	0.00314200904854964	-9.80897992688525E-05	0.0122827079961466	-0.00194388450157601
4.6	-0.0177090043161964	0.00509664844136199	0.00308427917497286	-0.0005345263363931	0.00308558063107103	-0.00052167431461524	0.0122834539695675	-0.00421622623651423
4.7	-0.0173340315486803	0.0077533634936032	0.00297613408689927	-0.000948326850587862	0.00299129772274172	-0.000957980214904073	0.011472994291809	-0.00553452170974699
4.8	-0.0163073754243138	0.010401782466525	0.00281335532940062	-0.00135853345359819	0.00282176187720307	-0.00136463564957102	0.0106261374437492	-0.00647738778512594
4.9	-0.0145515484660128	0.0130783856861591	0.00259032758570509	-0.00173985084053521	0.00259448770563752	-0.00173698333582518	0.00981028102868775	-0.00678550831519104
5	-0.0113044645073412	0.0149152793451924	0.00232578381997421	-0.00208746987074093	0.00232939379893493	-0.00208484364777374	0.0104775094999706	-0.00718620622675476
5.1	-0.00899629764784769	0.0153812662988962	0.00201948170674966	-0.00238992432305342	0.00202177006163652	-0.00238858450157124	0.00982669811375205	-0.00885897239199089
5.2	-0.00647360565919524	0.0163606175058516	0.00166509790567411	-0.00263662260674452	0.00166678321223534	-0.00264173365759055	0.00895961664168766	-0.00923972557740676
5.3	-0.00346612897440812	0.0167626221427329	0.00128062445211574	-0.0028482169516883	0.00128373937315037	-0.00284617870238292	0.00857059986397168	-0.00931827258291697
5.4	-0.00037994790280297	0.0167239995381788	0.000858958446411728	-0.00299025380945361	0.000875951590940232	-0.00300141011952744	0.00859602526810548	-0.00932364934696685
5.5	0.00352459672708976	0.0154309818427167	0.000455030301772321	-0.003083981669517	0.000464991442033258	-0.00309333012121815	0.00990904019040464	-0.010414251512077
5.6	0.00492988792414068	0.0127341219404256	2.14598353637994E-05	-0.00312387657151727	1.29975129491823E-05	-0.00312707121004862	0.00842039038191061	-0.0129301947542202
5.7	0.00587150285010151	0.011360039432488	-0.000406589874181519	-0.00309327120081067	-0.000423078390616354	-0.00309690247101519	0.0063097825831777	-0.0132949458257835
5.8	0.00686644937871694	0.00992660718763319	-0.000847482182022084	-0.00299837974590943	-0.000850985499401674	-0.00301226079183942	0.0046240416003501	-0.0131623857740433
5.9	0.00750954407924929	0.00884177309897208	-0.00124582402822125	-0.00286074731304678	-0.00125398967711695	-0.00286067828282795	0.00299040383276048	-0.0121387744195394
6	0.00957010616207937	0.00777038914592687	-0.00164237271229839	-0.00266225422682684	-0.00163883317200667	-0.00266241253283798	0.00363575452254931	-0.0104673123511403
6.1	0.0103093880264797	0.00415099937479681	-0.00199813891098527	-0.00240712303832531	-0.0019997712212359	-0.00240314569889365	0.00401407235708158	-0.0115481134438992
6.2	0.00964180899770412	0.0013409207792429	-0.00230676584960197	-0.00209585837503761	-0.00231043423270293	-0.00210765064018283	0.00353231911935435	-0.0121497923520723
6.3	0.00847413828102133	-0.00126997818710233	-0.00258160315467731	-0.00176591379347918	-0.00259067842255697	-0.00176023296552065	0.00289424783115971	-0.0129448262981364
6.4	0.00677139694535887	-0.00312723708092459	-0.00280831256725867	-0.0013809809318936	-0.00279863705939005	-0.00138582882135079	0.00209700177659846	-0.0131359120295242
6.5	0.00589776628230579	-0.00533284234695515	-0.00296678930242016	-0.00097528058159109	-0.00297460805338619	-0.000970835498177945	0.00275369808952702	-0.0141576607867281
6.6	0.00265064319531536	-0.00727320165339743	-0.00306957518148704	-0.000554430193287001	-0.00307118834384692	-0.000558379911185324	0.000914710428455725	-0.0158493446736126
6.7	2.61516896178299E-05	-0.00732685941300608	-0.00312106898445291	-0.000123752810844834	-0.00312987695675523	-0.0001175482263234	-0.000757334570784248	-0.0157625145987881
6.8	-0.0023514711462705	-0.00707335208015321	-0.00310298974992198	0.000313068954994984	-0.00311402525534534	0.000318041794104697	-0.00217873161739505	-0.0154170050899394
6.9	-0.00464531413452656	-0.00582807674220729	-0.00303066701423629	0.000744931611958843	-0.00303364265838955	0.000747296695715417	-0.00333014908900575	-0.0142053370614609
7	-0.00491206231982896	-0.00478763284253579	-0.00289185535360409	0.0011608599855248	-0.00290457291784487	0.00115863601161515	-0.00202809504358171	-0.0137386598558952
7.1	-0.00752056963978809	-0.00498420611463551	-0.00272186737932453	0.00154191524289349	-0.00271828096055445	0.00155053629169746	-0.00350108965567024	-0.0155432611003946
7.2	-0.00995997007245228	-0.00286986531210077	-0.00247292375640288	0.00190934695481154	-0.00247942323093022	0.00191137183729366	-0.00553479484244937	-0.0151168193713738
7.3	-0.0116364254215857	-0.000315902127907059	-0.00218273282466447	0.00222870893204883	-0.00219390852545079	0.00223365966768867	-0.00706753327806343	-0.0142949764999573
7.4	-0.0129611224672512	0.0029941217117601	-0.00184555162397102	0.00251065423590272	-0.00185248177463223	0.00252412624342142	-0.00871692662945879	-0.0126621792478841
7.5	-0.0117534021152138	0.00673922342376084	-0.00149157509495649	0.0027485254445799	-0.00148469402819804	0.00275594016498655	-0.00753855362660904	-0.0104157448312534
7.6	-0.0110732699393599	0.00788537630534693	-0.001092543379199	0.00293663221889427	-0.00109386889043809	0.00293194030094133	-0.00708187483016514	-0.0116244390271846
7.7	-0.0105572931846371	0.0101585648153646	-0.000666319433680561	0.00306375711961185	-0.000667645713662508	0.00306268681147365	-0.00779915674366968	-0.0119979398662074
7.8	-0.00906843542735651	0.0122004273411706	-0.000243245122992096	0.00311769747411889	-0.000251089054129939	0.00312406416053952	-0.0084513855559733	-0.0120171093305327
7.9	-0.00677243983119807	0.0140950407445838	0.000193502580264135	0.00313105975813551	0.000201409997467785	0.00313263580506326	-0.00859845655164802	-0.011417021093762
8	-0.00279877149866517	0.0142597346387009	0.000636317276562547	0.00307224011609616	0.000636348022024065	0.00307714241857057	-0.00742792435249685	-0.0122047899468745
8.1	-0.00141355987249745	0.0134334012959766	0.00105376413036878	0.00295776121044458	0.0010729142130954	0.00295901260335707	-0.00945837287050293	-0.0139523159080362
8.2	0.000521708931825806	0.0137317566916786	0.00146010093183223	0.00277996026946056	0.0014694139180134	0.0027728413214143	-0.0112822694540844	-0.0133272562145712
8.3	0.0027717679173207	0.0134674834895802	0.00183896858149221	0.00254608372332432	0.00183720283083543	0.00255963287394081	-0.0125564509926463	-0.0124099722553095
8.4	0.00494896855397126	0.0132574956178726	0.00218062851822264	0.00227458026611726	0.00217759275781245	0.00227432805826599	-0.0135808663680542	-0.0107992854529529
8.5	0.00882960046216839	0.0119006635520716	0.00247624347982876	0.00194158113320423	0.00247532225211974	0.00194476875560535	-0.0121826116913053	-0.00970305835110496
8.6	0.00989580038860676	0.0083099815544109	0.00272148519371225	0.00158030917334866	0.00273104661864984	0.0015738226847814	-0.0132202874932706	-0.0112047932716351
8.7	0.0102702990863398	0.00623917284930321	0.00291138659383528	0.00118077941559581	0.00291695375490644	0.00118154630371432	-0.015148344669451	-0.0107046381374225
8.8	0.0106148142139894	0.00413624067424933	0.00305438404197858	0.000770398789526768	0.00306023678391622	0.000761653946427869	-0.0168883941685789	-0.00960663652531643
8.9	0.0106564363874626	0.00228249317206919	0.00313782148008603	0.000332442120744395	0.00313696152181645	0.000330180743474606	-0.0182591508596809	-0.00725052844599345
9	0.0119507688768842	8.10186622613891E-06	0.00314507451376436	-0.000113234328161193	0.00314821321343611	-0.000109105299607809	-0.016697586590054	-0.00467811021869899
9.1	0.0111137413679999	-0.00402495940163544	0.00310568065356558	-0.000550996599975142	0.00310847297486997	-0.00053803739732159	-0.0161913186577742	-0.00462499282547328
9.2	0.00949778150920477	-0.0068044630755404	0.00300282826439963	-0.000973213119006303	0.0030105408009909	-0.00097604514265427	-0.0157900493242614	-0.00357676308920658
9.3	0.00745333793392712	-0.00945839365126227	0.0028370034503872	-0.0013845100545232	0.00283630255918269	-0.00138952972951586	-0.0149123434270748	-0.00288771080195177
9.4	0.00469285037654909	-0.0112863969805782	0.00261381300918142	-0.00177855023113859	0.00262030507410951	-0.00177087961169891	-0.01409533526798	-0.00213783424393092
9.5	0.00254582446462675	-0.0133075429831692	0.00234486103606622	-0.00211225158695122	0.00235231827756509	-0.00211354394545269	-0.0119503940275344	-0.00272454188941642
9.6	-0.00260340433268392	-0.0150695854319292	0.00203184327472869	-0.00242780123948897	0.0020321681208456	-0.00242680990090621	-0.0133010280576828	-0.00450296609263862
9.7	-0.00740130941336721	-0.0140962087675938	0.00166145871967754	-0.0026860528782371	0.00166707994617682	-0.00269337778055817	-0.0147996350952742	-0.00394597658642941
9.8	-0.0116076307845359	-0.012195017264555	0.00127372676393507	-0.00289979955364074	0.00127941615761089	-0.00289120588421177	-0.0159123426829492	-0.00282670847818642
9.9	-0.0153088760187795	-0.00891449379521389	0.000868141437033139	-0.00304332685612806	0.000860746884569267	-0.00304213880830698	-0.0167965027167776	-0.000664281621499283
10	-0.0166014538242025	-0.00548717798485301	0.000434761416166741	-0.00314524682644217	0.000427270162242008	-0.00315786341641091	-0.0149126195965384	0.00120387568095824
10.1	-0.019252655562487	-0.00307682908325573	-2.00253988850447E-05	-0.00317937690936062	-3.03795788498521E-05	-0.00317396573759735	-0.0148624297805016	0.000558139402380678
10.2	-0.0212202253372472	0.00122887329624695	-0.000472249754011475	-0.00314225350846216	-0.000475698108388149	-0.00313945827832891	-0.0152522041646576	0.00143361049880732
10.3	-0.0220295315054974	0.00590885176002463	-0.000910243254091973	-0.00303784003419267	-0.000902044586473234	-0.003046979597821	-0.0152967142154626	0.00255478607246898
10.4	-0.0217712447525515	0.0112393276838488	-0.00131566570677648	-0.00288608944686949	-0.0013139356453232	-0.00289235184263385	-0.0148647660802369	0.00434871440408558
10.5	-0.0187930396372819	0.0159064229550517	-0.00172169544978256	-0.00268109649496354	-0.00171854360614945	-0.00266794586479505	-0.0119170820685859	0.00534639371951257
10.6	-0.0167634957714654	0.0189874309867257	-0.00207492935847098	-0.00240169119078923	-0.00207272669708983	-0.0024055536616546	-0.0109664445135984	0.0040787748598559
10.7	-0.0137746247494352	0.0226815284003332	-0.00239252877619714	-0.00209631029590596	-0.00238899414683311	-0.00209098312957841	-0.0103522735599086	0.00374283439387666
10.8	-0.0101179240951435	0.0255726964619503	-0.00266559075377483	-0.00173117815453551	-0.00266035742230381	-0.00174020173870177	-0.0101535598785303	0.0032408286200449
10.9	-0.00594169274875684	0.0285466689396473	-0.00287705557853442	-0.00134789540807278	-0.0028822911014444	-0.00134713845142033	-0.0104014395781232	0.00382837679304706
11	0.000605802210680961	0.0299451596510712	-0.00302821840814217	-0.000922655511718366	-0.00303312376515909	-0.00092942217189935	-0.0082566254788487	0.00391049707303286
11.1	0.00501737506781267	0.0292091128887696	-0.00313626942318437	-0.000499606086745398	-0.00312532332440116	-0.000496752571325575	-0.00877939678674907	0.00197205191641834
11.2	0.00982293898876634	0.0289896363103972	-0.00316678833402669	-5.65512100258938E-05	-0.00317401322729542	-6.14034821372108E-05	-0.00960099673655787	0.00199887735191369
11.3	0.0149840703490088	0.0276997545984283	-0.00313718939778357	0.000398723981623014	-0.00314886136522853	0.000388658401755871	-0.010114223214685	0.00251768919765742
11.4	0.0198080594984726	0.0256919754841352	-0.00305636772155577	0.000830136476890624	-0.00305138713129271	0.000837725679490527	-0.0101854590349139	0.00375726880846648
11.5	0.0257741039217721	0.0218989598966025	-0.00291249350960761	0.0012409215528987	-0.00291526235579134	0.0012512658826261	-0.00772648474180021	0.00386376720500097
11.6	0.0286318302661129	0.0159173333053304	-0.00271934705334954	0.00163930547350761	-0.00271931717196348	0.00164226859965171	-0.00818660176539687	0.00192474171060007
11.7	0.0305492773959622	0.0109368728623428	-0.00245115670961567	0.00199829716106057	-0.00245168192737051	0.00200696839622569	-0.00899546459528315	0.00194121819108279
11.8	0.031859672008517	0.00578776441014041	-0.00214928051871904	0.00233055366238211	-0.00215341337380553	0.00233228547184031	-0.00934046209919837	0.00265504197915423
11.9	0.0327304854002523	0.00109851505659265	-0.00179757484112573	0.00260420953719727	-0.00181065575552075	0.00260860281405835	-0.00879447488040692	0.00469295748692806
12	0.0346621581622904	-0.00522331775779711	-0.00142269118890925	0.00283462494012269	-0.00142208291216116	0.00283604562956392	-0.00488746905763081	0.00492529212455608
