# GHZ S RI R 50
0.2	0.00608481153663925	0.00157732781076832	0.00304580310845245	-0.00089856937859209	0.00305616725123161	-0.000891769646666385	-0.0138048062751734	0.00527734898922627
0.3	0.00631249708634019	-0.000565202856960247	0.00290088546000343	-0.00132169637883324	0.00289365237236718	-0.00130876533001855	-0.013100089988444	0.00528271489423379
0.4	0.00603187008907383	-0.00242109680594216	0.00266849739437924	-0.00169274943226015	0.00267375379925769	-0.00170130335262306	-0.0126322262055032	0.00560848131904862
0.5	0.00491063025770644	-0.00380734839828156	0.00240955332079905	-0.00204778511204522	0.00242106997812468	-0.00206001180679624	-0.0126083775843122	0.00623534336269724
0.6	0.00415439274416708	-0.00446857433598304	0.00209777879068551	-0.00236178707354242	0.00209699135248425	-0.0023689269544816	-0.0119085996704184	0.00731707397932852
0.7	0.00313085634904191	-0.00530928453828009	0.00175064305238698	-0.00263884840099993	0.00174868981556631	-0.00263904627866114	-0.0112462371653867	0.00785058982368756
0.8	0.0019048092238618	-0.00581413547816525	0.00136564155935626	-0.00285514716973612	0.001353061078738	-0.00285968532525753	-0.0107223734001851	0.00847076253004999
0.9	0.000634106208471198	-0.00604223519070952	0.000949750381128605	-0.00301762022344311	0.000950782847230556	-0.00302830025021582	-0.0100729654927275	0.00897378998821969
1	-0.00112490906924657	-0.00627966326538627	0.000526472991868004	-0.00312142583008441	0.000516626799198411	-0.00312216620628851	-0.00993630189504411	0.00908838525710875
1.1	-0.00286022784109492	-0.00522921963509704	7.07758432423769E-05	-0.00315002680583279	6.7272665126968E-05	-0.00316764776496502	-0.00992980647042603	0.010425683022302
1.2	-0.00389336262570197	-0.00454310484395891	-0.000370177030146436	-0.00313867818077995	-0.000370987265184246	-0.00313660568944694	-0.00885220069443583	0.0114617551380991
1.3	-0.00514750607031544	-0.00411174410589263	-0.000795789349145325	-0.00305553819218961	-0.000799022585929184	-0.0030575400688097	-0.00730772639978496	0.0121587813719276
1.4	-0.00627385819517482	-0.00361668436370717	-0.00121589094641066	-0.00290817624991356	-0.00121467815437573	-0.00291369857977673	-0.00557106570601894	0.0120814930537846
1.5	-0.00714555807684096	-0.00241375429951154	-0.00161691385951595	-0.00271252036773815	-0.00161530408365311	-0.00272100505971566	-0.00455781367214736	0.0118433798138832
1.6	-0.00668616242294796	-0.0006969181177447	-0.00197544349685133	-0.00245967534520187	-0.00197565267694512	-0.00246489749924568	-0.00347248470591544	0.0120970293579593
1.7	-0.00599978573521781	0.000504686635358969	-0.00230229035660994	-0.00216437015849219	-0.00230325754794306	-0.00215812407911966	-0.00259184093306386	0.0120064140034267
1.8	-0.00513351364736225	0.00174524157038999	-0.00257277544691222	-0.00181457396800654	-0.00258371171744961	-0.00182020668198383	-0.00185583927336235	0.0119292307427967
1.9	-0.00403750538348639	0.00255754555340311	-0.0027981508115339	-0.00144494567598334	-0.00281056783994546	-0.00143881601140006	-0.00126552785272783	0.0116928842199701
2	-0.00330968038423327	0.00332073854126198	-0.00297233521136855	-0.00103793794188464	-0.0029819349355277	-0.00103325024420851	-0.00140918227249712	0.011812503301743
2.1	-0.00167869532388262	0.0042460041540746	-0.00308556814637876	-0.00061294662683745	-0.00308149270987899	-0.000614926850041304	-0.000542562371315338	0.0126764339026699
2.2	2.63016972399918E-05	0.00423658318851069	-0.00314427596100114	-0.000176490719021265	-0.00315554768546162	-0.000179338922317116	0.000773554228151945	0.0127425382557132
2.3	0.00152242997784387	0.00374793587874585	-0.00314060861885446	0.000265732439078409	-0.00314029496879106	0.000258866132189603	0.00195712837160828	0.012400815987438
2.4	0.00284245520400202	0.00284167710996875	-0.00306864353031185	0.000702744820518321	-0.00307117053457058	0.000698493436834846	0.00307673534699093	0.0117321819622585
2.5	0.00336336837811639	0.00153505370942837	-0.0029333299400569	0.00111205286935743	-0.00294420796063062	0.00111838893758113	0.00336518267316802	0.0106865184223446
2.6	0.00397764384056789	0.000889021565464199	-0.00276290113817901	0.00151528669868986	-0.00275931772776887	0.00150299586316015	0.00373669671758305	0.0106622533978139
2.7	0.00479048887222567	-0.000272600861775822	-0.00251838514154458	0.00188710706511203	-0.00252365630153646	0.00188710456443443	0.00442777415357419	0.0103178684828665
2.8	0.00548426424813447	-0.00173074042365724	-0.00223691595281232	0.00221445568405158	-0.00222914134504451	0.0022242498238489	0.00507857711574782	0.010006021077433
2.9	0.00596063813577842	-0.00362998491115483	-0.00190492339996255	0.00251438269172579	-0.00190121896214562	0.00251396773891897	0.00590988842938143	0.00957047596970542
3	0.00557901057195559	-0.00558104132547982	-0.00152172294189907	0.00275229447290437	-0.00153651201105474	0.00275834016619279	0.00631092417153015	0.00926543496173416
3.1	0.00540121471746756	-0.00723795375792264	-0.00113074405766823	0.00293137089199766	-0.00112611343423798	0.00293972084564281	0.00739860615451053	0.00934887450278984
3.2	0.00457137383569858	-0.00931306043467425	-0.000711042136458238	0.00306905026601537	-0.000712783534628861	0.00306843503559725	0.0083328047643422	0.00884446862106619
3.3	0.00315159851603939	-0.0112666193223086	-0.000273815594934831	0.00314035270094478	-0.000272156109293337	0.00313661980036277	0.00925346946619271	0.00816437072391502
3.4	0.0011645445880409	-0.0129527147909626	0.000172484051332009	0.00313704157848877	0.000166225398061879	0.00315358495342939	0.0100963481463241	0.00702917528228345
3.5	-0.00167745725052405	-0.0140951707541181	0.000596657933839979	0.00309602880213875	0.000602255225073218	0.00309611877757833	0.00994959370013581	0.00575182596410679
3.6	-0.00413435871892127	-0.0141144321219699	0.00102479228334194	0.00297623040565923	0.00103298338642594	0.00297593470535037	0.0102794739681946	0.0054553283185551
3.7	-0.00656289863620484	-0.0141495820498761	0.00143515081735838	0.00279721025685997	0.00142552388478525	0.00281085789859055	0.0109514832208005	0.00454622431681375
3.8	-0.00914791719939664	-0.0136787561215418	0.00181450134326523	0.00257194823175999	0.00181687921747396	0.00258110876803547	0.0113695654170509	0.00336364381308216
3.9	-0.0116054886084376	-0.0128047386392865	0.00216252456363072	0.00229948817017212	0.00215525912266395	0.00229768839548668	0.0114267411412949	0.00190303688922206
4	-0.0143808334986975	-0.0112438962827739	0.00244704331673975	0.00197713470925042	0.00245149850779127	0.00197471130364496	0.0104888052622366	0.00086160452736342
4.1	-0.0160580684452286	-0.00867523142613696	0.00269934244625309	0.00162016218159065	0.00269808703092988	0.00162089411653103	0.0104585576196136	0.00103242518478158
4.2	-0.0172281927468913	-0.00634801721587757	0.00290142126358814	0.00121986035080086	0.00290591943051178	0.00121115153273624	0.0109307635976816	0.000541193096418217
4.3	-0.0180885403653772	-0.0039264083961744	0.00304662289383758	0.000807329094117796	0.00305307645867514	0.000799537435232503	0.0113201032927527	-0.000330506326313018
4.4	-0.0186330357480324	-0.00147088306387907	0.00312381003246888	0.000372468249040263	0.00312619337047251	0.000370216618713456	0.0114523233557697	-0.00153980921567336
4.5	-0.0193511863627772	0.00121718155117487	0.00314798734685121	-6.33863982316803E-05	0.00315336595568589	-6.67428718679152E-05	0.0106283730682141	-0.00265699321987738
4.6	-0.0189719726832583	0.00465860530627373	0.00310863479542892	-0.000507866902951112	0.00310981941142737	-0.000494922392538423	0.0103622900889626	-0.00273478558366513
4.7	-0.0177939409023175	0.00748605179844357	0.0030048484251366	-0.000929462349378063	0.00302019956445156	-0.000939052988374862	0.0103885958724812	-0.00340195151651504
4.8	-0.0162665347753891	0.0100277498965267	0.00284454322699899	-0.00134549378675274	0.00285305951223908	-0.00135157167511937	0.0102763168119762	-0.00412806200465348
4.9	-0.0141233942076917	0.0120892591065653	0.00262505220396418	-0.00173080580994361	0.00262921933852592	-0.00172788062685507	0.0101863775745659	-0.0050038441683343
5	-0.0121051323733152	0.0138090916226886	0.00236827761092872	-0.00208996537774073	0.00237190375382021	-0.00208728053751369	0.009567912150862	-0.00565737688723329
5.1	-0.00880256263274942	0.0154232299473226	0.0020548854863804	-0.00240490553288193	0.00205719148299877	-0.00240353832082122	0.0099842825414283	-0.00573075481427076
5.2	-0.00551413985448782	0.0156724754017086	0.00169563853325393	-0.00265613012167894	0.00169736681771271	-0.00266128660791955	0.0104601256668131	-0.00677770938107149
5.3	-0.00250742096876438	0.0153360787290089	0.0013080744440879	-0.00287330574581049	0.00131121379172584	-0.00287123050477053	0.0104654879006944	-0.00798965675555878
5.4	0.000194346511001982	0.0144283270812057	0.00088199378715234	-0.00302368901387895	0.000899243482418314	-0.00303491285568789	0.010093156238861	-0.00951468498518722
5.5	0.00198704841052597	0.0135719895285411	0.000463277523600207	-0.00312379779501111	0.000473375413569169	-0.00313326047973118	0.00839577776954868	-0.0104930050054744
5.6	0.00471458873644876	0.0128400990931606	2.24993108342975E-05	-0.003157456466489	1.39468354694605E-05	-0.00316068764213878	0.0078833960101317	-0.0101466082216776
5.7	0.00695775843966923	0.0108836725254533	-0.000409606688321856	-0.00312704586594109	-0.000426272617067351	-0.00313072402389286	0.00761649484683973	-0.0106351005032418
5.8	0.00851752710310925	0.00862100202017641	-0.000857840206966652	-0.00303231828223202	-0.000861386693503995	-0.00304635654652843	0.00716447875033298	-0.0114411673991555
5.9	0.00954241156617052	0.00602020945318549	-0.0012661116891143	-0.00289122031310208	-0.00127437150888808	-0.00289113364933879	0.00645813878761285	-0.0126972120783701
6	0.00903290039556216	0.00323243174132678	-0.00166477966638659	-0.00268054653179668	-0.00166120967685105	-0.00268071693193895	0.0039888797500903	-0.014010704549183
6.1	0.00869608658215017	0.00179229244089292	-0.00201890107366148	-0.00242689494713425	-0.00202054398571021	-0.00242287966000188	0.00205048384686034	-0.0129768603418437
6.2	0.00838809427840492	-0.000304192236256566	-0.00233378991339323	-0.00211302260170125	-0.002337516115282	-0.00212492777808496	0.00125465463179319	-0.0123791819515907
6.3	0.00766723374807235	-0.00245514880033809	-0.00261294158642797	-0.00177627438283258	-0.00262209227201515	-0.00177050942733091	0.000812746558826827	-0.0121132960346014
6.4	0.00642454053854302	-0.0048396271658822	-0.00283858064537419	-0.00138264467583005	-0.00282883726956881	-0.00138757245796987	0.000541907627308703	-0.0125006869484326
6.5	0.0041195049464129	-0.00644770292458913	-0.00299370661788723	-0.00097878441431248	-0.00300158490153929	-0.000974288664872019	-0.000688839594118163	-0.0125302911734197
6.6	0.00270653769725482	-0.00741212095596151	-0.00310515104803391	-0.000551912371762334	-0.00310679322885955	-0.000555901301742211	-0.000381129433765879	-0.0121075060114695
6.7	0.000595324245620411	-0.00846395111791086	-0.00315531137980633	-0.000110448414487147	-0.00316418524734378	-0.000104135598065792	-0.000683260629907882	-0.012686950828867
6.8	-0.00174161471257014	-0.00867150835042875	-0.00313197658581197	0.000333184223071991	-0.00314309401418404	0.000338266789063482	-0.00142297864555525	-0.0129423436269518
6.9	-0.0040274783064992	-0.00853593542755107	-0.00305524328489665	0.0007667760382379	-0.0030582350253624	0.000769177792252221	-0.00222268532383494	-0.0134011451710596
7	-0.00705800316918259	-0.0073815360869552	-0.00292052034120695	0.00118994878666097	-0.00293340234153095	0.00118776468347946	-0.00446449154924809	-0.0132677764310789
7.1	-0.00836388951580309	-0.00498312705992114	-0.00273879059372205	0.00158293448989968	-0.00273508874482396	0.00159162048179566	-0.0049757428518973	-0.01139187185077
7.2	-0.00937407803430752	-0.00328833820711986	-0.00247874354428028	0.00195084345129448	-0.00248528637662653	0.00195294868593531	-0.00475779486119931	-0.0106750139316822
7.3	-0.0103605291286628	-0.00132772118109745	-0.00218131395771798	0.00226956812252563	-0.00219254369966433	0.00227466966175093	-0.0044179142107367	-0.0104007226035639
7.4	-0.010945088496921	0.000621341429795688	-0.00183844094994761	0.00255369459913355	-0.00184530387633327	0.0025673677703388	-0.00402280814125628	-0.0110840186390863
7.5	-0.0121572546441393	0.00264565756333262	-0.00146714703323706	0.00279458188959647	-0.00146009953804858	0.00280196938241657	-0.00533673880043756	-0.0124896436769954
7.6	-0.0118370378900606	0.00611131400549169	-0.00105767128406567	0.00296812288230838	-0.00105906952141631	0.0029634234483057	-0.00619723109509572	-0.011902883950249
7.7	-0.0106307529135896	0.00840789446955159	-0.000628888217803043	0.00308717069029038	-0.000630234995110664	0.00308611286430271	-0.00667530630184479	-0.0125842435998161
7.8	-0.00885778850462035	0.0101645267927614	-0.00020197905955158	0.00313482211111356	-0.000209771291261297	0.0031413235571541	-0.00772416028790684	-0.0131695215046235
7.9	-0.00674275210449828	0.0111939123705884	0.000241828284008488	0.00313961979316753	0.000249788718288993	0.00314108137996206	-0.00927662198900092	-0.0135449285206313
8	-0.00512569297632846	0.0123987032373624	0.000683445771299885	0.00306070734580286	0.000683552263020484	0.00306560646251726	-0.0119123076552266	-0.012619404675991
8.1	-0.00162419716236066	0.0132465287286609	0.00109037778991386	0.0029420783378796	0.00110952855748034	0.00294308628370177	-0.0121175738282547	-0.0106141912972828
8.2	0.00131210894281011	0.0126961882198204	0.00149504379085826	0.00276011205273031	0.00150426179211934	0.002752876983779	-0.0121978642908084	-0.0098048007072119
8.3	0.00390911385692568	0.0117377563039987	0.0018710954486883	0.00251834476499272	0.00186951418385561	0.00253190183064617	-0.0123510551366921	-0.00920305480163972
8.4	0.00621562260932338	0.0101488267845641	0.00220422877419768	0.00223694500144794	0.00220120000422085	0.00223673516632685	-0.0126408872186324	-0.00921239896103369
8.5	0.00720899315544344	0.00854703395486573	0.0024849817058729	0.0019077174835672	0.00248409703957917	0.00191090028555278	-0.0147017312139337	-0.00876157575496388
8.6	0.00929618628019513	0.00751712630011438	0.00273240957021802	0.00154748705687465	0.0027418798122901	0.00154091216442424	-0.015055538794085	-0.00644380464537037
8.7	0.0110109406364504	0.00504400475031469	0.00291610908769367	0.00114249333014879	0.0029216675990817	0.00114319175951952	-0.0146218390613626	-0.00539352777677401
8.8	0.0119422735424316	0.0022559162272429	0.00304911829894068	0.000731009814794787	0.00305484120379519	0.000722237319930609	-0.0143034507742587	-0.00488297249587982
8.9	0.0123514545758471	-0.000974190105720058	0.00312320881079671	0.000299219619878292	0.00312233119298825	0.000296979749693882	-0.0139155538804935	-0.00494038999057454
9	0.0112660444351472	-0.00419624931011852	0.00313471050487875	-0.000142916593387841	0.00313787934735386	-0.000138829708028559	-0.0149687665439323	-0.00500517065800351
9.1	0.0105492049772818	-0.00664434470073416	0.00308470935860258	-0.000586720132576371	0.00308764849222454	-0.000573854509958444	-0.0149485691739591	-0.00363768863866381
9.2	0.00905059107459157	-0.00968167279266572	0.00297152840722687	-0.00100188911803015	0.00297915666372986	-0.00100479258930721	-0.014698943986077	-0.00323218631959547
9.3	0.00668314988352904	-0.0122363367847845	0.00280157575381685	-0.00140402356085161	0.00280082743949708	-0.00140899887380368	-0.0146829388947303	-0.00277500039227113
9.4	0.00372275114487953	-0.0143878819855424	0.00257980305338439	-0.00179261459201575	0.00258632825907431	-0.0017850561617445	-0.0148031649728951	-0.00256410980991943
9.5	-0.000350492508637877	-0.0150984170932	0.00230112447117393	-0.00212790769099247	0.00230851293776108	-0.00212928768875764	-0.0159563721799409	-0.00147863429639359
9.6	-0.00321355952807626	-0.0148346195004332	0.00198177958978998	-0.00242523793078497	0.00198211244449095	-0.00242426104145176	-0.0152720324268175	0.000449045656899535
9.7	-0.00653304869740333	-0.0146482458776598	0.00161651245296649	-0.00267206077869365	0.00162199883861558	-0.00267935818117419	-0.0144220680328513	0.0011369191869485
9.8	-0.0100518614017348	-0.0135918485407486	0.00123303383699627	-0.00287901012084458	0.00123873804613424	-0.0028705644094869	-0.0137758313617655	0.00153641042464138
9.9	-0.0133843107708348	-0.0118151307144111	0.000827497104960784	-0.00301665443442968	0.000820200459881091	-0.0030154059718206	-0.0134151774176344	0.00135556512422987
10	-0.0172154719524396	-0.00894952101585438	0.000398588958687856	-0.00309918482615696	0.000391099725680252	-0.00311153077118631	-0.0147434292399755	0.00153315518591748
10.1	-0.0190714863310919	-0.00465158710260713	-3.68058225095758E-05	-0.00312975404776506	-4.69696572571746E-05	-0.00312437148521782	-0.0145356279932359	0.00337890214460538
10.2	-0.0201666406343015	-0.000805281162195878	-0.00048022169559611	-0.00309348212185282	-0.000483605684509467	-0.00309071185494243	-0.0136375021250733	0.00413438845003691
10.3	-0.0205890227823761	0.0033327367306665	-0.000910377416999197	-0.00298702755542208	-0.000902346890119677	-0.00299606498874205	-0.0127220248908526	0.00444164429468905
10.4	-0.0201260037370397	0.00726906369909999	-0.00130354149784549	-0.00283032892513284	-0.00130186573866864	-0.00283648781505647	-0.0118592883356261	0.00379013322389421
10.5	-0.0196958623518557	0.0115571170617919	-0.00168693760140672	-0.00263498134069622	-0.00168386058538736	-0.00262206409329366	-0.0128553705652215	0.00345002356226684
10.6	-0.0172119991666658	0.0161351554654419	-0.00203967242271256	-0.00236993739965438	-0.00203749522816427	-0.00237373847030602	-0.0127157654591488	0.00445180377461142
10.7	-0.0141174335482124	0.0197644113102383	-0.00235347558489382	-0.00206937545920285	-0.00235000249111417	-0.00206412112339905	-0.0124704856857859	0.00498747978765044
10.8	-0.0102636073144235	0.0229806235457841	-0.00262005921355615	-0.00171189835719142	-0.00261488154255676	-0.00172076951065276	-0.0121070863852213	0.00561595425344065
10.9	-0.00561003806154617	0.0250576618533471	-0.00282587390085693	-0.00134296535181802	-0.00283103371209521	-0.00134224836063786	-0.0115002604694995	0.00569379522347397
11	-0.00136728509304375	0.0267097957482847	-0.00298947198871217	-0.000931563722948865	-0.00299428158249907	-0.000938287411153842	-0.0124135575280831	0.00623922462810218
11.1	0.00459955117968341	0.0278191913054637	-0.00309787582623391	-0.000505555427457455	-0.00308706789107389	-0.000502694070694416	-0.0113420686960135	0.00809300770294871
11.2	0.0103986917736724	0.0268724865902471	-0.00312634075637933	-7.11411224118947E-05	-0.00313345053939217	-7.5966761234854E-05	-0.00966452556472356	0.00855554738450044
11.3	0.0157897856973807	0.0248064385575738	-0.00310120623277442	0.000373401393266712	-0.00311266915356904	0.000363383620167272	-0.0078911546584389	0.00836486869920959
11.4	0.0206156136906345	0.021599642383224	-0.00303194887655536	0.000798868555445731	-0.00302707520272144	0.000806419038248967	-0.00648074652940915	0.00729218204184016
11.5	0.0239774635935007	0.0179325857885406	-0.00288936553022079	0.00121710531139871	-0.00289214957299773	0.00122733838088309	-0.00698181992060241	0.00645739790280792
11.6	0.0279256085522166	0.0140250188331584	-0.00269457658118112	0.00160277538673883	-0.00269456433800587	0.00160570129039361	-0.0059087451404389	0.00675791162006237
11.7	0.0308801733464831	0.00864097846985514	-0.00243779098976097	0.00195505870900647	-0.0024383786819606	0.00196362246459583	-0.00459764719587904	0.0056123106632802
11.8	0.0326826309327563	0.00276940381419012	-0.00214675024658256	0.00228748421148934	-0.00215085452545505	0.00228916215019484	-0.0038225580880533	0.00393466564269412
11.9	0.0333101484122432	-0.00369878529395668	-0.00179909333778861	0.00256569797212541	-0.00181207890775919	0.00256995284086404	-0.00394998523962397	0.00182606641136814
12	0.0315801367839007	-0.009487641752964	-0.00142632261316509	0.00278475947285562	-0.00142573404469144	0.00278616584099898	-0.00639391088020731	0.00102456858996159
