# GHZ S RI R 50
0.2	0.00606493297501741	0.00137533493397159	0.00304728160182276	-0.000898278139411108	0.00305764860984602	-0.000891473270439147	-0.0139348082852793	0.00497741375630228
0.3	0.00637825246925876	-0.000624532439939136	0.00290269482695552	-0.00132158620780751	0.00289545465725833	-0.00130865059493179	-0.0131324892669114	0.00512643188602029
0.4	0.00610964696733357	-0.00240846011346075	0.00267063733677299	-0.00169299037824614	0.00267589951416142	-0.00170154797107454	-0.0126053794071456	0.0055384915142879
0.5	0.0050758738898107	-0.00374853900811133	0.00241181026377564	-0.0020487810128038	0.00242333825036326	-0.00206101429154225	-0.0123186474363611	0.00616799808314896
0.6	0.00421327724557061	-0.00448159772556942	0.00209968190994815	-0.00236311136677065	0.00209889513819547	-0.00237025647762189	-0.0116548281890609	0.00691153153757468
0.7	0.00310745087759235	-0.00517591518972542	0.00175252755115968	-0.00264051593814907	0.00175057285520442	-0.00264071436771979	-0.0111894232842567	0.00739399273151109
0.8	0.00191718520773999	-0.00554863403586116	0.00136734128611609	-0.0028573452824242	0.00135475084670203	-0.00286188965779812	-0.0108069424475321	0.00804518806897998
0.9	0.000724099697169164	-0.00569120916586464	0.000950955912677629	-0.00302034160862076	0.00095199046798699	-0.00303103151204991	-0.0103175910693714	0.00868782791235469
1	-0.000844308204701476	-0.00589945315954084	0.000527015489048637	-0.00312414596056787	0.00051716069201468	-0.00312488724194319	-0.0100273439712983	0.00917949417299603
1.1	-0.002565234432053	-0.00515721863688042	7.12396159370551E-05	-0.00315293944893655	6.77354157917426E-05	-0.00317057719391242	-0.00967792630064011	0.0103149220989864
1.2	-0.00387756271039566	-0.0045706178315395	-0.000370317323033399	-0.00314202845726824	-0.00037112858124064	-0.00313995383817102	-0.00864955309491628	0.0111675286929209
1.3	-0.00538488991920302	-0.00402394697282124	-0.000796719242441056	-0.00305896290775655	-0.000799956136189226	-0.00306096699657132	-0.00715914826892803	0.0117777678693763
1.4	-0.00655444349166106	-0.00327496112447753	-0.00121750902335422	-0.0029113419675451	-0.00121629534344349	-0.00291687061234543	-0.00545856112995463	0.011660998175638
1.5	-0.00725829427817255	-0.00196870503317735	-0.00161882061247809	-0.00271564884163786	-0.00161720906572971	-0.00272414339536111	-0.00426265483873208	0.0112546761656411
1.6	-0.00679211990184939	-0.000157955652792199	-0.00197846684322045	-0.00246285520592249	-0.00197867691916939	-0.00246808457351922	-0.00344820308636208	0.0111983805414621
1.7	-0.00594973973132041	0.00115952258046017	-0.00230622985412709	-0.00216677243800844	-0.00230719655363183	-0.00216051714237437	-0.00281358611497917	0.0112188613322616
1.8	-0.00494691641776884	0.00239897600084999	-0.00257719635395133	-0.00181608737607985	-0.00258815055012261	-0.00182172355919616	-0.00216947419457664	0.0113309160489102
1.9	-0.00375784995699911	0.00317562832074302	-0.0028028559584588	-0.00144573351150901	-0.00281528805650585	-0.00143958925400008	-0.00152586369590299	0.011369609854634
2	-0.00296063912441892	0.00380523415294347	-0.00297779575995043	-0.00103792718030905	-0.00298740849684828	-0.00103322629193452	-0.00120820668760432	0.011573234684344
2.1	-0.00152001707194022	0.00469579161381103	-0.00309105894640271	-0.000611161723093464	-0.00308697875891038	-0.000613148771410058	-0.000274493864611933	0.0120220143025435
2.2	0.000178019253877168	0.00484590310521813	-0.00314916875539258	-0.000173556726502798	-0.00316046027348212	-0.000176397732956074	0.0008588589626015	0.0119635744106576
2.3	0.00179772969840166	0.00443005218040894	-0.00314494240030793	0.000269601999447937	-0.00314463589192556	0.000262725226890535	0.00185692586134694	0.0116384782025605
2.4	0.003283083464689	0.00347908115524653	-0.00307242061268534	0.000707637503491782	-0.00307495675108671	0.000703382824208224	0.00280713281203977	0.0111982537139098
2.5	0.00394821482026387	0.00191824583226655	-0.00293581392958099	0.00111832623599295	-0.00294669764639778	0.00112468877447922	0.00340746360427397	0.0105192964943805
2.6	0.00429874450985096	0.000987653908888053	-0.00276361523471034	0.0015216390092363	-0.00276004802339365	0.00150932787409611	0.00410450297840217	0.0102504374969434
2.7	0.00483593178264699	-0.000122645549098015	-0.00251797579343999	0.0018934220425517	-0.00252325275181186	0.00189342841508157	0.00482480940902873	0.00970614093910405
2.8	0.00538614997518549	-0.00143524059256678	-0.00223527357179428	0.00222080038476309	-0.00222747319632081	0.00223059079088939	0.00543379878148211	0.00925498527199937
2.9	0.00581806992212252	-0.00319767860963952	-0.00190166747559007	0.00252050233023248	-0.00189796044598509	0.00252007960698436	0.00622930691294054	0.008825851623564
3	0.00538490279085338	-0.00512070380299285	-0.00151693354084536	0.00275699678926754	-0.00153171863290792	0.00276307634794267	0.00689609510267852	0.00841868864872006
3.1	0.004998417765633	-0.00657081684071718	-0.00112574684113119	0.0029350432912325	-0.00112109791521953	0.00294338875165816	0.00786859755320245	0.00807253717147159
3.2	0.00421807501764573	-0.00833929683995576	-0.000705323030753952	0.00307196017291547	-0.000707066498719694	0.00307134808375641	0.00855080884312903	0.00745890587679817
3.3	0.0029537375448307	-0.0100940721141561	-0.000267427478455116	0.00314205924033573	-0.000265775101658935	0.00313832155531711	0.0092490065358406	0.0067956447151257
3.4	0.00117026868495011	-0.0116817080474181	0.000179041274776664	0.00313714192964185	0.000172816151443354	0.00315370075956224	0.00995014013754556	0.00585086918726393
3.5	-0.00150940760249207	-0.0129091253728708	0.000602478717657774	0.00309515136621706	0.00060807660263506	0.0030952309072219	0.0100755836036869	0.00467992400230542
3.6	-0.00403988164397104	-0.0128787448604359	0.00103090465491641	0.00297480481237166	0.00103909684226311	0.00297449280473206	0.010342017441749	0.00403471459045961
3.7	-0.00629551583449958	-0.0127585864574566	0.00144117517458371	0.00279436012840105	0.00143157650193656	0.00280802909702487	0.0106935186090623	0.00310863757492922
3.8	-0.00861350357775147	-0.0123240101491643	0.00181982958474459	0.00256782482283266	0.00182222682297859	0.00257697940779298	0.0108656803376067	0.00214787905063111
3.9	-0.0108716502592187	-0.0116755943178201	0.00216686104933285	0.00229461705507825	0.00215959323402824	0.00229283256154435	0.0108924167799639	0.00113671505826582
4	-0.0137032960478501	-0.0105029991770946	0.00245119687755942	0.0019718105100081	0.00245564670432428	0.00196937763167542	0.0105277837044014	0.000371422082268976
4.1	-0.015762287500732	-0.00795791585958727	0.00270251975930085	0.00161320249931823	0.00270126645336364	0.00161393726655183	0.0107612272545501	0.000165096689216795
4.2	-0.0169929402038665	-0.00544515061059174	0.00290287685522865	0.00121224439259856	0.00290735173436053	0.0012035291892217	0.0111999263054229	-0.000503049935310821
4.3	-0.0177760713097682	-0.00297640841669655	0.00304657146325637	0.000799541364526485	0.00305300226414921	0.000791739372922946	0.0115327955696462	-0.0014288141978327
4.4	-0.0182441351777217	-0.000617570900119747	0.00312251736013892	0.00036462692246904	0.00312489355914006	0.000362371092507043	0.0116616089755096	-0.00250354021375439
4.5	-0.0190593102107647	0.00177033852727892	0.0031447923645448	-7.1799374992661E-05	0.00315015677091327	-7.51671023200786E-05	0.0113302623622447	-0.00357605350081216
4.6	-0.0191812534829774	0.00522122292388183	0.0031030450414003	-0.000515013055869545	0.00310426070316249	-0.000502089472635635	0.0112002656570738	-0.00424156353466906
4.7	-0.0182297320099019	0.00838050944924475	0.00299807301492578	-0.000935143814650084	0.00301337810174124	-0.000944756098836166	0.0109941915555787	-0.00522606326295204
4.8	-0.0167067876902889	0.0112485014494801	0.0028367585811352	-0.00134984569063913	0.0028452468293815	-0.00135593323660128	0.01060626886843	-0.00606378332709174
4.9	-0.0144080125590186	0.0135398333478585	0.0026161183598101	-0.00173372731221479	0.00262028458498715	-0.0017308173217387	0.0102951468873734	-0.00679835390607497
5	-0.0122723708298126	0.0152486466561115	0.00235833683322264	-0.00209015675139645	0.00236196027764744	-0.00208748585503812	0.00993666379058329	-0.00741669914564324
5.1	-0.0090019345773436	0.0170956782005969	0.00204589363778526	-0.00240287788174524	0.00204819663779241	-0.00240151788397714	0.0101440362006527	-0.00790355370270392
5.2	-0.00539437904321788	0.0174958387494841	0.00168729051909826	-0.00265261456458814	0.00168900629616516	-0.00265776167319856	0.0102000108048957	-0.00889855347205366
5.3	-0.0021210769626818	0.0170280563662214	0.00130044235308994	-0.00286809663925157	0.0013035769890687	-0.00286603135423814	0.00997060636903111	-0.00980169189189989
5.4	0.000674827950568793	0.0158909065551058	0.000875691265089556	-0.00301660504164886	0.000892879559309952	-0.00302782063254636	0.00968435585620203	-0.0108387984290136
5.5	0.00227183210805479	0.0147348122401162	0.000459457101688319	-0.00311581345772793	0.000469520130979974	-0.00312525913579812	0.00873768544008186	-0.0117882044466241
5.6	0.00462406152160151	0.0143074778773781	1.9882548779311E-05	-0.00314960410610855	1.13487717418358E-05	-0.0031528202913256	0.00820382714558891	-0.0121297105495845
5.7	0.00707750274953972	0.0127195742541748	-0.000410868266412405	-0.00311864863329462	-0.000427493792860955	-0.00312230489807016	0.00748459878453889	-0.0127862807477479
5.8	0.00904043714740173	0.0105181163951778	-0.000857181809671807	-0.00302373805812703	-0.000860726385555909	-0.00303773682930171	0.00659647388813782	-0.0133991209066147
5.9	0.0105051892682448	0.00765287137292868	-0.00126344340802558	-0.00288332286454164	-0.00127168147543377	-0.00288323453462067	0.00562060567514882	-0.0139827811210084
6	0.0101368551371902	0.00405276388422142	-0.00166146933699965	-0.00267403499805234	-0.00165790761524622	-0.00267420571021197	0.00392821357989392	-0.0145073318419111
6.1	0.00903144260548084	0.0021519480580417	-0.00201469372002937	-0.00242028206801713	-0.00201633132080575	-0.00241627615175451	0.00273420750328278	-0.0138583583459152
6.2	0.00814359780909077	0.000230947410851643	-0.0023281030484225	-0.00210726000043347	-0.00233182140320521	-0.00211913407083827	0.00214986055602971	-0.0136536813792477
6.3	0.00713816628881752	-0.00156319093499041	-0.0026062096985907	-0.00177180010730422	-0.00261533712879467	-0.00176605014420152	0.00170853246407895	-0.0137322816728879
6.4	0.00591252171521544	-0.00361505350772829	-0.00283149382453221	-0.00137953086825437	-0.00282177384276703	-0.00138444564075078	0.00138186274522725	-0.0141502371398932
6.5	0.00348401984074937	-0.00515159953925302	-0.00298589760579414	-0.000976006070721388	-0.00299375485852363	-0.000971521612854837	0.00060191342201083	-0.0145761880892386
6.6	0.00198200672278059	-0.005490276429967	-0.00309599961643716	-0.000551234651778951	-0.0030976358623195	-0.000555212522163785	0.000426406275593917	-0.0148953964236017
6.7	0.000295066405621483	-0.0062024391095226	-0.00314630375305965	-0.000111973895888442	-0.00315515614723728	-0.000105684142867405	-0.000471760123120077	-0.015513416538488
6.8	-0.00167784594695008	-0.00635892659568816	-0.00312355873948943	0.000329954078696824	-0.00313464916194039	0.000335014391221761	-0.00160030222851064	-0.0155365374483059
6.9	-0.00363896656000131	-0.00634129483065833	-0.00304725121465195	0.000762192536965272	-0.00305023643952243	0.000764585155287843	-0.00245055563933852	-0.0154552261877371
7	-0.00676403958344219	-0.00563308654583613	-0.00291287970759321	0.00118282644334282	-0.00292571925534884	0.00118063393558638	-0.00382563808490627	-0.0152884406447324
7.1	-0.00849573408184785	-0.00284533431692018	-0.00273367797963607	0.00157395155386019	-0.00273000090161661	0.00158261915609762	-0.00440951123832355	-0.0143405268806983
7.2	-0.009157386593592	-0.000657053864604286	-0.002475819736625	0.00194127653691299	-0.0024823493412421	0.00194336444631118	-0.00484237110307739	-0.0139670865354773
7.3	-0.00949193829937532	0.00143122088643104	-0.00218033746206323	0.00225961577894256	-0.00219154922778265	0.00226468250171204	-0.00526546175240898	-0.0136143162476862
7.4	-0.00925738017341884	0.00307604299595613	-0.00183963927850635	0.00254331689181721	-0.00184651593566953	0.00255694116249452	-0.00559652752376927	-0.013591858091024
7.5	-0.0100349378123241	0.00388961369106932	-0.00147165888215559	0.00278482651530417	-0.00146464595363832	0.00279221774526001	-0.00650701261271062	-0.0139449798758539
7.6	-0.0104687274993888	0.0065173029237312	-0.00106362031092641	0.00296056100844713	-0.00106500412996657	0.00295586560682937	-0.00701060014577864	-0.0134438363779769
7.7	-0.00985086800660484	0.0086311640948332	-0.000635898548129271	0.00308084944311338	-0.00063724054577042	0.00307978975119283	-0.00755230747705864	-0.0138901482572645
7.8	-0.00862765044564318	0.0104236706622455	-0.000210213035977897	0.00312989815242123	-0.000218012053494923	0.00313636935643273	-0.00837498815326224	-0.0140883702055777
7.9	-0.0070039814845911	0.0115767343833079	0.000232307824841896	0.00313678508247165	0.000240254960986805	0.00313826846421713	-0.00923285260483069	-0.0141370108699334
8	-0.00611665209527127	0.0130117030023605	0.000674432136394661	0.00306072187559682	0.000674524814516205	0.00306561824461593	-0.0106232582304446	-0.0137853040954835
8.1	-0.0030510903208761	0.0149970534107335	0.00108191288607001	0.00294299546678766	0.00110104829550569	0.00294405313514671	-0.0109594972105879	-0.0129142855175568
8.2	0.000326480303728641	0.0152418481808778	0.0014865444604774	0.00276264098949493	0.00149577710586854	0.00275543560897993	-0.0114670904125955	-0.0125058783700383
8.3	0.00347573059003569	0.0146159363265943	0.0018632169537804	0.0025228553238373	0.00186159728099469	0.00253640318781918	-0.0119770389539159	-0.0119561703877687
8.4	0.00632515398725979	0.0129926057602686	0.00219798723696625	0.00224316226686035	0.00219495900957802	0.00224294393229747	-0.0123760629743771	-0.0116067880359454
8.5	0.00733694956414777	0.0109162029667456	0.00248017969951641	0.00191382497716558	0.00247928716593967	0.00191700549407248	-0.0135653190679955	-0.0112000709980532
8.6	0.00906224313198284	0.0103284876474439	0.00272794660739644	0.00155489987220232	0.0027374342650621	0.00154835154760186	-0.0139550040364207	-0.00999100492860963
8.7	0.0112359911893117	0.00837144975979109	0.00291345825632836	0.00115110148055946	0.00291901595736451	0.00115181600085549	-0.0142544844067857	-0.00946252495506085
8.8	0.0129273562566714	0.00567383300323801	0.00304854992569288	0.000739920755847391	0.00305430022809437	0.000731160052789342	-0.0148271040631954	-0.00893698342119046
8.9	0.0141642727395019	0.00198370170106975	0.00312423503912273	0.000307556403512531	0.00312336276780234	0.000305312942500112	-0.0151320839540191	-0.00826456983988676
9	0.0132667504637003	-0.00238835387216618	0.00313649325433425	-0.00013413099667863	0.00313965195490328	-0.000130033368168612	-0.0157418864827555	-0.00759350319175865
9.1	0.0119391494463645	-0.00535861942921559	0.00308917448130547	-0.000577970828398022	0.00309207755477324	-0.000565085105080813	-0.0155872743539361	-0.00636468008795767
9.2	0.00998628500477374	-0.00861640611798289	0.00297784844182828	-0.000994456656178505	0.00298549388061612	-0.000997341429508984	-0.0153892986821748	-0.0057845224712815
9.3	0.00709378033593334	-0.0112133975334383	0.00280914395068142	-0.00139798841946513	0.00280840861630013	-0.0014029722798292	-0.0152490480817899	-0.00506372932741787
9.4	0.00370029901753584	-0.0132216686677921	0.0025884373236646	-0.00178759441757241	0.00259494953366609	-0.00178000702273239	-0.0149348154683444	-0.00449623558371361
9.5	-0.00103562503114995	-0.0138847297967417	0.00231204570902957	-0.00212458570803663	0.00231945209987854	-0.00212594501415134	-0.0150830175680805	-0.00379340330615582
9.6	-0.00436330213285035	-0.0126046065065756	0.0019930709600974	-0.00242529590492374	0.00199340186330276	-0.00242431584771596	-0.0145462226527502	-0.00293946096468823
9.7	-0.00725641019251078	-0.0116481493309131	0.00162728975610844	-0.00267445634539329	0.00163280819249421	-0.00268175755126523	-0.0143590859640789	-0.00262972522258622
9.8	-0.0101462337310866	-0.0102840278211907	0.00124332214087922	-0.0028834960757628	0.00124902049713927	-0.00287501431348962	-0.0144146216026608	-0.00209506303825133
9.9	-0.0127883123289106	-0.00872591925464034	0.000837254128308129	-0.00302355280770357	0.000829932917696512	-0.00302231835181783	-0.0144598719277924	-0.00146873644511172
10	-0.0166022449907997	-0.00658197020407102	0.000405932213641669	-0.00310916281907508	0.000398440763641629	-0.00312156597252157	-0.0150077221324956	-0.000723303785010904
10.1	-0.0188871197975088	-0.0020587332310861	-3.22742000175172E-05	-0.00314022583040158	-4.24798681078766E-05	-0.00313484046681892	-0.0145661302084238	0.000664575924540714
10.2	-0.0196629630570919	0.0020505702774164	-0.000477633995468027	-0.00310454695231229	-0.000481033139144859	-0.0031017719599739	-0.0138832308165981	0.00133657482043889
10.3	-0.0196036666137181	0.00602968736298998	-0.000910067904080999	-0.00299869527912182	-0.000901998205557493	-0.0030077552431732	-0.0131941310598819	0.00186549186957624
10.4	-0.0187668896328291	0.00930525484549259	-0.00130623873370511	-0.00284214314748648	-0.00130455167086545	-0.00284832413662861	-0.0122479347691141	0.00188817840589891
10.5	-0.0189199413269456	0.0125211847648105	-0.00169233605411569	-0.00264470126540955	-0.00168925099124004	-0.00263173752130339	-0.012107197645214	0.00171952394839779
10.6	-0.017653112102629	0.0171260390357692	-0.00204584712381101	-0.00237863739116071	-0.00204366132382002	-0.00238245068116706	-0.0115853473492054	0.00185722909004893
10.7	-0.0152620115254227	0.021353732136638	-0.00236146849277249	-0.00207721393180801	-0.00235798403092287	-0.00207194017890171	-0.0113962824007662	0.00191652074264027
10.8	-0.011462186520729	0.0253664122527729	-0.00262981129478988	-0.00171788458057642	-0.00262461561579706	-0.00172678868897161	-0.0111047423326389	0.00237012282733906
10.9	-0.00662916520608891	0.0280013118278342	-0.00283657781390673	-0.00134624235239668	-0.0028417555135599	-0.00134552012720523	-0.0105900680086468	0.00249914213011345
11	-0.00255693245167317	0.0296970523470323	-0.00299950555864472	-0.000933336125441586	-0.00300433345172295	-0.000940079529357337	-0.0107174517823322	0.00265318360948999
11.1	0.00325262766312583	0.0318719980092871	-0.00310908603702291	-0.000505920909745478	-0.0030982384860995	-0.000503054388724494	-0.00993302162424042	0.00328125598110633
11.2	0.00985909100924812	0.0317344675318846	-0.00313770859673971	-6.89037443417046E-05	-0.00314484795363003	-7.37411688639337E-05	-0.00917581217504587	0.00318369908358354
11.3	0.0163657144569013	0.0298701453428472	-0.0031116736542076	0.000378096674767582	-0.00312318770968713	0.000368056287101619	-0.00846422358654307	0.00312053618179201
11.4	0.0222343901619344	0.0262634936630106	-0.00304105564832008	0.000805004674407794	-0.00303615715476309	0.000812574512014973	-0.00775893210716814	0.0028032796272117
11.5	0.0258499304474745	0.0217106804303528	-0.00289847243529629	0.00122461326895485	-0.00290125547430448	0.00123488624884111	-0.00788294918533795	0.00238013335187972
11.6	0.0298260147361016	0.0177810891807543	-0.00270200957594504	0.00161306994337115	-0.00270199257647578	0.00161600670047358	-0.00713836764550241	0.00242568222420053
11.7	0.0334532201280536	0.012046801582728	-0.00244269360438492	0.00196659734931882	-0.00244326711095748	0.00197519248566587	-0.00646758309853916	0.00169760121841792
11.8	0.0357602353241306	0.00520285688298276	-0.0021494473102488	0.0022995758781605	-0.00215356216538965	0.00230126777287774	-0.00602387578088408	0.000947764982464965
11.9	0.0363405035387028	-0.00280921850244254	-0.00180021657209739	0.00257820551413902	-0.00181323875006876	0.00258250110990795	-0.00568759005551663	0.000164075840968176
12	0.0329328225745997	-0.00995903049589007	-0.00142457599162104	0.00279899145923805	-0.00142398157502269	0.00280040165040244	-0.00655002443365051	-0.000318225061532323
