# GHZ S RI R 50
0.2	0.00593112550883427	0.000900710149784115	0.00305015231705356	-0.000897467160498666	0.00306052415748185	-0.000890651697457904	-0.014077476698276	0.00450435082904365
0.3	0.00628690610031207	-0.00093468260101396	0.00290642302422862	-0.00132108111580375	0.00289916749706737	-0.00130813714057687	-0.0132393866183742	0.0048183278995759
0.4	0.00602174820958442	-0.00247693157843547	0.00267530784502201	-0.00169330911415348	0.00268058291005544	-0.00170187413101199	-0.0127202155376364	0.00547459821103495
0.5	0.00551165819215385	-0.00386155420929511	0.00241658340848321	-0.00205106566083398	0.00242813525012874	-0.00206331380591842	-0.0119280124795304	0.0060754612000921
0.6	0.00430315303736289	-0.00515407963131231	0.00210357917002456	-0.00236587674512124	0.00210279367285237	-0.0023730326474402	-0.0116111283730169	0.00628622840468865
0.7	0.00281431378007633	-0.00572214290596675	0.0017564519619654	-0.00264405622312626	0.00175449419028468	-0.00264425578250848	-0.0115197167617588	0.00691587985436342
0.8	0.00140233046196603	-0.00593719258135456	0.00137081959333489	-0.00286212009794796	0.00135820761127737	-0.00286667708499042	-0.0113426260247407	0.00774061373865674
0.9	-0.000104906264671119	-0.00575201437462447	0.00095309217446722	-0.00302635545266179	0.000954129595338835	-0.00303706681142351	-0.0111406741254358	0.00871419707735125
1	-0.00125499511963667	-0.00514869008816343	0.000527343276858052	-0.00312957880919887	0.000517471511204047	-0.00313031955120054	-0.0104196013246463	0.00998614279783476
1.1	-0.00243747736758858	-0.005002009485596	7.18313332341411E-05	-0.00315856684377361	6.83234645719982E-05	-0.00317623664352284	-0.00956683599254867	0.0105174972734268
1.2	-0.004010124162367	-0.00463159707740615	-0.000371018104731152	-0.0031485227843387	-0.000371831079925283	-0.00314644389859479	-0.00881356422232318	0.0111626563618007
1.3	-0.00561405480866716	-0.00420715364780574	-0.000799087374815923	-0.00306537292843586	-0.000802331660397269	-0.00306738063613609	-0.00743200481550942	0.0116751686982361
1.4	-0.00693775308412651	-0.0034894486823326	-0.00122115053649016	-0.00291668498358735	-0.00121993669473172	-0.00292222522514455	-0.00587609888986054	0.0115604995841887
1.5	-0.00724728941726125	-0.00229479243028765	-0.00162197049562523	-0.00272082718249395	-0.0016203560049503	-0.00272933804835749	-0.00428627601440736	0.0110544276569309
1.6	-0.0073071105457676	-0.00078263053301902	-0.00198391627638623	-0.00246882728213427	-0.00198412773023272	-0.00247406997221876	-0.00396478982848973	0.0107522432033588
1.7	-0.00661366972365351	0.000955632433287324	-0.00231354471674931	-0.00217111984913888	-0.00231451031641778	-0.00216484756869495	-0.00343658148013057	0.0111823533408358
1.8	-0.00554317561574549	0.0024731143705591	-0.00258520766981774	-0.00181863497151101	-0.00259619424459968	-0.0018242766869036	-0.00270464970774356	0.011546056907117
1.9	-0.00421784716227368	0.00364259508017189	-0.00281089149020062	-0.00144719281122716	-0.0028233497272616	-0.00144102392878345	-0.00192287432687317	0.0119468358996593
2	-0.00251404795175183	0.0043225099614395	-0.00298784862208147	-0.00103887897467128	-0.00299748765799533	-0.0010341561222374	-0.000731250068009969	0.0121842260123169
2.1	-0.00121851939423733	0.00434298450565067	-0.00310168837195787	-0.000607953690324961	-0.00309759877216966	-0.00060995366714077	3.83616550921639E-05	0.0117923668696478
2.2	5.29478969997962E-05	0.00444741855342461	-0.00315829291377514	-0.000168062474799657	-0.00316962135942679	-0.000170889977423278	0.000759796981240068	0.0117109278342676
2.3	0.00137617624694342	0.00413267605326241	-0.00315289317683669	0.000276588946075968	-0.00315259952805333	0.000269693004913894	0.0014885271944014	0.0114926043625801
2.4	0.00253215348171418	0.00357958239560826	-0.00307981119769563	0.000716231704052383	-0.00308236374419831	0.000711970105277392	0.00213987904530332	0.0114256665552155
2.5	0.00377880397159415	0.00273797080308046	-0.0029411123883006	0.00113070978127986	-0.00295200891333053	0.00113712483223808	0.00331510539196776	0.0114126848467137
2.6	0.00459408911653839	0.00124648932482094	-0.00276437104243543	0.00153384726476438	-0.00276083673482381	0.00152149888800301	0.0044316744712058	0.0105772400501019
2.7	0.00506481310579444	-0.00012541794003291	-0.00251684058004869	0.00190496875256949	-0.00252212762245139	0.00190499173813595	0.00506247609685665	0.00979330173962814
2.8	0.0054435916545933	-0.00160024082566895	-0.00223221204870508	0.00223238889762151	-0.00222436458215744	0.00224217224050128	0.00549766712087772	0.00920367247050497
2.9	0.00569262456518565	-0.00317751797594028	-0.00189558565666713	0.0025322894432207	-0.00189187348080326	0.00253185191555613	0.00610926824395074	0.00897302190085021
3	0.00580363090437744	-0.00504401967584256	-0.00150668313085056	0.00276553263384512	-0.0015214548434935	0.0027716786241308	0.00730034137724281	0.00862387682953805
3.1	0.00515693952763968	-0.00709439127150062	-0.00111628617494621	0.00294079427050345	-0.00111160540049741	0.00294912888245048	0.0080007996064587	0.00771005373632814
3.2	0.00404262299721864	-0.0088180284416148	-0.000694767284673741	0.00307680143093054	-0.000696514264354615	0.00307619517427418	0.00838537311909231	0.00719273238419946
3.3	0.00256039477665293	-0.0104546542666315	-0.000255308273143402	0.00314475735134072	-0.000253669610307266	0.00314101125060165	0.00891090827872635	0.00665211037390935
3.4	0.000602173471272742	-0.011680378700726	0.000191877516534211	0.0031360666163639	0.000185720927745834	0.00315264915314001	0.00947067665611505	0.00603864167279344
3.5	-0.00141759843247674	-0.0126655163010542	0.000612105640827289	0.00309130518005214	0.000617700345863619	0.00309136659199634	0.0102328153958459	0.00507900661190946
3.6	-0.00412111468929351	-0.01336306116462	0.001040702223589	0.00297162163978587	0.00104889391175418	0.00297128281191528	0.0103282169241394	0.00374354507687641
3.7	-0.0068856500733895	-0.013149380501426	0.00145119445775688	0.00278861933175606	0.00144164749421038	0.00280232130361503	0.0102127586380586	0.00290459058757874
3.8	-0.00950065271290743	-0.01236526632142	0.00182829572056827	0.00255957079760653	0.0018307255317773	0.00256871113694768	0.0101189099780898	0.00225290620091142
3.9	-0.0117997468488147	-0.0110438809915419	0.00217245808493034	0.00228531659568013	0.00216519108056929	0.00228355782845755	0.0101031951401962	0.00185177543034264
4	-0.01356687467428	-0.00949329929442967	0.00245688624391398	0.00196399732844315	0.00246132794804533	0.00196155115352767	0.0107532200457704	0.00141505358923933
4.1	-0.01547781898812	-0.00784307649737744	0.00270794422938567	0.00160148991946794	0.00270669445619553	0.00160222948449596	0.0110727497346519	0.000309670207714378
4.2	-0.0170667309474847	-0.00549079225268962	0.00290463722700853	0.00119910099752275	0.00290907173257375	0.00119037710811923	0.0111209858950523	-0.000499533025309343
4.3	-0.0181283454952792	-0.00291391796404225	0.00304542450409354	0.000786792491530874	0.00305181660884267	0.00077897668186522	0.0111594053899477	-0.00130570172752152
4.4	-0.0187892771814217	-5.37340799746927E-05	0.00312017705426812	0.000352782704019303	0.00312254221108843	0.000350520840917034	0.0110923065025264	-0.00189487782687313
4.5	-0.0186475755851369	0.00286080800697276	0.00314081373855964	-8.66136399099379E-05	0.00314615598494459	-9.00028827562628E-05	0.011641872883364	-0.00250233862292659
4.6	-0.0184534576033259	0.00543028151424203	0.0030927176804961	-0.000528159725841054	0.00309399046952863	-0.000515274823024747	0.0117096728682194	-0.00397216092695624
4.7	-0.0176884033185715	0.00831256764505032	0.00298548442225104	-0.000944798627334318	0.00300070526987745	-0.000954446113588409	0.0112963150856334	-0.00513950934894713
4.8	-0.0163376033438104	0.0110003708676868	0.00282288743372242	-0.00135690531102017	0.00283132613314447	-0.00136300779158468	0.010753005264453	-0.00609218770977468
4.9	-0.0142916276810528	0.0134239652393536	0.002600498210455	-0.00173920289321656	0.00260466339928524	-0.00173631968432088	0.0102066034675974	-0.00666953578614034
5	-0.0115266220054465	0.0151336329782126	0.00233849897439941	-0.00209051503200003	0.00234211700079741	-0.00208787195508101	0.0104256611464965	-0.00723375616022923
5.1	-0.00879980810655242	0.0161366812281922	0.0020290973881827	-0.00239712981168303	0.00203139315363834	-0.00239578300559959	0.0101451892884232	-0.00845206407636655
5.2	-0.00584567847765358	0.0168128216250152	0.0016726121817074	-0.00264476743773195	0.0016743066636296	-0.00264989526862715	0.00963640798615459	-0.00914797305573344
5.3	-0.00276725250124202	0.0168217535244209	0.00128688344036306	-0.00285766383141671	0.00129000831825294	-0.00285561645346376	0.00927052795025922	-0.00959609757794275
5.4	0.00016352008190483	0.0163068261774707	0.000863697473872396	-0.00300209100198901	0.00088076452020341	-0.00301328577266863	0.00912970225358234	-0.0100452862344683
5.5	0.00304755215717624	0.0150938034070636	0.000454253360938785	-0.00309765809397576	0.000464249080478238	-0.00310705561444611	0.0094425932931523	-0.0110488462722582
5.6	0.00489586168052984	0.0133749165413937	1.81878541260911E-05	-0.00313436045476842	9.69377443842335E-06	-0.00313755673296065	0.00840171104303679	-0.0126245890638515
5.7	0.00650073254895618	0.0118726374026767	-0.000410939964806907	-0.0031031341062016	-0.00042748668198845	-0.00310676141693454	0.00690474277762654	-0.0131473920768751
5.8	0.00789950956380104	0.0100516084044145	-0.000853998344455836	-0.00300770619287421	-0.000857530379408225	-0.00302163091921353	0.00555071919658598	-0.0133899006576719
5.9	0.0088343605585736	0.00813048741974833	-0.00125546745678052	-0.00286831175467439	-0.00126366120282729	-0.00286822725195333	0.00413952942685597	-0.0131238444965143
6	0.00971837702217703	0.00596571825297584	-0.00165206061447447	-0.00266466275100421	-0.0016485133523576	-0.00266482931685681	0.00365334046091061	-0.0123983930281834
6.1	0.00956942535058963	0.00316522588340255	-0.00200608156078319	-0.00240989914896394	-0.00200771211683473	-0.00240591038042456	0.00326693691072721	-0.0126558389807906
6.2	0.00876846140671573	0.00086147560020791	-0.00231608845400354	-0.00209783926076713	-0.00231978469861933	-0.00210965701931121	0.00270689756547532	-0.0127886487204895
6.3	0.00772267590299285	-0.00126886948407766	-0.00259173392745098	-0.00176564193602633	-0.00260082221531814	-0.00175992895343633	0.00220411909154286	-0.013152164932718
6.4	0.00633517747183926	-0.00317475386376486	-0.00281731448828602	-0.00137780705442707	-0.00280762890119103	-0.00138268637508469	0.00172024245510027	-0.0134059591794824
6.5	0.00488047569870113	-0.00511558727130391	-0.00297371565847679	-0.000973363042577941	-0.0029815437122677	-0.000968899469815542	0.00184813699796972	-0.0141955386333981
6.6	0.00243432397332287	-0.0064423544823958	-0.00307934561175561	-0.000551025399857275	-0.00308096987519271	-0.000554983895225055	0.000775252880060265	-0.0153755636139935
6.7	0.000198516934208802	-0.00683688746299268	-0.00312996529616569	-0.000116939905263762	-0.00313878335140141	-0.000110698008627697	-0.000579969095541035	-0.0156516593641832
6.8	-0.00203271865751681	-0.00678436322321323	-0.00310958333969392	0.000321691519217154	-0.00312063249710484	0.000326704213193763	-0.00190514199403889	-0.015490463651684
6.9	-0.00421814226652684	-0.00607871281337924	-0.00303534849304941	0.00075327588823156	-0.00303832507680953	0.000755652587156941	-0.00296194881632977	-0.0147749733420655
7	-0.00575960555760761	-0.00515453838510133	-0.0028983432356979	0.00117083678238037	-0.00291110542322458	0.00116863378119882	-0.00285700882990734	-0.0144091631212845
7.1	-0.00797363643309075	-0.00402369312977367	-0.00272419011875874	0.00155577241479631	-0.00272056348036491	0.00156440534572104	-0.00392905413899708	-0.0149875687876862
7.2	-0.00964329760441357	-0.00186720135191533	-0.00247140760795848	0.00192257908649932	-0.0024779140202334	0.00192463214825171	-0.00527181255575998	-0.0145754630597569
7.3	-0.0107496396659472	0.000509805777860211	-0.00217905078249188	0.00224095202641791	-0.00219023081955973	0.00224595266836425	-0.0063374504076512	-0.0139323922709463
7.4	-0.0114294853817762	0.00314062399344367	-0.00184057859784503	0.00252312558894638	-0.00184747528647596	0.00253665364645964	-0.00744860238156515	-0.0129442051419475
7.5	-0.0110823366257756	0.00576759079541144	-0.00148081067414943	0.00276188477288094	-0.00147387752707413	0.00276928032058381	-0.00716487307637516	-0.0116607540710729
7.6	-0.0106749577369805	0.00764580265739969	-0.00107859558304455	0.00294420390260506	-0.0010799455676651	0.00293951528791554	-0.00693777146420507	-0.0120351828513286
7.7	-0.00988732079251892	0.0098105479027549	-0.000652421691727087	0.00306819930946789	-0.000653753516608012	0.00306713467164245	-0.00733283294050171	-0.0124851691630343
7.8	-0.00839089032847574	0.0115449496559589	-0.000228862769846473	0.00311998737261951	-0.000236680065956632	0.00312639284228338	-0.00793185362235952	-0.0127771957565635
7.9	-0.00642963948114384	0.0129163269649589	0.000209746382867956	0.00313060235642048	0.000217663334475254	0.00313213773900862	-0.008430089978658	-0.0126680402121401
8	-0.00383110737247108	0.0134792529693896	0.000651460815161083	0.00306455889325511	0.000651517121429269	0.00306945408154174	-0.00838252261481708	-0.0131011908270547
8.1	-0.00186437220470384	0.013791051816349	0.00106410863900013	0.00294920616825509	0.00108323577252433	0.00295037878977428	-0.00982831064589649	-0.0138039892778842
8.2	0.000543359670752795	0.0139943394263165	0.00146937909749613	0.00277085287200613	0.00147865274230267	0.0027637055009958	-0.0112292619272693	-0.0133519134626362
8.3	0.0030063437989148	0.0135749728103002	0.00184713629791097	0.00253497259037232	0.00184542955216999	0.00254851089450175	-0.0123481821340592	-0.0125989198170504
8.4	0.00531387546111689	0.0128325862941368	0.00218575123773315	0.00226042243905064	0.00218272082779116	0.00226018376752571	-0.0132637980599332	-0.011459928712653
8.5	0.00785301199819349	0.0113163029883234	0.00247560322737311	0.00192948613909314	0.00247469357367847	0.00193266836200481	-0.0130879678551375	-0.0105126389285917
8.6	0.00919948699785732	0.00917345062383968	0.00272203639307596	0.00156959779413084	0.00273156326157103	0.00156309242563073	-0.0138462226040894	-0.010696031357276
8.7	0.0103783956507624	0.00725660391209042	0.00291007778617686	0.00116860233999918	0.00291563732267351	0.00116934869062881	-0.0150424592043543	-0.0100883697179932
8.8	0.0113382994302498	0.0049797029865001	0.00304975149619343	0.000758348916022938	0.0030555611262038	0.000749605120416953	-0.0162482736538326	-0.00916321633322493
8.9	0.011928443835779	0.00240902495296741	0.00313009720220467	0.000323339904831886	0.00312923369495867	0.000321086964906586	-0.0171369816573141	-0.00746470871416148
9	0.0123111193045696	-0.000660304499205155	0.00314006565314537	-0.000120203726381378	0.00314320898507399	-0.00011608806219656	-0.016488354432693	-0.00559893414661737
9.1	0.0114344012894624	-0.00413915837366369	0.00309769992693964	-0.000560420339290427	0.00310053059984806	-0.000547496106885912	-0.0159634061716632	-0.00493674084490599
9.2	0.00986129870369339	-0.00716330634113234	0.00299171981713742	-0.000980033911468308	0.00299940277855722	-0.000982882562466707	-0.0154636071872614	-0.00412696697439536
9.3	0.00756876135005741	-0.00991057081079007	0.00282517729552149	-0.00138798730103531	0.00282446520890053	-0.00139299065563105	-0.0147867205943932	-0.00354137351545122
9.4	0.00458116848734585	-0.011961274211832	0.00260356375445638	-0.00178023593535365	0.00261005773725407	-0.00177259827549906	-0.0141429658602085	-0.00301296240768455
9.5	0.00129383664655901	-0.0134627142234965	0.00233174263450745	-0.00211555107081959	0.00233917746469096	-0.00211686688138202	-0.0130071707371094	-0.00310552353554178
9.6	-0.00304611520843377	-0.0139768096852467	0.00201669741988669	-0.00242481320582188	0.00201702407026141	-0.00242382662483339	-0.0135195437785917	-0.00381570592156368
9.7	-0.00701942149680533	-0.0130856297361397	0.00164879527880523	-0.00267955068316206	0.00165437776254861	-0.00268686039183815	-0.0142900691682204	-0.00344042099371718
9.8	-0.0106496130520242	-0.0115046773153947	0.00126306664096656	-0.00289178601173659	0.00126875289135399	-0.00288323562552658	-0.0149411470812856	-0.00266013459282683
9.9	-0.0139085394147298	-0.00909202737786725	0.000857490728543267	-0.00303441047581665	0.000850125963752249	-0.00303320852716625	-0.0154845562363134	-0.00128292734659791
10	-0.0163825667169992	-0.00635052615691598	0.000425239756604209	-0.00312992053595527	0.00041775825840609	-0.00314245431725805	-0.0147414080663356	-2.46464868045104E-05
10.1	-0.0190441374884497	-0.0031477242299714	-2.24925730090073E-05	-0.00316367799600275	-3.27913121274522E-05	-0.00315828515930618	-0.014687189234551	8.9457184260998E-05
10.2	-0.0207640098578951	0.0010710672769289	-0.000472216420253631	-0.00312791360817193	-0.000475647534326978	-0.00312512857984141	-0.0148760791521862	0.000873876295400677
10.3	-0.0214268232667134	0.00561589075358848	-0.000908409540993946	-0.00302338079076514	-0.000900254940922589	-0.00303248510787688	-0.0148304970333615	0.00190341275308902
10.4	-0.0210132522843025	0.0103211312878363	-0.00131042950713064	-0.00286988282696336	-0.00130871253949982	-0.00287611288690764	-0.0142718879378662	0.00319223927079328
10.5	-0.0193221716904834	0.0146269155546783	-0.00170855213545425	-0.0026684346394785	-0.00170543526312033	-0.0026553531212418	-0.0124713457313467	0.00395503458815322
10.6	-0.017399707987975	0.0185704164965102	-0.00206271342160447	-0.00239474176282451	-0.00206051423160311	-0.00239858485293165	-0.0115023705541477	0.00349298038772658
10.7	-0.0144242861611872	0.0224967793657405	-0.002380040787674	-0.00209082398901162	-0.00237652748431148	-0.0020855140478062	-0.0108382383339327	0.00333527487111771
10.8	-0.010605527618499	0.0257702449687572	-0.00265154189369272	-0.00172796660148406	-0.0026463167643316	-0.00173694360554402	-0.010509679255074	0.00310183406337691
10.9	-0.00612354559802213	0.0284439030735377	-0.0028614017973183	-0.00134953301328769	-0.00286661704165524	-0.00134879265558691	-0.0103586514933352	0.00335472418702046
11	-0.000671153911335655	0.0299218969233139	-0.00301825162272292	-0.000929269199646918	-0.00302312546076458	-0.000936033905290817	-0.0092251251960302	0.00341486671454651
11.1	0.00434809302573909	0.0304191538290053	-0.00312726491232847	-0.000503826054283804	-0.00311635219179395	-0.000500960685945028	-0.00918055392466902	0.00255804765356575
11.2	0.00992004896506461	0.0302124188226815	-0.00315731826922671	-6.29536261847197E-05	-0.00316451175856527	-6.78065556798566E-05	-0.00933769128198377	0.0025017086222682
11.3	0.0156861829413675	0.028672482676573	-0.00312961198066775	0.000389359527883074	-0.0031412253195728	0.000379290870738119	-0.00932624076454098	0.00277249353736932
11.4	0.0209517393671156	0.0259460211103086	-0.00305344225911704	0.000819571996455699	-0.00304849305596536	0.000827162625570277	-0.00908475923066741	0.00331689249363956
11.5	0.0258303798425554	0.0218288230156838	-0.00291000820271723	0.00123503734376196	-0.00291278753688184	0.00124536278381204	-0.0078126934706758	0.00319626896109368
11.6	0.0291905485965579	0.0167602920798862	-0.00271537448507396	0.00162975652633623	-0.00271535039977806	0.0016327119346501	-0.00773611455989285	0.00214036857197406
11.7	0.0318297917960216	0.0114605495416214	-0.00245078650375676	0.00198728250502879	-0.00245133328458556	0.00199593249122012	-0.00793825078061668	0.00185080985235916
11.8	0.0335579786783109	0.00563055475466856	-0.00215208169476006	0.00232075848384606	-0.00215621239089075	0.00232247605627786	-0.00796733229920975	0.00199831440568424
11.9	0.0342835579369408	-0.000402925628904217	-0.00180057936730252	0.00259728200487345	-0.00181365266581674	0.00260164324646051	-0.00752679405206754	0.00292584094761456
12	0.0340925921391903	-0.00699166069062	-0.00142447367476494	0.00282384250084682	-0.00142386997301383	0.00282526046487499	-0.00548900452829792	0.00296309448417004
