# GHZ S RI R 50
0.2	0.00566196059831998	0.000363651136982336	0.00305347506941684	-0.000896539498100145	0.00306385253598685	-0.000889711800608331	-0.0142719509715777	0.00404865250298186
0.3	0.00606311203246485	-0.00129092497707088	0.00291075748074338	-0.00132055746179911	0.0029034842736366	-0.00130760352619385	-0.0134081126036981	0.0045440419142323
0.4	0.00585692298777922	-0.00254675457905037	0.00268067834138247	-0.00169382856954814	0.00268596801226463	-0.00170240255970202	-0.0128847798836128	0.00547963139617149
0.5	0.0059921504375848	-0.00408162661279327	0.00242189293325263	-0.00205377571103523	0.00243347121153824	-0.00206604128345813	-0.0116152813692729	0.00598847298107958
0.6	0.00436571503351301	-0.00602457046636456	0.00210800615609504	-0.00236907183215836	0.00210722201593801	-0.00237624007479903	-0.011776165305575	0.00580453978676615
0.7	0.00246676080120075	-0.00648899492747394	0.00176086287773362	-0.00264823086343146	0.00175890154184402	-0.00264843163620237	-0.0119878425470431	0.00672974196594687
0.8	0.000792669539327976	-0.00656141848289116	0.0013745966760565	-0.00286768733594514	0.00136195969361921	-0.0028722578567666	-0.0119040704375846	0.00780242890911748
0.9	-0.0010607890233363	-0.00597848825419432	0.000955258449872183	-0.0030331609770896	0.000956298280014066	-0.00304389643920349	-0.0118153710666572	0.00913348232271593
1	-0.00160765688431987	-0.00451333375635808	0.000527759945736245	-0.00313564894055797	0.000517869206643259	-0.00313638923650858	-0.010443618588518	0.0109362853520664
1.1	-0.00218213128234284	-0.00511878336423236	7.23810725415869E-05	-0.0031651654714963	6.88681002280618E-05	-0.00318287268012164	-0.00930331906399987	0.0106199223057373
1.2	-0.00397899118688262	-0.0050999717558926	-0.000372115391508405	-0.00315597273325891	-0.000372930154041961	-0.00315388885587242	-0.00897784432611028	0.0110017687166605
1.3	-0.00579137144174735	-0.0049928329179994	-0.000802080862398041	-0.00307261552512903	-0.000805333776897672	-0.00307462705769205	-0.00797312114673794	0.0113963479854017
1.4	-0.00745239473150955	-0.00430328646973574	-0.00122552437483457	-0.00292274073938054	-0.00122431071159095	-0.00292829437881231	-0.00674056582116276	0.0115272629410863
1.5	-0.00741785259325624	-0.00327182294931253	-0.00162622857238659	-0.00272686769395772	-0.00162461184252707	-0.00273539864655952	-0.00483509759367862	0.0110991473116629
1.6	-0.00812766131751456	-0.00202068645455227	-0.001990934518597	-0.00247498351510518	-0.00199114925886855	-0.00248024131799983	-0.00487557588582921	0.0109331491309877
1.7	-0.00765596900268085	0.000202583752724395	-0.00232225641389293	-0.00217511445920313	-0.00232321875196444	-0.00216882328835042	-0.00418321480210236	0.0118345586912849
1.8	-0.00656384331987692	0.00212836484004723	-0.00259437914237936	-0.00182055110889156	-0.00260540224435862	-0.00182619528632868	-0.00322249286847792	0.0124193716196796
1.9	-0.00499973191514479	0.00386430330407544	-0.00282000528674392	-0.00144787660751493	-0.00283248973320312	-0.00144167726033681	-0.00216834684543719	0.0130897159957927
2	-0.00218772595228402	0.0045433240588551	-0.00299888616986581	-0.00103840903914298	-0.00300855042827657	-0.00103365845390127	-0.000236601926567196	0.0131274658543254
2.1	-0.000999021766174463	0.00365909510205654	-0.00311246950800545	-0.000603278607416034	-0.00310837159783945	-0.000605293328909936	0.000189449480542326	0.0121864305521422
2.2	-9.15639122290348E-05	0.00366414018747694	-0.00316734131179666	-0.000161322965814938	-0.00317870728510527	-0.000164132398264745	0.000714806852420733	0.0122706854078431
2.3	0.000940400226587387	0.00342054535758265	-0.00316064147860921	0.000284822525716498	-0.0031603634423707	0.000277907501171259	0.00144641230974127	0.0121747605843434
2.4	0.00182228926555518	0.00332383454286474	-0.0030866868722839	0.000726274520382457	-0.00308925774577826	0.000722007468970028	0.00213582079309682	0.0123045952146242
2.5	0.00386296021351831	0.00311921198458036	-0.00294507219054051	0.00114416595268462	-0.00295597551754991	0.00115063687940176	0.00396052505441907	0.012341410050489
2.6	0.00516527970638725	0.000896227265031148	-0.00276404616577041	0.001546565603535	-0.00276054933174798	0.00153418162465619	0.00501204118932734	0.010734241253439
2.7	0.0055391407996096	-0.00087115431621341	-0.00251455720381122	0.00191707994695774	-0.00251985335910921	0.00191712145587378	0.00526203218645451	0.0097939176940212
2.8	0.00568851411308926	-0.0025836915580013	-0.00222766035889647	0.00224438857058107	-0.00221976353124851	0.00225415914387374	0.00538043485522528	0.00923953511237029
2.9	0.0057474592015509	-0.00402535099875551	-0.00188764863449185	0.00254386982107976	-0.00188393299962061	0.00254341606813077	0.00582074747883691	0.00926910692098825
3	0.00638067816521373	-0.0060313297450424	-0.0014951936439649	0.0027731020325478	-0.00150994399501313	0.00277931457629219	0.00725109617189672	0.00887595137376341
3.1	0.00529556192840682	-0.00877739598343736	-0.0011056200465097	0.0029458567357154	-0.00110090667922289	0.00295417634663223	0.00741098894609836	0.00785018194422434
3.2	0.00368124881048958	-0.0104564029333884	-0.00068298941429119	0.00308042937415182	-0.000684739278867227	0.00307982974144717	0.00760835879771368	0.00776803468385844
3.3	0.00184276253602954	-0.0118990393892023	-0.000242412430733728	0.00314574951844514	-0.000240789152790952	0.00314199676510918	0.00814451998601807	0.00756671701521466
3.4	-0.000313909705029519	-0.0126112380989079	0.000204667678586681	0.00313322382088463	0.000198583413702612	0.00314982086001149	0.00883034007460025	0.00734287617973177
3.5	-0.00161612203504327	-0.0133854409918829	0.000621673303247423	0.00308652412440597	0.000627263182214747	0.00308656717000347	0.0101767666953974	0.00639668009181094
3.6	-0.00457386909689446	-0.0147304213469609	0.00105070868611513	0.00296676266136768	0.00105889585899113	0.00296639522201736	0.0100130761955968	0.00478829734568298
3.7	-0.007838508312652	-0.0143314545309347	0.00146065928424115	0.00278100749328657	0.00145117146858593	0.00279473524789384	0.0098593587608941	0.00426287752038838
3.8	-0.010707787969853	-0.0130796777837786	0.00183565327647899	0.00254976537441115	0.00183811418673506	0.00255888592757886	0.00997024233671184	0.00380754738728375
3.9	-0.0128814693511058	-0.0109716002343596	0.00217693091135811	0.0022749591749557	0.0021696683168922	0.00227322679385944	0.0102614256488326	0.00355028114980604
4	-0.0134123806625844	-0.00916063975431511	0.00246152083172002	0.00195442515652526	0.00246595114249772	0.00195196616976192	0.0115574490423089	0.00275104049543933
4.1	-0.0151213352342456	-0.00838462080548645	0.00271098464787222	0.00158851674232088	0.00270973944729389	0.00158926042084044	0.011443004436748	0.00106250243714292
4.2	-0.0168830314063101	-0.00623646212831084	0.00290397575708559	0.00118557243167208	0.00290836809980433	0.00117684728070666	0.0112490057096955	0.000388550123156446
4.3	-0.0180488514184744	-0.00368288205906385	0.00304198114803557	0.000773976361639327	0.00304833126959486	0.000766153335465915	0.011277031970255	-0.000350042272311121
4.4	-0.0187159860460256	-0.000532108811103133	0.00311525519740742	0.000340798719120241	0.00311760747692504	0.000338532795832129	0.0112476146445657	-0.000858554537125762
4.5	-0.0175650109559873	0.00241836897702996	0.00313297065937459	-0.000100382713233716	0.00313828514076911	-0.00010378767826036	0.0122090503919225	-0.00176417654741612
4.6	-0.0173744525410997	0.00379755004448231	0.00307964926838769	-0.000538522130202173	0.00308096852228713	-0.000525688002596973	0.0116063607892731	-0.00379992639338779
4.7	-0.0171463030076253	0.00630076247444657	0.00297112350654125	-0.000951413158341887	0.00298625472574465	-0.00096107632473314	0.0106512048953105	-0.00468386988854165
4.8	-0.0162882456763215	0.0089343332921172	0.00280778126542962	-0.00136073959260094	0.00281616827361785	-0.00136684572594435	0.0098661029178143	-0.00525395385677476
4.9	-0.0145972483896457	0.0117461305698928	0.00258404358486244	-0.00174081409835695	0.00258820142081081	-0.00173795663116477	0.00930666165959598	-0.00532765222941669
5	-0.0111775910386789	0.0135130350612994	0.00231983581219457	-0.00208639484631783	0.00232344251484385	-0.00208377661170282	0.010025330253052	-0.00582475047317375
5.1	-0.00900831684774903	0.0138187863744888	0.00201425202186495	-0.00238841174262489	0.00201653835561357	-0.00238707606868337	0.00938653335979291	-0.00707121736532123
5.2	-0.0066391381681026	0.0148031193857084	0.00165995293496941	-0.00263422351414624	0.0016616306302961	-0.00263932839630948	0.0090191539729385	-0.00734149253699934
5.3	-0.00374808304417889	0.0153088948785822	0.00127596551279528	-0.00284464649981601	0.00127907709776204	-0.00284261440082832	0.00895960149100668	-0.00768076000050657
5.4	-0.0006077810984916	0.0155080120894289	0.000855476727214106	-0.00298563403634173	0.000872432942977869	-0.00299678228871802	0.00907278917779323	-0.00805168516042052
5.5	0.00363488598881753	0.0141101468087928	0.000452708062398475	-0.00307969567013055	0.00046264955756616	-0.00308903573188555	0.0099224950330641	-0.00955007896215132
5.6	0.00497294802349346	0.0111884410585846	1.91489689541439E-05	-0.00311895075190732	1.06977040447018E-05	-0.00312213416903183	0.00806286444813964	-0.0114173205572734
5.7	0.00577278193043139	0.00974949186580282	-0.000407776984605993	-0.00308761660068773	-0.000424238916665413	-0.00309123141061279	0.00640821134064096	-0.0113865699736659
5.8	0.00661089655830216	0.00839322907584393	-0.000847261123064168	-0.00299261674774215	-0.00085076417289609	-0.00300647129640813	0.00530452569073888	-0.0112960151715966
5.9	0.00724741517213486	0.00762239686765154	-0.00124454444818218	-0.00285555856377555	-0.00125269629062192	-0.00285548729856002	0.00428754089663926	-0.0107741126205046
6	0.00979022677266522	0.00662558594981362	-0.00164096267500958	-0.00265689960205683	-0.00163742921064311	-0.00265705946319619	0.00487587177421299	-0.010422025580141
6.1	0.0106515128938247	0.00267869543391159	-0.00199483906183299	-0.0024016666648681	-0.00199646687906668	-0.00239769684900306	0.0040702026595678	-0.0119164721016343
6.2	0.00988087382420498	-0.000324321513796328	-0.0023022923302698	-0.00209157447540029	-0.00230595403993563	-0.00210334312230381	0.0027919972352939	-0.012227066873433
6.3	0.00855090502117191	-0.00294134277971185	-0.00257657196220542	-0.00176272348719786	-0.00258563033164475	-0.00175705407435196	0.00175936857165944	-0.0124379103704899
6.4	0.00690739041432218	-0.0046287464963056	-0.00280301488919225	-0.00137847550820677	-0.00279335735880136	-0.00138331404408754	0.00106626159178583	-0.0121544943042807
6.5	0.00630320720609489	-0.00710354088611568	-0.00296005870923171	-0.000973558278503716	-0.00296786076846287	-0.000969124227543946	0.00149616786402936	-0.0130475028487441
6.6	0.00285865133098568	-0.00934765731457148	-0.00306287061081715	-0.000555080992035435	-0.00306447810093151	-0.000559023449508901	-0.000227993413889846	-0.0138582680314289
6.7	-5.61936678492217E-05	-0.00949155784414258	-0.00311502039511628	-0.000125545073832	-0.00312381555814253	-0.000119358079543588	-0.00131908996402827	-0.013515535301773
6.8	-0.00268418632356574	-0.00907832586232146	-0.00309730724868415	0.000310387671771191	-0.00310832514023651	0.000315343645517301	-0.0023399913192565	-0.0131491867895352
6.9	-0.00490445609939934	-0.00746508563328191	-0.00302501398874403	0.000741046336323954	-0.00302798535121407	0.000743404246262527	-0.00306528913586836	-0.0121299232268845
7	-0.00469265045108675	-0.00658790332519017	-0.00288758226744934	0.00115466548544227	-0.0029002712632799	0.001152429024159	-0.00211074983171574	-0.0122891593951665
7.1	-0.00739022662791378	-0.00714683459369686	-0.0027195969153769	0.00153579767671125	-0.00271602780317905	0.00154440979088257	-0.0040373812648584	-0.0132899462032255
7.2	-0.0100884624457859	-0.00522432558923164	-0.00247162727672532	0.00190305113619112	-0.00247811932840275	0.00190506414128355	-0.00546281442629777	-0.0122852997256492
7.3	-0.0121541089602863	-0.00263290008851984	-0.00218268152942583	0.00222203255913559	-0.00219384736918673	0.00222695906385847	-0.00614417358924961	-0.011341619389057
7.4	-0.0137522688723155	0.00114942371782378	-0.001847445206317	0.00250379151895293	-0.00185438972338974	0.00251723203535359	-0.00667185369849033	-0.0101403647831808
7.5	-0.0121545359430113	0.00516097471339287	-0.00149527365728896	0.00274351134106324	-0.00148841178424916	0.00275093221051619	-0.00510136926616829	-0.00959447840488915
7.6	-0.0114889460061013	0.00623722120239059	-0.00109601049367356	0.00293235448168007	-0.0010973277207099	0.00292766475134889	-0.00550354984596337	-0.0115098709877337
7.7	-0.0110260488456096	0.00858689642021588	-0.000670663231786018	0.00305983135740099	-0.000671986545831237	0.00305875989526397	-0.00677156574951555	-0.0121697363855477
7.8	-0.00948133531039022	0.0108487742660296	-0.000248585737822935	0.00311472719315825	-0.000256434593666091	0.00312107476151908	-0.00801008875518781	-0.0122901765368046
7.9	-0.00676217469434843	0.0129075379639639	0.000187663528759951	0.00312987057722194	0.000195564155158442	0.00313146035228456	-0.00874717921180945	-0.0118110321680338
8	-0.00234028220713853	0.0126081587825374	0.000631663067718423	0.00307174725785598	0.000631686834255292	0.0030766473750171	-0.00879267114446492	-0.012401779351342
8.1	-0.00106085640938419	0.011331184775377	0.00104809609467009	0.00295747260563673	0.00106723082815146	0.00295875510577074	-0.011332087085778	-0.01257438027637
8.2	0.000657784445569594	0.0114411323003102	0.00145415906547733	0.00278134999051442	0.00146348089741485	0.00277425203516796	-0.0126018119350882	-0.0110872508120406
8.3	0.00269416410294787	0.0112103789712453	0.00183370710020002	0.00254898896128611	0.0018319160187947	0.00256253162766509	-0.0132931516582726	-0.00981223213358647
8.4	0.00492846622860445	0.0112677837405277	0.00217659126378293	0.00227808151767559	0.00217355618737042	0.00227782418903911	-0.0136923200566477	-0.00828041796701018
8.5	0.00924236468185174	0.00968534902301432	0.00247171776043128	0.00194517823137487	0.00247079122912846	0.0019483628480445	-0.0125723657853397	-0.00782604336208419
8.6	0.0102068517937061	0.00570234089674121	0.0027179253415797	0.00158614605617862	0.00272750040691133	0.00157968063845234	-0.0140794937986246	-0.00841928405630713
8.7	0.0102912960175433	0.00338856742029069	0.00290973850806552	0.00118709010297064	0.00291530558700062	0.00118786865759116	-0.0152911569071595	-0.00720048871639219
8.8	0.0102127647837593	0.00131191808994514	0.00305409548148849	0.00077650879160142	0.0030599671227816	0.000767771715575395	-0.0160165929723047	-0.00596972158086503
8.9	0.0100302431577795	-0.00011768577013218	0.00313803062530749	0.000338338271595876	0.00313717462735909	0.00033607470810265	-0.0162216928552013	-0.00420610519438033
9	0.0116560545580681	-0.00224737553353106	0.0031467945034073	-0.00010593035130036	0.00314992499738651	-0.000101792070844871	-0.0145567401519932	-0.00325829270127368
9.1	0.0108260061772667	-0.0064250681027121	0.00310973305331538	-0.000545174719267645	0.00311250154624605	-0.000532197600201392	-0.0148081279485315	-0.00365048809776461
9.2	0.00908990547916805	-0.00924527103575714	0.00300743845750764	-0.000968461837280784	0.00301516346044454	-0.00097128196523235	-0.0148892359879627	-0.00296232965234561
9.3	0.00691163506558112	-0.0117499381458818	0.00284233032177847	-0.00138027209425759	0.00284163855111674	-0.00138529778997687	-0.0147324468998721	-0.00235931805273412
9.4	0.00434435351540465	-0.0132094611871903	0.00262075438657898	-0.00177471835259629	0.00262723664867121	-0.00176702451493631	-0.0144214010212202	-0.00145411471205443
9.5	0.00265504351411275	-0.0154741083644791	0.00235365122281387	-0.00211150099961502	0.00236112534811591	-0.00211278060672345	-0.0133230905582401	-0.00187669850061701
9.6	-0.00248054551286782	-0.0175449894521115	0.00203928222782012	-0.00242907741872096	0.00203960613518848	-0.00242808377802391	-0.0149494542956697	-0.00208998697512747
9.7	-0.00744864837434276	-0.0167922644923433	0.00166861142660887	-0.00268840303605535	0.00167425414769424	-0.00269573267461642	-0.0156598213706503	-0.000724272099686036
9.8	-0.0119435828117234	-0.0148537192102036	0.0012807308769133	-0.00290373114381997	0.00128641868656825	-0.00289511138557838	-0.0158945757810916	0.000606188445014058
9.9	-0.0157098125587093	-0.0112018896549664	0.000874332007704563	-0.00304960325684851	0.000866917796157126	-0.00304842219247165	-0.0158305674348061	0.00236168783582527
10	-0.0166185873375472	-0.00776020039551339	0.0004377159344963	-0.00315248803582848	0.000430214492015397	-0.00316513930133066	-0.0141497620934685	0.00309568943211992
10.1	-0.0192385233546478	-0.0055137337124023	-1.77231115102309E-05	-0.00318611140483312	-2.81031659503681E-05	-0.00318069643207558	-0.0146246775043287	0.00283326587512297
10.2	-0.0213111127691985	-0.00128386139934679	-0.00047117841776732	-0.00314986546561324	-0.000474636695651954	-0.00314706613122866	-0.0146435148041898	0.00391377003050596
10.3	-0.0222525756134279	0.00355127210246235	-0.000911251265256114	-0.00304573819556421	-0.000903028539338356	-0.00305489703295742	-0.0141894904752435	0.00483421630581336
10.4	-0.0217631402773566	0.00925235930179455	-0.00131905260942741	-0.00289287180995847	-0.00131731894549064	-0.00289914931043565	-0.0132574004189205	0.00580193751031064
10.5	-0.0181646635034697	0.0136509835054571	-0.00172462636101182	-0.00268563703516241	-0.00172146911885239	-0.00267246411269768	-0.0111887725357271	0.00535425232490066
10.6	-0.0161183506499426	0.0161740717227711	-0.00207812446264387	-0.00240740537053754	-0.00207591574691544	-0.00241127473084368	-0.0115932912915338	0.00436851674845316
10.7	-0.0134178809534241	0.0195780414545086	-0.00239750095648029	-0.00210169270665511	-0.0023939595223039	-0.00209635247983987	-0.0119077544550149	0.00463908360276749
10.8	-0.0100541128495215	0.0225762703275549	-0.00267189119709477	-0.00173518969433639	-0.00266664575918624	-0.00174423459351473	-0.0121310358314727	0.00515850297891142
10.9	-0.00575785792154577	0.025776172572056	-0.00288327920626775	-0.00135036816383959	-0.00288852564932263	-0.0013496089534719	-0.0118908035234635	0.00636905474874375
11	0.00120762861921435	0.0268429346366744	-0.00303516113151358	-0.000925911449631184	-0.00304007591791815	-0.000932696024873532	-0.0101246167166493	0.00638554882236855
11.1	0.00550231965623885	0.0256084135355748	-0.00314530346876948	-0.000500275188017297	-0.00313432557389261	-0.000497416182755597	-0.0107921248136539	0.00591365817519205
11.2	0.00987865712174878	0.0250286089812496	-0.00317532801037897	-5.48306837729003E-05	-0.00318257517924861	-5.96917176185976E-05	-0.0106125706622748	0.00682502687843114
11.3	0.0143767740455847	0.0237899982677757	-0.0031448652055962	0.000401888958826702	-0.00315657366286815	0.000391805888985496	-0.00983536386221108	0.00762655699463865
11.4	0.0188836540952692	0.0223032833454657	-0.00306384676512719	0.000833831773277684	-0.00305884945350137	0.000841438066885286	-0.00863433781171095	0.00837207214731034
11.5	0.0250317955712628	0.0185914913188766	-0.00292077017218845	0.00124773748931382	-0.00292353812621501	0.00125811807522507	-0.00629523449496616	0.00732599421973853
11.6	0.027685204450238	0.0126930354805868	-0.0027243915510385	0.00164814635280158	-0.00272435695070583	0.00165111772324572	-0.00666793814695105	0.0058196544297017
11.7	0.0294165160872354	0.00801064866310851	-0.00245429669587499	0.00200729998238986	-0.00245480957020305	0.00201599431763528	-0.00648529487921859	0.00553691995448363
11.8	0.0307636349991412	0.00336543316765786	-0.00215114254892112	0.00234001232462798	-0.00215528335873261	0.00234175519685714	-0.00603263691686844	0.00516925286011799
11.9	0.0323569804704987	-0.000843665245276434	-0.00179788289134648	0.0026151874922281	-0.0018109935704886	0.00261961828684478	-0.00517843661564921	0.00518509065123615
12	0.0348038277034703	-0.00762406008555524	-0.00141848957862566	0.00284559849147171	-0.00141787589531873	0.0028470210656059	-0.00360800428792404	0.00348127002543392
