# GHZ S RI R 50
0.2	0.00597313184846618	0.00142092029740044	0.0030474704840592	-0.00089805391409417	0.00305783730132741	-0.000891247916734797	-0.0140247403006291	0.00502415813674582
0.3	0.00626437678412198	-0.000588094408769494	0.00290305134106673	-0.00132134763801871	0.00289580917943792	-0.00130841193834958	-0.0132460085013235	0.00516375718016298
0.4	0.00601079855141426	-0.00232534577492147	0.00267117131100517	-0.00169285184523246	0.00267643520587127	-0.00170140978736846	-0.0127066475673936	0.00562254772729157
0.5	0.00505785112967023	-0.00371574527319355	0.00241232306231926	-0.00204884210060836	0.00242385372011903	-0.00206107600323464	-0.0123445054734577	0.00620447140197899
0.6	0.0041282590491796	-0.00447417211432664	0.00210024681352107	-0.00236315462019137	0.00209946082989858	-0.00237030075016527	-0.0117500182705224	0.00693049404105424
0.7	0.003026454095107	-0.00514373840143294	0.00175318155345059	-0.00264072485590875	0.00175122655396138	-0.0026409235838486	-0.0112778450325306	0.00744454870168948
0.8	0.00183492976135268	-0.00551587153133081	0.00136797719908459	-0.00285775191299797	0.0013553847818558	-0.00286229879066659	-0.01089139277537	0.00810056327081714
0.9	0.000618217770398997	-0.0056195606535328	0.000951452913664915	-0.00302091975155409	0.000952488712164532	-0.00303161192237499	-0.0104179136701488	0.00878164188327098
1	-0.000859186493192585	-0.00575894028719972	0.000527422529216096	-0.00312467728380017	0.000517565965198593	-0.00312541967712695	-0.0100352171353775	0.00933164359323942
1.1	-0.00256544715563793	-0.00506035359166856	7.16549969235306E-05	-0.00315367608690441	6.81521975024068E-05	-0.0031713184459855	-0.00968195647291067	0.0104211688196864
1.2	-0.00384980216344017	-0.00440626347663249	-0.000370102022335377	-0.00314288857180655	-0.000370913699332216	-0.00314081348974266	-0.00863198408919428	0.0113456406188738
1.3	-0.00528887530325947	-0.0038326539337889	-0.000796690659948409	-0.00305984153843942	-0.000799928259044988	-0.00306184641685222	-0.00708013514328086	0.0119912435671719
1.4	-0.00643955464830629	-0.00308265266825164	-0.00121760731011716	-0.00291216357105834	-0.00121639292759209	-0.00291769352323848	-0.00535979408844755	0.011887185062213
1.5	-0.00711204623117499	-0.00184989640995825	-0.00161895213408357	-0.00271659930858982	-0.00161733913275953	-0.00272509604635802	-0.00413138357675224	0.0114127715823396
1.6	-0.00672958908151805	-9.18449980845014E-05	-0.00197895367878168	-0.00246381177305972	-0.00197916346117564	-0.00246904289441437	-0.00338948487669674	0.0113189350747354
1.7	-0.00590884941526508	0.00120346792010913	-0.00230688929503438	-0.00216757622424336	-0.00230785657487109	-0.00216131893165563	-0.00276313839825286	0.0113149349358481
1.8	-0.00493091189722653	0.00241753356190931	-0.00257796530739641	-0.0018167713722889	-0.00258892284869385	-0.00182240978711665	-0.00213750365910733	0.0113931911489824
1.9	-0.00375458152692835	0.00320072904677508	-0.00280373194248191	-0.00144636970763616	-0.00281616857831142	-0.00144022401108946	-0.00150516449953028	0.0114283329543535
2	-0.00291022537194339	0.0037794436291624	-0.00297900971679813	-0.00103842155592538	-0.00298862654427653	-0.00103371892126318	-0.00115139520107261	0.0115741965538084
2.1	-0.00155353991955266	0.00461267505920183	-0.00309229012163059	-0.000611265802589863	-0.00308820843019016	-0.000613253802328436	-0.000309268767158826	0.0119758906161359
2.2	9.51104989630797E-05	0.00478335402196319	-0.00315038883341286	-0.000173471218047868	-0.00316168483344405	-0.000176312771585186	0.000779473563556097	0.0119461433704368
2.3	0.00167845522745563	0.00439305075660736	-0.00314618140929393	0.000269899187226957	-0.00314587519310345	0.000263019651423419	0.00175011948255378	0.0116482997317161
2.4	0.00313467528590989	0.00350375782566392	-0.00307368826376909	0.000708216475423777	-0.00307622587779221	0.000703960178749571	0.00268262627219102	0.0112623451266
2.5	0.00386796328682097	0.00199701281782268	-0.0029368398962286	0.00111931631951799	-0.0029477270213971	0.00112568345363306	0.00334720988786752	0.0106189107454969
2.6	0.0042200476939437	0.00103359575009296	-0.00276440552227886	0.00152265524759284	-0.00276083896040069	0.00151033892262749	0.00402845321710753	0.0103153718353496
2.7	0.00474288203884269	-6.07574593598865E-05	-0.00251864190614041	0.00189460973290157	-0.00252392095073655	0.00189461702739518	0.00472504365938327	0.0097939441760223
2.8	0.00528447371860185	-0.00133944756387268	-0.00223571331703814	0.00222217617346921	-0.00222790769928251	0.00223196891291225	0.00532144349094757	0.00938497541008023
2.9	0.00574562902973684	-0.00305032432336288	-0.00190174012124176	0.00252202723670963	-0.00189803172624304	0.00252160333440495	0.00614207494065946	0.00901475562661196
3	0.00540181113515786	-0.00498527866655572	-0.00151664744627236	0.00275833504879164	-0.00153143566866796	0.00276442081512083	0.00688975799513589	0.00860086015494756
3.1	0.00501354937729816	-0.00647924164608888	-0.00112535095017463	0.00293642436447681	-0.00112069803260286	0.00294477159374475	0.00786070785663212	0.00822938614240938
3.2	0.00425120044443964	-0.00826693428192937	-0.000704553097382499	0.00307331756834842	-0.000706297406557918	0.00307270583884013	0.00857125112385012	0.0076103639717525
3.3	0.00298757421694254	-0.0100502175362949	-0.000266313547786635	0.0031432118205549	-0.000264662050137914	0.00313947225348816	0.00928445804372306	0.006923636423507
3.4	0.00119964170874819	-0.0116405135259344	0.000180372330344576	0.00313793281631189	0.000174152257925279	0.00315449875029867	0.00999366164590528	0.00597169564093355
3.5	-0.00143354347170405	-0.0129019673913422	0.000603773274120169	0.00309576530200076	0.000609372697127654	0.00309584281683239	0.0101640516416223	0.00475929374718584
3.6	-0.00401401008939033	-0.0129244958167502	0.00103250737645096	0.00297520948747242	0.00104070178732842	0.00297489379427727	0.0103819642234048	0.00407094733256858
3.7	-0.00629774535228224	-0.0127941595147611	0.00144285370403545	0.00279432438575813	0.00143325933633142	0.00280800116556786	0.0107201795114071	0.00315692768991895
3.8	-0.00862627149520971	-0.0123471720752108	0.0018214369153534	0.00256740710780719	0.00182383911889966	0.00257656222195448	0.0108963958404048	0.00219844804810355
3.9	-0.0108741641952001	-0.0116756035231331	0.00216830859808498	0.00229393136699934	0.00216103878087534	0.00229215010113785	0.010939512627303	0.0011890987455779
4	-0.0136442826060418	-0.0105443161808584	0.00245269993356967	0.00197088501458899	0.00245714931010496	0.0019684493264937	0.0106197657557477	0.000360168805944269
4.1	-0.0157684150581694	-0.00807196099387935	0.00270372188426586	0.00161174637670892	0.00270246890022391	0.00161248195391567	0.0107666728436791	8.59611459304699E-05
4.2	-0.0170663370971733	-0.00555362163052778	0.00290365377456339	0.00121060190406845	0.00290812374481299	0.00120188388617954	0.0111340453420219	-0.000568547575151403
4.3	-0.0179032109699035	-0.00305300325726638	0.00304700199746495	0.000797819271798302	0.00305342835941396	0.000790013707541873	0.0114126180755988	-0.00146118638278736
4.4	-0.0184003841660002	-0.000615602897899073	0.00312269327695802	0.000362839734594103	0.00312506816294268	0.000360582570837693	0.0115121850566878	-0.00246568641354389
4.5	-0.0191419269550494	0.00182158790469268	0.00314450245069178	-7.38373416085581E-05	0.00314986425372415	-7.72082942862456E-05	0.0112315197730685	-0.0035022914040817
4.6	-0.0192593237393873	0.00525799747099019	0.00310220849347688	-0.000516784285499572	0.00310343169019988	-0.000503863629654762	0.0110806105002175	-0.00416176723976586
4.7	-0.0182867719498991	0.00843230153017482	0.00299695679865843	-0.000936700224070637	0.00301225338607719	-0.000946319526018311	0.0108916399038013	-0.00510934647739537
4.8	-0.0167444674328635	0.0112969247279514	0.0028353464956585	-0.00135120166019383	0.00284382932458276	-0.00135729281200619	0.0105277899745619	-0.00593429288286007
4.9	-0.0144344572803338	0.0135996283614775	0.00261434876917437	-0.00173485846944542	0.00261851564637011	-0.00173195181663538	0.0102351748933417	-0.00665127020800162
5	-0.0122449619975656	0.0152787971226615	0.00235621669935829	-0.00209069506080571	0.00235984026324908	-0.00208802728677227	0.00992320181234877	-0.00729360420667121
5.1	-0.00902448953690263	0.0170928705040555	0.00204387684019521	-0.00240302111880804	0.00204617966744355	-0.00240166282584111	0.0100873052359199	-0.00779016478050605
5.2	-0.00543045515614885	0.01751686890602	0.00168519486702796	-0.00265242312539377	0.00168690721526804	-0.00265756903702522	0.0101514803047208	-0.00875470875186391
5.3	-0.00215246935821194	0.0170617888201134	0.00129831158796754	-0.00286744158146921	0.00130144584955059	-0.00286537892717252	0.00994231115050922	-0.00965403930030392
5.4	0.000659056965294127	0.0159466502446311	0.000873689500585632	-0.00301537315426269	0.000890862629696356	-0.00302659116860851	0.00967328962311529	-0.0106859193616113
5.5	0.00232508100934852	0.0147443751955976	0.000457936211899525	-0.00311421871669326	0.000467989676689713	-0.00312366306183361	0.0087716380880004	-0.0116889988327703
5.6	0.00461498096990695	0.0142676828861679	1.84962161969941E-05	-0.00314781800443199	9.96589806956271E-06	-0.00315102863140099	0.00816497007111094	-0.0120485451250724
5.7	0.00704766302767248	0.0126950296962087	-0.000411941928959912	-0.00311646060963852	-0.000428558300644298	-0.00312010737943089	0.00744830865332329	-0.0126682561986658
5.8	0.00900238684291906	0.0104943810456382	-0.000857745942343834	-0.00302124098116227	-0.000861293433103365	-0.00303522835687399	0.00658255125787081	-0.0132814677660749
5.9	0.0104540206868412	0.007658665329408	-0.00126339043591612	-0.00288071532352137	-0.00127162216954143	-0.00288062444950063	0.00562084426473608	-0.0138632905252308
6	0.0101730117846425	0.00406593147740228	-0.00166103950386162	-0.00267151927002793	-0.00165748050841237	-0.00267169094309385	0.0040010045470486	-0.0144309091965917
6.1	0.00903929093657219	0.00208268971226534	-0.00201363758696835	-0.00241758846700071	-0.00201527260012435	-0.00241358556973929	0.00273631784571942	-0.0138682407958324
6.2	0.00810878522787495	0.000167789555555025	-0.00232631623483208	-0.00210486630748409	-0.00233003329534123	-0.0021167286129165	0.00208720709043023	-0.0136432366782374
6.3	0.0070813923115488	-0.00159232447774175	-0.00260388950227362	-0.00176989079604941	-0.0026130077652622	-0.00176414549734427	0.00161463423997608	-0.0136680687834183
6.4	0.00587379224913688	-0.00358250587595861	-0.00282890794149802	-0.00137819608629344	-0.00281919704289395	-0.00138310652698987	0.00130765932464534	-0.0140142794900553
6.5	0.00352417036859302	-0.00516267747483182	-0.00298303769548707	-0.000974967581050866	-0.00299088720123304	-0.000970487217965195	0.000589087649351757	-0.014469123896522
6.6	0.00196310672560589	-0.00553675721839846	-0.00309279014631521	-0.000550972719075107	-0.0030944243387302	-0.000554946692997085	0.000367735937861114	-0.0147829121258288
6.7	0.000255194970521404	-0.00625014303100659	-0.00314316387980779	-0.000112415174710258	-0.0031520085991001	-0.000106133213323923	-0.000519618419566901	-0.0153921754894266
6.8	-0.00175808036640968	-0.0064065524172646	-0.00312058686587958	0.000328944774750157	-0.00313166759261252	0.000333997713266935	-0.00166515083506514	-0.0154224387487347
6.9	-0.00374339759737341	-0.00632898675873589	-0.00304442599223846	0.000760721487345008	-0.00304740883792018	0.000763111041336029	-0.00253160934802592	-0.0153050458649682
7	-0.00678876541323026	-0.00564215876118359	-0.00291015777410479	0.0011805962114865	-0.00292298286855052	0.00117840179096346	-0.00385745473432804	-0.0151727078646687
7.1	-0.00860063939627965	-0.00289495606256426	-0.00273161619296341	0.00157117050846595	-0.00272794661096481	0.00157983099827804	-0.00453215661263351	-0.0142251017247344
7.2	-0.00929667845452068	-0.000663064560565997	-0.00247427876670381	0.00193819802290365	-0.00248080288890099	0.00194028081236904	-0.00497000454648624	-0.0137811934565341
7.3	-0.00965463407534671	0.00146641143992635	-0.00217930536509689	0.0022562309849602	-0.0021905084687811	0.00226128688096127	-0.00537393062434904	-0.0133830970213914
7.4	-0.00945034816275454	0.00320613505590963	-0.00183922503498988	0.00253956850625474	-0.00184610258498204	0.00255317446308397	-0.00569039192412597	-0.0132903228480145
7.5	-0.0101092238840562	0.00412413510596857	-0.00147228662915338	0.00278094618333222	-0.00146528624289064	0.00278833532333531	-0.00647332504857432	-0.0136086645838305
7.6	-0.0104735514586476	0.00673802440574621	-0.00106489311435282	0.00295700126479844	-0.00106627206470739	0.00295230916480781	-0.00693560573584944	-0.0131409483312713
7.7	-0.00977456082698224	0.0088637182241682	-0.000637827512549629	0.00307745497446358	-0.00063916739082287	0.00307639517242185	-0.00741673000963458	-0.013589784675054
7.8	-0.00849263280951505	0.0106075029535693	-0.000212845019977397	0.00312682286614017	-0.000220642689893294	0.00313328106303037	-0.00819803892474792	-0.0138446335007172
7.9	-0.00681489731244269	0.0117179430354214	0.000228920533076988	0.00313427100430404	0.000236859196848808	0.00313576115149122	-0.00904900993126437	-0.0139505973066401
8	-0.00589249931788132	0.0129931898536912	0.000670728432576318	0.00305910781570314	0.000670815932530623	0.00306400057377515	-0.0104333654510115	-0.0137306898655435
8.1	-0.00294130217148289	0.0148923510084468	0.00107790562914664	0.00294185678956503	0.00109702494205774	0.00294293418650292	-0.0109030471195525	-0.0128796237995046
8.2	0.000359826123184922	0.0151143822029438	0.00148218973276555	0.00276234849941539	0.00149142403675427	0.0027551593275708	-0.0114527566803038	-0.0124629571785886
8.3	0.00342513925844931	0.0144847864632419	0.00185881865383139	0.00252354539739297	0.00185718298972612	0.00253708233324787	-0.0120142539822129	-0.0119128946232283
8.4	0.00621131956832279	0.0129265782826419	0.00219389073479153	0.00224479673581863	0.00219086442918792	0.0022445745950432	-0.0124563382066395	-0.0115187263302849
8.5	0.00727394292701295	0.0108573889084038	0.00247648907466239	0.00191594339888621	0.00247559301305106	0.00191912114308149	-0.0136211923420366	-0.0111201144996517
8.6	0.00891199944592661	0.0102592387897123	0.00272446476978158	0.00155785304712611	0.0027339566524481	0.00155132094332072	-0.0141043093759509	-0.00988329925099495
8.7	0.0110558863070895	0.00837605463975065	0.00291065896160164	0.00115478701671631	0.00291621342996702	0.00115550915822649	-0.0144043411420746	-0.00926194943505739
8.8	0.0127456542782269	0.005741681803927	0.00304653617536602	0.000744105546750794	0.003052297383284	0.000735355877292637	-0.0149355708120521	-0.00867644405877365
8.9	0.0140021755786907	0.00214416753460131	0.00312302799778369	0.000311990165267398	0.00312215917730299	0.000309745993439022	-0.0151843645553611	-0.00794967389245876
9	0.0132303626701664	-0.00218774482222713	0.0031359534235591	-0.000129318626771326	0.00313910512914294	-0.000125217156234288	-0.0156829070102271	-0.00729603735406263
9.1	0.0119440770923199	-0.00518646224755208	0.00308987248801518	-0.000573037785962558	0.00309275494989489	-0.000560148371581055	-0.0155174451880725	-0.00610652649925057
9.2	0.0100520185006251	-0.00847003144055561	0.00297949566781315	-0.000989865743198796	0.00298714585072661	-0.00099273874109802	-0.0152764085589794	-0.00556098919492152
9.3	0.00718072107983606	-0.0111306839878503	0.00281156170135237	-0.00139381916385608	0.0028108339345731	-0.00139880463898438	-0.0151387522978003	-0.0049109757109153
9.4	0.00377851511811367	-0.0131626343562398	0.00259153240950932	-0.00178381412540031	0.00259803369965874	-0.00177621568858741	-0.0148654903539807	-0.00437179445544246
9.5	-0.00093040412925021	-0.0139017648936416	0.00231610861422988	-0.00212136696261014	0.00232351914056403	-0.00212271454630347	-0.0150445003563623	-0.00372827300915147
9.6	-0.00434827120353017	-0.0126562813036449	0.00199759547390661	-0.00242312594904413	0.00199792498173815	-0.00242214500469514	-0.0146106921827748	-0.00283881614910205
9.7	-0.00726383176089014	-0.0116779871536535	0.00163207971084993	-0.00267310992125223	0.00163761168410936	-0.00268040580447583	-0.0144142154555611	-0.0024658892659074
9.8	-0.0101609429090374	-0.0103095075666314	0.00124837027696423	-0.00288300357846035	0.00125405839192279	-0.0028745088728279	-0.0144364368462459	-0.00191461006635013
9.9	-0.0128016341456081	-0.00872931662710886	0.000842500724993483	-0.00302404313385422	0.000835173206279563	-0.00302281943504715	-0.0144410905320669	-0.00129423655387357
10	-0.0165459068476095	-0.00664488909385588	0.000410895358759948	-0.00311095522152716	0.000403416676641752	-0.00312337915074571	-0.0149388715585731	-0.000641098832348983
10.1	-0.0189326891663717	-0.0022009421301932	-2.78326416466328E-05	-0.00314275955421834	-3.80540559830204E-05	-0.00313738444219568	-0.0146125366385171	0.000690494945186923
10.2	-0.0198065060947819	0.00193866532929573	-0.000473670908283603	-0.00310792873915877	-0.000477076931666251	-0.00310515612161228	-0.0140055717681458	0.00140279432987689
10.3	-0.0198184023539947	0.0060052387355403	-0.000906848853760571	-0.00300287275117721	-0.000898758855879865	-0.00301193051333346	-0.0133617535644361	0.00200571809872844
10.4	-0.0189729023289396	0.00942836483855977	-0.00130402580861981	-0.00284694911764987	-0.0013023289497046	-0.00285313474282305	-0.0123944630036035	0.00213294876186377
10.5	-0.0189779597259298	0.0126892850998919	-0.00169123056966888	-0.00264953639257253	-0.0016881566952498	-0.00263655481763002	-0.0121543619672554	0.00197085026028743
10.6	-0.0175946146648074	0.0173455453685331	-0.00204543790530894	-0.00238359193431554	-0.00204324537038935	-0.00238740699853359	-0.0116097338252858	0.00217991456825374
10.7	-0.0151025976712934	0.0214921246495822	-0.00236202671446711	-0.00208223196191583	-0.00235854381603985	-0.00207694818280272	-0.0113633681132542	0.00220448393553528
10.8	-0.0114251600158513	0.0253899184785601	-0.00263141087999943	-0.00172269838643929	-0.00262619968709101	-0.00173160853446744	-0.0111131143895331	0.00254466969403149
10.9	-0.00661314107588482	0.0280279676236566	-0.00283905319899814	-0.00135053368644366	-0.0028442382681205	-0.00134981516663142	-0.0106218395580861	0.00268865626209852
11	-0.00249528774754771	0.0296718054519076	-0.00300248647911928	-0.000937202500340113	-0.00300731448835647	-0.000943958793035842	-0.010734098159726	0.00279865490215981
11.1	0.00323013520978929	0.0318096505418799	-0.0031130279206773	-0.000509291288651517	-0.0031021675583879	-0.000506411458856589	-0.0100381414988009	0.00344819352545887
11.2	0.0098012508107537	0.0316998378217062	-0.00314227694009801	-7.13155983115189E-05	-0.00314942324500491	-7.61654011044321E-05	-0.00927718804073089	0.00341743202014194
11.3	0.0162816927192246	0.0298760840136171	-0.0031165701712214	0.000376709865658608	-0.0031280951655602	0.000366647217731411	-0.00854059784281368	0.00337296889848714
11.4	0.0221561000894369	0.0263236923469635	-0.00304602995341175	0.000804518870228468	-0.0030411283587234	0.000812102693379278	-0.00779270483309648	0.00308177540238074
11.5	0.0258466529028089	0.0217379770626776	-0.00290372453994585	0.00122500131254994	-0.00290651749816392	0.00123528908902524	-0.00784938776668552	0.00260793225650856
11.6	0.0297594954582874	0.0177823682136336	-0.00270703053981629	0.00161478427205822	-0.00270701454048722	0.00161772587848597	-0.00716738485688664	0.00264564561416852
11.7	0.0333583717075985	0.012097206709607	-0.00244711997717602	0.00196925486970159	-0.00244769635357119	0.00197786389465327	-0.00649021408057491	0.00195547309385309
11.8	0.0356689065947774	0.00532335463235107	-0.00215322253016829	0.00230302701863415	-0.0021573442669193	0.00230472112947302	-0.00602233430234342	0.00123119093855676
11.9	0.0363041360356788	-0.00261049793482684	-0.00180332449060042	0.00258236510921157	-0.00181636838855886	0.00258666710352002	-0.00564930978131329	0.00044946488886611
12	0.0330993478988595	-0.00979448552411329	-0.00142660504694954	0.00280397522295084	-0.00142600941245704	0.00280538773608283	-0.00641042957341136	-9.98792209979241E-05
