# GHZ S RI R 50
0.2	0.00600608892049323	0.00166454245365159	0.00304590154322717	-0.000898765837807814	0.0030562665194042	-0.000891966308761793	-0.013947269595248	0.00530626208779389
0.3	0.00632895933354914	-0.000384237702596755	0.00290086488394261	-0.00132190934555539	0.00289363245918342	-0.00130897755542641	-0.0131379407079659	0.00540584990006666
0.4	0.00606782730510401	-0.00220388398081035	0.00266844828511389	-0.00169288681442448	0.00267370435820025	-0.00170144105844924	-0.012619376305717	0.00577539026990046
0.5	0.00504597526482539	-0.00345394082538597	0.00240963044609265	-0.00204811957825812	0.00242114731399706	-0.00206034808400948	-0.0123869583338661	0.00650975943909636
0.6	0.00438826050405337	-0.00423515882343956	0.00209744572035781	-0.0023621864029347	0.00209665710065191	-0.00236932633056762	-0.011543593599328	0.00730512616677818
0.7	0.00332023942140474	-0.00508328489308723	0.00175022939157936	-0.00263903346630333	0.00174827617278888	-0.00263923106358164	-0.0109964592798144	0.00770612305495301
0.8	0.00209438298766854	-0.00557485768927093	0.00136525422105765	-0.00285526935119976	0.00135267339007237	-0.00285980582659865	-0.010583160670193	0.00827455684234076
0.9	0.000765675831945064	-0.00582140544588389	0.0009492982071944	-0.00301785551168207	0.000950329007723786	-0.00302853600166467	-0.0101408840278825	0.00879195658555862
1	-0.00109201042645853	-0.0058163161014965	0.000525453709170644	-0.0031214438153017	0.000515607752906525	-0.00312218102044406	-0.0101242141088669	0.00936582094325795
1.1	-0.00261504740705834	-0.00468693289686825	7.01055862884099E-05	-0.00314943916100361	6.65994044975684E-05	-0.00316705602003731	-0.00970189491885197	0.0108445320975633
1.2	-0.00362255640747529	-0.00383100642920595	-0.000370640144613821	-0.00313813700437452	-0.000371449912580077	-0.00313606469576464	-0.00845505830167933	0.0119977864745133
1.3	-0.00457289267533413	-0.00316297226566354	-0.000796274202964039	-0.00305493623624548	-0.000799507362027518	-0.00305693718520593	-0.00648605833427915	0.0128018616185468
1.4	-0.00541375531183307	-0.00279167299046529	-0.00121643164075511	-0.00290723228138363	-0.00121522061540573	-0.00291275378288384	-0.00446398829364593	0.0124183430432552
1.5	-0.00617776684192697	-0.00180354683182052	-0.00161663147659426	-0.00271110543027496	-0.00161502368879468	-0.00271958671389549	-0.00333671620688226	0.011797003382454
1.6	-0.00596194201237108	-0.000475967857364644	-0.00197491674165489	-0.0024590779454234	-0.00197512580829479	-0.00246429878489416	-0.00267123516314165	0.0114135056129973
1.7	-0.00556735181207821	0.000701329191662299	-0.0023020266952879	-0.00216374657295474	-0.00230299315589053	-0.0021575016338464	-0.00233242307795581	0.0112950664996688
1.8	-0.00489456538195258	0.00197216189797694	-0.00257236443640666	-0.00181371306512085	-0.00258329865136454	-0.00181934266957195	-0.00193244498820607	0.0113655222169197
1.9	-0.00400051576654659	0.00291906042180959	-0.00279711320732316	-0.0014440880214663	-0.00280952449235836	-0.00143795978989144	-0.00156989008790853	0.0114567492329522
2	-0.00314257784712745	0.00400344910566405	-0.00297124387543543	-0.00103822294471874	-0.00298084168087952	-0.00103353855880561	-0.00134073708746602	0.0120351139135178
2.1	-0.00138394247697194	0.00474314627223689	-0.00308520176495043	-0.000612809272699432	-0.00308112686856133	-0.00061478933493647	-0.000184243904224594	0.01247703391922
2.2	0.000245099502977091	0.00471784907821007	-0.0031435045581146	-0.000176233369512416	-0.00315477366758586	-0.000179080098294719	0.00094629539018291	0.0123496219582118
2.3	0.00169777404951278	0.0042145205369945	-0.00313964504726219	0.000265611301665033	-0.00313933140779682	0.000258747112617454	0.00189278992042203	0.0119580732384875
2.4	0.00284635757287002	0.00331645078014669	-0.00306806400715071	0.000702086436701877	-0.00307058974800044	0.000697835603044799	0.00263021717678318	0.0114656580583682
2.5	0.00331677705932091	0.00239880152553896	-0.00293352337766207	0.0011123040100926	-0.00294440199841829	0.00111864119989916	0.00296949243851203	0.0111974322500142
2.6	0.00419678686828592	0.00177361277417639	-0.00276179713866905	0.00151561770108229	-0.00275821785074515	0.00150332908662566	0.00397417812945416	0.0112202909313779
2.7	0.00511582609729246	0.000594414127218377	-0.00251730677612353	0.00188666460815221	-0.00252257604646185	0.00188666259854245	0.00496165740353171	0.0107035110887202
2.8	0.00584427266217888	-0.000964312864422636	-0.00223623590695818	0.00221381029223879	-0.00222846355281967	0.00222360146668006	0.00571126665105869	0.0101127250491592
2.9	0.0061945675612429	-0.00286163409876943	-0.0019044151829345	0.00251419839966594	-0.00190071131661724	0.0025137831615919	0.00641696542198038	0.00959281962715632
3	0.00595026478398477	-0.00460983834074989	-0.00151983534888703	0.00275178664672598	-0.00153461533000705	0.00275783634259022	0.00715102155827907	0.00940857283454257
3.1	0.00583479831704561	-0.00648176291089482	-0.00112986601404605	0.00292937452994584	-0.00112523833375707	0.00293771854527426	0.0083531706433899	0.00888799616452498
3.2	0.00493507766884433	-0.00858265233449878	-0.000710913662509327	0.00306736403148497	-0.000712654086719445	0.0030667489863519	0.00902790413846854	0.00809775384789442
3.3	0.00347252745697764	-0.0105819864379538	-0.000273735276528252	0.00313886199556837	-0.000272076517776289	0.00313513088791086	0.00966925462409884	0.00726202325582384
3.4	0.00131903850747638	-0.0122723196833168	0.000172835113764145	0.00313503193545541	0.000166582846136022	0.00315156576392859	0.0101311475206632	0.00618011490732256
3.5	-0.00144016485675223	-0.0131687122918269	0.000595239278191782	0.00309275998949967	0.000600830372708987	0.00309285124051056	0.0101225871012557	0.00527121654796307
3.6	-0.00388291806036571	-0.0134512179067549	0.0010223003821479	0.00297489234496535	0.00103048626226368	0.00297460183734173	0.0104704524665271	0.00447669631430067
3.7	-0.00655474943429247	-0.0134386868415215	0.00143300148694104	0.00279638651759136	0.00142337313391732	0.00281002201432218	0.0105954571117091	0.00351498170141285
3.8	-0.00929042953406641	-0.0127963832365844	0.00181209121261158	0.00257122385507301	0.00181446307387637	0.0025803797974807	0.0105441431694552	0.00266976193147604
3.9	-0.0118626208722723	-0.0116029112914808	0.00215907632092815	0.00229926273941331	0.00215181803935912	0.00229745897909528	0.0103388566808398	0.00195721239791375
4	-0.0142178029115014	-0.00954545821973024	0.00244368680740702	0.00197977644348099	0.00244814386015732	0.00197735966742631	0.010216831629026	0.00185406710116376
4.1	-0.0154824301147056	-0.00730999980797041	0.00269833582434598	0.00162258771922035	0.0026970796514893	0.00162331870780315	0.0110262109886716	0.00147522521632818
4.2	-0.0166348278018492	-0.00519489584185816	0.00290055946059595	0.00122189436139588	0.00290506373111758	0.00121318871731306	0.0115434843909084	0.000546239820915393
4.3	-0.0175431783556549	-0.00294524856641462	0.0030459591083812	0.000809749930424816	0.00305241883444685	0.000801963464461841	0.0118136841587985	-0.000559332321801335
4.4	-0.0183172950602387	-0.000561392417516773	0.00312422577224038	0.000375704077068988	0.00312661197767429	0.000373454273983773	0.011682517863917	-0.00169031216353824
4.5	-0.0189502345761692	0.00245463482793431	0.00315073095665172	-6.1992727547005E-05	0.00315611574758976	-6.53496208079034E-05	0.0113410969686755	-0.00228230520798765
4.6	-0.018418049680193	0.00556467903397753	0.00310945067915611	-0.000507854429951012	0.00311063500601272	-0.000494906564637071	0.0116194376833309	-0.0030799246230087
4.7	-0.0174027228362867	0.0082968592814981	0.00300533984414224	-0.000928745269000938	0.00302069477220246	-0.000938332641109633	0.0114843122851935	-0.00424934450349549
4.8	-0.0159911713058088	0.0107765978680255	0.00284555981413062	-0.00134465319459239	0.00285407992099394	-0.00135072893075535	0.0110950012286988	-0.00531966294554162
4.9	-0.0141034724379101	0.0128591399925975	0.00262654811206238	-0.00173104666054222	0.00263071649848338	-0.00172811936744062	0.0105247057480143	-0.00624992522592248
5	-0.0119713596447299	0.0148823969461351	0.00236727084696099	-0.00209061421965532	0.00237089759587125	-0.00208793097941226	0.0100867666971446	-0.00658966175804348
5.1	-0.00878270945773136	0.0162145361903732	0.00205479901403085	-0.00240311923772392	0.00205710350655249	-0.00240175183890673	0.0102804434357673	-0.00733519650576488
5.2	-0.00578826462859183	0.0167020722362522	0.001696801323713	-0.00265486262504831	0.00169853208521156	-0.00266001747533022	0.0100082720301543	-0.00821703694057963
5.3	-0.00277323632199434	0.0166909655776135	0.0013092692854879	-0.00287275160201321	0.00131240775816543	-0.00287067505740095	0.00970514441385156	-0.00884211254872607
5.4	1.70231968184376E-05	0.0160219050812171	0.000882326036597288	-0.00302288801861474	0.000899573966047687	-0.00303410647662465	0.00940180455231176	-0.00968750779526104
5.5	0.00239394361612697	0.0153918646569334	0.000465544652628145	-0.00312085977828241	0.000475642324541917	-0.00313030620207141	0.00888159154860809	-0.0102183966853056
5.6	0.00510218351846936	0.0139366566046044	2.66394701655377E-05	-0.00315747275777314	1.80911073837423E-05	-0.00316071519359389	0.00858066919091999	-0.0112374377533785
5.7	0.00687606259571711	0.0119495777739396	-0.000406396453615683	-0.00312845289996948	-0.000423063625728621	-0.00313214998501561	0.00741950361265914	-0.0121045154938818
5.8	0.00811369297644674	0.00986336720376615	-0.000855235750633164	-0.003034078631299	-0.000858770046346892	-0.00304812464266087	0.00610810918609974	-0.0126523959912554
5.9	0.00870350817604007	0.00768468683174012	-0.00126292188257167	-0.0028931448021468	-0.00127118306783119	-0.00289306779212487	0.00451780818478692	-0.0129004157655061
6	0.00852315363759744	0.00615978037737979	-0.00166171578284473	-0.00268620601374624	-0.00165814188069884	-0.00268637026395677	0.00277595692495183	-0.0119634117923223
6.1	0.00926409882094044	0.00469389800920574	-0.00202008457312079	-0.00243213194446587	-0.00202173307685086	-0.00242811184367284	0.0028330699684851	-0.0109091896210126
6.2	0.00960966068769168	0.00229537569591255	-0.00233568893250616	-0.00211658252428652	-0.00233941446894968	-0.00212850367449513	0.00317229501337737	-0.0109542846988173
6.3	0.00921828976121662	-0.000562889349137132	-0.00261485039748853	-0.00177929268113671	-0.00262401316595663	-0.00177352587060052	0.00323613711010785	-0.0118185915154776
6.4	0.0075687900707603	-0.00340475709196976	-0.00284120113415316	-0.00138640993345106	-0.00283144190810216	-0.00139133706108851	0.00251667194545258	-0.0128851007487459
6.5	0.0053512659501844	-0.00493994560956677	-0.00299964715618555	-0.000980333166536884	-0.00300754023322653	-0.000975827735254887	0.00172749200037488	-0.013136699402608
6.6	0.00346733528391899	-0.00632977696488307	-0.00310847401997877	-0.000550814536950564	-0.00311011990692513	-0.000554806496545492	0.00132404726300443	-0.0139836340821085
6.7	0.00113445578049937	-0.00711660790307964	-0.00315779630270424	-0.000110157918905296	-0.00316667636737993	-0.000103839097218474	0.000168686867695639	-0.0145340897404095
6.8	-0.0012130148483003	-0.00738377643257688	-0.00313518107443015	0.000333336581547416	-0.00314631010987847	0.000338423653669826	-0.00104932284607957	-0.0147387159667753
6.9	-0.00390616015237947	-0.00722293297028177	-0.00305953196669903	0.000768760545858022	-0.00306252744520681	0.000771166676290898	-0.00248508943260382	-0.0147636656929937
7	-0.00650481095848525	-0.00553062695270675	-0.00292119563597831	0.00119409196104788	-0.00293408905775531	0.00119192097432005	-0.00370437497138878	-0.0138008339419891
7.1	-0.00784515191303196	-0.00393319539424726	-0.00273918298120854	0.00158402730650823	-0.00273547803600497	0.0015927148553953	-0.00403011821484851	-0.0135433157168906
7.2	-0.00935615131781902	-0.0022406765471623	-0.00248024288898047	0.00195244406449229	-0.00248678999792201	0.00195455143171756	-0.0049372151707661	-0.013358504784797
7.3	-0.0106265165594996	-0.000224606065977154	-0.00218234117840984	0.00227229005802808	-0.00219357860411375	0.00227740001797623	-0.0057708358414612	-0.013071388542724
7.4	-0.0118215173501681	0.00181462524511207	-0.00183728320478593	0.00255643663010616	-0.00184413846505065	0.00257012207536721	-0.00693574059249202	-0.0130137548523056
7.5	-0.013105534025009	0.00494327747500685	-0.00146692400667903	0.00279343042768978	-0.0014598798099594	0.00280081604574898	-0.00832513431240107	-0.0118650115657997
7.6	-0.0123176188143254	0.00830220025170277	-0.00106013884883892	0.0029698149240988	-0.00106153554142019	0.00296511109819916	-0.008120366822315	-0.0109319047701916
7.7	-0.0111963397282387	0.0108702610772293	-0.00062981511165991	0.00309040262439454	-0.000631163233461042	0.00308934356051554	-0.00829483646241843	-0.0111292882336227
7.8	-0.00926426430494192	0.0128757821415479	-0.000201571460616695	0.00313783407053246	-0.0002093698405315	0.00314434317251185	-0.00873783180516282	-0.0112473345181815
7.9	-0.0071193814821804	0.0142690464021418	0.000241908984953401	0.00314143238138844	0.000249873976318923	0.00314289495838385	-0.00939168691715151	-0.0110480612605515
8	-0.004280491082826	0.0158734231333671	0.000682364576991855	0.00306602293477961	0.000682467778803338	0.00307092986286423	-0.00976951036728507	-0.0102709034783432
8.1	-0.000747680889133959	0.0158144891887434	0.00109439030966778	0.00294725297310139	0.0011135798343804	0.00294825093714406	-0.00968612870305387	-0.0106196150963392
8.2	0.0021223056900222	0.0151840283587546	0.00149992541642723	0.00276242879010614	0.00150914887721985	0.00275517430224563	-0.0103996891953585	-0.0106023836339389
8.3	0.00479907532740911	0.0140245873128253	0.00187516382223004	0.00251926757027357	0.00187359269445104	0.00253283968989823	-0.0110339705460786	-0.0104139847794078
8.4	0.006827636721774	0.0123274715520214	0.00220791559457809	0.00223893059699514	0.00220488288256369	0.00223872168309339	-0.0119937296241381	-0.0102877396686458
8.5	0.00843333467649966	0.0111464815003609	0.00249297624079971	0.00190803905383624	0.00249209441527645	0.00191122980000274	-0.0129504489227715	-0.00914867103804737
8.6	0.0105749332998477	0.00901861153977189	0.00273756677822456	0.00154361301953963	0.00274703241680829	0.00153701489765621	-0.0130261654419823	-0.00884072814256562
8.7	0.0117344682561308	0.00633226523443043	0.00291937229378584	0.0011391039874695	0.00292493497244968	0.00113979510515618	-0.013864840231112	-0.00864631692711926
8.8	0.0122981438818168	0.00349828517016094	0.00305241335384847	0.000727979458770031	0.00305813042368151	0.000719193195064936	-0.0149345661163391	-0.00823031469029344
8.9	0.0120927326960404	0.000410022899998375	0.00312768466072516	0.00029453669865811	0.00312680228894941	0.000292295389913981	-0.0161134431933674	-0.00739772711342303
9	0.0111466951947544	-0.0019129101870886	0.00313479567212315	-0.000150981918548513	0.00313797545979723	-0.0001469025763522	-0.0168368819281479	-0.00534911249127396
9.1	0.0105861974297217	-0.00452189758399161	0.00308312513204028	-0.000590760320482482	0.00308608099077904	-0.000577901973706008	-0.0161569172560799	-0.00392929321373793
9.2	0.0091532091068443	-0.00720206725696274	0.00297110803028019	-0.00100592624355536	0.00297873478898953	-0.00100884017289878	-0.015591101907357	-0.00293013285629064
9.3	0.00719275023477322	-0.00971258616925935	0.00280047225184128	-0.00140940530521711	0.00279971517341458	-0.00141438161320535	-0.0147519671217078	-0.00223517963193886
9.4	0.00427378581150861	-0.0120467907177624	0.00257513800131091	-0.00179854019106656	0.00258168038565331	-0.00179099847975219	-0.0142579066027812	-0.00209109818702716
9.5	0.00077496629500479	-0.012778592728674	0.0022955444923256	-0.00212805505211133	0.00230292182093391	-0.00212944247599533	-0.0137789724481706	-0.0013335312597847
9.6	-0.00258227077459308	-0.0134958899228267	0.00197949693574415	-0.0024266715464773	0.00197983058850601	-0.00242569504542746	-0.0134195616304632	-0.00170543107148444
9.7	-0.00659579759309766	-0.0131889826401319	0.00161261242863962	-0.00267422070058962	0.00161808810424866	-0.00268152552985277	-0.0139466176098811	-0.00162054448457812
9.8	-0.0105242782435748	-0.0119147787017011	0.00122761522653971	-0.00287958603904283	0.00123333055793398	-0.00287115413655424	-0.0145436760427409	-0.0011212307071124
9.9	-0.0144347932638845	-0.00966064832968522	0.000823013302253576	-0.00301389787943483	0.000815727060702193	-0.00301264256511942	-0.0154569666727539	-0.000195241224632411
10	-0.0177079614659387	-0.00567848421675943	0.000398236512603682	-0.00309885971012444	0.000390746942916454	-0.0031112034652336	-0.0157727134850459	0.00191104013572502
10.1	-0.0191976890014988	-0.00173445277426263	-4.11141887415886E-05	-0.00313002086978551	-5.12716510845171E-05	-0.00312462378192123	-0.0147861283158753	0.00297874517303975
10.2	-0.0201855914894104	0.00225275697618528	-0.000484157750523719	-0.00309095403081555	-0.000487535906381545	-0.00308818081666911	-0.0141253011450372	0.00365944413545239
10.3	-0.0204467471135921	0.00625875672988021	-0.000912024374944766	-0.00298383711326205	-0.000904007712724984	-0.00299287354732289	-0.0134995731264227	0.00408189054137505
10.4	-0.0203979366228528	0.010274750582844	-0.00130354977734118	-0.00282997077731644	-0.00130187450193196	-0.00283612911617986	-0.0132259986395641	0.00435550411513991
10.5	-0.0194273423195302	0.0154200515601801	-0.00169293856505954	-0.00263547085487178	-0.00168983818584313	-0.00262254325854319	-0.012609037137006	0.00563111330942148
10.6	-0.0164934433128708	0.0197602213676489	-0.00204433372294895	-0.00236488863289623	-0.00204216537494937	-0.00236869350138051	-0.0110781244940796	0.00584866574840183
10.7	-0.0127910462503286	0.0232930722967262	-0.00235569951041007	-0.0020639046285571	-0.00235221921937756	-0.00205865972990251	-0.00983838006995067	0.00565088143465116
10.8	-0.00859353459891089	0.0256890691383196	-0.00262140634300675	-0.00170686314793918	-0.00261624539943252	-0.00171573788348264	-0.0090537934143536	0.00483941685436349
10.9	-0.00458595684620944	0.0273048825641058	-0.00282849244252766	-0.00133675113318022	-0.0028336502116924	-0.00133602310128167	-0.00929157573922028	0.00418061343833568
11	-1.56695302388541E-05	0.0292702211850218	-0.00298711604094273	-0.000920621817973997	-0.00299193810607721	-0.000927318716939789	-0.00928857969320046	0.00481610499813676
11.1	0.00560382962933162	0.0295303667702192	-0.00309164966597317	-0.00049973754962635	-0.00308086179559148	-0.000496898966748468	-0.00857990404023216	0.00440364057735088
11.2	0.0108985058152968	0.0286856276639141	-0.00312099925413374	-6.71543636838304E-05	-0.00312810265284209	-7.19628364569185E-05	-0.00846409405705413	0.00409384659395326
11.3	0.016121806784424	0.0266398720822812	-0.00309560584081653	0.000377540601357569	-0.00310706549949932	0.000367556611541551	-0.00818093405870086	0.0038801295244156
11.4	0.02048449151472	0.0235440031513841	-0.00302310206188319	0.000803258985057664	-0.00301822429502165	0.000810781457661612	-0.00829260046470191	0.00364593116119767
11.5	0.0243608208801845	0.020451343697213	-0.00287860303758132	0.00121392543959035	-0.00288137310511713	0.00122412321521846	-0.00811326247425213	0.00417663787848289
11.6	0.0281486586921484	0.0156877338094662	-0.00268919732604329	0.0015990479769111	-0.00268918553166932	0.00160196778949736	-0.00745274548138843	0.0033932580515902
11.7	0.0303938347054822	0.0102887870547205	-0.00243226502702287	0.00195211451413108	-0.00243284838196037	0.00196066162608761	-0.00767568559049185	0.00269738441842789
11.8	0.0314833606455531	0.00471581304831502	-0.00214037020443304	0.00228288525994115	-0.00214446357880443	0.00228456103867257	-0.0081106587411946	0.00247665128598271
11.9	0.0313059669024742	-0.000618188312553795	-0.00179413761922586	0.00255647918481224	-0.00180708179734317	0.00256071482272646	-0.00868080002597488	0.00323015406329558
12	0.0309913088637307	-0.00482322513690363	-0.00142902881580569	0.00277741730116114	-0.00142844383197235	0.00277882236915701	-0.00777589946855732	0.00499040895923442
