# GHZ S RI R 50
0.2	0.00592235510419252	0.00146472065141102	0.00304702554609337	-0.0008981687686206	0.0030573915821021	-0.000891364385891067	-0.0139803453774595	0.00515614534668704
0.3	0.00618207722527802	-0.000592228572055542	0.00290251142273156	-0.00132140365859086	0.00289527143806527	-0.00130846923412825	-0.013245346202549	0.00524716766268944
0.4	0.00592679837639088	-0.00230792142841025	0.00267060197971908	-0.00169281384792006	0.00267586430239761	-0.00170137088751855	-0.0127528755285038	0.00571538767575958
0.5	0.00511529798515851	-0.00370689094513792	0.00241171983906745	-0.00204881064757858	0.00242324733088163	-0.00206104402961197	-0.0124107770247953	0.00633260221302356
0.6	0.00422221489386009	-0.0046618084416197	0.00209950552172243	-0.00236300104627255	0.00209871866725121	-0.00237014569132434	-0.0118415421918272	0.00710704849184213
0.7	0.00303622554512022	-0.00546008196871161	0.00175241066293202	-0.00264039818804751	0.00175045606534628	-0.00264059658751722	-0.0113485462267111	0.00767343615868945
0.8	0.00171110886984884	-0.00591352752015675	0.00136723173357457	-0.00285728132295477	0.00135464160928866	-0.00286182526466746	-0.0109333454863459	0.00834238276500309
0.9	0.000262335610838704	-0.00599278421702871	0.000950699520196667	-0.00302038324619063	0.000951733195523377	-0.00303107310773706	-0.0104724814204163	0.00900101630653295
1	-0.00131149238443835	-0.00575707031786199	0.000526458019641855	-0.0031238411649182	0.000516604329150401	-0.00312458080215516	-0.0101474893859471	0.00960712999310221
1.1	-0.00272728822921094	-0.00491606663546849	7.09929462184238E-05	-0.00315241573443202	6.74880210215513E-05	-0.00317005025918295	-0.00980735310681226	0.0107403183014055
1.2	-0.00379547198970952	-0.00420607684247376	-0.0003704953565528	-0.00314148080000839	-0.000371306322649955	-0.00313940646212496	-0.00874887137570366	0.011795819882802
1.3	-0.00490186197615328	-0.00373627583233971	-0.000796861766610339	-0.00305829032926365	-0.000800098225565352	-0.00306029371337972	-0.0070436133298214	0.0125221081813191
1.4	-0.00597142782829492	-0.00332592121941603	-0.0012175350443552	-0.00291034942841922	-0.00121632242570245	-0.00291587664304782	-0.00524601118382927	0.0123474874206823
1.5	-0.00663772611125102	-0.00231944930269905	-0.00161806441158332	-0.00271454940027586	-0.00161645331089542	-0.00272304033210769	-0.00402706910144584	0.0118923559462411
1.6	-0.00654910147814486	-0.000938339569277503	-0.00197759621286029	-0.00246232722369972	-0.00197780564895185	-0.00246755503052093	-0.00332549601292924	0.0117991347545691
1.7	-0.00608253992082673	0.000387177029537746	-0.00230535526639402	-0.0021663181790798	-0.0023063222054862	-0.00216006484011391	-0.0026821312618536	0.011825053101947
1.8	-0.00530774035764375	0.00174109635094384	-0.00257611733726845	-0.00181569490623883	-0.00258706714580467	-0.00182133015331369	-0.0020515263562809	0.0118671367704798
1.9	-0.0042492273865925	0.00278570104420739	-0.00280134046361404	-0.00144566420145836	-0.00281376836049355	-0.00143952512573951	-0.00150225019953951	0.0118786031633955
2	-0.00306139724095777	0.00366919332810529	-0.00297653447992464	-0.00103883592409723	-0.00298614639609206	-0.00103414024650246	-0.00116421327407655	0.0121332475838944
2.1	-0.00146961465263947	0.00412405951658125	-0.00309031955468027	-0.000611867614186387	-0.00308623960203534	-0.000613853208986533	-0.000319970046184722	0.0125047121889677
2.2	1.17607354368963E-07	0.00407406274655848	-0.00314835582153179	-0.000174365245390003	-0.00315964382543005	-0.000177208611116119	0.000751332223306387	0.0125136952856483
2.3	0.00131375313473096	0.00362573638405457	-0.0031442382214429	0.000268446647703759	-0.00314392941392494	0.000261571724617154	0.00173547054777776	0.0122094026501729
2.4	0.00239674832466691	0.0029396470510222	-0.00307228284640389	0.000706105982624852	-0.00307481662801364	0.000701850772731953	0.00259748507424691	0.0117754262090132
2.5	0.00318506517650863	0.00213880155477869	-0.00293632407304595	0.00111755039410511	-0.00294721032078524	0.00112391019783165	0.00316651722959475	0.0112715028445526
2.6	0.00413016106024537	0.00126602814683517	-0.00276352420336921	0.00152084823638477	-0.00275995498168466	0.00150853963442685	0.00390479482449411	0.0110225402787761
2.7	0.00497631571236781	-2.38648657151101E-05	-0.00251817898498645	0.00189231282154326	-0.00252345510082148	0.001892317503607	0.00464841606573807	0.0105365903501316
2.8	0.00561327369998038	-0.00159335461618717	-0.0022359280597768	0.00221979044424745	-0.0022281319564586	0.00222958299693821	0.00525098471349565	0.0100977871269971
2.9	0.00597955828073598	-0.00339963089909207	-0.001902521252341	0.00252011690228439	-0.00189881385789886	0.00251969522416505	0.00597595055773088	0.00974814817535391
3	0.00593141119339864	-0.00527220952770239	-0.00151688719963167	0.00275654793989703	-0.00153167067860522	0.00276262586980127	0.00673407136271602	0.00950638134093444
3.1	0.00568055308923902	-0.00731746257962584	-0.00112643016886307	0.00293399737157536	-0.00112178501342143	0.0029423423865891	0.00774967989638979	0.00916038551606608
3.2	0.00467787179597933	-0.00942939694522714	-0.000706303428224864	0.00307138893913331	-0.000708046499190764	0.00307077631622997	0.00850083714439084	0.00859924495173975
3.3	0.00312389523927781	-0.0113829311376337	-0.000268231801882021	0.00314177389546848	-0.000266578559725927	0.00313803689922071	0.00927120681614366	0.00790311336736315
3.4	0.000976449278650257	-0.0129180347300249	0.000178611337272285	0.00313653097799156	0.000172385392331598	0.00315308568308794	0.00993671362115963	0.00691197756617191
3.5	-0.00153803286124249	-0.0138765928523819	0.000600864903168308	0.00309382497780519	0.000606459895852289	0.00309390684047403	0.010110976878058	0.00582169316473989
3.6	-0.004083395727788	-0.0143346601085529	0.00102884305314251	0.00297484988552001	0.00103703378929782	0.00297454304760616	0.0103532619687625	0.00507131388949932
3.7	-0.00685273703536868	-0.0143220448619394	0.00143947447500345	0.00279476062980353	0.00142986972619565	0.00280842258185522	0.0106597285363615	0.00419162006921473
3.8	-0.0096537869856994	-0.0136170212914746	0.0018181034090431	0.00256831318255782	0.00182049527267122	0.0025774673110685	0.0108278880602797	0.00324866572445979
3.9	-0.0121696924118625	-0.0122854094739824	0.00216454661674274	0.00229546865739924	0.00215728231693999	0.00229367949077838	0.0108017154246402	0.0022816025619403
4	-0.0142694636623506	-0.0103680162623196	0.0024492295610878	0.00197461794640827	0.00245368235401586	0.00197218973116052	0.0105780531000324	0.00164478286967876
4.1	-0.0157051523987373	-0.00834905541835219	0.00270220487279236	0.00161568713337201	0.00270095063166785	0.00161642122096935	0.0108278877947077	0.00122840776842323
4.2	-0.0170308448496896	-0.00620962022665699	0.00290272395592527	0.00121446640776915	0.00290720569605252	0.00120575222358676	0.0111333477635404	0.000524867147295655
4.3	-0.0180587026678129	-0.00382147222634473	0.00304668703079408	0.000802069406205181	0.00305312535437348	0.000794270480665415	0.0113408738160741	-0.000386758194220467
4.4	-0.0187893781974548	-0.00115395008422118	0.00312367024297701	0.000367690226825842	0.00312604966339209	0.000365435518941613	0.0112801289627547	-0.0013694289450908
4.5	-0.0190222775022408	0.00189011115582	0.003147739181683	-7.03236904038369E-05	0.00315311020617801	-7.36919051131004E-05	0.0109707107023965	-0.00213179016836106
4.6	-0.0184320793394639	0.00479490385594027	0.00310476818663803	-0.000514650512427039	0.00310598185382479	-0.000501719941629519	0.0109193094667222	-0.00277250801928166
4.7	-0.017401361202612	0.00742869599890977	0.00299966153973067	-0.000934593139858514	0.00301497627457128	-0.000944204696552622	0.0107874264886877	-0.00365348343702895
4.8	-0.0160199320645579	0.00984826978571128	0.00283871333794327	-0.0013495139164908	0.00284720817832538	-0.00135560152771251	0.0105075807396555	-0.00451808888246145
4.9	-0.014106670235554	0.011987953392083	0.00261829956651977	-0.00173451737617256	0.00262246827810693	-0.00173160456991196	0.0101608518295072	-0.00531583199905845
5	-0.0117627134178316	0.0138221013320785	0.00235852307677527	-0.00209142690190604	0.00236214835110971	-0.0020887561243355	0.0098521972219598	-0.00583419220059087
5.1	-0.00874793030745707	0.0149467710928414	0.00204652077148213	-0.00240273265082757	0.00204882374114156	-0.00240137210834879	0.00998345504904506	-0.00640062175816486
5.2	-0.00588525173018949	0.0153992772402667	0.00168839264128248	-0.0026529664899478	0.00169011011653873	-0.00265811464874614	0.0100056474599379	-0.00724283509730968
5.3	-0.00298815704407002	0.0154164615130244	0.00130115874998957	-0.00286894894609227	0.00130429425604544	-0.00286688265888537	0.0098779605945913	-0.00807056547126791
5.4	-0.000188076833747495	0.0149166084439024	0.00087539851697405	-0.00301708447818782	0.000892587403031015	-0.00302830369147005	0.00960498532297263	-0.00913156830806716
5.5	0.00244150713655151	0.014123985380342	0.000460376111424761	-0.00311455751436363	0.000470438875363027	-0.00312399637781205	0.00882530886838864	-0.0100108460743944
5.6	0.00497018280345366	0.0125209418618791	2.18528412413968E-05	-0.00315018171116419	1.33194737394275E-05	-0.00315340382724314	0.00814987590134397	-0.0106072600475585
5.7	0.00665478034688524	0.0105490549082297	-0.000409683441095952	-0.00311985315637812	-0.000426312913004403	-0.00312351766943571	0.00729234407972527	-0.0111451928213492
5.8	0.00780917181611225	0.00851084529154201	-0.000856465295871472	-0.0030247836603949	-0.000860006445083174	-0.00303878714092704	0.00639601917965815	-0.0117181178822971
5.9	0.00841730465358868	0.00653124792820128	-0.00126215739471029	-0.00288404827861718	-0.00127039589118948	-0.0028839637890479	0.00524688158683121	-0.0123041174997766
6	0.00864478744617932	0.00488581204159889	-0.00166002638553301	-0.00267703261970144	-0.00165646249249589	-0.00267720025236701	0.00355977375009049	-0.0124080079623048
6.1	0.00918737284717158	0.00302019470783797	-0.00201564118474403	-0.00242271196957339	-0.00201728112319287	-0.00241870333629538	0.00257297052881941	-0.0118027958762013
6.2	0.0091765396211306	0.00059839065222209	-0.00232900253201313	-0.0021087093548162	-0.0023327210474152	-0.00212059018230207	0.00211524602112634	-0.0115630344315647
6.3	0.00853873734727053	-0.00198026998942273	-0.00260681769520639	-0.00177326162087769	-0.00261595054304655	-0.00176751175165417	0.00177391047200303	-0.0117658147732996
6.4	0.00707850191765691	-0.00444188658781908	-0.00283262058116762	-0.00138193543296534	-0.00282289162027172	-0.00138684828142296	0.00127798549284258	-0.0122564182889973
6.5	0.0052864066956176	-0.00622990048016456	-0.00298949985864942	-0.000976975108043901	-0.00299736614563951	-0.000972484836947098	0.000585668236865999	-0.0124942724937882
6.6	0.00328937907027814	-0.00786638997778778	-0.00309786876622601	-0.00055047132407764	-0.00309950726500233	-0.0005544507914892	0.000288883469861791	-0.0128150361486147
6.7	0.000795403630521547	-0.00875082995048457	-0.00314768890351827	-0.000111743386375868	-0.00315654460827779	-0.000105450097975771	-0.000452718212143571	-0.0132479299324389
6.8	-0.00173751384220415	-0.00889759135588121	-0.00312547310025947	0.000330163041735036	-0.00313657031151537	0.000335226480399705	-0.00143198125119466	-0.0134339633640461
6.9	-0.004302958105109	-0.00840112528909819	-0.00304984972545469	0.000763845048931545	-0.00305283698636429	0.000766240817161725	-0.00253354937834369	-0.0134899644741377
7	-0.00644229252684667	-0.00695356214433316	-0.0029126302989221	0.00118599851574455	-0.00292547589206393	0.00118381772304556	-0.00383632357673266	-0.0130396813924601
7.1	-0.00796163058633943	-0.00562568596802016	-0.00273301217552551	0.00157489657964715	-0.00272933205719701	0.00158356255026316	-0.00454659959601481	-0.0122974587360595
7.2	-0.0096545357231707	-0.00400782637325406	-0.0024756303039765	0.00194234679499516	-0.00248216033322903	0.001944437034346	-0.0050640790475499	-0.0116989496792839
7.3	-0.0111932294853946	-0.00190461088172013	-0.00217956952903795	0.00226107969933034	-0.00219078062033077	0.0022661528642699	-0.0053536245511808	-0.0112841713446508
7.4	-0.0125038652172565	0.000600306369941543	-0.00183719661738203	0.00254414751533079	-0.00184406090914535	0.00255777389591566	-0.00576590730088792	-0.0113120163741219
7.5	-0.0132428100838128	0.00396519961945194	-0.00147024951575667	0.00278219082115465	-0.00146324320751482	0.00278957500502303	-0.00657998835776837	-0.0112191590571542
7.6	-0.0123452719268864	0.00713127491082981	-0.00106466074470743	0.0029594280126874	-0.00106604221622115	0.00295473307827825	-0.00681334527569562	-0.0109246462441194
7.7	-0.0110604171903499	0.00959939074802624	-0.000636519946486647	0.00308055845377238	-0.000637861651341447	0.00307949853084334	-0.007147227248916	-0.0114251524691803
7.8	-0.00906085764543959	0.0114790827143482	-0.000210572237989374	0.00312937271534267	-0.000218370823939719	0.00313584190897905	-0.00792398722761258	-0.0118752280567165
7.9	-0.0066803479622164	0.0127685865251891	0.000230896936008074	0.0031355615243	0.000238840104897996	0.00313704760817351	-0.00903077317886498	-0.0119924635610798
8	-0.00370582918018836	0.0136711593081306	0.000671579786237004	0.00306254701102169	0.000671667533599545	0.0030674452996957	-0.0102989440076646	-0.0114364010330013
8.1	-0.000633580474627671	0.0133185819163432	0.00108219563832046	0.00294523606682683	0.00110134430584862	0.00294629757596315	-0.0109191461018223	-0.0108132228072995
8.2	0.00182501563833053	0.0126043483642261	0.00148719946972708	0.00276357658301119	0.001496435146649	0.00275636820454648	-0.0115357731427979	-0.0102237786578736
8.3	0.00409002218322781	0.0116100760495901	0.00186330104933666	0.00252349871271852	0.00186167972459822	0.0025370488656918	-0.0120689965155705	-0.0096844717402871
8.4	0.00602552956393311	0.010381286463682	0.00219799117086218	0.00224517612858183	0.00219496165162245	0.00224495633747359	-0.012773137767326	-0.00933504884119775
8.5	0.00794981850359038	0.00915855838918452	0.00248359692175745	0.0019150380862983	0.00248270455064938	0.00191822242343575	-0.0138949374385805	-0.00848144643293116
8.6	0.00990522641182334	0.00698071988239671	0.00272961488728285	0.00155339237940572	0.00273910021454148	0.00154683613549447	-0.0143572911618547	-0.0073828556371402
8.7	0.010923492571791	0.00436496913652098	0.00291397897598641	0.00115011750709561	0.00291953714712498	0.00115083009234336	-0.0146873298248903	-0.00653747776952596
8.8	0.0112884689421426	0.00173094901070988	0.00304924595496648	0.000739451666959064	0.00305499556289775	0.000730688247457369	-0.0150424993959522	-0.00587938280723767
8.9	0.0110967700451241	-0.000870780093340916	0.00312602419373887	0.000306150738495709	0.00312515034101832	0.000303906540886331	-0.0153523519435848	-0.00522720539790966
9	0.0106420029242161	-0.00308551333016887	0.00313531561098949	-0.000137672197994881	0.00313847796360317	-0.000133579518177458	-0.0157388726080131	-0.00417758382189534
9.1	0.0102501089044072	-0.00578903926483571	0.00308724753302962	-0.000578380525008047	0.0030901520305814	-0.000565502958108942	-0.0153742602387239	-0.00306798185234672
9.2	0.0089715951766363	-0.00860396415857283	0.00297714717383283	-0.000994765877925504	0.00298479075765736	-0.000997651385342422	-0.0149064308179165	-0.00241209817267842
9.3	0.0070317031739942	-0.0112139019511679	0.00280830856523281	-0.00139920860526164	0.00280757095231896	-0.00140419179806401	-0.0144422456063018	-0.00197091686635648
9.4	0.00428667682127299	-0.0134312978639659	0.0025853650222112	-0.00178908903014663	0.00259188093405388	-0.00178151184467827	-0.0142750892545447	-0.00180918114429911
9.5	0.00112896753398456	-0.0145587635932836	0.00230887971890531	-0.00212178501988755	0.00231627610615026	-0.00212314268504144	-0.0144317455492535	-0.00117777670576761
9.6	-0.00233211052419277	-0.0155403230225065	0.00199282762884849	-0.0024234591522815	0.00199315806033963	-0.00242247948307284	-0.014352321013912	-0.000585437551131692
9.7	-0.00644438385662765	-0.015422752663806	0.00162653657825579	-0.002673275886396	0.00163205247689397	-0.00268057387959661	-0.0143470853578535	-1.18225114766407E-05
9.8	-0.0105372201904766	-0.014201124255121	0.00124215789153856	-0.00288146973679824	0.00124785275490541	-0.00287299472935006	-0.0143400479605558	0.000552801079720679
9.9	-0.0144109941088392	-0.0118080699690207	0.000837489310079164	-0.0030195970431705	0.000830176344884058	-0.0030183670546306	-0.0145678485157283	0.00106875402111051
10	-0.0174161896082294	-0.00820787514160056	0.000409754598457131	-0.003107889255211	0.00040228062813697	-0.00312029882028433	-0.0150111253631423	0.00206965466480971
10.1	-0.0192679071122319	-0.0046277288153049	-3.10847794749942E-05	-0.00314048382846128	-4.12932904334911E-05	-0.00313510191705456	-0.0147328480767997	0.00314956864356442
10.2	-0.0207683207265572	-0.000702657561135038	-0.000476416156733334	-0.00310388198996513	-0.000479815362814295	-0.00310110893488036	-0.0142569794659982	0.00395107483804568
10.3	-0.0215065986164674	0.00367935356925671	-0.000907716526533659	-0.00299838890018411	-0.000899643093462635	-0.0030074404773851	-0.0136863759877582	0.00451109900220379
10.4	-0.0213794514735732	0.00839411302567586	-0.00130333447275006	-0.00284452330613528	-0.00130163971865276	-0.00285070421282062	-0.0131589925252784	0.00469606258757836
10.5	-0.0198955954433786	0.0135349947733199	-0.00169455590753827	-0.00264804200504942	-0.00169146661828233	-0.00263506177097728	-0.012925870329765	0.00518973250565522
10.6	-0.0168220258619916	0.0176740471356282	-0.00204773106546462	-0.00237804979177475	-0.00204554692183894	-0.00238186529611675	-0.0121776528879993	0.00567042432872602
10.7	-0.013145685986835	0.0210353883035624	-0.00236203977860521	-0.00207635155445611	-0.00235855375466591	-0.0020710791732477	-0.0113897915872248	0.00592252932823217
10.8	-0.00905375609970748	0.023532265290623	-0.00263026448602628	-0.00171744794233257	-0.00262507031370695	-0.00172635346410212	-0.0108160390577175	0.00585772690377767
10.9	-0.00485542723053443	0.0254550882886899	-0.00283844918675392	-0.00134494924682677	-0.00284362830721563	-0.00134422351082532	-0.0106873783951242	0.0057047997059626
11	0.000159370321181257	0.027060425976161	-0.00299817731453992	-0.000928503194853641	-0.00300301011096787	-0.000935234307878393	-0.0107781382716657	0.00620972599489123
11.1	0.00565837643570206	0.0269842975757194	-0.00310540430984981	-0.000504748425031295	-0.00309456940661217	-0.000501887331098793	-0.0101708642041845	0.00673621229086335
11.2	0.0107062647190047	0.0259182847603349	-0.0031351134985376	-6.89398567064242E-05	-0.00314224681189742	-7.37734951688832E-05	-0.00936452511483166	0.00699897639270558
11.3	0.0155416452684761	0.0239756576365342	-0.00310943263373246	0.000378393738743006	-0.00312094045952043	0.000368362438343308	-0.00831342993385183	0.00694685661552393
11.4	0.0198057664767256	0.02127391692101	-0.00303682731306707	0.000805774707712614	-0.00303193048263456	0.000813332339476596	-0.00754893390135687	0.0064855987061694
11.5	0.0238980701279336	0.0180949832742093	-0.00289339390701952	0.00122007429952045	-0.00289617844352638	0.00123032428881402	-0.00726027321239129	0.00617898021776705
11.6	0.0275085346491728	0.0133934740346681	-0.00270133916061243	0.00160871813518526	-0.00270132534269007	0.00161165229166123	-0.00660480731152394	0.0056771362050119
11.7	0.029692193788841	0.00823272987664263	-0.0024422439211135	0.00196354210155954	-0.00244282276298963	0.00197213064282907	-0.00613927203881106	0.00484544893159047
11.8	0.0309257108021583	0.00304413772719378	-0.00214845465797789	0.00229615681176641	-0.00215256622689191	0.00229784489544514	-0.00595317799737378	0.00398767514849613
11.9	0.0313774494318834	-0.00196901732920123	-0.00180015972504622	0.00257238847953089	-0.00181316650250577	0.00257666391713099	-0.00618561963920091	0.00349598150570902
12	0.0317594480115479	-0.00685031322940298	-0.00142955895940642	0.00279516298260049	-0.0014289675346402	0.00279657382568141	-0.00639478296473735	0.00365464135019857
