# GHZ S RI R 50
0.2	0.00602300760963981	0.00125342157831726	0.00304794882923819	-0.000898184685247513	0.00305831724338643	-0.000891377593859474	-0.0139584863267586	0.004875700174988
0.3	0.00636705352088607	-0.000686869214510768	0.00290350035418808	-0.00132156734143818	0.00289625711458636	-0.00130862958357241	-0.0131295012794161	0.0050843637391791
0.4	0.00609660487774674	-0.00239774289443218	0.00267164185898133	-0.00169312477358827	0.00267690671637921	-0.00170168415111008	-0.0126168343397981	0.00556730195261306
0.5	0.00525790762598655	-0.00370153317154885	0.00241287113498722	-0.00204945764942786	0.00242440432431114	-0.00206169512373374	-0.0121753636291861	0.00624700472736791
0.6	0.00435010910144306	-0.00467892790688981	0.00210034195448973	-0.00236389407161159	0.00209955486816473	-0.00237104148930589	-0.0115696936425458	0.00680695078835849
0.7	0.00309395496348098	-0.00538351769862353	0.00175315433235977	-0.0026413561203711	0.00175119899445808	-0.00264155465100857	-0.0112290602585579	0.00732366161032304
0.8	0.00179856603759626	-0.00573069127819711	0.00136787587902428	-0.00285841145051349	0.001355280731416	-0.00286295762410674	-0.0109120271286718	0.00802489476853717
0.9	0.000434952484733493	-0.00578609449172789	0.000951154974097553	-0.00302171218057052	0.000952189227494742	-0.00303240677163251	-0.0105383336418249	0.00874546072864076
1	-0.0010960268581657	-0.00560139448826219	0.000526549164307048	-0.00312522822494124	0.000516691139394251	-0.0031259677476277	-0.0101979468715436	0.00955237295190798
1.1	-0.00252441184899256	-0.00495238565301338	7.10433695623555E-05	-0.00315375561887331	6.75370673354251E-05	-0.00317139766394595	-0.00963218616212105	0.0105697328031222
1.2	-0.00385085984814465	-0.00438385976399438	-0.000370677333206497	-0.00314303480036511	-0.000371488701289395	-0.00314095943679095	-0.00866719234633342	0.0114237388863918
1.3	-0.00522433273867211	-0.00384368786638085	-0.000797419597370088	-0.00305989378098037	-0.000800657875266363	-0.00306189809906681	-0.00708637433919674	0.0120736712209157
1.4	-0.00633885755442202	-0.00323583133239648	-0.00121845855969803	-0.00291184617204853	-0.00121724575393782	-0.0029173765357306	-0.00533009528518958	0.0118840824539198
1.5	-0.0068979518029643	-0.00206416785395753	-0.00161916531932591	-0.00271590662605123	-0.00161755401064368	-0.00272440233258154	-0.00399281442861565	0.0113989532920783
1.6	-0.00670524628444984	-0.000539527837967238	-0.00197915690160588	-0.00246372919884361	-0.00197936703606426	-0.00246896041031695	-0.00338840730201081	0.011155290386735
1.7	-0.00607180090175068	0.000903523667092039	-0.00230740240977974	-0.00216731542548984	-0.00230836867908218	-0.00216105758127122	-0.00286927494104732	0.011297461870372
1.8	-0.00514369913609786	0.00226774006569678	-0.00257840874383958	-0.00181618166790746	-0.00258936768272644	-0.00182181756116889	-0.00224896220545897	0.0114870259190427
1.9	-0.0040015960128162	0.00324969926313294	-0.00280374089485812	-0.00144565986391902	-0.00281617504226289	-0.00143951228279569	-0.00164435861752935	0.0116600994679693
2	-0.00283345935282783	0.00406770854348015	-0.00297911377901733	-0.00103836831413789	-0.00298873072667113	-0.00103366530145224	-0.00104303642630529	0.0120053057339625
2.1	-0.00133000437616109	0.00455470997444254	-0.00309283433173033	-0.000610499620564888	-0.00308875268199415	-0.000612488973232388	-0.000101620947174521	0.0121339404449439
2.2	0.00016323592446691	0.00462372261015987	-0.00315037221453749	-0.000172402114742539	-0.00316166890529236	-0.000175239781878688	0.000865875090099496	0.0120563655531126
2.3	0.00160246967520691	0.00422348981541902	-0.00314576331284388	0.000270799696265565	-0.00314545916214118	0.000263920809854051	0.00175201484411165	0.0117593623727237
2.4	0.00283643870592793	0.00344885952041871	-0.00307331282750982	0.000708792174976612	-0.00307585112195317	0.000704536716694397	0.00252534380491951	0.0114336546483877
2.5	0.0036503669031109	0.00240915875298248	-0.00293665993886023	0.00112064634462975	-0.00294754547476101	0.00112701862479265	0.0032391484252925	0.0111379766485118
2.6	0.00438251306144088	0.00137280762784016	-0.00276289357839933	0.00152378600779817	-0.00275933460863439	0.00151147077843297	0.00418865587543902	0.0107537799682009
2.7	0.00503288022482443	0.000134929697675213	-0.00251700511496765	0.00189491551571171	-0.00252228227373932	0.00189492486506262	0.00495528213561777	0.0101385068788842
2.8	0.00558493827926543	-0.00133129510807163	-0.0022342559468455	0.00222211384940853	-0.00222644994308925	0.00223190080671029	0.00554609577628	0.00959640670851129
2.9	0.00591657159043212	-0.00307371137056515	-0.00190028715371019	0.0025220525373296	-0.00189657991976869	0.00252162736984718	0.0062367673409135	0.00921409897875483
3	0.00576448229985956	-0.00490356294714962	-0.00151416795849073	0.00275768245663652	-0.00152894428926973	0.00276377353788012	0.00711508873266036	0.00892485962240997
3.1	0.005382102178995	-0.00674571562942942	-0.00112388902828308	0.00293447886685443	-0.00111923779724352	0.00294281889560646	0.00806646503765582	0.00832288858772076
3.2	0.00442517604328	-0.00861594050754039	-0.000703748008918614	0.00307148743381395	-0.000705491304624386	0.00307087629318928	0.00864343461380008	0.00770509225100315
3.3	0.0030078232495934	-0.0104080890851645	-0.000265659927460293	0.00314136061443035	-0.000264010011238661	0.00313762304036057	0.00927653277182393	0.00704186155399801
3.4	0.00102847100173598	-0.0118914762091831	0.000181007074150998	0.00313552032812399	0.000174795765594181	0.00315207528794042	0.00985948170197819	0.0061723026003702
3.5	-0.00141141057755833	-0.0129003054687881	0.000602760075586354	0.00309247254992799	0.000608353407844665	0.00309255062702995	0.010188966346428	0.0051749619347372
3.6	-0.00396483441688445	-0.0132851730568644	0.00103068572975659	0.00297344320246861	0.00103887435924362	0.00297313070756844	0.0104303486687317	0.00420910723227997
3.7	-0.00657514842801643	-0.0131856226655146	0.00144118311233794	0.00279286899668385	0.00143159147662064	0.00280653432776939	0.0105380969738851	0.003295568197428
3.8	-0.0091704336748476	-0.0125526383179664	0.00181940054091328	0.00256600375434874	0.00182179850311414	0.0025751527606147	0.0105420204799542	0.00247109885100736
3.9	-0.0115748653284101	-0.0114530057223323	0.00216532888086081	0.00229296089769538	0.00215806624784613	0.0022911777330047	0.010463344615942	0.0017627885598263
4	-0.0138319188725761	-0.00980642825386999	0.00244979329207402	0.00197205165634968	0.00245424261135172	0.0019696210171207	0.0105363393415778	0.00133798959651401
4.1	-0.0155551809964082	-0.00773151706549089	0.00270224447502053	0.00161258444207442	0.00270099148031069	0.00161331923531074	0.0109687001453294	0.000728462952768091
4.2	-0.0169253836262403	-0.00542046407796948	0.00290187955916343	0.00121132829814659	0.00290635134980549	0.00120261596648335	0.0112534135671701	-6.44684253125114E-05
4.3	-0.0178848888587494	-0.00296439242963596	0.00304512587724515	0.000799167419097517	0.00305155364258499	0.000791369136822883	0.0114329408315524	-0.000978200651390279
4.4	-0.0185484349223777	-0.000365871891821381	0.0031215576207439	0.000365111793559042	0.00312393356718219	0.000362857055427277	0.0113856976789353	-0.00185870986931305
4.5	-0.0189115818747267	0.00249853744882184	0.00314491896571197	-7.27262406363947E-05	0.00315028263504301	-7.60957014151722E-05	0.0113777721367867	-0.00254767477298593
4.6	-0.0186378884225052	0.00549938233732483	0.00310111730200072	-0.00051612307838406	0.00310233809492543	-0.000503207107051637	0.0114770838456444	-0.00352460628372772
4.7	-0.0177096868965681	0.00839983818432375	0.00299584932644032	-0.000935088403760454	0.00301114212277035	-0.000944697109167806	0.0112450774289923	-0.00460838614073005
4.8	-0.0162709029041706	0.0110507704331083	0.00283488891483966	-0.00134918979914778	0.00284337143096661	-0.00135527409789054	0.0108353543057455	-0.00555889616544898
4.9	-0.0142029564252978	0.0133036951592013	0.00261448008221055	-0.00173339106072863	0.00261864482723764	-0.00173048333799178	0.0103774223191955	-0.00631307175772691
5	-0.0118109458423317	0.0151144447488383	0.00235484798826175	-0.00208909734959724	0.00235846891186938	-0.00208643101093491	0.0102220311265432	-0.00682514375912502
5.1	-0.00877660012905587	0.0164169941238377	0.00204385495915277	-0.0023995571035808	0.0020461548907539	-0.00239819832672067	0.0102509168377806	-0.00768670270404462
5.2	-0.00565945317369546	0.0169426912740313	0.00168652160669964	-0.00264946656066923	0.00168823741287626	-0.00265460807679103	0.00999444290315739	-0.00853424071207893
5.3	-0.00256503767493053	0.0168257729053894	0.00130003891282831	-0.00286511899096274	0.00130317011812533	-0.00286305473553634	0.00970305986936047	-0.00918391959097273
5.4	0.000280103705885607	0.0161056014636844	0.000875199980433348	-0.00301299203393236	0.000892370450423737	-0.00302419181694529	0.00946800637372027	-0.00995646664784497
5.5	0.00267622543608744	0.0151243244594467	0.000461396328750315	-0.00311066760514462	0.000471452001324896	-0.00312009033558379	0.00913337097079006	-0.0107882339447435
5.6	0.00497482373857163	0.0137964757384069	2.33784483900928E-05	-0.00314693375883799	1.48554333435191E-05	-0.00315015675725554	0.00848184777857504	-0.0118319119745353
5.7	0.00685030217483381	0.0120818100151594	-0.000407694449090907	-0.003116855096866	-0.000424305001107135	-0.00312052420573778	0.00733247030051262	-0.0125029758891696
5.8	0.00832892330753646	0.0100478208632261	-0.000853822597936007	-0.00302219686127781	-0.000857351945445276	-0.00303618811816078	0.00615012232410829	-0.0129791515389636
5.9	0.00925265583759762	0.00776280059585603	-0.00125893386784931	-0.0028821816300497	-0.0012671645664705	-0.00288210299069257	0.00479986494905108	-0.0131953517765127
6	0.00939645794375967	0.00545194448712583	-0.00165685327778298	-0.00267608162133581	-0.0016532920744807	-0.00267624663787218	0.00348220621535552	-0.0128088501670464
6.1	0.00927353597915934	0.00334477257021982	-0.00201241911914498	-0.00242197302608259	-0.0020140602391655	-0.00241796877940225	0.00291787253742048	-0.0123837965034488
6.2	0.00879773260016632	0.00114144898680877	-0.00232550548590491	-0.00210858374336568	-0.00232921230971103	-0.00212045711676932	0.00256772186264845	-0.0123317724599397
6.3	0.0079795446383864	-0.0010938402965957	-0.00260331063024459	-0.00177388658694995	-0.00261244063626721	-0.00176814857597897	0.002248891211054	-0.0126965593475485
6.4	0.00657187214532859	-0.00332767562893956	-0.00282941641798153	-0.00138319837610985	-0.00281969067782333	-0.0013880997583656	0.00175599782570977	-0.0132193003407717
6.5	0.00464969078356314	-0.00500946955374175	-0.00298639428721801	-0.000978426180724794	-0.00299425766502894	-0.000973945343203341	0.00134685552648273	-0.0136880690142274
6.6	0.00266222244093003	-0.00613658035549366	-0.00309465626265251	-0.000552838267282779	-0.00309628967169577	-0.000556815764269815	0.000778893059436304	-0.0144856544672846
6.7	0.000529865043462164	-0.00674893566379472	-0.00314508117364892	-0.000114953234797302	-0.00315393646562542	-0.000108674205343274	-0.000336299490593226	-0.0149227571861972
6.8	-0.0016680520201312	-0.00685338297759481	-0.00312360338657071	0.000326465912113724	-0.00313469826820276	0.00033151344092802	-0.00152418866086364	-0.0149376309563043
6.9	-0.00396800547397259	-0.00650881478220783	-0.0030486101962695	0.000759834368069863	-0.00305159812407814	0.000762225067211352	-0.00263092932520543	-0.0146727796247991
7	-0.00626150188755997	-0.00534758147469042	-0.0029120402903108	0.00118128955293989	-0.00292487352757875	0.00117909346524011	-0.00339835476511689	-0.0141546797327911
7.1	-0.00801919679831217	-0.00365295265307333	-0.00273395064044684	0.00156995348179927	-0.00273028550675108	0.00157862044933282	-0.00407835873446814	-0.0139991748183343
7.2	-0.00937927826944347	-0.00166060884577705	-0.00247773214092429	0.00193788751962983	-0.00248426308190112	0.00193996705593744	-0.00498331699966297	-0.0136386617443881
7.3	-0.0103455019410504	0.000515653136530671	-0.00218256447939796	0.00225717952480663	-0.00219378082230688	0.00226223415138429	-0.00572243644384353	-0.0131917329821956
7.4	-0.0109749890533301	0.00268960816420679	-0.00184105710658716	0.00254085477080948	-0.0018479424632397	0.00255446831117377	-0.00656499393618803	-0.0128247326490766
7.5	-0.0114704643738292	0.00506901036572304	-0.00147519098326928	0.00278001598959303	-0.001468196452325	0.00278741306893935	-0.00715434310415686	-0.012093877735035
7.6	-0.0111008091114535	0.00763813824286812	-0.00106958736335223	0.00295882354481295	-0.00107096209198229	0.00295412484381913	-0.00714100050916029	-0.0118631551408881
7.7	-0.0102045696685605	0.00989772132273973	-0.000641217505531603	0.00308086312266186	-0.000642558213757106	0.00307980084300123	-0.00748729329584965	-0.0122735668133897
7.8	-0.0086201485365509	0.0117002114400298	-0.000215116664129297	0.00313052280317347	-0.000222928054714874	0.00313698391094769	-0.00812311277049203	-0.0125467523072315
7.9	-0.00667410285259293	0.0129871507974237	0.000226577294621884	0.00313775401624234	0.000234523073902532	0.00313925227419267	-0.008870390873973	-0.0124943589988103
8	-0.00444068639255802	0.0141065562856168	0.000668269984858993	0.00306579364698535	0.000668351663811176	0.00307069589247198	-0.00940877396003255	-0.0123087271148047
8.1	-0.00168262809325691	0.014665666822887	0.00107967949058364	0.00294856147488856	0.00109884072381975	0.00294964515859815	-0.0101264557177394	-0.0123932170905392
8.2	0.0010695465404682	0.0145721504930524	0.00148518171239915	0.00276729797141431	0.00149443235089159	0.00276009468092606	-0.0110753204976719	-0.0120515920901817
8.3	0.00371959773060094	0.0138546269989091	0.00186207507288901	0.00252765052572222	0.00186043748494327	0.00254121017612437	-0.0118828938719161	-0.011511209532175
8.4	0.00601368959340368	0.0125941737765072	0.00219784823784019	0.00224945469277117	0.00219481608359801	0.00224923171032491	-0.0127002617590172	-0.0109069161668348
8.5	0.00782479352309112	0.0111234511609153	0.00248417626789281	0.00191866887378159	0.0024832805751555	0.00192185521038541	-0.0133291344083964	-0.00998404542420504
8.6	0.00956255999613744	0.00940494948574784	0.00273037847242484	0.00155711833214786	0.00273987734139254	0.00155056549532157	-0.0137611960970706	-0.00952892600666503
8.7	0.0109897533911059	0.00722894862344905	0.0029155688248125	0.00115385476174745	0.00292113139608203	0.00115457312758534	-0.0145376070203918	-0.00900292042177434
8.8	0.0120023461379206	0.00466562284766084	0.00305164898623198	0.000742777076700008	0.00305741175425602	0.00073400982994724	-0.0154352157735692	-0.00832947170146444
8.9	0.0124757758387886	0.00164164667759594	0.00312889383770171	0.000308791023176496	0.00312802079644592	0.000306543947892651	-0.0161878935078888	-0.00724363649699566
9	0.0120719445330651	-0.00146437063927249	0.00313833791298353	-0.000135192617966746	0.00314149979510618	-0.000131093512685978	-0.0163447857865024	-0.0056915026366389
9.1	0.0112184606395574	-0.00449244515220773	0.0030912514614445	-0.000576383627208738	0.00309414818830823	-0.000563488936182951	-0.0158767976325553	-0.00462905690531298
9.2	0.00961974851461622	-0.00744209464529125	0.00298155849156983	-0.000993790461207294	0.00298921364645784	-0.000996673873572155	-0.0154294622343845	-0.00381862125637784
9.3	0.00732414497451162	-0.010062618656302	0.00281277374838185	-0.00139913651777243	0.00281203846850675	-0.00140412649031834	-0.0148325217434143	-0.00317067352493118
9.4	0.00428714590934828	-0.0122060543696905	0.00258982940292766	-0.00178968641032107	0.00259634868889344	-0.00178209531126778	-0.0143412257646612	-0.00278191741962397
9.5	0.00060535804190113	-0.0132230255172873	0.00231376426442065	-0.00212339724417707	0.00232117262511202	-0.00212475194291858	-0.0138081985150166	-0.00235080704398785
9.6	-0.00309994871063277	-0.0133967413912943	0.00199706414865734	-0.00242661538483483	0.00199739472462207	-0.0024256339806482	-0.0137335915027653	-0.00247216156229791
9.7	-0.00680181543437364	-0.0127235714495518	0.00162980106073398	-0.00267720897516946	0.0016353276096067	-0.00268451744972841	-0.0141027528842755	-0.00218053060489734
9.8	-0.0103333291031295	-0.0113395065987366	0.00124457431010443	-0.00288598646663454	0.00125027727365061	-0.00287749689064794	-0.0144934182114722	-0.00158621364492663
9.9	-0.0136670204070478	-0.00924626703174905	0.000839026980172887	-0.00302475252795604	0.000831701421368087	-0.00302352067076262	-0.0149798639371305	-0.000661338946346538
10	-0.0167691035657252	-0.00626015099647398	0.000409583420678067	-0.00311365164312726	0.000402092229292775	-0.00312608153491963	-0.0149840814374789	0.000650127193723018
10.1	-0.0189614255011173	-0.00253269842987205	-3.27631960421309E-05	-0.00314547916964203	-4.29852059642169E-05	-0.00314008337538667	-0.014581344157121	0.00138634466327296
10.2	-0.0202720311028931	0.00155491722707015	-0.000478947466849123	-0.00310822444892145	-0.000482350107084404	-0.00310544526926234	-0.0143104832452123	0.00210366817233641
10.3	-0.020684978665192	0.0057991054865634	-0.000911091491536727	-0.00300207573754447	-0.000903012691162399	-0.00301114590725237	-0.0139329947717544	0.00280555552577863
10.4	-0.0203334393633868	0.00996039893536675	-0.00130760602664467	-0.00284730719600271	-0.0013059143185688	-0.00285349809249701	-0.0134000614410018	0.00340362268616155
10.5	-0.0193466224938511	0.0143542137278873	-0.00169914116971193	-0.00264913235559711	-0.00169603502995752	-0.00263614134277428	-0.0125165812580022	0.00410862409292096
10.6	-0.0171928783688074	0.0186380824238776	-0.00205169895319898	-0.0023784049182886	-0.0020495161942622	-0.0023822258289277	-0.0115231317921037	0.00412282265175089
10.7	-0.0140799474091566	0.0225087720724123	-0.00236602553722111	-0.00207619750753546	-0.00236253170209615	-0.00207092332320997	-0.01078806166044	0.00407987615859264
10.8	-0.0101278124391021	0.0256412643652743	-0.00263422233329924	-0.00171646635696835	-0.00262903203319695	-0.00172538468905337	-0.0103010720200608	0.00386994345959837
10.9	-0.00574477702156234	0.0279380050119991	-0.00284192815735902	-0.00134302225227815	-0.00284711035460505	-0.00134229065269653	-0.0101821876806075	0.00378562773633949
11	-0.000936216422280614	0.0296675833172083	-0.00300072630316637	-0.000926450563277663	-0.00300556773584957	-0.000933181415656609	-0.00980021420457648	0.00411750931142794
11.1	0.00450886730408243	0.0304875655296406	-0.00310810469957271	-0.000502493471894712	-0.0030972594448194	-0.000499639440168481	-0.00931557529910912	0.0039019192289091
11.2	0.0102381080525588	0.0300740183039735	-0.00313744537465906	-6.59449097491639E-05	-0.00314458853568957	-7.0775112519218E-05	-0.00905773376187686	0.00382452863746678
11.3	0.015985243601404	0.0282732689226633	-0.00311098274921115	0.000381873301004285	-0.0031225082342909	0.000371847728441886	-0.00864725479423166	0.00384463219322891
11.4	0.0210791882332127	0.0252020892446823	-0.00303762763618824	0.000809265883527752	-0.00303272058150311	0.000816822590410158	-0.0083150714190358	0.00383706334266079
11.5	0.0253075794244006	0.0213559417736875	-0.00289412824624026	0.00122374994843143	-0.0028969045251569	0.001234009558549	-0.00777743790563725	0.00382213778309663
11.6	0.0289840688902043	0.0166676626947139	-0.00270105792560454	0.00161311442049059	-0.00270104043954113	0.00161605043347784	-0.00729340080878138	0.00313792501325356
11.7	0.0317187762172135	0.0112303344615876	-0.00244077298892542	0.00196771740589903	-0.00244134065796907	0.00197631074686741	-0.00722039935711511	0.00255563264173045
11.8	0.0333660191798527	0.00526030336636196	-0.00214616807666057	0.00229983171170302	-0.00215027886733061	0.00230152586333467	-0.00722706484085035	0.00226060096448764
11.9	0.0337314899739928	-0.00097398864800647	-0.00179743676048986	0.00257564632204268	-0.00181044254633572	0.00257994024858897	-0.00719458778246799	0.00258064030568258
12	0.0327839415432346	-0.00686116036818281	-0.00142568329463526	0.00279846664029756	-0.00142508942157275	0.00279987707869928	-0.00637389358898094	0.00299493260480956
