# GHZ S RI R 50
0.2	0.00597977339713364	0.00153621324041646	0.00304646541495738	-0.000898431162877386	0.00305683081817218	-0.000891629110188322	-0.0139431498348299	0.00520737388860374
0.3	0.00621302923983487	-0.000551584688107453	0.00290174528492999	-0.00132161662779193	0.0028945087564863	-0.00130868351274597	-0.0132300507490869	0.00526765039028958
0.4	0.00591661029570458	-0.00226982118468904	0.0026696970208198	-0.00169286207899107	0.00267495669297575	-0.00170141799408122	-0.0127660275320275	0.00573550594381878
0.5	0.00511159951116428	-0.00359834740100127	0.00241080712574286	-0.00204875894995216	0.00242232982963911	-0.00206099152261594	-0.0123760059783971	0.006411497388873
0.6	0.00427064142644999	-0.00459235570295915	0.0020983935265231	-0.00236283188170608	0.00209760526242525	-0.00236997439256481	-0.0117373279428706	0.00708378065757584
0.7	0.00306451644878414	-0.0054193896618669	0.00175122838425044	-0.0026399346476221	0.00174927438249195	-0.00264013253251567	-0.0112905691174028	0.00757346318734806
0.8	0.00171718499366249	-0.00589489008663664	0.00136611027314232	-0.00285655804326333	0.00135352366277095	-0.00286109757466501	-0.0109391161799517	0.00819476624764748
0.9	0.000192557493358944	-0.00601068028975432	0.000949669378660741	-0.00301952810261015	0.000950700236243962	-0.00303021440324294	-0.0106103716416599	0.00882829089747873
1	-0.00149994791882781	-0.00562232165634246	0.000525210722194477	-0.00312272924899796	0.000515360842921652	-0.00312346533086554	-0.0104114106078076	0.00966783553728281
1.1	-0.00276323123382004	-0.00471006068122533	7.00778788428784E-05	-0.0031507227342092	6.65699547992031E-05	-0.00316834670344051	-0.00984202228832147	0.0108936136002237
1.2	-0.0037473612745874	-0.00401102490421558	-0.00037100924441211	-0.00313961399527073	-0.000371819272599877	-0.00313754064677562	-0.00864141746758293	0.0119192153218434
1.3	-0.00469684811695177	-0.00363857267531192	-0.000797076399368312	-0.00305631752432726	-0.00080031140571999	-0.00305831901049511	-0.00673205007779219	0.0124949449757005
1.4	-0.00579255127975893	-0.00344068054385942	-0.001217518717377	-0.0029081592843187	-0.00121630833228965	-0.00291368326710358	-0.00496403150625943	0.0120339661832163
1.5	-0.00654022794202579	-0.00240933103278703	-0.00161723186871174	-0.00271196648436404	-0.00161562374827663	-0.00272045061931048	-0.00383603401393634	0.0115458966494105
1.6	-0.00657313905696538	-0.00109595969526841	-0.00197613680772007	-0.00246032021538428	-0.00197634627625211	-0.00246554391126516	-0.00332040593901735	0.0112837889586373
1.7	-0.00625860161865858	0.000336609359018748	-0.00230366485838121	-0.00216451951496665	-0.00230463074163593	-0.00215827099898753	-0.00292623059188256	0.0114205510240033
1.8	-0.00556823307076922	0.00181000999414131	-0.00257400122618973	-0.00181403848644099	-0.00258494195106795	-0.00181966846621974	-0.00243317600381882	0.0116311621507254
1.9	-0.00459962044732714	0.00302386108824188	-0.00279849376324599	-0.00144434934795714	-0.00281090957668663	-0.00143821691331449	-0.0019842687324003	0.0118846709439588
2	-0.00324590222786865	0.00422269177609783	-0.00297333180459834	-0.00103884286599823	-0.00298293609018864	-0.00103415492642407	-0.00139005752939197	0.012507312232796
2.1	-0.00142658142885811	0.00454674097235339	-0.00308765318764085	-0.000612260074379727	-0.00308357595467186	-0.000614242899372374	-0.00025694412697523	0.0126598518442827
2.2	4.75566467656478E-05	0.00442064478170408	-0.00314557924088022	-0.000175177470174779	-0.00315685661121168	-0.000178021829344054	0.00077749620636523	0.0125260378063741
2.3	0.00133827056893394	0.00391187190771314	-0.00314153543760641	0.000266898220178388	-0.00314122404625769	0.000260029579442034	0.00166552346600136	0.0121482469133053
2.4	0.00228193521488469	0.00321325174478315	-0.00307016216009281	0.000703674846219503	-0.00307269128570823	0.000699421638610935	0.00230610565690385	0.0117622291852334
2.5	0.00303917395245807	0.00275495733286196	-0.00293537203874641	0.00111534966119282	-0.00294625596908503	0.00112170012577978	0.00287973071520778	0.0117479338624864
2.6	0.00433928104310187	0.00190454048206879	-0.00276222033501101	0.0015186739723023	-0.00275864861220853	0.00150637536236174	0.00411077256525377	0.0115322890824274
2.7	0.00538357085297101	0.000445127293817291	-0.00251736055308191	0.00188956144700886	-0.00252263280699756	0.00188956326498355	0.00512382968809974	0.0108201323479742
2.8	0.00603570021860562	-0.00140505142718539	-0.00223589060071807	0.00221693582344704	-0.00222810575407834	0.0022267269900253	0.00576580896354248	0.0100339817038684
2.9	0.00617365234320071	-0.00335654561971547	-0.00190313692820757	0.00251777371997586	-0.00189943103977902	0.00251735447663075	0.00626639566763478	0.00950459929156548
3	0.00607221263065569	-0.00508747551650855	-0.00151679604387884	0.00275439354848276	-0.0015315722999357	0.00276046324237528	0.00704480232140527	0.00937217239280344
3.1	0.00578601760960635	-0.00729608784050609	-0.00112722426894178	0.00293084831546029	-0.0011225880034147	0.00293918904406309	0.00803951874378885	0.00871709644206724
3.2	0.00460459742449275	-0.00939886860825084	-0.000708072502144517	0.00306864754547617	-0.000709813860175826	0.00306803407148316	0.00853604737986162	0.00806870475271331
3.3	0.00292542227612038	-0.0113089078479917	-0.000270395371677945	0.00313958969158645	-0.000268740399017055	0.00313585628410471	0.00909071205548131	0.00737748368772379
3.4	0.000586526009760444	-0.0127452035061259	0.000176517915666499	0.0031345040900263	0.000170285810720217	0.00315104359096675	0.00948359566800918	0.00650868494625309
3.5	-0.00186602393513303	-0.0133599001773538	0.000597468599742789	0.00309114130357917	0.000603057692756968	0.00309122809144393	0.00973600090170153	0.00580852626231418
3.6	-0.00429358490133311	-0.0139672848360127	0.00102440225050865	0.00297404500644909	0.00103258761387282	0.00297374862037398	0.0100946981035348	0.00482909344949962
3.7	-0.00722601802839059	-0.0139307916151041	0.00143532760836398	0.00279497647045096	0.00142571162384297	0.00280861943900556	0.0101260159937595	0.00394053704204971
3.8	-0.0101578743883984	-0.0130712103068667	0.00181400230959018	0.00256913857466558	0.00181638175917311	0.00257829067655351	0.0100453316636362	0.00321803174849152
3.9	-0.0127674671351164	-0.0114166624625069	0.00215995901712777	0.00229703108155264	0.00215270184717733	0.00229523290228759	0.00986959624964647	0.00273820687473478
4	-0.0144444104686486	-0.00898038677260091	0.00244483798295864	0.00197877081538027	0.00244929424887334	0.00197635170410406	0.0102188411553119	0.00279746514846564
4.1	-0.0153414931879977	-0.00725547594381857	0.00270016143288328	0.00162024843493353	0.00269890580063122	0.00162098068203077	0.0111777059980722	0.00200750357581055
4.2	-0.0165622879105352	-0.00541805123275373	0.00290144294361122	0.00121890998438773	0.00290593816534182	0.00121020086612937	0.0116017636629743	0.000918991621609334
4.3	-0.0176102893200126	-0.00328862956383462	0.0030460773458979	0.000806867247330659	0.00305252883050726	0.000799076556598591	0.0117698024833668	-0.000268775922979469
4.4	-0.0185527031329036	-0.000787553289287467	0.00312434086245486	0.000373232702887713	0.0031267251666547	0.000370981157985463	0.0114938313549147	-0.00135773080410251
4.5	-0.018779500465718	0.00247391834506517	0.00315102343264727	-6.59691310839087E-05	0.003156404628089	-6.93332026134843E-05	0.0113549177782059	-0.00183502194273382
4.6	-0.0180809303375512	0.00502824576067869	0.00310743600776392	-0.000511775167506578	0.00310863706124432	-0.000498834452780705	0.0115564530417384	-0.00298255517598548
4.7	-0.0173118679741878	0.00752246144426858	0.00300270151378978	-0.000931638103555593	0.00301803750829313	-0.000941237690261695	0.0111682246754439	-0.00415687131031627
4.8	-0.016158836017865	0.0099305840387022	0.00284274517863826	-0.00134706568766068	0.00285125465438842	-0.00135314766121321	0.0106082165427357	-0.00514196802372872
4.9	-0.0145425136638932	0.0121817246165794	0.00262323699500995	-0.00173369553566725	0.00262740740327639	-0.00173077480415829	0.00988555363218142	-0.00586909254823054
5	-0.0121018162842875	0.0144262358600396	0.00236170377007703	-0.00209215403905213	0.00236533100911462	-0.00208947903515263	0.00969001673701943	-0.00598406246075184
5.1	-0.00905413936779525	0.0153449691131946	0.00205000877821949	-0.00240236083014028	0.00205231194304119	-0.00240099732125568	0.00981335734239861	-0.00690046254237747
5.2	-0.00641010593590015	0.0159734289890977	0.00169257014664175	-0.00265365277120444	0.00169429432955859	-0.00265880382619866	0.00944934044057852	-0.00760186393726792
5.3	-0.00348068527612957	0.016283092933887	0.00130496131945506	-0.00287089726280129	0.00130809841118834	-0.00286882613566535	0.00923208437592953	-0.00804821994261952
5.4	-0.000560968082541196	0.01600593077222	0.000877838845531228	-0.00301949612368031	0.000895050094909708	-0.00303071689048056	0.00906132682652142	-0.00872603194256098
5.5	0.00265763172807461	0.0154716871169919	0.000463429263618927	-0.00311542823069584	0.000473504880665194	-0.00312486176842573	0.00909115272758466	-0.00925610841942117
5.6	0.00536225617599882	0.013151685599772	2.5972818251652E-05	-0.00315340615418078	1.74348301022358E-05	-0.00315664269664236	0.00868072006078506	-0.0108191931379541
5.7	0.00668358808173417	0.0109835461112726	-0.000406862419514282	-0.00312435672920219	-0.000423509608294471	-0.00312804389506769	0.00729392579560427	-0.0116886279445132
5.8	0.0075552943710226	0.00896676188957899	-0.000854819481421244	-0.00302957359202227	-0.00085835245011303	-0.00304359885828099	0.00590712542974248	-0.0122097256442327
5.9	0.00775854960706959	0.0071917137610426	-0.00126065574686172	-0.00288873708361079	-0.00126890399600592	-0.00288866101446202	0.00418179494432278	-0.0123708385536634
6	0.00814308134307592	0.00648507598556613	-0.00165883265577021	-0.00268451549908258	-0.00165526201550141	-0.00268467782731649	0.00279966078705474	-0.011171608478371
6.1	0.00947313999795175	0.004415807276884	-0.00201852319054399	-0.00243006064295669	-0.00202017018786611	-0.00242604377258066	0.00293168088630384	-0.0107526677451469
6.2	0.00963664324482649	0.00163814270133766	-0.00233332026177223	-0.00211431937269566	-0.00233704225448087	-0.00212622803469817	0.00282207521651648	-0.0109899206892514
6.3	0.00892457605648611	-0.00134056822759801	-0.00261175596105037	-0.00177780225995656	-0.00262090981625172	-0.00177204311624679	0.00247605736923167	-0.0117407277340527
6.4	0.00699024050541081	-0.00383487174648398	-0.00283843451828675	-0.00138638327084052	-0.00282868115013541	-0.00139130283372519	0.0014906072760938	-0.0123441527921373
6.5	0.00543652187166124	-0.00519206363791751	-0.00299843735349907	-0.000979186477130753	-0.00300632564387476	-0.000974681410017435	0.00116739917572838	-0.0122588189962246
6.6	0.00335357247787415	-0.00714148459440983	-0.00310511626257282	-0.000549404271975264	-0.00310676131263202	-0.000553391321042875	0.000701902972174408	-0.0132038828852979
6.7	0.000812124441096114	-0.00783028322117405	-0.00315409318343343	-0.000110287133117999	-0.00316296337633471	-0.000103976429172807	-0.000319429543651699	-0.0135306313788001
6.8	-0.00162269336246994	-0.00803912886897407	-0.00313213825108728	0.000332340659618858	-0.00314325731329852	0.000337420319677485	-0.00137393049484276	-0.0137398572233797
6.9	-0.00445816496123961	-0.00751611134227642	-0.00305711353212458	0.000768252618028584	-0.00306010659219193	0.000770656956937184	-0.00283526950739845	-0.01362037039804
7	-0.00608286918602583	-0.00550557746214512	-0.00291651739703143	0.0011933413392205	-0.00292939270589733	0.00119117792027127	-0.00340496922940779	-0.0124965752204213
7.1	-0.00732662573239213	-0.00501399789656474	-0.00273548296686567	0.00158040541349977	-0.00273178741797669	0.0015890806926684	-0.0037537379267959	-0.0128960423092342
7.2	-0.00938630351724686	-0.0036500625224623	-0.00247806122835485	0.00194852305287852	-0.00248460090723821	0.00195062406509822	-0.00486943007203412	-0.0127532952161142
7.3	-0.0111863896564348	-0.00169307052227441	-0.00218074654861556	0.00226842346410126	-0.00219197256624855	0.00227352165844756	-0.00575417339666703	-0.0125056034395137
7.4	-0.0130748797431426	0.000722600664081726	-0.0018354723747828	0.00255181572227117	-0.00184232249380971	0.0025654775912047	-0.00710853132970913	-0.0124059363690107
7.5	-0.013967086639411	0.00492956607718397	-0.00146777517668828	0.00278644179956293	-0.00146075328003607	0.00279382279715473	-0.00808462893817344	-0.0109223957925622
7.6	-0.0127816118521702	0.00775036723428037	-0.00106333200180498	0.00296515567752609	-0.00106472040378774	0.00296045477007399	-0.00780188196582711	-0.0107913109098734
7.7	-0.0119610722129915	0.0103048923609179	-0.000633069253537308	0.00308676343253092	-0.000634414814154906	0.00308570367427289	-0.00847705607726579	-0.0111378608002404
7.8	-0.0101472480714427	0.0126345909309461	-0.000205352746599951	0.0031343815990519	-0.000213151452460999	0.00314087416265437	-0.00928700243613754	-0.0110438985937006
7.9	-0.00779497536683713	0.0146684934036123	0.000236293620036236	0.00313832646578131	0.000244247204692927	0.00313980095591579	-0.0100431356530774	-0.0103009964172266
8	-0.00355820255532968	0.0161230278372822	0.000675668285398903	0.00306695751186681	0.000675760941094902	0.00307186381396071	-0.00972918378616527	-0.0094064348123856
8.1	-0.000125538276465488	0.0149203655791315	0.00109024606464535	0.00294900226999199	0.00110943536692772	0.00295002772689459	-0.00985554279640045	-0.0101989416426222
8.2	0.00226814025794466	0.0139793324068351	0.00149595028773571	0.00276419179565325	0.00150518273274323	0.00275695082864683	-0.0107668616272838	-0.0100863186258039
8.3	0.00452175252206113	0.0127820093164043	0.00187110786574405	0.00252204350587442	0.00186951561183203	0.00253561232610524	-0.01152155951358	-0.0098169166879716
8.4	0.00614344881590221	0.0115286617604941	0.00220486456755109	0.00224380341111026	0.0022018309471068	0.00224358901396095	-0.0126845456278998	-0.00939972263460057
8.5	0.00865693032266533	0.0108614283002163	0.00249354930281599	0.00191211243564266	0.00249266372040421	0.00191530534981126	-0.0130527660330997	-0.00787945035077352
8.6	0.0109288503725569	0.00765539682128531	0.00273704570738193	0.00154611458655926	0.00274651879164534	0.001539522171846	-0.0130988124876647	-0.00812449029989697
8.7	0.0114908002867376	0.00463333009949142	0.00291899074002376	0.0011424718805215	0.00292455423828918	0.00114316900538808	-0.0141402530697802	-0.00792157202633663
8.8	0.0114325713073545	0.00180176702727278	0.00305332308574081	0.000731634187251194	0.00305905267537065	0.000722849164218829	-0.0152963349631005	-0.00748165679793775
8.9	0.0105379183466022	-0.000760002400396357	0.00313016581926477	0.000296730700847745	0.00312928408833277	0.000294486934781757	-0.0166704901979502	-0.00650265627230923
9	0.0100599716015579	-0.00213978090185409	0.00313481687757783	-0.000150552379929346	0.0031379961067691	-0.000146472601331742	-0.0169861825306598	-0.00413448220379435
9.1	0.00969748093623763	-0.00502738132837174	0.00308341029577531	-0.000587739310977216	0.00308635351001253	-0.000574879301426531	-0.0163760942674886	-0.00314417681042729
9.2	0.0082135924487988	-0.00739229846199777	0.00297299189275347	-0.00100315694058437	0.00298062382859284	-0.00100606385598692	-0.0160117067307421	-0.00196175581022349
9.3	0.00659225109070147	-0.00962372440518402	0.00280282859846898	-0.00140769642001128	0.0028020753016123	-0.00141267547395321	-0.0150705141317296	-0.00107767920894913
9.4	0.00402548937377836	-0.0117585431264507	0.00257632732268322	-0.00179727640521396	0.00258286610785296	-0.00178973051383466	-0.0144917511479919	-0.000789931214646863
9.5	0.00172844380953439	-0.0126814376757834	0.0022980539917874	-0.00212399248506776	0.00230543122488578	-0.00212536845807469	-0.0133798102635475	-9.39754712531079E-05
9.6	-0.00177600363938169	-0.0147117749733176	0.00198468450372911	-0.0024251214136548	0.0019850168184914	-0.00242414373157304	-0.0132930401294572	-0.00105747369588102
9.7	-0.00641017879148476	-0.014728512107218	0.00161726704485054	-0.00267437920091609	0.00162275630567294	-0.00268168312401815	-0.0140690803861387	-0.000897129211331129
9.8	-0.010874844700614	-0.0134692617251391	0.00123183410917417	-0.00288017701824627	0.00123754362504706	-0.00287173253202867	-0.0147473368534944	-0.000348094064595731
9.9	-0.015302763484356	-0.0107019452638042	0.000828234873857989	-0.00301432435189551	0.000820942486514541	-0.00301307980571595	-0.0158068138003206	0.000758630966169863
10	-0.0177428959377884	-0.00606501460203927	0.000405013450075356	-0.00310336021952919	0.000397535398706724	-0.00311573976102042	-0.0155363150024607	0.00310963907105734
10.1	-0.0190660958759216	-0.00303310489659612	-3.81191419848194E-05	-0.0031360873530649	-4.83014610701276E-05	-0.00313068985070392	-0.0145712290042743	0.00349271728910395
10.2	-0.0205664379223543	0.000708456268311219	-0.000482430180179747	-0.0030966058875512	-0.000485816364633014	-0.0030938307481629	-0.0142276529382689	0.00402669689989739
10.3	-0.0213784477720962	0.00480241667037154	-0.000910858363038229	-0.00298988729839428	-0.000902819358987539	-0.00299893209360957	-0.0139102629092914	0.00439460883961553
10.4	-0.02186288168471	0.00954695648483518	-0.00130364354655228	-0.00283786266857705	-0.00130195803856963	-0.00284403352324333	-0.0140649284157811	0.0049365570216776
10.5	-0.0199840319094404	0.0155924010439002	-0.00169826448379148	-0.00264258567298251	-0.00169515270676273	-0.00262962212017765	-0.0131031584345811	0.0066514460460464
10.6	-0.0165562891463002	0.0194628125052761	-0.0020493584326175	-0.00236831058756564	-0.00204718791233387	-0.00237212369101185	-0.0116320044303964	0.00667418231538815
10.7	-0.0126287306041089	0.0227728067346018	-0.00236040807589431	-0.00206691894705428	-0.0023569202425797	-0.00206166571957137	-0.0104003953134844	0.00659946955007612
10.8	-0.00842882392371008	0.024759794721398	-0.00262706219946843	-0.00170948839389716	-0.00262189358679694	-0.00171838210228471	-0.00970821763337443	0.00578842984058161
10.9	-0.00480190821595837	0.0265509688647872	-0.00283598379193258	-0.00133725847808571	-0.0028411524468195	-0.00133652429848425	-0.0102004468279316	0.00542633833390223
11	0.000712950624876452	0.0287719615135811	-0.00299175475094998	-0.000917337764009812	-0.00299659181363911	-0.00092403513899711	-0.00957428321237599	0.00649353949773961
11.1	0.00627939478531242	0.0278467981268923	-0.00309500041898856	-0.000498550004345007	-0.00308420025991271	-0.000495714475110694	-0.0088663614724678	0.00564502722050006
11.2	0.0109320674424256	0.0266710242367868	-0.00312524526082251	-6.54245719863994E-05	-0.00313236103883991	-7.02353831181406E-05	-0.00883540676290722	0.00546056573215273
11.3	0.0155340495139491	0.0246818897272689	-0.00309954067213546	0.000380946627059776	-0.00311102549805031	0.0003709594859991	-0.00850700902050119	0.00533846371554918
11.4	0.019293287931752	0.0221186592174065	-0.00302454885177913	0.000807834235746517	-0.00301965733179466	0.000815356580569042	-0.00863720333887663	0.00529314580099992
11.5	0.0239184144733425	0.0196285589493994	-0.00287923725368929	0.00121483492183311	-0.00288200622167878	0.00122503628314021	-0.00769034028370583	0.00596509227576607
11.6	0.0275977438329487	0.0140341839078485	-0.00269244022407058	0.00160157926373821	-0.00269242793060516	0.00160450288297261	-0.00707918610785712	0.00443555108607388
11.7	0.0291119952089817	0.00872302713554163	-0.00243426408800124	0.00195624767596921	-0.00243484281372147	0.0019648065193068	-0.00759096894485015	0.00361943962816403
11.8	0.0296552357276939	0.00377924181280541	-0.0021407774979833	0.0022868580944938	-0.00214487373181514	0.00228853873990912	-0.00827151728637262	0.00342424112985655
11.9	0.0294870956326109	-0.000236929198301243	-0.00179479842697593	0.00255854952483237	-0.0018077503229887	0.00256279066306787	-0.00900657840063817	0.00454091780031344
12	0.0311873132346426	-0.00358586599180429	-0.00143237998333437	0.00278253830830204	-0.00143179414606471	0.00278394623400087	-0.00719859131925777	0.00656359664072446
