# GHZ S RI R 50
0.2	0.00598009923677397	0.00166472228959675	0.00304609787962231	-0.000898634660163883	0.00305646296088666	-0.000891834215429072	-0.0139791368339773	0.00530103460855481
0.3	0.00627586681812002	-0.000407367285245704	0.00290118596940866	-0.00132180669176742	0.00289395205930336	-0.00130887440306917	-0.0131970127176647	0.00537737955124729
0.4	0.0060157365862077	-0.00220445609036251	0.00266887816171775	-0.0016929111899448	0.00267413542790998	-0.00170146610311999	-0.0126759101805109	0.00577071662940438
0.5	0.00502555742689129	-0.00351925427643449	0.00240996710586786	-0.0020483128266975	0.00242148563744628	-0.00206054255050081	-0.012403076384581	0.00643919573689126
0.6	0.00427605932147017	-0.00429564675822712	0.00209780153367544	-0.00236235307406397	0.00209701317511515	-0.00236949385614572	-0.0116483454886562	0.00722650519362029
0.7	0.00320515261523834	-0.00510392587401032	0.00175060337839642	-0.0026393421552897	0.00174864988223046	-0.00263953986852394	-0.0111097129644826	0.00765872956097508
0.8	0.00197725026224026	-0.00558052570825524	0.00136554385430658	-0.00285571252100564	0.00135296103785517	-0.00286025002733829	-0.0107064606989521	0.00823804060998197
0.9	0.000647133232040374	-0.00578764519753055	0.000949418275055703	-0.00301836327107343	0.000950449117431637	-0.00302904553021715	-0.0102759485381658	0.00879773686959149
1	-0.00111919786837778	-0.00578662553742014	0.000525533228444731	-0.00312185434998763	0.000515685974242791	-0.00312259168441103	-0.0101696217342968	0.00938315523001446
1.1	-0.00269597602720165	-0.00473511166011379	7.01321175868167E-05	-0.00315000966731081	6.66253776593047E-05	-0.00316762973466273	-0.0097855763364634	0.0107895656232813
1.2	-0.00373122819511872	-0.00387009348173428	-0.000370813570358358	-0.00313870425833949	-0.000371623418583248	-0.00313663153986025	-0.00855704743708241	0.0119457161992209
1.3	-0.00472088782990824	-0.00321922748542755	-0.000796577784500719	-0.00305541402308143	-0.000799811605285084	-0.00305741513617103	-0.00661943750539259	0.0127244133970145
1.4	-0.00560275193587063	-0.00280844654945681	-0.00121676273017806	-0.00290759698454841	-0.00121555181492426	-0.00291311936268632	-0.00463714788952948	0.0123692255764703
1.5	-0.00635586393792298	-0.00181280814730587	-0.00161700663149989	-0.00271156659678965	-0.0016153987752319	-0.00272004950475196	-0.00349365031687902	0.0117403057126538
1.6	-0.00614950701631041	-0.000411828655155177	-0.00197552430346516	-0.0024593696885769	-0.00197573389214694	-0.00246459151504774	-0.00285225996517811	0.0114138138250592
1.7	-0.00568364127725936	0.000792381257393276	-0.00230262300217536	-0.00216386535818067	-0.00230358898439668	-0.00215761930092892	-0.00246041498254872	0.0113200362158111
1.8	-0.0049626801901646	0.00205611570910443	-0.00257293606868471	-0.00181374434527265	-0.0025838725126828	-0.00181937376205327	-0.00202333390923163	0.0113908544922085
1.9	-0.004015788009455	0.00298865674582985	-0.00279772106523552	-0.00144409301761712	-0.00281013395464716	-0.0014379626481328	-0.00160993675584775	0.01148265377857
2	-0.00313276062344928	0.00396954996840648	-0.00297200626722099	-0.00103797699458501	-0.0029816053001227	-0.00103329018330867	-0.00133685183801992	0.0119677833943212
2.1	-0.00145982799336235	0.00471053444433012	-0.00308571603476732	-0.000612371034268233	-0.00308164092917163	-0.000614352046931379	-0.000254315516110754	0.0123928998830446
2.2	0.00017034823709634	0.00471111148233864	-0.00314394280409259	-0.000175779304340567	-0.00315521382081784	-0.000178624695294053	0.000868996883028608	0.0122782805895567
2.3	0.00162860305711879	0.00421605384995626	-0.00314004279076738	0.000266154583745887	-0.00313973021358051	0.000259289380974949	0.00180675631098997	0.011892531345092
2.4	0.00280355765541282	0.00333065602973072	-0.00306837227177435	0.00070280598404888	-0.0030708992370358	0.000698555035454812	0.00255508956853579	0.0114268283664901
2.5	0.00332361478850488	0.00233067077359033	-0.00293344832947705	0.00111307525713447	-0.00294432614463004	0.00111941545036617	0.00295309893997199	0.0111054113768986
2.6	0.00409849970375781	0.001656300568012	-0.00276169941621515	0.00151618835427331	-0.00275812204850914	0.00150389838128023	0.00388073683912157	0.0110807360519362
2.7	0.00494897424910611	0.00051610644397803	-0.00251714189515708	0.00188728783299971	-0.00252241157093103	0.00188728682418511	0.00481470559320267	0.010590220227511
2.8	0.00565383792471012	-0.000967237281623801	-0.00223590397378076	0.0022144217061862	-0.00222812906117925	0.0022242118350187	0.00554571093411383	0.0100602750046811
2.9	0.00605478969884535	-0.00280466322965553	-0.00190387953382902	0.00251467107237307	-0.0019001756986367	0.00251425499069402	0.00629964772792683	0.00959442152742997
3	0.00584859589466371	-0.00459571786487626	-0.0015194217456769	0.00275198366330977	-0.00153420071742672	0.00275803545630041	0.00708611606201059	0.00936188257024086
3.1	0.00570903835928843	-0.00643312817601833	-0.00112943811715511	0.00292977614775649	-0.00112480866646005	0.00293811994822694	0.00827056134864046	0.00884615824727927
3.2	0.00484805669597634	-0.00851931667474813	-0.000710257340296268	0.00306765907261514	-0.000711997979373795	0.00306704439051681	0.00897050523240572	0.00805002519512876
3.3	0.00340987701280668	-0.0105229180065255	-0.000273000626386109	0.00313893512612502	-0.000271342737078329	0.00313520361912785	0.0096186414276357	0.0072003566003594
3.4	0.00129508431432014	-0.012218480089756	0.000173457355083592	0.00313490156364399	0.000167208587947473	0.00315143613848183	0.0101021200300363	0.00611677629191933
3.5	-0.00145638651912417	-0.0132008379241034	0.000595849046335275	0.0030927865018308	0.000601440408851873	0.00309287670286397	0.0101067356401178	0.00513188024238512
3.6	-0.00396846822838588	-0.0134483682775642	0.0010231353710603	0.00297459271068439	0.00103132113800947	0.00297429989583002	0.0103866627506405	0.00435099120934645
3.7	-0.00660278877884637	-0.0134049777515534	0.00143364760881335	0.00279582569824503	0.00142402348741066	0.00280946285352993	0.0105243991450812	0.00341128771940432
3.8	-0.00929386764307562	-0.0127799015261773	0.00181254549772861	0.00257058029647106	0.00181491931960974	0.00257973490991235	0.0104923908211671	0.00256116534410078
3.9	-0.0118257037952552	-0.0116474838104261	0.00215945633580633	0.00229864608035467	0.00215219809025852	0.00229684403725473	0.0103167087400661	0.00181989542503323
4	-0.014246230781066	-0.00973581385420761	0.00244413539568422	0.00197883551835825	0.00244859132417646	0.00197641749332725	0.0101594332913211	0.00159937928934053
4.1	-0.0156815065120112	-0.00744202860589833	0.00269823660362409	0.00162154049041255	0.00269698087648836	0.00162227167161846	0.0108244982411405	0.00126255784415865
4.2	-0.0168630809276955	-0.00522049179994061	0.00290025521911796	0.00122104912941604	0.00290475679098168	0.00121234422275675	0.0113131638160096	0.000424389353216969
4.3	-0.017751495430231	-0.00288797769323805	0.00304558517178899	0.000809003498877607	0.00305204221929791	0.000801217117900173	0.0115956625047722	-0.000602324243181161
4.4	-0.0184536975378039	-0.000443838809882426	0.00312376718158098	0.000374890443843197	0.00312615242967183	0.00037264046468884	0.0115320492339964	-0.00166250600580016
4.5	-0.019031473680509	0.00250977754173151	0.00314975295304784	-6.27019573165071E-05	0.00315513532116681	-6.60590683672923E-05	0.0112696036307603	-0.00229863018483193
4.6	-0.0185315685878301	0.00567381863363185	0.0031085486880791	-0.000508088225899416	0.00310973424022109	-0.000495144005436174	0.0115488669532181	-0.00306586435304939
4.7	-0.0174392121395449	0.00843021677640124	0.00300447717555236	-0.000928919953865538	0.00301982704704969	-0.000938507029106692	0.0114916372364569	-0.00424173721079515
4.8	-0.0159680888764414	0.0108816698384205	0.0028445918056543	-0.00134470571609239	0.0028531087138725	-0.00135078105416255	0.0111482599968809	-0.00536133059324809
4.9	-0.0140223935143403	0.0129201433952559	0.00262542090668714	-0.00173079136913866	0.00262958823863724	-0.00172786562211606	0.0106176965477004	-0.006337703156825
5	-0.0119125472663237	0.0148152176065992	0.00236651234762346	-0.00208983727243688	0.00237013778488318	-0.00208715485997823	0.0101682234014403	-0.00680010308749183
5.1	-0.00878798672473738	0.0161948903904437	0.00205427612997535	-0.00240257672215293	0.00205658009369482	-0.00240120968130065	0.0102915419325713	-0.00753205013672618
5.2	-0.00574245238746895	0.0166658773870701	0.00169623323637541	-0.00265420213435102	0.00169796332291606	-0.00265935564114281	0.010034832899016	-0.00843486172885542
5.3	-0.00272946552411907	0.0165775420358544	0.00130884971528298	-0.0028718765180777	0.00131198723580276	-0.00286980063043684	0.00970671719673184	-0.00911541372352499
5.4	1.54658283554659E-05	0.0158411622688862	0.000882293966617675	-0.00302190529733082	0.000899537551136643	-0.00303311902306634	0.00935997314293445	-0.00999417874876442
5.5	0.00222776181811534	0.0151154603307218	0.00046569069866528	-0.00312035139349823	0.000475787487452612	-0.00312979567419905	0.00871986202527851	-0.0106095026092819
5.6	0.00478567376635158	0.0138574260256215	2.6503162606985E-05	-0.00315676574057126	1.79565831325945E-05	-0.00316000709639326	0.00828254650881678	-0.0114761869352869
5.7	0.00661250042623688	0.0120038056746142	-0.000406285524740263	-0.00312758518245414	-0.000422948077282258	-0.00313128123301943	0.00714536777370069	-0.0122346844558604
5.8	0.0079097710845783	0.0099905084749645	-0.000854877047937115	-0.00303329089531064	-0.00085840979843926	-0.00304733324226222	0.005854952886257	-0.0127043983761294
5.9	0.00861062155633007	0.00786507559624961	-0.00126252684434285	-0.0028925848868719	-0.00127078627658641	-0.00289250825450116	0.00434155522871411	-0.0128563127554428
6	0.00850693414447	0.00620166248706794	-0.00166154091137789	-0.00268530879364933	-0.00165796799352765	-0.00268547336513966	0.00270367687062617	-0.011981069091915
6.1	0.00915484570232765	0.0047951912939234	-0.00201918483408829	-0.00243114588781195	-0.00202083272157594	-0.0024271275148183	0.00274126907848045	-0.0108622794970143
6.2	0.00959016025348725	0.00244556872688538	-0.00233451944542102	-0.00211603113459338	-0.0023382420952129	-0.00212794805218256	0.0032088641914954	-0.0108857954536982
6.3	0.00927512462155492	-0.000438594097763271	-0.00261366332398508	-0.00177907309497501	-0.00262282377801045	-0.00177330970781395	0.00336089422047346	-0.011812437685678
6.4	0.00770925540279485	-0.00337293353090135	-0.00284007465949309	-0.00138627897660484	-0.00283031814944025	-0.00139120327522146	0.00272187930564383	-0.0129885606786761
6.5	0.00537700988303212	-0.00508823214985935	-0.00299800874736711	-0.000980460896869579	-0.00300589892844929	-0.000975959208914454	0.00184641966014096	-0.0134417690013619
6.6	0.00341512972080211	-0.00637811438975299	-0.00310720024920774	-0.000551719067841409	-0.00310884415719424	-0.000555710221167669	0.00134591300502447	-0.0142553203790906
6.7	0.00109053286327037	-0.00718053805687425	-0.00315693058217024	-0.000111133038137353	-0.00316581032000776	-0.000104818702267065	0.000149658096930732	-0.0148398343001742
6.8	-0.00128836791067551	-0.00743838300794089	-0.00313445969705578	0.000332362706551277	-0.00314558727639475	0.000337445306035858	-0.00113624509541883	-0.0150267640377893
6.9	-0.00393323433868394	-0.00728066532583258	-0.00305875504641469	0.000767576656112565	-0.00306175026678216	0.000769981081314279	-0.0025393296513332	-0.0150207404263219
7	-0.00665213261610024	-0.00575576279688545	-0.00292102541279487	0.00119232204944941	-0.00293391437191883	0.00119014520145305	-0.00383258349599545	-0.0142020943305846
7.1	-0.00815404318977076	-0.00395037799505741	-0.00273952405019761	0.0015827660559177	-0.0027358229650057	0.00159145416025638	-0.00430290216085523	-0.0138004159564015
7.2	-0.00959821849664628	-0.00213376027874322	-0.00248057520764033	0.00195130810399984	-0.00248712213391125	0.00195341289875016	-0.00519082515777641	-0.0135319695604219
7.3	-0.0108098579110869	-4.50935336872816E-05	-0.00218281783588231	0.00227107883414929	-0.00219405524172415	0.00227618369394027	-0.00603234217769334	-0.0131761761473088
7.4	-0.0118722016616014	0.0020545425725454	-0.00183824645373787	0.00255517845009459	-0.00184510730562029	0.00256885859550257	-0.00713396155371209	-0.012992292627424
7.5	-0.0130722903104475	0.00503215936068868	-0.00146822890498449	0.00279297491576413	-0.00146118745421075	0.00280036406202977	-0.00843777252601562	-0.0118940865149285
7.6	-0.0123176801857241	0.00850160747972325	-0.00106104323542806	0.00296936963547863	-0.00106243838308478	0.00296466553804259	-0.00823161509875258	-0.0108301180854501
7.7	-0.0110002657088264	0.0110709351268917	-0.000630970423220892	0.00308996835816122	-0.00063231805249878	0.00308890883875	-0.00817071230545642	-0.0109953475502534
7.8	-0.00895746725767551	0.0128929174146907	-0.000202925561197578	0.00313772989491917	-0.00021072670978415	0.00314423559334346	-0.0084634119425258	-0.0112829178464589
7.9	-0.00681587148337018	0.0140299072972969	0.000240652218355281	0.00314188383335841	0.000248617505919868	0.00314334982983693	-0.0090803590478484	-0.0113395378787296
8	-0.00433140329602634	0.0154386780882948	0.000681781504007818	0.00306629928628167	0.000681883727610137	0.0030712064585661	-0.00970363365206258	-0.0107934117082973
8.1	-0.000981197443984041	0.0156152653503122	0.00109328586437136	0.00294738463754333	0.00111247345261117	0.00294838911813772	-0.0097955311350432	-0.011006453824261
8.2	0.0019072792671215	0.0151001578449559	0.00149876897382627	0.0027630505300325	0.00150799544884773	0.00275579990729459	-0.0105280724915808	-0.0109352072597894
8.3	0.00461146968168856	0.0140073873609302	0.00187430097274955	0.00252021186037505	0.00187272429591415	0.00253378439876796	-0.0111794106523981	-0.0107014672723294
8.4	0.00673193443046683	0.0123163913785143	0.00220743749960348	0.00223976455056576	0.00220440460018604	0.00223955472644865	-0.0120808230194631	-0.0105491978827693
8.5	0.00821704179703344	0.0109554267287102	0.00249197759181499	0.001908799851365	0.00249109462822801	0.00191198992129128	-0.013111870399078	-0.00956779559021957
8.6	0.0101980370173544	0.0090688494018205	0.00273694924323426	0.00154516553090066	0.00274641903432581	0.00153857192405513	-0.0133350967975484	-0.0090989892981619
8.7	0.0114515698038219	0.00653549882257757	0.00291930849188579	0.00114062115875952	0.00292487172716033	0.00114131493503318	-0.0141391422507781	-0.00880294325470267
8.8	0.0121259077831391	0.00378432715917523	0.00305258147668391	0.000729337481785622	0.00305830300786961	0.000720552213675657	-0.0151773681952641	-0.00830701706098028
8.9	0.0121005697713799	0.000723513994160283	0.00312778622315082	0.000295945468690823	0.00312690477973784	0.000293703602304345	-0.0162479049358489	-0.00739229510266365
9	0.0112105524009808	-0.00177491646948395	0.00313560996258045	-0.000148922469957106	0.00313878774924316	-0.000144840075484287	-0.0169109319602521	-0.00543587160603741
9.1	0.0106708860654511	-0.00431748690531675	0.00308474137870754	-0.000589544362831206	0.00308769237917245	-0.000576679040540083	-0.0161800786873651	-0.00392273616582481
9.2	0.00937962440543864	-0.00711564563708382	0.0029726626806186	-0.00100523220738003	0.00298029355232626	-0.001008144487346	-0.0154514698474679	-0.00301728978001522
9.3	0.00739365085322862	-0.00980805432562491	0.00280198745729075	-0.00140891236814253	0.00280123188563713	-0.00141389074352198	-0.0146042397165494	-0.00248845818759428
9.4	0.00440349296358242	-0.0122481745423702	0.00257697693910185	-0.00179810171185424	0.00258351854937161	-0.00179055404154918	-0.0141442053458058	-0.00244045332195797
9.5	0.000636077289356017	-0.0131069495411156	0.00229767581184391	-0.00212876025626091	0.00230505836715238	-0.00213014638930856	-0.0138564376892432	-0.00182394165777746
9.6	-0.00284016465789839	-0.0135552937417145	0.00198073678618514	-0.00242760861874514	0.00198107048498625	-0.00242663160770087	-0.0135942431888254	-0.00202386034255389
9.7	-0.00676705161263276	-0.0131525296993268	0.00161374300726056	-0.00267509070356849	0.00161922222673159	-0.00268239773150133	-0.0140838622867816	-0.00189807053551928
9.8	-0.0106225939676978	-0.0118455009713705	0.00122875128137974	-0.00288069103566303	0.0012344676342707	-0.00287225407838607	-0.0146700650117202	-0.00137448300217247
9.9	-0.0144092445129859	-0.00963849299864335	0.000823890143211023	-0.0030155817739787	0.000816599412688785	-0.00301432665230775	-0.0155078233431211	-0.000446883982972078
10	-0.0177984189429764	-0.00588760912423279	0.000397993163149618	-0.00310034211071572	0.000390498443202738	-0.00311269052056354	-0.0159001382964277	0.0014845668172554
10.1	-0.0194517093389279	-0.00176135855315358	-4.10144855405709E-05	-0.00313101525390973	-5.11753644013902E-05	-0.00312561681985811	-0.0150489580054683	0.0026992250478836
10.2	-0.0203859093778199	0.00233432482850273	-0.000484114172386618	-0.0030922596017636	-0.000487493930920488	-0.00308948551492	-0.0143606236617002	0.00347250951836905
10.3	-0.02056877885706	0.00640917348142347	-0.000912428967266561	-0.00298528164498866	-0.00090440834947594	-0.00299432233171778	-0.0136892664509062	0.00398093521397996
10.4	-0.0203461551970749	0.0104056572771912	-0.00130456726145536	-0.00283102526545473	-0.00130289219681158	-0.00283718659836703	-0.0132573644843824	0.00429538402370804
10.5	-0.0195216567603139	0.0152897591968135	-0.00169339835036286	-0.00263591486181239	-0.00169029674918521	-0.00262298484357931	-0.0126592468105379	0.00535203179123894
10.6	-0.0165763230428646	0.0197325966870919	-0.00204497466805303	-0.00236597294241903	-0.00204280518740572	-0.00236977916405602	-0.0110913768368892	0.00565093104037581
10.7	-0.0128900356125122	0.0232576462189897	-0.00235688299966543	-0.00206471477481211	-0.00235340084060221	-0.00205946768091657	-0.0098397793710129	0.0053963316184023
10.8	-0.00866501555016226	0.0256971738020643	-0.00262270589074979	-0.00170714489299143	-0.00261754423870723	-0.00171602393475208	-0.00906865331774116	0.00462391345654276
10.9	-0.00459019047281834	0.0273292436259419	-0.00282933522459429	-0.00133672279536228	-0.00283449414026461	-0.00133599395302208	-0.00920940802137299	0.00391036084549642
11	-0.000164265169911123	0.0290962839915972	-0.00298818702950768	-0.000921325680423094	-0.00299301022804613	-0.000928025767396279	-0.00930380883102478	0.00432169722256379
11.1	0.00534886189947729	0.0295796200252033	-0.00309336072178722	-0.000499600652203167	-0.00308256673822642	-0.000496761964156493	-0.00871815336041638	0.00402612279666803
11.2	0.0107361341719222	0.0288131548926545	-0.00312234061640528	-6.64974501087038E-05	-0.0031294480905623	-7.13064066721372E-05	-0.00859211132222006	0.00373738548761344
11.3	0.0160307899557998	0.0267835957944909	-0.00309661377114659	0.000378275305854546	-0.00310807937745348	0.000368290059684894	-0.00832935384073428	0.00353919179374803
11.4	0.0205168496416087	0.0236498154681173	-0.00302424319938047	0.000803802708442216	-0.00301936293597291	0.000811327806629035	-0.00839852613009369	0.0033172112920735
11.5	0.0242686422529582	0.0203683361846888	-0.00288013930528284	0.00121553912145898	-0.00288290827896463	0.00122574435360157	-0.00835717857937572	0.00372002259701923
11.6	0.0279731112721588	0.0158369019456221	-0.00268953333433109	0.00160095225230124	-0.00268952016796863	0.00160387323717017	-0.00778958870586	0.00317178770743376
11.7	0.0303818435446333	0.0105225431997318	-0.00243226478655848	0.00195370287587892	-0.00243284493220118	0.00196225294370894	-0.00790702902923606	0.0025953657845033
11.8	0.031648655068777	0.00490594046036246	-0.00214030409763152	0.00228447368268651	-0.00214439832098414	0.00228615154198026	-0.00820600687498152	0.00242081685869016
11.9	0.0316209434339232	-0.000639322544416275	-0.00179383212788171	0.00255871329863273	-0.00180678107806418	0.00256295753401089	-0.00859230640950874	0.00309880390740328
12	0.0310172812143481	-0.00521633253729271	-0.00142710196921588	0.00277923167087933	-0.00142651570411627	0.0027806365916663	-0.00780514275933239	0.00458645361054828
