# GHZ S RI R 50
0.2	0.0059428228801524	0.00139044373802727	0.0030477218202534	-0.000898128105638977	0.00305808949288525	-0.00089132154728105	-0.014051478452021	0.00499894126327538
0.3	0.00623126145058133	-0.000617134853188625	0.00290333296959494	-0.00132152479649226	0.00289609024009857	-0.00130858765843197	-0.0132764557372978	0.00514052184841246
0.4	0.00597921093653009	-0.00232033942712232	0.00267147438379857	-0.00169318490600843	0.0026767386792635	-0.00170174422159365	-0.012738317483423	0.00563360111810684
0.5	0.00511015360724987	-0.0037434905729053	0.00241245788292537	-0.00204945069722673	0.00242398889474362	-0.00206168789193478	-0.012300418891502	0.00618694110401221
0.6	0.00410587381035726	-0.00458278355114457	0.0021001307817745	-0.00236373052186213	0.00209934364952359	-0.00237087733392176	-0.0117825565837103	0.0068455430121621
0.7	0.00294946959138781	-0.00523323912408432	0.00175293995435463	-0.00264131683067141	0.00175098469994944	-0.00264151525506246	-0.0113586034601619	0.00738882717890344
0.8	0.00171710043287935	-0.00558902688391961	0.00136754689180315	-0.00285836977628789	0.00135495205813843	-0.00286291458418929	-0.0110031142114222	0.00806675039671671
0.9	0.000436219944020245	-0.00563836184775636	0.000950730493752873	-0.00302150806253282	0.000951763481983433	-0.00303220167820213	-0.0105800827413136	0.00879982380117313
1	-0.000979634921152287	-0.00564462192230866	0.000526418876428601	-0.00312491323089973	0.00051656186727062	-0.00312565243919822	-0.0101318812513325	0.00946395725140916
1.1	-0.00263031242363697	-0.00501245559523402	7.07236196694357E-05	-0.00315370584017497	6.72155992841555E-05	-0.00317134721258464	-0.00973978709471822	0.0104805305345564
1.2	-0.00393368317991642	-0.00433542257817692	-0.000371149652530169	-0.00314274780006547	-0.000371960632067461	-0.00314067245824857	-0.00872208048052259	0.0114267440827116
1.3	-0.0053299156226424	-0.00375465933663794	-0.000797806158207337	-0.00305939711998777	-0.000801044360228119	-0.00306140068388337	-0.0071380573088441	0.0120891310367634
1.4	-0.00645831837678523	-0.00303618837946882	-0.00121862750900698	-0.00291130535320399	-0.0012174155086943	-0.00291683509715144	-0.00539442199297701	0.0119701268366471
1.5	-0.00706808774536333	-0.0018653472767704	-0.00161954800310626	-0.00271556096201674	-0.00161793810461194	-0.00272405665505927	-0.00410035997772715	0.011444229068632
1.6	-0.00679196741926943	-0.000177740196994589	-0.00197951815099853	-0.00246277803203459	-0.00197972970342363	-0.00246800833221213	-0.00345479911098519	0.0113047015735035
1.7	-0.00600526401696816	0.00116957014462206	-0.0023072956818757	-0.00216629223706102	-0.00230826038376635	-0.00216003572606672	-0.00284202198137106	0.0113502736027497
1.8	-0.0050293392835827	0.00241843844387473	-0.00257804928766698	-0.00181532120355039	-0.00258900637078843	-0.00182095396106972	-0.00220719534264382	0.0114526133578209
1.9	-0.00384002911158646	0.00326177266912284	-0.00280340746541762	-0.0014449449370908	-0.00281583821264977	-0.00143879666965378	-0.00156100250467632	0.0115328273425581
2	-0.00285669094380716	0.0038396476908114	-0.00297860995262766	-0.00103718885652925	-0.00298822285362465	-0.00103248424222631	-0.00108801954878415	0.011668217897311
2.1	-0.00153067723554489	0.00453612855586255	-0.00309160967221551	-0.000609803336898516	-0.00308753003403167	-0.000611792423691209	-0.000289037213032549	0.011952427815249
2.2	4.8683302699711E-05	0.00468819570190915	-0.0031492492336996	-0.000172154597260104	-0.00316054202832108	-0.000174990578547983	0.000739407473867667	0.0119185206112749
2.3	0.00156649889083055	0.0043007577997353	-0.00314473566866995	0.00027091756824922	-0.00314443206349344	0.000264040870641338	0.00166058490599937	0.0116265483524116
2.4	0.00294118475218799	0.00347633037433216	-0.00307213683583208	0.000708926742588255	-0.00307467476588924	0.000704673107826801	0.00252685968002365	0.0112920305614
2.5	0.00373885538204645	0.00209937644789038	-0.00293504811681274	0.00112002871524895	-0.00294592767970659	0.0011263974878591	0.00324910470304723	0.0107472733203393
2.6	0.00414046021771428	0.00108662765346357	-0.00276216916567607	0.00152275569647265	-0.00275860931671272	0.00151044550810625	0.00395168014351177	0.0103918604524617
2.7	0.00465506247780122	-3.16080278536619E-06	-0.00251647691826861	0.00189411087289742	-0.0025217525605172	0.00189411967490051	0.00462643858311761	0.0098865446254126
2.8	0.00519223143256218	-0.00126144784218052	-0.00223371594782729	0.00222123180047005	-0.00222591319302467	0.00223101624267074	0.00521507528324128	0.00950973874633199
2.9	0.00567652625970912	-0.00291069182644202	-0.00189988940635627	0.00252075864781145	-0.00189618360451806	0.0025203341928206	0.0060560600116109	0.00920442816383107
3	0.00548032275235964	-0.00484158639033639	-0.00151488792508339	0.00275641144852717	-0.00152966305683406	0.00276249520629592	0.00693422075354427	0.00879843663452991
3.1	0.00510739110627567	-0.0064573675927924	-0.00112435590987749	0.00293413311932551	-0.00111970639496	0.00294247356271659	0.00791001313605685	0.00833593095485003
3.2	0.00432410906240089	-0.00830005706320213	-0.000703982237912167	0.0030709839121886	-0.000705725224934677	0.00307037266808119	0.00861698815697819	0.00768250342644656
3.3	0.00302429966843991	-0.0101251287261715	-0.000266110382950399	0.00314075064145125	-0.000264460171876485	0.00313701400477855	0.00931169011949166	0.00696067386228445
3.4	0.00118530419527663	-0.0117053746006183	0.000180104679160952	0.00313522863926495	0.000173889389315489	0.00315178004158814	0.00998340454073919	0.00601088784377272
3.5	-0.00137827610602304	-0.0129615034150997	0.00060251037960294	0.0030930706609358	0.0006081046603517	0.00309314938963393	0.0102094329915222	0.00479473020588578
3.6	-0.00402756246511639	-0.0131099633118873	0.00103083080282364	0.00297312314290594	0.00103901874504798	0.00297281004389649	0.0103569050577947	0.00400453814599243
3.7	-0.00642563402922195	-0.0129700010492465	0.00144082406152189	0.00279250157277286	0.00143123327004589	0.00280616430862455	0.0106031376982459	0.00311006037263388
3.8	-0.00883819071345439	-0.0124636346439659	0.00181892998769895	0.00256596018191628	0.00182132667216592	0.00257510856659867	0.0107174539453933	0.00220007896686995
3.9	-0.0111275590977683	-0.0116689530815203	0.00216529050509027	0.00229314586492505	0.00215802771064329	0.0022913622823945	0.0107265862087461	0.00128442386205121
4	-0.0137599227086129	-0.0104530447308317	0.0024498151614028	0.00197113759847418	0.00245426313297188	0.0019687063623199	0.0105134919660109	0.00051397013202483
4.1	-0.0158844928614315	-0.00807946924357384	0.00270106339342741	0.00161226041605901	0.00269981079231522	0.00161299480350075	0.0106279298169546	0.000160143934373958
4.2	-0.0172456225148893	-0.00553934403606319	0.00290097668155782	0.00121170817882313	0.00290544943032526	0.0012029987433215	0.0109291707089106	-0.0004495953602778
4.3	-0.0181226910314582	-0.00297018621526632	0.00304460394250924	0.000799638749182808	0.00305103237883505	0.000791842622339377	0.0111753031805451	-0.00126145001350547
4.4	-0.0186259190990663	-0.000388983462154515	0.00312098811917974	0.000365241345898501	0.0031233637891531	0.000362987150065471	0.0112781764179124	-0.00212846841588957
4.5	-0.0191478823704775	0.0021955211886018	0.00314346982429159	-7.16509741580515E-05	0.00314883209658208	-7.50170807714709E-05	0.0111916223718323	-0.00303726938330298
4.6	-0.0190921420883842	0.00552275697115764	0.00310118858002132	-0.000514322716047497	0.00310240194109745	-0.000501406976014125	0.0111822141190576	-0.00376862752046769
4.7	-0.0180232558641285	0.00859046645510312	0.00299647600829825	-0.000933888640330316	0.00301177405585984	-0.000943491592286205	0.0110965167112219	-0.0047856465470981
4.8	-0.0164471406831271	0.0113020122058837	0.0028355389197205	-0.00134828657947156	0.00284402409474856	-0.00135436830523908	0.0107871921650673	-0.00574333472938583
4.9	-0.0141856341999235	0.0135050810950076	0.00261511765396545	-0.00173216352445117	0.00261928092899711	-0.00172925411182078	0.0104706292420623	-0.00655884472574076
5	-0.0119543070330332	0.0150934316086639	0.00235715372720265	-0.0020878653316067	0.00236077361765142	-0.00208519540436006	0.0101932044598811	-0.00729164865482311
5.1	-0.0088943893207289	0.016731092185381	0.00204589901018117	-0.00240015217322604	0.00204819973499063	-0.00239879177583678	0.010217493725605	-0.00793145103786874
5.2	-0.00547456787666788	0.0171802358541982	0.00168792771745211	-0.00265020795592336	0.00168964556791589	-0.00265535130146992	0.0101511319410701	-0.00887258891945357
5.3	-0.00229539490006077	0.0168002092172454	0.0013014492695666	-0.00286589975899439	0.00130458113146461	-0.00286383369761589	0.00987085444128075	-0.00972512534834208
5.4	0.000472281202618797	0.0157943791455004	0.000877045774687548	-0.0030143596228331	0.000894231215133165	-0.00302555831909045	0.00955831195501445	-0.0106874040532613
5.5	0.0022703451088677	0.0146052486811039	0.000462058440268146	-0.00311378207217552	0.000472124868021939	-0.00312321369173579	0.00874737978211613	-0.0116961585630094
5.6	0.00441416781243109	0.0139726169860794	2.26246439936364E-05	-0.00314885053299677	1.40956666470781E-05	-0.00315207340868191	0.00797821033066309	-0.0121735622732012
5.7	0.00664984041548256	0.0124795781394097	-0.000408275879023635	-0.00311838084035847	-0.000424895265688158	-0.0031220498023831	0.00709737467140863	-0.0126958600052271
5.8	0.00843926148629732	0.0104397132486581	-0.000854573833035994	-0.00302389468034854	-0.000858106410467234	-0.00303789383257554	0.00610371350736336	-0.0131609225458328
5.9	0.00975477663004082	0.0079352371228684	-0.00126063317791023	-0.00288406144478001	-0.00126887014449195	-0.00288398063926587	0.00503607250030806	-0.0134639828315204
6	0.00973598330551017	0.00483499078386306	-0.00165930808097077	-0.00267592319221997	-0.00165574568161912	-0.00267609072529242	0.00363826789706768	-0.0136252489795327
6.1	0.00903289993841458	0.00294051162818744	-0.00201314754529156	-0.0024218193516158	-0.00201478800887807	-0.00241781432015269	0.0027187103425619	-0.0129741077763314
6.2	0.0085194011468154	0.000946575508189404	-0.00232644910800565	-0.00210906120084297	-0.00233015819549407	-0.00212093810062202	0.00244388014594073	-0.012794637989229
6.3	0.00773890153698645	-0.00112334642000614	-0.00260478046954012	-0.00177421595382511	-0.0026139135215957	-0.00176847378271686	0.00220172784725375	-0.0130973987207471
6.4	0.0065391473680774	-0.0034129002181758	-0.00283092531288585	-0.0013825754757979	-0.00282119813361914	-0.00138748231658827	0.00190628094504595	-0.0137242882572857
6.5	0.0042168999978671	-0.00527999509323985	-0.00298628914373522	-0.000978412215584537	-0.00299415228840417	-0.000973931575379941	0.00118509144172591	-0.0144415977923924
6.6	0.00235526029587638	-0.00591531946832154	-0.00309623764851702	-0.000553793466755759	-0.00309787111580103	-0.000557773489969108	0.000684306992840732	-0.014948205795999
6.7	0.000426463428023108	-0.00662713705418011	-0.00314731827176993	-0.000114764922953265	-0.00315617929620618	-0.000108480687398036	-0.000374964610854918	-0.0155379512903245
6.8	-0.00174311656792599	-0.00676407158066669	-0.00312544336004345	0.000327495341570393	-0.00313654374632067	0.000332548924883082	-0.00164231694208164	-0.0155577602042143
6.9	-0.00386413478329439	-0.00658283512071606	-0.00304966603889043	0.000760629574059114	-0.00305265473087983	0.000763021690106426	-0.00261820807529354	-0.0153602591292435
7	-0.00675437131613531	-0.00584012033173017	-0.00291478932179819	0.00118153765593582	-0.00292763278119938	0.00117933644163327	-0.00383748240517752	-0.0151949091289969
7.1	-0.00872221569913228	-0.00331357052641509	-0.00273645565045072	0.00157268094342924	-0.00273278333933021	0.00158135631717494	-0.00468191664325127	-0.0144041472552592
7.2	-0.00966308196870895	-0.00104905760645072	-0.00247889271020978	0.0019409532076875	-0.00248542834679379	0.00194303812615037	-0.00531422409768007	-0.0138919056137473
7.3	-0.0102620630054085	0.00119539928537323	-0.00218316405255586	0.00226003082944195	-0.00219438670985304	0.00226509496734477	-0.0058900744115891	-0.0133852691749764
7.4	-0.0103398932840638	0.00322633261245294	-0.00184201102763469	0.00254389715690847	-0.00184889862510248	0.00255752603660815	-0.00639207579398299	-0.0130184308958098
7.5	-0.0108744597012561	0.00473625540612581	-0.00147480976752491	0.00278532729056313	-0.00146779856352981	0.00279272869571048	-0.00703920597070087	-0.0128559204443685
7.6	-0.0108843807120163	0.00757747776662114	-0.00106677787335774	0.00296253712023855	-0.00106815954199249	0.00295783633606379	-0.00727825181641147	-0.0122307184960706
7.7	-0.00977085935607453	0.00979170857473688	-0.000638392541909108	0.00308353184317245	-0.000639735235197337	0.00308247028583384	-0.00731804126625214	-0.0126167072297317
7.8	-0.00814226366783615	0.011325277388986	-0.000212122097992743	0.00313300297141191	-0.000219932635499977	0.00313947661154734	-0.00780011334445583	-0.0131051582324438
7.9	-0.00634133505580734	0.0121851585115684	0.000230727229876004	0.00314031794609453	0.000238682106416474	0.00314180757627631	-0.00856235549564583	-0.0134726848316744
8	-0.0051894130392541	0.0131376025783628	0.000673954695583029	0.00306547359400393	0.000674045182033289	0.00307037709608999	-0.00986334344264063	-0.013539701737809
8.1	-0.00249745648921063	0.0146647909111174	0.00108305210469459	0.00294717077310476	0.00110221370349326	0.00294823216260544	-0.0106122340638732	-0.0129560285575929
8.2	0.000581682499305038	0.0148198651278458	0.00148828255282131	0.00276629601597409	0.00149752755676996	0.00275908194396027	-0.0113540774090797	-0.0125402289438885
8.3	0.00348310642535473	0.0141810804027365	0.00186554160478386	0.00252623590107857	0.00186391921670249	0.00253980140602168	-0.0120441298797011	-0.0119730159076686
8.4	0.00612547730244448	0.0127226416679577	0.002201256360615	0.00224639195497457	0.00219822369751818	0.00224617337292839	-0.012607299416055	-0.0114929714103848
8.5	0.0073538302753607	0.0107191741067525	0.00248464280478724	0.00191550691150893	0.00248375038802917	0.00191869245636415	-0.0136635068088457	-0.0110355509584885
8.6	0.00885747757342787	0.00987619921391456	0.00273181841104317	0.00155559074038379	0.00274131451951324	0.00154903070761444	-0.0142939161167059	-0.00994882722680613
8.7	0.0107578627541169	0.00801236153217884	0.00291740864987287	0.0011513505589226	0.00292297330978477	0.0011520637737505	-0.0147741205698913	-0.00924908560494872
8.8	0.012232150829565	0.00550059541910896	0.0030527005305155	0.000739466302614744	0.00305845406266168	0.000730692030750543	-0.0154382526923917	-0.008528570454549
8.9	0.0132984122034955	0.00220663347624396	0.0031284046113744	0.000305942796279496	0.00312752979154218	0.00030369704259891	-0.0158010699016042	-0.00754572826635241
9	0.0127264107913408	-0.00170735648128303	0.0031394663522456	-0.000136379778387873	0.00314263090495115	-0.000132280280223939	-0.0161006264824111	-0.00655362279303197
9.1	0.0117025149894767	-0.00459348360481066	0.00309246219350814	-0.00058022111444673	0.00309537522441543	-0.000567321929043185	-0.0157004230873371	-0.00526758055598418
9.2	0.0101463578442323	-0.00785868557669634	0.00298099103951808	-0.000997891031907468	0.00298864430775953	-0.00100078505255077	-0.0151335077824434	-0.00471412608650594
9.3	0.00753637189606763	-0.01073145705797	0.00281129458692666	-0.00140245077080486	0.00281055351180514	-0.00140744013553978	-0.014751185377992	-0.00428619680005829
9.4	0.00421200894709892	-0.0129871565371579	0.00258897873080989	-0.0017923018627716	0.00259550600149361	-0.00178471432313136	-0.0144243869264951	-0.00398494390259203
9.5	-0.000358353241612169	-0.0139836485733204	0.00231228042825512	-0.00212862437714057	0.00231969245366777	-0.00212999158071526	-0.014537862652878	-0.00358188877353949
9.6	-0.00403830240109496	-0.0130939402687498	0.00199257236382945	-0.00243017051340483	0.00199290471704072	-0.00242918974599516	-0.0143743525282629	-0.00294876273802138
9.7	-0.00723890873483835	-0.0121590195701459	0.00162537633224734	-0.00267910121864698	0.00163089056688301	-0.00268641649643219	-0.0143985849073217	-0.00257121461316528
9.8	-0.0103709510923739	-0.0107448748544691	0.00124040395323675	-0.00288738980405409	0.00124611810346397	-0.00287890916539989	-0.0145840104786195	-0.00197858029388878
9.9	-0.0132255642002932	-0.00896423719292681	0.000834083945459964	-0.00302655039330071	0.000826759484564641	-0.00302530613717835	-0.0147575228266156	-0.00121946648080362
10	-0.0168378577806701	-0.00666414225242672	0.000402328600634986	-0.00311250677492779	0.000394814495903925	-0.00312491162739185	-0.0151616204309802	-0.000424952680312721
10.1	-0.0192837036399487	-0.00229308041342555	-3.72445211676745E-05	-0.00314235805207065	-4.74487986994152E-05	-0.00313695286400632	-0.014934560144966	0.000854803670901119
10.2	-0.0202653750392055	0.00196684397766928	-0.000482652285791005	-0.00310540538658621	-0.000486048906803461	-0.00310262374432761	-0.0144198741990771	0.00169883431686198
10.3	-0.0203428087972539	0.00620431655009269	-0.000914919580284491	-0.00299879700949642	-0.000906859339542207	-0.00300787320743264	-0.0138158167876694	0.00245160751774675
10.4	-0.0195092498674961	0.00995166503671989	-0.001311322259903	-0.00284200145916958	-0.0013096433658591	-0.00284818891204941	-0.0128545434531491	0.00283288201458367
10.5	-0.0190884415539639	0.0135163764324447	-0.00169858129532609	-0.00264291878416429	-0.00169546871390037	-0.00262995345365266	-0.01229243149148	0.00290732398795948
10.6	-0.0173406241998492	0.0181004225903243	-0.0020510254848399	-0.00237501032616244	-0.00204884689441466	-0.00237882876133315	-0.0114819703323478	0.00309795844586007
10.7	-0.0144836543278485	0.0220414813767351	-0.00236575457260534	-0.00207259741435304	-0.00236225936430786	-0.00206733035492146	-0.0109187858210167	0.00298963796315298
10.8	-0.010662717795322	0.0255335426736591	-0.00263314476267768	-0.00171239510291969	-0.00262796762863168	-0.00172130922948789	-0.0105352626901175	0.00300495994126172
10.9	-0.00598564700086642	0.0279195188331627	-0.0028388594726496	-0.00133970089816785	-0.00284403436218838	-0.00133896748557518	-0.010145182668228	0.00291982047125205
11	-0.00177834372558741	0.0293396408350873	-0.00299917034465447	-0.000926289257442974	-0.00300400875842564	-0.000933017291650844	-0.0102096530142917	0.00285434910959324
11.1	0.00367336029341336	0.0310868013842146	-0.00310764624818324	-0.000500011060902284	-0.00309680176201694	-0.000497165987991188	-0.0097639980075751	0.00324107493362143
11.2	0.00990689958245987	0.0308879890289969	-0.00313546606588381	-6.32574830098025E-05	-0.00314260866553252	-6.80785318229437E-05	-0.00924053767588139	0.00319951602985122
11.3	0.0161009603945074	0.0290432162569273	-0.00310824659758144	0.000383427744963239	-0.00311976879407779	0.000373417152561375	-0.008661356406428	0.00320762805591671
11.4	0.0216742077649787	0.025660036061046	-0.00303606357094069	0.000809488299336677	-0.00303115730152837	0.00081704054679476	-0.00808628500134969	0.00303164152209736
11.5	0.0253742250985588	0.0212822294801954	-0.00289326435133113	0.00122699903888986	-0.00289603017573383	0.00123726312387841	-0.00811693599474254	0.00263898879572511
11.6	0.0290666442707671	0.0172899183521259	-0.00269691508654988	0.00161527393220107	-0.00269689390152189	0.00161820763708278	-0.00763461117234391	0.00264037957669999
11.7	0.0324101003439019	0.0118479725086072	-0.00243687695724943	0.00196796724670981	-0.00243743687005066	0.00197655318184437	-0.00713035891191198	0.00214785645642774
11.8	0.034579957706248	0.005451308968617	-0.00214319405622388	0.00229960719231255	-0.00214730089226547	0.00230130280405084	-0.00674301937756125	0.00168821758675207
11.9	0.0351816555857219	-0.00184244480376494	-0.00179443191659576	0.00257678281356174	-0.00180743018291109	0.00258108856030553	-0.0063980157661869	0.0013687166879977
12	0.0327503812777964	-0.00874081299215865	-0.00141930654182219	0.00279731958910631	-0.00141871109148205	0.00279872729271869	-0.00653797382091017	0.00102034867305704
