# GHZ S RI R 50
0.2	0.00592546469231315	0.00143730736284044	0.00304705691617548	-0.000898429335901845	0.00305742380714741	-0.000891625517556621	-0.0139865384625382	0.00512197325804027
0.3	0.00627330771209772	-0.000532960629805199	0.00290235841377317	-0.00132170426641844	0.00289511982922268	-0.00130876913655439	-0.0131610982853855	0.00530012035544319
0.4	0.00603725692378565	-0.00226822426387477	0.00267027294958661	-0.00169300958998348	0.00267553406002102	-0.0017015667294206	-0.0126438330702025	0.0057494238169361
0.5	0.00520755371666881	-0.00355274957932677	0.00241148990875091	-0.00204889751928854	0.00242301613568217	-0.00206113122477682	-0.0123049802361869	0.00647609472813907
0.6	0.00444973240845137	-0.00454189534569155	0.00209907968319008	-0.00236317741690041	0.0020982918819975	-0.00237032161225123	-0.0115934400946708	0.00719356111214907
0.7	0.0032513113546807	-0.00537706944372784	0.00175187387668165	-0.00264036422275369	0.00174991945281759	-0.00264056233758693	-0.0111221467733277	0.00770453609711609
0.8	0.00193942946409323	-0.00582646893052876	0.00136672415368253	-0.00285706617242673	0.00135413514803597	-0.00286160807067924	-0.0107093308635507	0.00836743364061173
0.9	0.000513228246467292	-0.00594906160919485	0.000950314746011465	-0.00302006811176727	0.000951347365888826	-0.00303075665742813	-0.0102476716648087	0.00898664246729727
1	-0.00116542100916064	-0.00569751992152524	0.000525989420883357	-0.00312357093937775	0.000516136704086998	-0.00312430919860154	-0.0100306239276844	0.0096399725745424
1.1	-0.00249531723073272	-0.00478119418644667	7.06009498946376E-05	-0.00315181609013964	6.70945846814385E-05	-0.00316944679224	-0.00957557957627466	0.0108565270383129
1.2	-0.00357760922443417	-0.00406055345708808	-0.000370668026029379	-0.00314085038668192	-0.000371478675920688	-0.00313877638320277	-0.00851025166533975	0.0119184343469187
1.3	-0.00463572102518652	-0.00346976915811243	-0.000796923767861571	-0.00305768325833694	-0.000800159776283715	-0.00305968606178414	-0.00673744717149804	0.0127460742175265
1.4	-0.00557315973555457	-0.00305627897860971	-0.0012175782515562	-0.00290975464593552	-0.00121636630939975	-0.00291528103199635	-0.00480811211808629	0.0125448036092894
1.5	-0.00618981091171187	-0.00210964700927787	-0.00161797357437331	-0.00271371434795165	-0.00161636380218563	-0.00272220340577733	-0.00354419224847212	0.0120072184250491
1.6	-0.0061127055726497	-0.000895561341780029	-0.0019772145160198	-0.00246169072434581	-0.00197742407046232	-0.00246691730735089	-0.00287682805397704	0.0117090963691241
1.7	-0.00576417273292295	0.000373825634051853	-0.00230499102493783	-0.00216575597606831	-0.00230595744837926	-0.00215950387385237	-0.00238800262222028	0.0116807306537158
1.8	-0.00506811918513455	0.00172147565935611	-0.00257569376838916	-0.0018150991252842	-0.00258664161598753	-0.00182073229554369	-0.00185602410039647	0.0117344502192721
1.9	-0.00409492641952089	0.00277589082043585	-0.00280072694461385	-0.0014450027654485	-0.0028131508994772	-0.00143886413418813	-0.00139550578790193	0.0117825851007716
2	-0.0029508246020778	0.00378898813019316	-0.00297561040409286	-0.00103846010574851	-0.00298521920768872	-0.00103376575869144	-0.00106722751410308	0.0121858208028612
2.1	-0.00127811808422094	0.00424169724190166	-0.00308954441672136	-0.000611601094267929	-0.00308546558577845	-0.000613586320823398	-0.000118913743783257	0.0125216742777108
2.2	0.000183393203296986	0.004188170522715	-0.00314740412489583	-0.000174127328612261	-0.00315868884671244	-0.000176969163603166	0.000928701100544453	0.0125015176078463
2.3	0.00150854451353101	0.00374361010547974	-0.00314311953031787	0.000268472066775419	-0.00314281109417476	0.000261599555511112	0.00189675415980431	0.012195546289595
2.4	0.0025784472552599	0.00302960291235989	-0.00307110797280707	0.000705783021076365	-0.00307364070630626	0.000701529412952584	0.00271676126119122	0.0117562026044924
2.5	0.00330305407026531	0.00229756029321359	-0.00293544301033908	0.00111706444552774	-0.00294632609092088	0.00112342174473175	0.00323497008740763	0.0113753170777189
2.6	0.0043219976657721	0.00146187479905572	-0.00276242528433584	0.00152031700516249	-0.00275885769324988	0.00150801308650882	0.00409827842322994	0.0111665241940579
2.7	0.00519989427853713	0.000170271188568322	-0.00251712978670474	0.00189136619750469	-0.00252240354526272	0.00189137066567399	0.00489932572348912	0.0106571156859295
2.8	0.00586201513752408	-0.00143084874828118	-0.00223512297750885	0.00221855588950774	-0.00222733140023838	0.00222834472744896	0.00553526315415892	0.0101614534662362
2.9	0.00619143262883106	-0.00327055071772009	-0.00190204843426229	0.00251875766334991	-0.00189834258901552	0.00251833668666138	0.00622371735325346	0.0097656858127797
3	0.00612451623814069	-0.00507700571182737	-0.00151640568193885	0.00275517428088297	-0.00153118287984692	0.00276124830804049	0.00698986703126439	0.00957791057024939
3.1	0.0059084598044324	-0.00715241832140936	-0.00112634335814057	0.00293212124477431	-0.00112170240773466	0.00294046240060167	0.00804411144242568	0.00914669053754996
3.2	0.00488609127961846	-0.00926185920138472	-0.000706808695881232	0.00306955935478963	-0.00070855066787751	0.0030689465573525	0.00874769288415398	0.00855159721579229
3.3	0.00333714764395102	-0.01120996931175	-0.00026913351658477	0.00314014236652991	-0.000267479857259224	0.00313640774979149	0.00948794356216534	0.00784647501355965
3.4	0.00117051957505752	-0.0127571285117514	0.00017750012808101	0.00313510829033734	0.000171271703398203	0.00315165313951132	0.0101026468490634	0.00685311367012089
3.5	-0.00134418324376127	-0.013642775977503	0.000599324524141601	0.00309228561687084	0.000604916281165683	0.0030923695960788	0.0102828090458267	0.00585382073566374
3.6	-0.00383421472381691	-0.0141544402525353	0.00102676472417273	0.00297397816259405	0.00103495171267057	0.0029736758407976	0.0105789752651402	0.00501930794831345
3.7	-0.00664706224032577	-0.0141568758959749	0.00143739784527858	0.0027943824597733	0.00142778975831082	0.00280803370706474	0.0107988153013528	0.00411331136560076
3.8	-0.00947612072116183	-0.0134305191043691	0.00181599455237574	0.00256827800270852	0.0018183805198717	0.00257742979594289	0.0108942289672842	0.0032177525658929
3.9	-0.0120244843996121	-0.0120539385776816	0.00216230115564556	0.00229576171829443	0.0021550409522744	0.00229396907999774	0.0108152368704302	0.00235812511691593
4	-0.0140661251816561	-0.00999950422619108	0.00244688633210196	0.00197574888502256	0.00245133936246841	0.00197332485756133	0.0107051684552451	0.00192396977551047
4.1	-0.0153503434934903	-0.00804232539127881	0.00270054994633206	0.00161720718407886	0.00269929545809023	0.00161794026430864	0.0111694069696383	0.00141753061508904
4.2	-0.0166457344445442	-0.00599124182556023	0.00290131482654759	0.00121611158798046	0.00290580132898979	0.00120740218172727	0.0115097675868288	0.000595518856823579
4.3	-0.0176766736053778	-0.00369068290530629	0.00304548871059811	0.000803980709545183	0.00305193099103923	0.00079618784879668	0.0117070883987179	-0.000408447146529205
4.4	-0.0184771554024398	-0.00111175526812291	0.003122817559532	0.00037000305952401	0.00312519826192241	0.000367750577989498	0.0115746235543878	-0.00145586614858176
4.5	-0.018788431442145	0.00197176823040075	0.00314774405682574	-6.79727836275522E-05	0.00315311751448779	-7.13369378142886E-05	0.0112486244346707	-0.00214923970815402
4.6	-0.0182155657524602	0.00481241368840546	0.00310483056788615	-0.000512557063001854	0.003106035599333	-0.000499626845533705	0.0112354349250322	-0.00291021676350471
4.7	-0.0172967548381	0.00745766351064463	0.00300004494944568	-0.00093228051176547	0.00301536521875072	-0.000941879765534787	0.0109954491522046	-0.003836157662972
4.8	-0.0159772204431529	0.00993827722564552	0.00283966213800295	-0.0013471772353246	0.0028481614590896	-0.00135325775861508	0.0106368925811682	-0.00467900756096673
4.9	-0.0141147707544861	0.012138828992157	0.0026198814682651	-0.00173248169750663	0.00262404805388656	-0.00172956529867593	0.0102120202052838	-0.00542908908814814
5	-0.0117454530314641	0.0141103925081662	0.00236010256845983	-0.00208990842400796	0.00236372619278389	-0.0020872349869322	0.00994040584801975	-0.00581297439894016
5.1	-0.00868573236458957	0.0152014815817751	0.00204851250900792	-0.00240099794041383	0.00205081431890824	-0.00239963548334486	0.0101028633340875	-0.00646952057650327
5.2	-0.00586616573311958	0.0157080938057366	0.00169098361044184	-0.00265172476937134	0.00169270594324891	-0.00265687193265607	0.0100211122024555	-0.00727169825881271
5.3	-0.00294316755582155	0.0158171009605359	0.00130401134129013	-0.00286837789581015	0.00130714564372492	-0.00286630835637386	0.00987611103242478	-0.00797601790002906
5.4	-8.29932588888537E-05	0.0153783497566307	0.00087815177046766	-0.00301712198242385	0.00089535445724616	-0.00302832965360581	0.0096593943362168	-0.00891916397964265
5.5	0.00271018008757426	0.0146705505344603	0.000463301730657644	-0.00311462921196072	0.000473374733883089	-0.00312406035385925	0.00912499815037955	-0.00968418067071243
5.6	0.00534893396721937	0.0128746704228264	2.51529046305995E-05	-0.00315130605483709	1.66197968972514E-05	-0.00315453826206431	0.00859227004731592	-0.0105677613184397
5.7	0.00697253468606026	0.0108201228767682	-0.000406811575734492	-0.00312180988234957	-0.000423445711729257	-0.00312549261377845	0.00761104713498797	-0.0112410142009152
5.8	0.008089045923923	0.00874522805454147	-0.000854108618787922	-0.00302728607262891	-0.000857638619290132	-0.0030413007405009	0.00659806927165934	-0.0118410602965262
5.9	0.00861518791422369	0.00673447805981082	-0.00126017762646812	-0.00288690500094369	-0.00126842097368961	-0.00288682820601479	0.00530085343558782	-0.0123772033541058
6	0.00880386154522564	0.00524980629818014	-0.00165842663378874	-0.00268087975800434	-0.00165485981495285	-0.00268104368781178	0.00362863411886313	-0.0121821443666412
6.1	0.00947751171844536	0.00333447480087288	-0.00201558742628334	-0.00242682682865016	-0.00201723239269883	-0.00242281560668622	0.00289766520802199	-0.0116212661259582
6.2	0.00945562964249295	0.000869492811100567	-0.00232983412836019	-0.00211242644852159	-0.00233354801683082	-0.00212432164224708	0.00249195358304253	-0.0114710346087524
6.3	0.00881290112506655	-0.00175304305523129	-0.00260826760090014	-0.00177664975838555	-0.00261741306347461	-0.00177089998026236	0.00217123632615786	-0.0117728377503702
6.4	0.00726382263855186	-0.00421917737680573	-0.00283465330552752	-0.00138514666313665	-0.00282491124940033	-0.00139005839654492	0.00157905111574861	-0.0122965461961742
6.5	0.00551320919834886	-0.00588804621337918	-0.00299268425788898	-0.000979562260939852	-0.00300056222422395	-0.000975070197723125	0.00097775069360138	-0.0124538563126803
6.6	0.0034945059997935	-0.00759935765633538	-0.00310097824620177	-0.000551955520104426	-0.00310261731436909	-0.000555939665853471	0.000627767698187073	-0.0129660902443578
6.7	0.000974438650648209	-0.00840900104844312	-0.00315084049252645	-0.000112904005083013	-0.00315970726277401	-0.000106607288162744	-0.000227004126431487	-0.013356998926687
6.8	-0.00151367079154828	-0.00854760480647576	-0.00312893055008862	0.000329436479974553	-0.00314004138160655	0.000334501501324924	-0.0012259085764283	-0.0135194396710491
6.9	-0.00412844929236669	-0.00806666193587805	-0.00305371435331401	0.000763922301589544	-0.00305670585237798	0.000766320119795979	-0.00240936845237733	-0.0135374975837682
7	-0.0061794983368257	-0.00647057711112724	-0.00291594235875043	0.00118725420182915	-0.00292880235627613	0.0011850706018975	-0.00354064466290764	-0.0128971221372897
7.1	-0.00761298442261464	-0.00532739674335046	-0.00273606554686462	0.00157609950561811	-0.0027323829661888	0.00158477495717769	-0.00413286855901594	-0.0124545620770072
7.2	-0.00938159492454308	-0.00375198202959591	-0.00247877476540942	0.00194420485572965	-0.00248531262704721	0.0019462965059346	-0.00481220359330005	-0.011973459090294
7.3	-0.0109312213248395	-0.00167378949843203	-0.00218239290759664	0.00226377279526816	-0.00219361817979274	0.002268851673236	-0.00523719357778209	-0.0115899658915849
7.4	-0.0123144563762454	0.000754749487212073	-0.00183916046738873	0.00254755183919096	-0.00184603157023428	0.00256119607310786	-0.00585216429058394	-0.0116246825135483
7.5	-0.013118453295868	0.00421235747337921	-0.00147157055491885	0.00278531070377507	-0.00146455605101906	0.00279270216383305	-0.00673859741512008	-0.0112414179567067
7.6	-0.0122461661111131	0.0072513427241105	-0.00106583582280969	0.00296331084236028	-0.00106721938538407	0.00295860995183322	-0.00690935070901776	-0.0109992219866184
7.7	-0.0111961946636513	0.00976034231970609	-0.000636575916287919	0.00308488042031248	-0.000637919707497187	0.00308381941704436	-0.00743848396436174	-0.0114384152819701
7.8	-0.00930152486428371	0.0118517660560917	-0.000209556054647106	0.00313355945307666	-0.000217362186540248	0.00314004034189031	-0.00826296437353545	-0.0116419404222087
7.9	-0.00692362114120083	0.0133974969791685	0.000232680596722551	0.00313920627007403	0.000240633994095124	0.00314069031609754	-0.00925912559308472	-0.0114675546040705
8	-0.00363100756630337	0.0145389035502506	0.000673644528941377	0.00306634134860673	0.000673734273536105	0.00307124608481502	-0.0100607595369016	-0.0107474202748392
8.1	-0.000403625846062331	0.0140325426810652	0.00108584314182334	0.00294863914077071	0.00110501974115687	0.00294968842516055	-0.0104913914168326	-0.0104806300469771
8.2	0.00211641192718949	0.0132963818742516	0.00149154532786886	0.00276572359766224	0.00150078617623706	0.00275849787845691	-0.0111324190190451	-0.0100091823033852
8.3	0.00447072826669572	0.0122477866057126	0.00186778788541451	0.0025245481901144	0.00186617764571576	0.00253811504607402	-0.0116584990205692	-0.00954859983535812
8.4	0.00640424912122508	0.0109482990271298	0.0022024103903089	0.00224559358219572	0.00219937740211477	0.00224537631722543	-0.0124218459572686	-0.00923043816247398
8.5	0.00846847581109728	0.00981080681324389	0.00248880241142038	0.00191456463868388	0.00248791255771787	0.0019177538790299	-0.0133374679794255	-0.00824649243639095
8.6	0.0105240568253215	0.00735356345981025	0.00273417753207172	0.00155122877421031	0.00274366296734555	0.00154465399137988	-0.0136636369963933	-0.00754660380618067
8.7	0.0114473890977795	0.00461652794411261	0.00291775756635109	0.00114732905141274	0.00292332106262083	0.00114803514015652	-0.0141860332264857	-0.00690996482905785
8.8	0.0117567921281239	0.00190517142635268	0.00305253172704334	0.000736133340243167	0.00305827458352194	0.000727355857820483	-0.0147381631033219	-0.00633373574828836
8.9	0.0114468001059452	-0.000781194033447647	0.00312896948936582	0.000302057219622101	0.00312809181617559	0.000299812426030835	-0.0153006060905463	-0.00565702408010086
9	0.010940476887109	-0.00292119396304735	0.00313676586794223	-0.000143001799161025	0.00313993677672439	-0.000138912226110569	-0.0157067444134554	-0.00435014830668141
9.1	0.0104471925284145	-0.00575142620028394	0.00308733687596037	-0.000583083137574726	0.00309026113849368	-0.000570205919377243	-0.0153609094764238	-0.00333582949746265
9.2	0.00896780707154776	-0.0084557002104107	0.00297669167480609	-0.000999339717483659	0.00298433361575307	-0.00100223707532688	-0.0150503082452719	-0.00253746758311226
9.3	0.00699680123414969	-0.0108918507359768	0.00280706762962839	-0.00140385325284365	0.00280632230934609	-0.00140883686385685	-0.0145526445011273	-0.00189900740442588
9.4	0.00425947357727253	-0.013001274937989	0.00258282457848744	-0.00179370355556958	0.00258935423184212	-0.00178613593645966	-0.0142945787819692	-0.00161651787030539
9.5	0.00127201324221917	-0.0139822105371128	0.00230531379661882	-0.00212491617689119	0.00231270694518239	-0.00212628475196054	-0.0141214413255124	-0.000886856301158405
9.6	-0.00217759925114459	-0.0151350983577571	0.00198941793424002	-0.00242626859305809	0.00198974974555006	-0.00242528938768795	-0.0140065813842375	-0.000657907577741736
9.7	-0.00638064179159793	-0.0149823798928097	0.00162231895140976	-0.00267568583594174	0.00162782329011132	-0.00268299207697661	-0.0141878629120694	-0.000156050646244903
9.8	-0.0105019095517327	-0.0137071027689251	0.00123718129012666	-0.00288291509092148	0.00124288887574805	-0.00287445115215395	-0.0143262053933888	0.000440167345220701
9.9	-0.0144554268005326	-0.0112258104333954	0.000832295700547938	-0.00301956188276794	0.000824988014755375	-0.00301832079461264	-0.0147339819924638	0.00112071926623441
10	-0.0173195216349756	-0.0073676755310997	0.000405365587315439	-0.00310727175791032	0.000397877538398812	-0.00311966644639435	-0.0149808171798965	0.00249174464533096
10.1	-0.0189987677671728	-0.00388269191535316	-3.61726660021724E-05	-0.00313916544643466	-4.63683147690914E-05	-0.00313376912825062	-0.0144748960042197	0.00341672069512025
10.2	-0.0204220127163872	2.12036168325783E-05	-0.000481190797857005	-0.00310101328505691	-0.000484583166769471	-0.0030982365145385	-0.0139757953272575	0.00416384549442788
10.3	-0.0210689709690597	0.0043020565995737	-0.000911490883810893	-0.00299440719202774	-0.00090343822424842	-0.003003463200903	-0.0133859521184543	0.00465759267009304
10.4	-0.0210130007310219	0.00889904165696682	-0.0013058798730111	-0.00284024138494801	-0.00130419474774346	-0.00284641891588901	-0.0129638337300385	0.004848993851967
10.5	-0.0194250331011825	0.0141359952357814	-0.00169717419493311	-0.00264358726779358	-0.00169406818668846	-0.0026306212256497	-0.012552205667125	0.00558898316138416
10.6	-0.016390677354585	0.0181337582735097	-0.00204907136645987	-0.00237225330366762	-0.00204689550475724	-0.00237606787016271	-0.0116861995979286	0.00586908477851439
10.7	-0.0128042039722536	0.021522388167278	-0.00236182192500087	-0.0020705264015086	-0.00235833325192573	-0.00206526543236494	-0.010884207609366	0.00602437719325877
10.8	-0.00870304026187434	0.023962127417354	-0.00262889408975168	-0.00171202334123868	-0.00262371747120233	-0.00172092347362635	-0.0102923724109849	0.00581725170046834
10.9	-0.00463614186135381	0.0258546169480542	-0.00283650786979402	-0.00133982709278179	-0.00284167960360564	-0.00133909600713828	-0.0103080409090584	0.00560387286504674
11	0.000457178186507257	0.0276229267725871	-0.00299468678892859	-0.00092288725724081	-0.00299952118352939	-0.00092960098646143	-0.0102335315629609	0.00624838927953533
11.1	0.00596367130229688	0.0273897169978485	-0.00310034290439484	-0.000500781551998896	-0.00308952457555997	-0.000497936267905925	-0.00960965470102543	0.00642179668586451
11.2	0.0109345217178482	0.0263508668491242	-0.00312974035437286	-6.62001171969131E-05	-0.00313686535107359	-7.10194206461074E-05	-0.00901987125712234	0.00658904613489196
11.3	0.0157843580068262	0.024421750319547	-0.00310371464004056	0.00038022926304874	-0.00311521047451354	0.000370224661808071	-0.00812867481686136	0.00654285561028723
11.4	0.0199964167467337	0.0217243895945823	-0.00303038225673688	0.000806820333033984	-0.00302548831037864	0.000814359473937767	-0.0075593170836439	0.00618558241463953
11.5	0.0242230441642704	0.0186757693745355	-0.00288637522156029	0.0012187289520727	-0.00288914870436252	0.00122895744369369	-0.0070986532776696	0.00611662495826103
11.6	0.0278715553707269	0.0137312308252317	-0.00269563256141412	0.00160618001003639	-0.00269561808094128	0.00160910837563818	-0.00643468837619523	0.0053265070422326
11.7	0.0299137965211045	0.00848668937504985	-0.00243693664577981	0.00196027411899366	-0.00243751221152541	0.0019688458558057	-0.00622099990957739	0.00446592435470108
11.8	0.0309822423537755	0.00327394513739027	-0.00214352729381291	0.00229172660819555	-0.00214762992457421	0.00229341189473861	-0.00626551755890305	0.00373543277640105
11.9	0.0312458400736373	-0.00161404068776199	-0.00179617271133169	0.00256623622084494	-0.00180914949245956	0.00257050060110354	-0.0066546043302629	0.00359459231634313
12	0.0317175842822913	-0.00616667147976495	-0.00142810961215888	0.00278870913732322	-0.00142752013492205	0.00279011741224254	-0.0064926585125703	0.00421519272065955
