# GHZ S RI R 50
0.2	0.00604513610572345	0.0016106985588483	0.00304612641251512	-0.000898505054699341	0.00305649117994081	-0.000891704197837499	-0.0139276846995842	0.00523342512405122
0.3	0.00626824724468844	-0.000511822881732001	0.00290131306512724	-0.00132168020395588	0.00289407833092353	-0.00130874803957445	-0.0132169650736316	0.00525935685126094
0.4	0.00597434825541115	-0.00230531518790344	0.00266907595800323	-0.00169286338873909	0.00267433385548011	-0.00170141844134417	-0.0127235643979264	0.00565839121504115
0.5	0.00494132313186217	-0.00367630643881428	0.00241008820308588	-0.00204830353103446	0.00242160737940125	-0.00206053327694778	-0.0124696071811507	0.00626464694598059
0.6	0.00410225723037782	-0.00438086694440772	0.00209803702852066	-0.00236230754812682	0.00209724910573806	-0.00236944865818477	-0.0117960202901718	0.00708773918832865
0.7	0.003050511446545	-0.00513776230690439	0.00175087397361403	-0.00263941593118371	0.00174892035877819	-0.00263961377154151	-0.011253763850982	0.00754559526156055
0.8	0.00184172572684642	-0.0055945635170126	0.0013657769078465	-0.00285586738942475	0.00135319334194308	-0.00286040581036441	-0.01085485495683	0.00813143712165003
0.9	0.000556477197258833	-0.0057846196360351	0.000949589570011429	-0.00301853194245584	0.000950620862291628	-0.00302921488157798	-0.0104109580619895	0.00871511297861094
1	-0.00111893170629067	-0.00589473395094155	0.000525813649071379	-0.00312202208059205	0.000515965793450259	-0.00312276023791147	-0.0102197230530259	0.0092352074155481
1.1	-0.00278337704096129	-0.00497143785205356	7.03253284492464E-05	-0.00315039214270418	6.68191907388885E-05	-0.00316801457797335	-0.00987902025315758	0.0105284071788141
1.2	-0.00386931333704918	-0.0042615417832627	-0.000370739338639458	-0.00313909333736506	-0.000371549361944467	-0.00313702040176955	-0.00866781031623804	0.0115196055110639
1.3	-0.00507756679348885	-0.00381219229243926	-0.000796558313476531	-0.00305581845723014	-0.000799792453449167	-0.0030578199390102	-0.00692069853777414	0.0120688446613054
1.4	-0.00622414866373534	-0.00333671681029422	-0.00121677911196676	-0.00290806097412532	-0.00121556774251776	-0.00291358405025257	-0.00520386962821484	0.0117359527949347
1.5	-0.00707646648566411	-0.00211491751804835	-0.00161726548394961	-0.00271217990085485	-0.00161565704527414	-0.00272066453362662	-0.00416388191149988	0.0113021354071361
1.6	-0.00674854252572559	-0.000395096939453489	-0.001975982949282	-0.00245969945400286	-0.00197619282422425	-0.00246492217142924	-0.00343376240307357	0.0112315697969202
1.7	-0.00608308776221541	0.000918551866838102	-0.0023030174128933	-0.00216408393567067	-0.00230398330973159	-0.002157836980464	-0.00289747099865485	0.0112504724749573
1.8	-0.00522124479877029	0.00221567942099442	-0.00257332344893252	-0.00181396208904983	-0.0025842615096615	-0.00181959213920021	-0.00234952318059843	0.0113839767034426
1.9	-0.00414713533717582	0.00312248339205763	-0.00279823474548437	-0.00144432272476448	-0.00281064978859677	-0.00143819113713182	-0.00181392529133761	0.01149164903264
2	-0.00326567487485196	0.00398754866721265	-0.00297262530129453	-0.0010378971287895	-0.00298222561974313	-0.00103320863431543	-0.00148988713369225	0.0118892678542005
2.1	-0.00163613476022574	0.00481615772963813	-0.00308612095875386	-0.000612306451968075	-0.00308204544445609	-0.000614287890968121	-0.00041723544226782	0.0123512885130512
2.2	7.50123569566854E-05	0.00485846342399529	-0.00314445201603896	-0.000175723008122086	-0.0031557249178149	-0.000178568552705834	0.000763503250352721	0.0122407770435105
2.3	0.00162154258274326	0.00436614399500615	-0.00314062733340626	0.000266353027300894	-0.00314031501999133	0.000259486504412417	0.00174836218582502	0.0118501910531528
2.4	0.00293075106007157	0.00343785916038621	-0.00306890188769363	0.000703238182280821	-0.00307142975407644	0.000698986649490014	0.00258491153607609	0.0113770250705635
2.5	0.00352791646791335	0.0022166486083244	-0.00293370229113772	0.0011134389311841	-0.00294458087175997	0.0011197807314399	0.00308122819944763	0.0109166610516286
2.6	0.00419828330235468	0.00143196134494614	-0.00276222428665758	0.00151656691732969	-0.00275864649878332	0.00150427434885307	0.00398077882463538	0.0107877392233314
2.7	0.00498387233467247	0.000213575371896393	-0.00251760127194623	0.0018879855033363	-0.00252287226445862	0.00188798496762956	0.00488917192693897	0.0101869293329473
2.8	0.00560431032841571	-0.0013178700191976	-0.00223611433821062	0.00221530670614291	-0.00222833602199558	0.00222509804954809	0.00554868662005666	0.00957313654435912
2.9	0.00592826550231252	-0.00319770556302472	-0.00190376791930625	0.00251550411116846	-0.00190006346140391	0.00251508725575231	0.00623463483417188	0.00904733608899764
3	0.00552548854685723	-0.00504982706321551	-0.00151938913640312	0.00275271491502831	-0.00153417030829512	0.00275876970591803	0.00686663333341755	0.00873640510862251
3.1	0.00521714456765878	-0.00670137476041218	-0.00112904941015359	0.00293072566064309	-0.00112441698801962	0.00293907040553637	0.00789593946465019	0.00832440116114675
3.2	0.0043243743120019	-0.00861601556342273	-0.000709626349949548	0.00306834430483439	-0.000711367429558879	0.00306772994545731	0.00852203036532706	0.00764180074407315
3.3	0.00291539709162324	-0.0104638917576665	-0.00027235013181967	0.00313940262941092	-0.000270692842566273	0.00313567027526863	0.0091480548866128	0.00692407584150601
3.4	0.000905801185373722	-0.0120528022478922	0.000173991145947189	0.0031353322103779	0.000167744145849511	0.00315187021836755	0.0096900683641631	0.00596166445584551
3.5	-0.00181791348783365	-0.0130490232781935	0.000596711449705256	0.00309350249762654	0.000602304370321997	0.00309359146060395	0.00974142119908561	0.00498974383127922
3.6	-0.00428819870511983	-0.0131218777263736	0.00102430821297581	0.00297477791523648	0.00103249533073313	0.00297448231923391	0.0100657220205903	0.004327497327632
3.7	-0.006723979509587	-0.0130259972329998	0.00143470576733516	0.00279578081803929	0.00142508446497254	0.00280942284248223	0.0103358382005859	0.00341715466729137
3.8	-0.0092331759181788	-0.0124617237863494	0.00181361737563542	0.00257043201576663	0.00181599437057116	0.00257958734865976	0.0104181919778325	0.0025407869910015
3.9	-0.01162164603496	-0.01149984287049	0.0021607333504642	0.00229834319232553	0.00215347295042812	0.0022965433949762	0.0103576470762163	0.0017180213692665
4	-0.0141409175156316	-0.00985217092313164	0.00244545742197747	0.00197774427311929	0.00244991254162633	0.00197532360557868	0.0101849310084992	0.00131628986654786
4.1	-0.0157233981435809	-0.00748627315594798	0.00269887699823936	0.00162031903080033	0.00269762162291542	0.00162105074257778	0.0107849657395943	0.00100646506494601
4.2	-0.0168605874091422	-0.00522883661987644	0.00290072881277161	0.0012198222641943	0.00290522669176705	0.00121111558657753	0.0113220978168703	0.000156443424554811
4.3	-0.0176808719629412	-0.00293975325437129	0.00304584216638423	0.000807592962713305	0.00305229544928563	0.000799803934173863	0.011655464331293	-0.000927949459151903
4.4	-0.0183166260157905	-0.000643862367010998	0.00312356439713245	0.000373246706611799	0.00312594819423189	0.000370995792529519	0.0116452741970521	-0.00210729171079828
4.5	-0.019071548904648	0.00200829974746118	0.00314868485276658	-6.38637752195568E-05	0.00315406417545631	-6.72217938183885E-05	0.011279383496323	-0.00299286957884371
4.6	-0.0189155682204272	0.00523569082867754	0.00310782829100965	-0.000508636241096019	0.00310901630897729	-0.000495694826385305	0.0113059121037879	-0.00377503233655219
4.7	-0.018010115363958	0.00815758385131944	0.00300388147756581	-0.000929514161997152	0.00301922716083819	-0.00093910366712517	0.0110630722393109	-0.00487429133677811
4.8	-0.0166262746832381	0.0108461814037023	0.00284387729040357	-0.00134532789236097	0.00285239149409653	-0.00135140484573996	0.0105970547494622	-0.00581627486311364
4.9	-0.0146041627329468	0.0130899686645623	0.00262447669509039	-0.00173116826377884	0.00262864403353501	-0.00172824416294615	0.0100912171593879	-0.00659914049057196
5	-0.012478539848876	0.0150523066098275	0.00236604808863128	-0.0020899547348832	0.00236967355146759	-0.00208727300601855	0.00968180954224305	-0.00698938789091162
5.1	-0.00921125779159575	0.0166941276947717	0.00205354767102358	-0.00240321310044409	0.00205585206051272	-0.00240184676011559	0.00991995326728284	-0.0075530361366712
5.2	-0.0058695610506025	0.0171664271579801	0.00169510339130902	-0.00265456891255174	0.00169683143266528	-0.00265972256094424	0.00985577002785993	-0.00846671929941393
5.3	-0.00268201572294321	0.0169348612104334	0.00130765919899643	-0.00287186152718407	0.00131079692357212	-0.00286978704402151	0.00963376970399043	-0.00922972092958739
5.4	0.000132356063504251	0.0160244437520111	0.000881361285405439	-0.0030216842526686	0.000898599307350521	-0.00303290085614203	0.00935678379814335	-0.0101866798792349
5.5	0.00215450241797828	0.0151437369015401	0.000464459646662783	-0.00312052186514509	0.000474552673263112	-0.00312997008376017	0.0086482674809454	-0.0109165468488625
5.6	0.00471580505102147	0.0141724599106902	2.48753166971047E-05	-0.00315605435162927	1.63290347173579E-05	-0.00315929057228055	0.00825807251271524	-0.0116212701877524
5.7	0.00683892772812783	0.0123597056631725	-0.000407478106181728	-0.00312635876138856	-0.00042413661629423	-0.00313004648380169	0.0073293282804041	-0.0124065031011162
5.8	0.00843979251589466	0.0101972455239087	-0.000855609285151435	-0.00303189462431182	-0.000859145580222758	-0.00304593065324754	0.00623276709398633	-0.0130071196150532
5.9	0.00945837412249742	0.00766009208880098	-0.00126305523545648	-0.00289127253337314	-0.00127131204904914	-0.00289119328355082	0.00494384509246618	-0.0134449149133232
6	0.00920937709517504	0.00511053439131159	-0.00166194159254339	-0.00268335390571921	-0.00165837038849618	-0.00268351995052463	0.00324431066947353	-0.0132380958375515
6.1	0.00906657205416997	0.00333276629078802	-0.002018517490608	-0.00242946557469003	-0.00202016376942398	-0.00242544909512491	0.00270000619739056	-0.0124791546526693
6.2	0.00871504647029452	0.00106547371114411	-0.00233375411327457	-0.00211488561658829	-0.00233747645027946	-0.00212679708418992	0.00248916079139934	-0.0124999600962512
6.3	0.00786483245118538	-0.00128667615786988	-0.00261297011681258	-0.00177809121094388	-0.00262212654119875	-0.00177232865392601	0.0021476417751608	-0.0129904336802817
6.4	0.00628761032670227	-0.003628233117915	-0.00283926092988155	-0.00138507214194728	-0.00282950944537335	-0.00138999672250216	0.00148515921538632	-0.0136245289098659
6.5	0.00398369935522717	-0.00497894134287593	-0.00299627047585595	-0.000979670474495107	-0.0030041556085709	-0.000975170967425301	0.000713860623232129	-0.0137751589727222
6.6	0.00239370114077473	-0.00577522740844005	-0.00310598454825745	-0.000551666039873437	-0.00310762762517868	-0.000555655751153338	0.00053033500658285	-0.014278131299672
6.7	0.00047936903863668	-0.00651543136479158	-0.00315586051729256	-0.000110936472418758	-0.00316473691218504	-0.000104623841602335	-0.000392040546028169	-0.0148502089190541
6.8	-0.00162444758240691	-0.00676738330804217	-0.00313314879722945	0.000332531292996746	-0.00314427134408569	0.00033761289895909	-0.00150232958730279	-0.0150063610973763
6.9	-0.00396024572976916	-0.00669898216328317	-0.00305706749876822	0.000767224877421482	-0.00306006103022277	0.000769628055437488	-0.0026498822267525	-0.015002793947856
7	-0.00676567583532748	-0.00544041092379685	-0.00292015111404481	0.00119116066036482	-0.00293303445937494	0.00118898163079021	-0.0038996387846097	-0.0143865047940797
7.1	-0.00821560312314307	-0.00330931684305524	-0.0027388522217527	0.00158219186753896	-0.00273515259544815	0.00159087777409337	-0.00427177133210821	-0.0138361919253135
7.2	-0.0092744907650018	-0.00144550033146005	-0.00247976600700263	0.00195048019584862	-0.00248631065248796	0.00195258391306612	-0.00490805319576822	-0.0136287595436909
7.3	-0.0100759199767569	0.000519790730727833	-0.00218231398070663	0.00226992207167384	-0.00219354787611809	0.00227502345037993	-0.00552632744832899	-0.0133963615631103
7.4	-0.0106044664893442	0.00228228003766519	-0.00183845038498782	0.00255405230509155	-0.00184531308168023	0.0025677272008423	-0.0063136807467208	-0.0134463842235464
7.5	-0.011678362858393	0.00424003346380921	-0.00146831361313515	0.00279303086923096	-0.00146127207845908	0.00280042033305507	-0.00751500712635271	-0.013080209934892
7.6	-0.0115970609969411	0.00713587786999234	-0.00106021555912988	0.00296880910547727	-0.00106161123137649	0.00296410647235981	-0.00775909392040774	-0.0124803230725508
7.7	-0.0108809526844441	0.00945434983056817	-0.000630437320590681	0.00308884555106958	-0.000631784534207449	0.00308778656426818	-0.00829245754292832	-0.0128147997767719
7.8	-0.00943425273483038	0.011489943144757	-0.000202834640331827	0.00313644387194867	-0.000210632574313421	0.00314294692209829	-0.00907065128684005	-0.0128387156108546
7.9	-0.00757344194287613	0.0129385990016746	0.000240556135342372	0.00314084582521032	0.000248518780464788	0.00314231137853013	-0.00983660191493447	-0.0125640419701454
8	-0.00552932837183133	0.0146463755403597	0.000681844420167219	0.00306449703538121	0.000681947293994078	0.0030694014658808	-0.0106040428064641	-0.0118151801686149
8.1	-0.00211377356578936	0.0155556826390297	0.00109190831731553	0.00294566790561202	0.00111108293522665	0.00294667595787151	-0.010593964869954	-0.0115848885646395
8.2	0.0010669536443793	0.0153240562476717	0.00149705030099935	0.00276223807457497	0.00150627486564743	0.0027549942866318	-0.011142072372772	-0.0113945412684982
8.3	0.00400787973733337	0.0143844810791395	0.00187277205675974	0.00251998344376218	0.00187119121739902	0.00253355069981259	-0.0116770932431051	-0.0110626333448647
8.4	0.00641952782170227	0.0127010071249081	0.00220615855691306	0.00223947286946818	0.00220312677079257	0.00223926243806946	-0.0123739392905131	-0.010848117296583
8.5	0.00778196244183042	0.0111403169972523	0.00248975308413613	0.00190890044018506	0.00248886914424104	0.00191208837462884	-0.0134019843363678	-0.0100114164629524
8.6	0.0098034262078338	0.00968873885960635	0.00273552984417563	0.00154641670881522	0.00274500151407168	0.00153982978981412	-0.0135492253330698	-0.00932491949885933
8.7	0.0114664836668579	0.00726850336553571	0.00291856205452752	0.00114173974323183	0.00292412448754343	0.00114243578721813	-0.0141056311417156	-0.00904480088825884
8.8	0.0125441349052706	0.00441280003682286	0.00305201713940296	0.000730204109092053	0.00305774076363371	0.000721421589385359	-0.0149570571922224	-0.00865874201397906
8.9	0.0129461430085874	0.000971380777083593	0.00312692253000795	0.000296883017332591	0.00312604202712482	0.000294641416804286	-0.0157934256386643	-0.00796594509770791
9	0.0119523695401746	-0.00232026262486423	0.00313553347276796	-0.00014727510424496	0.00313870896774467	-0.000143191248662314	-0.0165253157005501	-0.00656058640939538
9.1	0.0109540945628135	-0.00512076588716977	0.00308479246930692	-0.000588872832147724	0.00308774065717336	-0.000576007191889386	-0.0161574917892344	-0.00525172109996999
9.2	0.00917778829150862	-0.00801643452517859	0.00297220484147008	-0.00100427249846943	0.00297983461852438	-0.00100718223645923	-0.0158564644419564	-0.0043965566621937
9.3	0.00674522358595277	-0.0104670031892387	0.0028017275520965	-0.00140728494488802	0.00280097433511075	-0.00141226211326622	-0.0153704046962587	-0.00359267215347085
9.4	0.00360342840414294	-0.0125552167487041	0.00257781176143377	-0.00179606883528179	0.00258434722347734	-0.00178851784922466	-0.0149515542676435	-0.00316590918662599
9.5	-0.000388515511572742	-0.0131671305231612	0.00229909385665161	-0.0021280766999442	0.00230647841740717	-0.00212945963413702	-0.0146749722871042	-0.00235834216137839
9.6	-0.00364382550218225	-0.0129539032371412	0.00198153467613946	-0.00242670117211276	0.0019818679826637	-0.00242572409597447	-0.0141467084339505	-0.0021775925149226
9.7	-0.00709304810631946	-0.0123703753773666	0.00161512773108786	-0.00267411861233996	0.00162061069337543	-0.00268142240646413	-0.0143085834984316	-0.00202412631460578
9.8	-0.010527120641605	-0.0110775970881474	0.00123066000098716	-0.00288027129622879	0.00123637184310586	-0.00287182985696439	-0.0146528356160282	-0.00153615756711442
9.9	-0.0138546732972199	-0.0091407928498224	0.000825687947456032	-0.00301624797183715	0.000818393987225768	-0.00301499603758158	-0.0151765722778189	-0.00073634511694906
10	-0.0173292002006845	-0.0059389566333649	0.000398624286326475	-0.0031007271011646	0.000391130737341391	-0.00311307872055678	-0.0155508531532053	0.000815125428051193
10.1	-0.0190636691360282	-0.00175456343481941	-3.95577573389937E-05	-0.00313136190579683	-4.97222182288573E-05	-0.00312596764854878	-0.0146974505440978	0.00199881706425911
10.2	-0.0198745451503869	0.00218323454865302	-0.000482949393060422	-0.00309338470830731	-0.000486331331681089	-0.00309061122653816	-0.0139573343669531	0.00257265603440423
10.3	-0.019985179820631	0.00603024664431311	-0.000912045847792172	-0.00298652859934058	-0.000904020337216365	-0.00299557053749748	-0.0133071153231789	0.00290702014655874
10.4	-0.0196734042584964	0.0095898651252533	-0.00130474932004542	-0.00283139467418838	-0.00130307405557087	-0.00283755682639018	-0.0128252457266475	0.00296442314306386
10.5	-0.0193157485607076	0.0138310582074594	-0.00169190823652097	-0.00263574689536362	-0.00168881237166382	-0.00262281963273428	-0.0125156837909656	0.00357326927544465
10.6	-0.017217065559899	0.0183016864627808	-0.00204348784277422	-0.00236737811103026	-0.00204131581137538	-0.00237118302539498	-0.0115264818676468	0.00376745914584756
10.7	-0.0142136791601596	0.0221745551938976	-0.0023560253027518	-0.0020666214843463	-0.00235254581237207	-0.00206137114487323	-0.010865004806849	0.00371565089817723
10.8	-0.0103123327586565	0.0253673756801497	-0.00262239896852979	-0.00170917090689001	-0.00261723062480381	-0.00171804927781371	-0.0104012071742773	0.00354583951823548
10.9	-0.00599599397503991	0.0275828058965211	-0.00282906127426617	-0.00133893359019449	-0.00283422183123749	-0.00133820807398115	-0.0103440468198907	0.0033521059051654
11	-0.00159579219057828	0.0295878501535963	-0.00298928702947471	-0.000924627864004432	-0.00299410728306768	-0.000931336655405404	-0.0103355857748712	0.00392910139438269
11.1	0.00423051119515919	0.0307661213887903	-0.0030956422650303	-0.000501423026655913	-0.00308484082195832	-0.000498577090674897	-0.00946691517003075	0.00402249541309464
11.2	0.0102105053640748	0.0302297244414122	-0.0031244436945268	-6.76184655389135E-05	-0.00313155435129411	-7.24331452414544E-05	-0.00897936414686977	0.00378500588536401
11.3	0.0160426386384987	0.0282208348583345	-0.00309872072284809	0.000377335412620437	-0.00311018979291211	0.000367339469236673	-0.00845839421378147	0.00358679431839708
11.4	0.0210889057087384	0.0248692774772922	-0.00302702905721343	0.000802875622086392	-0.00302214884171877	0.000810409135529659	-0.00820625570326917	0.00329227981379289
11.5	0.0248899416494315	0.0211332451478763	-0.00288343448942445	0.00121657722163458	-0.00288620757013436	0.00122679339431793	-0.00812634508175286	0.00342868809967926
11.6	0.0288239362431143	0.016710300850038	-0.00269134916345969	0.00160221734187288	-0.00269133584008048	0.00160514038609073	-0.00735975264334749	0.00297140711766984
11.7	0.0317129982842797	0.0110965003566281	-0.00243404110245901	0.00195473262818481	-0.00243462247393197	0.00196328820121005	-0.00716720160788398	0.00218894952041967
11.8	0.0333334474016739	0.00488931361172102	-0.00214232988603385	0.00228580929322891	-0.00214642749847491	0.00228748767813381	-0.00723304447111725	0.0016712841397829
11.9	0.0334918486541895	-0.0017044378233044	-0.00179576861431291	0.00256096301631958	-0.00180873020384414	0.00256521004449548	-0.00739266626730482	0.00168151798547208
12	0.0317332457594215	-0.00724870989703133	-0.00142743556359631	0.00278163241683547	-0.00142684850938007	0.00278303821640001	-0.00732951474400334	0.00243349452579644
