# GHZ S RI R 50
0.2	0.00585897650872	0.000876439798680134	0.00305052495358416	-0.000897386174978081	0.00306089749358954	-0.000890569398066265	-0.0141457239495311	0.00448522887905353
0.3	0.0062389056956961	-0.000918148021183223	0.00290689191625124	-0.00132104994148295	0.00289963454657919	-0.00130810479332491	-0.0132848921703531	0.00484013378270497
0.4	0.00599573471807276	-0.00242105961342629	0.0026758738089374	-0.00169338642101798	0.00268115038172016	-0.00170195244792996	-0.0127474450262077	0.00553545336460068
0.5	0.00556663224927928	-0.00380829720567169	0.00241714367782161	-0.00205137203962278	0.00242869829710474	-0.00206362213141515	-0.0118851551818269	0.00613792069337357
0.6	0.00433433931011192	-0.00516546668654513	0.00210403133167994	-0.00236623456662825	0.00210324591998347	-0.00237339177734909	-0.0115955756313555	0.00630063843472589
0.7	0.00281835357828442	-0.00571982610469823	0.00175689943059633	-0.0026445058681868	0.00175494128299556	-0.00264470554310795	-0.0115243938659365	0.00695640985020652
0.8	0.00139741150322334	-0.00591975521806986	0.00137120250728284	-0.00286270900452804	0.00135858788767063	-0.00286726735326534	-0.011345284379286	0.00780323738817146
0.9	-0.000128419287023743	-0.00569905934804999	0.000953314113352761	-0.00302707173772482	0.000954351767676377	-0.00303778562911737	-0.0111466343572813	0.00880992736932883
1	-0.00121146675524464	-0.00500974268744667	0.000527378736299452	-0.0031302278932712	0.000517504944395149	-0.00313096855932762	-0.0103551159089155	0.010146390465439
1.1	-0.00232729703448065	-0.00492474032981507	7.18807334400638E-05	-0.0031592659195643	6.83722748579531E-05	-0.00317693967155907	-0.00945631302745842	0.0106097354766181
1.2	-0.00391215170022438	-0.00454308231053828	-0.000371140675330333	-0.00314931597380527	-0.000371953837260033	-0.0031472365546858	-0.0087272141575125	0.0112722488094919
1.3	-0.00549325877753181	-0.0040827453128091	-0.000799414947399104	-0.00306614617706236	-0.000802660161185782	-0.00306815428647727	-0.00733243074587854	0.0118326850846924
1.4	-0.00679069520471415	-0.00334968881419452	-0.00122163736445262	-0.00291733702544375	-0.00122042356521734	-0.00292287872595695	-0.00574917301590181	0.0117499031234845
1.5	-0.00704629444355077	-0.00222076068330309	-0.00162246554966817	-0.00272146214562543	-0.00162085092073392	-0.00272997520901861	-0.00410836950761792	0.0111935505408464
1.6	-0.00719192933252255	-0.00079655742646983	-0.00198471342353286	-0.00246945906208019	-0.00198492531706838	-0.00247470337885008	-0.00385396991984497	0.0108288530574196
1.7	-0.00655369458442175	0.000943352859714404	-0.00231452608944128	-0.00217149534176796	-0.00231549119875318	-0.00216522101757902	-0.00335659555876803	0.0112603092680206
1.8	-0.00551616755516733	0.00247114286706481	-0.00258623074508571	-0.00181876256633233	-0.00259722134791897	-0.00182440422298576	-0.00264455401305795	0.0116224368099689
1.9	-0.00420199332485987	0.00368018373362293	-0.00281189211957919	-0.0014471568866929	-0.00282435284144659	-0.00144098436970312	-0.00187197020198294	0.0120437979812096
2	-0.00242109048109338	0.00435952654141692	-0.00298901211718981	-0.00103869764051979	-0.00299865349410207	-0.00103397154999839	-0.000627008848131717	0.0122680441063393
2.1	-0.00116222862635003	0.0043035018713323	-0.00310277941059643	-0.000607317751306942	-0.00309868911142071	-0.000609319407202364	9.06526893558533E-05	0.0118226917994053
2.2	6.55850136867983E-05	0.00442052277279093	-0.00315915081654667	-0.000167220915063482	-0.00317048296257412	-0.000170045970251656	0.000779178178981563	0.011771165826494
2.3	0.00136623484780372	0.00412759497041855	-0.00315357127702081	0.000277563991872314	-0.0031532795448546	0.000270666308629823	0.00150441319229061	0.0115782437319461
2.4	0.0025037989049134	0.00362207299205232	-0.00308035532295085	0.00071735817366233	-0.00308290981589979	0.000713096302923458	0.00215833979910478	0.011542396320735
2.5	0.00382507616069905	0.0028393018326522	-0.00294132903184885	0.00113213888027248	-0.0029522254721487	0.00113855973101341	0.00339943179633146	0.0115502939259716
2.6	0.00466935405927557	0.00128277174042104	-0.0027641315365281	0.0015351375410121	-0.00276060162395299	0.00152278614583844	0.00450978628100425	0.0106469270119748
2.7	0.00511909919485188	-0.000100299453142657	-0.00251641357004	0.00190614223007625	-0.00252170121968005	0.0019061672172248	0.00510154872410651	0.00986719759280183
2.8	0.00548067528865885	-0.0015693610413087	-0.00223156979581932	0.00223350493456869	-0.00222371764343953	0.00224328622529515	0.00551443359063115	0.00930078047800394
2.9	0.00572647483404691	-0.00311448620740883	-0.0018946284852249	0.00253331497899381	-0.00189091621001199	0.00253287579663291	0.00612504437052414	0.00910971236476226
3	0.00590461149056579	-0.00498624729839512	-0.0015054067314194	0.00276611532020592	-0.00152017524845423	0.00277226768215554	0.00736514623255343	0.00876017469101952
3.1	0.00522871270063325	-0.00709855452216025	-0.00111515067316222	0.00294110478147702	-0.00111046696151424	0.00294943735119291	0.00802976836906631	0.00782307330260385
3.2	0.00408889401571272	-0.00881532768797482	-0.000693561924896355	0.00307696840380226	-0.000695309080788765	0.00307636283842825	0.0084081488206286	0.00733500772191937
3.3	0.00259384768923864	-0.0104443523128397	-0.000254032800978798	0.00314466061796432	-0.000252395741948368	0.00314091409804127	0.00894384837391646	0.00681069290933094
3.4	0.000629030491776758	-0.0116405306185112	0.000193104822697556	0.00313560109277584	0.000186955612981999	0.00315218402888509	0.00951695990601835	0.00621837240596847
3.5	-0.00132109991912758	-0.0126231405136304	0.00061297954530555	0.00309065907068822	0.000618573445626071	0.00309071872884683	0.0103388592452024	0.00524841630839828
3.6	-0.00405929873331688	-0.0133884579388874	0.00104161708969304	0.00297098834104406	0.00104980789409606	0.00297064675392322	0.0103993056685119	0.00386929021853986
3.7	-0.00686564784348142	-0.0131518278645607	0.00145203348320159	0.00278770134299884	0.00144249290755165	0.00280140500098595	0.0102711480289132	0.00306133608536355
3.8	-0.00948973259631568	-0.0123293541992556	0.00182888921645156	0.00255843719388749	0.00183132189961752	0.00256757497310394	0.0101972389541468	0.00243043150960602
3.9	-0.0117672467086842	-0.0109537886100954	0.00217272783475741	0.00228413542612935	0.00216546181209254	0.00228237935891277	0.0102141607380447	0.00204196057530125
4	-0.0134233963765067	-0.00940483812229873	0.00245713505985376	0.00196291214421456	0.00246157530155723	0.00196046492875029	0.0109366685389156	0.00156311744194632
4.1	-0.0153397876227482	-0.00785142349622089	0.00270797465865116	0.00160007620073335	0.00270672545062818	0.00160081609229053	0.0112079638949859	0.000378845931539643
4.2	-0.0169605185713482	-0.00551963991867417	0.00290423700751129	0.00119769642083339	0.00290866705435828	0.00118897342975855	0.0112177052354508	-0.000427993328103233
4.3	-0.0180446379880763	-0.00295224217881739	0.00304471168106659	0.000785534802873598	0.00305109916121734	0.000777719377589766	0.0112383078081646	-0.0012360283952818
4.4	-0.0187254534275893	-7.4900484204649E-05	0.00311929106474147	0.000351698710211447	0.00312165476252537	0.000349436832650703	0.0111539016303887	-0.00182007074002918
4.5	-0.01851988194631	0.00283630233797435	0.00313963217621487	-8.77658931348113E-05	0.00314497119081643	-9.11559099662411E-05	0.011727720459421	-0.00245186873173648
4.6	-0.0183714895748283	0.00531298724274997	0.00309105753415225	-0.000528828154719152	0.00309233355856391	-0.000515949890983596	0.0117060049732811	-0.00397080830185139
4.7	-0.0176804949474065	0.0082021730792427	0.00298380527622284	-0.000944993627504854	0.00299901649475022	-0.000954639729089565	0.0112190391653747	-0.0050860240461095
4.8	-0.0163753738840505	0.0109246936187034	0.00282125331557496	-0.00135676324657907	0.00282968675113746	-0.00136286430007491	0.0106473954935582	-0.00597464403584865
4.9	-0.0143486718257247	0.0134145034868497	0.00259886179264143	-0.00173880352740222	0.00260302540735066	-0.00173592254593233	0.0101048506755599	-0.00647705459394838
5	-0.0115100271333988	0.0151472960411768	0.00233678720628943	-0.00208953838540418	0.00234040335766262	-0.00208689740836542	0.0103886884436075	-0.00701492124441966
5.1	-0.00882899015375547	0.0161123366097895	0.00202792482555469	-0.00239575630410668	0.00203021927414253	-0.0023944102780061	0.0100789747802545	-0.00822776809459124
5.2	-0.00589987638540674	0.0168418858376817	0.0016717530956407	-0.00264331155379947	0.00167344674801342	-0.00264843658772194	0.00959405385035263	-0.00886327971720571
5.3	-0.00280498850795068	0.0169002058295037	0.00128627583701179	-0.0028560604627541	0.00128939894029469	-0.00285401409879891	0.00927836101188618	-0.00928773564712781
5.4	0.000170910942042058	0.0164388953009681	0.000863412962598805	-0.00300026873283166	0.000880470837093211	-0.0030114556870165	0.00918688659199906	-0.0097252359985137
5.5	0.00319182530234055	0.0151893372277607	0.000454652154942953	-0.00309581275922823	0.000464644217985777	-0.00310520285834867	0.0095858079488373	-0.010786770522905
5.6	0.00499081883644161	0.0133577623757165	1.87949873648548E-05	-0.00313288605291112	1.0305521454489E-05	-0.00313608249965174	0.00847526822467449	-0.0124192328515011
5.7	0.00654703334309244	0.0118675073905595	-0.00041014422285486	-0.00310171731569806	-0.000426682264696398	-0.00310534606454628	0.00697080252304909	-0.012896638677428
5.8	0.00792665307091197	0.0100659417558627	-0.000852875385461051	-0.00300641235271995	-0.00085640243065409	-0.0030203309909254	0.00565085141368514	-0.0131291766429323
5.9	0.00885494308847075	0.00820295236765249	-0.00125397527238899	-0.00286732372187303	-0.0012621651101186	-0.00286724180022727	0.00427848275165228	-0.0128648240686291
6	0.00988288641145094	0.00608056460616572	-0.00165061947243061	-0.00266423280889702	-0.00164707342983282	-0.00266439818547449	0.00389659784898664	-0.0121987756627825
6.1	0.00976122233586331	0.00313148980468857	-0.00200467057021157	-0.00240944256959767	-0.00200630148217651	-0.00240545580774639	0.0034438448764738	-0.0126099192061313
6.2	0.00890293443535969	0.000782154117446073	-0.00231446875816629	-0.00209763785738867	-0.00231815987526582	-0.00210945167428465	0.00277783753522503	-0.0127552672559559
6.3	0.00780203575647291	-0.00135703450032876	-0.00259004893967657	-0.00176581537989313	-0.00259913546417776	-0.00176010792098436	0.00220550312709444	-0.0130866938013258
6.4	0.00638693789686669	-0.00320390347591524	-0.00281578422251943	-0.00137836564025962	-0.00280610029629102	-0.00138323957804816	0.0016973095632495	-0.0132622114568071
6.5	0.0050092594458061	-0.00517023239487039	-0.0029723097971267	-0.000973900864827232	-0.00298013627980687	-0.00096944133233539	0.00186535286553686	-0.0140494406446884
6.6	0.00246458419556855	-0.00654248798042083	-0.00307774251267454	-0.000552020331003669	-0.00307936445110317	-0.000555977706467228	0.00071655655292738	-0.0151908216843698
6.7	0.000189336611110779	-0.00688833812412554	-0.0031286649196858	-0.000118407376477667	-0.0031374824898689	-0.000112172225584466	-0.000617154015528148	-0.0153941465869882
6.8	-0.00205976070854918	-0.00680103640370923	-0.00310868468612779	0.000319985784158397	-0.00311973263610342	0.000324991093437036	-0.00191472940857992	-0.0152076950737201
6.9	-0.00423930254368925	-0.0060190399155319	-0.00303477923823042	0.000751523834921685	-0.00303775608258821	0.000753898305278564	-0.00294477664205681	-0.0144531015065346
7	-0.0056306408510328	-0.00510989313154411	-0.00289787770033842	0.00116876845997555	-0.00291063373399838	0.00116655919121171	-0.00274733087819025	-0.0141302515237483
7.1	-0.00791584171949611	-0.00410550132562858	-0.00272449561070439	0.00155348112898478	-0.00272087587144658	0.0015621141382701	-0.00391168616654221	-0.0147534614853918
7.2	-0.00965478134346765	-0.00192638518770153	-0.00247225227084734	0.00192054232845736	-0.00247875886393625	0.00192259058912208	-0.0052615526557063	-0.0142655891705275
7.3	-0.0107949860312423	0.000483918786120992	-0.00218024955099852	0.00223917349848084	-0.0021914313750227	0.00224416592866055	-0.00627304186575935	-0.0135833771880594
7.4	-0.011495116253357	0.00319535142790049	-0.0018420704765064	0.00252152729899344	-0.00184897555608018	0.00253504883024615	-0.00731146085257156	-0.0125719039838724
7.5	-0.0110125796931586	0.00587497574932727	-0.00148295601205691	0.00276059570112004	-0.00147602903508871	0.00276799649064524	-0.00688818672168918	-0.0113780060679567
7.6	-0.0106507005572824	0.00763584286653738	-0.00108081831243682	0.00294374025406823	-0.00108216507949197	0.00293905017982167	-0.00674908183621752	-0.0119279259615635
7.7	-0.00994151251380942	0.0098244440653639	-0.000654519552694771	0.00306813230120955	-0.000655850833828011	0.0030670666603856	-0.00726851526425651	-0.0123701642393049
7.8	-0.00847490741511445	0.0116483692354063	-0.000230926882291008	0.00312024454043349	-0.000238749373149022	0.00312664574738332	-0.00793825140398204	-0.0125968163738285
7.9	-0.00645818139960096	0.0131204765500648	0.000207638596179126	0.00313128651869328	0.000215555863183104	0.00313282758831872	-0.00843998378460215	-0.0124196506703419
8	-0.00369024636690673	0.0136301021730539	0.00064975719476854	0.00306594742964923	0.00064981046433884	0.00307084422168735	-0.00835759379380786	-0.0128495355178036
8.1	-0.00178729057716137	0.0138449979392387	0.00106288383557925	0.0029505560845803	0.00108201557733732	0.00295173884902771	-0.00989188090532383	-0.0135241986627429
8.2	0.000603098323797313	0.014067784714467	0.00146828127681064	0.0027723263201285	0.0014775610332388	0.00276518206361245	-0.0112598938725228	-0.0129807949550386
8.3	0.0030719282972271	0.013656889209367	0.00184627043478484	0.00253669500755935	0.00184455581032857	0.00255023618656468	-0.0123205492576232	-0.0121981109123349
8.4	0.00539972606478915	0.0129569719376209	0.00218532927440557	0.00226239169054023	0.00218229790973332	0.00226215132219369	-0.0131806241414956	-0.0110427347267767
8.5	0.00809820445484478	0.0113972886848964	0.00247567629351835	0.00193116369673674	0.00247476502830524	0.00193434665318066	-0.0129013800056925	-0.0101632223496085
8.6	0.00938047488173512	0.00909546009577929	0.00272206829508538	0.00157134760336089	0.0027316010029207	0.00156484491567078	-0.013745198286414	-0.0104135754157204
8.7	0.0104846657760044	0.00717529968485293	0.00291053170368865	0.00117049023013397	0.00291609285747914	0.00117123965442802	-0.0149491458660809	-0.00974542996155257
8.8	0.0114055080016897	0.0049149780142158	0.00305068840338712	0.000760112807739425	0.00305650463474965	0.000751368044612055	-0.0160978099808265	-0.00879670082634487
8.9	0.0119793589607521	0.00239841220185916	0.00313138191660559	0.000324709972947065	0.00313051890125751	0.000322455679548299	-0.0169110130623403	-0.00711207983803443
9	0.0124756575005316	-0.000675438392806265	0.00314123262092839	-0.000118977693796357	0.00314437540934761	-0.000114859293572698	-0.0161614231162179	-0.00536819066099264
9.1	0.0115320098000338	-0.00427480711177577	0.0030994075518343	-0.000559226808301439	0.00310223347472947	-0.00054629522004276	-0.0157565951739903	-0.00485002547849488
9.2	0.0098720348803956	-0.00728385309186257	0.00299371649251858	-0.000979342128131245	0.00300140471636424	-0.000982189179890553	-0.0153728604758572	-0.00404457870708533
9.3	0.00752856429584333	-0.00998380912318661	0.00282722096456378	-0.0013877685721452	0.00282651022925372	-0.00139277493727676	-0.0147884690539465	-0.00342410307089733
9.4	0.00453181886438061	-0.0119397451046933	0.0026055188103868	-0.00178033295565568	0.0026120137505379	-0.00177268914792997	-0.0142036699279108	-0.00281147898117706
9.5	0.00135084072028499	-0.0134744718779276	0.00233402219733779	-0.0021158995963191	0.00234146209956342	-0.00211721320271454	-0.0130666508887276	-0.00291087747193043
9.6	-0.00308435767695313	-0.0140469528907819	0.00201880041696307	-0.00242604951463513	0.00201912704665229	-0.0024250621300293	-0.013694534845562	-0.00354473485075345
9.7	-0.0071080492621553	-0.013097472038582	0.00165039615889142	-0.00268117374518632	0.00165598377561825	-0.00268848770470441	-0.0144455849574644	-0.00303634119150258
9.8	-0.010757797087681	-0.0114544657960926	0.00126426699617836	-0.00289362037048138	0.00126995615037048	-0.00288506346845773	-0.0150310074375325	-0.00218037879870951
9.9	-0.0140057164205221	-0.00893767343144185	0.0008584230872321	-0.0030364297018037	0.000851053059175024	-0.00303522772890677	-0.0154853974266192	-0.000756163922212582
10	-0.0163170404552426	-0.00615952823446365	0.000425576516678294	-0.00313244754020954	0.000418088954409692	-0.00314499142199431	-0.0146181632023454	0.00045871727913724
10.1	-0.0189791131538595	-0.00303146154331207	-2.2966320533993E-05	-0.00316587690119123	-3.32714474834707E-05	-0.00316047881940482	-0.0146004715651313	0.000533220180760835
10.2	-0.0206876980885339	0.00120857622497598	-0.000472988852837859	-0.00312981407392068	-0.000476421707516268	-0.00312702676892342	-0.0147439690269047	0.00135629762990524
10.3	-0.0213159488669305	0.00575977866446331	-0.000909464534673105	-0.00302509865035337	-0.000901306388954865	-0.00303420992065154	-0.0146184874396811	0.00236548705256506
10.4	-0.0208560870558087	0.0104899660202509	-0.00131188556518574	-0.00287145159816671	-0.00131016882058461	-0.00287768603663149	-0.0139932158267962	0.00359261372906557
10.5	-0.0190153014746715	0.0147162576625305	-0.00171047919241394	-0.00266928356122734	-0.00170735578430295	-0.00265619594746637	-0.0121484821992358	0.00419032691470038
10.6	-0.0171604165191583	0.0185065715238077	-0.00206428607333948	-0.00239517787121186	-0.00206208704204994	-0.00239902324212948	-0.0113478122326959	0.00362489656558209
10.7	-0.0142628810276359	0.0223992549284713	-0.00238165209241778	-0.00209116377298877	-0.00237813584326585	-0.00208585232314571	-0.0108059328845224	0.00349528895558252
10.8	-0.010516619814514	0.0256726128486082	-0.00265329336316822	-0.00172802431949327	-0.00264806833438373	-0.00173700707398637	-0.0105605367626395	0.00332726672382079
10.9	-0.00607133869176813	0.0284150771381717	-0.00286318742963049	-0.00134908261738508	-0.00286840474596485	-0.00134833999954148	-0.0104410275807051	0.00367792403839467
11	-0.00051310759532323	0.0298716640214317	-0.0030195019037307	-0.00092855120486641	-0.00302437951775745	-0.000935316390736023	-0.00926057967527572	0.00374583050401511
11.1	0.00441251832313002	0.0302823604149526	-0.00312865910257041	-0.000503162703329173	-0.00311774121046694	-0.000500299205535634	-0.00931068354197016	0.00294003935714595
11.2	0.00991802647848938	0.0301112201239413	-0.0031586798912308	-6.1861218006833E-05	-0.00316587815209959	-6.67136563667029E-05	-0.00943869481096726	0.00301098045586397
11.3	0.0156523657950042	0.0286160592951144	-0.00313065624173971	0.000390819213624317	-0.00314227827318598	0.000380751531988987	-0.00931980540908643	0.00333938989398675
11.4	0.0209162325578043	0.0259742805858887	-0.00305400094639343	0.000821149027820033	-0.00304904694937036	0.000828739776368255	-0.00896783559752922	0.00390505009477872
11.5	0.0259257480033915	0.0218498572474587	-0.00291057056677527	0.00123645330881853	-0.00291334730269331	0.00124678319938281	-0.00757989814849636	0.00369546516451735
11.6	0.0292207127639198	0.0166913966175974	-0.00271564430520911	0.00163170433774838	-0.00271561878156283	0.00163466088575164	-0.00755338299622047	0.00257935480012304
11.7	0.0318052822953293	0.0114251321998932	-0.00245041639363014	0.00198924036336819	-0.00245095853027299	0.00199789324593346	-0.00772356306353622	0.00228957605282597
11.8	0.0335134493937733	0.00564855532305186	-0.00215124234975106	0.00232247683048543	-0.00215537297739268	0.00232419710508606	-0.00771316405928015	0.00238427448783005
11.9	0.0342988507024572	-0.000323779347811978	-0.00179954901113183	0.00259868793308298	-0.00181262238699968	0.00260305677532437	-0.00722861232815918	0.00320017442759537
12	0.0342327459297634	-0.00696049214256063	-0.00142313319317183	0.00282543583866823	-0.00142252847681997	0.0028268538043915	-0.00527808265854704	0.00308416135727307
