# GHZ S RI R 50
0.2	0.00612507284890499	0.00143949133626816	0.00304609652299098	-0.000898613936997059	0.00305646153913101	-0.000891813443988373	-0.0137501362634043	0.00515501271072538
0.3	0.0063996357314083	-0.000642653795421938	0.00290115792136043	-0.00132177947416504	0.00289392404147178	-0.00130884736459234	-0.0130006739478584	0.0052208775018127
0.4	0.00612202525996131	-0.00250857166128934	0.00266875475457385	-0.00169282554151205	0.00267401178794272	-0.00170138003808285	-0.0125377326323966	0.00553445707111764
0.5	0.00500882675782637	-0.00383257083309537	0.00240993761753262	-0.00204791728824402	0.00242145622590479	-0.00206014490663633	-0.0125352560723352	0.00623141438026729
0.6	0.004319155270072	-0.00457117718666038	0.00209803778767423	-0.00236207241582751	0.00209725026279405	-0.00236921316874376	-0.0117794086646859	0.00728010859679656
0.7	0.00323859180116619	-0.00545182997308026	0.00175085293067923	-0.00263910543843421	0.00174889949222563	-0.00263930335695439	-0.011155286813582	0.007805607400155
0.8	0.00197779320161537	-0.00594880973383017	0.00136585680396545	-0.00285542491759577	0.00135327506477327	-0.0028599638610227	-0.0106376212221782	0.00845046449686712
0.9	0.000685150368330184	-0.00617480771262286	0.000949973254735669	-0.00301796618197144	0.000951006217432775	-0.00302864751320905	-0.00997166835374677	0.00894759393992263
1	-0.00111469494940979	-0.00635463039602214	0.000526563121690122	-0.00312187277391807	0.000516715514945002	-0.00312261330192877	-0.00986885415145594	0.00906441671580479
1.1	-0.00274053681200349	-0.00531677983353207	7.0861643317468E-05	-0.00315037241803287	6.73585151889191E-05	-0.00316799540702255	-0.00980659644539486	0.0103718728014208
1.2	-0.00380873920184015	-0.00474659984012148	-0.000370066188132742	-0.00313913672572191	-0.000370876643998193	-0.00313706398626143	-0.00879957568433572	0.0113085489531433
1.3	-0.00514223684371875	-0.00435313948650315	-0.000795771391367173	-0.0030561042305275	-0.000799005082962656	-0.00305810661544519	-0.00736249897732261	0.012000652007264
1.4	-0.00629915062484283	-0.00385439112692698	-0.00121602874302672	-0.00290879537823609	-0.00121481551509831	-0.00291431875897557	-0.00565561698245364	0.0119708571783348
1.5	-0.00713194833902185	-0.00262249475947055	-0.00161713905639058	-0.00271306558313772	-0.00161552875268989	-0.00272155179952504	-0.00461242720970406	0.0118069144360854
1.6	-0.00666024347646497	-0.000971306636932142	-0.00197575457502092	-0.00246036279086506	-0.00197596349250133	-0.00246558616703822	-0.00346655851391746	0.012057284135922
1.7	-0.00602321858428655	0.000258410467139382	-0.00230287105085109	-0.0021650350395389	-0.00230383868243296	-0.00215878725019043	-0.00257006186875717	0.0119976818511491
1.8	-0.00516232603516633	0.00154890755260664	-0.00257355023505168	-0.00181510107472667	-0.00258448978859571	-0.00182073541009362	-0.00180134807237091	0.0119413221160438
1.9	-0.00405488824536283	0.00240892990298145	-0.00279905108509818	-0.0014453035544449	-0.00281147172987758	-0.00143917163835319	-0.00119295523631242	0.0117019147621801
2	-0.00325452553018733	0.00323531906456267	-0.00297334700806658	-0.00103821609392582	-0.00298294981880576	-0.00103352662103729	-0.0013272488369928	0.0118495727327835
2.1	-0.0015479620453848	0.00407637177522525	-0.00308683336887484	-0.000612904253715407	-0.00308275651673827	-0.000614885626070962	-0.000426048988453384	0.0126904495866036
2.2	0.000118624491658714	0.00402082367141094	-0.00314549065691783	-0.000176071799692155	-0.00315676707801035	-0.000178919337915243	0.000880235813021765	0.0127560206046978
2.3	0.00158112495341141	0.00353427710902631	-0.00314170821740875	0.000266417456237149	-0.00314139573760393	0.000259548577868983	0.00208027257057081	0.0124255536474869
2.4	0.00287637616641669	0.00265694363965525	-0.00306962599795453	0.000703654824074802	-0.00307215483575597	0.000699402408734159	0.0032290825518784	0.0117411866648828
2.5	0.00343454644105	0.00143435266021486	-0.00293420787853602	0.00111329559624996	-0.0029450885549434	0.00111963716252766	0.00352876012943966	0.010679378552938
2.6	0.00417171796418212	0.000743088790955531	-0.00276331542883958	0.00151679446032664	-0.00275973516021252	0.00150449810324847	0.00392898884075426	0.0106029022683527
2.7	0.00501447765724851	-0.000511885057038534	-0.0025184504224398	0.00188860623585962	-0.00252372317668246	0.00188860567841375	0.0046010746001624	0.0102062630264405
2.8	0.00569185117254379	-0.00206386193526367	-0.00223668803373612	0.00221597214576474	-0.00222890733860159	0.0022257660433199	0.00522030365207751	0.00984717635969164
2.9	0.00609999180501196	-0.00401237825897836	-0.00190433043798996	0.00251588909910596	-0.0019006251924613	0.00251547241216528	0.00598654003597416	0.00938388221475518
3	0.00569793692799997	-0.00595653604252351	-0.00152062734880509	0.00275359594559285	-0.00153541622741422	0.00275965027936992	0.00631890703444722	0.00910432025287765
3.1	0.00548438846662872	-0.00768371957702507	-0.00112950558467623	0.00293218336921084	-0.00112487065300222	0.0029405320189412	0.00735390672629676	0.00921550515372009
3.2	0.00456287555200954	-0.00974799196516618	-0.000709806227135112	0.00306964023648336	-0.000711548049950693	0.00306902568744496	0.00824532879326547	0.00879150202505769
3.3	0.00309055305504667	-0.0116474816673266	-0.000272506093782663	0.0031407355818305	-0.000270848051448278	0.00313700165997665	0.0091766856733501	0.00819305105124526
3.4	0.0010850036325022	-0.0132579671140201	0.000173853597579144	0.00313714626937809	0.000167601756642011	0.00315369330333117	0.0100578825410867	0.0071153520653945
3.5	-0.00168355169765813	-0.0143191014830594	0.000597880640268253	0.00309579987444206	0.000603477978693271	0.00309588764179939	0.00996545949888031	0.00588396107180865
3.6	-0.00407479211052063	-0.0144169556470539	0.00102587651682766	0.00297604123415525	0.00103406797093444	0.00297574268950859	0.0103584785940423	0.00557391643790609
3.7	-0.0065599073353178	-0.0144867022469143	0.00143633644196399	0.00279689467675119	0.00142671391650406	0.00281054712036457	0.0110542554023811	0.00465549562580534
3.8	-0.00919916646482615	-0.0139778333925401	0.00181568404322608	0.00257138991949238	0.00181806583710792	0.00258055013908205	0.011500348434968	0.00346629884193206
3.9	-0.0116678587911054	-0.0130053417295168	0.00216358319936346	0.00229871772812795	0.0021563166402714	0.00229692084978455	0.0115822107627257	0.00199279309578652
4	-0.0143060835141333	-0.0113374247499532	0.00244802978643279	0.00197636017216894	0.00245248443311238	0.00197393481930433	0.0106802141435407	0.000948909955307908
4.1	-0.0158340746227629	-0.00887432453055	0.00270046465637102	0.00161905366416805	0.00269920944007972	0.00161978629949012	0.0106934691339528	0.00106408102959127
4.2	-0.0169893544956252	-0.00665533674744992	0.00290228157048497	0.00121835350897612	0.00290677527009069	0.00120964165075492	0.0111695314588071	0.000518941756490149
4.3	-0.0178691021033516	-0.0043024007372143	0.00304712230816566	0.000805618205079891	0.00305357155942794	0.000797822787895536	0.0115545965957677	-0.000403785025644883
4.4	-0.0184468521819708	-0.00187690236079619	0.00312398755948889	0.000370682987826119	0.00312636958709706	0.000368430023704752	0.0116626706659417	-0.00167966056274104
4.5	-0.0191251646303786	0.000813149756967566	0.00314790791535072	-6.53787292218628E-05	0.0031532843319197	-6.87385663767242E-05	0.0107799046773064	-0.00285300519956602
4.6	-0.0187424365976365	0.00410528837433307	0.00310788765534391	-0.000509915582243442	0.0031090809223505	-0.000496973550312203	0.0104019041077465	-0.002983274270785
4.7	-0.0176973401365634	0.00687161848124837	0.00300365774065676	-0.000931225345951944	0.00301899966241549	-0.000940824042575519	0.0102909233531539	-0.00360027602128637
4.8	-0.0162805608795357	0.00945130060126855	0.00284304038992454	-0.00134700586592363	0.00285155086694482	-0.00135308781755932	0.0101108155930886	-0.0042123852402737
4.9	-0.0141950372148401	0.0116079267275861	0.0026232164527487	-0.00173210171139933	0.00262738444814184	-0.0017291800635465	0.0100201814259186	-0.0049747760045466
5	-0.0120934517659898	0.0134158051780279	0.00236590497421227	-0.00209084639774129	0.00236953163997153	-0.00208816513482086	0.00945698224228599	-0.00554044307881386
5.1	-0.0087604397567301	0.0149317995223066	0.0020524264811639	-0.00240498763784714	0.00205473218986723	-0.0024036224909677	0.00993314358583457	-0.005597827820817
5.2	-0.00556083936906702	0.0151791039491381	0.00169333644964121	-0.00265572381636502	0.00169506104948432	-0.00266087865952742	0.0104427383587146	-0.00662443938759899
5.3	-0.00259651329907844	0.014932703376513	0.00130587444371424	-0.00287245426533868	0.00130901319856981	-0.00287038177311558	0.0104902039135672	-0.00781238507393139
5.4	0.000157166287227433	0.0141579609348683	0.000879963601393514	-0.00302229607229266	0.00089719730466454	-0.00303352166067314	0.0101753013040004	-0.00931507447067215
5.5	0.00218597231512201	0.0133589152773459	0.000461785096378117	-0.00312181215351705	0.000471872454888386	-0.00313127208577331	0.00856886018110675	-0.0102860084272776
5.6	0.00503694571780561	0.0124048408975407	2.16440155180537E-05	-0.00315546993638297	1.30960764344142E-05	-0.00315869679470151	0.00812731826244285	-0.0100028621206228
5.7	0.00721416539128554	0.0103183222091444	-0.000410129108857882	-0.00312502917307409	-0.000426785738956855	-0.00312870095654129	0.0079036275364157	-0.0105359180455004
5.8	0.00870487986079214	0.00800509423132273	-0.00085791613592279	-0.00303022641759416	-0.000861463242691928	-0.00304425508407292	0.00752135619300897	-0.0114122858221491
5.9	0.00966358034336143	0.00540756205646432	-0.00126562270281219	-0.00288923136772504	-0.00127387723195206	-0.00288914384355964	0.00686917771955354	-0.0128158505125059
6	0.00921182149231676	0.00266867453012409	-0.00166391608820895	-0.00267911229010757	-0.00166034799392424	-0.00267928262581904	0.0043595894132364	-0.0143441424907626
6.1	0.00888801460030531	0.001023119884728	-0.00201819984306376	-0.00242567617815521	-0.00201984172841812	-0.00242166252796119	0.00218895752537298	-0.0135313061981428
6.2	0.00834358243300021	-0.00114012137017679	-0.00233296435330888	-0.00211181916183143	-0.00233669015306301	-0.00212371856942179	0.00102851296558441	-0.0129103738491304
6.3	0.00744721855202571	-0.00316454590117899	-0.00261194260052804	-0.00177521517706235	-0.00262108859514596	-0.00176945190510316	0.00037173161341045	-0.0124076550685811
6.4	0.00618718113400646	-0.00532652296324206	-0.00283752285586393	-0.0013818057247782	-0.00282778400253244	-0.00138673234740894	9.35549819887183E-05	-0.012516880709574
6.5	0.00411848225317315	-0.00683389452076437	-0.00299273940794867	-0.000977851719856277	-0.00300061383071612	-0.000973356230727506	-0.00099487644420595	-0.0123720219507286
6.6	0.00276301039637531	-0.00796825314718723	-0.00310368332810506	-0.000550908627771859	-0.0031053255901139	-0.000554895127037888	-0.000567902129191229	-0.0118990138133588
6.7	0.000591749192609642	-0.00903266494682338	-0.00315349080156531	-0.000109842498249366	-0.00316235841226373	-0.000103531839228488	-0.000767118345827925	-0.0124289520774958
6.8	-0.00175536716933531	-0.00919337294943966	-0.00313005242703265	0.000333380726024141	-0.00314116253137305	0.000338461646132061	-0.00139614124308471	-0.0126654279789906
6.9	-0.00400111521995373	-0.00895869084264397	-0.00305326022219555	0.00076669282411693	-0.00305624981018929	0.000769093477946201	-0.00209669400869282	-0.0131309293564609
7	-0.00677224567903529	-0.00775469724969958	-0.00291820449324877	0.0011894389617131	-0.00293107722551243	0.00118725811794794	-0.00423596966824506	-0.013025608358175
7.1	-0.00795971132583614	-0.00565125598131807	-0.00273662729736447	0.00158153196955956	-0.00273292882344611	0.00159021104573086	-0.00469005349491432	-0.0112287271417394
7.2	-0.00909186253541236	-0.00413169628955268	-0.00247712104027187	0.00194894724312286	-0.00248365912029219	0.00195104983480052	-0.00443381595363746	-0.0105442424745947
7.3	-0.0102204296380523	-0.00222933883112662	-0.00218017933203435	0.00226740208754025	-0.00219140180473058	0.0022724973854485	-0.00400594740174806	-0.0103099498475515
7.4	-0.010929931202087	-0.000233331301801006	-0.00183773892129567	0.00255127174917762	-0.00184460033991033	0.00256493274897593	-0.00348143177136247	-0.0111197988969076
7.5	-0.0120806683260418	0.00189308304053922	-0.00146719216110723	0.00279181555135242	-0.00146015319123839	0.00279920032089797	-0.00472662440473178	-0.0127916150566467
7.6	-0.0117885590896799	0.00512882730309564	-0.00105851700201495	0.00296572677313692	-0.00105991197602469	0.00296102957163733	-0.00575857191205861	-0.0125532407307447
7.7	-0.010872662687908	0.00739429712378525	-0.000630104852568988	0.00308510141450368	-0.000631450327972046	0.00308404350158738	-0.00664165918839717	-0.0133270789552019
7.8	-0.00927611489151681	0.00938615129001338	-0.000203613447162533	0.00313297828909408	-0.000211404996283247	0.00313947180456549	-0.00798196761486583	-0.0137283332983761
7.9	-0.00710202610839386	0.0107158656956708	0.000239608756993041	0.00313818150817107	0.000247564159241126	0.00313964766537004	-0.00962032475748122	-0.013864196863428
8	-0.00506759739903527	0.0120135174757566	0.000680876130313425	0.00306025318008266	0.000680978824836196	0.00306515081134522	-0.0121908608919486	-0.0127021002888516
8.1	-0.0014908185314501	0.0125999530536183	0.00108818546172273	0.00294229358719176	0.00110733212666882	0.00294331435671138	-0.0123652924528122	-0.0106227069393245
8.2	0.00136816854449458	0.0119598749653373	0.00149305450692572	0.002760685498372	0.00150227586775563	0.00275345738964735	-0.0123885418991414	-0.00971018091481654
8.3	0.00389355762773085	0.0110187073902015	0.00186931431992428	0.00251936041864057	0.00186772438415932	0.00253291539113491	-0.012469499401691	-0.00903193782285377
8.4	0.00618345337828128	0.0095566802362852	0.00220288933694445	0.00223843448474489	0.00219986058403223	0.0022382227131549	-0.0126746848454454	-0.00898216372894739
8.5	0.00743923316377209	0.00805210253886665	0.00248441256262765	0.00190917951753357	0.00248352624209375	0.00191236234001832	-0.0146168246385628	-0.00850490928935772
8.6	0.00966350490295055	0.0067333004437745	0.00273193950703529	0.0015486533490153	0.00274141285879587	0.00154208186874758	-0.0148903515794301	-0.00622838792031152
8.7	0.0112562966807077	0.00407111679432528	0.00291576248614343	0.00114374258665931	0.00292132094598921	0.00114444333446736	-0.0143930118307401	-0.00519567217478457
8.8	0.0120144499048961	0.00122593989791987	0.00304908191614669	0.000732251362035593	0.00305480868632067	0.000723480375420194	-0.0139871066464932	-0.00472746561852502
8.9	0.0122701891607975	-0.00192238787414341	0.00312340540918853	0.000300150684513734	0.00312252836007139	0.000297910357190668	-0.0135088870069692	-0.00488879861295762
9	0.0112566244749407	-0.00503336433149604	0.00313451975589348	-0.000142219192359384	0.00313768747776871	-0.00013813190175583	-0.0145265446769742	-0.00514575030608425
9.1	0.0105047198719729	-0.00763294793360257	0.00308442478167893	-0.000585494473919419	0.00308735872364339	-0.000572629857794969	-0.0146648932518557	-0.00399625279973647
9.2	0.0088164590750361	-0.0106116293161467	0.00297161698712023	-0.00100037661082807	0.00297924562556741	-0.00100327615704247	-0.0146736025124557	-0.00359581142109496
9.3	0.00639971776623811	-0.0129632416248601	0.00280204451221402	-0.00140245644777658	0.00280129882338522	-0.0014074316960154	-0.0148156466575407	-0.00298446713228385
9.4	0.00356137955671974	-0.0149001374566345	0.00258056227883921	-0.00179101263580976	0.00258708267334821	-0.00178345127242388	-0.0149434764621773	-0.00259808815834302
9.5	-0.000157754495073352	-0.0155894541635053	0.0023025148679177	-0.00212604257757666	0.0023099037744949	-0.00212741701385473	-0.0160235179638228	-0.00142036687533201
9.6	-0.00291576668705594	-0.0156328166716319	0.00198403687406119	-0.0024239460712442	0.0019843689741255	-0.00242296877579426	-0.0152962093906708	0.000542304204924034
9.7	-0.00635252154521467	-0.0155900356970011	0.0016190314079657	-0.00267150742235644	0.00162452495789754	-0.00267880247574782	-0.0143901580845757	0.00128131323004841
9.8	-0.0100000187742927	-0.0145470731708167	0.00123566990075762	-0.00287903970535162	0.001241369546623	-0.00287058672999921	-0.0136547448318688	0.0017036583220662
9.9	-0.0134070827913676	-0.0126500056308449	0.000830318592590317	-0.00301727986996475	0.000823017779655934	-0.00301603682991854	-0.0131849437049367	0.00149041776957141
10	-0.0170332356956762	-0.00967312703837304	0.000401436911129523	-0.0031009654319441	0.00039395283749635	-0.00311332601598655	-0.014419838258815	0.00157332244602602
10.1	-0.0187984486024401	-0.00562691684140451	-3.48963488678315E-05	-0.00313239225414084	-4.50720139068858E-05	-0.00312701149451385	-0.0142197026076233	0.0032727165273818
10.2	-0.0200488479361738	-0.00191561509724175	-0.000479146315755047	-0.00309636744528963	-0.000482534540416187	-0.00309359642845294	-0.0133861827532712	0.00394484359143338
10.3	-0.0206467888492837	0.00223812319345439	-0.000910009417952289	-0.00299003257168915	-0.000901968220545225	-0.00299907485539653	-0.0125273106250907	0.0042034863080387
10.4	-0.0202867585507191	0.00633916083472512	-0.00130393278038511	-0.00283343801887144	-0.00130225354637698	-0.00283960230555154	-0.0117128085786632	0.00349503824194141
10.5	-0.0196721734172939	0.0107474217775011	-0.00168839603867855	-0.00263770167441619	-0.00168531698074988	-0.0026247714870735	-0.0127973660431882	0.00305681864938122
10.6	-0.017166423967035	0.0151541746479964	-0.00204135412063273	-0.00237189097377244	-0.00203917513164016	-0.00237569517799367	-0.0128965225422267	0.00401874263531937
10.7	-0.0141875346451902	0.0187910358043361	-0.00235532020547027	-0.00207110204892441	-0.00235184444463941	-0.00206584339168273	-0.0128782352297614	0.00472568005109803
10.8	-0.0103023385423279	0.0220640676552376	-0.00262227354894945	-0.00171332213617785	-0.00261709157741001	-0.00172220078305742	-0.0125125459303869	0.00566919239467413
10.9	-0.00567419504152438	0.0243213562191453	-0.00282854340265342	-0.00134366826336276	-0.00283370757052894	-0.00134294980775585	-0.0118831026291457	0.0059252961203064
11	-0.00111599595944906	0.0260305786019437	-0.00299178282945979	-0.00093141063416096	-0.00299659753195829	-0.000938137681405033	-0.0126370047842977	0.00659859024912853
11.1	0.00495274824840823	0.0268218621874613	-0.00309988417326045	-0.000505366423335393	-0.00308906905297678	-0.000502505043545834	-0.0114492547248728	0.00849936844429867
11.2	0.0106010243675287	0.0257046653446567	-0.003128401289234	-7.07071566139898E-05	-0.00313551647517699	-7.55348661083219E-05	-0.00965443310934687	0.00901589651025219
11.3	0.0158086686886405	0.0236579179423957	-0.00310313941034665	0.000374282749214945	-0.00311461182642752	0.000364260845860096	-0.00773846597410409	0.00886836677074511
11.4	0.0205187715882723	0.020606136782873	-0.00303345532115592	0.000799992790241427	-0.00302857724411083	0.000807546377588073	-0.0061553487855614	0.00777830638058782
11.5	0.0240639145474599	0.0170546595017124	-0.00289076802030277	0.00121791233409143	-0.00289355283854652	0.00122815082163317	-0.00648077829298427	0.00683928360925131
11.6	0.0280702940022667	0.0129464483567053	-0.00269635995831611	0.00160391957464807	-0.00269634763996836	0.00160684745429188	-0.00530597484251347	0.00698348453552569
11.7	0.0308810856279261	0.00750577480197429	-0.00243940274244219	0.00195672043759235	-0.00243999007745574	0.00196529054218897	-0.0039284597816634	0.00567444814441268
11.8	0.0325672096864915	0.00172620285993768	-0.00214806064185719	0.00228940238112383	-0.00215216773286049	0.00229108201483442	-0.00312990204125305	0.00379828260442303
11.9	0.0333235541198049	-0.0045487341411888	-0.00180034939523885	0.00256764938197433	-0.00181334444972503	0.002571907780322	-0.00321283262859278	0.00139823129870078
12	0.0318385724847283	-0.010271465638614	-0.00142771921055018	0.00278762544459055	-0.00142713001394043	0.00278903323353997	-0.0059274001933507	0.000427965407980022
