# GHZ S RI R 50
0.2	0.00580862114118558	0.00131078811581933	0.00304800657222125	-0.000898079969032408	0.0030583748203718	-0.000891272441381153	-0.0140993243599654	0.00500190388899677
0.3	0.00615394844677505	-0.00060462601194943	0.00290364801735315	-0.00132145506066137	0.00289640391567559	-0.00130851731730618	-0.0132798646372261	0.00523499372656852
0.4	0.00593615205785009	-0.00223711496363137	0.0026719133165593	-0.00169307398945573	0.00267717901968058	-0.00170163360061976	-0.0127517242353762	0.00578727173825413
0.5	0.00530217477388533	-0.00356059478410482	0.00241312408925157	-0.00204962387059264	0.0024246585162531	-0.00206186237105946	-0.0122347890592104	0.00648353970293938
0.6	0.00442567071588171	-0.00471127918984358	0.00210049573370653	-0.00236404493215892	0.0020997086272512	-0.00237119283927508	-0.0116473330702372	0.00706620891938806
0.7	0.00313771060813523	-0.00550262635558419	0.00175331672333159	-0.00264155267188726	0.00175136123072466	-0.00264175123478373	-0.011254945937828	0.00764170049494706
0.8	0.0017737664869129	-0.00591083239222679	0.00136799968892788	-0.00285870162640613	0.00135540326908814	-0.00286324819818667	-0.0108766254604929	0.00835820005744794
0.9	0.000264898823957916	-0.0059186919067972	0.000951118581927822	-0.00302211145845958	0.000952152434243871	-0.00303280734882134	-0.0104722850203688	0.00908968930747935
1	-0.00122708793298774	-0.0054228789871686	0.00052627042234759	-0.00312542423612363	0.000516411868584291	-0.0031261628368113	-0.0100618394553089	0.00995287925832885
1.1	-0.00239863279990999	-0.0046911362885413	7.09172290248286E-05	-0.00315384503229781	6.74101141178106E-05	-0.00317148741898255	-0.00948233132004632	0.0109754057377677
1.2	-0.00352828550275244	-0.00399384618179709	-0.000370824891018977	-0.00314315700748146	-0.000371636207890221	-0.00314108151908152	-0.00848338968146851	0.0120234107040675
1.3	-0.00459840935774598	-0.00339956138990391	-0.000797633991537667	-0.00305996255030234	-0.000800872513426564	-0.00306196675013736	-0.00673778443983658	0.0128762412965503
1.4	-0.00557072418349388	-0.00294024200391741	-0.00121869255481155	-0.0029117227506767	-0.00121748021971773	-0.00291725317438252	-0.00483903552096544	0.0127498654657264
1.5	-0.00603626788145514	-0.00206003824688791	-0.00161903834866172	-0.00271574104317791	-0.00161742708033261	-0.00272423618052124	-0.00342778153159342	0.012166948460073
1.6	-0.00610529641271362	-0.000981793876582938	-0.00197911966960103	-0.00246386251802627	-0.0019793296231002	-0.00246909387046453	-0.00287567026078868	0.0117778172329042
1.7	-0.00578641231061342	0.000329008986829423	-0.00230748577852164	-0.00216740264228466	-0.00230845209737628	-0.0021611445619332	-0.0023759170750406	0.0117875823424895
1.8	-0.00507899444458128	0.00168077212725224	-0.00257846570003041	-0.0018162094753919	-0.00258942487429787	-0.0018218454455568	-0.0018122949319844	0.0118249413922067
1.9	-0.00407957594487785	0.00278162073791149	-0.0028036582506083	-0.00144578456213897	-0.00281609262350797	-0.00143963759900972	-0.00132243907856384	0.01188887163655
2	-0.00271585144206109	0.00370597761306526	-0.00297933653374622	-0.00103886620122702	-0.00298895521365983	-0.00103416384037909	-0.000811925114888421	0.0121837914696494
2.1	-0.00119825557247544	0.00389066129725397	-0.00309338598875638	-0.000610601126932404	-0.00308930361740728	-0.000612590842919515	-4.21768129128272E-05	0.012287777928707
2.2	7.46144038800018E-05	0.0038548265211775	-0.00315081963726694	-0.000172307461497686	-0.00316211801607283	-0.000175145099857797	0.000834314052679335	0.0123123069745998
2.3	0.00127661679643665	0.00349138242318664	-0.00314616077005883	0.000270914455957587	-0.00314585675507983	0.000264034677642048	0.0017099519905196	0.0120927110560656
2.4	0.00226009126647187	0.00295814864563034	-0.0030738895707889	0.000708907038396613	-0.00307642831440764	0.000704650772795389	0.00247590426380441	0.0118079535621481
2.5	0.00320489007395012	0.00243163745798274	-0.00293734048614034	0.00112137695914574	-0.00294822823417586	0.00112775258008276	0.00320199708054041	0.0115721873229922
2.6	0.00433600542095977	0.00142185876126308	-0.00276297262004121	0.00152457461282188	-0.00275941568891521	0.00151225689098862	0.00412221629572601	0.0111843752720386
2.7	0.00517176763627209	6.82919835171199E-05	-0.00251699775284164	0.00189556291049425	-0.00252227555241084	0.00189557313475798	0.0048528980136731	0.0106374454110334
2.8	0.00577066141069762	-0.0015391756509832	-0.00223422416619739	0.00222283751369613	-0.00222641529087891	0.0022326246594432	0.0054178936383421	0.0101637129468491
2.9	0.0060744539623457	-0.00328151372965143	-0.00190000859146415	0.0025230513889088	-0.001896300728619	0.00252262516978491	0.00608434592430172	0.00987966544850204
3	0.00620050730003765	-0.00508335689688383	-0.00151310367142222	0.00275836780110168	-0.0015278779730285	0.00276446498470196	0.00701724326236416	0.00970338522621829
3.1	0.00591922473489505	-0.00731358531598854	-0.00112310295503103	0.00293456408635552	-0.00111844999312884	0.00294290244847644	0.00799421449443992	0.00917207352812644
3.2	0.00484300317224976	-0.0094056481618947	-0.00070306471765252	0.0030715925283636	-0.000704808119322467	0.00307098177893802	0.00867962825659767	0.00863696694218199
3.3	0.00326945584612152	-0.0113216907034001	-0.000264850783902742	0.00314137698663976	-0.000263201852337918	0.00313763905138573	0.00943535426425137	0.00797580150174974
3.4	0.00111098576627532	-0.0127688155837055	0.000181966856095846	0.00313510682567658	0.000175761430806109	0.00315166184318911	0.0100920895544928	0.00706488150313571
3.5	-0.00115756934348192	-0.013651984253519	0.000602961418546445	0.00309155824166516	0.000608553235243055	0.00309163563611485	0.0105024650037531	0.00604333176551621
3.6	-0.0036891137325092	-0.0144032077775518	0.00103065809478427	0.00297317049223071	0.00103884602397976	0.00297285785935346	0.0107570660077457	0.00500852696264574
3.7	-0.00661524216308033	-0.0144216981636355	0.00144134715144414	0.00279262183842605	0.00143175708314445	0.00280628733236974	0.0109112999267648	0.00409482511503976
3.8	-0.00950799450166095	-0.0136488746736507	0.00181951072801445	0.00256561418612404	0.0018219094133462	0.00257476221315492	0.0109881945316693	0.00321304611810231
3.9	-0.0120419213355069	-0.0121482887486258	0.00216505318337643	0.00229260372598914	0.0021577915589515	0.00229082091827392	0.0109385240578434	0.00240870599422285
4	-0.0138019120951209	-0.0101257810525372	0.00244970013979772	0.00197251835040821	0.00245415009656143	0.00197008813804389	0.0110502211954592	0.00187700286557419
4.1	-0.0151590668081785	-0.00848690820905199	0.00270282563028967	0.00161255543022719	0.00270157251814609	0.00161329046502202	0.011372264005856	0.00107374758326402
4.2	-0.0166651323537666	-0.00650320638130579	0.00290220846174204	0.00121096374003077	0.00290667920117587	0.00120225029792312	0.0114871112487652	0.000216365180128916
4.3	-0.0178854941847322	-0.00413936506342354	0.00304524349268731	0.000798904457651451	0.00305167065003209	0.000791105478668632	0.0114961672692561	-0.000715229122001568
4.4	-0.0187972373100245	-0.00133846525196472	0.00312192424379868	0.000365138308759387	0.00312430045619448	0.000362883294882445	0.0112532390633651	-0.00156067111743333
4.5	-0.0188584883111837	0.00191787848876171	0.00314584292222009	-7.35134878891652E-05	0.0031512073774355	-7.68852630780526E-05	0.011109447065147	-0.00211973089581161
4.6	-0.0182546617252163	0.00459022567331746	0.00310108055314103	-0.000517250858495997	0.00310230599922592	-0.000504334709761592	0.0110473909509169	-0.00298019659649861
4.7	-0.0173885656482539	0.00724553615397182	0.00299558167479062	-0.000935890160159739	0.00301087180281992	-0.000945502932675462	0.0107491161527144	-0.00382050089254135
4.8	-0.0160892104182304	0.00976561671653835	0.00283466577181396	-0.00134994746084552	0.00284314711163102	-0.00135603410758716	0.0103937677290062	-0.00457391941611412
4.9	-0.0142184994067804	0.0120793553148316	0.00261414093285725	-0.00173456998799585	0.00261830725204107	-0.00173166347678579	0.0100073067320742	-0.00519399863481551
5	-0.0115934957657453	0.0140360336020869	0.00235325399904149	-0.002090148659907	0.00235687591572543	-0.00208748486162942	0.00996873345598995	-0.00557973795626856
5.1	-0.00864212457618712	0.0149076401643081	0.00204247249962069	-0.00239951632403193	0.00204477219677144	-0.00239815869561976	0.0100486215630726	-0.00637619012546444
5.2	-0.00594550145861681	0.0154698295309018	0.00168540508004605	-0.00264936295658467	0.00168711906009022	-0.00265450383228858	0.00992225025759354	-0.00710564748062384
5.3	-0.0030456940658262	0.0156857774853596	0.00129876442115138	-0.0028649243177769	0.00130189563463379	-0.00286286159917287	0.00980740505299614	-0.00773761029800431
5.4	-0.000100802300767686	0.0154171795575725	0.000873570344395205	-0.00301218568500218	0.000890729305642335	-0.00302338841465226	0.0096830502158787	-0.00856820856669667
5.5	0.00309801280361666	0.0146337835242529	0.000460761791341839	-0.00310870441367085	0.000470809938942002	-0.00311812213233203	0.00948041199577205	-0.00943581657667746
5.6	0.00565414318286029	0.0124918172004247	2.35435349690834E-05	-0.00314578235039138	1.50238127685767E-05	-0.00314900464109487	0.00883763348436729	-0.0105744490208259
5.7	0.00717437666697627	0.0103897964655404	-0.000407648830260097	-0.00311586766827807	-0.000424254273780566	-0.00311953518961019	0.00782202118758212	-0.0112426306050281
5.8	0.00824314797591394	0.0082605776549682	-0.000853612331980244	-0.00302099787749886	-0.000857140869084438	-0.00303498360027344	0.00685061124858403	-0.0119081692478926
5.9	0.00868988214995005	0.00626409584109769	-0.00125794525606283	-0.00288089105824824	-0.00126617183352792	-0.00288081347728062	0.00555336637965096	-0.0125209017254103
6	0.00912387505677745	0.00475530908906018	-0.00165550792136818	-0.00267621574463056	-0.00165194732644424	-0.00267637935587375	0.00407157740561318	-0.0125155954109299
6.1	0.00958836130509421	0.00235488413593844	-0.00201205616078918	-0.00242200825076081	-0.00201369755740725	-0.0024180044216872	0.0029859068631504	-0.0124481390815658
6.2	0.00906935860257685	-8.73709474406359E-05	-0.00232493602254887	-0.00210841336670052	-0.00232864124333013	-0.00212028501412166	0.00201434756814499	-0.0122236748055728
6.3	0.00813476032466229	-0.00234739946419012	-0.0026025505359583	-0.0017740518418292	-0.00261168001925998	-0.00176831644172112	0.00137687598674305	-0.012103879437915
6.4	0.00666888480587607	-0.00433290410840866	-0.00282907419560496	-0.00138408315262883	-0.00281934673363075	-0.00138898174243766	0.000872760841785671	-0.0121215179627449
6.5	0.0054334324152356	-0.00598614416958831	-0.00298736772972307	-0.000978544625304978	-0.00299523324268918	-0.000974061939706616	0.000726525620349254	-0.0122221927133224
6.6	0.00335226042966167	-0.00793194361949409	-0.00309466647669235	-0.000552166916203724	-0.00309630066798546	-0.000556143932390529	0.000347642311797583	-0.0128370463989585
6.7	0.000781690827430598	-0.00872034060285972	-0.00314480237679978	-0.000114677053990187	-0.00315365632609432	-0.000108397852776398	-0.000462871669332882	-0.0131691373003768
6.8	-0.00175454887096019	-0.00880772902550255	-0.00312357097699885	0.000326626317793505	-0.00313466554185194	0.00033167439696995	-0.00143982397296703	-0.0132960558041664
6.9	-0.00435110419638155	-0.00809840417352229	-0.00304881245471013	0.000760645150959438	-0.00305180019425976	0.000763036850198024	-0.00257134795209547	-0.0131450374578013
7	-0.00591057849661843	-0.00652170040732478	-0.00291064724449102	0.00118253360195304	-0.00292347829149998	0.0011803449357786	-0.00330499960278829	-0.0125701825973036
7.1	-0.00745310222692586	-0.00578387117531355	-0.0027324682180452	0.00156971031118278	-0.0027288032699434	0.00157837279871019	-0.00404316731237915	-0.0123995349533983
7.2	-0.00940763931093023	-0.0042186589430748	-0.00247670681483356	0.00193745102193223	-0.00248323533031915	0.00193953044420657	-0.0048096061689249	-0.0118404588043141
7.3	-0.0110842785229023	-0.00207006128154522	-0.00218148052433689	0.00225675272569748	-0.00219269230264843	0.00226180736923341	-0.00522098202015494	-0.0113741434629823
7.4	-0.0125717942107927	0.000618800373129897	-0.00183940049815643	0.00253989712864318	-0.00184627863785513	0.00255350479801458	-0.00578631660738752	-0.0112348794168878
7.5	-0.0129020177544666	0.00435940390819143	-0.00147456128419784	0.00277728555289066	-0.00146757447043498	0.00278467787780811	-0.00618087247742826	-0.0107834763431368
7.6	-0.0118713995363133	0.00700754317438704	-0.00107042414361518	0.0029569952709663	-0.00107179614177203	0.00295229809750218	-0.00627673544022581	-0.0110082017100294
7.7	-0.0109083184285182	0.00940513106530147	-0.000642063624452458	0.00307948354664859	-0.000643403456183255	0.00307842119203485	-0.00694350783850189	-0.0116038058976693
7.8	-0.00909626829732606	0.0114880928733994	-0.000216194536048362	0.00312905779746678	-0.000224004893196099	0.0031355131210532	-0.00790326712587905	-0.0118534146458438
7.9	-0.00665814852578021	0.013163665117058	0.00022446528831587	0.00313623648577266	0.000232405909282586	0.00313773899490277	-0.00895710298393064	-0.0116095195688532
8	-0.0029716867097225	0.013970114576142	0.000665236233497896	0.00306647113155494	0.00066531305646086	0.00307137348269672	-0.00951841326483828	-0.0111548637592103
8.1	-9.83041124639998E-05	0.0130614061292869	0.00107823369312042	0.00294993080519778	0.00109739910821655	0.00295102591898307	-0.010372228260856	-0.0110906452224005
8.2	0.00208037743326053	0.0122709375883747	0.00148409767210394	0.00276855740182119	0.00149335362599891	0.00276135730953151	-0.0112718631041001	-0.0105634559196168
8.3	0.00410488521094349	0.0113171390572746	0.00186111917410969	0.00252924388195565	0.001859473807032	0.002542805729915	-0.0120448476582928	-0.00998299283444982
8.4	0.00583009496001042	0.0104002152724399	0.00219751835364163	0.00225197021955959	0.00219448482830422	0.00225174520344803	-0.0129656339637555	-0.00933270602905877
8.5	0.00828102445305356	0.00947599702178541	0.00248611556651983	0.00192053687011866	0.00248521881259121	0.00192372584026494	-0.0135919424670459	-0.00817608216902724
8.6	0.0102537130381222	0.00679748444347901	0.00273172161546602	0.00155736908275022	0.00274122345272785	0.00155081220197261	-0.014039393470457	-0.00755203716762258
8.7	0.0110297756528972	0.00416429466979619	0.00291654945125631	0.00115410995428661	0.00292211383500889	0.00115482833132083	-0.0146050049431833	-0.00671562880337956
8.8	0.0112677254512808	0.00160816556346654	0.00305288841053051	0.000742958746446043	0.00305865314153321	0.000734187804159259	-0.0150815901355913	-0.00597273879555596
8.9	0.0109489934068149	-0.00077476044103758	0.00313062105115833	0.000308028688387023	0.00312974688996564	0.000305780695903236	-0.0155108038244944	-0.00509681343755614
9	0.0109039536718211	-0.0027413943235038	0.00313816338783572	-0.000137207972919526	0.00314132781900821	-0.000133111016264133	-0.0154748226429742	-0.00380552389320358
9.1	0.0105001499640431	-0.00583806907553822	0.00309046842051025	-0.000576718737272078	0.00309336643430577	-0.000563827386647273	-0.0151343754920522	-0.00309928187751888
9.2	0.00901801686756848	-0.00857304315576389	0.00298131533462038	-0.00099389236308501	0.00298896984687685	-0.000996776016124974	-0.0148785786751683	-0.00235975591512999
9.3	0.00707682238718277	-0.0110229059363725	0.00281250565377925	-0.00139953284853585	0.00281176963548978	-0.00140452260918384	-0.0144216413661961	-0.00174926762456301
9.4	0.00442761135074721	-0.0130232758996707	0.00258857659864749	-0.00179002425549086	0.00259509653565909	-0.00178243722917018	-0.0141563739246128	-0.0013735984536371
9.5	0.00185330477140282	-0.0141976258997847	0.00231291075251595	-0.00212148559062047	0.00232031493912543	-0.00212283749947798	-0.0137422816026555	-0.000794092101461521
9.6	-0.00177261930415902	-0.0157293416522367	0.00199799992207649	-0.00242547700020801	0.00199833001645467	-0.00242449553269591	-0.0138428889585357	-0.000719028746178676
9.7	-0.00611176746506799	-0.0156131063375921	0.00163065865987136	-0.00267672867263171	0.00163618756204561	-0.00268403549827817	-0.0140484341767515	-0.000125188427290822
9.8	-0.0102927705397941	-0.0143536281072017	0.00124536766247542	-0.0028854334256053	0.0012510677151707	-0.00287694265330571	-0.0141092583604961	0.000484257833757171
9.9	-0.0142629734315192	-0.0117915151252428	0.000840678883880203	-0.00302375498398475	0.000833353808685316	-0.00302252766780771	-0.0144082688784356	0.00115381689660135
10	-0.0167544902369883	-0.00812291925211261	0.000412753971586827	-0.00311483107318117	0.000405270837305046	-0.00312727436131561	-0.0143382036972331	0.00221283580149226
10.1	-0.018739961369652	-0.00520021268048371	-3.15813475579186E-05	-0.00314792782739927	-4.18133451408856E-05	-0.00314253177727175	-0.0141914804574058	0.00262886373674979
10.2	-0.0207121353519624	-0.00135768268146493	-0.00047858321377674	-0.00311042069242526	-0.000481988756189311	-0.00310764039480121	-0.0141857021713236	0.00334285878374236
10.3	-0.0218244286389967	0.00321898468516553	-0.000911010488663102	-0.00300431038523277	-0.000902924142000003	-0.00301338479822048	-0.0139835702583925	0.00409047034633578
10.4	-0.021906065528989	0.00842900215371851	-0.00130802054468395	-0.00285043493033228	-0.00130632537345113	-0.00285663128347617	-0.0136591702445516	0.00475252134099464
10.5	-0.0197858859184366	0.0139712056614494	-0.00170250822594767	-0.00265186782764532	-0.00169939241679223	-0.00263886114663378	-0.0128801734902838	0.00564788989872915
10.6	-0.0166225981360216	0.0178025752265321	-0.0020547734171169	-0.00237857060247675	-0.00205259187568812	-0.00238239565125104	-0.0120526882393207	0.00583422325950438
10.7	-0.0129945519752464	0.0211591555840765	-0.00236835855004433	-0.00207591474543362	-0.00236486004121142	-0.00207063987939274	-0.0112854793727645	0.00605367575801932
10.8	-0.00893141067519543	0.0235980226753494	-0.00263654058156361	-0.00171606391545998	-0.00263135198412535	-0.00172498977972515	-0.0107536880528042	0.00594878658194901
10.9	-0.00485009438923262	0.0256915090541672	-0.00284493448710287	-0.00134164444029724	-0.00285011960611982	-0.00134090817378771	-0.0107332384917689	0.00598583492569628
11	0.000716614542929941	0.0274156633139412	-0.00300174778244088	-0.000922923987058584	-0.00300659698382548	-0.000929649042383798	-0.0102797336432775	0.00663145262536718
11.1	0.00611751029863121	0.0268250432409729	-0.00310768935683435	-0.000500625138276241	-0.00309684492978096	-0.000497777873384847	-0.00976525371513495	0.00666014737901552
11.2	0.0109309329107039	0.0257670776575883	-0.00313732925156506	-6.44950986890632E-05	-0.00314447430626182	-6.93217820237067E-05	-0.00918749171650522	0.00694925020407919
11.3	0.0156807386053383	0.0239433877296491	-0.00311070205831831	0.000383661671095746	-0.00312223310723894	0.000373642945634488	-0.00822004656795835	0.00704175637098853
11.4	0.0198776689501955	0.0214941585781727	-0.00303596086251085	0.000811233645600439	-0.00303104992894331	0.000818784060636849	-0.00748873556604139	0.00684439165231906
11.5	0.0245468786634004	0.0184324151988434	-0.00289201348830192	0.00122288001688556	-0.00289478767395551	0.00123313218086877	-0.00658859677298629	0.00661306999524628
11.6	0.0280961757269953	0.0131421586140647	-0.00270111390356172	0.00161247606486792	-0.00270109695729775	0.00161541182045962	-0.00601858831165406	0.00552875702699383
11.7	0.0299542635557784	0.00792178567975039	-0.00244076655092544	0.00196784461836388	-0.00244133395097992	0.00197643818307806	-0.00585431254552973	0.00464869196714321
11.8	0.0309447599286386	0.00288600264225346	-0.00214571473800258	0.0022998122665639	-0.00214982493456521	0.00230150665967465	-0.00588706187688208	0.00393337483453516
11.9	0.0314353632429044	-0.001664647595281	-0.00179747995693007	0.00257453778876879	-0.00181048299668726	0.00257882773259762	-0.00609585170982454	0.00385451603303692
12	0.0326668046747632	-0.00641691896389115	-0.00142796195183907	0.00279897939912149	-0.00142736860414275	0.0028003908471995	-0.00549638849368442	0.00414656846055692
