# GHZ S RI R 50
0.2	0.00590044599316727	0.00088510102252291	0.00305021197818559	-0.000897535597653922	0.00306058417297764	-0.000890720129751491	-0.0141142008274631	0.00448389477301338
0.3	0.00624696086488836	-0.00093616374552096	0.00290646580325514	-0.00132120857377648	0.00289921046640148	-0.0013082640033447	-0.0132845087558865	0.0048123976456686
0.4	0.00598605327990386	-0.00245683523535281	0.00267530690511201	-0.00169350008155756	0.00268058170111092	-0.00170206564223138	-0.0127580737926722	0.00549138669439156
0.5	0.00549135416660136	-0.00384266707008809	0.00241647361669736	-0.0020513073429889	0.00242802473668972	-0.00206355669940533	-0.0119399982792054	0.00608876319822363
0.6	0.00427389321069477	-0.00512347245577641	0.00210337340072715	-0.00236608621100698	0.00210258723644683	-0.00237324208541744	-0.0116276445129048	0.00629614558704163
0.7	0.00280028592278977	-0.00567359696968664	0.00175616086854099	-0.00264423599474239	0.00175420308234995	-0.00264443534251546	-0.0115269181314026	0.00693254086258728
0.8	0.00140886667926124	-0.00588015215495461	0.0013704358145641	-0.00286224008996684	0.00135782348979845	-0.0028667954127877	-0.0113386048971309	0.00775977771666417
0.9	-7.06512555061198E-05	-0.00568693272424987	0.000952619599807322	-0.00302636890017705	0.000953655443131454	-0.00303707997171135	-0.0111217097129112	0.00874386459232734
1	-0.0011683513052279	-0.00510321868086767	0.000526854880292304	-0.0031294302890153	0.000516983715960475	-0.00313016955661683	-0.0103501990528971	0.0100149298964631
1.1	-0.00234521303499342	-0.00500184525494207	7.13652071130961E-05	-0.00315831827410507	6.78550514611143E-05	-0.00317598611360643	-0.00947279785148506	0.0105063640125813
1.2	-0.0039229748704467	-0.00466452804327644	-0.000371463687348299	-0.00314814403595477	-0.000372276260217311	-0.0031460652378208	-0.00870836405303722	0.011114844379477
1.3	-0.00557817812892267	-0.00426270992811035	-0.000799468859915577	-0.00306486518184125	-0.000802713055996278	-0.00306687212989982	-0.00736462407217872	0.0115903384523911
1.4	-0.00696245723945223	-0.00349442305117605	-0.00122142193652655	-0.00291606373702072	-0.0012202091335211	-0.00292160334637333	-0.00587095434026835	0.0115051610336265
1.5	-0.00727953911944835	-0.00225576982968868	-0.00162213776309078	-0.00272015613018328	-0.0016205248318128	-0.00272866592582985	-0.0042947437273188	0.011030919949361
1.6	-0.00731050888898532	-0.000700012087144772	-0.001983987801704	-0.00246802491288342	-0.0019842001410407	-0.00247326660453594	-0.00395789039976	0.0107430841717863
1.7	-0.00657987051004922	0.00102350450936684	-0.00231340267739996	-0.00217022846049382	-0.00231436696705609	-0.00216395742245778	-0.00341725244623563	0.0111615279966481
1.8	-0.00549482654556475	0.00251811577456469	-0.00258482706072881	-0.00181775512794405	-0.00259581168743613	-0.0018233936440051	-0.00268418122712806	0.0115163039904696
1.9	-0.00415849668495823	0.0036587215832946	-0.00281031349663158	-0.00144639906299733	-0.00282276741623458	-0.00144023015388804	-0.00189394186859795	0.0119060680971428
2	-0.00247541593037067	0.00428955528247787	-0.00298712499149353	-0.0010381344999842	-0.00299676050465091	-0.0010334116145062	-0.000701129696709571	0.0121066420867884
2.1	-0.00123128948567941	0.00432684598426959	-0.00310071559044892	-0.000607326427598948	-0.0030966276530296	-0.000609326278362069	3.13076456577127E-05	0.0117104444450114
2.2	3.59998755906782E-05	0.00446728472837198	-0.00315714401062602	-0.000167642163386904	-0.00316846858756416	-0.000170467335686628	0.000738675272784195	0.0116490985703191
2.3	0.00138149812380994	0.00418291292581431	-0.00315161700165492	0.000276771395579483	-0.00315132410832396	0.000269878162376394	0.00147244408705369	0.0114577503406062
2.4	0.00258981736967019	0.00364200005739795	-0.00307845458624984	0.000716165887800557	-0.0030810063817912	0.000711906286284496	0.00215690608678465	0.0114169295412285
2.5	0.00388890892470748	0.00274496717536941	-0.00293965851812682	0.0011303305503065	-0.00295054953821585	0.00113674314149187	0.00339296332149978	0.0113822450421106
2.6	0.00468577080667821	0.00120152131932777	-0.00276301818066078	0.00153309026532654	-0.00275948558446902	0.00152074794999786	0.0045224289636018	0.0104966790091458
2.7	0.00513019637077641	-0.00020389344075	-0.00251563903080184	0.0019039479675343	-0.00252092343722627	0.00190397079292805	0.00514242956479215	0.0096656456899772
2.8	0.00547016919494698	-0.00169656206116953	-0.00223116429317153	0.00223113262008973	-0.00222332133317774	0.00224091128044403	0.00554360516050521	0.00904313804153706
2.9	0.00567777356790412	-0.00327993193272502	-0.00189469741338121	0.00253075373996153	-0.00189098727602752	0.00253031670148217	0.00612011330518695	0.00879689300482132
3	0.00572236720595105	-0.00515231400529334	-0.00150613307185798	0.00276367758743135	-0.00152089669886414	0.00276981798809421	0.00726031889587274	0.00843203710215721
3.1	0.00501100678696716	-0.00713093055006486	-0.00111611061106182	0.00293878985088601	-0.00111143416778035	0.00294712014664768	0.00789690873363455	0.0075567070488133
3.2	0.00388968412456881	-0.00877478572062509	-0.000695059003683904	0.00307466032936828	-0.000696804716898208	0.00307405404298289	0.00825610200268068	0.00709241306833367
3.3	0.0024377995320787	-0.0103380215277807	-0.000256130194495689	0.00314262248351302	-0.000254491424475022	0.00313887934545593	0.00878634076166389	0.00661558972067551
3.4	0.000544290777109707	-0.011515101995282	0.000190501884497043	0.0031341146370065	0.000184342660445328	0.00315068399051102	0.00938708960096834	0.0060587734324047
3.5	-0.0014193655765194	-0.0125041578714971	0.000610313426507885	0.0030897531291973	0.00061590478217473	0.00308981709068889	0.0102093346363813	0.00510994426567186
3.6	-0.00408493782176868	-0.013171003134394	0.00103865216767627	0.00297040165394003	0.00104683926208738	0.00297006700764332	0.0103421898240698	0.00378511371106525
3.7	-0.00676533261731007	-0.0129535740149024	0.00144886512045501	0.00278782538361395	0.00143931615263113	0.00280151443676826	0.0102817548636852	0.00294400303729753
3.8	-0.00929688656020987	-0.0122067907616286	0.00182580406526854	0.0025592747833144	0.00182822717990673	0.00256841164756866	0.0102422297098223	0.00227352011822047
3.9	-0.0115241849672863	-0.0109660878070281	0.0021699527613186	0.00228554720953333	0.00216269045138885	0.0022837847608347	0.0102860590540928	0.00183333792051299
4	-0.0132921153708624	-0.00954730609830842	0.002454500823266	0.00196457261002725	0.00245894191130025	0.0019621303426593	0.0109706617167294	0.00130469568681335
4.1	-0.0152599905518911	-0.00794789991347274	0.00270551749650217	0.00160249715510138	0.00270426785520287	0.0016032355145051	0.0112693665081413	0.000133711910232489
4.2	-0.0168727092785969	-0.00563858435727842	0.00290235774987987	0.00120062008175512	0.00290679641300661	0.00119190364146218	0.0112970671398344	-0.000733743898492372
4.3	-0.0179663437146987	-0.00311656006521426	0.00304338218757113	0.000788776704651397	0.00304977732560653	0.000780969517459982	0.0113003806146088	-0.00159592481312882
4.4	-0.0186671112433352	-0.000327806824596447	0.00311845047805722	0.000355175424240961	0.00312081639746004	0.000352916540266666	0.0111924260578009	-0.00224033216726761
4.5	-0.018644863354552	0.00247462740237806	0.00313937258313195	-8.37136239416619E-05	0.00314471532835386	-8.70963652188206E-05	0.0116583306407922	-0.00293474264358109
4.6	-0.0186655543825016	0.00506522900939414	0.00309202163182864	-0.00052473246345994	0.00309328051561994	-0.000511851424737944	0.0115566731476772	-0.00441344534362798
4.7	-0.0180575830990061	0.00807664314411059	0.00298562778491452	-0.000941232377953386	0.00300085467522306	-0.000950860233442308	0.0109945940061041	-0.00548801113425638
4.8	-0.0167779907439346	0.0109500490624897	0.00282382846647977	-0.00135343893711724	0.00283227228636596	-0.00135953062836664	0.0103718384052371	-0.00628195074772398
4.9	-0.0146932979687704	0.013552449487661	0.00260211372577958	-0.00173595996728188	0.00260627499025786	-0.00173307239767588	0.00984882374100694	-0.00668891581955135
5	-0.0118600439720883	0.0153596101745794	0.00234089457429025	-0.00208753868061565	0.00234450915758276	-0.00208489136918195	0.0101509035321711	-0.007156119210281
5.1	-0.00903782130581379	0.0164834947003369	0.00203208203152396	-0.00239480891815247	0.00203437629169148	-0.00239345928342689	0.00996078173984064	-0.00829760509254558
5.2	-0.00593449457847385	0.017194577707424	0.00167596373811581	-0.00264305448005669	0.00167766454816658	-0.00264818084450842	0.00956174945494023	-0.00897057773232418
5.3	-0.00273767316011664	0.0171787281582275	0.00129055826127592	-0.00285659486168758	0.00129368119616141	-0.00285454335616724	0.00928724277809716	-0.00942485667277935
5.4	0.000288167741029643	0.0166195981581975	0.000867622527064963	-0.00300175539991755	0.000884707590472177	-0.00301293178849314	0.00924147785742346	-0.00988362139675733
5.5	0.00320800424065249	0.0153362367596854	0.000458202104719688	-0.0030982531252273	0.000468213001294538	-0.00310764193443978	0.00964296423442996	-0.0109450800430705
5.6	0.00512587344347206	0.0136542739263448	2.18703389674641E-05	-0.00313560250742713	1.33765832809196E-05	-0.0031388100335773	0.00868969687659121	-0.0125445803354309
5.7	0.00690440536660718	0.0121023285379595	-0.000407463484406483	-0.00310500693021408	-0.000424013324727761	-0.00310865538120086	0.00732634661726881	-0.0131501477109756
5.8	0.00847868439854052	0.0101211113397635	-0.000850830286678472	-0.0030102573320447	-0.000854347440273466	-0.00302419336429052	0.00609896559704409	-0.0135506446972467
5.9	0.00955604977605146	0.00788765980430911	-0.00125274466628703	-0.00287156978225993	-0.00126094346849158	-0.00287149517462721	0.00478655708604482	-0.0135493018942934
6	0.0103413185409541	0.00519150605583066	-0.00165007208940322	-0.00266841145720052	-0.00164652221337047	-0.00266857398951193	0.00423013150828658	-0.013266457546674
6.1	0.00966832826570424	0.00204896987556355	-0.00200469656314324	-0.00241412532528749	-0.00200633314104407	-0.00241013551151591	0.00340293492335471	-0.0138604964820479
6.2	0.00824073289267233	-0.000190044034935712	-0.00231565541923391	-0.00210244387942875	-0.00231934093476002	-0.00211427649482796	0.00225840415427038	-0.0139624433498396
6.3	0.00679297664249134	-0.00188766655119496	-0.00259235860563362	-0.00177034400484348	-0.00260146250021468	-0.00176463550142209	0.00136702332907918	-0.0139329804542501
6.4	0.00540161871453719	-0.00330105622454973	-0.00281900142435726	-0.00138222589039616	-0.00280930013872431	-0.00138710061861424	0.000871035203027423	-0.0137144943642189
6.5	0.00410621575763502	-0.00495293814811932	-0.00297610636942749	-0.000977350426291213	-0.00298394755572643	-0.000972889462979537	0.00118718484990526	-0.0142371204242954
6.6	0.00190166044283709	-0.0060663919596496	-0.00308264597841796	-0.000554585827261234	-0.00308426855498632	-0.000558550745187448	0.000334304590439138	-0.015277353733563
6.7	-0.000107176244070301	-0.00642211254919807	-0.00313399832349989	-0.000119685319672192	-0.00314283318101466	-0.000113442487206246	-0.000850772147228283	-0.015534999736875
6.8	-0.00218319754800541	-0.00636741760409671	-0.00311405583662166	0.000319878835183259	-0.00312512368751972	0.000324890364000143	-0.00206271255613724	-0.0153604144334977
6.9	-0.00421372026695457	-0.00568310613211417	-0.00303999994525513	0.000752359022257976	-0.00304298214330189	0.000754737070838976	-0.0029869999589	-0.0146284032243035
7	-0.00570644350096454	-0.00485717365217295	-0.00290325201344446	0.00117067484630548	-0.00291603113398346	0.00116846056052452	-0.00277665668241994	-0.0143313845091789
7.1	-0.00786976223648796	-0.00364687128850315	-0.00272915004542677	0.00155675503058522	-0.00272552228539167	0.00156540301188171	-0.00377415618857765	-0.0149066228018517
7.2	-0.00936056407550975	-0.00147533961619812	-0.00247605241434591	0.00192454510721775	-0.00248256980567491	0.00192659866253755	-0.00499226578817367	-0.0145284974735705
7.3	-0.0102456540254983	0.000838597661853738	-0.00218329075130669	0.00224380085577884	-0.00219449035202638	0.00224880572501942	-0.00591484197121525	-0.0139519331156693
7.4	-0.0106339747984284	0.00327471008024627	-0.0018443086389359	0.00252686195130108	-0.00185122036258283	0.00254041081395743	-0.00682399235458659	-0.0131231293493379
7.5	-0.0101611372147111	0.00536997785835459	-0.00148367288472053	0.00276672696283819	-0.00147672785750182	0.00277413629190014	-0.00643093812000037	-0.0122512774298073
7.6	-0.0101118444750648	0.00684203955393782	-0.00108004273790624	0.00294945252237978	-0.00108139572653574	0.00294475598626872	-0.00646492593769972	-0.0129992491566935
7.7	-0.0098030474129292	0.00884924376015369	-0.000652697666052024	0.0030734851454603	-0.000654031992007685	0.00307241908553256	-0.00733684413836841	-0.0135679387480873
7.8	-0.00871173946422132	0.0108066318553062	-0.00022815541639235	0.00312509893862865	-0.000235983111817609	0.00313151743769711	-0.00829683718633835	-0.0136231318629507
7.9	-0.00687075148415323	0.0125056603250218	0.000211415524061723	0.00313555373294351	0.00021934587574024	0.00313708822060604	-0.00889605435437491	-0.0131843515752117
8	-0.00435437572681265	0.0132628098779656	0.000654194323085114	0.00306894197698358	0.000654253470231273	0.00307384472029398	-0.00876959844692781	-0.0134633879981243
8.1	-0.00229992224085957	0.0138574002785048	0.00106737136198224	0.00295299568552068	0.00108652766379054	0.00295415917757963	-0.0101509627768013	-0.0139997190807406
8.2	0.000247709646517162	0.0141620701700707	0.00147336281501392	0.00277415854271598	0.0014826461224461	0.00276699443592551	-0.0114661828338257	-0.0135109904611389
8.3	0.00280275926707008	0.0137975778471392	0.00185191180531179	0.00253753928399829	0.00185021253528187	0.00255109995835301	-0.0125516501054355	-0.0127205244047975
8.4	0.00521940992776002	0.0130919685620768	0.00219121827669695	0.00226188209288176	0.00218818297157173	0.00226164586308396	-0.0134029372790029	-0.0115148870151601
8.5	0.00778306731806581	0.0115345418372142	0.00248111309130985	0.00192967541637368	0.00248020542712542	0.00193286310167947	-0.0131586437301832	-0.0105727161532346
8.6	0.00918513715779174	0.00953184568168864	0.00272768784689687	0.00156879247282746	0.0027372210505297	0.00156226712641065	-0.0138460244342194	-0.0106942122963309
8.7	0.0105619614015337	0.00765073738660529	0.00291560291133021	0.00116646685166828	0.00292117108833108	0.00116720706982169	-0.0149133467649504	-0.0100915161905641
8.8	0.0117414408200967	0.00530161812063382	0.0030547707478436	0.00075488534282188	0.00306057511546015	0.000746121867356466	-0.0159866733886283	-0.00922595014227538
8.9	0.0125490999542129	0.00250953093633325	0.00313411503174807	0.000318697309826276	0.00313324695681471	0.000316443230607714	-0.0167287831282828	-0.00766608316860023
9	0.0129147590707564	-0.000995651433559336	0.00314298889654947	-0.00012548837491758	0.00314614212265549	-0.000121373790645959	-0.0160606419570878	-0.00612514710486239
9.1	0.0117375740957304	-0.00472085264674636	0.00309928882370472	-0.000566460270742915	0.00310214510922659	-0.000553530294717294	-0.0157862401064337	-0.00569649468008883
9.2	0.00977490915678746	-0.00777890016644101	0.00299177065701382	-0.00098611369796446	0.00299945314157827	-0.000988978166865247	-0.0156433583845875	-0.00490320065773771
9.3	0.00717704659913892	-0.0103086649716344	0.0028239458779525	-0.00139370152703741	0.00282322445609801	-0.00139870584671156	-0.0152281227888554	-0.00408852235531762
9.4	0.00410971171943408	-0.0120705137464987	0.00260139533667887	-0.0017854000208706	0.00260790492217547	-0.00177777093401798	-0.0146104455212301	-0.00325629452607569
9.5	0.000809311527356475	-0.0133637114457487	0.00232873191026904	-0.00212046102867302	0.00233616690107124	-0.00212179065032075	-0.0133913813832476	-0.00317217844442761
9.6	-0.00339299562623522	-0.0135848915659357	0.00201251609078118	-0.00242896166325643	0.00201284463043366	-0.00242797552881468	-0.0137413637152753	-0.00371342687632126
9.7	-0.00710969881926005	-0.0125807292190343	0.0016439260739229	-0.00268269527376624	0.0016494953184757	-0.00269001555881454	-0.0143140345655229	-0.0032977682684451
9.8	-0.01048510026531	-0.0110008591683181	0.00125771059502427	-0.00289396208665972	0.00126341223531837	-0.00288542252025992	-0.0147842728428557	-0.00253687252388344
9.9	-0.0134800328372449	-0.00871285555049009	0.000851760855879114	-0.00303572291822304	0.000844399018384081	-0.00303450737015337	-0.0151353028166196	-0.00123580350412935
10	-0.015881527467019	-0.006266666769264	0.000418928489406373	-0.00312998983589459	0.000411423988601472	-0.00314250568362094	-0.014281468458505	-0.000205062154252843
10.1	-0.0185847338576267	-0.00319028951961702	-2.86427858320361E-05	-0.00316236316991379	-3.89268882124173E-05	-0.00315695244966705	-0.0142381042517252	-0.000256984018417956
10.2	-0.0203318638659959	0.000899612279145827	-0.000478209362846362	-0.00312540395449163	-0.000481633208794543	-0.00312261348961369	-0.0144888202359946	0.000378395245953553
10.3	-0.0210277602127078	0.00534681915059766	-0.000914072865401711	-0.0030194730543798	-0.000905942607760045	-0.00302858819305802	-0.0145225142264488	0.0013313546753306
10.4	-0.0206023976670188	0.0098897110108617	-0.00131536393605208	-0.0028643618862448	-0.00131366197837458	-0.00287058976693986	-0.013977137706034	0.00253458994817374
10.5	-0.0191189561044321	0.0138899142138145	-0.00171164500402993	-0.00266146991079487	-0.00170850600234102	-0.00264841197944755	-0.0122968835048043	0.0030710853466496
10.6	-0.017595177915882	0.0177862683092707	-0.0020639762338334	-0.00238758407694975	-0.00206178708728381	-0.00239142549093809	-0.0116409669778857	0.00252235524776965
10.7	-0.0150153439618563	0.0218936138345459	-0.00237977206763579	-0.00208368200347133	-0.00237625551936141	-0.00207838605491405	-0.0113374511635772	0.00249519106975051
10.8	-0.0113941178134264	0.0255686638051447	-0.00264983349838747	-0.0017210572782167	-0.00264463073332948	-0.00173002753922981	-0.0112014328666039	0.00261229260389654
10.9	-0.00682396708679377	0.0285950574720674	-0.00285820887174254	-0.00134305928826577	-0.00286341375167209	-0.00134231284562584	-0.0109792362652151	0.00320196826146514
11	-0.00129140049864081	0.0302490359874996	-0.00301391564414302	-0.000923891544638834	-0.00301878892077188	-0.000930638021121078	-0.0097019973510166	0.0034276002539554
11.1	0.00389330970438548	0.0310334527123154	-0.003122029616378	-0.000499070861379009	-0.00311113381452771	-0.00049622415754434	-0.00948715817998269	0.00273638352751009
11.2	0.00974816951901066	0.0309554461233107	-0.00315101190021502	-5.92623014725225E-05	-0.00315819633769995	-6.40973081815531E-05	-0.00944557730409642	0.0027365568392676
11.3	0.0158142359868884	0.0294353661921596	-0.00312248841110126	0.000391600039697369	-0.00313408664359977	0.000381564494119033	-0.00922710863735943	0.00303291659310544
11.4	0.0213773325392557	0.0266205727079851	-0.00304598510602296	0.000820139346072078	-0.00304104099039188	0.000827709152129323	-0.0087681419984068	0.00355098978844794
11.5	0.0263826883660113	0.0222897548567362	-0.00290267618996473	0.00123439838619228	-0.00290544193575206	0.00124470296720042	-0.00735868866507471	0.00328451904234591
11.6	0.0298685284254709	0.0171481259056873	-0.00270786701653842	0.00162751826681426	-0.00270784117445366	0.00163046657828259	-0.00715193843469322	0.00213075543618618
11.7	0.0326895468997414	0.0116430346533598	-0.00244388086589411	0.00198331742526426	-0.0024444228039186	0.00199194608047164	-0.0072308696848737	0.00165575444183697
11.8	0.0345200538944367	0.00550047295852937	-0.00214620853440197	0.00231529131706794	-0.00215032846698694	0.00231700531565545	-0.00719770660090236	0.00156955353500552
11.9	0.035425806297268	-0.00105135835381689	-0.00179609492757491	0.00259090609970927	-0.00180913590875979	0.00259525680322527	-0.00655827473581125	0.00214900089212448
12	0.0346261606209182	-0.00805446655031299	-0.00142106724710279	0.0028166113315464	-0.00142046516712462	0.00281802575436235	-0.00497196943070256	0.0017944986865478
