# GHZ S RI R 50
0.2	0.00592132924448943	0.00164553230608579	0.00304605500696941	-0.000898345816467819	0.00305641912005087	-0.000891544770212643	-0.0139481851724512	0.00536427622130288
0.3	0.00615027577495228	-0.00049063316312678	0.00290131415962435	-0.00132150832660501	0.00289407894856604	-0.0013085768031717	-0.0132463137041545	0.00537594284603535
0.4	0.00593241733144218	-0.00231929489270726	0.00266902715682117	-0.00169272501775779	0.0026742851080046	-0.00170127960730886	-0.0127269834918595	0.00572714077953502
0.5	0.00483405045081994	-0.00381127899012613	0.00240995896505269	-0.00204779357877697	0.00242147775886661	-0.00206002055664664	-0.0127170697133706	0.00625864206786146
0.6	0.00402086390344999	-0.00439059469978712	0.00209843235622469	-0.00236178451234229	0.00209764591863954	-0.00236892549217486	-0.0120902507578624	0.00747884886846022
0.7	0.00308216272090593	-0.00520042239712873	0.00175135078213992	-0.00263911019271961	0.00174939719729929	-0.00263930838294863	-0.0113193204963678	0.00808688687886033
0.8	0.00191390001782995	-0.00571095118860879	0.00136625464985545	-0.00285558452565672	0.00135367207190606	-0.00286012507456615	-0.0106995805364881	0.00872443159968624
0.9	0.000735939529481892	-0.00591340627948149	0.000950253861280065	-0.00301806474483176	0.000951287685960068	-0.00302874660016917	-0.00990584488339587	0.00924228298060023
1	-0.000867999023278522	-0.00632098495919104	0.00052727926760338	-0.00312196976174702	0.000517431154420863	-0.00312271248636458	-0.00960769801291979	0.00911253644074322
1.1	-0.00277537705177783	-0.00529780977831132	7.12908657671555E-05	-0.00315110657875605	6.7789218502623E-05	-0.00316873418525397	-0.00984185811666219	0.0104030318035838
1.2	-0.00379941689307628	-0.00449790145318136	-0.000370002164770778	-0.0031397711922861	-0.000370812870651379	-0.00313769807994336	-0.00880503314986866	0.0115709764779459
1.3	-0.0050939965681845	-0.00393690523406949	-0.000795765624003485	-0.00305661101384305	-0.000798999731767228	-0.00305861384531448	-0.00734295156515641	0.0124437656303825
1.4	-0.00616267930406116	-0.00324748948824769	-0.00121591859393853	-0.00290938690462629	-0.00121470459457351	-0.00291491104018266	-0.00554641560685069	0.0126261346034164
1.5	-0.00698748786438015	-0.0021402425344381	-0.0016176020390422	-0.00271410283043484	-0.0016159908018318	-0.00272259200967033	-0.00448226705325851	0.0123446232733518
1.6	-0.00645740603241886	-0.000403545272135868	-0.00197656603431505	-0.00246055896600651	-0.00197677583954135	-0.002465783402724	-0.00326422279989547	0.0127060740369108
1.7	-0.00567010825152937	0.000606935045500869	-0.00230332165985089	-0.00216505621427275	-0.00230428881673637	-0.00215880765759293	-0.00219880742224093	0.012423213159981
1.8	-0.00479453258270743	0.00167867742424138	-0.00257394083845157	-0.00181524537387637	-0.00258488198147204	-0.00182088005675091	-0.00140687199720505	0.0121349118478701
1.9	-0.00366670530301241	0.00231220855237222	-0.00279979757387839	-0.00144547693249241	-0.00281222078069034	-0.00143934282749464	-0.00077561547744991	0.0116543404773254
2	-0.00315510846678361	0.00275693937241999	-0.0029741282273489	-0.00103737060254549	-0.00298373086498315	-0.00103267722735485	-0.00121741374803033	0.0114078537811322
2.1	-0.0017788620646431	0.00386420065787616	-0.00308662712568462	-0.000612387263202432	-0.00308255095998171	-0.000614369049714275	-0.0006617766791592	0.0125342100057778
2.2	-5.71882592721112E-05	0.0039503306927839	-0.00314546105701078	-0.000175907479291219	-0.00315673748622731	-0.000178754401197488	0.000708628978440992	0.0127568137314397
2.3	0.00147364864038982	0.00352495283285288	-0.00314180226287082	0.000266713031388417	-0.00314149039559726	0.000259843866057956	0.00199373578692152	0.0124902786978701
2.4	0.00294410788891219	0.00263754749281017	-0.00306939181678456	0.000704295585073385	-0.00307192150025826	0.000700043828183105	0.00333984102392427	0.0117843920727878
2.5	0.00349845692772981	0.000980788795709231	-0.00293310271725791	0.00111304724163868	-0.00294397918274148	0.00111938709629529	0.00362796975278799	0.0102534542174425
2.6	0.00375139539815122	0.000340995936768687	-0.00276338977081414	0.00151604354444955	-0.00275980713097859	0.00150374913088747	0.00351135112167657	0.0102257176900499
2.7	0.00438252217406699	-0.000637454153512509	-0.00251868362696338	0.00188836348541563	-0.00252395644957274	0.00188836236818347	0.00395498145593174	0.0101174143001366
2.8	0.00506980456627699	-0.00181009864815528	-0.00223671115879639	0.00221575802174226	-0.00222893131921549	0.00222555191762454	0.00457861481112885	0.0101527574076402
2.9	0.00578161937150949	-0.00357181724963617	-0.00190436406792085	0.00251514192038433	-0.00190065943503005	0.00251472587040052	0.0056431860097007	0.00988327351069143
3	0.00543322851564218	-0.00566807228972308	-0.00152218617244769	0.00275294628583906	-0.00153697915104447	0.00275899308329958	0.00600719519950269	0.00946284706964861
3.1	0.00529559422710584	-0.00713458433234935	-0.00113051380295315	0.00293309660251925	-0.00112587870717016	0.00294144938292784	0.00712198457195619	0.00986989480184285
3.2	0.00466975776231171	-0.00922615144461203	-0.000710114662996814	0.00307041037811837	-0.000711856914274181	0.00306979559895378	0.0083281891710875	0.00943641530277699
3.3	0.00338504168684232	-0.0112406866497392	-0.000272803135679683	0.00314130321124104	-0.000271144490027568	0.00313756871901809	0.0094647145005358	0.00873071659202358
3.4	0.00158805814476429	-0.0130444129638896	0.000173166487738326	0.00313809408774471	0.000166908950079009	0.00315464443601185	0.0105689086822928	0.00745772681034404
3.5	-0.00134033189312987	-0.0145359520508424	0.000598489991987263	0.00309801351694284	0.000604091398946081	0.00309810103108064	0.0103199363074089	0.00579326831260591
3.6	-0.00391465443436756	-0.0143679495381726	0.00102750851641333	0.00297656294969688	0.0010357025078108	0.0029762607353202	0.0105352097667999	0.00575440693496318
3.7	-0.00614418657764377	-0.0144117135030206	0.00143740773076588	0.00279689050063937	0.00142778786515018	0.00281054797551827	0.0115053013405253	0.00486726948060537
3.8	-0.0085618057778825	-0.0141009133859046	0.00181667060137538	0.00257143909879322	0.00181905511886702	0.00258060050292894	0.0121961047733602	0.00346719634208862
3.9	-0.0108957266392786	-0.0135727029767247	0.0021652431892972	0.00229865068529478	0.00215797340945299	0.00229685607539739	0.0124266963219247	0.00151483240176275
4	-0.0140910620528762	-0.0125548231250078	0.00244967630951911	0.00197405350542661	0.00245412853772155	0.00197162427637751	0.0109318793543299	-0.000226780928300448
4.1	-0.0162746917497326	-0.00969779627322501	0.00269980183312312	0.00161714891462369	0.00269854753471929	0.00161788170516149	0.0102423501941165	0.000311259371303733
4.2	-0.0175143871808753	-0.00712795656838026	0.00290152206490874	0.00121732893171414	0.00290601239749055	0.00120861918038195	0.0106389722268383	0.00014041862762301
4.3	-0.0183583118245288	-0.00453443706984855	0.00304647381149546	0.000804650507741045	0.00305291936981677	0.000796855677817408	0.0110636874118728	-0.00054568069009714
4.4	-0.0187297461707593	-0.00200298808374539	0.00312277471666907	0.000369190019249958	0.00312515473971028	0.000366937029269144	0.0113754813279252	-0.00173160858149239
4.5	-0.0195663397548901	0.000386422516012551	0.00314479017240913	-6.52380670314884E-05	0.00315016134236599	-6.85944452924056E-05	0.0102851572063452	-0.00320623970949831
4.6	-0.019421070078704	0.00419119157013109	0.0031067350386557	-0.000508274076510584	0.00310792188442138	-0.000495337267676622	0.00965932037938808	-0.00277620259954348
4.7	-0.0180825579630453	0.00721427972940991	0.00300314362344758	-0.000930160708621929	0.00301848425061011	-0.00093975272578068	0.00984761144593826	-0.00311008480531928
4.8	-0.0163909051628845	0.00986213946280487	0.00284235559313633	-0.00134601597080142	0.002850864412073	-0.00135209427989181	0.00995571194556527	-0.00363450121809142
4.9	-0.0139688575640496	0.0119075329076623	0.0026224019406364	-0.00173012450290985	0.00262656647383405	-0.0017272029067445	0.0102186777806685	-0.00449604950226465
5	-0.0120556513863227	0.0133184223429242	0.0023677783435655	-0.00208837077692702	0.00237140210996225	-0.00208568615835834	0.00947941468385801	-0.00545506046654681
5.1	-0.00872702043841108	0.0152466357450085	0.00205409998539024	-0.00240504892566683	0.00205640598788805	-0.00240368239029897	0.00996148569581423	-0.0050888095820384
5.2	-0.00513823845779865	0.0153676752275325	0.00169412789080617	-0.00265574724741792	0.0016958538060328	-0.002660902460802	0.0108869418209187	-0.00623677616539351
5.3	-0.00208261903987975	0.0147509483720331	0.00130684638268823	-0.00287220219374778	0.00130998465979563	-0.00287012860410401	0.011050842597397	-0.00781153120191801
5.4	0.000563486199779698	0.01359121797204	0.000881902955487128	-0.0030226723596911	0.000899147870236505	-0.0030338915513897	0.010637932532772	-0.00973817366998898
5.5	0.00177934549698642	0.0124701809695468	0.000462195576401137	-0.00312474568304376	0.000472292333632248	-0.00313421456854932	0.00816074231424923	-0.0110639319436245
5.6	0.0043980159639666	0.0124666441506375	1.99901764802197E-05	-0.00315634112712513	1.14382112209414E-05	-0.00315956436878376	0.0074584825092209	-0.00976724528708224
5.7	0.00707965152841446	0.010658803964229	-0.000411161783924403	-0.00312495359967043	-0.000427819932226692	-0.00312861998955208	0.00777602913155829	-0.00998621335186144
5.8	0.00898971331610759	0.00830190733858901	-0.000858696238868589	-0.00303020329087589	-0.000862246931316923	-0.00304423195248493	0.00785935225682163	-0.0109149304259184
5.9	0.0104711144980049	0.00538102682116257	-0.00126734656188643	-0.00288935806648252	-0.00127560316218814	-0.00288926652082949	0.00776156841490748	-0.0126926125322342
6	0.00976067913808514	0.00149436815518653	-0.00166617960970674	-0.00267592860284255	-0.00166261341825302	-0.00267610293284652	0.00495100116430076	-0.015435083753891
6.1	0.00853928647389857	0.000183315276697105	-0.00201680441750083	-0.00242257987723838	-0.00201844344520976	-0.00241856991768961	0.00182524238709435	-0.0142798434259686
6.2	0.00793129322032153	-0.00159879988456093	-0.0023310393474742	-0.00211029169369054	-0.00233476164074573	-0.00212218201737056	0.00057523613178288	-0.01325545977365
6.3	0.00715187428313764	-0.00329894396452963	-0.00261021060426628	-0.00177420484860609	-0.00261935105742249	-0.00176844562687485	1.59639654164935E-05	-0.0124006860576961
6.4	0.0063049028423451	-0.00552934388523543	-0.00283543916426656	-0.00138014467615335	-0.00282570924278857	-0.00138506903242701	0.000158385395935503	-0.0125652477363565
6.5	0.00373209784583476	-0.00742268146243691	-0.00298777385251383	-0.000978083306564943	-0.00299563916655847	-0.000973598861821857	-0.00146264576553446	-0.0127849827446362
6.6	0.00250116170630634	-0.00795169708180843	-0.00310135838078277	-0.000553842209825186	-0.00310299555037688	-0.000557828178934669	-0.000898814623612188	-0.0116418217021656
6.7	0.000521581004027489	-0.0091979800798754	-0.00315252265346588	-0.000112000850243554	-0.00316139213741881	-0.000105698132544692	-0.000859806764583178	-0.0123352692349324
6.8	-0.00187473516428253	-0.00937149623639852	-0.00312891262956774	0.000331643121619339	-0.00314002067784041	0.000336716242999757	-0.00150214224519504	-0.0125898133393293
6.9	-0.00388729467831772	-0.0092953233297758	-0.00305148473189159	0.000763691199758508	-0.00305447388018345	0.000766087628916181	-0.00194785306780813	-0.0132458245742636
7	-0.00748803586668207	-0.00869112226512576	-0.00291999408799776	0.00118479704489667	-0.00293286299016846	0.00118259594797256	-0.00496453727329083	-0.0137550178838324
7.1	-0.00901607336193565	-0.00540081094092076	-0.00273910712717703	0.00158033444309272	-0.00273541309620791	0.00158902043450922	-0.0057625348429893	-0.0107097937778185
7.2	-0.00958785779310763	-0.00345592276565991	-0.00247848112125475	0.0019481039005988	-0.00248502133995746	0.00195020373806814	-0.0048960940464925	-0.00956464948108513
7.3	-0.0102323793550592	-0.00139211959794621	-0.00218164859928839	0.0022661087685055	-0.00219287454676419	0.00227119722906292	-0.00391353841578638	-0.00916790001257336
7.4	-0.0101780585111898	0.000526089925682495	-0.00184085060230743	0.00255032668543207	-0.00184772768611714	0.00256398554020862	-0.00254370722696276	-0.0101011403556475
7.5	-0.0113003697282744	0.00154224137729981	-0.00146946651772263	0.00279482299065752	-0.00146242068311073	0.00280221784203666	-0.00375111862277021	-0.0130305057728285
7.6	-0.0114143445036195	0.00529617854719551	-0.00105768546984702	0.00296672449916508	-0.00105908240472281	0.00296202680843908	-0.00525665852138305	-0.0122950469761841
7.7	-0.00998836360426807	0.00751527164828337	-0.000630084226035455	0.00308493420879863	-0.000631429625208104	0.00308387634663924	-0.00564636257320203	-0.0131375677591096
7.8	-0.0081699675785368	0.00900935115251814	-0.000204135552051255	0.00313323912048226	-0.000211928873731231	0.00313973199330621	-0.00679645223533557	-0.0140679008195589
7.9	-0.00605079138926678	0.00964036360732604	0.000240212814422556	0.0031394786445284	0.000248171836727236	0.00314094415283496	-0.00870540626530571	-0.0149310394201587
8	-0.00573125963484799	0.0103389293676267	0.000683520249367619	0.00305804242078883	0.000683627674134959	0.00306293747764168	-0.0129554951502312	-0.014307265743016
8.1	-0.00223746531007701	0.012202086547953	0.00108661221988813	0.00293926372099711	0.00110573807179734	0.00294028597952294	-0.0132473072478287	-0.0107576884218842
8.2	0.000930463322445021	0.0118107205897954	0.0014907325417515	0.00275964553074807	0.00149995153388221	0.00275242661976892	-0.0128900734759913	-0.00956843981994612
8.3	0.00364625285837342	0.0109683089789214	0.00186769149501812	0.00251905977119432	0.0018660973146041	0.00253260895252107	-0.0127362581784152	-0.00878916594597227
8.4	0.0063279907904	0.00929302705239103	0.00220150324432377	0.00223673149919498	0.0021984765857281	0.00223652007423567	-0.012518660200939	-0.00896818313005756
8.5	0.00670188060450698	0.00705257620216958	0.00247876197941157	0.00190852838953676	0.00247787406531477	0.00191170542977321	-0.015358261674962	-0.00925294415446432
8.6	0.0085243790617841	0.00704247843901962	0.00272851279677506	0.00155190396400978	0.00273799144528032	0.00154534899580313	-0.0160617695016939	-0.00561493565853393
8.7	0.0107457400951641	0.00490291374178045	0.00291405924168989	0.00114656638082936	0.00291961599025575	0.00114727277370196	-0.0148836004324756	-0.00402032892565427
8.8	0.0121473581781852	0.00222612588788771	0.00304733061863984	0.000734678116494205	0.00305306305782341	0.000725915364143906	-0.0137482770215234	-0.00338270165384473
8.9	0.0132849257132587	-0.00118706350163105	0.00312061144645661	0.000304083135052847	0.00311973805524419	0.000301843356023426	-0.0123095932207265	-0.00389105312988131
9	0.0121391337399847	-0.00539226898026251	0.00313596132708689	-0.00013523433935095	0.00313912100880908	-0.000131138474704299	-0.0135179081038178	-0.00535493298815757
9.1	0.0112182918636102	-0.00775212178483785	0.00308790262837496	-0.000582625865774524	0.00309082505756838	-0.00056974620088745	-0.0138729803818788	-0.00395244348813349
9.2	0.00968017511034112	-0.0112061561225054	0.00297397010801945	-0.000998435628820671	0.00298160506128788	-0.0010013303625337	-0.0137507527787318	-0.00402941263188174
9.3	0.00686368339641637	-0.0139701907316793	0.0028045041042719	-0.00140001121771806	0.00280376337249258	-0.00140498900311029	-0.0143124545758938	-0.00384107469777671
9.4	0.00364654218649891	-0.0161137359942104	0.00258545992444638	-0.00178851074764427	0.00259197404025791	-0.0017809330699844	-0.0149148114894532	-0.00367161878056166
9.5	-0.00130861346446681	-0.0168291419281077	0.00230755075887663	-0.00212904624476036	0.00231495372312291	-0.00213042034587428	-0.0173084138134633	-0.00246206013680535
9.6	-0.00404062155671658	-0.0154029217132063	0.0019849287371439	-0.00242589674230953	0.0019852612272793	-0.00242491885756476	-0.0165312236204646	0.00108016437766074
9.7	-0.00675231548136939	-0.0150216711363915	0.00162043363790456	-0.00267222948583128	0.00162593147847976	-0.00267952622783186	-0.0148405459619661	0.00221100581477407
9.8	-0.00982059097954983	-0.0139777107559738	0.00123778665801918	-0.00288050639699397	0.00124348658730415	-0.00287204504665736	-0.0134573603522978	0.00264660117671326
9.9	-0.0125510051723967	-0.0125630879879375	0.00083114445029933	-0.00302095441218438	0.0008238349314534	-0.00301970946153865	-0.0122373355490886	0.00188195247284234
10	-0.016917383391138	-0.0106943047785448	0.000398093491676375	-0.00310154267777925	0.000390595675402559	-0.00311389571353827	-0.0142455526312268	0.000766064594732605
10.1	-0.0191832626533481	-0.00580341912048104	-3.44376854375658E-05	-0.0031309727723048	-4.46094838088985E-05	-0.00312559589796221	-0.0146048650162183	0.00334553131538592
10.2	-0.0201342422625856	-0.001808621229145	-0.000478172719879042	-0.00309668837691079	-0.00048156202082732	-0.0030939183047822	-0.0134482581057776	0.00432798716830408
10.3	-0.020364560062309	0.00250550917202217	-0.000910292730178528	-0.00299065974434603	-0.000902250032721023	-0.00299970423011527	-0.0121828527182226	0.00472810158680529
10.4	-0.0192526806946826	0.00622325625425295	-0.00130513138911298	-0.00283150480226239	-0.00130345658014445	-0.00283766762992128	-0.0106112795636265	0.00355772789366684
10.5	-0.0192830162043508	0.00951749212806544	-0.00168373459311946	-0.00263495049422107	-0.00168067037082079	-0.00262203784651283	-0.0124601756515665	0.00198446614378159
10.6	-0.0171900142620037	0.0143148183985117	-0.00203767151719681	-0.00237422306409282	-0.00203548772658588	-0.00237802349197953	-0.0130018306617008	0.00341674609959741
10.7	-0.0145025046175619	0.0179225494501815	-0.00235359781452505	-0.00207352383691916	-0.00235012666816579	-0.00206826139097239	-0.0132800076346336	0.00412930799023177
10.8	-0.0108328471569866	0.0216067311405537	-0.00262063236501937	-0.00171515393917788	-0.00261544411618336	-0.0017240275113228	-0.013115255370393	0.00552082599919498
10.9	-0.00578962479823116	0.0239637538564275	-0.00282518109435427	-0.00134670025492568	-0.00283034335790031	-0.00134598909474274	-0.0120624879370812	0.00586251125541248
11	-0.00210662531936432	0.0251375682023361	-0.0029923918296604	-0.000939182321456164	-0.00299719543468778	-0.000945926702481536	-0.0137562602516587	0.00598759929902849
11.1	0.00388509296579623	0.0271872775322625	-0.00310393282876743	-0.000508878512439491	-0.0030931045678647	-0.00050600328425269	-0.0126728642767616	0.00927844105649144
11.2	0.0101550745063043	0.026371958940167	-0.00313139458026871	-7.26709583808202E-05	-0.00313851374691327	-7.75076634739764E-05	-0.0101652389379309	0.0101830263156799
11.3	0.0158764810774429	0.024323508536049	-0.00310598407951329	0.000371863065200808	-0.00311745700335418	0.000361822967796076	-0.00760412965302026	0.0100287718221468
11.4	0.0212469120254102	0.0209205467028599	-0.00303904440258894	0.00079699798868611	-0.00303416951377214	0.000804569468475784	-0.00529151996087115	0.00849875792682025
11.5	0.0240718341893156	0.0166075769729402	-0.00289793760953408	0.00122144316582217	-0.00290072797583046	0.00123170811051219	-0.00640582602775308	0.00678434060617083
11.6	0.028025511237618	0.013525211784662	-0.00269823868823178	0.00160776286201751	-0.00269822416963599	0.00161069407297217	-0.00521690073936874	0.00799544493220269
11.7	0.0316702647007528	0.0081970618989722	-0.00244105503251206	0.00195913169289938	-0.00244164057157923	0.00196770962346351	-0.00292301322550103	0.00673585531321418
11.8	0.0341522898953708	0.00195691572920099	-0.00215042681071861	0.00229256525882221	-0.00215453880274668	0.00229424756663196	-0.00130435750674629	0.0042819511982707
11.9	0.0351748411145076	-0.00573474832457036	-0.00180121935096449	0.00257357879296289	-0.00181423293818279	0.00257785561666176	-0.00118608888678335	0.000344931256099497
12	0.0320118725862086	-0.012918881442916	-0.00142175201849153	0.00279179652048444	-0.00142115939354846	0.00279320339895764	-0.00570048679488942	-0.00208638784530302
