# GHZ S RI R 50
0.2	0.00595176981252761	0.00156058198526715	0.00304651534840184	-0.000898431132348248	0.00305688087757942	-0.000891628930917697	-0.0139561508534424	0.00524617965008376
0.3	0.00621916952059211	-0.00052067573474491	0.00290179067893006	-0.00132165428808102	0.00289455408400197	-0.00130872090707473	-0.013211035148246	0.00531316130381832
0.4	0.00596681416548873	-0.00228573640444438	0.00266964167157855	-0.0016929365064864	0.00267490108193373	-0.00170149255683349	-0.0127098644831592	0.00573259872297307
0.5	0.00505344888420652	-0.00367792535245516	0.00241066586104956	-0.00204857954210973	0.00242218792465142	-0.00206081108463077	-0.0124542135509894	0.00635063649583695
0.6	0.0042135458282855	-0.00452582247711689	0.0020985271096204	-0.00236265431776623	0.00209773934877129	-0.00236979678335563	-0.0118265547387602	0.0072094208066319
0.7	0.00309485146773591	-0.00533358187727678	0.00175135849089244	-0.00263986200431207	0.00174940449140289	-0.00264005998155454	-0.011275098190854	0.00774916313349236
0.8	0.00181683050189828	-0.0058058137956055	0.00136619831839734	-0.00285645346382632	0.00135361211063173	-0.00286099340950889	-0.0108271465008715	0.00838932084159437
0.9	0.000438319720710334	-0.00594558642910259	0.000949864625278933	-0.00301923901116952	0.000950896333753451	-0.00302992448963306	-0.010316468269823	0.0089898660334201
1	-0.00120598807969759	-0.00587842328374595	0.000525933711012897	-0.00312270002138197	0.000516083715281295	-0.00312343835725599	-0.0100668289586349	0.00945588356296482
1.1	-0.00274148209766845	-0.00495103124995422	7.04250770862206E-05	-0.00315114568453109	6.69185623422635E-05	-0.00316877243750372	-0.00981750662644358	0.0106837030610942
1.2	-0.00378805929266242	-0.00420459323897207	-0.000370827012782171	-0.00313994136839017	-0.000371637262658459	-0.00313786787692567	-0.00871961874975109	0.0117685379499304
1.3	-0.00489049397182563	-0.00370829990076189	-0.000796852926087412	-0.00305664198415488	-0.000800088007316432	-0.00305864393887973	-0.00699485580814284	0.0125027338236367
1.4	-0.0059277590779766	-0.00329076912053932	-0.00121721871557789	-0.00290877758689984	-0.00121600725277081	-0.00291430216810206	-0.00516653207885409	0.0123087844106349
1.5	-0.00667718902763161	-0.00226680806300595	-0.00161774684209528	-0.00271290466013117	-0.00161613807427037	-0.00272139164940796	-0.00403069979867244	0.01185004810522
1.6	-0.00651191066594402	-0.000797584093838958	-0.00197674740457247	-0.00246041707945849	-0.00197695759111201	-0.00246564150574947	-0.00327566133124657	0.0118078481608955
1.7	-0.006017526917302	0.000483748654562844	-0.00230398382819571	-0.00216459906222379	-0.00230494948197263	-0.00215834993005708	-0.0026410215252647	0.0117914495834044
1.8	-0.00525308754368124	0.00181700241759713	-0.00257439766140785	-0.00181425722865761	-0.00258534003857865	-0.00181988784084673	-0.00204021708528195	0.0118303936023959
1.9	-0.00420694621077035	0.0028193487568281	-0.00279937679743364	-0.0014444290790219	-0.00281179519798474	-0.0014382937278176	-0.00150651514358219	0.011825971144832
2	-0.00317284511055721	0.00371403961647638	-0.00297393930810001	-0.00103775204243759	-0.00298354241434789	-0.00103306003356201	-0.00129020027829993	0.0121090044397587
2.1	-0.00153109475331742	0.00436282759644992	-0.00308734121467166	-0.00061171425672666	-0.00308326481460938	-0.00061369743698523	-0.000375847843077953	0.0126435655144788
2.2	6.72358104827924E-05	0.00432992475190504	-0.00314546845601019	-0.000174890819391372	-0.00315674562617185	-0.000177734061855473	0.000809432167956842	0.0126466259173055
2.3	0.00147772694956238	0.00384183597723762	-0.00314146151638541	0.000267379228369627	-0.00314115118606489	0.000260510611429659	0.00186482402452247	0.0122978135010408
2.4	0.00264723733787244	0.00304116725397719	-0.00306954362673754	0.000704475515179595	-0.00307207365232577	0.000700223617764952	0.00278688648849085	0.0117713004690271
2.5	0.00331831563207471	0.00204806989055373	-0.00293393809590268	0.00111491185947678	-0.00294481663875419	0.001121259645646	0.00325023492130356	0.0111253094904824
2.6	0.0041251969927523	0.00126206273690487	-0.0027620552651155	0.0015178991278362	-0.00275848179028152	0.00150560321798773	0.00389709010222656	0.010966223637596
2.7	0.00495541459083938	4.12766726639773E-05	-0.00251721240439007	0.00188920685071121	-0.00252248410337127	0.00188920834239659	0.00464862852535822	0.0105279870134576
2.8	0.00562163049393613	-0.00147571490455945	-0.00223550211487911	0.00221641648645413	-0.00222771915058292	0.00222620589358651	0.00528714810630082	0.0101171727080161
2.9	0.00603302664008414	-0.0033137964338086	-0.00190291670914201	0.00251645562338965	-0.00189921212906056	0.00251603726431217	0.00605446072640516	0.00972397853482331
3	0.00586946997358667	-0.00521120765968202	-0.00151842425744397	0.00275332003526356	-0.00153320353808514	0.00275938029436207	0.00671911377392854	0.00944938852139313
3.1	0.00564216830223815	-0.00712337017545603	-0.001128170187594	0.00293127518522855	-0.00112353477051378	0.00293961895128515	0.00776522608086617	0.00918764634029228
3.2	0.00470365430341257	-0.00922846812437437	-0.000708552078469669	0.00306882991415389	-0.000710293511337225	0.00306821614882627	0.00855257844161846	0.008597260342117
3.3	0.00319027810497623	-0.0111989377528246	-0.000271109062231233	0.00313965120266853	-0.000269453189047654	0.00313591802069273	0.00932822169457301	0.00787219383681415
3.4	0.00107066106289297	-0.0128052974806048	0.000175251270673624	0.00313524475337339	0.000169010957315345	0.00315178518186275	0.00999018308009432	0.00682318877775249
3.5	-0.00160104006518872	-0.0138166369763066	0.000597824009404025	0.00309327767383443	0.00060341694425544	0.00309336462163242	0.0100178444677606	0.00570129040072799
3.6	-0.00415247154418985	-0.0140899427022284	0.00102555621024818	0.00297436939224965	0.00103374325680829	0.00297407037761542	0.0102533768081267	0.00510264937562655
3.7	-0.00681193370815879	-0.0140427363891372	0.00143586948119189	0.00279500799386969	0.00142625468376514	0.00280865359020423	0.0106267679942854	0.00425004262952666
3.8	-0.00952462765169588	-0.013380223388497	0.00181455481450148	0.00256939577046164	0.00181693554586346	0.00257854918188366	0.0108421873745048	0.00329311360825644
3.9	-0.0120084939013539	-0.0121815920243824	0.00216141084487313	0.00229719015645818	0.00215415057805669	0.00229539352746175	0.0108333227168881	0.00225358487458113
4	-0.0143296016280202	-0.0103460361997385	0.00244607529832345	0.00197647801579718	0.00245052891375853	0.00197405564630695	0.0104393630400783	0.00159141361041619
4.1	-0.0158103026607605	-0.00809472099967127	0.00269912193218627	0.00161875724893072	0.00269786713425354	0.00161948940692312	0.0106996898061643	0.00138990030767649
4.2	-0.0170053133746737	-0.00586893800104952	0.00290056005883149	0.00121830412712306	0.00290505318326927	0.00120959760139962	0.0111469103418747	0.000748816018215099
4.3	-0.017892477665861	-0.00350756781227515	0.00304541169889078	0.000806194057639101	0.00305186032572821	0.000798404400570238	0.0114932906896753	-0.000195064917285492
4.4	-0.0185217221185548	-0.000999438450776192	0.00312297435611216	0.000371888207993821	0.00312535667201872	0.000369636859343355	0.0115335700249161	-0.00131717199355107
4.5	-0.0189421277559067	0.00185065972708435	0.00314767377723573	-6.53213020053486E-05	0.00315304984811527	-6.86807983537064E-05	0.0110928913266713	-0.00223768801253853
4.6	-0.0184658823527225	0.00489167619876604	0.00310638059408321	-0.000509713274644981	0.00310757346751264	-0.000496777505393066	0.0109959324216056	-0.00279325178286865
4.7	-0.0174231907362479	0.00757119627654224	0.00300223030434412	-0.00093025060025161	0.00301756571783724	-0.000939841774261213	0.0108852332786626	-0.00368966666578548
4.8	-0.0160279199315733	0.0100147303332299	0.00284204456280942	-0.00134568495098037	0.00285055255882823	-0.0013517619936849	0.0106049433545646	-0.00457197975792686
4.9	-0.0140860805543604	0.0121137561631788	0.00262249455416712	-0.00173107874440627	0.00262666057970775	-0.00172815757588451	0.0102635106818643	-0.00542410001419656
5	-0.0119127045773379	0.013932470645275	0.00236413458089196	-0.00208916023630172	0.00236775836297249	-0.00208648094347347	0.00980739276765096	-0.00596681233878556
5.1	-0.00883554894169674	0.0152737547972875	0.0020520884099616	-0.002402110662102	0.00205439166737518	-0.00240074538044679	0.00998443780561016	-0.00638629643359221
5.2	-0.00582215553042244	0.0157070698184222	0.00169388183737479	-0.00265328091775811	0.00169560837207259	-0.002658431898698	0.0100934591764587	-0.00726450068058203
5.3	-0.00286867999089687	0.0156183399948896	0.00130670196442306	-0.00287032918554099	0.00130983806315137	-0.00286825611479896	0.00997919568945808	-0.00817066438613468
5.4	-0.000112256898525931	0.0149605186203118	0.000880805812526573	-0.00301991946086698	0.000898033565021193	-0.00303112968682149	0.00965923590541148	-0.00934275367880573
5.5	0.00217891013239222	0.0141512536118299	0.000464457717197672	-0.00311885591166231	0.000474546200159326	-0.00312829841610881	0.00860610694212949	-0.0102214654416866
5.6	0.00470617588606771	0.0128840113674534	2.49728681771522E-05	-0.00315455606319261	1.64307533133139E-05	-0.0031577910445184	0.00795047935101195	-0.0105626572741617
5.7	0.00652627954972935	0.0109969544274222	-0.000407162080515772	-0.00312483255674297	-0.000423812242450871	-0.00312851907481435	0.00716928592540585	-0.011062753351848
5.8	0.00778646205000112	0.0089984749214823	-0.000855011236609816	-0.00303044705683905	-0.000858544972598918	-0.00304447635983045	0.00630204125028636	-0.011588722923531
5.9	0.00854391724026544	0.00697067845809355	-0.00126225073502643	-0.00289000414274797	-0.00127050366970492	-0.00288992553086556	0.00523356130703113	-0.012148217424708
6	0.00863555362962402	0.00515869803331881	-0.00166119889271975	-0.00268212063423192	-0.00165762931834443	-0.00268228662376893	0.00345367788830771	-0.0122794926904943
6.1	0.00917923848511218	0.00357467061299275	-0.00201732491518404	-0.0024280069426299	-0.0020189701931311	-0.00242399285113135	0.00259041225727297	-0.0113844972659973
6.2	0.00943976710853308	0.00116209255479672	-0.00233203616489245	-0.00211373386451863	-0.00233575494803084	-0.00212563794726598	0.0024624243943274	-0.0111794160583607
6.3	0.00896854523408223	-0.00161277836407926	-0.00261096483113738	-0.00177740375918696	-0.0026201163528258	-0.00177164655178459	0.00230894460415499	-0.0116280400927853
6.4	0.00747498497075422	-0.00436943710315946	-0.00283721005785309	-0.00138482855742194	-0.0028274635323015	-0.00138974799827592	0.0017742732346217	-0.0124363924159459
6.5	0.00527585424145354	-0.00620370468768008	-0.00299401261748217	-0.0009796991212853	-0.0030018934448431	-0.000975204487878151	0.000725156957917108	-0.0127544602299294
6.6	0.0033047720549972	-0.00757165680861221	-0.00310367766131112	-0.00055246363440344	-0.0031053181244055	-0.0005564512685574	0.000424291082089752	-0.0129178083025015
6.7	0.000886153373008908	-0.00845206594409254	-0.00315389543107255	-0.000112253969258305	-0.00316276920583844	-0.000105949066916692	-0.000323490417568893	-0.0133770922937741
6.8	-0.00159888694142595	-0.0086192407945199	-0.00313152687653634	0.00033089143696532	-0.00314264547272199	0.000335965010279182	-0.00131453357777815	-0.0135680628144444
6.9	-0.00412768497536543	-0.00828344223003969	-0.00305569407850609	0.000765315675412637	-0.0030586870603425	0.000767716042224034	-0.00240700704919817	-0.0137352701100211
7	-0.00665927606607974	-0.00692447399150346	-0.00291917365991725	0.00118870709083298	-0.00293204820770597	0.00118652155441892	-0.00402122517824894	-0.0133340853985801
7.1	-0.00818532288751288	-0.00519269725474101	-0.00273864862741722	0.00157969162889148	-0.00273495633561284	0.00158837603005985	-0.00470570473176404	-0.0123006216020415
7.2	-0.00967927652690738	-0.00348602846603934	-0.00247998230549021	0.00194811442956922	-0.00248652559866526	0.00195021315017216	-0.00510644438839825	-0.0116876566388573
7.3	-0.0110407059167783	-0.00140029876517248	-0.00218286959102952	0.00226757653876875	-0.00219410211034757	0.00227266857349059	-0.00533697182628002	-0.0112997582448651
7.4	-0.0121518475010403	0.000904555996735838	-0.00183951055747821	0.0025516207784278	-0.00184638021308706	0.00256528481580474	-0.00567075245188057	-0.0114659603208478
7.5	-0.0131525237916109	0.00386793413215951	-0.0014702152498173	0.00279090939391056	-0.00146318218440764	0.00279830249154124	-0.0067596384477136	-0.0116023117217987
7.6	-0.0124827827370234	0.00727482482571784	-0.00106243703328857	0.00296724119619948	-0.00106382847514461	0.00296253849158279	-0.00715670700379502	-0.0109879044414659
7.7	-0.0111857742753038	0.00981593333320208	-0.000632979591113558	0.00308776058111789	-0.000634325658084103	0.00308670062344894	-0.00743337847526413	-0.0113944304361594
7.8	-0.00916442485036421	0.0117063804044614	-0.000205585317171024	0.00313599751882535	-0.000213388325523049	0.00314249313286777	-0.00814286979992838	-0.0118042521933899
7.9	-0.00682598637276093	0.0128976693785696	0.000237795230093266	0.00314116047055223	0.000245756843353325	0.00314263309110523	-0.00921826391316849	-0.0119748466133815
8	-0.00429821581021632	0.0139846932829874	0.000679677175124381	0.00306541320107675	0.000679776447127772	0.00307031836919045	-0.0107844211526873	-0.0112971109461845
8.1	-0.00101802418932989	0.0141028364874084	0.00108995759845085	0.0029466181880186	0.00110913282365077	0.00294763948867397	-0.0111530955128624	-0.0103599798299368
8.2	0.00175920610726911	0.0135099048193436	0.00149521317010112	0.00276351842264778	0.00150444360009735	0.00275628059107024	-0.0115242307424776	-0.00974292903490734
8.3	0.00433310886921327	0.0124768924316744	0.00187122418696442	0.00252160189176681	0.00186963361830284	0.00253516965980556	-0.0118247841714197	-0.00926289442284402
8.4	0.00651644997872646	0.0109536819018772	0.00220502638714451	0.0022412603056142	0.00220199427721604	0.00224104785454276	-0.012330936802505	-0.00916070234484799
8.5	0.00812815423066218	0.00943706175746283	0.00248871049621899	0.00191059779432623	0.00248782448512679	0.00191378537919641	-0.0136828223810368	-0.00855855236487526
8.6	0.0100595565148394	0.00752478721466034	0.00273462535244775	0.00154859982735164	0.00274410280401598	0.00154201937682995	-0.0141378361942646	-0.00731591739728575
8.7	0.0112564435987335	0.0049049462689535	0.00291817200450968	0.00114415004467635	0.00292373482126038	0.00114485043927607	-0.0143813037998843	-0.00655376406297912
8.8	0.0117739557484361	0.00217501605672013	0.00305207176927144	0.000732671632961056	0.00305780321816237	0.000723891711477	-0.0147084783546547	-0.00599509423829954
8.9	0.0117282335356697	-0.000697036487418866	0.00312731824003274	0.000299390935753322	0.00312643931538355	0.000297148195507724	-0.0149894131806099	-0.00551984008517059
9	0.010968104792412	-0.00325510607767485	0.00313648311614436	-0.000144384676698603	0.00313965561925391	-0.000140296797530852	-0.0156640055909145	-0.00465261287916473
9.1	0.0104030372169214	-0.0058236308728503	0.0030868695994353	-0.000586307122612805	0.00308980733094433	-0.000573432363319358	-0.0153914244022872	-0.00336485958159504
9.2	0.00905091920253431	-0.00867489684084398	0.00297482835572731	-0.00100247015231567	0.00298246513679794	-0.00100537546541763	-0.0149465416278536	-0.00271527195930429
9.3	0.00696605461849137	-0.0112849157494643	0.00280456366843245	-0.0014061631521566	0.00280381357571235	-0.00141114409111398	-0.0145596810687439	-0.00225964676886729
9.4	0.00409434014015882	-0.0135353235495935	0.00258080978891186	-0.00179543536426447	0.00258734424617667	-0.00178787469039636	-0.0144540427050863	-0.00212036630268336
9.5	0.00050180792725003	-0.0144951683584194	0.00230246168105095	-0.00212833559760054	0.0023098534081173	-0.00212971475587926	-0.0148898400229122	-0.00135790872305856
9.6	-0.00287359445638539	-0.0149822842093493	0.00198441192246553	-0.00242786528633852	0.00198474505289967	-0.00242688720279156	-0.0146866020856598	-0.000460195430533396
9.7	-0.00678227647948774	-0.0147304689091186	0.0016175607123143	-0.00267568733704341	0.00162305121151242	-0.00268299497971907	-0.0145694701515355	0.000137736698264538
9.8	-0.0107259831690884	-0.0134552241518415	0.00123276708251213	-0.00288222047238101	0.001238480544628	-0.00287376983426663	-0.0145269968669194	0.000730390009701317
9.9	-0.0144686406545547	-0.01112977068485	0.000827434799748895	-0.00301866316624521	0.000820133910868032	-0.00301741255697156	-0.0147227937366168	0.00124302593082024
10	-0.0177450878175279	-0.00754255924732558	0.000399485609067323	-0.00310349842719933	0.000391987187337955	-0.00311586254093148	-0.0153906773863203	0.00232775710728978
10.1	-0.0194323129153663	-0.00347476545162926	-3.91687262149838E-05	-0.00313385678366241	-4.93419926389228E-05	-0.00312845960254255	-0.0149085053070088	0.00384357645494091
10.2	-0.0204561359569165	0.000536214709222973	-0.000482850523663643	-0.00309594876937362	-0.000486235619263395	-0.00309317358959437	-0.0140092657473387	0.00470461018348337
10.3	-0.0207589130043693	0.00469543049394136	-0.000912429149899311	-0.00298921947522349	-0.000904395523189285	-0.00299826811159342	-0.0130743801418711	0.00507592579588798
10.4	-0.0203954402472131	0.00886861610987775	-0.00130586262359587	-0.00283403965291857	-0.00130418562833045	-0.00284020742266419	-0.012351853633747	0.00483876976542356
10.5	-0.0193591398031831	0.01350639109407	-0.0016934946862724	-0.00263783101125443	-0.00169039537690062	-0.00262489317946051	-0.0124151004195782	0.00496665897257732
10.6	-0.0164687440862585	0.0177480686669998	-0.0020453931908381	-0.00236929579689198	-0.00204321951675653	-0.00237310412382414	-0.0117786163196334	0.00553572594645947
10.7	-0.0130258295675409	0.0211426451782885	-0.00235843734753175	-0.00206802114525357	-0.00235495391736088	-0.00206276681957048	-0.0111128538273305	0.00570378750062293
10.8	-0.00899631199353897	0.0237515840989395	-0.00262497267474342	-0.00170985404437905	-0.00261980251777432	-0.0017187409644572	-0.0105813603229335	0.00567033608537872
10.9	-0.00477095718601025	0.0256093278942931	-0.0028314371861405	-0.00133898660937928	-0.00283660109697567	-0.00133825899344548	-0.0104324696609968	0.00540439186479815
11	-0.000163051937051702	0.0271858776136277	-0.00299141152942208	-0.000924670860132937	-0.00299623618729709	-0.000931383126590089	-0.0108477062611211	0.00584277170404672
11.1	0.00536375589831755	0.0275397418626572	-0.00309811204960743	-0.000501070800197005	-0.00308730172930639	-0.000498225260559405	-0.010216093527403	0.00662408591763185
11.2	0.0106160052695288	0.0265744768889617	-0.00312677695019337	-6.66682801754159E-05	-0.00313389440907804	-7.14842456827691E-05	-0.00932724777099058	0.00687956699635904
11.3	0.0156364858103943	0.0245841408515534	-0.00310075621560539	0.000378690698561825	-0.00311223683147289	0.000368691799309149	-0.00822702051847	0.0067744028428787
11.4	0.020038372166021	0.0216788261943564	-0.00302884397673514	0.000804391902303555	-0.00302395801543172	0.000811929012054049	-0.00746298974785278	0.00618142358256555
11.5	0.0237829947144626	0.0183658163213779	-0.00288542342915597	0.00121860578468319	-0.00288819525510966	0.00122883148463615	-0.00752375396616278	0.005852832578826
11.6	0.0274278879833745	0.0139974772673934	-0.00269265686258289	0.00160499261825185	-0.00269264192718106	0.00160791802868879	-0.00682687743158237	0.0056506226691859
11.7	0.0298519907168364	0.00882815666215413	-0.00243464294084767	0.00195769191146044	-0.00243521945406333	0.00196625420833522	-0.00621905190431288	0.00484177364376308
11.8	0.0312499350907906	0.00342254916742013	-0.00214233248470407	0.00228891842696288	-0.00214643192857253	0.00229060080663237	-0.00593333572411759	0.00389691690223923
11.9	0.0316346221654453	-0.00204103820990631	-0.00179509919712248	0.00256444238506483	-0.00180806754266285	0.00256870330880431	-0.00621555167556312	0.00317882644160663
12	0.0311851357149185	-0.00708299182580229	-0.00142529078419732	0.00278489127420753	-0.00142470184240437	0.00278629729951338	-0.00695989438630901	0.00329592570039348
