# GHZ S RI R 50
0.2	0.00573080712499962	0.000697984018633037	0.00305147899576253	-0.000897170106036146	0.00306185330088019	-0.000890349943259924	-0.0141974200888235	0.00438220263028888
0.3	0.0061470760142987	-0.00102219758418845	0.00290810267774528	-0.00132094652166418	0.00290084048733761	-0.00130799843067289	-0.0133133081807181	0.00481145830045212
0.4	0.00593863782528615	-0.00242796817004293	0.00267737785375675	-0.00169355272394467	0.00268265848796316	-0.00170212132334017	-0.0127839782387782	0.00559477468210347
0.5	0.00578507980498354	-0.0038339759188157	0.00241867725254016	-0.00205221978628135	0.00243023946944195	-0.00206447525478717	-0.0117910043250828	0.00622151097292691
0.6	0.00449010335194717	-0.00551265825326025	0.00210519262018692	-0.00236724842645327	0.00210440726795158	-0.00237440914215959	-0.0116181037274882	0.00628270877215153
0.7	0.00279786095221055	-0.00611854855640883	0.00175802619660114	-0.00264573156000924	0.00175606705115019	-0.00264593149887713	-0.0116297551357648	0.0070501329985427
0.8	0.00122886056078568	-0.00631396874124105	0.00137215628247964	-0.00286430520735488	0.00135953454936873	-0.00286886689332794	-0.0114534955340945	0.00798810172655044
0.9	-0.000511611837704825	-0.00596295450392439	0.00095379132346221	-0.003029045858391	0.000954829175018194	-0.0030397666354408	-0.0112718637443019	0.0090858585745426
1	-0.0014780224716915	-0.00481414728596387	0.000527189605293478	-0.00313191566851794	0.000517310625322849	-0.00313265526327656	-0.0103268124331364	0.0105967929000433
1.1	-0.00223251152165956	-0.00486260254198921	7.18500774558655E-05	-0.00316089774077957	6.83394293841957E-05	-0.00317858053776255	-0.00934071085422319	0.0108412877258798
1.2	-0.00378697614260845	-0.00454820235987312	-0.000371543379732729	-0.00315119374037792	-0.000372356913826416	-0.00314911302129469	-0.00876404232580513	0.0115095294975077
1.3	-0.00526066849321668	-0.00416248787220457	-0.000800332600010748	-0.00306794909767258	-0.000803580112157808	-0.00306995801585372	-0.00741476140840066	0.0121645287898135
1.4	-0.00655200747523388	-0.00356881979681426	-0.0012229304728409	-0.00291870645828256	-0.00122171716025344	-0.00292425150191661	-0.00582038998853011	0.0121801487931819
1.5	-0.00664103313561369	-0.00264910346570837	-0.00162342250675985	-0.00272271197954822	-0.00162180756992118	-0.00273122933674601	-0.00403151101606098	0.0116269970627915
1.6	-0.00712331259565915	-0.00159542179510531	-0.00198634473485075	-0.00247106549807517	-0.00198655721943004	-0.00247631356141913	-0.00387715066931943	0.0112355581577222
1.7	-0.00676479160732534	0.000251958769754327	-0.00231673143745056	-0.00217256783179659	-0.00231769582215164	-0.00216628865626521	-0.00332602919570134	0.0117670644278234
1.8	-0.00584113794193472	0.00193643117866613	-0.00258857237832522	-0.00181924381474959	-0.00259957230285695	-0.0018248860691582	-0.00254717012482891	0.0121256800270607
1.9	-0.00453799887762791	0.00341376783076067	-0.0028140999094926	-0.00144733822741583	-0.00282656703603675	-0.0014411583714123	-0.0017553892036008	0.0125598747423802
2	-0.00228485512389891	0.00422669529226192	-0.00299184410912072	-0.0010389155458488	-0.00300149277362712	-0.00103418314793058	-0.000358203951644098	0.0127444524234714
2.1	-0.000967345953237444	0.00369017764350716	-0.0031058598645295	-0.000606174060224875	-0.00310176702377359	-0.000608179708526932	0.000212200142908438	0.0121285140317004
2.2	1.57302151142291E-05	0.0036695220762578	-0.0031616571678228	-0.000165373700683465	-0.00317299969502915	-0.000168193821532645	0.000801550612788829	0.0121695815384077
2.3	0.00106543938408398	0.00339496528157996	-0.00315564915095104	0.000279776562485622	-0.00315536161548205	0.000272873760339987	0.00152984071610009	0.0120393317385765
2.4	0.0019260528067455	0.00315603449177627	-0.00308230134792228	0.000719953380602664	-0.0030848606582294	0.000715689847689679	0.00217701054203282	0.012046082384673
2.5	0.00350865502100093	0.00293690363073295	-0.00294268829692955	0.00113601891430938	-0.00295358755940316	0.00114245601999628	0.00354911121585637	0.0121103188517553
2.6	0.00479756258649066	0.00121980048699603	-0.00276384510231225	0.00153887996365219	-0.00276032676472013	0.001526518640698	0.00462529082515231	0.0110127353700315
2.7	0.00536916019155009	-0.000356146679639444	-0.00251555222497818	0.00190946983794874	-0.00252084206493349	0.00190950014964912	0.00509231866504711	0.0102466374824463
2.8	0.00572247560402515	-0.0020083926379512	-0.00223019215609939	0.0022367342952608	-0.00222232665341238	0.00224651154649715	0.00541812583291174	0.00973217174333154
2.9	0.00589285163637172	-0.00353827920222462	-0.00189236107677912	0.00253658450910192	-0.00188864784656106	0.00253614072310681	0.0059608485579529	0.00966364976357409
3	0.0064169209365081	-0.0054127320575891	-0.00150169745076896	0.00276818385759868	-0.00151645787638579	0.0027743562209365	0.00729813231139412	0.00940173902457522
3.1	0.00571903453854728	-0.00803607179693139	-0.00111198812715798	0.0029420075306007	-0.00110729614654412	0.00295033448632497	0.00785397997821975	0.00846654500832572
3.2	0.00432906740418496	-0.00992270532818732	-0.000690315474844779	0.00307760329576281	-0.00069206321322026	0.00307699958012757	0.00824631776207706	0.00814604751857279
3.3	0.00260022986828177	-0.0115997271353387	-0.000250452668333412	0.00314464408806231	-0.000248820003536441	0.00314089607905094	0.00886084539713932	0.00770831156209814
3.4	0.000415709862008357	-0.012636685037559	0.000196777294119275	0.0031343468612794	0.000190649848715771	0.00315093170667142	0.00949621097619007	0.00718067007566242
3.5	-0.00124156902305425	-0.0134386450793317	0.000615195594812825	0.00308846547875869	0.000620786489758319	0.0030885204875976	0.010501647087715	0.00622513062375802
3.6	-0.00403053602002363	-0.0146640142138836	0.00104363805380112	0.00296941665633754	0.00105182647571724	0.00296906884297727	0.0105033488435257	0.00471621812094174
3.7	-0.00725314885755723	-0.0144698591889362	0.00145408203041815	0.00278555157642255	0.00144455662036167	0.0027992595769131	0.0103633130036597	0.00399075562982534
3.8	-0.0102155136940193	-0.0133972325435677	0.00183035132575781	0.0025556872602196	0.00183279103879978	0.00256481885274003	0.0103590386785553	0.00338442978264928
3.9	-0.0126073805098236	-0.0114675351035583	0.00217312247982271	0.00228133795371424	0.00216585926874243	0.00227958796707273	0.0104301474536305	0.00299514044494419
4	-0.0135782178596159	-0.00946582841944776	0.00245765359161909	0.00196116020612749	0.00246209154449451	0.00195871113678864	0.0113258560947118	0.00243420390089192
4.1	-0.0151159398855119	-0.0084194560352731	0.0027087959789125	0.00159721229972205	0.0027075477469496	0.00159795316009289	0.011440922037118	0.00100960560479345
4.2	-0.0168545236559588	-0.00634596267143899	0.00290401626350055	0.00119447533091751	0.00290843625606645	0.00118575223584204	0.0112905399211186	0.000238968953539638
4.3	-0.0181175290688382	-0.0038060462984001	0.00304372479894547	0.000782629746152875	0.0030501024849065	0.00077481328648903	0.0112287625978404	-0.000520222493810873
4.4	-0.0189331730710839	-0.000665428042319328	0.00311824422733099	0.000349278379487484	0.00312060528912571	0.000347015724181568	0.0110599821650041	-0.00102596610304585
4.5	-0.0181532789060922	0.00260840051744179	0.0031385225362637	-9.13220545221559E-05	0.003143855964059	-9.47170767165662E-05	0.011713355637994	-0.00158444161305874
4.6	-0.0176131821249326	0.00449113213018356	0.00308782946388175	-0.000531975663399235	0.00308911938562197	-0.0005191097704788	0.0115301625509133	-0.00318500990273194
4.7	-0.0170188227385562	0.00700211057898219	0.00298002027404799	-0.000946908289673236	0.00299520761791163	-0.000956559477124874	0.0109440250672944	-0.00412555759479322
4.8	-0.0159057458974267	0.00948940340742819	0.00281734425734801	-0.00135786786684374	0.00282576425047147	-0.00136397023344656	0.0103951481450167	-0.00488425799888092
4.9	-0.0141479753018614	0.0120026445888382	0.00259464555838945	-0.00173963075373801	0.00259880791318706	-0.00173675661445818	0.00988507004424079	-0.00527659939363651
5	-0.0110122839284468	0.0137997150281823	0.00233106897585518	-0.00208888790849591	0.00233468251254239	-0.00208625472548379	0.0103346718849274	-0.00576982070834316
5.1	-0.00859505966867306	0.0141652665751358	0.00202346516480451	-0.00239296714125055	0.0020257566379288	-0.0023916244346551	0.00991369011574673	-0.00701808191168855
5.2	-0.00624014233683164	0.0149720132369654	0.00166826333304916	-0.0026401004187974	0.00166995248523002	-0.00264521861661672	0.00947431554959834	-0.00748210574734016
5.3	-0.00342372087796246	0.0154223697938009	0.00128323365044271	-0.0028523106738729	0.0012863529054002	-0.00285026859010912	0.00929804337572842	-0.00786147973945798
5.4	-0.000390658196625652	0.0155110040762028	0.000860814011939013	-0.00299535912076899	0.000877838096722412	-0.00300653282097105	0.00928608330629321	-0.00831197787338486
5.5	0.00355229153039643	0.0144206674628643	0.000454574984457789	-0.00308967221660697	0.000464550059310805	-0.00309904144465838	0.00987001899133833	-0.00947956158354092
5.6	0.00535831595609675	0.0116392798284302	2.00781339239121E-05	-0.00312833475260653	1.1602316754629E-05	-0.00313153011463116	0.00849454067713144	-0.0112653380611506
5.7	0.00631460990305943	0.00992665667847208	-0.000408523071329339	-0.00309751658682477	-0.000425036751530478	-0.0031011458435671	0.00693857157967857	-0.0115413224497048
5.8	0.00712723234563386	0.00829974816287436	-0.000850410576621579	-0.00300233596435679	-0.000853926830206728	-0.00301623556050059	0.00574170885479988	-0.0117087063656528
5.9	0.00753629227047164	0.00716031787863363	-0.00125005328010522	-0.00286383224913351	-0.00125823069124734	-0.00286375619494776	0.00443874260729805	-0.0114848281959936
6	0.00926839082635115	0.00628802190530969	-0.00164650939295204	-0.00266321255967742	-0.00164296662479245	-0.00266337443115531	0.00425732150043136	-0.0108889685297791
6.1	0.0101832806288724	0.00304315350787479	-0.00200160623870245	-0.00240818397803004	-0.00200323759990441	-0.0024042017465069	0.00360408899188833	-0.0116726443843632
6.2	0.00969507119842317	0.000296981636219315	-0.00231070108313647	-0.00209655674449849	-0.00231438150377446	-0.00210835930007203	0.00266112345052558	-0.0117564661467533
6.3	0.00869444035436907	-0.00226341588437496	-0.00258581961619388	-0.00176576019033607	-0.00259490017597691	-0.00176006592400761	0.00196483644532552	-0.0119483695524611
6.4	0.00717651548982823	-0.00420064821625517	-0.00281210780510427	-0.00137976224085472	-0.00280242771870279	-0.00138462313209584	0.00140110506419558	-0.0119306217794882
6.5	0.00642387465236085	-0.00647104652578885	-0.00296998732711424	-0.000974561252651597	-0.00297781072761469	-0.000970107953486319	0.00172244531856649	-0.012649160209661
6.6	0.00339182370809826	-0.00882678182035813	-0.00307391750015068	-0.00055289092928713	-0.00307553562621399	-0.000556844529086184	0.000390117673410018	-0.0136594394701496
6.7	0.00047331908448794	-0.00923404814062505	-0.00312501194691664	-0.000120777121743615	-0.00313382448005098	-0.000114556120222588	-0.000765844618245029	-0.0136054426877927
6.8	-0.00219773888201204	-0.00901974341199691	-0.00310600105158065	0.000316835258591447	-0.00311704300318296	0.00032182566772277	-0.00187589134450497	-0.0134292165923196
6.9	-0.00467355717902769	-0.00772318369368734	-0.00303293143876561	0.000748714093170178	-0.00303590766634047	0.000751084514429086	-0.00288328931313095	-0.012687707733684
7	-0.00507299785434435	-0.0064463246565751	-0.00289467153195107	0.00116554549487688	-0.00290740924036981	0.00116333187438101	-0.00247459248314434	-0.0124135463341666
7.1	-0.00733100213956456	-0.00667579789556031	-0.00272278939874914	0.00154809362316663	-0.00271918500659957	0.00155671963320386	-0.00393369856040551	-0.0131795958051791
7.2	-0.00989782289192576	-0.00489724358861111	-0.00247221075254941	0.00191526558664591	-0.00247871325908365	0.00191730309996141	-0.00529567387192995	-0.0123847432339114
7.3	-0.0119478874301819	-0.00241851611029836	-0.00218100177520539	0.00223422899170704	-0.00219217917287472	0.00223920233145053	-0.0060586958958041	-0.0115731747183944
7.4	-0.0136940899938578	0.00107425524241622	-0.0018430840912153	0.00251618909816145	-0.00184999814072304	0.0025296857807524	-0.00684957800170294	-0.0105919434161688
7.5	-0.0128365009274241	0.00542791336503482	-0.00148668450205963	0.00275404390076633	-0.00147978146268619	0.00276144934039648	-0.00602057526746448	-0.00954320864717383
7.6	-0.0116999049654575	0.00723374431136196	-0.00108659532472704	0.00293975829078774	-0.00108793117816059	0.00293506791073031	-0.00596220165792625	-0.0106600142906808
7.7	-0.0107733409016193	0.00965031060878408	-0.000660407683444174	0.00306563769226882	-0.00066173631770679	0.00306456979833927	-0.00667178821904526	-0.0112421469353191
7.8	-0.00889730346442104	0.0116718798051625	-0.000237140087465797	0.00311866992931677	-0.000244972713572284	0.00312505307946485	-0.00754733252286051	-0.0115771143075941
7.9	-0.00625905023286006	0.0134235318729801	0.000200293978134368	0.00313085530095791	0.0002082053487304	0.00313241433779163	-0.00832247146672919	-0.011347960189673
8	-0.00194687980059074	0.0133595997499013	0.000642466645657461	0.00306931767614795	0.000642507710202486	0.00307421739110193	-0.00833604823532914	-0.0117511829942004
8.1	-0.000176772734631171	0.0119176331804622	0.00105824921217541	0.00295462579195921	0.00107739256469384	0.00295584442179613	-0.0103367664481399	-0.0122407755202301
8.2	0.00150319083983154	0.0115752884815823	0.00146432194723504	0.00277652865559459	0.00147361965446109	0.0027693963298083	-0.0117164376246005	-0.0112703355769496
8.3	0.00334716252963665	0.0110436761292322	0.00184285785048531	0.00254174308169674	0.00184111736333341	0.00255529007773447	-0.0126615317955801	-0.0102987485231224
8.4	0.00518100332471582	0.0108041405069965	0.00218335343589125	0.00226892131248556	0.0021803193233515	0.00226867494871198	-0.0134911697842248	-0.00901665453066308
8.5	0.00881441240615154	0.00968839970863088	0.00247687924974948	0.00193663551515844	0.00247596310880029	0.00193982180743123	-0.0129846587099499	-0.0080609812893153
8.6	0.0101720463663673	0.00609249587624699	0.00272258331104833	0.00157549965218781	0.00273213057436199	0.00156900187242561	-0.0140624410376556	-0.00835023980413286
8.7	0.0103849549897152	0.00368665482208941	0.00291153344912083	0.00117515397768565	0.00291709839085615	0.00117591104760244	-0.0152040257615129	-0.00728935801813792
8.8	0.0103171210658829	0.00151615972750176	0.00305299466432277	0.00076470877985214	0.0030588279445997	0.000755961920282925	-0.0160048525100829	-0.00616244956574959
8.9	0.00994551403494223	-0.000106175888345745	0.00313504105607959	0.000327853755232307	0.00313417892300133	0.000325595869679884	-0.0164923203549989	-0.00452494497801346
9	0.0110228895754375	-0.0017998133238876	0.00314308610588873	-0.000117141559180495	0.0031462281808029	-0.000113018918865762	-0.0153464832690693	-0.00300125527858855
9.1	0.0106054348183339	-0.00547145954789473	0.00310219236629287	-0.000555686205184856	0.00310500384717388	-0.000542742375493012	-0.0150963073832257	-0.00287573400104145
9.2	0.00922473525362414	-0.00821947495041157	0.0029980310926615	-0.000976745126606121	0.00300573079847544	-0.000979585856054154	-0.0147841215223711	-0.00211489278873439
9.3	0.00738733399786956	-0.0108428191002243	0.00283182867890129	-0.00138667027176411	0.00283112191405997	-0.00139168312336181	-0.0142451500456589	-0.00163269731335324
9.4	0.00486215018484631	-0.0127107422070518	0.00260908464441096	-0.00177998304882406	0.00261557966517398	-0.00177232785291211	-0.0138514570696561	-0.00111555702868234
9.5	0.00296798180075229	-0.0146871668716861	0.00233880334907407	-0.00211401741223982	0.00234625055122509	-0.00211532109203188	-0.0128134188602369	-0.00130371911553121
9.6	-0.00169302294971111	-0.016889983335847	0.00202511254736644	-0.00242693727268542	0.00202543832480681	-0.00242594796780359	-0.0139509218603153	-0.00181638254988865
9.7	-0.00661461572675569	-0.0164636316257953	0.00165567220157763	-0.00268373507631304	0.00166127591619647	-0.00269105493637987	-0.014698987320195	-0.000867158900441654
9.8	-0.0111245079521185	-0.0148182707973382	0.00126868980599415	-0.00289675086528132	0.00127437973256349	-0.00288817634745413	-0.0150492366502521	0.000149281892613043
9.9	-0.0151368052582686	-0.0115717085235003	0.000863148095828176	-0.00303970963677487	0.000855766301504363	-0.00303851450763641	-0.0153319789963347	0.00153453567625386
10	-0.0166307287859508	-0.00792259024942973	0.000430510205897325	-0.00313910131558096	0.000423021298421791	-0.00315168345288209	-0.0142206932697876	0.00256538854985429
10.1	-0.0190989454288855	-0.00558297655901495	-2.16511965879921E-05	-0.00317327555277681	-3.19827083769794E-05	-0.00316786932777706	-0.0145205793970249	0.0023742294007062
10.2	-0.021378643045878	-0.0014555987708819	-0.000473072290483766	-0.00313657390327245	-0.000476513224326055	-0.0031337817074407	-0.0147924765268646	0.0033478972688439
10.3	-0.022579843943036	0.00345899699086387	-0.000910433344247461	-0.0030319015279674	-0.000902254679403253	-0.0030410297315635	-0.0146511577160502	0.00439409500150259
10.4	-0.0224468884996574	0.0092978214379993	-0.00131445099666615	-0.0028792871702484	-0.00131272797445347	-0.00288553728696624	-0.0140953353548619	0.00561777156475683
10.5	-0.0191730088772604	0.0145917851782648	-0.00171748963137202	-0.00267558566082194	-0.00171434693896439	-0.00266246299334777	-0.0122102417109925	0.00617891359125953
10.6	-0.0163146656035183	0.0177030468632484	-0.00207097946198617	-0.00239797687016897	-0.00206877986093212	-0.0024018323890306	-0.0117508392474114	0.00564695302227272
10.7	-0.0129005965869798	0.0209888989298584	-0.00238812426740389	-0.00209296041667182	-0.00238459641361183	-0.00208764206965999	-0.0112322453675951	0.0057944210748706
10.8	-0.00907236644292785	0.0234685790831548	-0.00266023929716328	-0.00172871423682268	-0.00265501315630596	-0.00173771987260808	-0.0109752151437488	0.00572944440346502
10.9	-0.00493986489526759	0.0260072027057013	-0.00287089605734997	-0.00134740445122967	-0.00287612256229046	-0.00134665244665834	-0.0109215984499167	0.00623993282883944
11	0.00154558062388488	0.0272715299132762	-0.00302406433002653	-0.000923952485723039	-0.00302895887539525	-0.000930715258517589	-0.0095746656461673	0.00644341346750351
11.1	0.00616418867446466	0.0259949937653387	-0.0031320464927189	-0.000500202247358803	-0.00312111557037955	-0.000497348075819287	-0.00988201865042474	0.00579257772190422
11.2	0.0105049743564521	0.0251736309398342	-0.00316227825787586	-5.83019586052451E-05	-0.00316949013107242	-6.31515470500164E-05	-0.00981526791708211	0.00635346406142231
11.3	0.0149568817384595	0.0237136057858221	-0.00313340780646181	0.000395603129394372	-0.00314505613940806	0.000385541075300118	-0.00920122321374557	0.006882663025752
11.4	0.0191632947755815	0.021922643581747	-0.00305434378315225	0.000826434681203344	-0.00304937507944928	0.000834021662099465	-0.00842823510129667	0.00738111360543122
11.5	0.0247968640073285	0.0186303248766448	-0.00291052528659593	0.00123867221762699	-0.00291329601869539	0.00124900661487406	-0.00656134982745238	0.00686445836382611
11.6	0.0277318941361392	0.0128342759554857	-0.00271715114504873	0.00163543775870658	-0.0027171233333052	0.00163839728694627	-0.00666572626226405	0.00537184714075899
11.7	0.0293113884765966	0.00802533135647381	-0.00245049317863951	0.00199394327547566	-0.00245102595722586	0.00200260506648234	-0.00674236145118836	0.00497751825798579
11.8	0.0303761775109727	0.00344085718676697	-0.00214982389346721	0.00232673869195933	-0.00215395520380108	0.00232846527844273	-0.00665381506036436	0.00476065221331231
11.9	0.0313834753816436	-0.000494115849641083	-0.001798073023546	0.0026014549163712	-0.00181114847813165	0.00260583727515909	-0.0063303804063068	0.00526777919557873
12	0.0339825901250224	-0.0060481925359041	-0.00142285129522738	0.00283027074618752	-0.00142224469004953	0.00283169012665465	-0.00440584182258816	0.0048230512725475
