# GHZ S RI R 50
0.2	0.0061910345249856	0.0015028417392676	0.0030460492489946	-0.000898680290153497	0.00305641434334388	-0.000891880105394056	-0.0137724780985733	0.00513524330476155
0.3	0.00645671019902699	-0.000592841754342657	0.00290107845868961	-0.00132183448926831	0.00289384502784008	-0.00130890239214364	-0.0130194490419697	0.00518794518629413
0.4	0.00613401985641186	-0.00244337528732307	0.00266870875345777	-0.00169285887420858	0.00267396560902023	-0.00170141340176905	-0.0125582921254034	0.00552796310932085
0.5	0.00502665076757352	-0.00372028468769733	0.00240989595362464	-0.0020481233957774	0.00242141422090328	-0.00206035207774175	-0.0123952768382652	0.0062312926967432
0.6	0.00428423785649306	-0.00446149039439336	0.00209777141267117	-0.00236222281526693	0.00209698322796144	-0.00236936334797418	-0.0116307843963171	0.00704230043531717
0.7	0.00317632700200824	-0.00526658753415988	0.00175057979252182	-0.00263915321552695	0.00174862640676743	-0.00263935097042292	-0.0111341822955892	0.00746863313363715
0.8	0.00193095778638249	-0.00571980837750717	0.00136559571929687	-0.00285546381967591	0.00135301392660977	-0.00286000164895091	-0.0107566427254099	0.00806641778521022
0.9	0.000620698771465835	-0.00594793286536027	0.000949623476655487	-0.0030180961425494	0.000950655187446843	-0.00302877765940844	-0.0103176985370731	0.00860711827036001
1	-0.00120702576138461	-0.00603812455504939	0.000525835082958624	-0.00312176946635636	0.000515988005795577	-0.00312250776266892	-0.0102751802824501	0.00911751091531364
1.1	-0.00280675784527009	-0.00505491358479634	7.03980240114294E-05	-0.0031499239409616	6.68928701641834E-05	-0.00316754386009877	-0.00989914923566246	0.01046058250947
1.2	-0.00393848469650227	-0.00444223912566833	-0.000370442959524458	-0.00313868718653086	-0.00037125303235372	-0.00313661460146528	-0.0087549929267163	0.0113640246337461
1.3	-0.00519408442564477	-0.00402560230588083	-0.000796164250183874	-0.00305555468346521	-0.000799397827455835	-0.00305755626285584	-0.00707220777700583	0.0118985437240074
1.4	-0.00633197035197003	-0.00360854013155821	-0.00121641392362848	-0.00290794113965614	-0.00121520214164662	-0.00291346366344809	-0.00534688389235476	0.0115326217604447
1.5	-0.00717839459368767	-0.00232528209295892	-0.00161686341016539	-0.00271191824968066	-0.00161525462305168	-0.00272040161766741	-0.00430282589389524	0.0111833816908508
1.6	-0.00680371772899864	-0.000622796663155321	-0.00197533625767423	-0.00245973535352616	-0.00197554523581519	-0.00246495748186975	-0.0035018140276728	0.0111346983650803
1.7	-0.00617111947423773	0.000759436798559688	-0.00230252223494629	-0.00216434123817203	-0.00230348911633412	-0.00215809480892508	-0.00296184443661164	0.0112223771788351
1.8	-0.0052918509073644	0.00212753986082821	-0.00257297855948117	-0.0018142683046168	-0.00258391545095485	-0.00181989972601575	-0.00237579298752356	0.0114085735937241
1.9	-0.00421994021822239	0.00307772504531672	-0.00279792871492468	-0.00144456316677724	-0.00281034381005937	-0.00143843328964762	-0.00183858925283802	0.0115315728700848
2	-0.00330764707437175	0.00408483070830339	-0.00297218193263012	-0.00103836961982903	-0.00298178233157353	-0.00103368332247188	-0.00151908550279271	0.0120518279931779
2.1	-0.0015286527786435	0.00486995928678736	-0.00308605175159238	-0.000612851213982969	-0.00308197584291317	-0.000614831967370252	-0.000319267268129722	0.0125044098941939
2.2	0.000179640719922758	0.00485080548257229	-0.00314442873117096	-0.000176139086892897	-0.00315570125631064	-0.000178986123091762	0.000874476903303797	0.0123572667914716
2.3	0.00171031681483935	0.00432700271602737	-0.00314058966266611	0.000265932192039776	-0.0031402764499137	0.000259065869638901	0.00187081749735359	0.0119400408582161
2.4	0.00296465207494774	0.00336583485597446	-0.00306889834296564	0.000702681763535071	-0.00307142537548192	0.000698429968412293	0.00268359727181494	0.0114094052119678
2.5	0.00348115215701708	0.00225298855644225	-0.00293409605437118	0.00111291523582506	-0.00294497653898345	0.0011192552226961	0.00308390147355813	0.0110021752620896
2.6	0.00427869307749622	0.00151688287988028	-0.00276246272954727	0.00151632027902101	-0.00275888354815334	0.00150402773399693	0.00405887735842307	0.0109179778443811
2.7	0.00513690546638224	0.000253399443314805	-0.00251782367018579	0.00188761060221875	-0.00252309458394746	0.00188760934065183	0.00501265224010324	0.0102944462070872
2.8	0.00579380682201106	-0.00136569802520764	-0.00223649366404064	0.0022148859326638	-0.00222871717403898	0.00222467859152637	0.00569969938798519	0.00961834986537319
2.9	0.0060685666071861	-0.00332067974272186	-0.00190438868519418	0.00251522088591785	-0.00190068396462592	0.00251480479280582	0.00633330402647359	0.00902935821606152
3	0.00564455779556209	-0.00512078982407111	-0.00151982487954704	0.00275276327715001	-0.00153460793003019	0.00275881687151585	0.00691635598193046	0.00878235866454689
3.1	0.00537371261434904	-0.0068509622993417	-0.0011295246140959	0.0029305237094	-0.0011248935890574	0.00293886916861905	0.00797397388954506	0.00834554917917837
3.2	0.00441547951846293	-0.00880119219004312	-0.000710300055450675	0.00306832948375209	-0.000712041082309347	0.00306771473285838	0.00856171520481105	0.00766761337455389
3.3	0.00295335031530858	-0.010650293469248	-0.000273000647908915	0.00313964761896007	-0.000271342458198338	0.00313591523884607	0.00916921240519355	0.00696575309974643
3.4	0.000872109775674561	-0.0122294375106369	0.000173583634129455	0.00313574641058834	0.000167333592428536	0.00315228562263147	0.0096721852385148	0.00600447023981558
3.5	-0.00186656465057667	-0.0131097172359003	0.000596339607130241	0.00309360416061823	0.000601932569077689	0.00309369380676625	0.00969801658078236	0.00512985616333701
3.6	-0.00427081448337089	-0.0132536028650937	0.00102368860634565	0.00297525063828761	0.00103187643178211	0.00297495694425539	0.0100862697724574	0.00443435083735672
3.7	-0.00680247568721313	-0.0132010423148676	0.00143436986780074	0.00279645792775751	0.00142474455108929	0.0028101000401713	0.0103063228471703	0.00349609873669865
3.8	-0.00941853413628686	-0.0126014765561756	0.00181349892115493	0.00257108310698797	0.00181587489237244	0.0025802401461663	0.0103284775315426	0.00263096633541463
3.9	-0.0119102163472466	-0.0115252190680203	0.00216063936882236	0.0022988599914344	0.00215337849136647	0.00229705904366765	0.0101846399694202	0.00186116756621065
4	-0.0143694088647026	-0.00962797436395016	0.0024452200177526	0.00197864323709511	0.00244967632955682	0.00197622347813252	0.0100153762053026	0.001653050613567
4.1	-0.015750236696288	-0.00728511519607612	0.00269929550797676	0.00162123861774779	0.00269803966760584	0.00162197029444532	0.0107641806630625	0.00134965403932815
4.2	-0.0168560154441076	-0.00508052340125235	0.0029012814282931	0.00122043309995904	0.0029057813391053	0.00121172485637875	0.0113299211190192	0.000476159551836219
4.3	-0.0176710519958759	-0.00280329473141896	0.00304640160774642	0.000808080512360937	0.00305285706447749	0.000800290509779614	0.0116795673134837	-0.000612591633082693
4.4	-0.0183311431696804	-0.000483878745423609	0.00312419396076768	0.000373797191243497	0.00312657861871699	0.000371546140728431	0.0116518786043934	-0.0017884155913604
4.5	-0.0190151380648016	0.0023350806103071	0.00314991525384346	-6.35783501476176E-05	0.00315529699871975	-6.69371441875301E-05	0.0113084592638743	-0.00254170497966242
4.6	-0.0186376266005987	0.0054794371010404	0.00310870384138597	-0.000509020771577234	0.00310989318707191	-0.000496075640648106	0.011493003559065	-0.00335846863592088
4.7	-0.0176784827053878	0.00827313811392763	0.0030044699342245	-0.000929893464348738	0.00301981833364311	-0.000939485945276763	0.0113007015106744	-0.00452660306451135
4.8	-0.0162864466425655	0.0108393652533387	0.00284440871642237	-0.00134569181746231	0.00285292444487532	-0.00135177027465769	0.0108661497204271	-0.00554987623455941
4.9	-0.0143366048393562	0.0129802099033751	0.00262509306887641	-0.00173170777470449	0.00262926158627395	-0.00172878306613929	0.010321607981277	-0.00642790156533744
5	-0.0122195780650018	0.0149721879913864	0.00236611835265595	-0.00209089003198112	0.00236974514301126	-0.00208820848400674	0.00988515295126854	-0.00679370512522852
5.1	-0.00896613137864973	0.0164338731010918	0.00205343478840684	-0.0024035812589525	0.00205573946894248	-0.00240221506625105	0.0101246966921361	-0.00747235848918119
5.2	-0.00580669432493057	0.0168771899502638	0.00169517702945199	-0.00265494992934648	0.00169690503475383	-0.00266010424649881	0.00994683686225235	-0.00840531232864778
5.3	-0.00272414138887934	0.0167338602603986	0.00130766394476814	-0.00287239507775503	0.00131080229664299	-0.00287032048963661	0.00966511323353393	-0.00911962230700167
5.4	5.20290374376295E-05	0.0159290732040681	0.000881014796761344	-0.0030222537065664	0.000898253527691573	-0.00303347460732375	0.00934912268223335	-0.0100345108167092
5.5	0.00221714000559461	0.0151978736675387	0.000464090355316184	-0.00312042134675459	0.000474181840292589	-0.00312987022603917	0.0087007621801015	-0.0106386238430757
5.6	0.0048603626450586	0.0139878282569042	2.50026222443477E-05	-0.00315628769521399	1.64558342756269E-05	-0.00315952449590575	0.00836503059395495	-0.0114970400333935
5.7	0.00678703891604914	0.0120922835712566	-0.00040761057206652	-0.0031268090233465	-0.000424271617439634	-0.00313049690149574	0.00729730050132423	-0.0123183536050448
5.8	0.00819687627619887	0.00998370718839721	-0.000855988486591696	-0.00303224944949166	-0.000859526477411858	-0.00304628715732737	0.00608367425983785	-0.0128762141333584
5.9	0.00899687156461374	0.00761430329434113	-0.00126342365239152	-0.00289131558483025	-0.00127168094737033	-0.00289123549194792	0.00464018678982103	-0.0132277590240184
6	0.00873039440799155	0.00557202425183811	-0.00166196332323654	-0.00268378520819959	-0.0016583916806886	-0.00268395103681462	0.00287061073328552	-0.0126593351231003
6.1	0.00900314073157867	0.00395367187841872	-0.00201928904555117	-0.00242986513065303	-0.00202093531178577	-0.00242584745700137	0.00260325202158536	-0.0117496159550777
6.2	0.00894403122576587	0.00162766781022306	-0.00233454413863246	-0.00211476793792109	-0.00233826941046597	-0.0021266805905732	0.00261347962048634	-0.0117764995069675
6.3	0.0082910979266056	-0.00094646517949715	-0.00261352492190221	-0.00177773606644566	-0.00262268099195289	-0.00177197128250441	0.00244361983603086	-0.01242341869358
6.4	0.00666847990324293	-0.00351450760428958	-0.00283958653093416	-0.00138485574135953	-0.00282983496178474	-0.00138978167116852	0.00174360788558977	-0.0132505496348707
6.5	0.00441503486151621	-0.00489834874522652	-0.00299717336324171	-0.000979324795180718	-0.00300505950442876	-0.000974822692756481	0.00097115090134839	-0.0133940724613076
6.6	0.00273467887534785	-0.0059635902187614	-0.00310629940707637	-0.000550617422580376	-0.00310794392540852	-0.000554606727504979	0.000733412791542596	-0.0140428478382663
6.7	0.000659285187681834	-0.00669173342771968	-0.00315569390054525	-0.000110126809250304	-0.00316456814159717	-0.000103812310061392	-0.00025834960247158	-0.0145687792214241
6.8	-0.00149163541210884	-0.00692868926738556	-0.00313291558990058	0.000333072115199606	-0.00314403661255977	0.000338155424636549	-0.00134820230717448	-0.0147260929652034
6.9	-0.0039391000142937	-0.00683130008646961	-0.00305704899807113	0.000767813459641316	-0.0030600422098926	0.000770217279728223	-0.00257425032160841	-0.0147550396007492
7	-0.00660459716589744	-0.00535151424761638	-0.00291949111910757	0.00119226707881025	-0.00293237455522855	0.00119009338612351	-0.00377173762063007	-0.0139603584728953
7.1	-0.00792425449342711	-0.00352474357903455	-0.00273782714137188	0.0015824363460116	-0.00273412642082627	0.00159111930357778	-0.00404493925319692	-0.0135941321629726
7.2	-0.00918366402854401	-0.00179980708288126	-0.00247901467375054	0.00195049833741535	-0.00248555779823394	0.00195260266148719	-0.0047919172159651	-0.0134507539121752
7.3	-0.0101938244024248	0.000143016446662832	-0.00218158781237565	0.00226995531641829	-0.00219281911234723	0.00227505786839939	-0.00549318959197729	-0.0132366949352162
7.4	-0.0110361970640058	0.00197695207606316	-0.00183737687965657	0.00255401103462137	-0.00184423445433197	0.00256768490698723	-0.00645243333092341	-0.0133055855813789
7.5	-0.01223385703928	0.00444279483795703	-0.0014672750861832	0.00279185604899164	-0.00146023607796081	0.00279924111451013	-0.00776613286369217	-0.0126218961084119
7.6	-0.0118044975693831	0.00743917599510166	-0.00106019154188528	0.00296783277316071	-0.00106158634741372	0.00296313138833908	-0.00777841035685627	-0.0119769601188595
7.7	-0.0109616886846147	0.0097950144575024	-0.000630436145311045	0.00308819242317839	-0.000631783041875814	0.00308713359610937	-0.00821617184794975	-0.0123335138077742
7.8	-0.00936837652610603	0.0117793305533314	-0.000202779428732786	0.00313577673285109	-0.000210575677207727	0.00314227842804817	-0.00891947312795085	-0.0124393820053403
7.9	-0.00746212154205319	0.0132112755897872	0.000240401623470211	0.00313987301383932	0.000248361749766812	0.00314133831205179	-0.00972996621011007	-0.0121913897819885
8	-0.00508467098640378	0.0149420239123611	0.000680909480695967	0.00306415600934546	0.000681011026963542	0.00306905963008856	-0.0103514704364251	-0.0113554409006087
8.1	-0.00163885219932232	0.0154207383981619	0.00109178501122223	0.00294570378626947	0.00111095953179167	0.00294671261738639	-0.0103350473772623	-0.0113647945221275
8.2	0.00134761270834254	0.0150567767944876	0.0014970324646203	0.00276183649337191	0.0015062555626903	0.00275459302327671	-0.0110037759971606	-0.011196868415196
8.3	0.00414444182812469	0.0140858504090134	0.00187243726158572	0.00251938937327375	0.00187085713291979	0.00253295374907018	-0.0116003384403149	-0.0108605341099034
8.4	0.0063693039302725	0.0124571856489121	0.00220542094901742	0.00223924016089846	0.00220238984624758	0.00223902942598217	-0.0124232319790297	-0.0106300811962817
8.5	0.00786187494752199	0.0111682005983143	0.00248980337038966	0.00190891526758077	0.00248891943584273	0.00191210325704821	-0.0134063028255175	-0.00956352193553246
8.6	0.0100089910477772	0.0094061860320219	0.00273511650814139	0.00154565615794347	0.00274458500388466	0.00153906939521761	-0.0134524398543659	-0.00904167394418224
8.7	0.0114511197615792	0.00684617474795957	0.00291761107915974	0.00114132473096704	0.00292317168082686	0.0011420204736102	-0.0141213704109732	-0.00881486190871219
8.8	0.0122834862153492	0.00398955074924345	0.00305100820763015	0.000730276713275898	0.00305673092763963	0.000721497449372619	-0.0150731158934149	-0.0084276315459675
8.9	0.0123776568072545	0.00069993107836662	0.00312634576596321	0.000297169441008502	0.00312546565884885	0.000294928135719608	-0.0160884288870982	-0.00769069596588958
9	0.011375474917918	-0.0021041583491285	0.00313452344544573	-0.000147578657878379	0.00313769839032364	-0.000143496451066772	-0.0168511788220837	-0.00595816527132519
9.1	0.0105898588530186	-0.00479619904985992	0.00308350419411211	-0.000588082908278058	0.00308644886592938	-0.000575222557244691	-0.0163333965580976	-0.0045824694758869
9.2	0.00897787698073926	-0.00754554506589429	0.00297157417081901	-0.00100319740445821	0.00297920241526132	-0.00100610428308522	-0.0159098964480838	-0.00361725457444123
9.3	0.00682504684690669	-0.00997218836805325	0.00280145759746893	-0.00140641026548157	0.00280070558117372	-0.00141138658638721	-0.0152057005792496	-0.00281307430577514
9.4	0.00386614584982362	-0.012172572484465	0.0025772771518494	-0.00179549766146502	0.00258381063032646	-0.00178794817536473	-0.0146792866654847	-0.00251549363066164
9.5	0.000193119434568032	-0.0128373435540426	0.00229838556377459	-0.00212641481324088	0.00230576656410038	-0.0021277952789897	-0.0142297242483449	-0.00172389114333687
9.6	-0.00303964374417651	-0.013143939221285	0.00198201684505543	-0.00242522168170884	0.00198234965353005	-0.00242424472854814	-0.0137138235435203	-0.00187475860251425
9.7	-0.00675099689012724	-0.0127551480762721	0.00161567495193108	-0.0026730917489495	0.00162115920417067	-0.00268039239553091	-0.0140403744674872	-0.00181054248103791
9.8	-0.0104205031855416	-0.0115194054199532	0.00123113035800677	-0.0028792655158949	0.00123683861965159	-0.00287082456166807	-0.0145005608954773	-0.00136268304773559
9.9	-0.014039875999791	-0.0094887489696415	0.000826390424514661	-0.00301481139596596	0.000819098840412605	-0.00301356240714534	-0.0152191168650798	-0.000561585405713902
10	-0.0174405532888338	-0.00593502223399018	0.000400572832325339	-0.00309990306708806	0.000393088697629181	-0.00311225732337565	-0.0155893518358541	0.00123254619688171
10.1	-0.0190597633059718	-0.00193625321444423	-3.82970927516334E-05	-0.00313134536335447	-4.84636192948529E-05	-0.00312595525281306	-0.014673205446079	0.00229364010075727
10.2	-0.020015134432675	0.00196164637162952	-0.000481760348075122	-0.00309318773074859	-0.000485142892153612	-0.00309041582005545	-0.0140266655600693	0.0028563102339658
10.3	-0.0202702412209157	0.00584418833097113	-0.000910501017019714	-0.00298646763892941	-0.000902472589344416	-0.00299550435035061	-0.013456357432833	0.00319131176692726
10.4	-0.0201808132939945	0.00959835597284398	-0.0013028225570801	-0.00283216870896758	-0.0013011432490011	-0.00283832954240764	-0.0131670185880999	0.00332396241059259
10.5	-0.0196322563800058	0.0143199705926238	-0.00169136943738458	-0.00263742452037344	-0.00168827807671315	-0.00262449128808317	-0.0128155960770401	0.00429336823453797
10.6	-0.0172058352685797	0.01878186005618	-0.00204324528606039	-0.00236805776627447	-0.00204107224377449	-0.00237186267778955	-0.0116412477361003	0.00455362242547529
10.7	-0.0139235658797375	0.0226035243656352	-0.00235551606141075	-0.00206730716544088	-0.00235203792029994	-0.00206205576468535	-0.0107579068395967	0.00454161114101573
10.8	-0.00984616116526985	0.0255231201815491	-0.00262194386017044	-0.0017101405996821	-0.00261677226283286	-0.00171901763931324	-0.0101303258184342	0.00419223849497757
10.9	-0.00564963461168501	0.0275380923883826	-0.00282924359587723	-0.00133999493732803	-0.00283440537757802	-0.00133927073077741	-0.0101633718251828	0.00384484626843651
11	-0.00109945257561192	0.0296177821180697	-0.00298915224328855	-0.00092455754291145	-0.00299397232521034	-0.000931265971482567	-0.0100956506328031	0.00454151811346004
11.1	0.00472470420778034	0.0303612248750517	-0.00309484964263664	-0.000502326103648629	-0.00308405132120774	-0.000499477239642988	-0.00920635293153885	0.00440303105723235
11.2	0.0104263542001545	0.0296685519642899	-0.00312426059701814	-6.89209466868193E-05	-0.00313136888916582	-7.37383596031293E-05	-0.00884427103730524	0.00412214935592576
11.3	0.0159888759623886	0.0276501557640962	-0.00309903903051399	0.000376232016609055	-0.00311050514088877	0.000366231322912984	-0.00842079399241672	0.00391444993640392
11.4	0.0207344707843661	0.024406874486382	-0.00302718974197777	0.000802297854854821	-0.00302231095778165	0.000809832320058687	-0.00831888374141795	0.00363204650496127
11.5	0.0246075523407934	0.0209834965385497	-0.00288314536493332	0.00121491037795262	-0.00288592228183548	0.00122512230464237	-0.00815293503678527	0.00396652051470031
11.6	0.0285362359571506	0.0163641925282559	-0.00269252134503185	0.00160065261961079	-0.00269250983508318	0.00160357586509423	-0.00737552540645731	0.00332042981306902
11.7	0.0311466645801214	0.0108135509273846	-0.00243538086249468	0.00195394529397173	-0.00243596631818555	0.00196250210818491	-0.00735328842330388	0.00254040891518292
11.8	0.0325400269788588	0.00486473537761878	-0.00214342401228872	0.00228534996982263	-0.00214752276096405	0.00228702712100303	-0.00757049546108853	0.00211928169388986
11.9	0.0325465214733769	-0.00118610082905658	-0.00179673909624024	0.00256009809656368	-0.00180970181328963	0.00256433956911907	-0.00792579365761253	0.00242101685261888
12	0.0314731539109506	-0.00610144076077719	-0.00142979488031968	0.00278119630113509	-0.00142920873012479	0.00278260284211023	-0.00747647278272126	0.00364436434204336
