# GHZ S RI R 50
0.2	0.00563908845855684	0.000679948134954642	0.00305230529658019	-0.000896832386863395	0.00306268068215504	-0.000890008911443721	-0.0143612933650888	0.00429849016921109
0.3	0.0060644199811815	-0.00098833076660645	0.00290924138797873	-0.00132066670030946	0.00290197416157627	-0.00130771652557889	-0.0134607655881221	0.00477983585491573
0.4	0.00586163175629997	-0.00229999064799588	0.00267886867890316	-0.00169352204321754	0.00268415361153949	-0.00170209263435848	-0.0128952214712709	0.00566673598078781
0.5	0.00584857561557847	-0.0037162777440694	0.00242020999069545	-0.00205281173178236	0.00243177995114902	-0.00206507122611168	-0.0116453693577156	0.00625517519949314
0.6	0.00442255699769812	-0.00546793894411318	0.00210652869855164	-0.00236795014743928	0.002105744198905	-0.00237511418725655	-0.0115566241614409	0.0060658136254237
0.7	0.00268566667066024	-0.00596008621541636	0.00175944983635746	-0.00264672172923644	0.00175748973647254	-0.00264692216293585	-0.0116898526747219	0.00681608227589988
0.8	0.00113536666992477	-0.00608382528280406	0.00137348859690303	-0.00286574463459403	0.0013608602498632	-0.00287031131549906	-0.0116128685018238	0.00775921748497353
0.9	-0.000608474833315826	-0.00565528029187333	0.000954723030104972	-0.00303095064348819	0.000955762635691826	-0.00304167839527363	-0.0115922012153227	0.00897123301893652
1	-0.00139555683240333	-0.00436504296035116	0.000527571195575043	-0.00313368290327832	0.000517686617109422	-0.00313442317663807	-0.0104923071147806	0.0108551309164734
1.1	-0.00208015335291476	-0.00463688756315193	7.23196783603855E-05	-0.00316285250428917	6.88092257358658E-05	-0.00318054676268938	-0.00921708486910939	0.0109460510396047
1.2	-0.00373565328694763	-0.00431302003585368	-0.000371535673171564	-0.00315350074520211	-0.000372349976645441	-0.00315141859550623	-0.00858651393351099	0.0115655540841623
1.3	-0.00522381023509339	-0.00388908926499398	-0.000800914553441536	-0.00307029654453625	-0.000804164523924571	-0.00307230702510986	-0.00712261182220571	0.0121230428798688
1.4	-0.00655013322672163	-0.00323768350215346	-0.00122400964423094	-0.00292076115007125	-0.00122279579788471	-0.00292631032221339	-0.00556297874577612	0.0120048508998934
1.5	-0.00657056756525644	-0.00231821770434332	-0.00162444310564958	-0.00272475163928569	-0.00162282655871759	-0.00273327502239285	-0.00369464085101467	0.0112765081597567
1.6	-0.00719806134132922	-0.00125073948808599	-0.00198824582564708	-0.00247330532817225	-0.00198845863681889	-0.00247855824755097	-0.00387131608568615	0.0106225635810302
1.7	-0.00682460023001261	0.00070769962710694	-0.00231927622656961	-0.00217419598397472	-0.00232024041949451	-0.00216791076868488	-0.00357333062654808	0.0112666329950146
1.8	-0.00588159864726125	0.00243331030795011	-0.00259134478422706	-0.00182022619252629	-0.00260235596808974	-0.00182587075136265	-0.00292202711932201	0.0117939960281101
1.9	-0.00456504726618699	0.00398463409214526	-0.00281685427684322	-0.00144793698475899	-0.00282933071182218	-0.00144174894523992	-0.00214282388717173	0.0125079593941569
2	-0.00214366608705754	0.0047994011273136	-0.00299524924586676	-0.00103936269959545	-0.0030049071191924	-0.00103462315985987	-0.000316045890447215	0.0128375514062072
2.1	-0.000928554265901351	0.00415363011161408	-0.00310944332629983	-0.000605301262515138	-0.00310534713082888	-0.000607311029778795	0.000321873452664119	0.0118578826483635
2.2	3.36562084488133E-05	0.00422849120183712	-0.00316482471571196	-0.000163817362206593	-0.00317617981611854	-0.000166634067386227	0.000771214057312648	0.0118057734260719
2.3	0.00113758597254621	0.00398906551269599	-0.00315855019242079	0.000281822722788183	-0.00315826626099307	0.000274913068793025	0.00134663018363207	0.0116752620107875
2.4	0.00202858256618658	0.00376073418286496	-0.00308513423319227	0.00072257450750489	-0.00308769882620607	0.000718307998509931	0.00180234193130114	0.0118729616388556
2.5	0.00376048376121193	0.00355256208449113	-0.00294494460522575	0.00113998906501779	-0.00295585018128746	0.00114644337384876	0.00343366801308348	0.0123628744074197
2.6	0.00501651350448885	0.00162688740555081	-0.00276469022986848	0.00154292057722502	-0.0027611810733568	0.0015305452188649	0.00487017652755219	0.0110839875954551
2.7	0.00548199711530204	3.11532656027917E-05	-0.00251581665637665	0.00191349452723205	-0.0025211108957076	0.00191352996605906	0.00543392805058857	0.0101315845460389
2.8	0.00574219157838321	-0.00161410179555451	-0.00222977444896362	0.00224098438939502	-0.00222189198143325	0.00225076183466046	0.00573547133246011	0.00943335246274546
2.9	0.00582012162065111	-0.00307157589092694	-0.00189082979834434	0.00254109585045487	-0.00188711395014239	0.00254064708053715	0.00618607762513955	0.00934856418809148
3	0.00636909514323276	-0.00489758730521207	-0.0014985595629432	0.00277174496107233	-0.0015133189126243	0.00277794141286914	0.00775615467498788	0.00905390450925959
3.1	0.0055010418143543	-0.00749648601780373	-0.00110893514933696	0.00294469119375997	-0.00110423096105893	0.00295301626215775	0.00820959472244334	0.00771237163646433
3.2	0.00408044021599065	-0.00920063880937716	-0.000686722861617841	0.00307998486876731	-0.000688472222725659	0.00307938309014433	0.00836084173495465	0.00730748121356834
3.3	0.0023903866303489	-0.0107616883081486	-0.000246180774601891	0.00314629477053694	-0.000244552648877246	0.00314254293771584	0.00876580755347878	0.00686926533959865
3.4	0.000240638328964644	-0.0116965392037463	0.000201474193958332	0.00313470428223388	0.000195370115344125	0.00315130166798076	0.00920788751993481	0.00650750387075112
3.5	-0.00126012016262749	-0.0124462436054212	0.000618985219318123	0.00308778818210868	0.000624576316546696	0.00308783635900913	0.0104495115046259	0.00573309751167803
3.6	-0.00412205304754558	-0.0137166629144741	0.00104764175387265	0.00296880910689041	0.00105583169867248	0.00296845085938517	0.0103863596477411	0.00391162722029258
3.7	-0.00731527853394038	-0.0133730986872261	0.0014582221110922	0.0027838925846786	0.00144871471159393	0.00279761598008271	0.00994606275657646	0.00322076202397803
3.8	-0.0101521947223939	-0.0122344153224825	0.00183399221975705	0.00255301890542914	0.00183644500635125	0.00256214685123172	0.00972641299824603	0.00285358002338636
3.9	-0.0124281603013894	-0.0102916229203081	0.00217579242556979	0.00227815226011059	0.00216852799258513	0.00227641205367191	0.00976164775596126	0.0029277347754244
4	-0.0131982049541221	-0.00837160349471965	0.00246030416134899	0.00195835371215964	0.00246473957131709	0.00195589896282558	0.0112782110636186	0.00272960892024632
4.1	-0.0148223649986527	-0.00751197629177927	0.00271133825572941	0.0015929959492224	0.00271009116446717	0.00159373877523261	0.011741243252875	0.000881041552255719
4.2	-0.0165919122334307	-0.00542326039733902	0.00290533220568024	0.00118963422002628	0.00290973749101788	0.00118090585316387	0.0115779809029376	-0.000119989312816068
4.3	-0.01782996117905	-0.00294063148708343	0.00304398988236291	0.000777700249987985	0.00305035355977619	0.000769876382523024	0.0114499189492655	-0.000997384223851523
4.4	-0.0186881105139073	0.000106598136604505	0.00311788529014462	0.000344510646013866	0.00312024229629145	0.00034224509541452	0.0111926846789375	-0.00144304328707208
4.5	-0.0179136669272129	0.00327690564166532	0.00313745365734374	-9.70719883441599E-05	0.0031427793061327	-0.000100475851769698	0.0122320232304357	-0.00188881582385787
4.6	-0.0176761339094703	0.00499826816000858	0.00308449771339323	-0.000537157023055542	0.00308580993485995	-0.000524303335005505	0.0121585144423962	-0.00405626677558239
4.7	-0.0173336267547636	0.00768238806446234	0.00297586487767311	-0.000950928818253586	0.00299102318887749	-0.000960596263267636	0.0113114367400114	-0.00525210115398186
4.8	-0.0163188038981961	0.010372929528107	0.00281265949662927	-0.0013610619586148	0.00282106227859006	-0.0013671720191898	0.0104865420586301	-0.00608975022911196
4.9	-0.0145832490055086	0.0130985062623223	0.00258927992744136	-0.0017423239342175	0.00259344314970305	-0.00173945947736734	0.00970092377782121	-0.00633320850019634
5	-0.0112919990299926	0.015035121828057	0.0023241067104913	-0.0020899622311797	0.00232771967080284	-0.00208733909463483	0.0103869583260653	-0.00664117130217343
5.1	-0.00894423308105557	0.0154685167926878	0.00201730796535385	-0.0023919587969874	0.00201959770391682	-0.00239062108551174	0.00979493756541521	-0.00824672555377959
5.2	-0.00645681107200786	0.0164883635566856	0.00166259187198827	-0.00263830594028259	0.00166427227853296	-0.00264341876157725	0.00899699112896144	-0.00856711457899035
5.3	-0.00342617754126521	0.0169722682520848	0.00127775036155557	-0.00284950409223762	0.00128086733333903	-0.00284746898709623	0.00870176456930557	-0.00862102314636436
5.4	-0.00027088863846063	0.01699728795706	0.000855678108297753	-0.00299102830396734	0.000872658299529323	-0.00300220242435444	0.00879833784715584	-0.00865887031385406
5.5	0.00381827564334339	0.0157587634289752	0.000451543374584123	-0.00308385126092414	0.000461492188660669	-0.00309320876124641	0.010162800704833	-0.00973755718902513
5.6	0.00536242827564895	0.0128664869582211	1.81528818066245E-05	-0.00312316770803974	9.68916441381236E-06	-0.00312635265370568	0.00876502227731759	-0.0123036349075781
5.7	0.0062848645630148	0.0113514648402511	-0.000409819328340248	-0.00309195277512994	-0.000426307087191073	-0.00309556518346295	0.00673291707063037	-0.0127298808450528
5.8	0.00723610498627805	0.00980223274318814	-0.000850473241938768	-0.00299635205467565	-0.000853990559578806	-0.00301022417570764	0.00512490493189926	-0.0127280159634827
5.9	0.00776768502401972	0.00863651966203744	-0.00124834722361481	-0.00285799618013087	-0.00125650883227461	-0.00285791825477163	0.00348398803681819	-0.0119144056273577
6	0.00976221247220087	0.00765628421237488	-0.00164411207327122	-0.00265920494256469	-0.00164057459188618	-0.00265936664993312	0.00398124268589583	-0.010377744611353
6.1	0.0105441250353636	0.00398128557653808	-0.00199948069650686	-0.0024037730512852	-0.002001108075675	-0.00239979624403461	0.0041909155745886	-0.0115294504350687
6.2	0.00979589044664169	0.0011628618854895	-0.00230739744709728	-0.00209220328489851	-0.00231107532949473	-0.00210398433491851	0.00351698549266899	-0.0120609048806611
6.3	0.00857437625637377	-0.00139314465133387	-0.00258143161016534	-0.00176214800260727	-0.00259049482861938	-0.00175646255599748	0.00278966652683935	-0.012705849244177
6.4	0.00683746496312612	-0.00314847520925321	-0.00280731196899386	-0.00137745544067974	-0.00279764826360809	-0.00138230794548782	0.00196781412953284	-0.0127472132787985
6.5	0.00608789931923271	-0.00523806651981079	-0.00296542247179141	-0.000972056597400268	-0.00297323169932834	-0.000967608196088521	0.00266699500471083	-0.0135909597984575
6.6	0.00287389316453508	-0.00729929755929985	-0.00306745272511592	-0.000551355099476391	-0.0030690678786173	-0.000555300110751384	0.000911451685605868	-0.0152096541186434
6.7	0.000193529601925383	-0.00737816345639243	-0.00311833793277985	-0.000121265342618871	-0.00312713320960273	-0.000115059670985181	-0.000673968612481468	-0.0150916249609122
6.8	-0.00223201075882371	-0.0071487614250641	-0.00309991261675262	0.000314875263141978	-0.00311093457233382	0.000319850961788547	-0.00203699643902431	-0.0147931681738482
6.9	-0.00462815164109612	-0.00587695285585438	-0.00302752512173334	0.000746140839041689	-0.00303049667375745	0.000748505663951087	-0.00323536128444674	-0.0136439830835498
7	-0.00482825227895305	-0.00467262918038907	-0.00288839242565711	0.00116175104597853	-0.00290109973992649	0.00115953776838602	-0.00200258273422396	-0.0130899589995837
7.1	-0.00734583179590236	-0.00500377930575642	-0.0027182419266339	0.00154190219145815	-0.00271465423834128	0.00155051249358171	-0.00344568546000493	-0.0148373807185987
7.2	-0.00985279767942304	-0.00294362740000545	-0.002469505031533	0.00190867672844476	-0.00247599701431022	0.00191070283448494	-0.00540561706782107	-0.0143377977697738
7.3	-0.0115912892171767	-0.00040606146963178	-0.00217954057600609	0.00222752859615899	-0.00219070294508373	0.00223247966051426	-0.00679666184761969	-0.0135172719290071
7.4	-0.0130391937926625	0.00292829455947004	-0.00184246903082268	0.00250903398920488	-0.0018493856279701	0.00252249584843047	-0.00835717420295554	-0.0120062569605315
7.5	-0.0118665269181089	0.00689147077019952	-0.0014887329051498	0.00274595843128311	-0.00148185676601053	0.00275336178521851	-0.00721253704121136	-0.00985428885482917
7.6	-0.0111349407142452	0.00806517420264558	-0.0010904711176842	0.00293370826715056	-0.00109179654554442	0.00292902192519187	-0.00682096202795818	-0.0111445100253289
7.7	-0.010676003322713	0.0104233092353754	-0.000664743485450931	0.00306053261196051	-0.000666068582701926	0.00305946385527926	-0.00768741842641936	-0.0114830062043561
7.8	-0.0091745621871318	0.0126339664666979	-0.000242248688466813	0.00311414536464246	-0.00025008208238877	0.00312050648210764	-0.00842865871596099	-0.011383284493046
7.9	-0.00677887418644031	0.0147073647006869	0.000193704210544543	0.00312712803586179	0.000201601990354576	0.00312870099891456	-0.00861736730763367	-0.0106440741258471
8	-0.00244196306534292	0.0149347527087358	0.000635305905983415	0.00306858317476546	0.000635336225790267	0.00307347956391231	-0.00737518864823229	-0.0112614918782347
8.1	-0.000867905475848062	0.0138085721775744	0.00105232533941945	0.00295449491931786	0.00107145360809519	0.0029557464740751	-0.00926410840123456	-0.0129893521331218
8.2	0.00104159287721728	0.0138986534159865	0.00145801213130799	0.00277694566348714	0.00146731533588414	0.00276983629530933	-0.0109875936340959	-0.0123985175858062
8.3	0.00322248595542002	0.013485899607755	0.00183618795747376	0.00254354543687002	0.00183442096617109	0.00255707825533208	-0.0121957826468406	-0.0115762819351474
8.4	0.00525966218119064	0.0132202978620772	0.00217720574419702	0.00227285781310281	0.00217417356609178	0.00227260466238619	-0.01326027902394	-0.0100823029348856
8.5	0.00918865210165091	0.0119901944505193	0.00247292821511576	0.00194081944796358	0.00247200642369623	0.00194400352808726	-0.0119325217662319	-0.00893589858276923
8.6	0.0103393124046355	0.00820812508157032	0.00271798677843107	0.00158001224790064	0.0027275416504287	0.00157353685960164	-0.0129436878660203	-0.0104160235716888
8.7	0.0106153923021354	0.00603624976074088	0.00290785903885955	0.00118135547067409	0.00291342033709008	0.00118212490892602	-0.0147984976381377	-0.00986107521258911
8.8	0.010867899104105	0.00388844674892105	0.00305113692298188	0.000771837687939479	0.00305699054670268	0.00076310467625796	-0.016393935886706	-0.00879894719625249
8.9	0.0107643989759535	0.00203878353417616	0.00313524979986722	0.000334560338848674	0.00313439218155388	0.00033229998650198	-0.017686033967417	-0.00661346676036179
9	0.0120392496047446	-5.89929319784719E-05	0.00314288569703785	-0.00011106100859414	0.00314601939097355	-0.000106932864924519	-0.0161819191669511	-0.00415482586020531
9.1	0.0112126191594683	-0.00415792677635373	0.00310389263013433	-0.000548052959996367	0.00310667231271751	-0.000535100813987903	-0.0157955746097564	-0.00422413970263517
9.2	0.00949018979159348	-0.00686586925016306	0.00300192029598183	-0.000969934316154109	0.00300963079947062	-0.000972757721019969	-0.0155687878637577	-0.0031618952614992
9.3	0.00744077452290693	-0.00941097516082148	0.00283696485634673	-0.0013812477967398	0.00283626892544372	-0.00138626578861659	-0.0148009069292018	-0.00240176015902533
9.4	0.00466019345823272	-0.011149265798224	0.00261437351124808	-0.00177562808056999	0.00262085652560665	-0.00176795471674499	-0.0141173591511862	-0.00159109142300311
9.5	0.0027095867935691	-0.013070028811864	0.00234583237941669	-0.0021090998818816	0.00235328756719391	-0.00211038460272003	-0.0120213348277913	-0.00201870482220258
9.6	-0.00237755547046756	-0.0150166544844282	0.00203384780901859	-0.00242509823180201	0.00203417154992814	-0.00242410680374069	-0.0133668711978894	-0.00367523426810993
9.7	-0.00724163992676008	-0.0140857684638844	0.00166390893006992	-0.00268401008612463	0.00166953668359213	-0.00269132832725818	-0.0147791379562635	-0.00298754423064449
9.8	-0.0114958625635835	-0.0121951125252538	0.00127644979249327	-0.00289832261252387	0.0012821303481054	-0.00288972409525748	-0.0157501430877787	-0.00184511611766599
9.9	-0.0152885857891512	-0.00887016374879545	0.000871100737733558	-0.00304220287732423	0.000863705630005656	-0.00304102230027187	-0.0165598939748194	0.000242734550657649
10	-0.0164716691028082	-0.00524199018204838	0.000438434245375571	-0.00314497660773054	0.000430957040129144	-0.0031576028034941	-0.0146615355590862	0.00213046102803255
10.1	-0.0190077747010366	-0.00296840865113223	-1.67032572294412E-05	-0.00318013197384724	-2.70654899330237E-05	-0.00317473038663075	-0.0145813057646579	0.00144089295327
10.2	-0.0210314138428087	0.00129673711678888	-0.000469167806238587	-0.00314357469880233	-0.000472619934967843	-0.00314078224279377	-0.0149454338797852	0.00232278764627044
10.3	-0.0218929405687298	0.00599345762967252	-0.000907363170298536	-0.00303974320614334	-0.000899152401087731	-0.00304887709679384	-0.0149343162774109	0.00340350040803465
10.4	-0.0217159120439529	0.0114223970364664	-0.00131293745190479	-0.00288878107475325	-0.0013111995662264	-0.00289504410885115	-0.0145326649516249	0.00510117352423305
10.5	-0.0185694267650517	0.0163194731552239	-0.00172001615944342	-0.00268472169133751	-0.00171687611256586	-0.00267155888099137	-0.0116512460309702	0.00612881417376744
10.6	-0.0163389875070864	0.0192858907061751	-0.00207394135261944	-0.0024052906666438	-0.00207173347567267	-0.00240915351420268	-0.0107359116416675	0.00486322616969979
10.7	-0.013253623955467	0.0228578098504432	-0.00239215938683513	-0.00210030849955219	-0.0023886275821505	-0.00209497377394597	-0.010119329032269	0.00455518291834267
10.8	-0.00960014029209458	0.0255931994138332	-0.00266617687165256	-0.00173551952476498	-0.00266092940718514	-0.0017445457483848	-0.010013123114124	0.0039983453069049
10.9	-0.00558682567122936	0.0284263884702827	-0.0028789786252508	-0.00135227625006388	-0.00288422083117586	-0.00135152362848994	-0.0103050641663472	0.00454107315047971
11	0.00100769482385609	0.029937143143841	-0.00303112384334149	-0.000926015582320172	-0.00303602996425406	-0.000932793944916635	-0.00825395158607796	0.00477616864476769
11.1	0.00542885190069846	0.0289921204950596	-0.0031397436019203	-0.000502724457618084	-0.00312878626267077	-0.000499858688024404	-0.00877233086945553	0.00294424574981096
11.2	0.0100996453739405	0.0287152243855007	-0.00317121108650674	-5.89337748348891E-05	-0.00317844263525001	-6.37981405738225E-05	-0.00950606816309692	0.00311072567190558
11.3	0.0151840814659216	0.0274279494324863	-0.00314232030311333	0.000397482409271055	-0.00315400449969078	0.000387394193394203	-0.00978921551633747	0.00367211292001512
11.4	0.019870647843496	0.0254780730000303	-0.00306167800798347	0.000830374265669878	-0.0030566920462679	0.000837977725611078	-0.00974994655251876	0.00481029830624429
11.5	0.0259149950176015	0.0218601101998074	-0.00291738679456761	0.00124184811606469	-0.00292016337748546	0.00125220740979404	-0.00725668930367192	0.00489136122576672
11.6	0.0288082226544148	0.0156849564698287	-0.0027245477483885	0.00164140555735438	-0.00272451864211191	0.00164437386007988	-0.00765837693529786	0.00281606082407443
11.7	0.0305409040876462	0.0106691092920629	-0.00245577587322873	0.00200173403209033	-0.00245630274519089	0.00201042099589921	-0.0084705049193172	0.00271822067278184
11.8	0.0316666285607812	0.00562136897809472	-0.00215295275661459	0.00233501294401159	-0.00215709295375625	0.00233674832592024	-0.00887916113667159	0.0032949586486966
11.9	0.0324453199278996	0.00122002596488121	-0.00180014291215642	0.00260911062743685	-0.00181324559986203	0.00261351430218003	-0.0084750667346234	0.0052240620606314
12	0.034664326665612	-0.00472599953936604	-0.00142491651468233	0.00284008394908709	-0.00142430690477152	0.00284150718297224	-0.00476419179863098	0.0055864294898794
