# GHZ S RI R 50
0.2	0.00606315085441468	0.00159553923342811	0.00304586964322591	-0.000898833161778919	0.00305623473931307	-0.000892033897661318	-0.0138442707462886	0.00528097520105656
0.3	0.00640202537543317	-0.000456135734190658	0.0029007740371745	-0.00132199827959164	0.00289354219740332	-0.0013090664061435	-0.0130249114931751	0.00537765185111472
0.4	0.00615238347057124	-0.0023300430267262	0.00266823566653172	-0.00169295128059414	0.00267349104276942	-0.00170150541209408	-0.0125165709219767	0.00568709711945752
0.5	0.00503907118947264	-0.00360635546212162	0.00240940136183192	-0.00204793767639657	0.00242091712728588	-0.00206016508722766	-0.0124554126062468	0.00641531012903597
0.6	0.00440944933853494	-0.00432874008924425	0.00209739364800053	-0.00236203145406797	0.00209660521036069	-0.00236917105764602	-0.0116161353774392	0.00739109850922399
0.7	0.00336141541570661	-0.00520514393630797	0.00175015773961312	-0.00263889464132793	0.0017482046176539	-0.00263909223941711	-0.0109970282120588	0.00785407880083793
0.8	0.00214116081356929	-0.00570598307680925	0.00136518273781191	-0.00285505284971474	0.00135260284723854	-0.00285958911584285	-0.0104976213509185	0.00845981994803866
0.9	0.000873341267011663	-0.00597398434116076	0.000949371339053579	-0.00301748437307817	0.000950402642835661	-0.00302816368289602	-0.00988663841023804	0.00893138531648545
1	-0.000995110127741129	-0.0061539687306715	0.000525908158118247	-0.00312130835641424	0.000516062492285747	-0.00312204701191179	-0.0098652303623309	0.00916326934286204
1.1	-0.00262979578057401	-0.00502501078681698	7.03098017604176E-05	-0.00314955616023984	6.68046118903503E-05	-0.00316717392314304	-0.00970244224175928	0.0105955461434447
1.2	-0.00367026718723037	-0.00428483230360849	-0.000370472818589027	-0.00313820292854224	-0.000371282712361857	-0.00313613063442455	-0.00859378043564785	0.0116718489320467
1.3	-0.00480421040098571	-0.00370120793758918	-0.000796046975947579	-0.00305506289265789	-0.000799280042233754	-0.0030570641408717	-0.00689477303157132	0.0124848915869351
1.4	-0.00573744423317747	-0.00325431945122126	-0.00121618678917784	-0.00290762858149257	-0.00121497499592619	-0.00291315041235396	-0.00496501630612814	0.0123073875193128
1.5	-0.00656166994197163	-0.00218498356597663	-0.00161699900181633	-0.00271166384987738	-0.00161539095358013	-0.00272014694306231	-0.00390411106479295	0.0118913814926637
1.6	-0.00620580975135778	-0.000692838383829846	-0.00197529101405008	-0.00245907235332185	-0.00197550058481735	-0.00246429355392301	-0.00297032295516549	0.0118516459915759
1.7	-0.00571573300275201	0.000480130001848028	-0.00230221780049965	-0.00216374639761136	-0.0023031840447205	-0.00215750114337397	-0.00235438669065144	0.0117319304322288
1.8	-0.00498084843073295	0.00176717800996669	-0.002572612946488	-0.00181379677810096	-0.0025835481683745	-0.00181942657225699	-0.00178816795040266	0.0117341146833408
1.9	-0.00399027834913605	0.002672261119588	-0.00279767161053705	-0.00144404557833265	-0.00281008420298074	-0.00143791525997629	-0.00131032577762821	0.0116428143228037
2	-0.00323704040307068	0.00364780349839926	-0.00297151541371293	-0.00103743808776714	-0.00298111197526626	-0.00103275117311294	-0.00136269383488554	0.0120121472002491
2.1	-0.00146065357174631	0.00455554622500312	-0.00308492473575571	-0.000612479499899066	-0.0030808504442437	-0.000614459699757652	-0.000306274911265058	0.0127940519821235
2.2	0.000276220623054705	0.00452106570064053	-0.00314340009005726	-0.000176068165529414	-0.0031546689369514	-0.000178914222189314	0.00101185100619019	0.0127864688570344
2.3	0.00179802158229505	0.00399397345613155	-0.00313958125523609	0.000265908793382058	-0.00313926827710487	0.000259044658136757	0.00216813318134986	0.0123966069422253
2.4	0.0030742713124471	0.00303011256355983	-0.00306764341921314	0.000702577220424847	-0.00307016969178273	0.000698327251857334	0.00318596963645052	0.0117151602592168
2.5	0.00351837743874404	0.001827975645234	-0.00293267745550161	0.00111194488101636	-0.00294355296454525	0.00111828009152247	0.00342448523712449	0.0108801530942525
2.6	0.00421784731100724	0.00121527439858311	-0.0027618150007164	0.00151517424161957	-0.0027582343873804	0.00150288684972484	0.00398161090679072	0.0108962294894304
2.7	0.00506883800569787	6.52862608839812E-05	-0.00251730175490307	0.00188654708314252	-0.00252257090040202	0.00188654492106542	0.00476260440393887	0.0105209573516779
2.8	0.00580012708105482	-0.00142381636850647	-0.00223604431656617	0.00221363014068732	-0.00222827259076868	0.00222342048036467	0.00546812127999876	0.0101288705753382
2.9	0.00624484596455977	-0.00335165196099031	-0.00190430756627455	0.00251352406826723	-0.00190060436522159	0.00251310928689993	0.00626843517401153	0.00964052466415345
3	0.00588716209388185	-0.00523642391790794	-0.00152083715803404	0.0027513635132021	-0.00153561975624531	0.00275740834348052	0.0067470445874347	0.0093786063445189
3.1	0.00574391300096065	-0.00698621531214013	-0.001130298802697	0.00292980998667948	-0.00112567095069745	0.00293815585982197	0.00788061223111178	0.00926130042038855
3.2	0.00487272428427515	-0.00909323254609685	-0.000711093490926827	0.00306756815999761	-0.000712834022286917	0.00306695299672994	0.00872155931731654	0.00865493660301232
3.3	0.00341816578571684	-0.0110762146086795	-0.000274102633805869	0.00313899804062838	-0.000272443367523474	0.00313526692112641	0.00954133266573233	0.00791558828900158
3.4	0.00134237076606461	-0.0127856760921735	0.000172136178237601	0.00313567181526289	0.000165878854537223	0.00315220734574495	0.010236025305578	0.0067733066058929
3.5	-0.00153761142589415	-0.0138224873868722	0.000595703873946674	0.00309424930698633	0.000601297725619183	0.00309434029269163	0.0100651083487405	0.0056350303775299
3.6	-0.00400159480838797	-0.0138991442053666	0.0010232332489705	0.00297517520629032	0.00103142054117071	0.00297488258936813	0.0103867864549475	0.00521876203563965
3.7	-0.00654100982329838	-0.0138856704333685	0.00143358111571629	0.00279650378019385	0.00142395363934105	0.00281014229369009	0.0108648488118495	0.00433255787234985
3.8	-0.00918742504810135	-0.0133091207378041	0.00181274713239124	0.00257146324247366	0.0018151205852837	0.00258062055397412	0.0111342509197535	0.00330257750292199
3.9	-0.0116871737938387	-0.0122831095766087	0.00216037696686965	0.00229935260236786	0.00215311597862368	0.0022975503357674	0.011108756822337	0.00211221866075019
4	-0.0143221786395637	-0.010462121078207	0.00244477813728897	0.00197821076937889	0.00244923353224139	0.00197579140145379	0.0104185869159582	0.00145398247974102
4.1	-0.0157561702124344	-0.00793013787532822	0.00269803574056594	0.00162156346514127	0.00269678004878486	0.00162229455998118	0.0107497140494521	0.00153031739267618
4.2	-0.0167993785171736	-0.00566712502767296	0.00290041454522086	0.00122130129614279	0.00290491693900276	0.00121259595663246	0.011356439479537	0.000915294349826658
4.3	-0.0175578212408401	-0.00336425446354359	0.00304589908972422	0.00080895010129833	0.00305235640416945	0.000801162733637698	0.0118328568525468	-8.99484883926688E-05
4.4	-0.0181158136625968	-0.00106020664984004	0.00312354023428721	0.000374382775735762	0.00312592492455372	0.000372132639347033	0.0119433769932943	-0.00141000773958778
4.5	-0.0188390387069414	0.00163297048459375	0.00314869004125347	-6.19216616324036E-05	0.00315407137602394	-6.52763269802945E-05	0.011225216887211	-0.00246818002496447
4.6	-0.0184341841341097	0.00488169857788023	0.00310887703425844	-0.000506922848149468	0.00311005769350308	-0.000493977615710519	0.0110897748020326	-0.0028438957970729
4.7	-0.0173802213301924	0.00761816866569344	0.00300510173832278	-0.000928248954652235	0.00302045607158009	-0.000937833215216084	0.010993628236386	-0.00371265544823132
4.8	-0.0159582605902292	0.0101184213960649	0.00284514758527111	-0.00134418496363444	0.00285366661884292	-0.00135025892483856	0.0107339933565975	-0.00455647599608607
4.9	-0.013963098675607	0.0121738876832494	0.0026261011820103	-0.00172980476033245	0.00263026743221848	-0.00172687740229107	0.0104377979960153	-0.00545868131016608
5	-0.011980771927504	0.0140276500785263	0.00236882055233738	-0.00208930782802833	0.00237244593863692	-0.00208662203314356	0.00980424201556525	-0.00597834714418847
5.1	-0.00873504234555032	0.0155760158629158	0.00205588865407538	-0.00240356781504831	0.00205819367912278	-0.00240219957140366	0.0101349414958509	-0.00622420076385032
5.2	-0.00557756467858609	0.0159333803625196	0.00169729244203742	-0.00265517362653347	0.0016990238957802	-0.00266032920293429	0.0103590089674407	-0.00718478039874461
5.3	-0.00258546611601199	0.015742025968489	0.00130993508861669	-0.00287289351801425	0.00131307360438221	-0.0028708161630555	0.0102648861093156	-0.0081838590521327
5.4	0.000134206772661059	0.0149323805979422	0.000883656380988046	-0.00302363060518272	0.000900914064777036	-0.00303484707551129	0.00990494877674036	-0.00949379487639252
5.5	0.00208994160795678	0.0141934221427344	0.000465435253414449	-0.00312335658375641	0.000475539349597576	-0.00313281187729893	0.00853182147027149	-0.0102963933241367
5.6	0.00480342899251787	0.0132293483747728	2.52788306769743E-05	-0.00315830780742453	1.67268339803203E-05	-0.003161547386413	0.00806894558692479	-0.0103597841898579
5.7	0.00680863933246494	0.0112946751568686	-0.000407280623719018	-0.00312876352148367	-0.000423951005729882	-0.00313245668009796	0.00744813311210209	-0.0109254254913782
5.8	0.00818549974286207	0.00921528224671966	-0.000856029876159392	-0.00303455293857115	-0.000859567757807739	-0.00304860123135523	0.00666419519458027	-0.0115286698218617
5.9	0.009053898978574	0.00695988637008342	-0.00126460433647857	-0.00289378484369537	-0.00127286878709464	-0.0028937044376173	0.00567564814158914	-0.0122835381049477
6	0.0087647353126643	0.00487766601064407	-0.00166377398678097	-0.00268443236397735	-0.00166020070560076	-0.00268459962818047	0.00353208522801047	-0.0126219662986802
6.1	0.00917523863943742	0.00361602405334126	-0.00201994892613516	-0.00243066780871618	-0.00202159574065071	-0.00242664881688401	0.00258736005603098	-0.0114016771977065
6.2	0.00952819334858778	0.00129407822526681	-0.00233564307876018	-0.0021158889326622	-0.00233936985198536	-0.00212780762181058	0.0025740842587558	-0.0111224736867253
6.3	0.00916147380643323	-0.00148930576972946	-0.00261512593664758	-0.00177846066944513	-0.00262428647230382	-0.00177269185512509	0.00253471641835823	-0.0115973606070583
6.4	0.00768780898752154	-0.00441953496651562	-0.00284101066137744	-0.00138459725121933	-0.00283125682657196	-0.00138952764420226	0.00201962116639908	-0.0125855172442073
6.5	0.00515409493870765	-0.0061568220293592	-0.00299723305542865	-0.000979834629040632	-0.00300512040001132	-0.000975333385242625	0.000658629579965602	-0.0128205232606574
6.6	0.00339032067673499	-0.00729352314353261	-0.00310785679264679	-0.000551772603752403	-0.00310950112081534	-0.000555764554088815	0.00055322382998576	-0.0127983978420626
6.7	0.00106852906850288	-0.00821055763702516	-0.00315770783013056	-0.000110360274166128	-0.00316658807672587	-0.000104042192110745	-0.000129493652473591	-0.0133066515847166
6.8	-0.00132558472604508	-0.00839895937041574	-0.00313459511064741	0.000333402529583369	-0.0031457219081505	0.00033848912304125	-0.00105251789472632	-0.0135130397217095
6.9	-0.00378912936975363	-0.0082695950046192	-0.00305829169097831	0.000767738852574078	-0.0030612863160856	0.000770143221780154	-0.00209089559561	-0.0138682861900338
7	-0.00675518101389634	-0.00691410466837979	-0.00292252112894839	0.00119200814532387	-0.00293541467016164	0.00118982692722252	-0.00410622815174727	-0.0134557070664434
7.1	-0.00810128528759053	-0.00478919049914639	-0.00274060201316461	0.00158433996852551	-0.00273689665361192	0.00159303183468996	-0.00459939048125251	-0.0120759945088582
7.2	-0.00935634567092136	-0.00309986550871267	-0.0024808223816357	0.00195277795339851	-0.00248737092754447	0.00195488556318486	-0.00479514751628097	-0.0115094682791946
7.3	-0.0105174810547929	-0.00110214903220089	-0.00218307512439354	0.00227226499821983	-0.00219431518573199	0.00227737380341129	-0.0048721679357788	-0.0112122359201622
7.4	-0.011394774306594	0.000893303755432965	-0.0018392047685269	0.00255687965622609	-0.00184606891339419	0.00257056870557346	-0.00502679371352117	-0.0116785960623958
7.5	-0.012780778974399	0.00336727412054108	-0.00146760373662245	0.00279685260243207	-0.0014605497543107	0.00280424384388409	-0.00651957296767537	-0.0122405592107857
7.6	-0.0123797339352651	0.00696471785447396	-0.00105850667357473	0.00297148748636367	-0.00105990695256313	0.00296678305916718	-0.00714316935105627	-0.0113941853061343
7.7	-0.0111992196376873	0.00951673996017719	-0.000628581459957295	0.00309119030258155	-0.000629930265093335	0.00309013164617971	-0.00753690806900965	-0.0117718751104576
7.8	-0.00927574533613053	0.0114961707457305	-0.000200494265425772	0.00313877279762733	-0.000208292447564259	0.00314528651131613	-0.00832719763437339	-0.0120779109641215
7.9	-0.00703588762475859	0.0126967736438041	0.000244103414125705	0.00314285674432874	0.000252073386431925	0.00314431480413968	-0.00948342208865419	-0.0122109266030691
8	-0.00491979325251007	0.0141382684643419	0.000685972840325409	0.00306437205038212	0.000686082077415373	0.00306927755809809	-0.0113929793233488	-0.0111974562787634
8.1	-0.00125552988348729	0.014702292181296	0.00109514106656847	0.00294498639584769	0.00111431969089474	0.00294597465665306	-0.0113474490021727	-0.00987145278384172
8.2	0.00183119109563575	0.0141553036312842	0.00150029095958016	0.00276106034552003	0.00150950915505107	0.00275380537193242	-0.0114370120332545	-0.00924462530695725
8.3	0.00468219352948855	0.013071018854144	0.00187586202952106	0.0025178585401381	0.00187429731491064	0.00253142827779927	-0.0114886108355279	-0.00881968597527163
8.4	0.00707327457445316	0.0112454613125638	0.00220831735273762	0.00223607690795551	0.00220528617618882	0.00223587031872603	-0.0117994194147291	-0.00899474871104932
8.5	0.00830370525234857	0.00957186265915964	0.00248994273876065	0.00190606164640797	0.00248906164956514	0.00190924864590821	-0.0134869370148561	-0.00853904072320833
8.6	0.0103913250483037	0.00795843091666462	0.00273607577911183	0.00154415940816275	0.00274554085097633	0.00153756708869881	-0.013775598567121	-0.00704994348531224
8.7	0.0118082708313851	0.0052556147141572	0.00291875275310044	0.00113911739731574	0.00292431436348057	0.00113980881071957	-0.0138319634431163	-0.00639899985032853
8.8	0.0124890159468027	0.00237216381899322	0.00305137997848067	0.000727585768576018	0.00305709464959932	0.000718802314111712	-0.0140401905733559	-0.00599742860147478
8.9	0.0125723328202241	-0.000859404966422611	0.00312549564965312	0.000295201975196213	0.00312461449144836	0.000292961933129505	-0.0142355076508139	-0.00585131822743831
9	0.0113953100008166	-0.00376594055509224	0.00313532079715911	-0.000148222797127544	0.00313849736678226	-0.000144140127837953	-0.015325166241835	-0.00526935746225263
9.1	0.0106451837163658	-0.00621871277587638	0.00308429431669187	-0.000590849744427195	0.00308725073100669	-0.000577986500772303	-0.0151985616667506	-0.0038479072596501
9.2	0.00910380223761898	-0.00907694993863843	0.00297105966984371	-0.00100606692249537	0.00297868628868085	-0.00100898121286948	-0.0149186357396284	-0.00320043372359122
9.3	0.0068436515528732	-0.0115580352784996	0.00280043139717888	-0.00140864421448412	0.00279967546011943	-0.00141362008114962	-0.0146813464149438	-0.00261946276437407
9.4	0.00388177334609527	-0.0137526803242395	0.00257702189976607	-0.00179744433380748	0.00258356144703062	-0.00178989630239787	-0.0146430770733504	-0.00241902010323166
9.5	-5.19179116812093E-05	-0.0144321211813621	0.00229731571541278	-0.00213077150771781	0.00230470010890971	-0.00213216218280542	-0.015359560000694	-0.00138948699053739
9.6	-0.00313390613314306	-0.0144839593525447	0.00197843601463267	-0.00242816248901725	0.00197877026973895	-0.00242718602495826	-0.0148471423458969	-0.000140040569431337
9.7	-0.00679475789779237	-0.0142047238350415	0.00161203536222667	-0.00267475375031432	0.00161750951614369	-0.00268206029995616	-0.0145234051603423	0.000438664244471522
9.8	-0.0105631433402089	-0.0129528604752255	0.00122748746049059	-0.0028805559014489	0.00123320567021882	-0.00287212264045969	-0.0143544104990873	0.000996838734794237
9.9	-0.0141688645471517	-0.010810788210814	0.000821750196273393	-0.00301623132342574	0.000814460216679015	-0.00301497096319612	-0.0144590033837399	0.00135165993705124
10	-0.0177973364914095	-0.00724990383781024	0.000394101178393312	-0.00309830345293456	0.000386598270347685	-0.00311063328336795	-0.0154652753477727	0.00244683961869912
10.1	-0.0192714736526638	-0.00278470664133065	-4.22662770772193E-05	-0.00312795774733436	-5.24150616668299E-05	-0.00312256036430133	-0.0147593122164701	0.00434579169413765
10.2	-0.0199346248562795	0.00120888206516465	-0.000484849940018963	-0.00308979242292309	-0.000488226207100086	-0.00308701919859274	-0.0135212939491798	0.00518342007557122
10.3	-0.0199248154167597	0.00514408277585912	-0.000913303281210222	-0.00298252032185531	-0.000905293551190129	-0.00299155832276161	-0.0123032488204621	0.00534841840921301
10.4	-0.0194282601010742	0.00878900802884229	-0.00130493248054535	-0.00282650137075536	-0.0013032639397178	-0.00283265607993764	-0.0114652193538904	0.00463711010397422
10.5	-0.0189443675008037	0.0130675856856359	-0.00168943225001877	-0.00263164353525417	-0.00168634057138733	-0.00261873617704906	-0.0120158872222831	0.00446568303436837
10.6	-0.0162795445412448	0.0174605304364132	-0.00204121866532616	-0.00236492876710314	-0.00203904880859877	-0.00236872954036773	-0.0115482453940516	0.00516948848193347
10.7	-0.0130417679337227	0.0209717170716474	-0.00235373843499761	-0.0020643526579137	-0.0023502621833232	-0.00205910792470356	-0.011055953425052	0.00542374731199997
10.8	-0.00903232771953838	0.0237903919740949	-0.00261946573569058	-0.00170718151144132	-0.00261430342743045	-0.00171604993899496	-0.0105288547545844	0.00556604408091009
10.9	-0.00472161108748448	0.0256128449063094	-0.00282524854640148	-0.00133817197641321	-0.00283040310265536	-0.00133744888894218	-0.0102924071746723	0.00523820750682905
11	-0.000489655560107624	0.027286357296199	-0.00298691927097046	-0.000925501244445454	-0.00299173314861113	-0.000932208102565948	-0.0110516117677736	0.00574727739462448
11.1	0.00525011512173034	0.0280463117691729	-0.00309362737263921	-0.000501453476884198	-0.00308283308322401	-0.000498608128275202	-0.0102095555687605	0.00686536729078425
11.2	0.0107443227036943	0.0271098274770752	-0.00312203319871346	-6.80490355968931E-05	-0.00312913764988915	-7.2861114966562E-05	-0.0091228595999394	0.0071015839285765
11.3	0.0159607363612362	0.0250486711738048	-0.00309653657192048	0.000376042244412333	-0.00310799383659022	0.000366049997985327	-0.00787486108567456	0.00691745145896937
11.4	0.0205101618063798	0.0219010969364898	-0.00302607849803293	0.00080114816926058	-0.00302120383485222	0.000808680629356301	-0.00702524768531575	0.00609895843064311
11.5	0.0239215019543957	0.0185094917913423	-0.00288259563872142	0.00121647331679414	-0.00288536724682321	0.00122668703878315	-0.00743337904001519	0.00574456200544802
11.6	0.0277497679902172	0.0144004091959872	-0.00268943541523185	0.00160128406163939	-0.00268942193567035	0.00160420512496804	-0.00654288714624159	0.00578251042336546
11.7	0.030414346566068	0.00909714160768766	-0.00243263987103268	0.00195312129912937	-0.00243322188969148	0.00196167104227446	-0.0057414640559804	0.00484331310371403
11.8	0.0319400334427982	0.00339282257285624	-0.00214151974388458	0.00228428858024568	-0.0021456154208597	0.00228596548690813	-0.005365364545527	0.00365174122973207
11.9	0.0321967084473544	-0.00261249779356033	-0.00179452384344035	0.00256021226548469	-0.00180747912557912	0.00256445992598565	-0.00577326624354649	0.00247957355747665
12	0.030828486558186	-0.00771682847069357	-0.00142494592890049	0.00277896877562155	-0.00142435908385188	0.00278037281101283	-0.00731018240301971	0.00258830825314466
