# GHZ S RI R 50
0.2	0.00590183921241827	0.00161509059158488	0.00304624773237406	-0.000898517641271931	0.00305661284353731	-0.00089171645498375	-0.0139872844956493	0.00531752705996641
0.3	0.00615672444184678	-0.000478301737821281	0.00290145067331091	-0.00132175505093097	0.00289421562941995	-0.00130882222761912	-0.0132567796628011	0.00537250864430748
0.4	0.00592910454865647	-0.00225998509929414	0.0026691630546624	-0.00169302294000649	0.00267442097823955	-0.00170157856953133	-0.012738518032824	0.00577331831363081
0.5	0.00495289785924681	-0.00368707283558207	0.00241006043957056	-0.00204840917853784	0.00242157940724482	-0.00206063946585141	-0.01257492117874	0.0063632495299195
0.6	0.0041431417927716	-0.00442313951430022	0.00209808874830067	-0.00236240939000826	0.0020973007325403	-0.00236955074257116	-0.0119298233313744	0.00737915603085222
0.7	0.00311365583361526	-0.00523879835322933	0.00175086875633085	-0.00263959086899036	0.00174891504708376	-0.00263978865593656	-0.0112694033119726	0.00794507432444828
0.8	0.00189098487876286	-0.0057341728679259	0.00136566922704995	-0.00285602664414741	0.00135308503699838	-0.00286056454518131	-0.010735438768521	0.00857920216601543
0.9	0.000602272390473753	-0.00590393259765382	0.000949436400393076	-0.00301855359272754	0.000950467169283387	-0.00302923649612787	-0.0100944225074179	0.00913973897968081
1	-0.00101923881360331	-0.00602872216416029	0.000525896571156788	-0.00312205621480954	0.000516048585822335	-0.00312279461992022	-0.00981751685947749	0.00935438869894159
1.1	-0.00269106243576959	-0.0050437150132515	7.02218533342031E-05	-0.00315062783555448	6.67148481206908E-05	-0.00316825145473738	-0.00975932018372455	0.0106229275917183
1.2	-0.00370234086571132	-0.00425218790499103	-0.000370968458615258	-0.00313921293206487	-0.000371778379193301	-0.00313713984626923	-0.00866600864168449	0.0117692870684016
1.3	-0.00485396686305829	-0.00370301678266996	-0.000796768450183994	-0.00305583696457643	-0.000800002788681445	-0.0030578382878564	-0.00702420147843104	0.0125917563224134
1.4	-0.00588172276022384	-0.00316524232867784	-0.00121689737361711	-0.00290812830518907	-0.00121568610834981	-0.002913651602078	-0.00518734112711325	0.0125666731991659
1.5	-0.00665604280570378	-0.00213598003059934	-0.00161773270352763	-0.00271240596663639	-0.00161612481118991	-0.00272089190952591	-0.00408021085577326	0.0121593325167362
1.6	-0.00634751396583554	-0.000601518208942517	-0.00197650482896794	-0.00245942163949617	-0.00197671567271997	-0.00246464450084307	-0.00313017442155363	0.0122464888881089
1.7	-0.00575825312862338	0.000522977916387385	-0.00230330853304762	-0.00216372977400148	-0.00230427351633914	-0.00215748273905378	-0.002334506219379	0.012075898199915
1.8	-0.00497752896296759	0.00172008291979992	-0.00257356988573655	-0.00181366509838816	-0.00258450873974603	-0.00181929386616353	-0.00167861014814109	0.0119475958065403
1.9	-0.0039246153858227	0.00255504795494171	-0.00279868635513759	-0.00144396766002022	-0.00281110132066623	-0.00143783354752522	-0.00113036995462475	0.0117229205944772
2	-0.00312954199224318	0.00325988410505311	-0.0029729407714128	-0.00103686111731257	-0.00298253934536101	-0.00103216938848914	-0.00121908751105395	0.0117771460578182
2.1	-0.0016142647726133	0.00409796102798143	-0.00308580341802264	-0.000611470852619302	-0.00308172899507932	-0.000613452974709861	-0.000476312486845641	0.0125653045461265
2.2	1.79178316780352E-05	0.00412127974888592	-0.00314408687229095	-0.00017502684578154	-0.00315535893966775	-0.000177869610812284	0.000772607634600384	0.0126728390631945
2.3	0.00146883292037493	0.00367408129661758	-0.00314012909572187	0.000267107253935227	-0.00313981855413243	0.000260241595101788	0.00192115843949435	0.0123738534369357
2.4	0.00276286247139632	0.00285561373265941	-0.00306797890809364	0.000704090478574767	-0.00307050760520911	0.000699840736131811	0.00302716938460434	0.0117839574105384
2.5	0.00339490781917109	0.00160707423252036	-0.00293214423298737	0.00111351172914751	-0.00294301659817763	0.00111985279030985	0.0034223850308413	0.0107744451671438
2.6	0.00399277137491792	0.000887871176568168	-0.00276126808038825	0.00151620102822875	-0.00275769198807836	0.00150391225803421	0.00375746050431953	0.0106740627853521
2.7	0.00475184734614047	-0.000240762676471184	-0.00251665775855677	0.00188764377489114	-0.00252192714330868	0.00188764372953318	0.00438360622160537	0.0103699712552412
2.8	0.0054246917623184	-0.00162454126901256	-0.00223506813626624	0.00221468625009378	-0.00222729181641709	0.00222447319288211	0.005009360201208	0.010141473330413
2.9	0.0059504441939399	-0.0034312279096444	-0.00190285904360568	0.00251424426877842	-0.00189915640470736	0.00251382766032605	0.00588935709496585	0.00980332785558478
3	0.00570875982956594	-0.00540427776083642	-0.00151964939224965	0.00275133665544341	-0.00153442720411198	0.00275738516267682	0.00641894983903346	0.00947761703923839
3.1	0.00552475853241803	-0.00712720546672667	-0.00112917140323446	0.00293007577805588	-0.00112454073409037	0.0029384195406861	0.00749435846708002	0.00951714002741208
3.2	0.00471747450412953	-0.00922618219301289	-0.000709676877830696	0.00306749879542982	-0.000711417461550163	0.00306688446199402	0.00846330255717613	0.00900074130172078
3.3	0.00330642513131749	-0.0112108305645306	-0.000272736300288816	0.00313843940174032	-0.000271078943891423	0.00313470839079124	0.00940407520259321	0.00829332487531196
3.4	0.0013318115103703	-0.0128960708826987	0.000173046018452475	0.00313473290169382	0.000166795517868207	0.00315126567112209	0.0102677200789573	0.00715346201045523
3.5	-0.00142794772455067	-0.01410444925925	0.00059639180845269	0.00309381578794449	0.000601985157152266	0.00309390542041148	0.0101937477259955	0.00580453933265291
3.6	-0.00396781626639822	-0.0142077304468079	0.00102433819156684	0.00297422968211928	0.00103252396638784	0.00297393359567223	0.0104404073057582	0.00543844106309276
3.7	-0.00643975148983041	-0.0142132995330416	0.00143426613965022	0.00279519076457639	0.00142464653065758	0.00280882926591499	0.011081755251952	0.0045640319532785
3.8	-0.00902282243402278	-0.0137065682683955	0.00181307685611771	0.00257011957537254	0.00181545266157992	0.00257927345600618	0.0115141004889515	0.00341058903654259
3.9	-0.011431865554171	-0.012794651560018	0.0021606220722943	0.00229815873755077	0.0021533621311672	0.00229635916455296	0.011623617869436	0.00197055606881933
4	-0.0140932487238043	-0.0113179686421229	0.00244526892324015	0.00197631478413479	0.00244972179771527	0.00197389351471263	0.010781209611563	0.000827156943513216
4.1	-0.0158549690752111	-0.00886189294552952	0.00269728600563019	0.00161940080557139	0.00269603135540385	0.00162013207779447	0.0106431174558613	0.000897195078166226
4.2	-0.0170882061495604	-0.00654072240947521	0.00289910289819029	0.00121963663499927	0.00290359980245253	0.00121093495970509	0.0110505843769384	0.000416103845216383
4.3	-0.0179927035901876	-0.00411619533005518	0.00304432367371101	0.00080768206692551	0.00305077517232418	0.000799897583458465	0.0114003880877568	-0.000447467910748277
4.4	-0.0185595893426535	-0.00161813306153152	0.00312178867658935	0.000373240889196533	0.00312417128369754	0.000370991392493858	0.0115148706306143	-0.00161908962530384
4.5	-0.0191981665385635	0.00103596224010743	0.0031458944577851	-6.2551507336234E-05	0.00315127030838034	-6.59043785334149E-05	0.0107497100116018	-0.00278168003542865
4.6	-0.0189130368908254	0.00439892689176959	0.00310654238621138	-0.000506228907956366	0.00310772086932069	-0.000493293488197077	0.010368795733297	-0.002908648319147
4.7	-0.0178054801645706	0.00725606543017948	0.00300325999244479	-0.000927322690745611	0.00301860544105518	-0.000936899089098901	0.0103288376173108	-0.00352058665128786
4.8	-0.0163193524276805	0.00984442084719	0.002843469925155	-0.0013430911020924	0.00285198411282039	-0.00134916049592227	0.0101885471799086	-0.00418453984950284
4.9	-0.0141783241992264	0.0119884773749576	0.00262433773493666	-0.00172826825857725	0.00262850062277831	-0.00172534264345201	0.0101110953907009	-0.00497380719887177
5	-0.0120816013783618	0.0136924884177542	0.00236802076176645	-0.00208683396916771	0.00237164245360667	-0.00208414855349108	0.00956882733750093	-0.0056398264552991
5.1	-0.00886182921877358	0.015300550280052	0.00205569838179494	-0.00240183152260409	0.00205800192945297	-0.00240046318614357	0.00991658623557271	-0.00569808985878735
5.2	-0.00558247648758313	0.0156202470527976	0.00169705063759294	-0.00265338873160708	0.00169878243294608	-0.00265854121831193	0.0104117342839252	-0.00667411193041953
5.3	-0.00255606625561703	0.015330478677999	0.00131000977886617	-0.0028708400162378	0.00131314586298811	-0.00286876295579258	0.0104560475551045	-0.00785568606344813
5.4	0.000197591190477762	0.0144819679692202	0.000884531953971532	-0.00302147537705757	0.000901784795290041	-0.00303267743969878	0.0101398598400578	-0.00934546023083107
5.5	0.00211047692406344	0.0135435705974509	0.000466704074315428	-0.00312236316032544	0.000476809821081631	-0.00313181158780841	0.00853833706823277	-0.0104221163886544
5.6	0.00474322945896898	0.0127609109850122	2.58829954884984E-05	-0.00315700982214816	1.73351305225196E-05	-0.00316024973883448	0.00791918689656272	-0.0101004575894998
5.7	0.00697294350009648	0.0108531024104345	-0.000406202677422842	-0.003127200934332	-0.000422863122256505	-0.00313089669843136	0.00765933673791438	-0.0105258657475593
5.8	0.0085437648271268	0.00862564419463895	-0.000854409337844728	-0.00303319639839581	-0.000857939952716933	-0.00304723825059234	0.0072467611894961	-0.0113029482814509
5.9	0.0096166927117556	0.00611393713550676	-0.00126277583129877	-0.00289302465872685	-0.00127103657795325	-0.00289294787701884	0.0066130132034912	-0.0125052144193511
6	0.00933535063205551	0.00330271173968704	-0.00166233808999667	-0.00268321876521212	-0.00165876680096425	-0.00268338527683273	0.00434795319828856	-0.0139000918896951
6.1	0.00900004601393735	0.00170159836715708	-0.0020169695378158	-0.00242966211222034	-0.0020186170533881	-0.00242564738442334	0.00235741277332646	-0.0130312402534962
6.2	0.00867510113280904	-0.000438026686434317	-0.00233233453450711	-0.00211623976245377	-0.00233604930260136	-0.00212815300340674	0.00151356416206614	-0.0124592522710627
6.3	0.00793022528816258	-0.00261053473364837	-0.00261221816150857	-0.00177987800788936	-0.00262137916168182	-0.00177412025679594	0.00103726864536862	-0.0121921214317569
6.4	0.00670214467984575	-0.00495886604476117	-0.00283887996297024	-0.00138633896723897	-0.00282912578560566	-0.00139125984976126	0.000778848338869995	-0.0125304721511749
6.5	0.00445000549762834	-0.00670203929384266	-0.00299457892394013	-0.000981942096335282	-0.00300246563298642	-0.00097745059212464	-0.000419552483517288	-0.0126759383913326
6.6	0.00287896398417761	-0.00771138418045727	-0.00310646937419624	-0.00055522943189934	-0.00310810869419588	-0.000559222318250221	-0.000256886042873331	-0.0122499658585385
6.7	0.000689702941516778	-0.00875408058611991	-0.00315750920735772	-0.000113528022858609	-0.00316639555122632	-0.000107219033589039	-0.000602546951496791	-0.0128064604468423
6.8	-0.00173357477214814	-0.00893245068280694	-0.00313487467515299	0.000330717418505895	-0.00314600580751865	0.000335794473263218	-0.00140238770132805	-0.0130375424533196
6.9	-0.0040315463292984	-0.00870012932898967	-0.00305845193301792	0.000765100142805343	-0.00306144807666935	0.000767501672940648	-0.00219869976702207	-0.0134251006454626
7	-0.00696369600864474	-0.00764272786533433	-0.00292386771099937	0.00118848193175257	-0.00293675829752485	0.00118628535670365	-0.00437506657690262	-0.0134060898756456
7.1	-0.00844647241061006	-0.0052864971880806	-0.00274288432172774	0.00158222256613735	-0.00273918605935655	0.0015909204305012	-0.00507457948912091	-0.0115277777371235
7.2	-0.00953093094529043	-0.003506783538287	-0.00248291347155758	0.0019511794200895	-0.00248946507667883	0.00195328217868613	-0.00489751220868439	-0.0106982844076105
7.3	-0.0105628759883752	-0.00145582530293954	-0.0021852860321538	0.00227075081442511	-0.00219653194816365	0.00227585090354946	-0.00455774927225914	-0.0103309722976551
7.4	-0.0111534002713601	0.00064988158942845	-0.00184218388153861	0.00255547715002238	-0.00184906340682173	0.00256916175632596	-0.00410227683382591	-0.0109005665263227
7.5	-0.012165472367447	0.00271829830458407	-0.00147104208119656	0.00279736788350265	-0.00146399007636876	0.00280477019626707	-0.00521016597025309	-0.0123470844570146
7.6	-0.0119090129283447	0.00616943675073424	-0.00106059042688677	0.00297205463673984	-0.00106198860976775	0.00296734758302278	-0.00618877128031945	-0.0117941967092744
7.7	-0.0107109211169262	0.00853692243381664	-0.000630841753928644	0.00309157044354292	-0.000632190192989813	0.00309051059625534	-0.00669095122861177	-0.0124358524010001
7.8	-0.00888715380748261	0.0103755321786752	-0.000203075323831239	0.00313954609568575	-0.000210881059802679	0.00314605548410411	-0.00772424970100853	-0.0129505116415878
7.9	-0.00665931595817052	0.0114482335194765	0.000241599632583005	0.00314473579832291	0.000249572629310926	0.00314620131412275	-0.00919252214713803	-0.0133082487568796
8	-0.00489750923620404	0.0124657155377853	0.000684846699226729	0.00306604279856288	0.000684953697611629	0.0030709505198461	-0.0117794126398767	-0.0125253677393609
8.1	-0.00151286282147091	0.0132861333136057	0.00109286607964738	0.0029465983767967	0.00111204823891724	0.00294760330845909	-0.0121155755228114	-0.0104672641866321
8.2	0.00144771811016702	0.012749197754655	0.00149827077489894	0.00276408563003184	0.0015075013718734	0.00275683619053869	-0.0121459063836593	-0.00960233217006167
8.3	0.00407582813674971	0.0117788236020797	0.00187512810308889	0.00252172695166109	0.00187354952908995	0.0025353067560697	-0.0122428023641035	-0.00899739741099039
8.4	0.0064562555193398	0.0102059703278385	0.00220920409728667	0.00223948671666611	0.00220617009578705	0.0022392782245732	-0.0124448113748418	-0.00899982547731989
8.5	0.00758897637562408	0.00842215551490781	0.00249028356638201	0.00190867196056541	0.00248940005926226	0.00191186032356441	-0.0143992998692065	-0.00873232023622846
8.6	0.00952573980808466	0.00728013913223702	0.00273756563610691	0.0015476807336391	0.00274704472925013	0.00154108909284529	-0.0149124841304111	-0.00646726514187192
8.7	0.0111770461512863	0.00483130177423094	0.00292141406867253	0.00114171463085589	0.00292698143557014	0.0011424093770266	-0.0145059056811947	-0.00535168017961243
8.8	0.0120835239686911	0.00208660158323061	0.00305433033882985	0.000729036363081907	0.00306005288594413	0.000720245254655925	-0.014156020293798	-0.00478637234099612
8.9	0.0125407308444806	-0.00105844380907334	0.00312779410097355	0.000295953962301773	0.00312691266063427	0.000293712087575463	-0.0136633891257658	-0.00478938876851799
9	0.0116168456485344	-0.0043715486661482	0.00313828158649337	-0.000146630054956991	0.00314145882181412	-0.000142541885069495	-0.0145574631168291	-0.00500627535737882
9.1	0.0108302169068051	-0.00694475705115163	0.00308793991906655	-0.00059116265488364	0.00309089820885606	-0.000578284147652596	-0.0146274960149887	-0.00376890227462008
9.2	0.00926475961469509	-0.0100453902081312	0.00297377708692469	-0.00100714452501104	0.00298141066555386	-0.00101006189028896	-0.0144491888384907	-0.0034347202620713
9.3	0.00677925211291626	-0.0126310713276022	0.00280257166644674	-0.00140967552178149	0.00280181522083864	-0.00141465516876211	-0.0145618128671221	-0.00301785788271223
9.4	0.0037550905773809	-0.014720055982675	0.00257957628004156	-0.0017981199679479	0.00258611881333923	-0.00179056408675769	-0.0147722709137733	-0.00276473597087412
9.5	-0.000345871140867744	-0.0154869541081088	0.00230037737420605	-0.00213343191812369	0.00230777138011693	-0.0021348240827613	-0.01599720635025	-0.00172262065646284
9.6	-0.00338553913242819	-0.0151580551284781	0.00197958549297215	-0.00243093764645166	0.0019799203240538	-0.00242996037737365	-0.0154965489080834	0.000338331276913816
9.7	-0.00674689762591215	-0.0148509105180118	0.0016130364671128	-0.00267710098453459	0.00161851422230109	-0.00268441406767871	-0.0146501364141039	0.0011804905480578
9.8	-0.0102792710666486	-0.0136803053101491	0.0012286260609077	-0.00288320674665278	0.00123434951716393	-0.00287476570065539	-0.0139724548229611	0.00169618563888029
9.9	-0.0135604278995693	-0.0117443568920225	0.00082251459804098	-0.00302008727139608	0.000815215585398682	-0.00301882468696229	-0.0135191098049501	0.00163286997046879
10	-0.0172298170954663	-0.00890013669424961	0.000392461643385755	-0.00310191454148377	0.00038494240728519	-0.00311425269493605	-0.0147121765171537	0.00174049799763487
10.1	-0.0191275738570152	-0.00457698510541622	-4.34972592297797E-05	-0.00313069376986314	-5.36529133895796E-05	-0.00312528776460089	-0.0145728605821567	0.00362658966453509
10.2	-0.0201577069793707	-0.000639016125268046	-0.000486830857965919	-0.00309303126348959	-0.000490209620644265	-0.00309025335917719	-0.0135994625103808	0.00447987928013994
10.3	-0.020476935799621	0.00356371578171698	-0.000916799754062402	-0.00298537332340752	-0.00090878765682662	-0.00299442863488895	-0.0125670768479623	0.00483591332443145
10.4	-0.0198937747935159	0.00746550708414062	-0.00130989719326147	-0.0028274531415573	-0.00130823519664721	-0.00283361587513703	-0.0114741479629689	0.00411940948874543
10.5	-0.0191709092969506	0.011635544109281	-0.00169260301979016	-0.00263018251504441	-0.00168949659266654	-0.00261727657905476	-0.0123617809201332	0.00361441428027812
10.6	-0.0167247141019626	0.01602667978842	-0.00204385376616159	-0.00236431928739139	-0.00204168594486145	-0.00236812325582918	-0.0123137101119784	0.0044748727749513
10.7	-0.0136876286955965	0.0195304556968265	-0.00235660308776068	-0.00206310441664425	-0.00235312062139837	-0.00205786059380772	-0.0121464210315686	0.00493007939740592
10.8	-0.00995911271723696	0.0226954021448997	-0.00262198883676395	-0.0017049822233318	-0.00261683415421286	-0.00171385855766456	-0.011903816786863	0.00554090310012806
10.9	-0.00529826680395936	0.0247990336210805	-0.00282623200948173	-0.00133544137012458	-0.00283138543550177	-0.00133471358470006	-0.0112805403621916	0.00567256624909965
11	-0.00101655581895622	0.0262690574927379	-0.00298783695876699	-0.000924551028522155	-0.0029926542823535	-0.000931257348640065	-0.0121785538610003	0.00605918363352305
11.1	0.00475841390279235	0.0273266755424966	-0.00309532284651653	-0.000499046485126118	-0.00308452171585488	-0.000496209084529317	-0.0112929738938533	0.00794343636365315
11.2	0.0104598348453698	0.0264144729599302	-0.00312251471830707	-6.50565285021306E-05	-0.00312962474278123	-6.98624188626981E-05	-0.00964954031831027	0.00849860707233317
11.3	0.0158063998034347	0.0243844872626511	-0.00309599459972094	0.000378623873122905	-0.00310745945027992	0.000368642006458478	-0.00782998632553185	0.00836463391408225
11.4	0.0206326046922661	0.0212761673354543	-0.00302562176155285	0.000802639768376348	-0.00302074344051783	0.00081016965718735	-0.00634315551697548	0.00735235257359856
11.5	0.024040027213151	0.0175468332571216	-0.00288302105813528	0.00121952220841752	-0.00288578543360185	0.00122974342148557	-0.0067985229748306	0.0064010533372004
11.6	0.0278490539358023	0.0136531736167928	-0.00268756763069162	0.0016043090643598	-0.00268755083400314	0.00160723005889126	-0.00583572892730522	0.00672731899800076
11.7	0.0307669533850205	0.00836051112843585	-0.00243043498596496	0.00195499144973005	-0.00243100912263784	0.00196354021933964	-0.00449800752866546	0.00563982304299067
11.8	0.0325804190237544	0.0025752583473368	-0.00213959452587938	0.00228574012883637	-0.0021436885817868	0.00228742003321615	-0.00366843151840869	0.00397052982907068
11.9	0.0331489940890415	-0.00386226687970417	-0.00179252949282446	0.00256205067832567	-0.00180548261738445	0.00256630996853939	-0.00384489495692141	0.00174633395322039
12	0.0316216192005645	-0.00979819801915234	-0.0014202746668204	0.00278099720791742	-0.00141968559824765	0.00278240014165744	-0.00621566147919846	0.000777255267020013
