# GHZ S RI R 50
0.2	0.00545707226075411	0.000221433805795832	0.00305527733273589	-0.000895931445658193	0.00306565753865201	-0.000889096847410862	-0.0145919345948887	0.00380414265722741
0.3	0.00585839568790714	-0.00132109688095188	0.00291318419757192	-0.00132014959398664	0.0029059007765863	-0.00130719051160362	-0.013717330802395	0.0044123796031252
0.4	0.00566628987943423	-0.00237184116436128	0.00268376748947873	-0.0016940217731088	0.00268906570902437	-0.00170260062334763	-0.0131333226223166	0.0055687587095022
0.5	0.00611625166863972	-0.00394500424798661	0.00242494161536757	-0.00205530703567063	0.00243653508790365	-0.00206758248399429	-0.0113685366038311	0.00599812523717307
0.6	0.00422294943734036	-0.00607851905535654	0.00211051614210339	-0.0023708362675395	0.00210973285081284	-0.00237801143504159	-0.0117221280735847	0.00534874185632262
0.7	0.00220831586557963	-0.0063427611349602	0.00176339482090276	-0.00265054837709398	0.0017614314823228	-0.00265074986915382	-0.0121682701215029	0.00627172539473942
0.8	0.000532608340427578	-0.0062783004653859	0.001376786021534	-0.00287082652810596	0.00136413491704228	-0.00287540493067744	-0.0122680577437453	0.00737898308980532
0.9	-0.00136791433009762	-0.00550176533403835	0.000956486280889344	-0.00303706699996789	0.000957527442386832	-0.00304781628531051	-0.012469005310913	0.00896104500844343
1	-0.0015274232088211	-0.00369127916236498	0.000527860313815898	-0.00313902716858427	0.000517959053097852	-0.00313976680781851	-0.0107465915502908	0.0114675140920034
1.1	-0.00193596313076987	-0.0047253967924231	7.26660773553426E-05	-0.00316874094783495	6.91502679178711E-05	-0.00318646841068484	-0.0090994665723223	0.0108301364666194
1.2	-0.00393512636807441	-0.00465303794101642	-0.000372705780007344	-0.00316000570713533	-0.000373521512435928	-0.00315791912877615	-0.00873505960982246	0.0111751122413328
1.3	-0.00579587985801801	-0.00439594051832175	-0.000803701260846929	-0.00307648833721892	-0.000806958806682084	-0.00307850189862424	-0.00757825222453427	0.011509952846286
1.4	-0.00747519900097065	-0.00350180094502528	-0.00122784589068236	-0.00292584010565299	-0.00122663244055802	-0.00293140068764815	-0.00636259072405578	0.0115488490824959
1.5	-0.00716314337860794	-0.00251563993405197	-0.0016281317213747	-0.0027299837346871	-0.00162651323578346	-0.0027385245170292	-0.00416117931730476	0.0107955673593891
1.6	-0.00808627662214423	-0.00136602512241823	-0.00199435265793274	-0.00247851158675852	-0.00199456847700172	-0.0024837774558726	-0.00470655417618899	0.0101080919325453
1.7	-0.00752434982440567	0.000956346452436173	-0.00232670899688086	-0.00217757826676169	-0.00232767036435468	-0.00217127696357706	-0.00434000907298561	0.0111091958659873
1.8	-0.00634093824613616	0.0028180669407987	-0.00259915480246013	-0.00182195553167137	-0.00261019714405003	-0.00182760256492506	-0.00351826201104096	0.01182453078584
1.9	-0.00474280684795476	0.00454000715367368	-0.002824769886181	-0.00144874384587429	-0.00283726983844095	-0.00144252990267498	-0.00247045599921993	0.0128010013414312
2	-0.00166003961740662	0.00501227612229011	-0.00300506260397312	-0.00103893237142373	-0.00301474287218985	-0.00103416814489109	0.000138482448188843	0.0128537402443046
2.1	-0.000870208688230855	0.00378794830414227	-0.0031188631918482	-0.000601145374841394	-0.0031147597972276	-0.000603168106616213	0.000429154426015241	0.0111771320726059
2.2	-0.000216019336566254	0.0039792827866669	-0.00317274167632072	-0.000157833249855906	-0.00318412967315472	-0.000160633827814115	0.000515864204474174	0.0111548157258632
2.3	0.00075734970262775	0.00390400711648427	-0.00316527889703384	0.000289184441457945	-0.00316500898118974	0.000282258155450003	0.000867854540054661	0.0111726464542793
2.4	0.00161895750262222	0.00399355441479991	-0.0030909657431656	0.000731605811289914	-0.00309354664811209	0.000727334924734322	0.00119888948380836	0.0117701753362442
2.5	0.00399672388646082	0.00392132028293719	-0.00294789475528173	0.00115180248108153	-0.00295880421986448	0.00115830549726485	0.00353340298653618	0.0125814025705053
2.6	0.00525046676449039	0.00132963246895913	-0.00276409054129062	0.00155385057756576	-0.00276061450981628	0.00154144554391246	0.00514833813785038	0.0106440758166396
2.7	0.00540230714564505	-0.000426547623961979	-0.00251351866404888	0.00192390181748564	-0.00251882028413359	0.00192395351118352	0.00549066881547126	0.00945274206252238
2.8	0.00538119141641983	-0.00202446687482808	-0.00222545084142263	0.00225120186088064	-0.00221752614960296	0.00226096666416586	0.00554304247651756	0.00871346761684783
2.9	0.00536381416723331	-0.00321002282209603	-0.00188352276269134	0.00255073119949297	-0.00187980460875173	0.00255026832713506	0.00589873470785953	0.00886631778241687
3	0.00623418132003126	-0.00511433005340622	-0.00148854774901708	0.00277765322099746	-0.00150328629419403	0.00278390494529349	0.00788734759917348	0.00844813056002262
3.1	0.00494733731129222	-0.00787095847851747	-0.001099683925521	0.00294867782448466	-0.00109495241056329	0.00295698909378887	0.0079480453014645	0.00673459140054252
3.2	0.00337066045153603	-0.00928971513835487	-0.000676508161050512	0.00308259163648988	-0.000678259709770865	0.00308199563801654	0.00785467061957323	0.00650208127204146
3.3	0.00167005217797443	-0.0105841231497063	-0.000235184240736063	0.00314650855017961	-0.00023356950056409	0.00314275181936185	0.00813889345209631	0.00626820877933883
3.4	-0.000334278695079185	-0.0111518404263835	0.000212026694030295	0.00313163516040154	0.000205983934770774	0.00314824078557327	0.0086173885356945	0.00629035525119294
3.5	-0.00121814546018441	-0.0119720163214094	0.00062672432471512	0.00308352993778695	0.000632310838883465	0.00308356311620103	0.0105059347022327	0.0054998565274228
3.6	-0.00428333687016261	-0.0135931979962867	0.00105589166783681	0.00296433457057081	0.00106407672287694	0.0029639523787949	0.0102434982750411	0.00320379538285392
3.7	-0.00754354959847789	-0.0130925377288548	0.00146583855595305	0.00277714866405701	0.0014563816645339	0.0027908912825884	0.00957944198210956	0.00260660006879919
3.8	-0.0102768279830557	-0.0118394015268793	0.00183980074504909	0.00254457986820844	0.00184227882341312	0.00255369022963527	0.00929731567748646	0.00242600047209278
3.9	-0.012311919042448	-0.00977884168242437	0.00217934285833798	0.00226939155964171	0.00217208261929152	0.00226767337212307	0.00949392389151171	0.0028241559664328
4	-0.0125343775249832	-0.00827766241190652	0.00246419158688997	0.00194975139917767	0.00246861658650538	0.00194728554946786	0.0117531749634305	0.00240378295114991
4.1	-0.0146332434159654	-0.00798095692950106	0.00271324491661299	0.00158148826533662	0.00271200205708248	0.00158223442043428	0.0119203850357511	-0.000133405413617233
4.2	-0.0167713740361408	-0.00580124053139346	0.00290389738403167	0.0011779432942108	0.00290826602214152	0.00116921651705528	0.011375109706678	-0.00115413424489365
4.3	-0.018190673389038	-0.0031408321901076	0.00304013192263845	0.000766885997532427	0.00304645889260361	0.000759058816405912	0.0110065411742882	-0.00187249951711435
4.4	-0.0190596269286264	0.000236968982170514	0.00311280025401801	0.000334535039144799	0.00311514588145514	0.00033226689961187	0.0107106856101056	-0.00191464544969661
4.5	-0.0177504329251312	0.00334730210032277	0.0031295849378331	-0.000108155196590791	0.00313488554755617	-0.000111570110932317	0.0124331063892812	-0.00232744318400099
4.6	-0.0178612872445324	0.00462653466749793	0.00307278411768666	-0.000544870393609298	0.00307413150466986	-0.000532062675826639	0.0121740113600745	-0.00508881627706516
4.7	-0.0178074665753978	0.00747599434498279	0.00296336616243725	-0.000955562626113604	0.00297844811916657	-0.000965237469955338	0.0110299515220749	-0.00628764089516599
4.8	-0.016906072880133	0.0103998480571524	0.00279963703734524	-0.00136339990656595	0.00280799582786673	-0.0013695099502418	0.0100117604556182	-0.00699985551146257
4.9	-0.015085159046223	0.0135005434509155	0.00257508201021642	-0.00174264687671294	0.00257923728044842	-0.00173980399681403	0.00918870186987405	-0.00687807029953236
5	-0.0112348294008538	0.0153026667605384	0.00230860405589046	-0.00208512228481823	0.00231220562990257	-0.00208251936076262	0.0104674113051686	-0.00725166386971257
5.1	-0.00923387488495588	0.0155121270876602	0.00200520120474033	-0.00238371032397308	0.00200748230071799	-0.00238238152597377	0.00951993647401703	-0.00925586360743284
5.2	-0.00674726497105327	0.0167463167616198	0.00165230702757325	-0.00262847318220533	0.00165397432571868	-0.00263356523854167	0.00851588175139873	-0.00938763554081827
5.3	-0.00360860010121408	0.017295915701421	0.00126914657693239	-0.00283750473885383	0.00127225102333278	-0.0028354819984626	0.00819256544963756	-0.00923603400884085
5.4	-0.000281647033852528	0.0174839102422243	0.000849810638242735	-0.00297620465116216	0.000866698615524123	-0.00298733032133895	0.00846991225444674	-0.00888197081806632
5.5	0.00435321938958756	0.0158056223389644	0.000451354792085378	-0.0030685565795111	0.000461261304930947	-0.00307786208491813	0.0107039488211242	-0.0102930178423232
5.6	0.0053000959073422	0.0126156470328985	1.9680005993984E-05	-0.00310978894678209	1.12541559857686E-05	-0.00311296460769285	0.00882475443858077	-0.0134748208884657
5.7	0.00614606929468057	0.0113968102378294	-0.000406245755589225	-0.00307842517579478	-0.000422658097910108	-0.00308203083953809	0.00652736117597953	-0.0137594986227125
5.8	0.00725860953823775	0.00995387823939467	-0.000843690289899123	-0.00298331290408596	-0.000847178146612793	-0.00299712425833101	0.00485384149677078	-0.013616841664
5.9	0.00803824364546381	0.00888092070615601	-0.00123799046973551	-0.00284721256887852	-0.00124611549837019	-0.00284714853544964	0.00327235663630409	-0.0124505153356819
6	0.0108619777621196	0.00733667428279933	-0.00163372443159434	-0.00265225209468764	-0.00163019955495036	-0.00265240735389406	0.00477931307905155	-0.0110300907566829
6.1	0.0108789765404773	0.00242986546118671	-0.00198800524532545	-0.00239677047524086	-0.00198963152907744	-0.00239281211009733	0.00467361040469506	-0.0133835450588172
6.2	0.00900815871834919	-0.000363077065082804	-0.0022936656558102	-0.00208779737125725	-0.00229730548923348	-0.00209953578738468	0.0031230360633176	-0.0140713977728254
6.3	0.00709739784624569	-0.00222902921142078	-0.00256695938519645	-0.00176134386406748	-0.00257600026286185	-0.00175570271823098	0.00178689426154881	-0.0142455052834418
6.4	0.00548166642890158	-0.00303520617253997	-0.00279427894910211	-0.00137990566507036	-0.00278463574433113	-0.0013847171482918	0.00105955166558659	-0.0134545890132517
6.5	0.0054735595586081	-0.00524016780690219	-0.0029529802565772	-0.000974345297853251	-0.00296077030618922	-0.000969927874531446	0.00265825275117795	-0.0145406862972338
6.6	0.00193389661674909	-0.00726242503199585	-0.003053702374948	-0.000557248034396304	-0.00305530063434884	-0.000561181500909674	0.000477140326819401	-0.0165239735608537
6.7	-0.000610034390837159	-0.00705648888153023	-0.00310653209671395	-0.000130461946271181	-0.00311531431896297	-0.000124306215521322	-0.00127220072629203	-0.0162459890745032
6.8	-0.00293621434343501	-0.00663576791298082	-0.0030905357660162	0.000303941433690981	-0.00310153667101445	0.000308865343764895	-0.00276398401612502	-0.0157124672301242
6.9	-0.00500688653982039	-0.00493067319267324	-0.0030195835581923	0.000734639413342477	-0.00302255216710665	0.000736987471608067	-0.00377408074762577	-0.0139365388451326
7	-0.00426733423499472	-0.00422484321463725	-0.00288059885048539	0.00114665180984015	-0.00289324576263913	0.0011444023706379	-0.00132384974488882	-0.0136935598394091
7.1	-0.00742983443583967	-0.00504095629963274	-0.00271579576512824	0.00152443250527867	-0.00271225895527625	0.00153302925604667	-0.00326358995036802	-0.0163200745519126
7.2	-0.0100747484397343	-0.00264925435959008	-0.00247081751671587	0.0018917259969364	-0.00247729932557072	0.00189371648197937	-0.00564835496198391	-0.0157527183140031
7.3	-0.0116895386363679	0.000133157875911876	-0.00218367865341555	0.00221101313741415	-0.00219483215562525	0.0022158980810745	-0.00733428162056003	-0.0147110315311508
7.4	-0.0127665334112225	0.0038852271512948	-0.00184970681104379	0.00249208103799761	-0.0018566711881332	0.00250546707286131	-0.00899997779549285	-0.0124542609660303
7.5	-0.010303583784528	0.00746139568428183	-0.00150242198168054	0.00273078115871643	-0.00149560652005838	0.00273821076868947	-0.00654505252727932	-0.0100297067889951
7.6	-0.00986421345662755	0.00744051615144209	-0.00110611035244269	0.00292369511160461	-0.00110740693975382	0.0029190069789421	-0.00608090570545155	-0.0123309102492524
7.7	-0.00988071381635788	0.00944296599410624	-0.000681441912699548	0.00305326522284924	-0.000682759409877164	0.0030521901234603	-0.0072873583973911	-0.0128828976486632
7.8	-0.00884276823762083	0.011602058233489	-0.000260606024251052	0.00310969673665897	-0.000268469840490947	0.00311600495719935	-0.00823376284954108	-0.012739243267516
7.9	-0.00661274081672548	0.0139313738347749	0.000173171286220293	0.00312722379237679	0.000181055815349991	0.0031288478401369	-0.00826417962252659	-0.0117487694895828
8	-0.00221131443718075	0.0134280970770129	0.000617009207504003	0.00307541008013116	0.000617009398312156	0.00308031130564502	-0.00629404071328589	-0.0132729518859894
8.1	-0.00170621424057975	0.0124837192839717	0.00103642452451593	0.00296271196597758	0.0010555603866281	0.00296407265272055	-0.00919475791655738	-0.0155627157060906
8.2	-0.000123425155497619	0.0131429745632684	0.00144314808333642	0.00278836208751491	0.00145250263441236	0.0027813002476509	-0.0114974271714354	-0.0148007046990707
8.3	0.00187774052076202	0.0132256099817174	0.001824009360915	0.00255874228753614	0.00182215847602456	0.002572286936872	-0.0131742381524312	-0.0136411464010964
8.4	0.00405153395802188	0.0137038903791031	0.00217009244058623	0.0022909031615302	0.0021670538659372	0.00229063238384468	-0.0143476352695979	-0.011323206043843
8.5	0.00883133845599774	0.0123326739321257	0.00247044166058716	0.00195656537657863	0.00246950349092398	0.00195975323952877	-0.0119735285858134	-0.0101425020600685
8.6	0.00944111079554194	0.00836918792023297	0.0027162340336717	0.00159647071972146	0.00272584056086936	0.00159002733782132	-0.0133838624798967	-0.0122572705066359
8.7	0.00970963073072651	0.00674575050793369	0.00290985474240231	0.00119852081694925	0.00291542704999015	0.00119931913942357	-0.0156252735974422	-0.0115129639933017
8.8	0.0102567061599049	0.0049719261516923	0.00305706710917373	0.000787855820408292	0.00306297778651304	0.000779122133435275	-0.0174628420319377	-0.0101141138088064
8.9	0.0107123460927267	0.003495256015286	0.0031436439995075	0.000347399177591733	0.00314279225375233	0.000345128634856224	-0.0187147398260016	-0.00717791855757834
9	0.0130852942569999	0.000836028801771452	0.00315051130698037	-9.83730195504066E-05	0.00315363514992021	-9.42225570940553E-05	-0.0160284505668871	-0.00464587368756276
9.1	0.0119217552509127	-0.0040729378644081	0.00311614029706482	-0.000535743865374276	0.00311887016635678	-0.000522738383580795	-0.0157497383691331	-0.00542811027188418
9.2	0.00993851604550603	-0.00703461097817717	0.00301656390595132	-0.000961041425847237	0.00302431338666143	-0.000963843168305773	-0.015678560544263	-0.00447670986898555
9.3	0.00752764133139329	-0.00968326510691326	0.00285232542304404	-0.0013754530554349	0.00285164598428489	-0.00138049160865816	-0.0150703600806489	-0.0037106659920701
9.4	0.00467293771433942	-0.0110672319934212	0.00262988386407497	-0.00177120380725337	0.00263635805454076	-0.00176347994094436	-0.0142337347651266	-0.00244528332523071
9.5	0.00301419548916934	-0.013469223583071	0.00236564725464315	-0.00210675207178834	0.00237313966231782	-0.00210800671794197	-0.0113543998460476	-0.00346582985702452
9.6	-0.00282245617999005	-0.0153275143608909	0.0020534549053602	-0.00242944511276618	0.00205377644630878	-0.00242844744381062	-0.0133260823190241	-0.00563382673752134
9.7	-0.00765628616604127	-0.0139322177263372	0.00168154736926171	-0.0026919807839031	0.00168722876744788	-0.00269931703076088	-0.0150066611370262	-0.00481693591824393
9.8	-0.0116711953082507	-0.0118044493007903	0.00129273892487294	-0.00290922962089679	0.00129842062203304	-0.00290056732333567	-0.0161134666311089	-0.00349099128515027
9.9	-0.0149959178451983	-0.00827276016682909	0.000886804937857414	-0.00305691223374441	0.000879362558908937	-0.00305575058741198	-0.0167855966385898	-0.00094390900917201
10	-0.0153821488666721	-0.00552027926418007	0.000449133939946975	-0.00316620887016161	0.000441634219105809	-0.00317894260730425	-0.0138637978508039	0.000476066543007968
10.1	-0.0187313309233732	-0.00400462142839103	-1.23594419150499E-05	-0.00320140025260817	-2.27984674774974E-05	-0.00319597709774285	-0.0143696397132407	-0.00117596763299742
10.2	-0.0213759833630531	0.000334446042597449	-0.000468987593112481	-0.00316512495083724	-0.000472465794259989	-0.00316231744068035	-0.0154937573570776	-0.000343728030709637
10.3	-0.0226355614840339	0.00540727891856161	-0.000911976960071356	-0.00306141261890675	-0.000903703915156308	-0.00307060549544238	-0.0160864539270218	0.00119608614055575
10.4	-0.022275544625353	0.0114253031126215	-0.00132379039551428	-0.00290957070756835	-0.00132204220768187	-0.00291588066139277	-0.0156054386416587	0.00384586181895117
10.5	-0.0184506685883263	0.0157663294230508	-0.00173637594817409	-0.00269880589147622	-0.00173319002856988	-0.00268556377355557	-0.0115749672698894	0.00470275592601604
10.6	-0.0170045301327856	0.0183186756673739	-0.00208956113333598	-0.00241541708989382	-0.00208734717918357	-0.00241930529804643	-0.0109538534563824	0.00275216398362467
10.7	-0.0145306510815483	0.0221801300893453	-0.00240937601532843	-0.00210801940787959	-0.00240581488705694	-0.00210266064928091	-0.0107782031808604	0.00238197491176215
10.8	-0.0112621935671517	0.0256071709959141	-0.00268518586341838	-0.00173928984968948	-0.00267992918604359	-0.00174837900377697	-0.011081978906202	0.00217245258526886
10.9	-0.00688859534360903	0.0293233766694288	-0.0028978967409517	-0.0013502038074721	-0.00290316336881143	-0.00134943099551282	-0.0111549803213115	0.00351900548730897
11	0.000559608526738657	0.0305568702164954	-0.00304533090602977	-0.000921579950420793	-0.00305027400337017	-0.000928371608203103	-0.00797651347937874	0.00344567420490348
11.1	0.0045271483356104	0.029659929057747	-0.00315493682361774	-0.000497448422237804	-0.00314392380192157	-0.000494596112702101	-0.00894200679814914	0.000975277832978896
11.2	0.0093868769660848	0.0298493829660408	-0.00318538454689258	-4.98876362906533E-05	-0.0031926622967093	-5.47522552352717E-05	-0.0100037150648171	0.00119615941175462
11.3	0.0148467589116938	0.0289677219288531	-0.00315345786006173	0.00040956261004581	-0.00316522212992852	0.000399473427013094	-0.0106933611410277	0.00208986827233691
11.4	0.0201924351361187	0.0273531157941787	-0.00306877879776559	0.000842839405336715	-0.0030637525564062	0.000850451124594582	-0.0105493575498734	0.00397451731191186
11.5	0.0271954323470376	0.0229603324339799	-0.0029254622950089	0.00125360875786668	-0.00292822439757591	0.00126401408364116	-0.00692933902651639	0.00368649141925728
11.6	0.0297087614342211	0.0163560836756165	-0.00273002912834036	0.00165744141649523	-0.00272998972482017	0.00166042172326542	-0.00782376207310748	0.0011410189416472
11.7	0.0316334881478078	0.0113640788619234	-0.00245694619293969	0.00201829404288229	-0.00245744178818974	0.00202701419340464	-0.00881777359987361	0.00130376596253162
11.8	0.0330916076412443	0.00611736189508188	-0.00215100613440778	0.00235070830053463	-0.00215515305803973	0.0023524650008175	-0.00912950185795399	0.00225453156465294
11.9	0.0347298583109291	0.00127002617256549	-0.00179722559589274	0.00262467109969814	-0.00181035876479244	0.00262913671847069	-0.00777391091165693	0.00463895685056421
12	0.0370189909785299	-0.0063917038109895	-0.0014176992547641	0.00285875569215384	-0.00141708042408201	0.0028601821075252	-0.00298674999976186	0.00383177151539714
