# GHZ S RI R 50
0.2	0.00606624619951823	0.00145835853918054	0.00304645587000814	-0.000898650009267694	0.00305682190068575	-0.000891848537456246	-0.0138456393582798	0.00514147469793038
0.3	0.00635549044959382	-0.000597892949677662	0.00290157554527965	-0.00132188935957716	0.00289434040295882	-0.00130895568959137	-0.0130771724894561	0.00523370992871826
0.4	0.00606947981028791	-0.00238779970703295	0.00266930192727128	-0.00169307202159799	0.00267456017879315	-0.00170162798492436	-0.0126067929252381	0.00562833830761508
0.5	0.00513307790281436	-0.00368950528265267	0.00241040686772275	-0.00204867469845626	0.00242192750813453	-0.00206090659109295	-0.0123674652487405	0.00633462536586301
0.6	0.0043632645575028	-0.00460453064746621	0.00209804437042763	-0.00236279968597376	0.00209725562841597	-0.00236994155860494	-0.0116656721911887	0.00711596240250968
0.7	0.00317864770196385	-0.00544811385431253	0.00175077698469413	-0.00263979427776421	0.0017488231903378	-0.00263999195561136	-0.0111840660035647	0.00761071470222911
0.8	0.00185860360343644	-0.00591362547246278	0.00136564546898828	-0.00285621789823547	0.00135306048474705	-0.00286075561874519	-0.0107854278877265	0.00825251514049299
0.9	0.000429770473457169	-0.00607220057994078	0.000949385291361378	-0.00301893355216014	0.000950415623772131	-0.00302961768045932	-0.0103352530953881	0.00883605063820881
1	-0.00132663482621468	-0.00590738384759864	0.000525268740578742	-0.00312232518052841	0.000515420099717104	-0.00312306155844203	-0.0101980852412517	0.00941425643889057
1.1	-0.00273248951003612	-0.00495964992375375	6.99339035085929E-05	-0.00315034810616426	6.64256415555918E-05	-0.00316796981205247	-0.00980631154145202	0.010664844736455
1.2	-0.00380473059814503	-0.00432332273547788	-0.000371053934804743	-0.00313909270788499	-0.000371863762473886	-0.00313701966841397	-0.00872320438776406	0.0116383507738336
1.3	-0.0049302913934797	-0.00390204676133233	-0.00079693963997128	-0.00305578430354517	-0.000800174083938867	-0.00305778543861279	-0.00701236858524675	0.0122871793734752
1.4	-0.00600666446043727	-0.00357125264564628	-0.00121723243799912	-0.00290783881536929	-0.00121602196301107	-0.00291336203264575	-0.005224624532118	0.0119911252410712
1.5	-0.00675479949924819	-0.00247526794553813	-0.00161735401261032	-0.00271169767928459	-0.00161574662971849	-0.00272018148553885	-0.00409387001720576	0.0115949053094201
1.6	-0.00659753568291286	-0.00104115115861808	-0.00197599368484694	-0.00245962346943324	-0.00197620364893734	-0.00246484609619289	-0.00335746693756844	0.0114996965938821
1.7	-0.00616444632376063	0.000339725997211095	-0.00230324209450661	-0.00216395128403211	-0.00230420751841401	-0.00215770410814371	-0.00280050741206253	0.0115844599267766
1.8	-0.00539855391511922	0.00176690345400607	-0.00257354287043228	-0.00181363932415135	-0.00258448160599829	-0.00181926800673868	-0.00220709568478974	0.0117260652890271
1.9	-0.00436591929446191	0.00285990392183534	-0.00279821860003706	-0.00144389459126453	-0.00281063208605229	-0.00143776194320985	-0.00168881506955993	0.0118245445694196
2	-0.00321638120322405	0.00393693329289109	-0.00297260394612559	-0.00103785367993789	-0.00298220410886766	-0.0010331651331907	-0.00134174323124541	0.012299403746535
2.1	-0.00141756910634993	0.00446688108082799	-0.00308640092443756	-0.000611866989792452	-0.00308232547100197	-0.000613849176806068	-0.000258836839521887	0.0126996708607234
2.2	0.000150393216418602	0.0043688054344976	-0.00314438520890088	-0.00017507036011	-0.00315565832698191	-0.000177913492390439	0.000888845107578342	0.0126252806617623
2.3	0.00152797531936466	0.00385513249312169	-0.00314028478947705	0.000266909408996086	-0.00313997377605279	0.000260043469454919	0.00189810395801125	0.0122483007749431
2.4	0.00261412220106124	0.0030554144518792	-0.00306853421971287	0.000703576088716039	-0.00307106241462007	0.000699325268327524	0.00272210984340579	0.0117324292624896
2.5	0.0032683321369818	0.00226808541924291	-0.00293346711283537	0.00111415710736224	-0.00294434428903264	0.00112050159534155	0.00317401421216192	0.0113182044857687
2.6	0.00430396665949872	0.00147367924953731	-0.0027611691271611	0.00151718160762633	-0.00275759613649243	0.00150489030489188	0.00407386253133312	0.0111523294133423
2.7	0.00523685066367551	0.000130906788118253	-0.00251644106515549	0.00188802862209409	-0.00252171054643004	0.00188802931027921	0.00494000419165442	0.0105824799920487
2.8	0.00590637544497965	-0.00156036776770643	-0.00223508696645291	0.00221504037674499	-0.00222730925637146	0.00222482754757102	0.00558571743688813	0.00998569080135595
2.9	0.00617798464268303	-0.00349276773753263	-0.00190282829370479	0.00251520847643249	-0.00189912485391895	0.00251479105680956	0.00621448286471414	0.00949093482947393
3	0.00598091293015662	-0.00530526688304064	-0.00151793727443053	0.00275204334254717	-0.00153271056125484	0.00275810010005231	0.00685851975859423	0.00929371289584449
3.1	0.00573463190194336	-0.00733078821113814	-0.00112824527258299	0.00292924431156633	-0.00112361473690326	0.0029375842942718	0.00788449210396932	0.00889387977007733
3.2	0.00466487620470663	-0.00942418302967028	-0.000709313144666083	0.00306694659493642	-0.000711053430512574	0.00306633250956466	0.0085258820829562	0.00829835545298679
3.3	0.00307301845595264	-0.0113419852089704	-0.000272203162652386	0.00313803834435398	-0.000270546628670269	0.00313430760011148	0.00920622594252169	0.00762009722420516
3.4	0.000861120532417892	-0.0128664954639744	0.000174075266859048	0.00313370924543509	0.000167832397199667	0.00315023908955487	0.00976123801519703	0.00665719222256398
3.5	-0.00173834917988665	-0.0136722690436963	0.000595819760858062	0.00309137387398451	0.000601408657916623	0.00309146361176984	0.00985908886575064	0.00574909733266219
3.6	-0.00418844448817094	-0.0140763399138863	0.00102283880063257	0.00297360983892869	0.00103102189429087	0.00297331701745708	0.01019356025158	0.0050113204871896
3.7	-0.00696428904536792	-0.0140569565413402	0.00143331003202147	0.00279489964800524	0.00142368943671542	0.00280853293237955	0.0104322466347219	0.0041280878462455
3.8	-0.00978455160482566	-0.013318683147964	0.00181200877469943	0.00256966167372571	0.00181438206060066	0.00257881313339022	0.0105198938156522	0.003260372359538
3.9	-0.0123482735869921	-0.011928143542158	0.00215858230402899	0.00229789138814082	0.00215132677029193	0.00229608972443511	0.0104204079551523	0.00244386996991603
4	-0.0144336057877113	-0.00977783170747966	0.00244331297276863	0.00197863677870997	0.00244776809751012	0.0019762198557213	0.0102898849159232	0.00213509661878229
4.1	-0.0156039936029427	-0.00770664617593787	0.00269766360949741	0.0016211489245621	0.00269640816812326	0.001621879960998	0.0108967178799413	0.00173878255031666
4.2	-0.0167717455112765	-0.00564978108327868	0.00289942218774987	0.00122062869125553	0.00290392225018756	0.00121192626779822	0.0113736824642757	0.000914625200878308
4.3	-0.0176944527082321	-0.00339683339071833	0.00304454929178687	0.000808805474172951	0.00305100436788371	0.000801021845370704	0.0116841417995977	-0.000136814134043348
4.4	-0.0184355425906394	-0.000923331878984199	0.00312277683208145	0.000375020358821587	0.00312516152307308	0.000372771259054793	0.0116169553645125	-0.00127998240880484
4.5	-0.0187959626783239	0.00210091650197641	0.00314891087466379	-6.27380319939482E-05	0.00315429174932325	-6.60943369011079E-05	0.0112744103156549	-0.00201940637978706
4.6	-0.0181841222132016	0.00492983596526082	0.00310722460133028	-0.000507854662886108	0.0031084095779183	-0.000494915961003985	0.0113341526339899	-0.00282007435723639
4.7	-0.017257244381673	0.00749758520361063	0.00300326733317125	-0.000928165927462215	0.00301861158242321	-0.000937747028130283	0.0111093819389793	-0.00385313853047858
4.8	-0.0159706728884243	0.00990553459812723	0.00284368337819304	-0.00134370465705857	0.00285219790309439	-0.00134977618436006	0.0107138492322922	-0.00478990303167362
4.9	-0.0141764033341646	0.012041990849034	0.00262471450581411	-0.0017298195001007	0.00262887995408972	-0.00172689423944855	0.0102144128739433	-0.00561559961555189
5	-0.0119187655382317	0.0140488378206647	0.00236552395870862	-0.00208857259463292	0.00236914733438146	-0.00208589118560318	0.00984055238899688	-0.00597509809871275
5.1	-0.00882825202913892	0.0151882881952122	0.00205387305377172	-0.00240072683614421	0.00205617541438658	-0.00239935986369465	0.0100254830500225	-0.00661594755466369
5.2	-0.0060036163909255	0.015673928460473	0.00169635584626787	-0.00265242397958233	0.00169808688174482	-0.00265757456036681	0.009921509372358	-0.00745052273591529
5.3	-0.00309463181434487	0.0157606669878187	0.00130925560298888	-0.00287018821822165	0.00131239106011965	-0.00286811216713755	0.00974246248158992	-0.00817016396625503
5.4	-0.000288316127188216	0.0152794660222475	0.000882900969974775	-0.00302011308878935	0.000900139927647814	-0.00303131534943519	0.00946674740045235	-0.0091395189458999
5.5	0.00238158234772789	0.0146407019422245	0.000467156741459375	-0.00311835423711989	0.000477253124138979	-0.00312778766870884	0.00883416522429237	-0.00982845628718917
5.6	0.00504147270422787	0.0129185679230986	2.8504599715262E-05	-0.00315560775555261	1.99631743412645E-05	-0.00315885338427919	0.0083303324033383	-0.0106760045209868
5.7	0.00663229996067264	0.010888405458184	-0.000404250817475275	-0.00312686643102662	-0.000420905963720143	-0.00313057151011872	0.00728731168980964	-0.0113473933071711
5.8	0.00770225135655058	0.00888775458468525	-0.000852673549195516	-0.00303290584303386	-0.00085619622972516	-0.00304694613543324	0.00619091236076928	-0.0118712397911201
5.9	0.00820149642696791	0.00697115244206987	-0.00125995932497231	-0.00289269419853386	-0.00126821639016315	-0.00289262386090602	0.00483436747475892	-0.0122808689843036
6	0.00835490970995855	0.00568347991337781	-0.00165910973019507	-0.0026866295049058	-0.00165553684527589	-0.00268679094238702	0.00314374508271325	-0.0118308258222401
6.1	0.00928722148032984	0.003965124042391	-0.00201757387108712	-0.00243270853096443	-0.00201922469403425	-0.00242869110475313	0.00271824702646132	-0.0110701112427691
6.2	0.00955454609013597	0.00140364944925883	-0.00233318209660012	-0.002117729350331	-0.00233689676734377	-0.00212964938140543	0.00262261515991982	-0.0110322168174515
6.3	0.00902774099788639	-0.00148461119201212	-0.00261264596988751	-0.00178109084951361	-0.00262181136095187	-0.00177533341701563	0.0024244898290132	-0.0116172265557348
6.4	0.00735933833339145	-0.00419286329498526	-0.00283968038478563	-0.00138863888269343	-0.00282991819897319	-0.00139355716109813	0.00171050412788285	-0.0123892161534512
6.5	0.00541424796527917	-0.0058265767431819	-0.00299848315560772	-0.000982328853500878	-0.00300637824048039	-0.000977829765541732	0.000936304899854888	-0.0125243983317865
6.6	0.0034144815521374	-0.00748352423917281	-0.00310743758030388	-0.000553279183923228	-0.00310907986194141	-0.000557271756220013	0.000594332088060641	-0.0130278097962772
6.7	0.000915912995064248	-0.00828413010689289	-0.00315739155502407	-0.000112872887657035	-0.00316627620323429	-0.000106562350662179	-0.000271887439624854	-0.0134219488404003
6.8	-0.00153583923881821	-0.00845205344619913	-0.00313537951648136	0.000330696093801383	-0.00314651253342146	0.000335773691664391	-0.00125852675739827	-0.0136076520902082
6.9	-0.00417932360684669	-0.00805541220229936	-0.0030600378124722	0.000766389533337161	-0.00306303505613605	0.000768793296754087	-0.00248087313105975	-0.0136895414470058
7	-0.00633772378911193	-0.00638722795127828	-0.0029218435429669	0.00119138686724578	-0.00293473334203816	0.00118920494029808	-0.00368465131509487	-0.0129623521716052
7.1	-0.00767476620885588	-0.00521202672453227	-0.00274077024746426	0.001581375627568	-0.00273707373172356	0.00159006692259813	-0.00416737455932478	-0.0125373621191252
7.2	-0.00942587158999875	-0.00370607030272536	-0.00248235489762768	0.0019502701257391	-0.00248890467218006	0.00195237145055349	-0.00486492907472182	-0.0121597986024308
7.3	-0.01099992689186	-0.00169751346647987	-0.00218477487041225	0.00227053024152091	-0.00219601860591592	0.00227563026836325	-0.00536639813948878	-0.0118539822319142
7.4	-0.0124653946421221	0.000624495781999444	-0.00184005851937033	0.00255491870751605	-0.0018469282703857	0.00256859899896564	-0.0061149549595393	-0.0119673938381186
7.5	-0.0134933431434294	0.00411892007638478	-0.00147057109631565	0.00279260479650662	-0.00146353320276427	0.00280000073855406	-0.00723268201804183	-0.0114686152507666
7.6	-0.0125836307378872	0.00729590662903556	-0.00106361939856381	0.00297009827974445	-0.00106501198003948	0.00296539090060961	-0.0073575973482954	-0.0110615123416966
7.7	-0.0115169619176894	0.009824671780193	-0.000633051147811099	0.00309127553638457	-0.000634398905218673	0.00309021468745299	-0.0078406009323687	-0.0114727135779721
7.8	-0.00959597654056929	0.0119130941340306	-0.000204684470428173	0.003139231442851	-0.000212493049505725	0.00314573636203523	-0.00862974067382911	-0.0116662269641229
7.9	-0.00726166415984263	0.013457215953386	0.000238851209304307	0.00314364191287574	0.000246819682344766	0.00314511353957689	-0.00961576345538873	-0.0114602637849593
8	-0.00399922249158919	0.0147860615888912	0.000680284836116063	0.00306923317977805	0.000680383865178016	0.00307414438694627	-0.0104204274057996	-0.0105825229630006
8.1	-0.000616350060999982	0.0143113033493353	0.00109308339223504	0.00295043934822675	0.00111228763159538	0.00295145236445578	-0.0106650991755519	-0.0103560455139196
8.2	0.00198871383649003	0.0135761878036537	0.00149917130387408	0.00276585950109703	0.00150840786295588	0.00275860563368634	-0.0112602134475724	-0.00991433780928741
8.3	0.00443683812246304	0.0124944502063021	0.00187519723167162	0.0025229389866554	0.00187361526278507	0.00253652283689142	-0.0117255077610235	-0.00948692625791298
8.4	0.0063960090552107	0.0110839293847792	0.00220906232804071	0.00224256047089039	0.00220602646185198	0.0022423496611009	-0.0124824093212571	-0.00925458356677517
8.5	0.00839124578148883	0.00996561159383606	0.00249484876034486	0.00191073972549019	0.00249396503306346	0.00191393336853435	-0.0134352546679628	-0.00822877647704981
8.6	0.0105361888382019	0.00746913886375231	0.00273962750079656	0.00154603420704887	0.00274910443032966	0.0015394331235306	-0.0136549352097488	-0.00760928865145291
8.7	0.0114467530432673	0.00461668202248064	0.00292198720184986	0.00114107884999228	0.00292755528285559	0.00114177224176412	-0.0142233883641702	-0.0071152660113989
8.8	0.0116792548915311	0.001817239517436	0.00305545586028249	0.000729211413264048	0.0030611802216696	0.000720416960236366	-0.0149001562744612	-0.00662544059594945
8.9	0.0112259757098285	-0.000937584318753042	0.00313068818315801	0.000294763620469802	0.00312980492578756	0.000292520178772249	-0.0156508916489121	-0.0059733681460496
9	0.0105261502745695	-0.00295589195048951	0.00313722383179513	-0.000151003533162616	0.00314040595405992	-0.00014692094065867	-0.0162315842689318	-0.0044702332336386
9.1	0.0100592413678385	-0.00563172411157217	0.00308578792134589	-0.000591112881445106	0.00308874567078172	-0.000578243405084737	-0.0158124089753206	-0.00328791405240108
9.2	0.00864108249372122	-0.00824897645570263	0.00297358180700989	-0.00100686115417402	0.00298121490608501	-0.00100977776292421	-0.0154133545208176	-0.00239599298215281
9.3	0.00677545334786112	-0.0106557456787695	0.00280256091653494	-0.00141072233276568	0.002801802867627	-0.00141570248457688	-0.0147785420597591	-0.00172662969774262
9.4	0.00408855375261337	-0.0128442255264855	0.00257687938693593	-0.00179986428625914	0.00258342653636363	-0.00179231751084976	-0.0144337471077448	-0.00152323597045799
9.5	0.0010830250562435	-0.0137614771096527	0.00229767314491063	-0.00212965597244031	0.00230505683881601	-0.00213104392687403	-0.0142062570690072	-0.000756625663586283
9.6	-0.00227943771211626	-0.0149652031336729	0.00198111015498726	-0.00242910068314803	0.00198144420604047	-0.00242812330753168	-0.0139924285683269	-0.000668019688793966
9.7	-0.00651807840917311	-0.0148827733595519	0.00161359234857458	-0.00267685198457519	0.00161907164711784	-0.0026841641796635	-0.0142513105768142	-0.000289311059932071
9.8	-0.0107124739558952	-0.0136307397472907	0.00122815463891031	-0.00288229178837471	0.00123387642255604	-0.00287385364338005	-0.0145144698821364	0.000267397322198832
9.9	-0.0147788413360427	-0.0111229322921502	0.000823305943061783	-0.00301685407141744	0.000816013070115649	-0.00301559642286683	-0.0150852505671397	0.000998672335838659
10	-0.0177264096813392	-0.00704135762949813	0.000397497459732551	-0.00310238046190349	0.000389995075607134	-0.00311473480832949	-0.0154030425544297	0.00263592637942247
10.1	-0.0192062367115131	-0.00341613280355479	-4.28205562633207E-05	-0.00313298001369612	-5.29848180043867E-05	-0.00312757237527511	-0.0146828312972189	0.00368123978595403
10.2	-0.0204313662538996	0.000451582198973251	-0.000486430160072675	-0.00309348013256199	-0.000489809747026	-0.00309070239254334	-0.0140122046475686	0.00438121100032872
10.3	-0.0209544617923973	0.00456039680368559	-0.000914892133611456	-0.00298589401039053	-0.000906874465195512	-0.00299494407076957	-0.013334376324488	0.00472131319618099
10.4	-0.020975692735296	0.00894619432767456	-0.0013071766453985	-0.00283135812421405	-0.00130550524045385	-0.00283752341166496	-0.0130083955994578	0.00475948581884111
10.5	-0.0195677707998626	0.0142295274291497	-0.00169681845781525	-0.00263523553745537	-0.00169370220133441	-0.00262230346072027	-0.0127181841292908	0.00560229827271869
10.6	-0.0165071071024856	0.0182928739212345	-0.00204748038893584	-0.00236393657497629	-0.00204531476826942	-0.00236774515468992	-0.01177084493266	0.00592772442924456
10.7	-0.0128739059040096	0.0216893611005602	-0.00235857492179938	-0.00206250078502675	-0.00235508831392918	-0.00205725709276112	-0.0108954079785584	0.00606438597778776
10.8	-0.00873417438059497	0.0240653186193841	-0.00262403673734245	-0.00170483346880123	-0.00261888288176503	-0.00171371649030379	-0.0102567825751941	0.0057660059774902
10.9	-0.00472712917068409	0.0258746922925132	-0.00283051523874155	-0.00133385243348934	-0.00283567317004717	-0.00133311851851399	-0.0103325822355457	0.00545588681452274
11	0.000278485622140694	0.027737864280417	-0.00298787951257758	-0.000917694612822826	-0.00299270784833791	-0.000924386565486566	-0.0103072941999325	0.00618969319683566
11.1	0.00586741129789624	0.0274950464761306	-0.00309211825270367	-0.000496907802596895	-0.00308132774457385	-0.000494079089845548	-0.00958695954953601	0.00628364410770779
11.2	0.0108311380783866	0.0263873777820854	-0.003120833538746	-6.41521145726971E-05	-0.00312794103139314	-6.895341080459E-05	-0.00904519642211724	0.00633409237926959
11.3	0.0156165163281888	0.0243892331847532	-0.00309460673685016	0.000380458393699001	-0.00310607370899876	0.000370487535671518	-0.00826240366005438	0.00621067269252203
11.4	0.0197050927226999	0.0216325824776981	-0.00302128188761916	0.000805527038617389	-0.00301639956013006	0.000813042534335537	-0.00786745992172078	0.00582355792550925
11.5	0.023793629065971	0.0187151514804465	-0.00287700496391039	0.00121551976148298	-0.00287976745283393	0.00122571660589687	-0.00752783666312127	0.0059300990787664
11.6	0.0274803143873225	0.0138328193517237	-0.00268719115791205	0.0016007155009961	-0.00268717707233892	0.00160363449043855	-0.00682075976262491	0.00516715470372495
11.7	0.0294985410048504	0.00859951444629783	-0.00242980633948958	0.00195322631504279	-0.00243038287205656	0.00196177052925099	-0.00667211156056831	0.00432116570479691
11.8	0.0305124656058979	0.00340548612509305	-0.00213779858389685	0.00228328141205477	-0.00214188888574977	0.00228495921204698	-0.0067948476330321	0.00365177226930377
11.9	0.0306591405474288	-0.00142586083781824	-0.00179197754351267	0.00255638704311905	-0.001804913940174	0.00256062800447488	-0.00728170674844843	0.00365724973521235
12	0.0310982907437367	-0.00566461116097145	-0.00142655785539903	0.00277762079672182	-0.00142597201909748	0.0027790250086335	-0.0070426206360786	0.00460485539270673
