# GHZ S RI R 50
0.2	0.005789346857759	0.000991260673086659	0.00305002545104735	-0.000897695162998174	0.00306039765003161	-0.000890880653242216	-0.0141936660220322	0.00461986961087379
0.3	0.00620032176301433	-0.00078640472605712	0.00290615779904726	-0.00132133080956203	0.00289890395239037	-0.00130838662835184	-0.0133030415591049	0.00499171847498815
0.4	0.00597211121993233	-0.00228075496192849	0.00267496042075088	-0.00169350276855044	0.00268023422394334	-0.00170206785363611	-0.0127586743807835	0.00569253686084948
0.5	0.00561184521410554	-0.0035915516138016	0.00241622173075826	-0.00205136249041188	0.00242777148860283	-0.00206361198990739	-0.011860326819662	0.00637971230759831
0.6	0.00450041143827249	-0.00504480356205262	0.00210288468593746	-0.00236613056683752	0.00210209770183546	-0.00237328568421947	-0.0114613150678314	0.00649615618647017
0.7	0.00296991467846959	-0.00568525670823379	0.00175564690219572	-0.00264408442346817	0.00175368934762509	-0.00264428353309907	-0.0113825243930984	0.00710137676985671
0.8	0.00151364849122781	-0.00593851501723819	0.0013699904693344	-0.00286199225432164	0.00135737937437215	-0.00286654580912709	-0.011205648944649	0.00791279767419232
0.9	-0.000113930073707374	-0.00575296837971975	0.000952201366884442	-0.00302617155274626	0.000953235960998029	-0.00303688167572904	-0.0110644795600303	0.00887418163379801
1	-0.00133684191045995	-0.00484582407947714	0.000526082732141202	-0.00312907779325091	0.000516212884029556	-0.00312981476356734	-0.0104036598331228	0.0103633449670763
1.1	-0.00224717807404363	-0.00457865284332877	7.08892714486447E-05	-0.00315750618971056	6.73774713644112E-05	-0.00317516892021539	-0.00936202370181222	0.0109864018367144
1.2	-0.00367199683517942	-0.00405854902048341	-0.000371710807529853	-0.00314733598555388	-0.000372522959080404	-0.00314525760746655	-0.00851468306364413	0.0118028764354801
1.3	-0.00492236194847781	-0.00350281631214171	-0.000799644722124494	-0.00306401674541089	-0.00080288836630289	-0.00306602280775683	-0.00682667635266601	0.0124937864234037
1.4	-0.00601264753276626	-0.00297812581647603	-0.0012215708962222	-0.00291498610550737	-0.00122035942263746	-0.00292052428647777	-0.0050396089701783	0.0122561174199317
1.5	-0.00624296925692884	-0.00206483302947052	-0.001621580346612	-0.00271873291059672	-0.00161996885546142	-0.00272723878210669	-0.00338096584450063	0.0115358675320367
1.6	-0.00659067670622221	-0.00101956104383392	-0.00198312859461831	-0.00246728837363749	-0.00198334051465463	-0.00247252823792517	-0.00327718681521537	0.0108689721703857
1.7	-0.00626628162614655	0.000649375841081033	-0.0023126706145364	-0.00216959807633329	-0.0023136346919643	-0.00216332895901249	-0.00301793164308797	0.0112293620899847
1.8	-0.00544098502489133	0.00220709795633441	-0.00258397013471823	-0.00181706298541001	-0.00259495107136219	-0.00182269928581334	-0.00247608983573225	0.0115857887887278
1.9	-0.00431493394610691	0.00354676875794504	-0.00280896671955331	-0.0014457967473	-0.0028214149922885	-0.00143963103167384	-0.00188529647658435	0.0120791642664273
2	-0.00242345969834958	0.00451552110372658	-0.00298569298644949	-0.00103854162203818	-0.00299532606178427	-0.00103382316119671	-0.000603824999068522	0.0125542320079063
2.1	-0.000992319224200576	0.00427469906890436	-0.0030999023024565	-0.000607588551599195	-0.00309581507069352	-0.00060958739407333	0.000240086025992583	0.0119952105074316
2.2	0.000134428210117165	0.00428951452329474	-0.00315612127842332	-0.000167921985623093	-0.00316744195216868	-0.000170747453738755	0.000860568156704985	0.0118934593811493
2.3	0.00130303696214607	0.00396922726066538	-0.00315054015854125	0.000276113322018648	-0.00315024614679613	0.000269222603453652	0.00151080540396772	0.0116830071236981
2.4	0.00221241871142296	0.00354281874122219	-0.00307777806963574	0.000714984074011389	-0.00308032777229078	0.000710724915827777	0.00199562053119022	0.0116731704447952
2.5	0.00347815366862992	0.00323093509733668	-0.00293979942769109	0.00112975881570356	-0.00295069138256218	0.00113616923664985	0.00314827467479291	0.0120371945553242
2.6	0.0047070350340333	0.00179631458491942	-0.00276233531553282	0.0015326314371699	-0.00275880336278463	0.00152029240181132	0.00453346963866388	0.0112490215114593
2.7	0.00537968709175314	0.000337215083009456	-0.00251512546559748	0.00190291881299045	-0.00252040814954487	0.00190294077557703	0.00529127650504549	0.0104417132230159
2.8	0.00582861523624118	-0.00130718750113389	-0.00223113933344838	0.00222998474597434	-0.00222330089560604	0.00223976280993053	0.00577361156992045	0.0097533230483017
2.9	0.00598303947656348	-0.00292072171461151	-0.00189505730398169	0.00253009199572387	-0.00189134744050685	0.00252965580425953	0.00629272763149752	0.00951381351229687
3	0.0063143927720079	-0.0046595134656133	-0.00150553620151416	0.00276308535888638	-0.00152029557991493	0.00276922531688331	0.00762640075709244	0.00931751790837955
3.1	0.00577485867066288	-0.00708688777963874	-0.0011163011814196	0.00293726224862565	-0.00111162867121456	0.00294559001124589	0.00840200817535161	0.00818818154813322
3.2	0.00452244978675011	-0.00897542371150101	-0.000695780119293885	0.00307360890973828	-0.000697525172738806	0.00307300227210822	0.00872538120711192	0.00760475553412109
3.3	0.00289956553352318	-0.0107207176102905	-0.000256775146811337	0.00314193064199358	-0.00025513587810529	0.00313818862365767	0.00920239551642421	0.00699849606124448
3.4	0.000710390409637666	-0.0119323992369163	0.000190271931167308	0.00313318630266771	0.000184113638132977	0.00314975035295999	0.00961472782245325	0.00637157225427831
3.5	-0.00119208629102904	-0.0126756857768379	0.000608899333974806	0.00308782466499762	0.000614486823779071	0.00308789038195647	0.0104507250107662	0.00560663651419927
3.6	-0.0038679255862508	-0.0137234768145148	0.00103648664181952	0.00296999794005655	0.00104467108827919	0.00296966838201657	0.0105698840566073	0.00403052589485378
3.7	-0.0069692511232177	-0.0135529194828691	0.00144709788441827	0.00278786000919941	0.00143754439829226	0.00280154083095452	0.0102410794924278	0.00319194661798069
3.8	-0.0098638951398341	-0.0125774424823934	0.00182398625912167	0.00255938171371179	0.00182640414582338	0.00256851695116646	0.0099908394578697	0.00266827418047509
3.9	-0.0123241421896926	-0.010814329426178	0.00216744208131623	0.00228596038385222	0.00216018424170329	0.00228419388309707	0.00986163059967537	0.00254759712810027
4	-0.0135634193237272	-0.00869850840227191	0.00245205355335679	0.00196720959295542	0.00245649705737763	0.0019647725981743	0.0108864792860006	0.00253315385904394
4.1	-0.0149597106682097	-0.00746745308891447	0.00270504520243685	0.00160501536819276	0.0027037946473502	0.00160575297681742	0.0115736434261509	0.00109320153621085
4.2	-0.0165813871712235	-0.00544197801206199	0.00290214281342591	0.00120278301174712	0.00290658813890618	0.00119406776876742	0.0115823429250014	4.89843209072133E-05
4.3	-0.0178007415504181	-0.00302957769037021	0.00304344518222406	0.000791170165822329	0.00304984737998051	0.000783366016745742	0.0114998699014129	-0.000893905929310647
4.4	-0.0187211887818828	-0.000116250963580278	0.00311946193986798	0.000358137724451095	0.00312183090542298	0.000355880008320784	0.011200642427755	-0.0014795945002241
4.5	-0.018360822591042	0.0032113545195687	0.00314246043225867	-8.22765407333186E-05	0.00314780999966445	-8.56599816133099E-05	0.0118386979314674	-0.00177070143944095
4.6	-0.0178454501031272	0.00538468155928069	0.00309366253608697	-0.000524748552337801	0.0030949210078564	-0.000511860754236811	0.0120596548548895	-0.00348921735256909
4.7	-0.0172080309850133	0.00802669345307433	0.00298693563442321	-0.000940919534432687	0.00300217026134626	-0.000950547572844252	0.0115246994057824	-0.00472880644394716
4.8	-0.0160222107301173	0.0105687049950111	0.00282546995453041	-0.00135316741109968	0.00283391930592305	-0.0013592591803038	0.0108901698649629	-0.00572225943442896
4.9	-0.0142687023085152	0.0130151649046605	0.00260414767396141	-0.00173667883038172	0.00260831123006963	-0.0017337886244815	0.0101520500049765	-0.00626411149788837
5	-0.0113366087524907	0.0150066748429696	0.00234086782127041	-0.00208895830602194	0.00234448437972988	-0.00208631145549878	0.0104869585592755	-0.00656310768216079
5.1	-0.00871419134353504	0.0155892937674487	0.00203249753123518	-0.00239443154343119	0.00203479153652628	-0.00239308150704839	0.010154894110299	-0.0080250811989078
5.2	-0.00619809821459732	0.0164190213820597	0.00167715188670272	-0.0026431954534197	0.0016788546272053	-0.00264832255081599	0.00940217457177126	-0.00854976686146273
5.3	-0.00324204477268513	0.0168210814376958	0.00129151707896674	-0.00285740016847159	0.00129464078343974	-0.00285534738407604	0.00903934739679647	-0.00872098995417801
5.4	-0.00021336531912858	0.016711730584323	0.000867543358221004	-0.00300242995324845	0.000884630902770349	-0.00301361002111854	0.00899472983846934	-0.00894174226327681
5.5	0.00347078405325033	0.0157848081599537	0.000459275069536257	-0.00309703166734213	0.000469286323224683	-0.00310641336100124	0.0098880951823613	-0.00973115507141643
5.6	0.00549101711708849	0.0131520567791134	2.42510998138203E-05	-0.00313654890336639	1.5757164218214E-05	-0.00313976384532944	0.00894304727287248	-0.0119999700824167
5.7	0.00659150071601369	0.0113918162132484	-0.000406035058464494	-0.00310688113969249	-0.000422591802791607	-0.00311054031239299	0.00709791398726935	-0.0126604413654984
5.8	0.00752401294061548	0.00963338650202865	-0.000850131747454863	-0.00301214026679445	-0.000853645448104445	-0.0030260848563501	0.00547767765643379	-0.0128765117707514
5.9	0.00789787857378352	0.0081674692077889	-0.00125176007699342	-0.00287312343227845	-0.00125996161142819	-0.00287305278766121	0.00367875686312453	-0.0123885405331264
6	0.00912246342028454	0.00730246655246433	-0.0016489908382217	-0.00267244008092927	-0.00164543757099376	-0.002672599323458	0.00337701511983699	-0.0107728637183937
6.1	0.0100689298717457	0.00440052883331378	-0.00200678672972787	-0.00241758145780123	-0.00200842615327834	-0.00241358687848116	0.00369283008047489	-0.0111531872007227
6.2	0.00974231569462944	0.00173445950400928	-0.00231805897016684	-0.00210435063136535	-0.00232174886431812	-0.00211619458766858	0.00340334563228552	-0.0115014502063495
6.3	0.0088629678045227	-0.000927658295157261	-0.00259448549388915	-0.00177170734840082	-0.00260359657798127	-0.00176599403944229	0.00299811057274228	-0.0122187171671777
6.4	0.00717467532636596	-0.00305868594333182	-0.00282138598702995	-0.0013841862307418	-0.00281167431588419	-0.00138906342835509	0.00222929429157308	-0.0126098332402366
6.5	0.00610634762824686	-0.00495173546381337	-0.00298102998301264	-0.000977741759406358	-0.00298888152615221	-0.000973271045945142	0.0025959938695032	-0.013238876504572
6.6	0.00332121398365928	-0.00703154526777284	-0.00308545475554866	-0.000552767279507308	-0.00308708149259124	-0.000556734104496906	0.00128148402566903	-0.0148274523904133
6.7	0.00065305339067546	-0.00737868712532496	-0.00313596950611212	-0.000118483271787045	-0.00314480724247318	-0.000112233014353328	-0.000254056166113133	-0.014960584525444
6.8	-0.00180165413960001	-0.00733502231646443	-0.00311644945274256	0.000320926845535823	-0.00312752482337091	0.000325945178744272	-0.00161691308392099	-0.0148517528907163
6.9	-0.00440952129535899	-0.00640452756385165	-0.00304322066233492	0.000754802443527569	-0.00304620518304384	0.000757184833636964	-0.00299971158261276	-0.0140705717029446
7	-0.00528955936346821	-0.00485741338537222	-0.00290348287278658	0.00117511708172618	-0.00291627250237097	0.00117291793554841	-0.00247471025783201	-0.0132069115951851
7.1	-0.00732997744609874	-0.00478055028925064	-0.00272875483781775	0.00155868949077042	-0.00272512120359229	0.00156733699921987	-0.00346325831505995	-0.0145090831869249
7.2	-0.0096615349734116	-0.00292296364908947	-0.00247627859848949	0.00192673685071462	-0.00248279811395412	0.00192879471170468	-0.00522032275546377	-0.0141904290991671
7.3	-0.0113948544840707	-0.000550191048216187	-0.00218290052421237	0.00224668758039978	-0.00219410288721006	0.00225170352419907	-0.0065663592721592	-0.0135434545617068
7.4	-0.012985168986272	0.00242687353909774	-0.00184190918258459	0.00252950426098956	-0.0018488073555719	0.00254306396431534	-0.00819655976912504	-0.0124450777695978
7.5	-0.012672887687693	0.00656924709804863	-0.00148192718966335	0.00276577210133075	-0.00147498328319828	0.00277317509224791	-0.00793184915660806	-0.0101829090906544
7.6	-0.0115781674192304	0.00853351788407365	-0.0010806568925977	0.00295028132943947	-0.00108200987124962	0.00294558318820249	-0.00731630864588382	-0.0106812775341129
7.7	-0.0107777287778524	0.0109744918141317	-0.000652310938452192	0.00307530720974919	-0.000653646243965432	0.00307424089374205	-0.00780504644338971	-0.0109791081784277
7.8	-0.00900063653045323	0.0130476833763037	-0.000226844147599835	0.00312660941715527	-0.00023467246371109	0.00313303434828895	-0.00833103634946625	-0.0110249870393262
7.9	-0.0066651442052463	0.0148749344887924	0.000212300120844855	0.00313584420272486	0.000220231775412132	0.00313737668310011	-0.00865548460150553	-0.0104870458142287
8	-0.00249686481568898	0.0154869805531698	0.00065378747059549	0.00307192137690278	0.000653845078843499	0.00307682855972409	-0.00765855391320979	-0.0107036135578029
8.1	-0.000305050378793434	0.0143347615165453	0.00107079907834407	0.00295589240180682	0.00108997993813	0.00295704367592079	-0.00893691121388361	-0.0123408493634739
8.2	0.00171943761546717	0.0140138504435185	0.00147731572561262	0.002774700843856	0.00148659854609442	0.00276752185015898	-0.010532469234699	-0.0120910880344164
8.3	0.00385891438763942	0.0133011036235367	0.00185492961292723	0.00253687978404444	0.0018532418696854	0.00255044736721295	-0.0117529342450437	-0.0115185213720935
8.4	0.00565897887024795	0.0126484195681871	0.00219346146648386	0.0022621093003992	0.00219042439072506	0.00226187434177312	-0.0130137348110269	-0.0103882604945172
8.5	0.0088949455862372	0.0117099676942796	0.00248658702432669	0.00192907381182396	0.00248568210882488	0.00193226661225204	-0.0123860271581563	-0.00896430961360802
8.6	0.0104648041712646	0.00830224712534446	0.00273085082903941	0.00156485731134926	0.00274037605143643	0.00155831523526755	-0.0129979504877578	-0.00999085338083232
8.7	0.0108898527951497	0.00590735702871347	0.00291699904561838	0.0011631304796354	0.00292256817600921	0.00116386429906674	-0.0146426914007921	-0.0095894861414828
8.8	0.0110962523431217	0.00356605603683231	0.00305601425192358	0.000752208632575311	0.00306181159406415	0.000743438239866335	-0.0161916184964283	-0.00869860428612783
8.9	0.0107583235232956	0.00144852634694604	0.00313642934621547	0.000315208848119266	0.00313555808332153	0.000312954394812859	-0.0176267858872	-0.00682138489154201
9	0.0113464405194835	-0.000330607993261265	0.00314200545198102	-0.000131698122454866	0.0031451661091057	-0.0001275907588633	-0.0168003577386582	-0.00411113178961679
9.1	0.0108222647462553	-0.00387985294098048	0.00309705506106246	-0.000569074766522252	0.0030999219837583	-0.000556154574911135	-0.0160924338324093	-0.00363563205010895
9.2	0.00935109903422109	-0.00649877317144711	0.0029907914575735	-0.000988644337076576	0.00299847114189341	-0.000991515289817286	-0.0155930309036127	-0.00252008274454649
9.3	0.00755184539545871	-0.00906144593977265	0.00282264944110748	-0.00139739007632139	0.00282192174379112	-0.00140239425363457	-0.0145771537793343	-0.00181450455299559
9.4	0.00484425804798524	-0.0111155557111883	0.00259725806843995	-0.0017897317241064	0.00260377997000426	-0.00178211715778114	-0.0138313868149939	-0.00135286599554855
9.5	0.00261559050798106	-0.0126756652266226	0.00232363615054153	-0.0021199401348951	0.00233106013207821	-0.0021212752087166	-0.0120417656113594	-0.00142765594364
9.6	-0.00189313970006424	-0.0146307027441773	0.00201026837029514	-0.00242929703783945	0.00201059739406485	-0.00242831147278949	-0.0128215420896336	-0.00306299605833927
9.7	-0.00666483326890977	-0.0140492758081848	0.00164052235585188	-0.00268353203354224	0.00164608194547889	-0.0026908557506673	-0.0141177106130982	-0.0027153030941958
9.8	-0.0109572497063442	-0.0124265863748841	0.00125321629140304	-0.00289344754140555	0.00125892444239406	-0.0028849211764496	-0.0150992606035557	-0.00185742074544293
9.9	-0.014986451529131	-0.00943095793290846	0.000848152961496114	-0.00303230929818445	0.000840802057975086	-0.00303108943524577	-0.0161410233739707	-0.000148486540490673
10	-0.016788617742419	-0.00551055935841191	0.000419197348836645	-0.00312845803512404	0.000411698232854216	-0.0031409691230028	-0.0149175117844081	0.00197121557677299
10.1	-0.0189895785340937	-0.00293476559020164	-3.12491979233149E-05	-0.00316157283757978	-4.1526335786444E-05	-0.00315615493001644	-0.0145612470901193	0.00161618556543746
10.2	-0.020939163711849	0.00119900404570387	-0.000480278563260196	-0.00312258525428334	-0.000483697549104906	-0.00311979429550121	-0.0148589184515389	0.00239348442325976
10.3	-0.0218500011856805	0.0057974224954773	-0.000914070466060917	-0.00301640571019963	-0.000905950336855996	-0.00302551464923191	-0.0148946192729722	0.00338533807690753
10.4	-0.0219267353972343	0.0110821856178047	-0.00131379914581614	-0.00286400225044429	-0.00131209520423923	-0.00287022750880073	-0.0147509159322848	0.00492720718897828
10.5	-0.0192697217918438	0.0165781177329189	-0.0017151406941198	-0.00266260726368182	-0.00171198927398928	-0.00264953988818221	-0.0124112402228757	0.00654277175672976
10.6	-0.0164136006781441	0.0200410619395318	-0.00206690522953849	-0.00238422520419275	-0.00206472188758638	-0.00238806891746544	-0.0109270239224541	0.00582963599933073
10.7	-0.0127943092968407	0.0235152553407386	-0.00238080491109218	-0.00207997968305398	-0.00237728440750649	-0.00207469037024948	-0.00978347388570888	0.00549935257216171
10.8	-0.00879598766784034	0.0258188707840134	-0.0026502163272376	-0.00171790026391485	-0.00264502397355976	-0.00172687125759831	-0.0092296202217784	0.00458568633957483
10.9	-0.00489781815373441	0.0280876722100588	-0.00285989299867425	-0.00133928821596236	-0.00286509677162669	-0.00133853498665805	-0.00965824293984928	0.00455802557367389
11	0.00115092471654925	0.0297873152352231	-0.00301200278930364	-0.000916010250802642	-0.00301688459450112	-0.000922737087902825	-0.00816600416131746	0.0049865976977311
11.1	0.00595782819875228	0.0288759230220112	-0.00311699206707132	-0.000495504871935628	-0.00310611289364676	-0.000492672548610503	-0.00826328851063975	0.00329154717573209
11.2	0.0106096542900924	0.0282867886283712	-0.0031470117703138	-5.72248917193409E-05	-0.00315419001307677	-6.20492315788608E-05	-0.00890869252632617	0.00318833936177201
11.3	0.0155636451071188	0.0267088047970142	-0.00311868170159742	0.000393836035422788	-0.00313027562451618	0.000383821570375709	-0.00913629549802576	0.00348037872602505
11.4	0.0199022235752367	0.0244524727809309	-0.00303985287746756	0.000822981561221669	-0.00303490647254015	0.000830532130583139	-0.0093458826076794	0.00422447393594508
11.5	0.0252980514243756	0.0212647538550154	-0.00289487683847438	0.00123112089476795	-0.00289763504821477	0.00124139786979825	-0.0075209857261132	0.00467435471547633
11.6	0.0284727185200657	0.0153636660861701	-0.00270481541003035	0.00162408016012423	-0.00270479088678821	0.00162702438916828	-0.00758465604597271	0.00280047645067369
11.7	0.0301171133112562	0.0102555129988275	-0.00244076632135014	0.00198094563227317	-0.00244130725397017	0.00198956358083151	-0.00844175944095532	0.00251819754498761
11.8	0.0310106778524207	0.00525886004348411	-0.00214225978245152	0.00231202442851821	-0.00214637271885146	0.00231373654968257	-0.0090692094760707	0.00301333452235037
11.9	0.0313201434751863	0.00101443206575954	-0.00179293828352517	0.00258412154630981	-0.00180595051497822	0.00258845681524124	-0.00912492867838166	0.00498017503151861
12	0.033333617652758	-0.00379733450511211	-0.00142385683582837	0.00281139540939546	-0.0014232575748036	0.00281280923157574	-0.00577560650394325	0.00630678109598297
