# GHZ S RI R 50
0.2	0.00539327169103442	0.000841914347319987	0.00305244352430888	-0.000896662581822817	0.00306281875327767	-0.000889838266206737	-0.0146110928376132	0.00445624219994352
0.3	0.00579548036907616	-0.000830470389902988	0.00290955506111955	-0.00132053099507008	0.0029022862862309	-0.00130758046599207	-0.0137343080198948	0.00493353119204171
0.4	0.00564415805783715	-0.00204601180124317	0.0026793622869818	-0.00169357832067387	0.00268464855014914	-0.00170214976092514	-0.0131169753468703	0.00591796365245016
0.5	0.00580403467047539	-0.00354653871541267	0.00242050705929689	-0.00205320870530361	0.00243207835465494	-0.00206547046990471	-0.0116875628409366	0.00642285292148246
0.6	0.00428977974694991	-0.00534449864039539	0.00210674592146327	-0.00236823123069192	0.00210596127861369	-0.00237539606549054	-0.0116841592527493	0.00617772343629867
0.7	0.0025878691423183	-0.00580546579136483	0.0017596726737492	-0.00264715644011525	0.00175771227099343	-0.00264735687041218	-0.0117863523081052	0.00695346131535492
0.8	0.00105105194731738	-0.00594490944349678	0.00137356184938544	-0.00286634300853778	0.00136093095550706	-0.00287090974507834	-0.0117009244150502	0.00787849774975737
0.9	-0.000734695749797295	-0.0054561323908228	0.000954469945295377	-0.00303163053664148	0.000955508233644162	-0.00304236036665416	-0.0117281878879091	0.00915319062156678
1	-0.00136864381706292	-0.00401679192145043	0.000527103410537681	-0.00313401170281139	0.000517217944856974	-0.00313475042888336	-0.0104751889735269	0.0111959201641418
1.1	-0.00201554404202655	-0.00429950924766177	7.19161539966965E-05	-0.00316321546480894	6.84030062158196E-05	-0.00318091124408687	-0.00915177687555671	0.0112790896837986
1.2	-0.00355813020857626	-0.00373539209008913	-0.000372142921486438	-0.00315376876353689	-0.000372956936504619	-0.00315168624593981	-0.00840080302547448	0.0121334139801351
1.3	-0.00479161964362294	-0.00313910322319761	-0.000801641798258698	-0.00307031435380759	-0.000804892417343534	-0.00307232424535833	-0.00667667815232631	0.0128570841477521
1.4	-0.00594950472743602	-0.00248964961854157	-0.0012246708949739	-0.00292041216309926	-0.00122345837889603	-0.00292596150451878	-0.00494790837705953	0.0127300791609712
1.5	-0.00588498149986896	-0.00181745096168678	-0.00162474045842692	-0.00272442863343681	-0.00162312510582339	-0.00273295189467742	-0.00299145035876874	0.0117418114114421
1.6	-0.0067053097959966	-0.00100539317152838	-0.00198873387400067	-0.00247296072325577	-0.00198894767455361	-0.00247821366430109	-0.00337141755174876	0.010822894406231
1.7	-0.00644928228676099	0.00080818601497979	-0.00231965118212423	-0.00217361975212015	-0.002320614000219	-0.00216733456998313	-0.00320445650183572	0.0113192986223722
1.8	-0.00562792679676001	0.00242169952507601	-0.00259149016342225	-0.00181955681638372	-0.0026025015483188	-0.00182519870641489	-0.00268372111135732	0.011739077054092
1.9	-0.00441002653095799	0.00395180632944889	-0.00281675524248694	-0.0014474012348399	-0.00282922952316198	-0.00144121214735535	-0.00200531195174193	0.012442428426292
2	-0.00195653644957666	0.00467490703848073	-0.00299540092757252	-0.00103895563538631	-0.00300505818165935	-0.00103421475798195	-0.000133063441396842	0.0126885840327439
2.1	-0.000927867896624602	0.00392041409103278	-0.00310939604928433	-0.000604561143303171	-0.00310530055181852	-0.000606571719125151	0.000327162503517342	0.0115872990982401
2.2	-9.25730974930393E-05	0.00403684513614296	-0.00316452599012194	-0.000163159671546861	-0.00317588046980508	-0.000165973783267096	0.000643529626862453	0.0115675989468539
2.3	0.000912330047088986	0.00385726353868712	-0.0031581421160625	0.000282346130410437	-0.00315785943182765	0.000275437210783563	0.00110991384235607	0.01149530480571
2.4	0.00171547848682036	0.00376283951640354	-0.00308478741756516	0.000723038563938279	-0.00308735253777839	0.000718772796823714	0.00146680533516329	0.0118367164525404
2.5	0.00354102121810626	0.00371078777475387	-0.00294432929342555	0.00114073342290434	-0.00295523194303783	0.00114719027247994	0.00319888221022846	0.0125033108415335
2.6	0.0048088144455023	0.00178036585307078	-0.00276373922229946	0.00154323115752398	-0.00276023369002396	0.00153085763926358	0.00466736545259956	0.0112205052542747
2.7	0.00526423264011325	0.000260803358160641	-0.00251492888678235	0.00191357169019139	-0.00252022201409763	0.00191360812470727	0.00523220890065296	0.0103350374463508
2.8	0.00553192026841277	-0.00128446943246977	-0.00222890974059369	0.00224095122426067	-0.00222102702893591	0.00225072524045945	0.0055452330655402	0.00972538438257864
2.9	0.00568975946203453	-0.00260347092926559	-0.00188983888110808	0.00254101800759356	-0.00188612390615036	0.00254056845227686	0.00607192563257375	0.00977521887128091
3	0.00646937471348316	-0.00442018139366887	-0.00149740983444845	0.0027710964815364	-0.00151216256831298	0.00277729402900301	0.00788232065047372	0.0094842382126871
3.1	0.00567000908584	-0.00713243085977377	-0.00110826109196127	0.00294389832884379	-0.00110355743843011	0.00295222028029804	0.00840602439554818	0.00800988135727114
3.2	0.00432937696237245	-0.00891556353101171	-0.000686096764473269	0.00307917738371317	-0.000687845696149113	0.00307857602273909	0.00862855499982011	0.00751057022589582
3.3	0.00266625048386042	-0.0105882596237725	-0.000245598178956385	0.00314528792668797	-0.000243971191642865	0.00314153708209389	0.00904786973598961	0.00695334423154141
3.4	0.00050341870588908	-0.011582507765862	0.000201844509399422	0.00313330460618312	0.000195745525955415	0.00314989562961401	0.00946343950102087	0.00653313836119392
3.5	-0.000916259226960771	-0.0124194408334909	0.000618565887925585	0.00308635966478635	0.000624154350126013	0.003086408050465	0.0107847695961018	0.00567789736883833
3.6	-0.00387585396203108	-0.013833330929976	0.0010471553824849	0.00296773388047069	0.00105534228000033	0.00296737602909104	0.010624874970552	0.00370253415445846
3.7	-0.00715141396492462	-0.0134983436076569	0.00145753004488094	0.00278280300672308	0.00144802606739365	0.00279652045994826	0.0100841062950122	0.00299773955961713
3.8	-0.010037884072699	-0.0123435632728464	0.00183295490311203	0.00255203664922089	0.00183540581274011	0.00256116073138413	0.00979562406285188	0.00265652061131128
3.9	-0.0123184944244987	-0.0103493836922757	0.00217435081429454	0.00227755565444652	0.00216709002055605	0.00227581478251778	0.00981610367569912	0.00280804880199441
4	-0.0129661199953995	-0.00848576471350471	0.00245912155066946	0.00195836384509326	0.00246355624554505	0.00195591086314876	0.011478326393975	0.00257959582182718
4.1	-0.0146928654837631	-0.0077959399505061	0.00271016537234901	0.00159287433953134	0.00270891859097471	0.00159361671807252	0.0118603022068433	0.000549026857381204
4.2	-0.0166203129922003	-0.00573441036947338	0.00290397265368993	0.00118984228632051	0.00290837825183237	0.00118111819130468	0.0115397012968889	-0.000489042403824888
4.3	-0.0180091908380915	-0.00319759239116436	0.00304270858161913	0.000778372970057744	0.00304907249476692	0.000770553742016671	0.0112558458947042	-0.00131165675676938
4.4	-0.018973769361878	1.49765931976225E-05	0.00311706455182101	0.000345540172821269	0.0031194218341287	0.000343275966358671	0.0108939885500498	-0.00158205841940437
4.5	-0.0180833035082106	0.00334695610808926	0.00313691973809876	-9.64183466791504E-05	0.00314224513773124	-9.9820529045972E-05	0.0120700777189847	-0.00185834730720469
4.6	-0.0177919140938274	0.00507564028382993	0.00308375873216123	-0.000536220697446776	0.00308506731469152	-0.000523370324269766	0.0120723494249204	-0.00403343587163059
4.7	-0.0173789952712843	0.00778242255948097	0.00297541208000287	-0.000949762363862431	0.00299056958753918	-0.000959422653120477	0.0112990566496033	-0.00522607456332366
4.8	-0.0163099703197099	0.0104390868744354	0.00281252522752666	-0.00135986669765231	0.00282092827388772	-0.00136597276780021	0.01052183407201	-0.00611371072337977
4.9	-0.0145656792123742	0.0131626377246893	0.00258928752451109	-0.00174133335470729	0.00259344925926753	-0.00173846829767983	0.00973425975743442	-0.0063647576854064
5	-0.0111825268159588	0.015055187994819	0.00232391144757627	-0.00208863635554836	0.00232752249744793	-0.00208601309620857	0.0105142548078534	-0.00671143240625328
5.1	-0.00894068769458001	0.0154035394554063	0.00201780710776294	-0.00239046629184519	0.00202009567243429	-0.00238912794720301	0.00981822124386724	-0.00842262735559634
5.2	-0.00652034836851639	0.016479770898902	0.00166339510625086	-0.0026370879494403	0.00166507736711363	-0.00264219906728358	0.00893158952425811	-0.00869330937452641
5.3	-0.00350122524980028	0.017023254497036	0.00127868548065675	-0.00284846360043452	0.00128180105325873	-0.00284642758807497	0.00860904025830091	-0.00867574016748988
5.4	-0.000321698093888022	0.0171242015552883	0.000856731920059783	-0.00298993259631008	0.000873712665130337	-0.00300109679912675	0.00872874052933935	-0.00861447287559384
5.5	0.00393445063399008	0.0158461042721104	0.000453395353367867	-0.0030828862910328	0.000463347897596522	-0.00309223543475521	0.0102959078112659	-0.00972200618756402
5.6	0.00540101161478763	0.0128272258754983	2.00239540531944E-05	-0.00312302643022124	1.15624991007588E-05	-0.00312621631538983	0.00883211169836035	-0.0124540056522671
5.7	0.00628240478131519	0.0113256674169134	-0.000408076501585367	-0.00309211928977787	-0.000424561895677208	-0.0030957408727775	0.0067376777842906	-0.0128857538559028
5.8	0.00719783452224758	0.00976703503597984	-0.000848750890150524	-0.00299676669219159	-0.000852260242944043	-0.00301064049421685	0.00506633576856369	-0.0128907895410603
5.9	0.0076614338196388	0.00867417508183461	-0.00124646258429167	-0.00285879199735365	-0.00125462417798515	-0.00285871942615584	0.00333389084164553	-0.0119772763057405
6	0.0098138123384557	0.00781694323501228	-0.00164269704155255	-0.00266082068242584	-0.00163915874065796	-0.00266098009917153	0.00400586276805677	-0.0102698498845181
6.1	0.010644473032151	0.00404530276765858	-0.00199851078822194	-0.00240520141486554	-0.00200014052579849	-0.00240122486322704	0.00430942732392674	-0.0115132747993839
6.2	0.0099132219607262	0.00123975694206402	-0.00230645121904511	-0.00209385685270921	-0.00231012254729599	-0.00210564164957088	0.00367809070027288	-0.012049431162714
6.3	0.00871904783064968	-0.00129545635542846	-0.00258077113301753	-0.0017642414741684	-0.00258984001412377	-0.00175856096649769	0.00298358872098767	-0.0126992994897067
6.4	0.00703978210112358	-0.00300221819999974	-0.00280742864310706	-0.00137994128627843	-0.00279775784628828	-0.00138478891539147	0.0022165521649335	-0.0127042928968246
6.5	0.0064619003071166	-0.00521356981876498	-0.00296634648165932	-0.000973951673368346	-0.00297416154021011	-0.000969504965321172	0.00310429126995907	-0.0136825933766581
6.6	0.00311496094317868	-0.00744356257925056	-0.00306837001493782	-0.000553150289161782	-0.00306998376966159	-0.000557097676959476	0.00120554424384695	-0.0155131684752775
6.7	0.000329603967271756	-0.00757785150689986	-0.00311978433043674	-0.000122992284507461	-0.00312858718945926	-0.000116788310594761	-0.000517742230185862	-0.0154644852830093
6.8	-0.00223795526316158	-0.00738689798359545	-0.00310189764926759	0.000313584222678998	-0.00311292850053732	0.000318557613445289	-0.00204848557834293	-0.0151999565794652
6.9	-0.00476967614760291	-0.00602283591968227	-0.00302975456915835	0.000745677372064075	-0.00303272882425711	0.000748042817267092	-0.00339372592889296	-0.0139352182262133
7	-0.00485778215006155	-0.00478526154127172	-0.00289003342744688	0.00116164183768643	-0.00290274628214772	0.00115942459375906	-0.00201957495835909	-0.0133283654269705
7.1	-0.0075357700743628	-0.00522715236362662	-0.00272021933382048	0.0015418312412653	-0.00271663256914196	0.00155044737672861	-0.00360631799492763	-0.0152307354055434
7.2	-0.0101766055578881	-0.00308166766681509	-0.00247147281060991	0.0019091991776649	-0.00247796920909482	0.0019112248586209	-0.00573268203345772	-0.01467796575312
7.3	-0.0120301113739963	-0.000434288324990398	-0.00218116067050284	0.0022284783772829	-0.0021923303137091	0.0022334305516766	-0.00728682081666283	-0.0137556328402915
7.4	-0.0136070227703091	0.00312147918269821	-0.00184359491669419	0.00250995361641156	-0.0018505162121267	0.00252342075608974	-0.00901877362254653	-0.0119670753060363
7.5	-0.0122750836198407	0.00745732694899471	-0.00149031901146792	0.00274665399234922	-0.00148344238121106	0.00275406292707524	-0.00770518974266844	-0.00936544085761234
7.6	-0.0113007224901759	0.00878050694002861	-0.00109201387455161	0.00293526543571524	-0.00109333879525272	0.00293057572079612	-0.00708050465880214	-0.0104988186954195
7.7	-0.0105925480593207	0.0112220112927007	-0.000665867490543047	0.00306235370187981	-0.000667193198753035	0.00306128395530874	-0.00764681642545262	-0.0107434842412528
7.8	-0.00886100970536681	0.0133334345388295	-0.000243062767455296	0.00311607374905417	-0.000250902489549636	0.00312243725005462	-0.00813470187139264	-0.010735086722533
7.9	-0.00634657779656677	0.0152964223709287	0.000192905838298294	0.00312923911989694	0.000200808339419677	0.00313081545364015	-0.00815974096639199	-0.0101044379848713
8	-0.0017882038056288	0.0152081934463744	0.000635050939393304	0.00307161881554367	0.000635079935720283	0.00307651977703307	-0.00664221562760915	-0.0110586688803551
8.1	-0.000390873295109207	0.0137899189679392	0.0010530997689745	0.00295726895001956	0.00107224548008062	0.0029585228786194	-0.0087030640607891	-0.0131626004093876
8.2	0.00136087618475649	0.0137483745776309	0.00145923989524223	0.00277948914437498	0.00146855168849797	0.0027723736607598	-0.0106174157288672	-0.0127429285799395
8.3	0.00335860400345585	0.0132604032899278	0.00183791528421112	0.00254598473871841	0.00183614649187102	0.00255953043517936	-0.0120432293688459	-0.0120096262021322
8.4	0.00521826767652856	0.0130762528924057	0.00217974968718161	0.00227521125448701	0.00217671415961814	0.0022749580269683	-0.0133150019455246	-0.0104236907415099
8.5	0.00923708151965387	0.0119072339346413	0.00247645702620644	0.00194199877125382	0.00247553547430508	0.00194518676741205	-0.011883409573097	-0.00919063343150195
8.6	0.010249763405968	0.00803248886211464	0.00272118998035187	0.00158028772549093	0.00273075086440179	0.00157380217930174	-0.013015574004752	-0.0108029429190614
8.7	0.0104153906738989	0.00596283112445356	0.00291105767971247	0.00118110625948619	0.00291662441422181	0.001181873858899	-0.01501875306452	-0.0101828628921544
8.8	0.0106081951896462	0.00393468704518434	0.00305437157079706	0.000770935617768962	0.00306022598769327	0.000762191416599911	-0.0167295131960696	-0.0090021360293889
8.9	0.0104688639676483	0.00230051437931256	0.0031383450506714	0.000332670798488303	0.00313748506749567	0.000330408983757491	-0.0181129932060816	-0.00655721398202642
9	0.0119882778528748	0.000420894657311928	0.00314482107744672	-0.000113510074893211	0.00314795990796634	-0.000109381649316963	-0.0163512935865938	-0.00380587489015976
9.1	0.0113299224162126	-0.00370188023509008	0.0031057331290599	-0.000550424986744316	0.00310852305761971	-0.000537465475739723	-0.0157654376625718	-0.00388323858637846
9.2	0.00980512393364774	-0.00647205764660696	0.00300343650295986	-0.000972948953595807	0.00301115064791421	-0.000975780351051916	-0.0153240184748917	-0.00286373061419527
9.3	0.0078460505675703	-0.00921977471808011	0.00283763148433235	-0.00138478534144261	0.00283693048572993	-0.0013898061119762	-0.0144351987753916	-0.00229249064340925
9.4	0.00501422095854413	-0.0110887806907114	0.00261376754044455	-0.00177909025393487	0.00262026129759026	-0.00177141995799292	-0.0137686876802983	-0.00160757240338438
9.5	0.00310965645237563	-0.0131641079833225	0.00234502687479526	-0.00211169695583552	0.00235248374455504	-0.00211298797723852	-0.0115670301538688	-0.00220680735160247
9.6	-0.00220611182656303	-0.0152664886223966	0.0020326853617824	-0.00242800260950995	0.00203301011722192	-0.00242701100021895	-0.0131259091530897	-0.00408850543678814
9.7	-0.00720759982014581	-0.0142993457403691	0.00166197537570099	-0.00268658374549604	0.00166759826086335	-0.00269391003987528	-0.0147056454287682	-0.00340686123287828
9.8	-0.0115442078109161	-0.012375433508626	0.00127404162638123	-0.0029002501026724	0.00127973169830597	-0.00289165477770563	-0.0158001204568891	-0.00224274451445779
9.9	-0.0154113592577558	-0.0089559399732081	0.000868822582528101	-0.00304346744187527	0.000861427046398364	-0.00304228071355798	-0.0167254211175237	-3.81337185562822E-05
10	-0.0164607036938961	-0.00532448689511335	0.000436094853535555	-0.003146651969228	0.00042860436882473	-0.0031592774778971	-0.0146714004490169	0.00189396304875283
10.1	-0.0191602165483729	-0.00319284845447249	-1.98897815257265E-05	-0.0031811743388276	-3.02500621304713E-05	-0.00317576058725407	-0.01473446641311	0.00103677206611379
10.2	-0.0213957783346867	0.00116488627383632	-0.000472439826709962	-0.00314388736799851	-0.000475890012670688	-0.00314109075102389	-0.0153311371256135	0.00199694375293799
10.3	-0.0224136317897115	0.00609614251683862	-0.000910594292785385	-0.00303958302848579	-0.000902390574859404	-0.00304872727087874	-0.0155022215050593	0.00332113372044703
10.4	-0.0222318416307564	0.0119207009161769	-0.00131640769536339	-0.00288845807628658	-0.0013146756840908	-0.00289472516811001	-0.0151112168313386	0.00545369116166319
10.5	-0.0186757791703545	0.0170937322172608	-0.00172437072339107	-0.00268316515525823	-0.00172121105075067	-0.0026700024955965	-0.0117746806291351	0.00679972442179692
10.6	-0.0161064796161348	0.0200143093920399	-0.00207748252383532	-0.00240228761449128	-0.00207528026753658	-0.0024061537360578	-0.0104759936260015	0.00546364987537793
10.7	-0.0127224626461651	0.0233396914836962	-0.00239489492166402	-0.00209657780428804	-0.00239135584447867	-0.00209124887147571	-0.00950237379583887	0.00493337621871504
10.8	-0.00897847150100536	0.0257960867227843	-0.00266811004191107	-0.00173123236814355	-0.00266287694951137	-0.00174026421889594	-0.00935269284299366	0.0040198965309443
10.9	-0.00506371488044591	0.0284332712452838	-0.00288010931734797	-0.00134728595345269	-0.00288534853082856	-0.00134652535526074	-0.00975595482661854	0.00435511019957543
11	0.0015891944899802	0.0297651022096561	-0.00303028292997074	-0.000920646085948091	-0.00303519583461754	-0.00092741180458766	-0.00761401728609323	0.00442036763452131
11.1	0.00578282925552435	0.0285902455333387	-0.00313789894279624	-0.000498285577051374	-0.00312694661101505	-0.000495436180361489	-0.00834917942818962	0.00228990111097853
11.2	0.0102585621495069	0.0282945933069846	-0.00316868356531567	-5.4921799341908E-05	-0.0031759152620376	-5.97731366398463E-05	-0.00932809540066354	0.00239664224528945
11.3	0.0152224727297703	0.0270424862958526	-0.0031389298082827	0.000401023086410378	-0.00315061577880663	0.000390958696329061	-0.00979068473785944	0.00300404376550354
11.4	0.019780572455109	0.0252092765115774	-0.00305715498527599	0.000833072155349842	-0.00305216569634346	0.000840660891655476	-0.00992308294945214	0.00430400960221664
11.5	0.0258962156407732	0.0216314276743409	-0.00291281116130331	0.00124269981333529	-0.00291557593399163	0.00125304869739461	-0.00732642329449108	0.00445161116397959
11.6	0.0286167240036553	0.0153783859211633	-0.00272032800745845	0.00164184559218535	-0.00272029654836232	0.00164481071040267	-0.0079182142665537	0.00227905075152443
11.7	0.0301756883572279	0.0104887874469722	-0.00245138656378778	0.00200145490911115	-0.00245190583007192	0.0020101324859628	-0.00893950489163512	0.00232681292262638
11.8	0.0311854626088473	0.00567079749901284	-0.00214858303014081	0.0023337253002264	-0.00215271685376762	0.00233546159638519	-0.00948801096911498	0.00318151724221457
11.9	0.0319556300578824	0.00165372053579444	-0.00179644754876315	0.00260668652839098	-0.00180953100135094	0.00261109139836447	-0.00905805428289054	0.00557761849055556
12	0.0347185826888216	-0.00411831989205143	-0.00142202227929498	0.00283787845516403	-0.00142141258087223	0.00283929991820831	-0.00470989006389651	0.00616724457909898
