# GHZ S RI R 50
0.2	0.0058269506658334	0.00144701591773977	0.0030474383445154	-0.00089838647760412	0.00305780607077224	-0.000891581415461131	-0.0140998714790324	0.00511943770419962
0.3	0.00619149237224979	-0.000488838561791946	0.00290284030986397	-0.00132172627937849	0.00289559998037671	-0.00130878974154018	-0.0132566679272366	0.00533228059466642
0.4	0.00596967688447835	-0.0021534587059642	0.00267089801391954	-0.00169317675543088	0.00267616067547674	-0.00170173524385397	-0.012720125403547	0.00585451052248678
0.5	0.0052990403975372	-0.00343591024650141	0.00241206334782553	-0.00204949167064551	0.00242359225277628	-0.00206172884975301	-0.012200508092325	0.00658001229573228
0.6	0.00448652617752181	-0.0045663980584651	0.00209934461384191	-0.00236378624319098	0.0020985561891888	-0.00237093181362283	-0.0115333427355066	0.00712334459588145
0.7	0.00322045701790187	-0.00538380050297259	0.00175208935412412	-0.00264102105302064	0.00175013450772819	-0.00264121909626613	-0.0111436372366815	0.00762773137015801
0.8	0.00186763654751136	-0.00581726945509854	0.00136681874577896	-0.00285787438075366	0.00135422630208725	-0.00286241633594651	-0.0107932104695457	0.00829466448303268
0.9	0.000346995988926343	-0.00588038738446831	0.00095008769521421	-0.00302105497945098	0.000951118868722652	-0.00303174664029326	-0.0104539863360554	0.00898104001902408
1	-0.00126206872530683	-0.00537432603176015	0.000525250653194177	-0.00312422177738483	0.000515396126683271	-0.0031249575553719	-0.0101691729229424	0.00993082724328613
1.1	-0.00241556696810949	-0.004532794137251	7.00649150445068E-05	-0.0031522299671487	6.65550541880177E-05	-0.00316986230975346	-0.00949862799971293	0.0110841130377192
1.2	-0.00347879711127653	-0.00376339522467903	-0.000371340832598722	-0.0031413021037718	-0.000372151214210996	-0.00313922759669326	-0.00838374890551386	0.0121825848887707
1.3	-0.0043883583524078	-0.00314587961214656	-0.000797821093246228	-0.00305796792400151	-0.000801058120382969	-0.00305997022975395	-0.00643742977791517	0.0130104160557294
1.4	-0.00526943642086452	-0.00282755639979219	-0.00121859283366794	-0.0029096044175523	-0.00121738253567806	-0.00291513162887101	-0.00445130969365181	0.0126780755573466
1.5	-0.00581429104677682	-0.00201087427384938	-0.00161843693339959	-0.00271332350820694	-0.00161682881844302	-0.00272181260636567	-0.00311648008454559	0.01197716773955
1.6	-0.00597372872448411	-0.000997334624045172	-0.00197787033432353	-0.00246164501060984	-0.00197808080736541	-0.00246687217860608	-0.00271996040794	0.0114301445780952
1.7	-0.00579489330445618	0.000339787340631701	-0.00230582916379648	-0.00216537512449822	-0.00230679401098115	-0.00215912207023569	-0.00244986493711681	0.0114673876924481
1.8	-0.00519240449299508	0.00176777417758757	-0.00257635076794459	-0.00181436983087047	-0.00258730076413444	-0.00181999982410243	-0.00203973465134441	0.0116246858714846
1.9	-0.00427610289339785	0.00298509373636218	-0.00280092297534959	-0.00144422739242779	-0.00281334469820548	-0.0014380860436212	-0.00164221992764603	0.0118735376922864
2	-0.0028820005483907	0.00414152803497635	-0.00297599785105271	-0.00103819604398494	-0.00298560694318545	-0.00103350013232296	-0.00101593083546414	0.0124487432013052
2.1	-0.00117129510382215	0.0043647275706211	-0.00309011841738229	-0.000610683841407245	-0.00308603972533055	-0.000612670620275873	3.39944919587993E-06	0.012507901507783
2.2	0.000203911514356409	0.00428088951908692	-0.00314751964770469	-0.000173064962065719	-0.00315880553442333	-0.000175903027912325	0.000942914703297636	0.0124220055744153
2.3	0.00145432310599678	0.00383128037771984	-0.00314299157719646	0.000269386502909572	-0.00314268515459311	0.000262514009689337	0.00179784370135307	0.0121042356355102
2.4	0.00238667489317463	0.00320247792217854	-0.00307112232836265	0.000706547303350493	-0.00307365621181142	0.000702294041357145	0.00243622283304023	0.0117823431362429
2.5	0.00322145834202833	0.00276996279158079	-0.00293546449959425	0.00111864026671647	-0.00294634662624234	0.00112500381779584	0.00308585753175042	0.0117788326342004
2.6	0.0044533175969728	0.00183810654914693	-0.00276135120667284	0.00152166869625412	-0.00275779058453902	0.00150936398054154	0.00423618640665742	0.0114791577010385
2.7	0.00538400549837954	0.000469796222393205	-0.00251593858078548	0.00189220073580875	-0.00252121158196153	0.00189220751948647	0.00512878881894474	0.0108625541695366
2.8	0.00602929407060969	-0.00122771492497997	-0.00223393575429903	0.00221923876520174	-0.0022261409653799	0.00222902321104084	0.00576218785384469	0.0102345887300642
2.9	0.00626822275746212	-0.00304949526923003	-0.00190058995177112	0.00251958790391067	-0.00189688458254225	0.00251916500210411	0.00636241650176907	0.00983776743494857
3	0.00635258073850385	-0.00478979208100283	-0.00151392034931446	0.00275525312581504	-0.00152868796222633	0.00276133538130614	0.00731965865567333	0.00969591799785384
3.1	0.00609747065161275	-0.00708501792824818	-0.00112460239942678	0.00293118638976114	-0.00111996023532497	0.00293952166436525	0.00834109335239371	0.00896456459865954
3.2	0.00496261417897421	-0.00921539772777292	-0.000705372252727802	0.00306859938884218	-0.00070711375954108	0.00306798749112445	0.00889542312987282	0.00829868754741903
3.3	0.00332445832931222	-0.0111685696870343	-0.000267678181355892	0.00313894364212947	-0.00026602681083895	0.00313520988081729	0.00949978306540026	0.00756484001342238
3.4	0.00102935246084582	-0.012638153003958	0.000178947617939311	0.00313316823227334	0.000172731065111084	0.0031497063910516	0.00994230554497196	0.00665650511520277
3.5	-0.00134088048233881	-0.0133666756781746	0.000599304562361263	0.00308957489227096	0.000604891601549822	0.00308965791958255	0.0102709100966693	0.00583732092282822
3.6	-0.00387194611325497	-0.0140985625697802	0.00102622018382581	0.00297231617931824	0.00103440261927965	0.00297201395358741	0.0105259086552172	0.0047406032322438
3.7	-0.00688093896888015	-0.0140454005098011	0.0014368414894016	0.00279272908142076	0.00142723981220363	0.00280637363571632	0.0104891061424883	0.00386886158439641
3.8	-0.00982844349926757	-0.0131577396537227	0.00181495122997639	0.00256655495365731	0.00181733608917764	0.00257570079258984	0.0103997250024332	0.00316675293354996
3.9	-0.0124139532451701	-0.0114886423334351	0.00216032438394845	0.00229443087702519	0.00215306983022275	0.00229263834769339	0.0102489627353488	0.00268718513068798
4	-0.0140438194294782	-0.00914450369571755	0.00244507272146533	0.00197613943673706	0.00244952521368402	0.00197371835120325	0.0106311484690037	0.00263838884331958
4.1	-0.0150839443672669	-0.00748568070811998	0.00269972124161464	0.00161719786594401	0.00269846694132673	0.00161793061298286	0.0114264302495086	0.00178648614402197
4.2	-0.0163896067658937	-0.00557958858638228	0.00290019945804279	0.00121603614343529	0.00290468545293781	0.00120733018146364	0.0117587000469033	0.000776147287708963
4.3	-0.0174653399439532	-0.00337416414561074	0.00304429124899859	0.000804333173967411	0.00305073294474675	0.000796544277248601	0.0118971146124285	-0.000331515455990677
4.4	-0.0183794216471787	-0.000779505986126165	0.0031221915164839	0.000370943889818007	0.00312457255400369	0.000368692537388315	0.0116475663593319	-0.00133070412892286
4.5	-0.0184793171685744	0.00246892327104186	0.00314805807978845	-6.81750133543253E-05	0.00315343187192222	-7.15398411537412E-05	0.0116139182055806	-0.00182790187914288
4.6	-0.0178174457380256	0.00495979263522887	0.00310373241132534	-0.000512963781260956	0.00310493943704221	-0.000500037965748449	0.0117577774681969	-0.0030131863871426
4.7	-0.0170505811871074	0.00747885344050333	0.00299885144622485	-0.000931923179105706	0.00301416560074634	-0.000941518689430367	0.0113664646914485	-0.00413970610192321
4.8	-0.0158717160568738	0.00989620430161001	0.00283882854948847	-0.00134652613160839	0.00284732552609967	-0.00135260403338977	0.0108370367565007	-0.0050993662757927
4.9	-0.0142070481054953	0.0121571617353417	0.00261924786823306	-0.00173225220744673	0.00262341373162773	-0.00172933662655391	0.0101712962039313	-0.00580553932297442
5	-0.011696510367977	0.0142871485755916	0.00235805988745625	-0.00208927739396386	0.00236168202083214	-0.00208660662215177	0.0100459897699163	-0.0060238467104591
5.1	-0.00878339613290681	0.0151402997555309	0.00204751888945375	-0.00239880204279908	0.00204981872172686	-0.00239744009707073	0.0100491673431993	-0.00698551181278178
5.2	-0.00620122162547113	0.0158113586308475	0.00169088567768055	-0.00264976628296522	0.0016926086655932	-0.00265491012606324	0.00964690120137012	-0.00763937726726504
5.3	-0.00330692126357904	0.0161571242296063	0.00130412238179076	-0.00286664571649317	0.00130725462411885	-0.0028645763689319	0.00941275492362457	-0.00805682141425598
5.4	-0.000376516676835067	0.0159449839606594	0.000878126229339187	-0.00301498439447423	0.000895319684202145	-0.00302618158379017	0.0092620467317021	-0.00868328112348707
5.5	0.00290552512610688	0.0153235613322513	0.000465076623443409	-0.00311143614709981	0.000475147024069839	-0.0031208514930246	0.00934506795324159	-0.00931338653726638
5.6	0.00545373718219546	0.0129925860972375	2.80073421049478E-05	-0.0031500941925059	1.94803914589403E-05	-0.00315333293505658	0.00877290629285767	-0.0108710727305398
5.7	0.00671844356050164	0.0109302291437214	-0.00040426897563722	-0.00312139231268714	-0.000420896301362357	-0.00312508721183283	0.00734797740716675	-0.0116255968112003
5.8	0.0075748876898848	0.00902264245548516	-0.000851574348167465	-0.00302721746166694	-0.000855092717609437	-0.00304123148557103	0.00596899565494848	-0.0120437752449248
5.9	0.00783267785319312	0.00742761910498245	-0.0012569892840238	-0.00288733046475949	-0.00126523038855654	-0.00288726178414479	0.00431689595921763	-0.012052675478673
6	0.00846195131284795	0.00677678783129199	-0.00165556835755922	-0.00268387502972865	-0.00165200014946368	-0.00268403448085378	0.00316303073947345	-0.0108391722413192
6.1	0.00986677854415165	0.00469330462241821	-0.00201502709856576	-0.00242952263103473	-0.00201667569763628	-0.00242551035048786	0.00333491684047689	-0.0104387816425386
6.2	0.0102176992351347	0.00194328680502924	-0.00232954775794161	-0.00211452045372863	-0.00233325646168609	-0.00212642222432107	0.00339257321187349	-0.0106393263435487
6.3	0.00969122583394772	-0.00114300298356512	-0.00260806489832351	-0.00177882832277516	-0.00261721691786282	-0.00177308216396061	0.00322221660627724	-0.0114857294455145
6.4	0.00788539103764629	-0.00381919247511446	-0.00283519165744939	-0.00138800516554303	-0.00282544060207039	-0.00139291240528854	0.00236383148480514	-0.0122633970094171
6.5	0.00629822494910363	-0.00554235356533465	-0.00299511759606818	-0.000980996829618315	-0.00300300332967847	-0.00097650234809587	0.00199334976409057	-0.012531520989081
6.6	0.00389603786244664	-0.00760824059516239	-0.0031019202094921	-0.000552381485916468	-0.00310355947746825	-0.000556367031591222	0.00121641628233848	-0.0135615375517799
6.7	0.00115494107190041	-0.00827155418098282	-0.00315171704431048	-0.000114006643327094	-0.00316058852723556	-0.000107711108816569	1.74759443275157E-05	-0.0138535933697028
6.8	-0.00142133501726661	-0.00839547876040163	-0.00313056605900983	0.000328277368923836	-0.00314168433745506	0.000333340137697947	-0.00116199021792627	-0.0139811741645057
6.9	-0.00425538347336796	-0.00775895116936726	-0.00305609094625135	0.000763934643292874	-0.00305908506949708	0.000766333683258142	-0.00261095119174934	-0.0137607879685356
7	-0.00583533284925721	-0.00589832397644267	-0.00291633649997136	0.00118815770129579	-0.00292919985757603	0.00118597642280317	-0.00315706652215927	-0.0127962691691401
7.1	-0.00735282658009179	-0.0054084887321802	-0.00273694607526729	0.00157532814837411	-0.00273326609781595	0.00158400593056023	-0.00378607578244994	-0.0131667359289853
7.2	-0.0095366736730549	-0.00388655352604921	-0.00248053077265197	0.00194402514925118	-0.00248707208504512	0.00194611510070102	-0.00500152078861067	-0.0128467278022019
7.3	-0.0114068144672532	-0.00175281009906903	-0.00218401456148053	0.00226442148302315	-0.00219524667724919	0.00226950037272044	-0.00592230255305542	-0.0124216957516199
7.4	-0.0132618179180594	0.000911313629461589	-0.00183973311685083	0.00254825521686499	-0.00184660642814106	0.00256190326778384	-0.00719991088206405	-0.0120776681056743
7.5	-0.013931279366921	0.00519126417696393	-0.00147333555814088	0.00278427354419176	-0.001466326058847	0.00279166934097588	-0.00794327285131475	-0.0105771228908274
7.6	-0.0127637343294011	0.00810995498550058	-0.0010688441329683	0.00296454171803329	-0.00107022504797374	0.00295983651804722	-0.00771341841128709	-0.0103889695428484
7.7	-0.0117648973030743	0.0107895377215831	-0.000638534332588163	0.00308719524818973	-0.000639878771332694	0.00308613272929251	-0.00820484464508865	-0.0106168832111852
7.8	-0.00975112598932295	0.0130764771980552	-0.000210704969309901	0.00313597940430949	-0.000218519325757131	0.00314246298602286	-0.00882929614791274	-0.0105844378884523
7.9	-0.00719965309181355	0.0149272208277113	0.000231341469668483	0.00314136442582206	0.000239299350086855	0.00314285321716349	-0.00942836048420109	-0.0100560790829004
8	-0.00304992953704494	0.0160858316311818	0.000672343580170742	0.00307100682258455	0.000672429897959357	0.00307591830664734	-0.00923506068558331	-0.00943410200013099
8.1	0.000151906468680132	0.0148630144799867	0.00108771235162505	0.00295299464524799	0.00110691791977226	0.00295404399091127	-0.00962368771739505	-0.0101915601212611
8.2	0.00252692520995655	0.0140203864010819	0.00149407616457414	0.00276860190816279	0.00150332601539499	0.00276136506804274	-0.0105337666977581	-0.00995957604591078
8.3	0.00483082871594789	0.0128750821474389	0.0018702228594404	0.00252680867100594	0.00186861359371067	0.0025403899484206	-0.0112229891294513	-0.00963435807487026
8.4	0.00659624003505426	0.0116397551213549	0.0022052471953946	0.00224845065957507	0.0022022103232032	0.00224823314035879	-0.0122372197747882	-0.00920903714076499
8.5	0.00922137974261966	0.0106934147316213	0.00249435013022128	0.00191590515294984	0.00249346115525255	0.00191910034706572	-0.0125162130971763	-0.00797087492436912
8.6	0.0112454804767377	0.00741031207956804	0.00273816241393154	0.00155022722369955	0.00274765088139333	0.00154363766366743	-0.0128199251912907	-0.00826109944976161
8.7	0.0117084403826813	0.00448199221392781	0.00292107750216852	0.00114642505761902	0.00292664635710109	0.00114712811891897	-0.0139398029184272	-0.00794243593652487
8.8	0.0116398539836149	0.00177543978771886	0.00305618238391509	0.00073500491422926	0.00306192578843731	0.00072621467930913	-0.0150758742192387	-0.00737100877357644
8.9	0.0108703780754648	-0.000640767126283902	0.0031332923516796	0.000299387232682744	0.0031324113543135	0.00029714040760738	-0.0162923750974037	-0.00626684415136164
9	0.0106099842210847	-0.0021381362295854	0.00313828030404939	-0.000147698566513615	0.00314145897745276	-0.00014361141292567	-0.016400443525437	-0.00406188224588762
9.1	0.0102317646855022	-0.00511181751440227	0.00308819080762963	-0.000585752654788509	0.00309112641374547	-0.000572872260987712	-0.0158336688184549	-0.00315900550132633
9.2	0.00879483614060409	-0.00759640495132421	0.00297807198620467	-0.00100250088420976	0.00298571720052681	-0.00100540660217319	-0.0154328850112495	-0.00209258981920629
9.3	0.00708113933303382	-0.00998073311495665	0.00280776350966538	-0.00140808375626862	0.00280701207846175	-0.00141307053565596	-0.0145937426435111	-0.0013586768506617
9.4	0.0044339908606566	-0.0121259448309696	0.00258120933274237	-0.00179827569377003	0.00258775290157432	-0.00179071470245177	-0.0141191394130628	-0.00108559681891559
9.5	0.00199488119496891	-0.0132358435169526	0.00230341831393242	-0.00212644398848513	0.00231080956623205	-0.00212781808596987	-0.0131863364181103	-0.000558442838743199
9.6	-0.00180825952154038	-0.0151487407011573	0.00198884519054686	-0.00242911110943771	0.00198917789585915	-0.00242813156852651	-0.0133961699274281	-0.00134703198339783
9.7	-0.00652512343598565	-0.0149882617740225	0.00162030981526164	-0.00267895051717843	0.00162580926839943	-0.00268626684311654	-0.0142212792884345	-0.00098133794084536
9.8	-0.0110140278578081	-0.0135614049270434	0.00123398058716568	-0.00288523429053515	0.00123970015718338	-0.00287677502167384	-0.0148876321877023	-0.000260067618012932
9.9	-0.0153591125698565	-0.0106272705245804	0.000829450650283424	-0.00302008210487789	0.000822144700454	-0.00301883439591011	-0.0158263847581715	0.000989562024584065
10	-0.0177063157985427	-0.00608162147838011	0.00040406759900444	-0.0031094669676426	0.000396568535523149	-0.00312186584785098	-0.0154702666119818	0.00321356545627449
10.1	-0.0191799902603123	-0.0029116997943361	-4.02546626427072E-05	-0.00314107292821118	-5.04496802061065E-05	-0.00313566006569379	-0.014668233068032	0.00373870027632354
10.2	-0.0206032946629568	0.0010555375094414	-0.000485276705012078	-0.00310102336131246	-0.000488666190415383	-0.00309824166452164	-0.0142365482582052	0.00449791887245927
10.3	-0.0212264790625122	0.00532076765410829	-0.000914584960055329	-0.00299376725007754	-0.00090654066031701	-0.00300283218926201	-0.0137167280449205	0.00501936574530796
10.4	-0.0213704156337938	0.0101384633509739	-0.00130853197213754	-0.00284080461305699	-0.00130685027070801	-0.00284698651723003	-0.0135320338287525	0.00559478356430264
10.5	-0.019205315969854	0.015864704985818	-0.00170332508899959	-0.00264356684837957	-0.0017001944040336	-0.00263059229023434	-0.0123361581438689	0.00696233750064514
10.6	-0.0158348775340112	0.0195380242465364	-0.00205401489921232	-0.00236872215361307	-0.00205184601086079	-0.00237254159931427	-0.0109635011774372	0.00681239588450313
10.7	-0.0119400436046984	0.0227270677657369	-0.00236529523527847	-0.00206645916611937	-0.00236179768144231	-0.00206120425327649	-0.00978428711590115	0.006646279366188
10.8	-0.00776457829644282	0.0246615459871632	-0.00263179967059187	-0.00170774477383288	-0.00262663755692935	-0.00171665372200229	-0.00912129000804068	0.00581047091651546
10.9	-0.00406066368862055	0.0263732145773392	-0.00283975290107094	-0.0013342673394989	-0.0028449240628947	-0.00133352555064644	-0.00953128411287525	0.00538213674561476
11	0.00141318229271182	0.0282256545886812	-0.00299436183478841	-0.000914593442306422	-0.00299920875804545	-0.000921289193062664	-0.00896312648065848	0.00609431359461082
11.1	0.00664370927849738	0.0272648311279293	-0.0030977608035487	-0.000495312036009231	-0.00308694974107107	-0.000492487033194344	-0.00859783204292049	0.00526214401872751
11.2	0.0111427835190428	0.0261729119976521	-0.00312721139968844	-6.14318296203773E-05	-0.00313433766895485	-6.62363567284158E-05	-0.00868670587119608	0.00520329782261268
11.3	0.0156765601171036	0.0242867299807797	-0.00310038868359957	0.000385175463079213	-0.00311189159435428	0.000375199036124969	-0.00837935026829194	0.00520511293628156
11.4	0.0194830195931593	0.0218446229233911	-0.00302458765667251	0.000811614570767219	-0.00301968580200673	0.00081913365854568	-0.0084131181639634	0.00526147372195057
11.5	0.0241113859901414	0.0191981572118181	-0.00287954376937398	0.00121891839061224	-0.00288230250148702	0.00122912908385825	-0.00747250191719158	0.0057370665826824
11.6	0.0275663219023317	0.0137186229074487	-0.00269131780407583	0.00160628033671892	-0.00269130119891421	0.00160920528048832	-0.00707277857781662	0.0043497497528456
11.7	0.0290902871623589	0.00858675497368584	-0.0024319873927967	0.0019604057242373	-0.00243255348085472	0.00196896770734245	-0.00753223312705862	0.00370255216747009
11.8	0.0297319885144395	0.00375508926139227	-0.00213784135679686	0.00229039366177145	-0.00214193589559659	0.0022920805780897	-0.00808217414722452	0.00357921244123776
11.9	0.0296860023928673	-0.000244141264585513	-0.00179141808976663	0.00256193869082598	-0.00180436704231449	0.00256620049446421	-0.00869836410256462	0.00465745525510365
12	0.0314082042986069	-0.00393180443355308	-0.00142715934145052	0.00278563748152162	-0.00142657070928548	0.00278704443730994	-0.00692488709555677	0.00630777269582748
