# GHZ S RI R 50
0.2	0.00610889822667164	0.00131387179501347	0.00304702690123067	-0.000898604129262205	0.00305739423683356	-0.000891800841531048	-0.0137956802424172	0.0050066401672932
0.3	0.00645635905084037	-0.000685652855501725	0.00290221742366644	-0.00132193780723247	0.00289498000972549	-0.00130900219018657	-0.0129709302679492	0.00515595977597625
0.4	0.00619035564942106	-0.00250316904281988	0.00266995086264914	-0.00169323439621151	0.00267521074011617	-0.00170179172814494	-0.0124860289450601	0.00552217731746058
0.5	0.00520006169287655	-0.00381211509274424	0.00241109036854298	-0.00204888787230599	0.00242261449192283	-0.00206112129204191	-0.012319809309612	0.00622645016576363
0.6	0.00441956438992151	-0.00470311391889021	0.00209876384953686	-0.0023631746178999	0.00209797557161117	-0.00237031827607499	-0.0116364346877629	0.00706139660858586
0.7	0.0032183211495013	-0.00552087160360073	0.00175146927676107	-0.00264032165948895	0.0017495149931099	-0.00264051956470792	-0.0111591394351849	0.00760400003481036
0.8	0.00191257627435653	-0.00594407043031763	0.00136626477017075	-0.00285687817701341	0.00135367674861491	-0.00286141822303775	-0.0107269654938842	0.00829984614186053
0.9	0.00056671239613689	-0.00608770721098398	0.000949957033515932	-0.00301964593368995	0.000950988762835181	-0.00303033282730639	-0.0101681031619484	0.00889280449516639
1	-0.0011386295428974	-0.00608346997440581	0.000525962952758117	-0.00312328330285357	0.000516111136903808	-0.00312402156233218	-0.00997708667579706	0.00927380943818885
1.1	-0.00266059830301331	-0.00522987245034141	7.03367233452903E-05	-0.00315164024702309	6.6829104926531E-05	-0.00316926964346584	-0.00973591634375197	0.0104212988776248
1.2	-0.00387849165287526	-0.00469414036998682	-0.000370938694164036	-0.00314050415047439	-0.000371749061196566	-0.00313843027237836	-0.00882618805742179	0.0113033205670985
1.3	-0.0052471773358719	-0.00424333841242804	-0.000797077532097552	-0.00305727156126859	-0.000800313332390151	-0.00305927387806491	-0.00737793902154317	0.0120066757278438
1.4	-0.00635905716836579	-0.00372741725056366	-0.00121760735509557	-0.00290948405034381	-0.0012163957346198	-0.00291501006918469	-0.00562194600688169	0.0119279983407873
1.5	-0.00705681975638562	-0.00256156552320274	-0.00161843755198576	-0.00271350069400322	-0.00161682911705514	-0.00272199015595696	-0.00443589995994839	0.0116278771604017
1.6	-0.00675943456250018	-0.000985754622696813	-0.00197750959316924	-0.00246091001732263	-0.00197772030964774	-0.0024661358508871	-0.00352822397913689	0.0117198696373727
1.7	-0.00617465652970925	0.000397395879921323	-0.00230495099826391	-0.00216497546251568	-0.00230591617933039	-0.00215872430896977	-0.00277611993260643	0.0118051450588015
1.8	-0.00529645503093579	0.0017999007163383	-0.0025755433644628	-0.0018144192440356	-0.00258649026291073	-0.00182004986440852	-0.00204639300733493	0.0119000016013943
1.9	-0.00414906961547021	0.00279738439127265	-0.00280069709721003	-0.00144424957516777	-0.00281311830900349	-0.00143810908339472	-0.00140852136271157	0.0118698208515704
2	-0.00310897373719059	0.00368231473789074	-0.00297512429048326	-0.0010370985404677	-0.00298472865069555	-0.00103240211420383	-0.00121209622791501	0.0121279817464361
2.1	-0.00140993346452025	0.00434981881531919	-0.00308837820138043	-0.000610818922584449	-0.00308430138962642	-0.000612804032669173	-0.000257424020290732	0.0127062127570161
2.2	0.000219333643701189	0.00430933975394924	-0.00314627491933096	-0.000173693555205712	-0.00315755585329922	-0.000176533024917891	0.000970766975817096	0.0127200498879858
2.3	0.00167919079408336	0.00381697478413602	-0.00314195104096593	0.000268813417739894	-0.00314164367344444	0.000261943336637986	0.00209634122756998	0.0123701868202108
2.4	0.00292744946095719	0.00295744681955683	-0.00306956520896196	0.000706076152225523	-0.00307209763882282	0.000701824992425163	0.00312158583033848	0.0117668478362505
2.5	0.00358512643819483	0.00181656063895319	-0.00293350964620057	0.00111630460771087	-0.00294438557477172	0.00112265762441702	0.0035607717039374	0.0109304216116239
2.6	0.004313557408616	0.000964730034609433	-0.00276136980793761	0.00151921750978414	-0.00275780208998239	0.00150691978200573	0.00408982079389864	0.0107016624222194
2.7	0.00506264052141393	-0.000268166612818764	-0.00251618245877983	0.00189031874867409	-0.00252145389524814	0.00189032276539447	0.00473940704587664	0.0102676254321249
2.8	0.0057060299622935	-0.00176622381757524	-0.00223419316041059	0.00221721106229101	-0.00222640649059996	0.00222699564500756	0.00534879862731657	0.00989463676675152
2.9	0.00611923592648493	-0.00363001799441027	-0.00190147463817265	0.0025167517332592	-0.00189777097833164	0.002516331897865	0.00611839277251498	0.00948393965562291
3	0.00587187921351529	-0.00555842746054484	-0.00151722290412477	0.00275332065072415	-0.00153199743219425	0.00275938473879893	0.00667780186190106	0.00918582344472787
3.1	0.00559142594109615	-0.00740952528752859	-0.00112692529054868	0.00293109851433637	-0.00112228785894509	0.00293943903352529	0.00766318314976153	0.00902469980692424
3.2	0.00462083199102133	-0.0094456570715844	-0.000707412619317912	0.00306835825509285	-0.000709153852035947	0.00306774518447737	0.00844003194673459	0.00853058925122533
3.3	0.00311958822133403	-0.0113325241289923	-0.000270179192400035	0.00313895446555281	-0.000268524752461494	0.00313522174536734	0.00925188505000822	0.00789927968385162
3.4	0.00106628443921479	-0.0128960486233445	0.000175877112558873	0.00313452774650857	0.000169641654672612	0.00315106590939278	0.0100012956204961	0.00688614587431295
3.5	-0.0016026819171851	-0.0139299562154318	0.000598568199232677	0.00309267956729311	0.000604160365575699	0.00309276500418657	0.0100246195449286	0.00572858465918582
3.6	-0.00412968333627684	-0.0141553909893191	0.00102622839829237	0.00297345546778037	0.00103441367799684	0.00297315408559622	0.0102829778433234	0.00520190127937763
3.7	-0.00674309823436087	-0.0141106076371707	0.00143633877089753	0.00279398461716402	0.00142672994611547	0.00280762989989597	0.010733186109201	0.0043572419673955
3.8	-0.00941485794049999	-0.0134772980469637	0.0018148666034458	0.00256833277730423	0.00181724933928101	0.00257748352853961	0.0110216602728607	0.00335356977377897
3.9	-0.011879806949249	-0.0123559321286275	0.00216171878371513	0.00229605976931281	0.00215445935720505	0.00229426578827007	0.0110465819381505	0.00219163186666098
4	-0.0143237439716504	-0.0105961429622231	0.00244613671043349	0.00197487763498955	0.00245058798050326	0.0019724541859383	0.0104862574572222	0.00140580932150114
4.1	-0.0158831286591972	-0.00822434865772239	0.0026986106870337	0.00161726026678349	0.00269735660834513	0.00161799255067591	0.0106205150717545	0.00134819394941121
4.2	-0.0170417738631571	-0.00589674314526367	0.00289977275843781	0.00121695636817161	0.00290426150569922	0.00120825195643224	0.01109877327392	0.000833279909878563
4.3	-0.0178406455270389	-0.00347628725578979	0.0030443717763262	0.00080493174568778	0.0030508153248038	0.000797143420001143	0.0115385097686969	-4.40789376331668E-05
4.4	-0.0183435329173242	-0.000985570540579619	0.00312151617923054	0.000370647286424582	0.00312389652854959	0.00036839627653841	0.0117061472597132	-0.00119810344512078
4.5	-0.0187560047630666	0.00173656031527123	0.00314557295875135	-6.59299985862703E-05	0.0031509447687565	-6.92883807853471E-05	0.0112281615816905	-0.00226344764080459
4.6	-0.0183186424248346	0.00478846816824456	0.00310444724629994	-0.000509715426903954	0.00310564069204475	-0.000496787615525189	0.011050294124188	-0.00276042205642259
4.7	-0.0172741305464635	0.00747007126196003	0.00300031902815482	-0.000929914155894719	0.00301564430265778	-0.000939500647019452	0.0109419593032087	-0.00360779146615069
4.8	-0.0158605921465283	0.00992838286312951	0.00284011688938367	-0.00134491634377169	0.00284861902981343	-0.00135098973625887	0.0106987117219754	-0.00444255710954583
4.9	-0.0138509988970042	0.0120062014458187	0.00262066270453663	-0.00172961522514038	0.00262482543695415	-0.00172669594594041	0.0104507700319917	-0.00530346738587879
5	-0.0117063869927037	0.013724271905782	0.00236316223872806	-0.00208717838106882	0.00236678296214637	-0.00208449985527525	0.00996344360328819	-0.00594502075141368
5.1	-0.00862776393928024	0.0150863254504084	0.0020514817497305	-0.00240025499887873	0.00205378336970234	-0.00239888995477842	0.0101567901739035	-0.00630123397633246
5.2	-0.00558681837520328	0.015456502049171	0.00169364456699134	-0.00265125258148727	0.00169537155268592	-0.00265640006701048	0.0103453722705305	-0.0072335966966467
5.3	-0.00266645726204423	0.0152987338781362	0.00130703392021083	-0.00286821109818873	0.00131016746330374	-0.00286613803109035	0.0102365918524103	-0.00823638352136988
5.4	5.02372326146634E-05	0.0145971566708309	0.00088189551833684	-0.00301806456091663	0.000899120768499346	-0.00302926095502545	0.00988491529455743	-0.00950172399924826
5.5	0.00218269105251408	0.0137439532652503	0.000465633372928607	-0.0031178016065488	0.000475723020667002	-0.00312723728964365	0.00861204822990188	-0.0104530522819898
5.6	0.00466374912998616	0.0126460754515756	2.61130493308027E-05	-0.00315344135770838	1.75751064047011E-05	-0.00315667831639664	0.00788642937557679	-0.0105589455670767
5.7	0.00653197591542294	0.0108359624345331	-0.000405698126219866	-0.00312393885607844	-0.000422341043323222	-0.0031276311762306	0.0071979951500951	-0.0109483831877555
5.8	0.00785055517767323	0.00888830037121718	-0.000853350194103549	-0.00303002444457834	-0.000856876356312874	-0.00304405159102674	0.00644605742997224	-0.0114352857563944
5.9	0.00873611830699903	0.00684972768346604	-0.00126081111468169	-0.00289012499726007	-0.00126906286571484	-0.00289004997595093	0.00555237884599746	-0.0120700456373272
6	0.00880034932736263	0.00481472187885052	-0.00166004015408819	-0.00268195027901618	-0.0016564713870632	-0.00268211521552449	0.00370081760168685	-0.0125303219625583
6.1	0.00917128485855031	0.00328112161423637	-0.00201568590437827	-0.00242817617625384	-0.00201733244499888	-0.00242416396442342	0.0025668001250197	-0.0115909982065387
6.2	0.00939501450880894	0.000949203821601774	-0.00233054991865579	-0.00211440169812405	-0.00233426228412832	-0.00212630507609134	0.00234893631849684	-0.0112702278126987
6.3	0.00896181891980099	-0.00175934238627917	-0.00260979120063785	-0.00177831692685086	-0.0026189439800659	-0.0017725646518222	0.00221457875388735	-0.0116096761731802
6.4	0.00759103113901777	-0.00456832428892581	-0.00283620060788953	-0.00138560029093417	-0.0028264540673437	-0.00139051533775893	0.00180529984749822	-0.012445895577854
6.5	0.00528928818495228	-0.00654376159100451	-0.00299250387301155	-0.000980912336360267	-0.0030003843717618	-0.000976423268815256	0.00061510843606687	-0.0128730289361879
6.6	0.00329832740942955	-0.0078255585631622	-0.00310285782055595	-0.000554303033656602	-0.00310449555903083	-0.000558291071603225	0.00031801377743214	-0.0128594812188306
6.7	0.000875172957430401	-0.00868103909754814	-0.00315353219892241	-0.000114046795136494	-0.00316240873766257	-0.000107747564724291	-0.000367878464697682	-0.0132668250436426
6.8	-0.00157283491198966	-0.0087582183256241	-0.00313134418452502	0.000329116914127992	-0.00314246429320767	0.000334183731230269	-0.00127170753175344	-0.0133775078886503
6.9	-0.00393059809695303	-0.00842432639247429	-0.00305558457476253	0.000763167382739288	-0.00305857852748587	0.000765565316253279	-0.00216592778942253	-0.0135911249708431
7	-0.00654326122446993	-0.00724625405133929	-0.00292023309916084	0.00118610505177027	-0.00293310569838913	0.0011839080398021	-0.00392468781557008	-0.0134013224237155
7.1	-0.00810768505927518	-0.00536115889024494	-0.00274030252943408	0.00157788054592072	-0.00273661620051731	0.0015865691939647	-0.00467048563939303	-0.0121259549472392
7.2	-0.00952134383875319	-0.00362241881194713	-0.00248186707377917	0.00194662467474716	-0.00248841308724425	0.0019487189228481	-0.00492349682909112	-0.0114226565815108
7.3	-0.0108008919718441	-0.00151246463946533	-0.00218515839469907	0.00226635153480286	-0.00219639747132504	0.00227143579333885	-0.00497628708093067	-0.0110031803137421
7.4	-0.0117175271271972	0.000771803853364632	-0.00184251214278218	0.00255096207855226	-0.00184939671491144	0.00256462526105826	-0.00500477581358859	-0.0112669147731034
7.5	-0.0126712643646015	0.00339180803228011	-0.00147314752515429	0.00279181595843936	-0.0014661147144489	0.00279921898104202	-0.00604376831195938	-0.0119083826755948
7.6	-0.0121646387012956	0.00671968865090941	-0.0010646057228781	0.00296837111864452	-0.0010659954789502	0.00296366500266649	-0.00666630490118804	-0.0114200889316316
7.7	-0.0109073615822355	0.00918930072829262	-0.000635033327297593	0.0030892248162117	-0.000636379605284413	0.00308816350386624	-0.00702640397682924	-0.0119277289254437
7.8	-0.00894852310626033	0.0110102793797201	-0.000207395644407446	0.00313804270758451	-0.000215207471042179	0.00314453863147325	-0.00784792119268275	-0.0124350365887755
7.9	-0.00667452389049185	0.0120874965019292	0.000236757385797301	0.00314392814770848	0.000244725194607353	0.00314540516534186	-0.00908995458390149	-0.0127635273673546
8	-0.00450698361086619	0.0131120504906325	0.000679845429442188	0.00306761984596364	0.000679944281103862	0.00307252844642879	-0.0111291334615139	-0.0120725956189971
8.1	-0.00133152934033758	0.0135573946814516	0.00108990709735475	0.00294867008951044	0.00110909371451286	0.00294969664389522	-0.0116376234521712	-0.0106496438510542
8.2	0.0014886149696329	0.0131472848018299	0.00149564458291613	0.00276582146679458	0.0015048832169468	0.00275858060126244	-0.0119066527098325	-0.00977601808908646
8.3	0.00415604637760024	0.01226887924424	0.0018724040916173	0.00252376056010816	0.00187081082444328	0.00253733868486083	-0.0120586519881177	-0.00911869787227942
8.4	0.00654883559856951	0.0107769403880805	0.00220676368550579	0.00224259325056797	0.00220372946371875	0.00224238094575086	-0.0123180628080606	-0.00900725026244071
8.5	0.00808417842571493	0.00906806721338919	0.0024896778388002	0.00191158594934475	0.00248879124324483	0.00191477487010547	-0.013798204900036	-0.00862245798748182
8.6	0.00996817149848506	0.00735562159714642	0.00273620386043871	0.00154998762299524	0.00274568841653491	0.00154340416050681	-0.0143278156192246	-0.00708096574564983
8.7	0.0112762334563117	0.00479015107370315	0.00292019964458406	0.00114496846110525	0.00292576633686071	0.00114566938297309	-0.0143851785271037	-0.00619129347405404
8.8	0.0118951134371523	0.00208706283958756	0.00305407000120154	0.000732871085483727	0.00305980432086495	0.000724085101064714	-0.0145009897153427	-0.00559672921179834
8.9	0.0120473641434038	-0.000841343759297275	0.00312882639150963	0.00029943646603522	0.00312794697538051	0.000297192678470925	-0.0144792254008623	-0.00525754249137314
9	0.0112635475667431	-0.00370700775928116	0.0031386983064897	-0.000143882980958929	0.00314187223705009	-0.000139791641482162	-0.0152036732538449	-0.00482863870656078
9.1	0.01058511021399	-0.00628825959119814	0.00308933695639388	-0.000587017592521956	0.00309227805174695	-0.000574132579560976	-0.0150984513549196	-0.00356772955563083
9.2	0.00916362566447207	-0.00921395292562053	0.00297681617165485	-0.00100362118690073	0.00298445800750383	-0.00100652969282479	-0.0147464877677527	-0.00301188861567008
9.3	0.00695905514271302	-0.0118017613394338	0.00280631961964972	-0.00140738719345474	0.00280556853276579	-0.00141237142204392	-0.0145174209214815	-0.00255243523719489
9.4	0.0041058675424348	-0.013994879361687	0.00258295897698626	-0.00179678647081479	0.00258949842052758	-0.00178921945273268	-0.0144582565810124	-0.00237277442094301
9.5	0.000346013887127131	-0.0149822799758805	0.00230446212035003	-0.00213132307407778	0.00231186172352245	-0.00213270574105753	-0.0151686003794828	-0.00159728277042864
9.6	-0.00299106405360947	-0.0152124292371746	0.00198502482421316	-0.00243094056182934	0.00198535870796205	-0.00242996177097906	-0.0149376552761456	-0.000301383589606316
9.7	-0.00676976715171759	-0.0149148977625174	0.00161771580591121	-0.00267866665482797	0.0016232076310661	-0.0026859829178631	-0.0146138235275218	0.000418036785645654
9.8	-0.0106094498949577	-0.0136154521252214	0.00123250210599516	-0.00288542659863132	0.00123822480648064	-0.00287697103713895	-0.0143755652646627	0.00104562652583435
9.9	-0.0141725494353987	-0.0113615770504505	0.000826227706006094	-0.00302240126999003	0.000818920012046501	-0.00302114432765007	-0.0143098598713401	0.00141685434112024
10	-0.0175655995988453	-0.00804062352710878	0.000396463478500522	-0.00310625276129839	0.000388946201727009	-0.00311861811921426	-0.0151395557001777	0.00214102311238997
10.1	-0.01934644131687	-0.00382404426767111	-4.19896957331429E-05	-0.00313557934343146	-5.21638471602826E-05	-0.00313017004923369	-0.0147975582973622	0.0038443950576638
10.2	-0.0203007645030432	0.000221699717916665	-0.000486017414335078	-0.00309732696092246	-0.00048940192509525	-0.00309454699189049	-0.0137947773827124	0.00475828696832462
10.3	-0.0205008759707385	0.00438131092994354	-0.000916159142665294	-0.00298986826480197	-0.000908130902245289	-0.00299893053369721	-0.0127135588210197	0.0050990186493343
10.4	-0.0199391064038368	0.00839336622263509	-0.0013099373468797	-0.00283318218124051	-0.00130826787798264	-0.00283935396387118	-0.0117823505611749	0.00460571358365623
10.5	-0.0189984640469751	0.0126698804064308	-0.00169590475737197	-0.00263577326370325	-0.00169279291379776	-0.00262284030896281	-0.0121631078845974	0.00432552398627923
10.6	-0.0164949245690398	0.0168837774675094	-0.00204748284802065	-0.00236780535824823	-0.00204531211852127	-0.00237161574863028	-0.0119207275984965	0.00490788756607224
10.7	-0.0133115301099039	0.0204003009955652	-0.00236051566755274	-0.00206608381104887	-0.00235702718501561	-0.00206083214665033	-0.0115539742906322	0.00526934016723847
10.8	-0.00935059433778343	0.0233168716152351	-0.00262654204990312	-0.00170727996924489	-0.00262138058974302	-0.00171617160742751	-0.0110954101483647	0.00561677191643184
10.9	-0.00489596630173807	0.0253253236929372	-0.0028318089096341	-0.00133629891338954	-0.00283697087873442	-0.00133556721836583	-0.0106956252334884	0.005526338775982
11	-0.000359104717669053	0.0267637738578203	-0.00299190968307288	-0.000923128212733749	-0.00299673784724939	-0.000929838025090753	-0.0112463110072238	0.00584981459763004
11.1	0.0051840699358765	0.0273451722176193	-0.0030987896065601	-0.000498567397061225	-0.00308797602028411	-0.000495730498503535	-0.0106005739015003	0.0070184238759755
11.2	0.010555056671375	0.0264241827414052	-0.00312656424736684	-6.3955383582047E-05	-0.00313368526029919	-6.87647703501262E-05	-0.0094768940300568	0.00742007503442607
11.3	0.0156573468119383	0.0244804261938545	-0.00309987322153873	0.000380989584472184	-0.00311135928721399	0.000371001378676971	-0.00814572524075443	0.00738123491754704
11.4	0.0202447870836005	0.0215479374180743	-0.0030281424951554	0.000806024202683828	-0.00302325271034012	0.000813557949139132	-0.00707503890637555	0.00667785489823736
11.5	0.0238814931434516	0.018026125863312	-0.00288491636719118	0.00122142320158627	-0.00288767963239343	0.00123165342653245	-0.00726905569685695	0.00605509209678268
11.6	0.0275368002278439	0.0138726465158438	-0.0026905563062474	0.00160751420736362	-0.00269053834821551	0.00161043912335866	-0.0065208082800707	0.0060988477935275
11.7	0.0301792598215912	0.00872234128798817	-0.00243223106529847	0.00195937423753684	-0.00243279969070809	0.00196793479312327	-0.00559712627964749	0.00525529344373568
11.8	0.0318157650271017	0.00318449313051837	-0.00213998721943947	0.00229021154492181	-0.00214408440917932	0.00229189696566507	-0.00501571480442666	0.00405008822994094
11.9	0.032397663377101	-0.00269225449736435	-0.00179251401180771	0.00256613139491067	-0.00180547774675905	0.00257040497091196	-0.00514770713739584	0.00272926496635402
12	0.031410839491805	-0.00824531878498967	-0.00142086431060837	0.00278558056946252	-0.00142027372081235	0.00278698516333045	-0.00661653110412534	0.00224801224892694
