# GHZ S RI R 50
0.2	0.00597870923328122	0.00169184945168269	0.00304593445713736	-0.000898639616646722	0.00305629914061293	-0.000891839670972784	-0.0139966568402745	0.00531209091494035
0.3	0.00624968334685143	-0.000396947739507037	0.00290100262145125	-0.0013218024533448	0.00289376938662696	-0.00130887068484181	-0.0132367757867027	0.00537183363307491
0.4	0.0059884981818622	-0.0022022271892549	0.00266864592246223	-0.00169289344097769	0.00267390255047615	-0.00170144797957344	-0.0127078737036653	0.00575913538229329
0.5	0.00494356048471976	-0.00353395276813983	0.00240967845970734	-0.00204816412289388	0.00242119555490425	-0.00206039289202363	-0.0124591830781332	0.00640180028728702
0.6	0.00419485650223371	-0.00421937156632259	0.00209761920228152	-0.00236215768060466	0.00209683089549214	-0.00236929785718425	-0.0116925697272082	0.00723401782088677
0.7	0.00318312629014281	-0.00500922384852418	0.00175041355840173	-0.00263913681230414	0.00174846022972212	-0.00263933448074735	-0.0111141452710875	0.00765080288513528
0.8	0.00200191899359835	-0.00548788781448765	0.00136535167686565	-0.00285543422924951	0.00135277011155387	-0.00285997104489572	-0.010694237745468	0.00820996792254941
0.9	0.000743095391354772	-0.0057155553658118	0.000949287516717072	-0.00301796458219727	0.000950318205188145	-0.00302864542659313	-0.0102333466145239	0.0087571043674302
1	-0.000997863064408522	-0.00585371048161945	0.000525610256110179	-0.00312147195712919	0.000515764167570446	-0.00312220964044358	-0.0101094710770276	0.0092622521823702
1.1	-0.00267080872768743	-0.00480400675207042	7.01495730369095E-05	-0.00314969392196283	6.66433209045508E-05	-0.00316731225345146	-0.00976437688829302	0.0106852138754108
1.2	-0.00370945583098008	-0.00395270355246918	-0.000370732687493871	-0.00313829477477316	-0.000371542450254496	-0.00313622233748796	-0.00849780477436831	0.0118158907681419
1.3	-0.00478209891926797	-0.0033163564867661	-0.000796358751672187	-0.00305499482092264	-0.000799592033120196	-0.0030569957506792	-0.00660823735936792	0.0125440145662744
1.4	-0.00572904092939517	-0.00282016574228554	-0.00121641072836839	-0.00290728525851602	-0.00121519961771174	-0.00291280681623552	-0.00469140603540491	0.0122205663711348
1.5	-0.00652594053188462	-0.00174255799037353	-0.0016167874111107	-0.00271136326123569	-0.00161517947489191	-0.00271984535542155	-0.00359443028275851	0.0116283459060723
1.6	-0.0062034758365476	-0.000211215510964547	-0.0019751825004076	-0.00245895877555794	-0.00197539203844799	-0.00246417971801253	-0.00288229745213393	0.0113584048722793
1.7	-0.0056285790317231	0.000941977425970446	-0.00230205850426306	-0.00216355959289115	-0.00230302462041284	-0.00215731481275241	-0.00245313749394416	0.0112160742507166
1.8	-0.00486057423602417	0.00213961915604355	-0.00257228795126879	-0.00181362755565835	-0.00258322182406176	-0.00181925687049126	-0.0020093769771379	0.0112555455673002
1.9	-0.00388729526391764	0.00297399923152712	-0.00279714118348503	-0.001444117670724	-0.00280955264645564	-0.00143798941752	-0.00157629303851125	0.0113030429463192
2	-0.00314131044970711	0.00384674576669954	-0.00297132466947032	-0.00103788295766627	-0.00298092184811278	-0.00103319756513491	-0.00137352955259197	0.0117167900541751
2.1	-0.00153577281679973	0.00472322232914919	-0.00308485613380429	-0.000612653677265901	-0.00308078176953002	-0.00061463361749504	-0.000315214461005752	0.0122132426622434
2.2	0.000148047547679617	0.00477490697170263	-0.0031432494005745	-0.000176276393349107	-0.00315451755505539	-0.000179123098837511	0.000832004962941689	0.0121017124208811
2.3	0.00167249626875408	0.00429887036079876	-0.00313946869762103	0.000265575750624316	-0.00313915503114914	0.000258711952964561	0.00178352657322544	0.0117251465378796
2.4	0.00295888764369127	0.00337048573186426	-0.00306779846186472	0.000702183763806714	-0.00307032422054467	0.000697933374110714	0.00258786407484497	0.01126268201356
2.5	0.00346676868549726	0.00216860895229191	-0.00293286546081283	0.00111202637528681	-0.00294374166031257	0.00111836203233112	0.00300093371610698	0.0108438343122762
2.6	0.00410496878411508	0.0014935539830881	-0.00276166584353903	0.00151507986988703	-0.00275808538752616	0.00150279317763948	0.00389029121566907	0.0108251631563473
2.7	0.00489920978478959	0.000371402636136568	-0.00251725697476433	0.00188632994093349	-0.00252252584197883	0.0018863275329127	0.00481856213489863	0.0103100351866176
2.8	0.00557216567429408	-0.00107222734680167	-0.00223608975600078	0.00221348178733971	-0.00222831863571266	0.00222327224210599	0.00553344176889958	0.00977195679010509
2.9	0.00597800130075212	-0.0029131633625778	-0.00190420407319558	0.00251359403020431	-0.00190050089641625	0.00251317910322593	0.00629453473177503	0.00928100627444373
3	0.00563995489010059	-0.00473250857036004	-0.00152027619850704	0.00275103632146124	-0.00153505553442872	0.00275708164357986	0.00700089628797944	0.00899923891373017
3.1	0.00545766418451284	-0.00638814528045838	-0.00113015582481603	0.00292915453001992	-0.00112552922233787	0.00293749879223778	0.00815924351554152	0.00855993577140682
3.2	0.00465669741847884	-0.00838316836073868	-0.000711088538652458	0.00306694907166904	-0.000712828709662819	0.00306633395183019	0.00886563991947159	0.00778127248684855
3.3	0.00329475987823014	-0.0103243821312726	-0.000274122484258921	0.00313830459832975	-0.000272463485996888	0.00313457433697516	0.00952273761269058	0.00696475079634919
3.4	0.00129346871924712	-0.0120207977709717	0.00017201945138565	0.00313463790059405	0.00016576388215307	0.00315116784225443	0.0100587893322183	0.00590023289491761
3.5	-0.00148962312583865	-0.0130818911940154	0.00059471854650288	0.00309307474227892	0.000600309998456345	0.00309316701275212	0.0100527126206559	0.00487347688864943
3.6	-0.00396480266730313	-0.0131792157821549	0.00102205960141406	0.00297466799284669	0.00103024474005678	0.00297437791487582	0.0103712115367402	0.00417360289445633
3.7	-0.00642474362120955	-0.0131339750220085	0.00143240671237754	0.00279617915585641	0.00142277786939046	0.00280981134249453	0.010598236876267	0.00321035775845886
3.8	-0.00897021486437267	-0.0126063468429462	0.00181140888725191	0.00257129187295924	0.00181377875661009	0.0025804472831821	0.0106260911799144	0.00231079364907255
3.9	-0.0114082983628661	-0.0116818519386129	0.00215870255568763	0.00229957635811049	0.00215144461537853	0.00229777149231926	0.0105088271803105	0.00147876879803159
4	-0.0140198886452331	-0.0100230324474206	0.00244347718889614	0.00197932937940306	0.00244793344644891	0.00197691263949596	0.0102675905133472	0.00111652806046119
4.1	-0.0156160550396707	-0.00761912924382079	0.00269724876427862	0.00162246485208572	0.00269599288275131	0.00162319542820801	0.010881643562129	0.000836734578395108
4.2	-0.0167860844270183	-0.00536048376750361	0.00289957982156294	0.00122226856185715	0.00290408501376952	0.0012135660508586	0.0113918467511327	-2.34849109502547E-05
4.3	-0.0176503426102694	-0.00304841608641683	0.00304516773863384	0.000810252511335352	0.0030516278640873	0.000802469028047456	0.0116791181828333	-0.00108780444613175
4.4	-0.0183241142444778	-0.000712651340245592	0.00312337501771622	0.000376045923230137	0.00312576092886071	0.000373797029269316	0.0116319534369521	-0.0022163793623594
4.5	-0.0191262548735096	0.00202968673899307	0.00314915762043213	-6.09161372569448E-05	0.0031545408009184	-6.42695459626776E-05	0.0112479716026946	-0.00299611443629654
4.6	-0.0188866101259466	0.00536802414575545	0.00310893541153832	-0.000506014380265494	0.00311011231412248	-0.000493069172286473	0.0113892390160838	-0.00369245006181521
4.7	-0.0178758044664827	0.00829902749635036	0.00300534593346787	-0.00092716190824238	0.00302070322413497	-0.000936740479930024	0.0112564596404084	-0.00480990121945185
4.8	-0.0164128551926664	0.0109453652734211	0.00284571669753126	-0.00134321064683649	0.00285423816716458	-0.00134928175476816	0.0108635560898547	-0.00581365887922669
4.9	-0.0143573081147471	0.0131096363746815	0.00262674461189221	-0.00172933227646285	0.00263091053287659	-0.00172640366846573	0.0103816853180657	-0.0066834146147754
5	-0.0122774280188858	0.0150291943840661	0.00236871881482556	-0.0020886923751219	0.00237234331101131	-0.00208600653875939	0.0099349595074108	-0.00712140559859421
5.1	-0.00901124931521039	0.0166554597684821	0.00205628398918591	-0.00240239087102835	0.00205858808878711	-0.002401022126663	0.0101655727573405	-0.00772897771419618
5.2	-0.00570901581647054	0.0171007773472857	0.00169802198848941	-0.00265418575858031	0.00169975507690469	-0.00265933998603709	0.0100357736086458	-0.00867789113250388
5.3	-0.00256405789040961	0.0168759753902132	0.00131069530387023	-0.00287204672019841	0.00131383268104627	-0.00286996862789191	0.00975276640874196	-0.00942317140880615
5.4	0.000221266109517957	0.0159745027950707	0.000884336534039673	-0.00302253575449127	0.00090159292395832	-0.00303374390317798	0.00944528952409164	-0.0103509005841435
5.5	0.0021966702665218	0.0151481467339672	0.000467096643221896	-0.00312186216111624	0.000477202373234711	-0.00313130779946807	0.00872094448532014	-0.0110188726960519
5.6	0.0048203840429278	0.0142118544505189	2.73896778902454E-05	-0.00315780000747474	1.88411795862984E-05	-0.00316104480928571	0.00840423696432601	-0.0117290268623856
5.7	0.00695846260684218	0.012363803309164	-0.000405300666623697	-0.00312865580528481	-0.000421966851953414	-0.00313235883985943	0.00746236889930916	-0.0125736934094566
5.8	0.00854159761833985	0.0101781186461727	-0.000853984742929985	-0.00303462350716126	-0.000857513222370071	-0.00304867185867782	0.00631121450974559	-0.0131954385271324
5.9	0.00951471908943448	0.00763172210758156	-0.00126206545346133	-0.00289419510540399	-0.00127032829062711	-0.00289412123372969	0.00494371965959405	-0.0136085640959056
6	0.00915977799912574	0.00516891532915531	-0.0016613703279318	-0.00268628881378179	-0.00165779653401806	-0.00268645267629538	0.0031578999282314	-0.0132526252919344
6.1	0.0090993200679645	0.003588110977217	-0.0020185171732368	-0.00243260864228996	-0.0020201672662728	-0.00242859013604969	0.00274892521805077	-0.0122925330801244
6.2	0.00893764539950649	0.00139101675286426	-0.00233439177869888	-0.00211793608646734	-0.00233811016557055	-0.00212985925390793	0.00275562219589514	-0.0122606879316504
6.3	0.00827770956113807	-0.00101011576452274	-0.0026141570997149	-0.00178094775199993	-0.00262332411106133	-0.00177518538294282	0.00261112232134561	-0.012822671237736
6.4	0.00678734123483218	-0.00351295934755951	-0.00284091758675951	-0.0013876573582266	-0.00283115551761653	-0.00139258109671645	0.00203420455091949	-0.0136286916418338
6.5	0.00443245616316109	-0.00497299807515362	-0.00299847241997897	-0.000982071469260385	-0.00300636693472814	-0.000977571906563254	0.00123458659513172	-0.0139051308597635
6.6	0.00281819371733766	-0.0058705020249966	-0.00310873502801601	-0.000553415111114522	-0.0031103781050303	-0.000557409280763765	0.00101214089140488	-0.0145595504938306
6.7	0.000806961552489765	-0.00669300765687902	-0.00315881064148633	-0.000112056287134393	-0.00316769746440506	-0.000105740538381438	-4.52441401516028E-05	-0.0152270955614723
6.8	-0.00138975597564203	-0.0069805373484723	-0.00313619904619847	0.000331992356451027	-0.00314733348342806	0.000337075734339393	-0.00127663244082735	-0.0154106372629638
6.9	-0.00382811000059328	-0.00694953273964613	-0.00306019201786953	0.000767238881856082	-0.00306318900035714	0.000769643663633863	-0.00253755436784609	-0.0154231981315328
7	-0.0067829180482108	-0.00563606801417147	-0.00292327927337112	0.00119197810260476	-0.00293617541882351	0.00118979512388473	-0.00390011972802944	-0.0147344078202054
7.1	-0.00824000089575391	-0.0034252175890769	-0.00274152000463029	0.00158359940681586	-0.00273781717051771	0.00159229372566984	-0.0042654798134563	-0.0141538491852066
7.2	-0.00933334552108935	-0.00153647223454434	-0.00248204568725767	0.00195229058845798	-0.0024885963624156	0.00195439627496765	-0.00497337148932758	-0.013955102148347
7.3	-0.0101851684813733	0.000477159113061787	-0.00218416225106424	0.00227209400176572	-0.00219540602228355	0.00227720060915413	-0.00569652274587164	-0.0136797083139776
7.4	-0.010785404396757	0.00228812308987737	-0.00183979169488225	0.00255653583295075	-0.00184665892178366	0.0025702236828526	-0.00659453941354197	-0.0136434150002929
7.5	-0.0119680167503125	0.00441569066361723	-0.00146895411830844	0.00279557712570807	-0.00146190544211616	0.00280297118654802	-0.0079036068695113	-0.0130218745674151
7.6	-0.0117155102015438	0.00761187499274377	-0.00106058851767779	0.00297122829911738	-0.00106198594386789	0.00296652228499564	-0.00798352807078536	-0.0120763256764885
7.7	-0.0107656270284121	0.0100000615468274	-0.000630429437525818	0.00309137983262139	-0.00063177788444313	0.00309032023212258	-0.00822688660759074	-0.0123505948991815
7.8	-0.00911923447148989	0.0119354384308621	-0.000202305682120341	0.00313899548766653	-0.000210108416020463	0.00314550545382781	-0.00877979913686485	-0.0124635915808389
7.9	-0.00719028578324549	0.0132159578178345	0.000241693485683402	0.00314321149360532	0.000249662756364696	0.00314467577482869	-0.00946438606572237	-0.0123395429006684
8	-0.00519721928754071	0.0148470196723818	0.000683284632690033	0.00306643776616917	0.00068338911658082	0.003071345612514	-0.0101804829641325	-0.0117125732466809
8.1	-0.00173217475200288	0.0156790790710676	0.00109372703750595	0.00294746516411384	0.00111291614628274	0.00294846736410675	-0.0101278151564435	-0.0116327463352331
8.2	0.00142267705364762	0.0153449269578488	0.00149931904829331	0.00276357103533411	0.00150854709325589	0.00275631806147483	-0.0107388477414723	-0.0115878040001978
8.3	0.00431833487081203	0.0143319040497151	0.00187529140829024	0.00252070319603888	0.00187371640413975	0.00253428024412543	-0.0113567391004353	-0.0113388961111089
8.4	0.00666314736761877	0.0125778890238428	0.00220868274931509	0.00223956039267163	0.0022056490783779	0.00223935151350852	-0.0121456402958464	-0.0111747844409595
8.5	0.0078982627012	0.0110387262052522	0.00249223003880794	0.00190859410601346	0.00249134737603955	0.0019117843415883	-0.0132696414035034	-0.010298336888423
8.6	0.00992329142100429	0.00964178665358736	0.0027379709814833	0.0015453889940647	0.00274744313879897	0.00153879236304956	-0.0134020777262895	-0.00960735753101308
8.7	0.0115680134593603	0.00723301898390467	0.00292055133714211	0.00114013349995545	0.00292611651284146	0.00114082588411926	-0.0140228271431456	-0.00935529616098923
8.8	0.0126274828361151	0.00440799084054029	0.00305347918195466	0.000728261749211687	0.00305919833644722	0.000719472449100233	-0.014950615180145	-0.0089371073871126
8.9	0.0130146493339924	0.00100132864844109	0.00312791134375297	0.000294825034951953	0.00312702909063633	0.000292583471255715	-0.0158561712200764	-0.00816338253657731
9	0.0119911839075322	-0.00218282417929677	0.00313620923042554	-0.000149587371671851	0.00313938848173308	-0.000145504801271442	-0.0166087030889671	-0.00657542751304037
9.1	0.0111303096196547	-0.00487717678993303	0.00308479586926964	-0.000591305077115328	0.00308775427321835	-0.000578439797017718	-0.016065381743848	-0.0051440037196252
9.2	0.00950020339673033	-0.00782123114327543	0.00297169747145761	-0.00100662991967598	0.00297932569274918	-0.0010095457382488	-0.0155970752962301	-0.00432049139653674
9.3	0.00713358797543764	-0.0103993367943246	0.0028007000220997	-0.00140952845556081	0.00279994286906764	-0.0014145051725047	-0.0150145253880404	-0.00363250721426891
9.4	0.00396407489774061	-0.0126357150225668	0.00257623150869831	-0.00179812734338502	0.00258277295193619	-0.00179058203781858	-0.0145889897997765	-0.00334826521409619
9.5	-0.000149109419586082	-0.0132605151944309	0.00229680822602253	-0.00212971106295979	0.00230419023497045	-0.00213110023378619	-0.0143657370320463	-0.00256525230123751
9.6	-0.00342165938251031	-0.0130576162803219	0.00197901080201227	-0.00242756815806797	0.00197934479073339	-0.00242659163670267	-0.0138375196827131	-0.00247728304078708
9.7	-0.00691853029259727	-0.012499327389928	0.0016125048585711	-0.00267442138837322	0.00161798028063845	-0.00268172683324232	-0.0140851678912826	-0.00239781382225535
9.8	-0.0103942945945617	-0.011217200150055	0.00122796627958896	-0.00287998755577683	0.00123368209113025	-0.00287155398594624	-0.0145212971015515	-0.00193271683560061
9.9	-0.0137937268200531	-0.00930058515791686	0.000823013373079971	-0.00301530369560821	0.000815724117093825	-0.00301404697308633	-0.0151638181266219	-0.00112604243407547
10	-0.017385159079316	-0.00605408422091304	0.000396355092920287	-0.00309901412899745	0.000388858280761693	-0.00311135302122363	-0.0156329900323379	0.000514653828263826
10.1	-0.0191424957898607	-0.001786935806242	-4.13768154655485E-05	-0.00312936198943166	-5.15316835004878E-05	-0.00312396515142098	-0.0147828040756141	0.00175726772101305
10.2	-0.0199905700408361	0.00222566132980966	-0.0004844012374192	-0.00309099597247948	-0.000487779271314782	-0.00308822243551066	-0.0141022886436737	0.00239422287826315
10.3	-0.0201085382792864	0.00618611958179045	-0.000912976408948467	-0.00298380211544613	-0.000904961784300365	-0.00299284162405061	-0.0134873591332558	0.00285718577633338
10.4	-0.0197583646565992	0.00985594910241484	-0.00130504464082715	-0.00282847456550887	-0.00130337368074268	-0.00283463252082593	-0.0129801517644448	0.00307603228699294
10.5	-0.0193290630312958	0.0142543501248476	-0.00169166821844333	-0.00263299387249025	-0.00168856946723667	-0.0026200779778146	-0.0125373610255932	0.00389247123662915
10.6	-0.0169823884996366	0.0188041574653245	-0.00204297396247124	-0.00236444748372978	-0.00204080556163639	-0.00236825035039011	-0.011243454566162	0.00413548929242473
10.7	-0.0137439721715071	0.0225792928886595	-0.00235481835153434	-0.00206350977553772	-0.00235133956108491	-0.00205826610740569	-0.0103256826430568	0.00395248868983562
10.8	-0.00970464101388115	0.0255644849334322	-0.0026203442097443	-0.00170620432512076	-0.00261518524977374	-0.00171507547028832	-0.00971992789410579	0.00354096292563959
10.9	-0.0054028384679932	0.0275340337125951	-0.00282626411965876	-0.00133644200145835	-0.00283141850595897	-0.0013357155781387	-0.00968235602198387	0.00309589245245287
11	-0.00114203645577118	0.0294158756419238	-0.00298602198415657	-0.000922613158563025	-0.0029908385735606	-0.000929312506998926	-0.00977243008517177	0.00353918887229764
11.1	0.00461847559672438	0.0305310121582652	-0.00309164969362843	-0.000500068442544315	-0.00308086193731045	-0.00049722868663154	-0.00896387931799414	0.00348995171345681
11.2	0.0104990233812449	0.0299409002045952	-0.00312011716772087	-6.72545687749611E-05	-0.00312721838108159	-7.20619576489203E-05	-0.00862852542240052	0.00314611393341761
11.3	0.0162388837619951	0.0279067494228088	-0.00309434130794556	0.000376705183672559	-0.00310579381759899	0.000366723051487145	-0.00826371458470794	0.00290911850273088
11.4	0.0211938460860459	0.0245384114886401	-0.00302281101263558	0.000801381478217347	-0.00301793862028833	0.00080890482790428	-0.00816088062942908	0.00263378966254065
11.5	0.024862425782352	0.0208655293041251	-0.00287930202222722	0.00121422867944101	-0.00288207273980564	0.00122442894894409	-0.00819962889865754	0.00288661951597383
11.6	0.0287645511891176	0.0165157740215689	-0.00268779823889161	0.00159879308373736	-0.00268778598669155	0.00160171165060263	-0.0074691916067966	0.0024745476798449
11.7	0.0315934558619447	0.0109521412729207	-0.00243130813831835	0.00195066962541574	-0.00243189263124872	0.00195921211494327	-0.00738590449909531	0.00175299782384833
11.8	0.0331551589826764	0.00483009886422582	-0.00214039130176366	0.00228128285059756	-0.00214448376105226	0.0022829565573542	-0.007544656261366	0.00137363775391598
11.9	0.0332148487450607	-0.00160868210803189	-0.00179458440702389	0.00255614654362776	-0.00180752927538643	0.00256037985278917	-0.00778565940280106	0.00164358286067647
12	0.031535680640053	-0.00694884326127418	-0.00142721665551507	0.00277627382517793	-0.00142663152773611	0.00277767785894844	-0.0075225685516432	0.0026453362814761
