# GHZ S RI R 50
0.2	0.00542883309682286	2.83701243375402E-06	0.00305652007859148	-0.000895799790034208	0.00306690302974598	-0.000888961159481314	-0.0145937780323761	0.00361590690006989
0.3	0.00593314472693799	-0.00142599338925169	0.00291464923032044	-0.00132015544709317	0.00290736033649307	-0.00130719231307843	-0.0136223592236802	0.00433814985305002
0.4	0.00575798300691192	-0.00240754841325997	0.00268552351786953	-0.00169427693337751	0.00269082639418493	-0.00170285896118974	-0.0130404692348189	0.00556045528616183
0.5	0.00644626576927797	-0.00393664917723595	0.00242685699371484	-0.00205634484781281	0.0024384599677282	-0.00206862690058695	-0.0110987408218326	0.00605459676050643
0.6	0.00448781455890731	-0.00641500656682229	0.00211189876796872	-0.0023721574759006	0.00211111535494904	-0.00237933699033219	-0.0115378425002005	0.00515306194825314
0.7	0.00223806066323715	-0.00668708917658155	0.00176473140255329	-0.00265205406887298	0.00176276685195124	-0.00265225585903581	-0.0121803075685151	0.00613613363373433
0.8	0.000411901451943469	-0.00656488172393692	0.00137797055286508	-0.00287276463524527	0.00136531080006471	-0.00287734720109379	-0.0123704403255758	0.00733848607120294
0.9	-0.00169504809277628	-0.00566519594952232	0.00095717335207223	-0.0030395252669757	0.000958215067233214	-0.0030502831918042	-0.0126947550235718	0.00902965486497452
1	-0.00179855291236717	-0.00338035475536149	0.000527633814950144	-0.00314126368657289	0.000517725672515986	-0.00314200198098248	-0.0108973207077195	0.011892287321024
1.1	-0.00185541903543621	-0.00460437810898695	7.26486989605196E-05	-0.00317084891594212	6.91301851063095E-05	-0.00318858809050779	-0.00901539716583565	0.0110291975386078
1.2	-0.00396819260062361	-0.00459935806448168	-0.000373201767864485	-0.00316251503078787	-0.000374018023711375	-0.00316042672932267	-0.00884298100849142	0.0113344073353268
1.3	-0.00574943293133178	-0.00433688940750292	-0.000804924226309015	-0.00307896992383262	-0.00080818490070205	-0.00308098463189096	-0.00767009247615997	0.0117482103403558
1.4	-0.00733789223922692	-0.00358945775124681	-0.0012296876446547	-0.0029278002139272	-0.00122847487777836	-0.0029333655716598	-0.00635582347840878	0.0117433990568051
1.5	-0.00682790923789116	-0.00279667921231606	-0.00162958762728334	-0.00273162297553213	-0.00162796914890602	-0.0027401697536436	-0.00395801441117662	0.0108797199771283
1.6	-0.00813636174430751	-0.00200310800880667	-0.00199666470658933	-0.00248069675533622	-0.00199688145360128	-0.00248596781236102	-0.0047918101078954	0.00999124196972812
1.7	-0.00784756127881743	0.000579973800648575	-0.00232990440234469	-0.00217902473028036	-0.00233086454254761	-0.00217271651938626	-0.00455523276284505	0.0112423197874894
1.8	-0.00672792641827872	0.00267754716666267	-0.00260261438569228	-0.0018224711562171	-0.00261367039386104	-0.001828118316501	-0.0037226241576123	0.012121161829482
1.9	-0.00512976235552573	0.00473386591461286	-0.00282799278577051	-0.00144862965407251	-0.00284050074668648	-0.00144240400841504	-0.00266326873710859	0.0133245213060677
2	-0.00152044338306034	0.00546034893846035	-0.00300883907394545	-0.00103887928407501	-0.00301852823158927	-0.00103410582601068	0.000338837116245366	0.0135614286677596
2.1	-0.000589323877447938	0.0037676715898343	-0.00312299062148804	-0.000599322566488159	-0.00311888407404916	-0.000601350981057568	0.000687129310891041	0.0115449124878909
2.2	-0.000104879321826782	0.00384213078387545	-0.00317601785895595	-0.00015507669051529	-0.00318741966579431	-0.0001578695792147	0.000665054570706419	0.0115005629721932
2.3	0.000702305670675785	0.00373676465531566	-0.00316792501201833	0.00029238872114983	-0.00316766127664196	0.000285455806980431	0.000956609717251748	0.0115067034424861
2.4	0.00129973566194027	0.00397308689015855	-0.00309336847933302	0.000735217007391206	-0.00309595594085646	0.000730944264319944	0.0011340477793555	0.012158279876413
2.5	0.0038505058526365	0.00441655894496719	-0.00294970449986324	0.00115706918793501	-0.00296061765543951	0.00116359424508707	0.00359079207075994	0.0132756993316431
2.6	0.00546336129496897	0.00164190200739211	-0.00276357268424413	0.00155903406628885	-0.00276011303277201	0.00154661563002609	0.00536905473495372	0.0111411031119478
2.7	0.0056758386659115	-0.000222880326260197	-0.00251222045107492	0.00192840918959518	-0.00251752486183179	0.00192846822770343	0.00567225961213906	0.00992676800702927
2.8	0.00566168870418888	-0.00194726884208817	-0.00222354296137523	0.00225548584526207	-0.00221560052457443	0.00226524497255743	0.00570285348064249	0.00915704342556249
2.9	0.00556414921293174	-0.00308200617922183	-0.00188066315874172	0.00255509399646014	-0.0018769435953875	0.00255462512327181	0.00597806145494349	0.00940394855722858
3	0.00680652072482547	-0.00492240741762243	-0.00148372015689946	0.00278070720291719	-0.00149844932358955	0.00278698639070327	0.00823827792841668	0.00908363267374336
3.1	0.00550173057183584	-0.00819758364828859	-0.00109560168949049	0.00295023211583007	-0.00109085859389845	0.00295853689678797	0.00824186747785985	0.00705990524386143
3.2	0.00367912249129505	-0.00973096983118529	-0.000672187913529106	0.0030840127227518	-0.000673940573078542	0.0030834191480995	0.00801934358760134	0.00685593718937661
3.3	0.00177366261363502	-0.0110900455917316	-0.000230173736602638	0.0031471704556837	-0.000228564857489331	0.00314341080136125	0.00823346079335672	0.00660807872445072
3.4	-0.000493380351234807	-0.0115432154524125	0.000217509267916084	0.00313065908677202	0.000211496958233253	0.00314727217695225	0.00856968267273609	0.00669538959310384
3.5	-0.00115647878710545	-0.0121526871145821	0.00063048798870801	0.00308095576969164	0.000636071399472992	0.00308098147090237	0.0106226217489164	0.00604299611809661
3.6	-0.00436083677722766	-0.0142128254632465	0.00105941146885355	0.00296247840364823	0.00106759456937688	0.00296208603623414	0.010218245539192	0.00344656090937343
3.7	-0.00808100353335064	-0.0136405463023563	0.00146949463673276	0.00277428251604799	0.00146006024401799	0.00278803527673344	0.00926272461771686	0.00296543050378156
3.8	-0.0111384431849131	-0.0120721145757216	0.00184263991554429	0.00254067107130364	0.00184513012715172	0.00254977344575396	0.00882031681909652	0.00299996826755768
3.9	-0.0133216038439837	-0.00942650876946501	0.00218061687722236	0.00226517373970202	0.00217335952459004	0.00226346559327481	0.00892840178899315	0.00375167293645623
4	-0.0128979523442778	-0.00734423415443063	0.00246531523025288	0.00194702077392954	0.00246973685721422	0.00194455156495672	0.0116214854313284	0.00369899694680288
4.1	-0.0146115112429495	-0.00744106624539106	0.00271492843209244	0.00157734019533584	0.00271368687652191	0.00157808795348853	0.0119527938638646	0.000870066422121177
4.2	-0.0167787047803682	-0.0053663568962874	0.00290424110977359	0.00117321866960314	0.00290859516405784	0.00116448966752932	0.0113548985798077	-0.000135140285845553
4.3	-0.0182160129267314	-0.00265851123857529	0.00303948828519692	0.00076240829913235	0.00304580134003053	0.000754576966486069	0.0110018749877013	-0.000775841051441645
4.4	-0.0191001467861709	0.000943541364472956	0.00311198264954725	0.000330580763725205	0.00311432456620987	0.000328310639013336	0.0107095942694494	-0.000667673540348058
4.5	-0.0171457521714592	0.00442460513862747	0.00312889285627829	-0.000113817295283114	0.00313418642915523	-0.000117241287589721	0.0128733149993476	-0.000841534931301712
4.6	-0.0167737814992428	0.00505213118141185	0.00306882267054158	-0.000550447174818038	0.00307019416844479	-0.000537654138704612	0.0128442249231455	-0.00403617439406455
4.7	-0.0167136685316711	0.00747294407957683	0.00295825117688724	-0.000959485925751472	0.00297329890506532	-0.000969175074837558	0.0116998904578086	-0.00542256107471053
4.8	-0.0159147152731428	0.0100157892703164	0.0027940429236756	-0.00136606798449592	0.00280238183698885	-0.00137218346535843	0.0106660658566171	-0.0063591035043612
4.9	-0.0144109658263161	0.0129388850133713	0.00256906373796353	-0.00174474488039864	0.00257321859131093	-0.00174191231220455	0.00965176721308159	-0.00637538832454232
5	-0.0103798890337836	0.0147395714056777	0.00230036154249236	-0.00208541777694531	0.00230396107018484	-0.00208282645544197	0.0110421416323736	-0.00675321835534979
5.1	-0.00880282879982364	0.0143045201736689	0.00199853440326484	-0.00238081210595187	0.00200081211275243	-0.00237948845463544	0.00974226241469083	-0.00914491246939252
5.2	-0.00696027950842861	0.0156913879684202	0.00164695298403461	-0.00262500359728152	0.00164861276857907	-0.00263008760509716	0.00836056197191672	-0.00908193301617225
5.3	-0.00410812333879065	0.0166256776125097	0.00126431468481432	-0.00283334467588045	0.0012674151331642	-0.00283132839925395	0.00792774279208992	-0.0086863912706641
5.4	-0.000836709548721775	0.0172738775609652	0.000845338007585014	-0.00297058080379132	0.000862179869633135	-0.00298169766254425	0.00816274091461954	-0.00809845098247769
5.5	0.00453195349542205	0.0157832414004154	0.000450015859273405	-0.00306098232726178	0.000459897147559906	-0.0030702654758031	0.0108400848019286	-0.00942451450082571
5.6	0.00517527780024112	0.011705463176498	2.00904379674452E-05	-0.00310438260278638	1.16796826432737E-05	-0.00310755395040619	0.00855276809660394	-0.0131780676125991
5.7	0.00518948856911814	0.0105702711889868	-0.000405634582317027	-0.00307336844183372	-0.000422020068529992	-0.00307696789706941	0.0056521933253227	-0.0132097986234003
5.8	0.00562991319403025	0.00965582540399295	-0.000842261109002928	-0.00297820963143051	-0.000845743063716885	-0.00299199736171326	0.00359079328615669	-0.0125834582258652
5.9	0.00584441302460178	0.00972989401974972	-0.00123492740819638	-0.00284239068230489	-0.00124303768636068	-0.00284232908482583	0.00169127324254695	-0.0105849015854696
6	0.00955101963971552	0.0101168240802524	-0.0016302507854991	-0.0026503519734293	-0.00162672970311275	-0.00265050484218917	0.00387911554399344	-0.00779210262072915
6.1	0.0113388243083113	0.00539607300727828	-0.00198624579660179	-0.00239405295411587	-0.0019878699172051	-0.00239009847712446	0.00501823510968995	-0.00999500765102846
6.2	0.0108428639867141	0.00210303179316052	-0.00229073959650006	-0.00208449275137957	-0.00229437607465165	-0.00209621400310513	0.00457077157157617	-0.0109866739342157
6.3	0.0096641652125334	-0.000975293133710934	-0.00256280937034657	-0.0017587398357398	-0.00257183639601122	-0.00175310814366548	0.003878349717073	-0.0121383536611118
6.4	0.00781963690820244	-0.00276445527715971	-0.00278992351433833	-0.00137897203996896	-0.00278029198781514	-0.00138377347831202	0.00294453191503932	-0.0122151334887343
6.5	0.00791339741222342	-0.00565886862883967	-0.00294991646042288	-0.000972626683031156	-0.0029576969174451	-0.000968212474226707	0.00445096440802271	-0.0138446358608869
6.6	0.00336600314610458	-0.00863728529083717	-0.00304786840368069	-0.000555843259573775	-0.0030494640024085	-0.000559768961622965	0.00138422749827791	-0.0163230762892256
6.7	3.41216612458631E-05	-0.00827442919496557	-0.00310042284546263	-0.000131578756588473	-0.00310919067621719	-0.000125438893164691	-0.000816584020825596	-0.0157536485257386
6.8	-0.00271471633280076	-0.00771189962899413	-0.00308550886832528	0.000301235671408174	-0.00309649460271472	0.000306143433253051	-0.00247967806192462	-0.0151325194077099
6.9	-0.00523381751307326	-0.00560713258813336	-0.00301582630391755	0.00073191273581935	-0.00301879214048239	0.000734255866297389	-0.00379682841531047	-0.0131707161900259
7	-0.00369602704402028	-0.00443277879460357	-0.00287493856299146	0.00114353648169802	-0.00288755874261313	0.00114128842624146	-0.000875275132314631	-0.0126399846848288
7.1	-0.00707259074360875	-0.00645459700139199	-0.00271208235340289	0.00151792749799058	-0.00270856347761497	0.00152651089927755	-0.00317023005709998	-0.01601481604697
7.2	-0.0106637904697578	-0.00420850912019817	-0.00246944530521036	0.00188530324501352	-0.00247591944005236	0.00188728165096666	-0.00616439780299132	-0.0152966167192308
7.3	-0.0131654120144257	-0.00121421184128805	-0.00218333969133664	0.00220501187260156	-0.00219448326338223	0.00220987545971332	-0.00825764678111384	-0.0140190034390666
7.4	-0.0153425706986807	0.00332166768979838	-0.00184949974446624	0.00248558616790348	-0.00185646812061569	0.00249894086292868	-0.0104690322148661	-0.0112704525639561
7.5	-0.0126867922861858	0.0088442113555664	-0.00150565062538675	0.00272221792304063	-0.00149886474955231	0.0027296485703384	-0.00778661641430483	-0.00764225248115704
7.6	-0.0113172130487126	0.00922497561350077	-0.00111231082862355	0.00291857998081411	-0.00111359492939823	0.00291389257651829	-0.00680297439492991	-0.00980981496559492
7.7	-0.0106994446454155	0.0116981904768441	-0.00068768491249851	0.00305002281763839	-0.000688999312949624	0.00304894547490006	-0.00749019249767477	-0.0100719461997243
7.8	-0.0088284464814396	0.0137881273515891	-0.000266948363382626	0.00310761852738484	-0.000274821422574182	0.0031139072681598	-0.00786898787330169	-0.0101279372851035
7.9	-0.00599261116527448	0.0159611937420162	0.000165736155581948	0.00312607788298753	0.000173612952903752	0.00312771965334387	-0.00756595441405438	-0.00936949108680337
8	-0.000335123319415549	0.0150014962904121	0.000609597128939652	0.00307871929979283	0.000609584947262	0.0030836233173787	-0.00515164363187749	-0.0111435768251773
8.1	-0.000107860650308077	0.0123872046504563	0.00103261029425237	0.00296631426034572	0.00105175713146929	0.00296770507660329	-0.00842833460341501	-0.0143578845370215
8.2	0.000854934488708388	0.0127687296364491	0.0014397231212853	0.00279112440747286	0.00144908998843766	0.00278407343630169	-0.0110750610139695	-0.0134471236352567
8.3	0.00251293834532005	0.0127605371667891	0.00182023219092454	0.00256193836823179	0.00181835981036496	0.00257548188043718	-0.0127821230035364	-0.0122429076218631
8.4	0.00431407452568132	0.0134594846629571	0.00216677034047705	0.00229609999387837	0.00216373084640664	0.00229582332468967	-0.0141009775482208	-0.00985138839107727
8.5	0.00998731604012161	0.0124012007423387	0.00247073154321677	0.00196114333169526	0.00246978901187666	0.0019643332846393	-0.0111398906972668	-0.00852070063252844
8.6	0.0104513324076756	0.00695928822550423	0.0027147073651435	0.00159962721041452	0.00272432190322982	0.00159319390544471	-0.0128267893497595	-0.0115846983881968
8.7	0.00965618654795786	0.00497662796512368	0.00290846393122019	0.00120346407145154	0.00291403600142794	0.00120427157633677	-0.0157317024005073	-0.0108438822530278
8.8	0.00921669666213263	0.00337695073813723	0.00305739426140834	0.000793812280089544	0.00306332404617426	0.000785084250665846	-0.0180106643150126	-0.00924118836302705
8.9	0.00865551708825508	0.00278896222856023	0.00314644941634134	0.000352493578604859	0.00314560018304983	0.000350219351474109	-0.019761436360569	-0.00580853609792544
9	0.0115801865455152	0.00175513043494461	0.00315150081548472	-9.50220209676119E-05	0.00315462108492556	-9.086704355248E-05	-0.0166056534041893	-0.0023139912567234
9.1	0.0110444584632554	-0.00306237673417152	0.00311922654452297	-0.000529412909859536	0.00312193029827265	-0.000516393491094324	-0.0159938729923049	-0.00313979118997025
9.2	0.00969823965013809	-0.00565323700694387	0.00302269075567529	-0.000956422123885435	0.00303045663433215	-0.000959212465370475	-0.0154471371797306	-0.00192907564125585
9.3	0.00810736304121124	-0.00852275253086302	0.00285928959737516	-0.00137361342435634	0.00285861643476111	-0.00137866169174118	-0.0142488566325553	-0.00145047227438706
9.4	0.00557948837933669	-0.0102448148733587	0.00263522712399359	-0.00177131710229807	0.00264170345179422	-0.00176357638448159	-0.013336556089575	-0.000607657588878773
9.5	0.004932434775638	-0.0132724845137489	0.00237202615440653	-0.00210471133769133	0.0023795289000728	-0.00210595369844144	-0.0100234059686975	-0.00211190068935985
9.6	-0.00162052111181606	-0.0167671065429155	0.00206183541852068	-0.00243150049703849	0.00206215607079635	-0.00243050012351395	-0.0128439184882029	-0.00517428713332548
9.7	-0.00758933952760954	-0.0155985917231603	0.00168792493808896	-0.00269639432681596	0.00169362618200428	-0.00270374153635236	-0.0152795745396538	-0.0041733090531393
9.8	-0.0125494108251792	-0.0132581453361233	0.00129734181165453	-0.0029141890106638	0.00130302896839577	-0.00290550538186729	-0.0168696746864012	-0.00256280437886786
9.9	-0.0168146770243909	-0.00886209908725921	0.000891270061145246	-0.00306126820674439	0.000883813869452057	-0.00306011176895671	-0.018074559294442	0.000547461443744724
10	-0.0164958391135227	-0.00481140877880602	0.000454299131857502	-0.00317439135006659	0.000446794497877176	-0.00318716953292241	-0.0146696906758032	0.00282403663450349
10.1	-0.0195707609544533	-0.0036331008902481	-1.19702296200133E-05	-0.00320987964319968	-2.24376145627515E-05	-0.00320444350248932	-0.0150998476350159	0.00103347278539743
10.2	-0.0222825599957376	0.000986377398452	-0.000469468801781844	-0.00317210106169159	-0.000472955060138416	-0.00316928802848525	-0.0161147226860101	0.00224410019721855
10.3	-0.0235272072421152	0.00629836447671475	-0.000912398294226941	-0.00306864594245435	-0.000904102202781533	-0.00307785481304008	-0.0164489262156062	0.00388765415072147
10.4	-0.0233363828834409	0.0130199065994179	-0.00132534309900401	-0.00291926572872894	-0.00132358459852259	-0.00292559294851974	-0.016018977517005	0.00677384413460285
10.5	-0.0181648134239072	0.0183759120170236	-0.00174454258738911	-0.00270805751021576	-0.00174133687260448	-0.00269476690277056	-0.0112169264893488	0.00814469131310422
10.6	-0.0156726521305248	0.0202828188895271	-0.00209793904582485	-0.00241993802507989	-0.00209572303467687	-0.0024238394104204	-0.010144921808242	0.00584244601468807
10.7	-0.0123701102810608	0.0235042134375479	-0.00241783621667965	-0.00211136441047282	-0.00241426044459689	-0.00210599470346808	-0.00938048112845359	0.00520829540268729
10.8	-0.00883465187990355	0.0257378884404631	-0.00269458394333537	-0.0017412743703347	-0.00268932231609787	-0.00175039465752631	-0.00945733782755264	0.00418923930401422
10.9	-0.00503035566042094	0.0288324827109238	-0.00290897536076606	-0.00134922261455128	-0.00291425650289946	-0.00134843830244613	-0.00996869240794121	0.00506548384880934
11	0.002996614084681	0.0298137231556467	-0.00305250303541468	-0.000915876020545587	-0.00305747031804816	-0.000922667095079685	-0.00653983568495567	0.00488330138486705
11.1	0.00626784189452664	0.0272967653538974	-0.00316082432621106	-0.000494311960550749	-0.00314978935053085	-0.000491468739987972	-0.0081856402518314	0.00154551276875939
11.2	0.00988810742329999	0.0271372933835447	-0.00319222045457688	-4.54525259936288E-05	-0.00319952059580763	-5.03171008845965E-05	-0.00994279839838044	0.00189416621748058
11.3	0.0141959031354878	0.0263029145725762	-0.00315951721299801	0.000416386461058504	-0.00317132595835545	0.00040629757263437	-0.0110625578538075	0.00297191158791398
11.4	0.0184510452743505	0.0254208463411897	-0.00307157631398105	0.000851522628734806	-0.0030665239252748	0.000859134246341406	-0.0113704052796359	0.00522591335361355
11.5	0.0259996890753633	0.021930569157745	-0.0029269712808076	0.00125834491396768	-0.00292972391695069	0.00126876413511322	-0.00722870108261018	0.00530522535468138
11.6	0.0279180982833615	0.0146966796914085	-0.00273353499026536	0.00166508115300198	-0.00273349110470483	0.00166806789789021	-0.00869877984617746	0.00225398678249275
11.7	0.028809170054138	0.0103527594769934	-0.00245758454298979	0.00202774447582015	-0.00245806223434116	0.00203648350561755	-0.0102609488952975	0.00287887859960113
11.8	0.0296262379318229	0.00632239630154686	-0.00214859297823499	0.00235971540379091	-0.00215274209628135	0.0023614851000308	-0.0108838196979004	0.00444921747631856
11.9	0.0309070342610917	0.00361858192355307	-0.00179354754821729	0.0026307521619978	-0.00180668376962089	0.00263524862148836	-0.00998493226741659	0.00795291964417754
12	0.0361318722291273	-0.00243205016613279	-0.00141534976154198	0.00286724571311156	-0.0014147270311693	0.00286867392220929	-0.0033760966443888	0.00823104208175613
