# GHZ S RI R 50
0.2	0.00599100489709495	0.0014726670392765	0.00304704361962127	-0.000898316979328983	0.00305741014251425	-0.000891512916936141	-0.0139967197846693	0.00508500498429559
0.3	0.00625438821084178	-0.00057838268017896	0.00290245581820542	-0.00132162232502542	0.00289521664332957	-0.00130868723424697	-0.0132458941768621	0.00518285349458346
0.4	0.00598057437787727	-0.00231674271423867	0.00267042854035406	-0.00169307022385907	0.0026756900103601	-0.00170162775339226	-0.012729497783069	0.00563946218187904
0.5	0.00505430758887318	-0.00370241336714472	0.0024114329589579	-0.00204901009903459	0.00242295881907267	-0.00206124436537577	-0.0123530447829392	0.00622960591711502
0.6	0.00413070904879775	-0.00450885163984496	0.0020991591089333	-0.00236317719074346	0.00209837142918746	-0.00237032151978004	-0.0117564805720456	0.00692722887485873
0.7	0.00300369806610624	-0.00521303343019582	0.00175195791911233	-0.00264051987482152	0.00175000338557543	-0.0026407179907982	-0.0113000139478774	0.00742064850382985
0.8	0.00176898021162248	-0.00561268067841174	0.00136668759904726	-0.00285729140727277	0.00135409766177314	-0.00286183305687898	-0.0109427959487095	0.00805587954548784
0.9	0.000464407829440781	-0.00571964524760239	0.000950126203024062	-0.00302022212511283	0.000951158089094887	-0.00303091104943701	-0.0105385762939144	0.00872899106828319
1	-0.00108000181317617	-0.00572295431106899	0.000525968439405349	-0.00312360541137802	0.000516115621520237	-0.00312434359554726	-0.0102183470165229	0.00938757518133814
1.1	-0.00269831599875799	-0.00495357421703397	7.04246219274144E-05	-0.00315210252913062	6.69169208567972E-05	-0.00316973460743097	-0.00980204240386487	0.0105374565126075
1.2	-0.00390528187970494	-0.00425480906100316	-0.000371044816078853	-0.00314097832749781	-0.000371855274320864	-0.00313890411966235	-0.00869181184512169	0.0115104182174067
1.3	-0.00519334571036059	-0.0037168564938269	-0.000797308848765963	-0.00305763387383437	-0.000800545151803316	-0.00305963631417369	-0.00700547496733673	0.0121329777994445
1.4	-0.00630709224830634	-0.0031208219347402	-0.00121783143073702	-0.00290962781119477	-0.00121661999098488	-0.00291515427203818	-0.00525075297522728	0.0118966139181089
1.5	-0.00699449385858782	-0.00194697459135861	-0.00161839122494398	-0.00271377236274183	-0.00161678220245257	-0.00272226229676662	-0.00404045739583993	0.0113820638820786
1.6	-0.00671614987994011	-0.000295369729481307	-0.0019777364020639	-0.00246127078696755	-0.00197794706534306	-0.00246649732452347	-0.00338419256439537	0.0112149152963407
1.7	-0.00600822588049556	0.0010356889366223	-0.00230519987370473	-0.00216521080885602	-0.00230616516156381	-0.00215895897857972	-0.00284145906743313	0.0112462249160559
1.8	-0.00509275809042078	0.00230470046188739	-0.00257572945767693	-0.00181463086563386	-0.00258667719053707	-0.00182026220447919	-0.00226216425516458	0.0113645196021482
1.9	-0.00397102816400423	0.00318441444846554	-0.00280081557669984	-0.00144463149930367	-0.00281323844919896	-0.0014384915852452	-0.00168267081233719	0.0114732732213953
2	-0.00300413905451558	0.00391415004285196	-0.00297569158026592	-0.00103765152176757	-0.00298529862823837	-0.0010329550482194	-0.00123656144457825	0.0117554866917645
2.1	-0.00153793321449884	0.00461430560670556	-0.00308903823840191	-0.000611002443532121	-0.00308496050926614	-0.000612987917047227	-0.000303317611946324	0.0120532913377546
2.2	6.01773438374823E-05	0.00470501336836025	-0.00314693422001556	-0.000173804697882834	-0.00315821746537978	-0.000176645033499883	0.000748289517654979	0.0119647334477219
2.3	0.00155733491307203	0.00427738982660971	-0.00314269608582634	0.000268762642211642	-0.00314238839776855	0.000261890964411609	0.00165592642907026	0.0116335802484991
2.4	0.00286057874891481	0.00343321922599404	-0.00307054470007711	0.000706181724671394	-0.00307307775893534	0.00070192915074357	0.00245934479363306	0.0112710622704586
2.5	0.00357272663676307	0.00220843995364047	-0.00293439790851276	0.00111699680129412	-0.00294527689675087	0.00112335314365993	0.00308909861387709	0.0108629248986845
2.6	0.00415211758677298	0.00130079109593204	-0.00276196450957975	0.00151987895048695	-0.0027583969835489	0.00150757761401971	0.00395328074467934	0.0106123668792391
2.7	0.00480949708263854	0.00014176801675295	-0.00251677073146894	0.00189111588019346	-0.00252204375729493	0.00189112037377502	0.00476190428553613	0.0100454325651871
2.8	0.00538865065594372	-0.00125731251649002	-0.00223466754473648	0.00221826520568174	-0.00222687691781193	0.00222805211896973	0.00538913314258518	0.00953588724610407
2.9	0.00578741529361955	-0.00300631717800828	-0.00190156161765946	0.00251813193147175	-0.00189785670468751	0.00251771104707011	0.00614354983830068	0.00913311007567815
3	0.00553861856931414	-0.00487362638315188	-0.0015166991239632	0.00275440103798831	-0.00153147502029555	0.0027604710702008	0.00695925836299891	0.0087947100194901
3.1	0.0052140027347891	-0.00655288648635273	-0.00112646444630122	0.00293203900759481	-0.0011218239236556	0.00294038028543192	0.00798017676765393	0.00828988036128793
3.2	0.00437118584370254	-0.00844558658953704	-0.000706688708094689	0.00306928585380197	-0.000708430528616786	0.00306867314416882	0.00863264780215266	0.0075953161840534
3.3	0.0030114229769702	-0.0102916313597634	-0.000269154597966491	0.00313968053472151	-0.000267501107511239	0.00313594649281728	0.00927547062091177	0.00686020709758878
3.4	0.00107502767233814	-0.011871311164326	0.00017708178129664	0.00313476464722102	0.000170851985710633	0.0031513067741578	0.00985876829682282	0.00591156161169534
3.5	-0.00152595291007347	-0.012981428247918	0.000599299564268526	0.00309265147857128	0.000604891947985127	0.00309273563430998	0.0100416776512269	0.00483993845082067
3.6	-0.00408324588466047	-0.0131645933382352	0.00102710604263223	0.00297361560565048	0.0010352923868324	0.00297331215865932	0.0102804256892916	0.00402986768801358
3.7	-0.00654747463777452	-0.0130659344473605	0.00143731803164553	0.00279389600628273	0.00142771203726031	0.00280754567910074	0.0104746415615678	0.00310291624144308
3.8	-0.00904926176926374	-0.0125205081482344	0.00181576121317869	0.00256799437196212	0.00181814682492585	0.00257714511973792	0.0105143182472417	0.00222914087738523
3.9	-0.0114162961260412	-0.0115985440632685	0.00216234363875527	0.00229566550648024	0.00215508347448531	0.00229387311449011	0.010451832950415	0.00142789759103776
4	-0.0139315431065404	-0.0101192468703541	0.00244703435017475	0.00197474694645785	0.00245148597984316	0.0019723220799559	0.010341915032974	0.000915142050175158
4.1	-0.0157657122541251	-0.00782197003030186	0.00269961473130242	0.00161652957096371	0.00269836072505946	0.00161726242345822	0.0107431459723787	0.000498706737585101
4.2	-0.0170647894643633	-0.0054464748076335	0.00290044217518241	0.00121600497582813	0.00290492813279418	0.00120729825268119	0.0111143970752217	-0.000267372944959899
4.3	-0.0179639661224054	-0.00299873323019543	0.00304481050003462	0.000804002831371248	0.00305125193204334	0.000796211976815044	0.0113484168401065	-0.00120053957576591
4.4	-0.0185740314968299	-0.000494491535689807	0.00312205132805616	0.000369806470332604	0.00312443136162076	0.00036755447085167	0.011353253546318	-0.00214919573446223
4.5	-0.0191476130150098	0.00222362602082111	0.00314613860587758	-6.7429933667328E-05	0.00315150984704678	-7.07914932027711E-05	0.0112139273404584	-0.00293721148675835
4.6	-0.0189686761877496	0.00546920632330728	0.00310432304469759	-0.000511235820851476	0.00310552278525122	-0.000498308077639602	0.0113152990536158	-0.00374587130672214
4.7	-0.017954128214764	0.00844145641760265	0.00299999059398086	-0.000931306486578457	0.00301531199341229	-0.000940900241205303	0.0111787793490997	-0.00484721188147406
4.8	-0.0164566230021198	0.01110990805233	0.00283962733303065	-0.0013463506596826	0.00284812702690971	-0.00135242845759229	0.0108011811888838	-0.00584332338227619
4.9	-0.014324835132059	0.0133143615303316	0.0026197867165684	-0.00173130253613955	0.00262395146980128	-0.00172838557920347	0.0103680988231581	-0.00666602374968805
5	-0.0121021968127135	0.0150831968575297	0.0023613249323699	-0.00208845414546838	0.00236494688982184	-0.00208577856692878	0.0100704508711464	-0.00723172592291239
5.1	-0.00897218952246707	0.0166317031943696	0.00204971585918539	-0.00240087397486825	0.0020520177400126	-0.00239951049502849	0.0101650586605562	-0.00794335484071163
5.2	-0.00566559450391189	0.0170971776003488	0.00169177990122248	-0.00265163792895479	0.00169350360362097	-0.00265678527985724	0.0100031478211308	-0.00887073481679458
5.3	-0.00251696497386229	0.0168336219157425	0.00130493455800634	-0.00286821589244829	0.00130806849774471	-0.00286614529620235	0.00970116149921864	-0.00962303138174835
5.4	0.00027308468608229	0.0159338137514275	0.000879620082482598	-0.00301731814302666	0.000896830879556135	-0.00302852053158346	0.00940459364920363	-0.0105010569943587
5.5	0.00228845622508428	0.014926573294205	0.000464116588981871	-0.00311628920046212	0.000474196910531785	-0.00312572382211312	0.00878404170684561	-0.011330198903562
5.6	0.00463879347745151	0.0140089969393701	2.48970447634853E-05	-0.00315209981658438	1.63615243988641E-05	-0.00315533212592838	0.00821559901464979	-0.0120744529921922
5.7	0.0067520984467818	0.0123359699803417	-0.000406800920997005	-0.00312229076791466	-0.0004234374843391	-0.00312597443979525	0.00722151066330267	-0.0127669414632357
5.8	0.00839495607171993	0.0102398857268407	-0.000854033202239386	-0.00302796492235951	-0.000857562768527343	-0.00304198269836659	0.00609576762867188	-0.0132915565537478
5.9	0.00948842411704457	0.00776426066044933	-0.00126065045303635	-0.00288790183266091	-0.00126889668559271	-0.00288782492038717	0.00482012795691958	-0.0135865055247934
6	0.00939249567212989	0.00507711180454783	-0.0016594903384091	-0.00268047859454628	-0.00165592333062158	-0.00268064379786544	0.00333015528553537	-0.0133756356804073
6.1	0.00904263996243608	0.00320966833295287	-0.00201516989619902	-0.00242652073278126	-0.00201681476060983	-0.00242251021483156	0.00271860432531418	-0.0126986779711674
6.2	0.00861646065964603	0.00108347613953395	-0.00232950558275936	-0.00211286051388941	-0.00233321747724094	-0.00212475653005998	0.00250846616792496	-0.0126326512675349
6.3	0.00782777469597749	-0.00111858418588618	-0.00260837669987244	-0.00177723044021027	-0.00261752413365543	-0.00177148111494027	0.00225052991467037	-0.0130422401475134
6.4	0.00645814098501013	-0.00341977614363185	-0.00283493356997487	-0.00138516485255726	-0.00282519087786526	-0.00139007731983555	0.00178786787061786	-0.0136699370431537
6.5	0.00425638297446422	-0.00505341447111603	-0.00299171868291684	-0.000980102172449576	-0.00299959593414734	-0.000975613213765471	0.00117069519826347	-0.0141433720802535
6.6	0.0024864820283547	-0.00589514759159018	-0.00310139536062868	-0.000553515354566655	-0.00310303293464246	-0.000557501126514945	0.000772812595870773	-0.0148179155551486
6.7	0.000509277612040648	-0.00662625829561496	-0.00315196252870323	-0.000113712916984382	-0.00316083406804575	-0.000107416063095389	-0.000306664547925624	-0.0154168320980914
6.8	-0.00166118685543938	-0.00682374768541647	-0.00312991482617465	0.000329218850315219	-0.00314102954829749	0.000334284282629124	-0.00155395215481844	-0.0155023226277689
6.9	-0.00394072743387569	-0.00665956913060321	-0.00305418339271701	0.00076346981833586	-0.003057175640787	0.00076586737422358	-0.00267988332958078	-0.0153446363620005
7	-0.00668436333924865	-0.00560203295033587	-0.00291788039170777	0.001186136696889	-0.00293074477479554	0.00118394493149361	-0.00378003826318244	-0.0148792278894969
7.1	-0.00840445481846254	-0.00341136786449374	-0.00273816837815369	0.00157689847433843	-0.00273448418890689	0.00158558044465205	-0.00438503999943912	-0.0143899351142946
7.2	-0.00949672795283765	-0.00136136670141465	-0.00248005777474272	0.0019453219838122	-0.0024865991043726	0.00194741494295656	-0.00514483681872848	-0.0140741847394338
7.3	-0.0102737524628725	0.000768692610664783	-0.00218345773289268	0.00226477293289567	-0.00219468833081003	0.00226985390884977	-0.00586798438811425	-0.0136828066216967
7.4	-0.0106911840248222	0.00274353540217053	-0.00184076993365121	0.00254876068869282	-0.00184764783400842	0.00256241196335626	-0.00666806022599146	-0.0134138069574242
7.5	-0.0114385919626769	0.00469489829067466	-0.00147244182542745	0.00278859153771137	-0.00146541816730654	0.00279598906195086	-0.00753025878887359	-0.0128518525555345
7.6	-0.0112323750051166	0.00756232226248634	-0.00106480513893329	0.00296560669213314	-0.00106619210504546	0.00296090386494791	-0.00759104852659556	-0.0122016664820059
7.7	-0.0102520439914781	0.00982499322308217	-0.000635615252261563	0.00308648146811592	-0.0006369600554856	0.00308542054148889	-0.00777710840187586	-0.0125738379664744
7.8	-0.00865305062967905	0.0115562905549093	-0.000208587041742273	0.00313518171639038	-0.000216394817619084	0.00314166848428113	-0.00832224120415535	-0.0128710248155535
7.9	-0.00680122986058755	0.012677413188864	0.000234419239537099	0.00314119560235463	0.000242378722324997	0.00314267663489957	-0.00902689042125749	-0.0129402262630871
8	-0.0050547670415571	0.0139367180203131	0.000676689301686694	0.00306636990443852	0.000676783702190966	0.00307127562005172	-0.00984603736981471	-0.0126983644738855
8.1	-0.00209191024990495	0.0149565770815947	0.00108702120178197	0.00294799601604661	0.00110619704583074	0.00294903713186805	-0.0103011066598917	-0.012570121252785
8.2	0.000912961968413939	0.0148727761553223	0.00149254464982324	0.00276575055309422	0.00150178496976752	0.00275852113954695	-0.0111016359219132	-0.0123521155311383
8.3	0.00372215098036807	0.0140880648947082	0.00186928997012446	0.00252460493155526	0.0018676843198207	0.00253817644598921	-0.0118574253376773	-0.0119113385372347
8.4	0.00614156051576208	0.0126032367620544	0.00220424262681281	0.00224456825254053	0.00220120896742606	0.00224435290318035	-0.0126191496690993	-0.0114674995270839
8.5	0.00752794879322031	0.0109453168223927	0.00248856455989181	0.00191339008681544	0.00248767576082521	0.00191657863102291	-0.0135512004599118	-0.0106792049639051
8.6	0.00929286013389521	0.00969601374769031	0.00273486007847731	0.00155150363458821	0.00274434750988261	0.00154492703150844	-0.0139230805431751	-0.00993770476290318
8.7	0.0109960167219827	0.00756558635641896	0.00291906857878947	0.00114689854846097	0.00292463415880858	0.0011476033142127	-0.0145610676963268	-0.00947567078344299
8.8	0.0122100181425971	0.00492898543772367	0.00305351547886628	0.000735022391632338	0.00305925594444823	0.000726240566954206	-0.015437693279073	-0.00887770431411915
8.9	0.0128762476879466	0.0016703309195804	0.0031289329434432	0.000301178410666413	0.00312805468183253	0.000298933946612521	-0.0161607839044386	-0.00788850553025781
9	0.0121969340641835	-0.00175419526358349	0.00313814554706121	-0.000142510588396624	0.00314131710414279	-0.000138418690467459	-0.0165630114008762	-0.00643852186426949
9.1	0.0112936449999159	-0.00460760877405865	0.00308913867112898	-0.00058483789302643	0.00309207058111156	-0.000571953377330917	-0.0160381450976497	-0.0051388132599282
9.2	0.0097202827846259	-0.0076777069381318	0.0029772316623921	-0.00100150844790341	0.00298487479053771	-0.00100441150046702	-0.015497229412439	-0.004408941801621
9.3	0.00729540137203565	-0.0103919395151675	0.00280698021060475	-0.00140555619461372	0.00280623224742834	-0.00141054051998362	-0.0149407432063497	-0.0038330505694752
9.4	0.00411212341568905	-0.0126253206775615	0.00258336139217694	-0.00179491230831994	0.00258989504520716	-0.00178734339445626	-0.0144868026884837	-0.00352607671275251
9.5	-5.17209330315776E-05	-0.0134938192329791	0.00230565408335204	-0.00212841963916769	0.00231305239751325	-0.00212979489052577	-0.0142322202846521	-0.00299753100250934
9.6	-0.00358557268314429	-0.0131433502920331	0.00198739959142695	-0.0024287771526479	0.00198773245637078	-0.00242779807458136	-0.0139407134259553	-0.00286108913814505
9.7	-0.0070166452945143	-0.0124266484026856	0.00162039554110989	-0.00267711495818921	0.0016258947052293	-0.002684425920955	-0.0141734682624382	-0.0026780301022412
9.8	-0.0103724597444421	-0.0110870928067556	0.00123551551208753	-0.00288423428139889	0.00124122964179699	-0.0028757725761496	-0.014554284334231	-0.00216038764136304
9.9	-0.0135537319308855	-0.00919622033085788	0.000830030710619377	-0.00302158845684062	0.000822720949211545	-0.00302034048233736	-0.0150341367422526	-0.00132260068992431
10	-0.0170225666556627	-0.00639787766988904	0.000400944166441682	-0.00310738897583654	0.000393439805077379	-0.00311977134878932	-0.0153271240226251	-5.73644361064902E-05
10.1	-0.0191725421292218	-0.0022705176827536	-3.86423525166758E-05	-0.00313783253380695	-4.88294937418447E-05	-0.00313243038777354	-0.0148239785103333	0.00100172135028944
10.2	-0.0202344013973452	0.00183014967662556	-0.000483295310903392	-0.00310011310476707	-0.000486685104781492	-0.00309733443860377	-0.0143803110794042	0.00169987707468223
10.3	-0.0204682669227026	0.00597125456688626	-0.000914036249353697	-0.00299326636544618	-0.00090599249708172	-0.00300232848060235	-0.0139172545015752	0.00235390875222665
10.4	-0.0199811527038336	0.00983425135089864	-0.00130875108623856	-0.00283747506487033	-0.00130707410818675	-0.00284365202833567	-0.0132924908598269	0.0028255041019586
10.5	-0.0194139157506634	0.0139670637343533	-0.0016968846384136	-0.00263978830036161	-0.00169377448035198	-0.0026268378865013	-0.0126272075484405	0.00343870003539306
10.6	-0.0173339015606429	0.0184879372829333	-0.00204870552966656	-0.00237066030382282	-0.0020465316008656	-0.00237447364281545	-0.011520014037903	0.00359954266771263
10.7	-0.0142607782466723	0.0223681908626197	-0.00236196283778492	-0.00206874362391144	-0.00235847295121802	-0.00206348603788761	-0.0107434459316563	0.00345978439625529
10.8	-0.0104001549624723	0.0256018051447336	-0.00262861054740836	-0.00170972960572169	-0.00262344140012067	-0.00171862842915166	-0.0102559438074387	0.0031809723571647
10.9	-0.00585064178927869	0.027829495757784	-0.00283467163888826	-0.00133788448520839	-0.00283983904090911	-0.00133715237689464	-0.0100509548407249	0.00302201939981882
11	-0.00143930653783129	0.0295208832322356	-0.00299396807918612	-0.00092348334107917	-0.00299880001094356	-0.000930197180253982	-0.00993962899913361	0.00325454262088291
11.1	0.00414799857373644	0.0308002614508795	-0.00310074515149719	-0.000499441082053717	-0.00308992493396315	-0.000496600411325076	-0.0093240343102315	0.00323754239061938
11.2	0.0101462523810487	0.0303985781358968	-0.00312898427840746	-6.44770698332864E-05	-0.00313611009909383	-6.92912690544972E-05	-0.00897886026814373	0.00301319426588501
11.3	0.0160760210764424	0.0284866348700574	-0.00310231715710086	0.000381222313981652	-0.00311381203331747	0.00037122601296296	-0.00859036772913065	0.00292500441504938
11.4	0.0213031624912666	0.0251822371118186	-0.00302986596501541	0.000806793145098686	-0.00302497255200014	0.000814330903459958	-0.00831471762461506	0.00279434712670017
11.5	0.0251398101672661	0.021193823408238	-0.00288658751749919	0.00122126780398146	-0.00288935468154711	0.00123150215544844	-0.00817533604953843	0.0027783602273118
11.6	0.0289145717397899	0.0168778144006249	-0.00269307078025385	0.0016080952475171	-0.00269305354621917	0.00161102246056208	-0.00760307805319539	0.00241931120445448
11.7	0.0319164040981646	0.0113790321062	-0.00243445679654238	0.00196070992183029	-0.0024350268662493	0.00196927745993352	-0.00741390566002866	0.00182898584423642
11.8	0.0337257017948433	0.00518478660299703	-0.00214175156768944	0.00229180974539677	-0.00214585196494024	0.00229349618294256	-0.00736826617965232	0.00150128954760978
11.9	0.0340729659273522	-0.0015191980552543	-0.00179442252129331	0.00256749847397805	-0.0018073964913595	0.00257177183461618	-0.00729613063708199	0.00168409821349139
12	0.0323364662151028	-0.00758651453169312	-0.00142350346031561	0.00278847273737	-0.0014229126232116	0.00278987922289387	-0.00688685786495937	0.00208559050338132
