# GHZ S RI R 50
0.2	0.00604535258269052	0.00110787525200029	0.00304820436353483	-0.0008982002106144	0.00305857346898121	-0.000891392397631149	-0.0138675768502424	0.00479621990849111
0.3	0.00638657724854628	-0.000825619729323284	0.00290378875090556	-0.00132163073747218	0.00289654460516517	-0.00130869194882452	-0.0130513884492025	0.00501157350888948
0.4	0.00610756007831634	-0.00251636326244335	0.00267198730282757	-0.00169325833430123	0.00267725296002814	-0.00170181857488732	-0.0125823555080075	0.00550610104151361
0.5	0.0053810506356982	-0.00382280948447677	0.00241322223561282	-0.00204982443670969	0.00242475706284603	-0.00206206405368657	-0.0121518262446705	0.00621777842038916
0.6	0.00446038594423228	-0.00499255927132273	0.00210047911621595	-0.00236431973408763	0.00209969152072588	-0.0023714680320839	-0.0116054909936603	0.00677237130644045
0.7	0.0030801854233771	-0.00576696650784979	0.00175322714475799	-0.00264178403243093	0.00175127155109844	-0.0026419824793868	-0.0113089774287906	0.00735747469362904
0.8	0.00166346941981513	-0.00613064353774582	0.00136787269919678	-0.00285890076609721	0.00135527549555825	-0.00286344672002347	-0.0109896613263588	0.00811466834856517
0.9	0.000139504286734303	-0.00612868647474908	0.000950978500130619	-0.00302228742474866	0.000952011764001592	-0.00303298380068183	-0.0106090590019404	0.00885762310406324
1	-0.00139595001959234	-0.00567351538896798	0.000526060620491403	-0.00312562597856892	0.000516201500192445	-0.00312636386980263	-0.0102434103529674	0.00969284637646269
1.1	-0.00258726712095879	-0.00506954678582026	7.06753351085726E-05	-0.00315395525168338	6.7166737373546E-05	-0.00317159795262179	-0.00967198136160417	0.0105913503358516
1.2	-0.0038737500467063	-0.00464365807912826	-0.000371082008782117	-0.00314326294441187	-0.000371893201090728	-0.00314118730500287	-0.00882344016727404	0.0113633763367195
1.3	-0.00523019805345643	-0.00429355309900464	-0.000797942600504537	-0.00306005342657654	-0.000801181466965145	-0.00306205744912574	-0.00735737545536897	0.0119649666764352
1.4	-0.00644421593470481	-0.00385414144881393	-0.00121906042735508	-0.00291177818007541	-0.00121784857520346	-0.00291730906433246	-0.00570016742427533	0.0118079793796138
1.5	-0.0069771913321017	-0.00271973884467319	-0.00161945467758446	-0.00271567404231736	-0.00161784438303298	-0.0027241697975426	-0.00435422402228979	0.0114721421083238
1.6	-0.00695022917936116	-0.00133223833465146	-0.00197951530484491	-0.00246374228719867	-0.00197972590389112	-0.00246897386905728	-0.00371672607693582	0.0113759421999295
1.7	-0.00648420417497473	0.000251826140119644	-0.00230790625291201	-0.00216717547357356	-0.00230887172154919	-0.00216091695634669	-0.00308315376137544	0.0116585385562184
1.8	-0.00560553723923179	0.00179397584767104	-0.00257885040197287	-0.00181584837525671	-0.00258981087004347	-0.00182148274018096	-0.00235493034618207	0.0118932043071432
1.9	-0.00443602572421022	0.0030042433024571	-0.00280395595142439	-0.0014452876924889	-0.00281638934326289	-0.00143913837888958	-0.0016965281239949	0.01207747464801
2	-0.00292412683271271	0.00399249676059933	-0.00297945438524379	-0.00103829891549058	-0.00298907197891037	-0.00103359491591002	-0.00102391716808414	0.012443809533153
2.1	-0.00125006071843859	0.00417641233487651	-0.00309338844870079	-0.000610022795786697	-0.00308930657760079	-0.000612013177822819	-8.86740021787271E-05	0.0125331757873383
2.2	0.000133834474997836	0.00409075237823654	-0.00315068155442672	-0.000171736782032866	-0.00316197983365337	-0.000174572255095544	0.00089240312901332	0.0124975404145295
2.3	0.00141471244927383	0.00365246469573098	-0.0031459098061173	0.000271451654130221	-0.00314560702375675	0.00026457226655918	0.00183560913590331	0.012201152178836
2.4	0.00245081670266006	0.00301763691937314	-0.00307351402668148	0.000709406974071746	-0.00307605333738056	0.000705151510588558	0.0026409348616542	0.0118242337260227
2.5	0.00340054443864481	0.002375568296408	-0.00293686919216976	0.00112178848887237	-0.00294775480332024	0.00112816542804725	0.00337757443389684	0.0114955092412011
2.6	0.00451712388020801	0.00126259938119246	-0.00276237635919904	0.00152490440779417	-0.0027588220884794	0.00151258745164282	0.00430444371477689	0.011006256523518
2.7	0.00532167980216471	-0.000185204688080007	-0.00251632116607404	0.00189573553777129	-0.00252159823260111	0.00189574667334314	0.00501503437211661	0.0103560162756889
2.8	0.00587735745875001	-0.00188661563135774	-0.00223350657256871	0.00222284386655101	-0.00222569736095681	0.00223262818125538	0.00554099908681832	0.00977761845082543
2.9	0.00609641064007013	-0.00371679217356604	-0.0018993046728653	0.00252285904392936	-0.00189559754783546	0.00252243237838031	0.00612361985284828	0.00939916894851467
3	0.00608054877122071	-0.00555543509426481	-0.00151248012253063	0.00275802854005074	-0.00152725087577192	0.00276412636708064	0.00692504461015887	0.00918161568265666
3.1	0.00566483939719193	-0.00774856914400277	-0.00112257223360095	0.00293409376696875	-0.00111791933385179	0.00294242997498076	0.00777069801712069	0.00866351883328184
3.2	0.0044664083291768	-0.00974738342363906	-0.000702647943156118	0.00307101663920774	-0.000704391036632226	0.0030704061702949	0.00832185512913003	0.00820727296630989
3.3	0.00282604307661352	-0.011543797143698	-0.000264562068585418	0.00314072043225134	-0.000262913767626452	0.00313698317984681	0.00899663163661077	0.00765914241835659
3.4	0.000644751526608753	-0.0128802091208685	0.000182101053134049	0.00313441964560399	0.000175897884229414	0.00315097143102569	0.00961758042743749	0.0068623644804894
3.5	-0.00163905715893746	-0.0136697943401828	0.000602992939688603	0.00309086483394301	0.000608583562885764	0.00309094192124597	0.0100167433649442	0.00594231464652703
3.6	-0.0041627852462705	-0.0143282905747511	0.00103054384136293	0.00297246500760341	0.00103872992651725	0.00297215212431325	0.010278897073134	0.00498526188713758
3.7	-0.0070641361775963	-0.0142718484016789	0.00144107616484143	0.00279193342745446	0.00143148866840426	0.00280559594952748	0.0104394288999291	0.00414069297033962
3.8	-0.00992531628124712	-0.0134447075176425	0.0018190637662355	0.00256500603288003	0.00182146183890771	0.00257415187484998	0.0105285245796717	0.00332350721116476
3.9	-0.0124374912019872	-0.0119028887406239	0.00216448113652869	0.00229214312557695	0.00215722124408436	0.00229036049975386	0.0104923429143701	0.00258588458904299
4	-0.0141977544616327	-0.00981027989944397	0.00244904153948596	0.00197221319677	0.00245349063518202	0.00196978377678563	0.0106262429742442	0.00214888572017257
4.1	-0.0154937321535935	-0.00804543237680913	0.00270215914995059	0.00161245289778637	0.00270090622742164	0.00161318768574219	0.0110328234360821	0.00145990008828514
4.2	-0.0168454958374353	-0.00596920183557936	0.00290161429111259	0.00121100952049861	0.00290608502707423	0.00120229793427165	0.0113027960221585	0.00068284535282994
4.3	-0.0178713730130344	-0.00360519248807269	0.003044738874062	0.000799007084779629	0.00305116565124013	0.000791209714482845	0.0115026398397464	-0.00025074304346368
4.4	-0.0186118956895492	-0.000905327669955019	0.00312143397719921	0.000365235239558483	0.00312380993990767	0.000362980682798813	0.0114279168857712	-0.00118940467169725
4.5	-0.0185983514548114	0.00218747831076873	0.00314529848443356	-7.33334648543981E-05	0.0031506621837905	-7.67043671686534E-05	0.0113792159266628	-0.00189879548983471
4.6	-0.0179973835097394	0.00471979394223673	0.00310054024654883	-0.000516948268283008	0.00310176460449261	-0.000504034431854135	0.0113380412540248	-0.00291896102807842
4.7	-0.0171717503624642	0.00726527590180023	0.00299507851794886	-0.000935460947573504	0.00301036647779983	-0.000945070592035548	0.010999836366787	-0.00389188009687693
4.8	-0.0159336320397392	0.00970493548732814	0.00283422484952931	-0.0013493797510226	0.00284270508072264	-0.00135546428035517	0.0105731163278229	-0.00474055270500163
4.9	-0.0141257279622046	0.0119603526536565	0.00261381785248423	-0.00173382262865218	0.00261798285395721	-0.00173091615987395	0.0101122606092408	-0.00542088411312139
5	-0.0115793134045191	0.0138768314428282	0.00235319362245722	-0.00208927654425552	0.00235681430281702	-0.00208661257012765	0.0100027864805988	-0.00584496897978778
5.1	-0.00867933643147167	0.0147524796895485	0.0020426609197393	-0.00239865323939443	0.00204495992351328	-0.00239729532853498	0.0100267170473128	-0.00666118612671932
5.2	-0.00600335704915373	0.0153008551266492	0.00168581906859348	-0.00264855996900264	0.00168753407761301	-0.00265369967334437	0.00985454882237643	-0.00740840856817593
5.3	-0.00314234143215995	0.0154815645734211	0.00129940991085274	-0.0028642246598127	0.00130254018032601	-0.00286216131152916	0.00968488506255606	-0.00806043163037547
5.4	-0.000272442477459734	0.0151785942644239	0.000874452714953195	-0.00301169254847781	0.000891613947255013	-0.0030228890763033	0.0094873987249617	-0.00890178076638525
5.5	0.00278307878823502	0.0143934063316547	0.000461749236823528	-0.00310852969336726	0.000471800298518104	-0.00311794412298802	0.00917595776590613	-0.00976191167739131
5.6	0.00519192777177011	0.0123515632465882	2.45434950125841E-05	-0.0031458680050449	1.60245439913414E-05	-0.00314909309750447	0.00839847994208278	-0.0108377391664948
5.7	0.00660061844986271	0.0104073022974887	-0.000406653101317681	-0.00311622506801199	-0.000423258528760428	-0.0031198983145104	0.00724790176796975	-0.0113695352900945
5.8	0.00760589759284862	0.00850319174410302	-0.00085271262477653	-0.00302170049085806	-0.000856236938858646	-0.0030356893239459	0.00618211348136037	-0.0118084243272399
5.9	0.00809905895335237	0.00677852002728585	-0.00125732572714054	-0.00288192827388924	-0.00126555416803138	-0.002881853247612	0.00490382973942207	-0.0121186705971852
6	0.00870415043923897	0.00550563028149629	-0.00165530092585806	-0.00267735895107478	-0.00165173931405054	-0.0026775217275746	0.0036126546530561	-0.0118212747271659
6.1	0.00949399232747965	0.00326065867305991	-0.0020121983928494	-0.00242314302274094	-0.00201384107518859	-0.00241913828925589	0.00290387097261854	-0.0115973186203842
6.2	0.00937305547564525	0.000686787037150797	-0.00232541246958301	-0.00210939123576381	-0.00232911735367934	-0.0021212671802283	0.00235309360152901	-0.0115247197155295
6.3	0.00862441420867291	-0.00196285045769918	-0.00260323989789919	-0.00177477628612116	-0.00261237259832441	-0.00176903971534843	0.00191037929197968	-0.0118182361880478
6.4	0.00705766887627423	-0.00432152923051894	-0.00282978866402735	-0.00138449855330429	-0.00282005856437248	-0.00138939824238188	0.0013016241061776	-0.0122173529535647
6.5	0.00554964082937636	-0.00613468026083703	-0.00298792781863292	-0.000978842508205052	-0.00299579505063399	-0.000974359203214881	0.000904804451373399	-0.0124919126602262
6.6	0.00328811391740462	-0.008003546153013	-0.00309524005310373	-0.000552486472778424	-0.00309687429672472	-0.000556464385298161	0.000333992951711162	-0.0130779876648648
6.7	0.000683990598076364	-0.00868287106233011	-0.00314544466749446	-0.000114955244865954	-0.00315430095933991	-0.000108675458797092	-0.0005449826037597	-0.0133147420796747
6.8	-0.0018034842592307	-0.0087011700300067	-0.0031242656564078	0.000326412645972759	-0.0031353630412675	0.00033146079417909	-0.00149902530788024	-0.0133671139158654
6.9	-0.00431541968968534	-0.00800940445230511	-0.00304955173328091	0.000760450311643365	-0.00305254039015283	0.000762842171153226	-0.00255705183074585	-0.0132095607285602
7	-0.00589102844266785	-0.0065121390789817	-0.00291161371049487	0.00118236389490074	-0.00292444779057798	0.00118017252167136	-0.00327307137611743	-0.0126968048505374
7.1	-0.00748223106354119	-0.0057753515604586	-0.00273361881409218	0.00156980732264715	-0.00272995399377085	0.00157847325433349	-0.00404593316068871	-0.0125752372294553
7.2	-0.00946084448096011	-0.00421402754145072	-0.00247790256350684	0.00193783497051425	-0.00248443381276934	0.00193991427028352	-0.00487178306874541	-0.0120521925519283
7.3	-0.0111628829173754	-0.00207389285352862	-0.00218267892063731	0.00225741191126371	-0.0021938960168973	0.00226246721803161	-0.00535910220576922	-0.0115994165336466
7.4	-0.0126538389859975	0.000598682489694594	-0.00184060131851764	0.00254089030156332	-0.00184748445968555	0.00255450366211434	-0.00598601387095785	-0.0114348515765248
7.5	-0.013044271918466	0.00426316907553183	-0.00147558716186105	0.00277878753404556	-0.00146859680585705	0.0027861845568983	-0.00644384137530478	-0.010980286652078
7.6	-0.0120992401653865	0.00689351332364927	-0.00107101825442125	0.00295878023914794	-0.00107239114613735	0.00295408027807923	-0.0065877799177498	-0.011214560302324
7.7	-0.0111277251765524	0.00930423791441531	-0.000642236734836479	0.00308148234333244	-0.000643577495576552	0.00308041941755764	-0.00722892757254784	-0.0117709776361511
7.8	-0.0093030942692594	0.0113428330283186	-0.000215866236392334	0.00313121791057636	-0.000223680922863066	0.00313767880911536	-0.00815912731966873	-0.0120555733621328
7.9	-0.00691703685457826	0.012947783229345	0.000225464635757475	0.00313842024056878	0.000233411339583446	0.0031399217010115	-0.00919531470971319	-0.0118704438963773
8	-0.00339955873870948	0.0138166205067398	0.000667019174570413	0.00306822154120707	0.000667098191140229	0.0030731271219311	-0.00990440971490539	-0.011372205681859
8.1	-0.000586056447200403	0.0131071984302437	0.00108038856423177	0.00295108481948189	0.00109956567486639	0.00295217063654109	-0.010787155377205	-0.0111889065271355
8.2	0.00168202754493618	0.0125298343329621	0.00148642109925201	0.00276906704821078	0.0014956774693977	0.00276185808585711	-0.0116286778858565	-0.0104882512891169
8.3	0.00389814460670728	0.0116912228197643	0.00186338978616669	0.00252912951559503	0.00186175195335932	0.00254269777145413	-0.012241124297382	-0.00980344888287345
8.4	0.00583233796686891	0.0107288856031584	0.00219955634169026	0.00225131479080751	0.00219652175933147	0.00225109155400037	-0.0129749997058464	-0.00918256549421478
8.5	0.00833861914523109	0.00963338552213196	0.0024876945654182	0.0019195927468746	0.002486799357864	0.00192278288838284	-0.0135149096659037	-0.00817967223712779
8.6	0.0102622232771913	0.00687307909725788	0.00273308606091763	0.00155639788846511	0.00274258685806646	0.00154983494746588	-0.0139972693919751	-0.00769018390072131
8.7	0.0109996976723548	0.0041807979204875	0.00291779968887349	0.00115300760797227	0.00292336575552468	0.00115372352388163	-0.0146407138132044	-0.00694597148985233
8.8	0.0111703858062278	0.00159308233115184	0.00305398363153057	0.000741670659035278	0.003059745539463	0.000732894824934245	-0.015241582965158	-0.00623834405902712
8.9	0.0108014204516039	-0.000806517433954609	0.00313147138264732	0.000306628437330447	0.00313059596906131	0.000304380348470675	-0.0157742749761295	-0.00533838809074784
9	0.010672199813792	-0.00279668222678667	0.00313895499526905	-0.000138609941504252	0.00314212206656302	-0.000134513249653234	-0.015816021771204	-0.0040017438175451
9.1	0.010209892303373	-0.00580356869512478	0.00309116808268629	-0.000578399159029243	0.00309407326205204	-0.000565505128482741	-0.0155038235249975	-0.00318892646470994
9.2	0.00877409420063362	-0.0084786321979865	0.00298172541383803	-0.000995800835534571	0.00298938080148134	-0.000998689493387839	-0.0151836181250978	-0.00237487628849412
9.3	0.00689657451333993	-0.0109180340291939	0.00281257571464616	-0.00140155399264153	0.00281183664614749	-0.00140654486648802	-0.0146357950629657	-0.00174505613440571
9.4	0.00430313187262896	-0.0129637523768614	0.00258836618128865	-0.00179210103418541	0.00259489261310096	-0.00178451536419721	-0.0142798405570671	-0.00140649572494477
9.5	0.00168171197356926	-0.014225040572752	0.00231232350150224	-0.00212383101874674	0.0023197294916675	-0.00212518843821784	-0.0138547314613625	-0.00092736628751534
9.6	-0.00202253699962778	-0.0157303791179694	0.00199672427923261	-0.00242777928873306	0.00199705523964102	-0.00242679777664861	-0.0140151628242116	-0.000904458553793975
9.7	-0.00642673644980246	-0.0155807632719225	0.00162882693901778	-0.00267874889662399	0.00163435110647786	-0.00268606213610988	-0.014322140685445	-0.000324609567833668
9.8	-0.0106849495785274	-0.014243067942919	0.00124304658915581	-0.00288709319768164	0.00124875527203612	-0.00287860585133617	-0.014507292084786	0.000350578479127837
9.9	-0.0146768951546491	-0.0115657524309318	0.000837868075380161	-0.00302496672208692	0.000830543218543952	-0.00302373216567659	-0.0148717671199877	0.00117213868672005
10	-0.0171912519617349	-0.00775840464199867	0.000409456465613307	-0.00311517527752477	0.000401960425511601	-0.00312761030860198	-0.0147995595942946	0.00241504965255035
10.1	-0.0190521731853447	-0.00460274070490261	-3.4721814126317E-05	-0.00314726166362322	-4.49463548855646E-05	-0.00314185647299542	-0.0145025667116766	0.00304042555763535
10.2	-0.0207120655290939	-0.000699719073178108	-0.000481269992896906	-0.00310904561749596	-0.000484671976035242	-0.0031062630597574	-0.0142022885771675	0.00379717404815941
10.3	-0.0215449031996598	0.00369226117569529	-0.00091315320607057	-0.00300250998358566	-0.000905077133019374	-0.00301158784112561	-0.0137514876726026	0.00436847102934611
10.4	-0.0215346991994574	0.00857749010389515	-0.00130969101087635	-0.00284835438033626	-0.00130800119941594	-0.00285454966347869	-0.0133545717144446	0.0047511009609543
10.5	-0.0195903020451491	0.0138337798317098	-0.00170353872130088	-0.00264963390699755	-0.00170041566010672	-0.0026366347374776	-0.0127006665834527	0.00540965973548659
10.6	-0.0166661946142233	0.017630015874828	-0.0020554583382026	-0.00237651652561503	-0.00205327982967775	-0.00238034151923159	-0.0120583699580098	0.00554052862363262
10.7	-0.0131864409454014	0.0210664854110195	-0.0023688633306009	-0.00207381590716982	-0.00236536273609453	-0.00206854484529919	-0.0114127341406135	0.00580602800912116
10.8	-0.00916008635480725	0.0236179381228784	-0.00263673083839591	-0.00171382451822395	-0.00263154961270856	-0.00172275063547886	-0.0109143958878772	0.0057769964851325
10.9	-0.00502083861553194	0.02576398017868	-0.00284463488174221	-0.00133938411067302	-0.00284981751617197	-0.00133864497368731	-0.0108431219142448	0.00585034963804008
11	0.000506666044027584	0.0274450174233359	-0.00300112624278382	-0.000920943037217266	-0.00300597729150863	-0.000927662931896887	-0.0103961353612252	0.00644132147911703
11.1	0.00586362295315201	0.0269172373417601	-0.00310686873244826	-0.000498628148392165	-0.00309602652550649	-0.000495788246308639	-0.00992614383373011	0.00645674565158861
11.2	0.0106854427956476	0.0258860439482594	-0.00313609735169312	-6.25780093617087E-05	-0.00314324242152713	-6.73984310832232E-05	-0.00939612237175996	0.00672617726912262
11.3	0.0154004244552034	0.0240661945832898	-0.00310907883817964	0.000385314099809143	-0.00312061058174326	0.000375306642030257	-0.00853282681963822	0.00682618846947017
11.4	0.0195904549961086	0.0216118632883426	-0.00303412483068069	0.000812507677504144	-0.00302921205897515	0.000820051956682867	-0.00786837203544703	0.00665838556066206
11.5	0.0241783003863632	0.0185248247971087	-0.00289003529284272	0.00122403816313853	-0.00289280226881441	0.00123428747396865	-0.00704834054614589	0.00644989942171472
11.6	0.0276795278420682	0.0133714097992739	-0.00269866941615079	0.00161328160063021	-0.0026986506641494	0.00161621577229623	-0.00652909962971511	0.00549365525103959
11.7	0.0296204969989367	0.00823714461827145	-0.00243813367830464	0.00196803281452119	-0.00243869579769177	0.00197662141053924	-0.00632518721045736	0.00472303610218513
11.8	0.0307176093712311	0.00318589063475076	-0.0021431201479686	0.00229939969506151	-0.00214722676698924	0.0023010950834806	-0.00627461990756542	0.00405659908883382
11.9	0.0311989906358013	-0.00146689721567124	-0.00179498565439088	0.00257360203139615	-0.00180797754123978	0.0025778952271466	-0.00646593722806943	0.00397935609797407
12	0.0322583813418681	-0.00631916026373172	-0.00142549945523922	0.00279738202717378	-0.0014249059282899	0.00279879205624748	-0.00591983685389132	0.00421361972237443
