# GHZ S RI R 50
0.2	0.00595884654229214	0.00150333715647837	0.00304661567742667	-0.000898514238893208	0.00305698170730482	-0.000891711948554124	-0.0139487583704513	0.00519038460646315
0.3	0.00630505424008758	-0.000491465487596058	0.00290179701022253	-0.00132171500882744	0.00289456055859087	-0.00130878138290697	-0.0131243895340019	0.00534373230866324
0.4	0.00606640424484818	-0.00227064669227746	0.00266959141733449	-0.00169286271664139	0.00267485078715482	-0.00170141848625619	-0.0126095661121237	0.00574811001643715
0.5	0.00515193362920534	-0.00353949635227968	0.00241085899918504	-0.00204843132360565	0.00242238216950026	-0.00206066219718042	-0.0123583863892796	0.00648926334053283
0.6	0.00445993450888783	-0.00445254071349696	0.00209862011461401	-0.00236266669438335	0.00209783247465765	-0.00236980933576264	-0.0115831387822322	0.00728689422508386
0.7	0.00331221035851895	-0.00531788583644432	0.0017514491104655	-0.00263974619610046	0.00174949514832856	-0.00263994425649719	-0.0110593349266664	0.00777044648646973
0.8	0.00202575550542878	-0.00579489284398262	0.00136641586387716	-0.00285628933240342	0.00135383025450907	-0.00286083026196466	-0.0106185870265734	0.00840650025767336
0.9	0.000637077853435047	-0.00597192754462396	0.00095025770795977	-0.00301915871609638	0.00095129077717282	-0.0030298442041435	-0.0101166546328041	0.00896945690639527
1	-0.00112721295787888	-0.00583206753368417	0.000526210945178799	-0.00312283233410325	0.000516360459023153	-0.00312357149315136	-0.00998610890277016	0.0095060087746417
1.1	-0.00252661450207448	-0.00480969560370728	7.07823829685423E-05	-0.00315109053686681	6.72779252685722E-05	-0.00316871742493483	-0.00960508018932558	0.010826916053843
1.2	-0.00356695627909326	-0.00405803058737821	-0.000370287934785986	-0.00314007152589041	-0.000371098562673392	-0.00313799813223127	-0.00850256770354636	0.0119215549157096
1.3	-0.00460064780022202	-0.00344940777959045	-0.000796321137780271	-0.00305699985617639	-0.000799556052925298	-0.00305900256483146	-0.00670960658080936	0.0127700760308514
1.4	-0.0055034429960838	-0.00304846899432862	-0.00121684568319433	-0.00290930475664566	-0.00121563312940243	-0.00291482972719441	-0.00474688490553665	0.0125608524865424
1.5	-0.00617794075619867	-0.00209226780581474	-0.00161737468410127	-0.00271332031841589	-0.00161576440065831	-0.00272180748356091	-0.00354024417610506	0.0120385065341317
1.6	-0.00602570504115108	-0.000851107269114819	-0.00197632232078952	-0.00246125688946793	-0.00197653111395884	-0.00246648201587367	-0.00279459683358634	0.0117727530843542
1.7	-0.00567156011087997	0.000358462547796357	-0.00230393921190666	-0.0021656161881632	-0.00230490659421475	-0.00215936597935429	-0.00229425885546403	0.0116862204326777
1.8	-0.00499295443369672	0.00167400826810165	-0.00257466432410724	-0.00181522848815083	-0.00258560825775365	-0.00182086271499033	-0.0017756599790765	0.0117054856991071
1.9	-0.00404594154153584	0.00268103252349302	-0.00279980232694669	-0.00144526001144399	-0.00281222477855095	-0.00143912532348629	-0.00134020751564542	0.0117014622216474
2	-0.00302880927337797	0.00371133758239999	-0.00297447324818321	-0.00103878178875272	-0.00298408011203161	-0.00103409095142745	-0.00114553883090212	0.0121177120985797
2.1	-0.00130884603586113	0.00428309087483751	-0.00308848022685884	-0.000612476985748004	-0.00308440185575885	-0.000614460281119584	-0.000154786444839388	0.0125793583830609
2.2	0.000213855965829504	0.00422105312605818	-0.00314666104616226	-0.000175219915895662	-0.00315794230743026	-0.000178065188775954	0.000956921485183577	0.0125557553324099
2.3	0.0015736653958822	0.00375346826002432	-0.00314261616244108	0.000267285036373474	-0.00314230530187459	0.000260413949302969	0.00196466121581394	0.0122278556936825
2.4	0.00267421901528572	0.00297956024470673	-0.00307073419340468	0.000704484209040829	-0.00307326480464752	0.000700230535219163	0.00282146547482834	0.0117242148002737
2.5	0.00329872069424009	0.00216969517709538	-0.00293544443681147	0.00111537243036751	-0.0029463286386764	0.00112172303286006	0.00323563915838744	0.0112553595175116
2.6	0.00427506652302396	0.00143199772051813	-0.00276304319478182	0.00151886106859372	-0.00275946964567861	0.00150655955706537	0.00404618626733559	0.0111443141169813
2.7	0.00518057051638356	0.000173803418753089	-0.00251794803835196	0.0018901470436035	-0.00252322166800478	0.00189014905577027	0.00486951002763477	0.0106725839160338
2.8	0.00587785627305079	-0.00141630970098147	-0.00223614378574551	0.00221746322370373	-0.00222835696620979	0.00222725561886019	0.00553826695015987	0.0101928804923019
2.9	0.00623312216274868	-0.00329325085922585	-0.00190341127563387	0.0025177839312863	-0.00189970515513526	0.00251736491463012	0.00625122309313882	0.00976263301386311
3	0.00609478195623473	-0.00510275604194253	-0.00151817775944696	0.00275481823724376	-0.00153296083658676	0.00276088521088902	0.00694027035144428	0.00957653738968983
3.1	0.00593065683431481	-0.00711372317052661	-0.00112781468215436	0.00293218889215927	-0.00112317644181231	0.0029405336102755	0.00804712410567651	0.00922131899725112
3.2	0.00494901813121316	-0.00924988478590972	-0.000708264441663265	0.00306980007183626	-0.00071000645855961	0.00306918641054824	0.00879500108095671	0.00860671047905474
3.3	0.00341776165323261	-0.0112280881195437	-0.000270606403400011	0.00314070043266464	-0.000268950703854197	0.00313696575299901	0.00955892679513079	0.00787631312015939
3.4	0.00125614010223235	-0.0128332651574877	0.000176157985232881	0.00313615425068822	0.000169920267940465	0.00315270142717668	0.0101854107657274	0.0068262358835349
3.5	-0.00136518372631026	-0.0137391354077229	0.000598630834780243	0.00309356733276454	0.000604224566637775	0.0030936529839234	0.0102611121816037	0.00580446514135988
3.6	-0.00382540819556996	-0.0141581092170322	0.00102614599569163	0.00297505279902333	0.00103433519192843	0.00297475283348684	0.0105868921275379	0.00506757682469566
3.7	-0.0065897252190211	-0.0141822276750543	0.00143689770614058	0.00279567764733165	0.00142728229133946	0.002809329732924	0.0108642990584152	0.00414449315231995
3.8	-0.00940356518621549	-0.0134950268746524	0.00181582899075877	0.00256973076144526	0.00181821295188452	0.00257888646656703	0.0109859894468521	0.00320647050496362
3.9	-0.0119678805725624	-0.0121853670253517	0.00216259081606569	0.00229712787416106	0.00215532827865252	0.00229533288678298	0.0108981697799937	0.00226751923116517
4	-0.0141497478306614	-0.0101335237144151	0.00244712416484911	0.00197674119106422	0.00245157881979767	0.00197431742209362	0.0106364421837744	0.00181709279926867
4.1	-0.0154136259006913	-0.00804631645956859	0.00270088606446747	0.00161856030454516	0.00269963095410479	0.00161929322000205	0.0111116255415198	0.001449528530166
4.2	-0.0166470276432746	-0.0059814332371674	0.00290212254402832	0.00121740192338514	0.00290661325037285	0.00120869032569011	0.0115171101310301	0.000646316771485134
4.3	-0.0176339519819245	-0.00369809436313133	0.00304658930505285	0.000804984849198422	0.00305303599316463	0.000797190132750236	0.0117633309821661	-0.000375470643460612
4.4	-0.0184080496602097	-0.00118381610554009	0.00312392392189081	0.000370701898323789	0.00312630592214691	0.000368448997761206	0.0116584801106212	-0.00149391013197314
4.5	-0.018835937821388	0.00185731912113961	0.00314896795004806	-6.70422519965423E-05	0.00315434448401129	-7.0406059296743E-05	0.0112073142722995	-0.00223347007344744
4.6	-0.0182541076866435	0.0048078888876637	0.00310665326542015	-0.00051209680333253	0.00310785587102548	-0.000499159216986407	0.0111963587947124	-0.00287960106339068
4.7	-0.0172868804400408	0.00745694035245497	0.00300184570087744	-0.000932376805326538	0.00301717584743681	-0.000941979243295397	0.0110040410568517	-0.00379603963368269
4.8	-0.0159390273362186	0.00992685337053073	0.00284132467363472	-0.00134762255382934	0.00284982917301324	-0.00135370551329274	0.0106773140512543	-0.0046445332281099
4.9	-0.0140573147438886	0.0120781257026926	0.00262150861961034	-0.00173309278752451	0.00262567709274258	-0.00173017430105675	0.010277062541492	-0.005443636470401
5	-0.0117858512740114	0.0140454545999036	0.0023619643092204	-0.00209117736061209	0.00236559026163314	-0.00208850170135329	0.00990732247785075	-0.00583754893154687
5.1	-0.00865819791962031	0.0152197257299443	0.00204964218272079	-0.00240283919960217	0.0020519456938471	-0.00240147606616979	0.0101342938833848	-0.00640505987992558
5.2	-0.00578802173599118	0.0156765275719764	0.00169164551021703	-0.00265358675651714	0.00169336817257387	-0.0026587373142724	0.0101111133941354	-0.0072550451033673
5.3	-0.00286762972175242	0.01573375426758	0.00130436411652342	-0.00287032153873945	0.00130750064166279	-0.00286825122195698	0.00996929438349498	-0.00801836504727459
5.4	-4.15855918175868E-05	0.0152303773688842	0.000878159461665067	-0.0030193130756127	0.000895371519851213	-0.00303053156977502	0.00971615758826653	-0.00903954342345629
5.5	0.00258861434789659	0.0145612042803959	0.000462324383975088	-0.00311689065667667	0.000472400190719467	-0.00312633222410844	0.00899610761836351	-0.00977113034352974
5.6	0.00531345373167054	0.0129104510485006	2.38436404549136E-05	-0.00315284289763998	1.53050444687239E-05	-0.00315607309213647	0.0085417717057803	-0.0104873069813974
5.7	0.00701196101839936	0.0108241598422508	-0.000408233624985923	-0.00312311468211317	-0.000424877020543449	-0.00312679258223612	0.00764662020405979	-0.011181599613355
5.8	0.00815846612355183	0.00871484727417247	-0.000855820041470932	-0.00302836611652635	-0.000859357762097584	-0.00304238596692425	0.00667622927884712	-0.0118170821350455
5.9	0.00871033148159519	0.00662807580551165	-0.00126231856252937	-0.00288754989156825	-0.00127056565630314	-0.00288746860165364	0.0054142682583536	-0.0124427969233383
6	0.00872851841744611	0.00506951728529805	-0.00166038999631962	-0.00268058180524835	-0.00165682239039444	-0.00268074784223864	0.00356136962646996	-0.0123421283608084
6.1	0.00938661183890878	0.00334198637601822	-0.00201720791712359	-0.00242656623231637	-0.00201885152209697	-0.0024225532120123	0.00279349136099524	-0.0115945994342657
6.2	0.00946015949697149	0.000910913459391185	-0.00233157967521705	-0.00211189734491561	-0.00233530058843011	-0.00212379423810418	0.00247052096302782	-0.0114012469446023
6.3	0.00889173920459328	-0.00174132981727793	-0.00260994374465482	-0.00177562917124589	-0.00261908830073827	-0.00176987273713963	0.0022205410824039	-0.0117187369609047
6.4	0.007357327996706	-0.00430678655313265	-0.00283585830255346	-0.00138362685031657	-0.00282611791321707	-0.0013885450804659	0.00164585199206903	-0.0123346364340748
6.5	0.00546318863158447	-0.00594858959437064	-0.00299335638209416	-0.000978360328457087	-0.00300123308330282	-0.000973864506487142	0.000893343007351587	-0.0124577177313788
6.6	0.00354921873631415	-0.00758742930807646	-0.00310190159253638	-0.000550530690254712	-0.00310354298291795	-0.000554514855870544	0.000654355192776213	-0.0128765150417657
6.7	0.00105577860435981	-0.00845537738505927	-0.00315136927469998	-0.000111085974188435	-0.00316023368163999	-0.000104783169105595	-0.000157112590379743	-0.0133197190223345
6.8	-0.00142650999564877	-0.00862500750030755	-0.00312891648536506	0.000331305440067443	-0.00314002496396496	0.000336377323058916	-0.00113784327046627	-0.0135160521477713
6.9	-0.0040466884055678	-0.00823270322184405	-0.00305332473074963	0.000765481984268609	-0.00305631500573491	0.000767881330659284	-0.00232110457357372	-0.0136347780053154
7	-0.00630676402930823	-0.00662477988120678	-0.00291579598978676	0.00118891492579441	-0.00292865909669181	0.00118673749363255	-0.00367642749652742	-0.012990382444282
7.1	-0.00765236612848521	-0.00530074195491235	-0.00273515964176174	0.00157807691421816	-0.00273147087530912	0.00158675039516901	-0.0041876014793381	-0.0123466652011516
7.2	-0.00932751838257197	-0.00375423480628494	-0.00247733519392144	0.00194576772723624	-0.00248387130015213	0.001947863661669	-0.00475863438592062	-0.0118804231869056
7.3	-0.0108318242203492	-0.00171976164363863	-0.00218075190410487	0.00226492968072448	-0.00219197287861877	0.00227001514819856	-0.00511617493057399	-0.0115387401875166
7.4	-0.0121748410236953	0.000602705754042327	-0.00183747559246155	0.00254855447595946	-0.00184433783572612	0.00256220222814824	-0.00566672827390534	-0.0117019758489321
7.5	-0.013178349541347	0.0039392451410077	-0.00146909870063858	0.00278623146203504	-0.00146207881771345	0.00279361629852583	-0.00675627663123693	-0.0114780724148813
7.6	-0.012339777684297	0.00715156560533345	-0.00106320436491398	0.00296310112446968	-0.00106459103981984	0.00295840291468712	-0.00697753161208094	-0.0110599111105372
7.7	-0.011248901355638	0.00968218548959833	-0.000634262573878777	0.00308413153663124	-0.000635606564911496	0.00308307183987047	-0.0074759097027353	-0.0114876522872968
7.8	-0.00933151043909461	0.0117651321230693	-0.000207431212260347	0.00313247362669757	-0.00021523007328206	0.0031389570768235	-0.00829157728484189	-0.0117035471732949
7.9	-0.00696790907695027	0.0132533684172276	0.000234844226673802	0.00313767869055826	0.000242795249544576	0.00313915635671804	-0.00932630496773315	-0.0115798235269483
8	-0.00384933462679683	0.0145066244705262	0.000675273062686372	0.0030637186072902	0.000675366108219425	0.00306861982583771	-0.0103287139982062	-0.0107340517832488
8.1	-0.000451477024197111	0.0141345400510421	0.0010864731807085	0.00294608428807039	0.00110563696958081	0.00294712384833979	-0.0105837796580204	-0.0102909298999248
8.2	0.002165854029731	0.0133606324449768	0.00149178575532614	0.00276321378502802	0.0015010172168302	0.00275598875732868	-0.0111101662811536	-0.00983885228877484
8.3	0.00458464121435828	0.012264689109046	0.00186757297595197	0.00252191461602421	0.00186596990786701	0.00253547248807043	-0.011553917643154	-0.00941857997052029
8.4	0.00655552347289799	0.0108420720649111	0.00220142211822434	0.00224280343162099	0.00219839163191744	0.00224258755557893	-0.0122636236474879	-0.00922809216179755
8.5	0.00842259339143864	0.00966788382739292	0.00248683245857567	0.00191260388189364	0.00248594374466985	0.00191579042211288	-0.0133811908316386	-0.00829395706277585
8.6	0.0105519769015921	0.00736378080604376	0.00273241761796474	0.0015498029689737	0.00274189553410511	0.00154323173769219	-0.0136403281129404	-0.00742138613668944
8.7	0.0115600384618238	0.0045840945341781	0.00291573640587279	0.00114606659560511	0.00292129584256783	0.00114677138433696	-0.0140577657799027	-0.00681139446883184
8.8	0.0119035832293771	0.00181581043463135	0.00305012702558896	0.000735294760148021	0.00305586454415976	0.00072652390199441	-0.0145462404457729	-0.00629447046792294
8.9	0.0116101256802501	-0.000978823373897083	0.00312636353287932	0.000302048482257779	0.00312548675674659	0.000299805474092039	-0.0150665033345493	-0.00575202916794891
9	0.0109208732778871	-0.00318265818780444	0.00313490362982997	-0.000142523291122286	0.00313807212589566	-0.00013843577224983	-0.0156654304247234	-0.00454363682960668
9.1	0.0104300660666857	-0.00589536868969637	0.00308524577336858	-0.000582735837819392	0.00308816825530791	-0.000569867348900073	-0.0153279232332698	-0.00341750020063291
9.2	0.0089609492793544	-0.0086119792552787	0.00297450349188066	-0.000998392795055789	0.00298213983646052	-0.00100128747085905	-0.0150140358192292	-0.00264216559918221
9.3	0.00697258272148952	-0.0110443447608118	0.0028052051434653	-0.0014023242641829	0.00280446122977561	-0.00140730427108488	-0.0145477623320995	-0.00200940211274147
9.4	0.00421624180791626	-0.0131885140717376	0.00258161830995635	-0.00179197000912264	0.00258814208195735	-0.00178440562620426	-0.0143294567141613	-0.00176538280094993
9.5	0.00107660859206098	-0.0140818466176154	0.00230394508501124	-0.00212347929829817	0.00231133362029758	-0.00212484670506063	-0.0143350159277202	-0.000938155657056866
9.6	-0.00223030156533436	-0.0150933753192953	0.00198818649329202	-0.00242395227371142	0.00198851787146207	-0.00242297381648472	-0.0140836034882279	-0.000537433076501176
9.7	-0.00634999424125375	-0.0149865815963847	0.00162183301957854	-0.00267310753181691	0.0016273351878148	-0.00268040641626617	-0.0141684561201164	-6.26755117779865E-05
9.8	-0.0104403668196407	-0.0137548770969388	0.00123726331088526	-0.00288041157850756	0.0012429639026227	-0.00287195182609384	-0.0142574607264924	0.000495087909582559
9.9	-0.0143847137702995	-0.0113617043113497	0.000832555290161447	-0.00301719745234663	0.000825252413398863	-0.00301595928967889	-0.0146401622256167	0.00107476354224986
10	-0.0174382624577922	-0.00749739494567577	0.000406074702763487	-0.00310420935065912	0.000398598039387672	-0.00311659501757624	-0.0150901189480445	0.00243147520907448
10.1	-0.0190339932193573	-0.00383684872661562	-3.42289179670443E-05	-0.00313653768448317	-4.44192493241849E-05	-0.00313115213532314	-0.0145131477318958	0.00354869306864542
10.2	-0.0203451364581155	5.29450741573302E-05	-0.000478824068149954	-0.00309902989826196	-0.000482215726379104	-0.00309625738256989	-0.0138906897267272	0.00429137294133243
10.3	-0.0209164237904727	0.00427206317717045	-0.000908850772175716	-0.00299287155804088	-0.000900797856422353	-0.00300191574480498	-0.0132108787632742	0.00471950442374733
10.4	-0.0208370595081771	0.0087237850216822	-0.00130278427564473	-0.00283894992549952	-0.00130109598808239	-0.00284512135688282	-0.012758062132625	0.00474660377180979
10.5	-0.0194514463616389	0.0139156010966932	-0.00169317718526381	-0.00264348537661972	-0.0016900870519221	-0.00263052532975201	-0.0125707622525245	0.00542575578797965
10.6	-0.0164032622132607	0.0180209149287449	-0.0020457353730196	-0.00237333992297839	-0.00204355651765338	-0.00237715059116164	-0.0117089168106782	0.00582371253637379
10.7	-0.0128103281734928	0.0214189679488683	-0.00235889502194462	-0.00207207905504103	-0.00235541284400208	-0.00206681661812043	-0.0109071254213712	0.00600175434401161
10.8	-0.00867785009478363	0.02387726950235	-0.00262623762691233	-0.00171409286234391	-0.00262105378545406	-0.00172298462994009	-0.0102813143540244	0.00582646216689477
10.9	-0.00457706510796316	0.0256957150529257	-0.00283417437300572	-0.0013427102455016	-0.00283934549823791	-0.00134198530555852	-0.0102573375583503	0.00554124327334416
11	0.000344195008805569	0.0274812614168903	-0.00299379565378566	-0.000926328704590259	-0.00299862268978951	-0.000933048259353419	-0.0103723288666064	0.00619948389497669
11.1	0.00595334408788985	0.0273806010926386	-0.00309996498016273	-0.000503686023195478	-0.0030891489934759	-0.000500830572769645	-0.00964822765564618	0.00654108770972268
11.2	0.0109953746916306	0.0262984363116956	-0.0031297028323072	-6.92193016424209E-05	-0.00313682324074071	-7.40455176748556E-05	-0.0089594831738116	0.00668340091657939
11.3	0.0158635817124236	0.0243219385946205	-0.00310435741026507	0.000377087300218839	-0.0031158439574749	0.000367070127316223	-0.00801584738549691	0.00657957306867227
11.4	0.0200794940338356	0.0215303758213821	-0.00303202289191195	0.000803939546070133	-0.00302713533539067	0.00081148571973654	-0.00742341671775443	0.00610378433617876
11.5	0.0241206952125988	0.0184870503803455	-0.00288815802316847	0.00121694818760135	-0.00289093996631429	0.00122717771358731	-0.00716042852521855	0.00602913691381158
11.6	0.0278487576567824	0.0136869433904573	-0.00269736480020346	0.00160419268816964	-0.00269735273828528	0.00160712150515927	-0.0064070620144529	0.00538537192544014
11.7	0.029969984025353	0.00840718704126782	-0.00243928440645493	0.00195853632719089	-0.00243986785271833	0.0019671095725388	-0.00610084526526599	0.00447390626107694
11.8	0.0310717639182178	0.00312530928394549	-0.00214631199531842	0.00229064218397477	-0.00215041756772458	0.00229232443933885	-0.00610586105482475	0.00364605879502294
11.9	0.031286311596231	-0.00189862484655057	-0.00179879738839066	0.0025659718451906	-0.00181178264104002	0.00257022844327632	-0.00656113923965105	0.00332714209129437
12	0.0314717579551479	-0.00639883773154769	-0.00143049266359908	0.00278813766451218	-0.0014299041481672	0.00278954664709775	-0.00672991934749153	0.00397406479020278
