# GHZ S RI R 50
0.2	0.00573911427752731	0.00151712571808555	0.0030474247873504	-0.000898044504335064	0.00305779146124717	-0.000891238619270059	-0.0141574049213544	0.00521561102557899
0.3	0.00604366344815845	-0.000481871793770454	0.00290303908572127	-0.00132134464566776	0.00289579696178188	-0.001308408990914	-0.0133797047586389	0.00536476650912027
0.4	0.00585651580951212	-0.00214964815289985	0.00267122132497203	-0.00169290744386268	0.00267648528506886	-0.00170146561445285	-0.0128241739619933	0.00588067331897033
0.5	0.00513022471681309	-0.00358820362643897	0.00241227008945131	-0.0020490785439188	0.00242380032865033	-0.00206131366359637	-0.0124118565952385	0.0064635056515497
0.6	0.00422258909134496	-0.00455224119708346	0.00210006242320401	-0.00236330516319327	0.00209927590452186	-0.00237045121148512	-0.011863205996389	0.00725206332801429
0.7	0.00307450433951195	-0.00533211037431023	0.00175296561141673	-0.00264086814351617	0.00175101059577492	-0.00264106671157283	-0.0113226987980674	0.00785490538397047
0.8	0.0017876889297905	-0.00578236191205997	0.00136768359154191	-0.00285790804822077	0.00135509064170497	-0.00286245362552276	-0.0108535513855401	0.00853696027496644
0.9	0.000387033266102518	-0.00583293069858702	0.000950981183169427	-0.00302107849522244	0.000952015305005662	-0.00303177086150545	-0.0103231781550068	0.00922048440374223
1	-0.00106266321464085	-0.00562239243289991	0.000526738145460824	-0.0031245183562026	0.000516882271407498	-0.00312525866936745	-0.00987094799364961	0.00977138300924119
1.1	-0.00250143249688156	-0.00481662305664383	7.11480527235743E-05	-0.00315333196757142	6.76428574329074E-05	-0.00317097178409828	-0.00958221472122086	0.0108617606854957
1.2	-0.00355340885185556	-0.00400412058330291	-0.000370599678021887	-0.00314244857575959	-0.000371410899969407	-0.00314037360213427	-0.00852641921669585	0.0120300909320755
1.3	-0.00461552382711106	-0.00338714318165461	-0.000797166716313967	-0.00305921340674421	-0.000800404208232314	-0.00306121734201452	-0.00679199894056724	0.0129227900376773
1.4	-0.00557873139552987	-0.00286459317632704	-0.00121796227107931	-0.00291123040528906	-0.00121674937143862	-0.00291675935354266	-0.00488634580734877	0.0128854360645429
1.5	-0.00617581262195844	-0.00201107122189655	-0.00161879293478577	-0.00271555330066931	-0.00161718150457158	-0.00272404760867612	-0.00360035966570201	0.0122977906823267
1.6	-0.00614760112525923	-0.000754307864800308	-0.00197870099689269	-0.00246297218796068	-0.00197891126945852	-0.00246820194206565	-0.00292908626660663	0.0121147471226389
1.7	-0.00572918089739308	0.000431825455911191	-0.00230650523835842	-0.00216666036111141	-0.00230747144142149	-0.00216040473797559	-0.00230037580373066	0.0120004962615375
1.8	-0.00502805220344342	0.00169800464993313	-0.00257729276237052	-0.00181583519709419	-0.00258824719534958	-0.00182147035235188	-0.00172487952108294	0.0119376073249424
1.9	-0.00399960427364413	0.00269316067727925	-0.00280264573589784	-0.0014456282712216	-0.0028150769127441	-0.0014394844830033	-0.00120181183599628	0.0118722345803956
2	-0.002882022042989	0.00344660956906095	-0.00297793820910898	-0.00103822667397787	-0.00298755200820444	-0.00103352615738681	-0.000966874588042694	0.0119771971206834
2.1	-0.00143161329462381	0.00395696527694579	-0.00309128078055997	-0.000611010075883329	-0.00308720047030442	-0.000612997491291414	-0.000286643752745628	0.0124359013142001
2.2	3.04697611696123E-05	0.00396993522829869	-0.00314917893991172	-0.000173424628173802	-0.00316047058769667	-0.000176265163042019	0.000792036111468467	0.0125320733073914
2.3	0.00136028248657067	0.00356600742373257	-0.00314493116846494	0.000269591293651611	-0.00314462464010345	0.000262714548402708	0.00181923618276216	0.0122766779236888
2.4	0.00251321348175107	0.00291300296447609	-0.00307268213476197	0.000707561290382099	-0.00307521828495999	0.000703306183311274	0.00278244529879114	0.0118523697111919
2.5	0.00336762433508826	0.0019745297473886	-0.00293605162964568	0.00111890406874817	-0.00294693590638567	0.00112526905124679	0.00340415652475726	0.0111555021750907
2.6	0.00415106266741354	0.00106089208377582	-0.00276327531798366	0.00152194313941882	-0.00275970995692032	0.0015096321072622	0.00392880986212049	0.0108610191776744
2.7	0.00489065163433483	-0.000140905705656112	-0.00251772686023887	0.00189350193389147	-0.00252300356532647	0.00189350866373648	0.00453827182342042	0.0104842847927881
2.8	0.00551139800397686	-0.00156133125825299	-0.0022351123808629	0.00222090838270537	-0.00222731150894166	0.00223069819921152	0.00511525656414791	0.0102196711883767
2.9	0.00598957843850723	-0.0032743028852814	-0.00190134054063982	0.00252085419856162	-0.00189763347569577	0.00252043090890068	0.00595207484152219	0.00997617235318613
3	0.00600044676627108	-0.00522101238858311	-0.00151601009666276	0.00275684197116375	-0.00153079104087235	0.00276292385851598	0.006741103014008	0.00967111287890627
3.1	0.00574450952419638	-0.00721246576152243	-0.00112540133286885	0.00293451861555543	-0.00112075295679105	0.00294286224779422	0.00774472803591267	0.00943289508488584
3.2	0.00482811503447227	-0.00932461237063127	-0.000705028503024743	0.00307158607505858	-0.000706771772327534	0.00307097418200437	0.0086109975503229	0.0089070223612765
3.3	0.00333478570288254	-0.0113043344234274	-0.000267004228196052	0.00314157837651758	-0.000265352572797468	0.00313784110234626	0.00947508858551108	0.00819824013700489
3.4	0.00127536711054213	-0.0128820708959989	0.000179507507762243	0.00313614420902945	0.000173287057687391	0.00315269896454106	0.0102570225291227	0.00715499218413293
3.5	-0.00124286924596943	-0.014009469270165	0.000601918423936765	0.00309380221010333	0.000607513760484079	0.00309388223373631	0.010419344685951	0.00587989279132383
3.6	-0.00387655454947113	-0.014409401739232	0.00103020791564874	0.00297415155371221	0.001038397947307	0.00297384078627281	0.0105746258676348	0.00521619611952479
3.7	-0.00657286700556472	-0.0143640865901789	0.00144046654459519	0.00279368035416455	0.00143086932459436	0.00280734431262967	0.0109931562515909	0.00438063551304243
3.8	-0.00927940018536751	-0.0136923749151206	0.00181879590878151	0.00256714237132196	0.00182119096238098	0.0025762939400132	0.0112966403184881	0.00338120703491348
3.9	-0.0116924230529391	-0.0124860285137527	0.00216522148588059	0.00229430073057458	0.00215795734368292	0.00229251475859885	0.0113920451814885	0.00223114078055236
4	-0.0138961038330601	-0.0108393798546169	0.00244987320206683	0.00197266965561333	0.00245432349101112	0.00197023927895268	0.0110098685901057	0.0012602353500307
4.1	-0.0155559645046411	-0.00875225970925722	0.002701775569148	0.00161372316308395	0.00270052221799004	0.00161445751352465	0.0109717727970932	0.000942738188492832
4.2	-0.0168988801190523	-0.00653068867856675	0.00290196347031281	0.00121286004234327	0.00290644003696807	0.00120414782552335	0.0112556316944605	0.000354157511104
4.3	-0.0179011843477005	-0.00411859996505231	0.00304573030362588	0.000800568897599122	0.00305216296668356	0.0007927707403737	0.0114970468319277	-0.000526197493105371
4.4	-0.0185634395328205	-0.00148307217737551	0.00312230420622772	0.000366067205805971	0.00312468141572918	0.000363812507873462	0.0115066406222219	-0.00156149170985659
4.5	-0.0188626873567648	0.00133756785414882	0.0031452515466274	-7.13046282271619E-05	0.00315061725736986	-7.46719735676318E-05	0.0110694854122157	-0.00257038526547711
4.6	-0.0185087114396624	0.00431926062558064	0.00310267064896002	-0.000514560566068577	0.00310388455719467	-0.000501638655874267	0.0107272726226411	-0.00307091829379329
4.7	-0.0175387660998195	0.00707149572524498	0.00299778840396653	-0.000934290753037192	0.00301309316193057	-0.000943897872436068	0.0105367959746376	-0.0037747622957722
4.8	-0.0161680727765598	0.00962106296987065	0.00283679859724167	-0.00134891724703874	0.00284528752312006	-0.00135500177830913	0.0102716708097589	-0.00446862517667763
4.9	-0.014157283969835	0.0118594470715624	0.00261629432929135	-0.00173323252362206	0.00262045991381661	-0.00173032197401815	0.0100531163940393	-0.005154047409812
5	-0.0118189721726758	0.0136138723893494	0.00235759628072005	-0.00208934746722861	0.00236121837368974	-0.00208667736393711	0.00973449822804707	-0.00574854711382028
5.1	-0.0088091826001696	0.0149202366915724	0.00204597470400628	-0.00240127719363929	0.00204827637920535	-0.00239991689612831	0.00987978338857308	-0.00608240688864748
5.2	-0.00578482172782769	0.0153850914756222	0.00168784458889415	-0.00265131548380951	0.00168956183701036	-0.00265646064899427	0.0101261484066355	-0.00690177422160461
5.3	-0.0028176709243324	0.0153180852245645	0.00130102630061123	-0.00286699202903374	0.00130415952735125	-0.00286492626220585	0.0101142518254142	-0.00784752230588973
5.4	1.74891552130264E-05	0.0147365961839882	0.000876116361184899	-0.00301517250092801	0.000893300659533083	-0.00302637918353108	0.00988476113556931	-0.00905042322838786
5.5	0.0024785149617722	0.0137810877158256	0.000461175550086795	-0.0031137520166343	0.000471238865092281	-0.00312318593743493	0.0088572455099693	-0.0101288555944815
5.6	0.00493135209599923	0.012460375229457	2.21557103773729E-05	-0.00314887923655662	1.36261845456299E-05	-0.00315210086746962	0.00807325565969064	-0.0103539457572539
5.7	0.00680866213747136	0.0105696730212794	-0.000408813602637138	-0.00311837590024828	-0.000425433954639175	-0.00312204211705171	0.00746976082338857	-0.0107634952489731
5.8	0.00814028584484397	0.00850782050511466	-0.000855115991677166	-0.00302364325894122	-0.000858651091222326	-0.00303764132676383	0.00682665264548021	-0.0113728565290501
5.9	0.0090023928368804	0.00642199860798975	-0.00126087603385412	-0.00288352085134205	-0.0012691119467442	-0.00288343890718516	0.00599367735419154	-0.0121499477397003
6	0.00928407313980949	0.00425913313386157	-0.00165916118540079	-0.00267585006417785	-0.0016555989386849	-0.00267601749248306	0.00430264575692339	-0.0129062342407414
6.1	0.00945533779441764	0.00231439324037606	-0.00201353637831037	-0.0024217479968305	-0.00201517650404052	-0.0024177425398623	0.0028207753620182	-0.012386499668487
6.2	0.00928079853865518	-3.83315547723549E-05	-0.0023268135583225	-0.00210861178995298	-0.00233052479303505	-0.00212048788721002	0.00213115530701804	-0.0120337436196799
6.3	0.00856786129517913	-0.00246642758592844	-0.00260488693553247	-0.00177358814240236	-0.00261401816359711	-0.00176784477779924	0.0016935959374311	-0.0120282423355135
6.4	0.00722411448319378	-0.00483671154720724	-0.00283082009424318	-0.00138213265104449	-0.00282109435454058	-0.00138704012806676	0.00131728943747329	-0.0123979870783709
6.5	0.00529649141084825	-0.00676320824337581	-0.00298660815134167	-0.000977787183498098	-0.00299447057896736	-0.000973304653995642	0.000440673425424887	-0.0127327172961222
6.6	0.00329068475996938	-0.00817862273023271	-0.00309592505173726	-0.000552663600155815	-0.00309755959355986	-0.000556642433493814	0.000165450992460751	-0.0127164936712721
6.7	0.000838328545280049	-0.00909857658835698	-0.00314650456468101	-0.00011391196442845	-0.00315536157209966	-0.000107627098860684	-0.000449248953546016	-0.0131516994196254
6.8	-0.00172750749006801	-0.00920381347157312	-0.00312449375663684	0.000328025291898932	-0.00313558999532495	0.000333079656378031	-0.00139717906500617	-0.0133091783201128
6.9	-0.00415986504619212	-0.00869434314964569	-0.00304878732384255	0.000761158435779199	-0.00305177477454019	0.000763550690346431	-0.0023313982253631	-0.0134108979345689
7	-0.00648842492989013	-0.00754325229378777	-0.00291314279230404	0.00118226607278114	-0.00292598204343397	0.00118007101745243	-0.00390569401425125	-0.0132975234097753
7.1	-0.00818875958931048	-0.00585422859690001	-0.0027344674162467	0.00157240967921172	-0.00273079519149182	0.00158107906416285	-0.00482671570483981	-0.0120808983271846
7.2	-0.00970976009522837	-0.00408673789704963	-0.00247714423514982	0.00194017511117994	-0.00248367571002014	0.00194225976625148	-0.00508723727149097	-0.011257770033638
7.3	-0.0110854243436076	-0.00191518281355547	-0.00218153616814478	0.00225896088150431	-0.00219275134874391	0.00226402348317483	-0.00509186707529857	-0.0107628592213242
7.4	-0.0120874668150979	0.000599920040918148	-0.00184022885566274	0.00254241361675697	-0.00184710903766567	0.00255603400420321	-0.00505101790229034	-0.0108846707508291
7.5	-0.0127101257247261	0.00343244019973176	-0.00147345268764502	0.00278260598335799	-0.00146644842042134	0.00279000041417245	-0.00574911770035217	-0.0115394041239106
7.6	-0.0121904536536761	0.00661143960750491	-0.00106657436273958	0.00295982100057965	-0.00106795379184689	0.00295512381467706	-0.00643144373353431	-0.0112818186687028
7.7	-0.0109846680823698	0.00911999779338722	-0.000638591404707419	0.00308091566058803	-0.000639932778365369	0.00307985464411661	-0.0069178175327032	-0.0117787088318697
7.8	-0.00904725109779781	0.0110864267327441	-0.000212757314248314	0.0031302649408857	-0.000220562851597735	0.00313673100138163	-0.00781894404942738	-0.0121726339206934
7.9	-0.00658936636518783	0.0123497557704386	0.000229267787969363	0.00313738493064669	0.000237214417575537	0.00313887626059587	-0.00898183006289582	-0.0123557628043324
8	-0.00402083230336511	0.0131118709348712	0.000671383861401757	0.00306348569152923	0.000671471020148037	0.0030683853580788	-0.0107949318806189	-0.0118560552659
8.1	-0.000952108585935779	0.0132408077071766	0.00108085024137079	0.00294582373474863	0.0010999989476446	0.00294689421712339	-0.0114581781178632	-0.0105316956256659
8.2	0.00174239019127539	0.0126582274821765	0.00148585600857951	0.00276497910996545	0.00149509769040663	0.00275777479447115	-0.0117531096511078	-0.00972001521026175
8.3	0.00421084081684085	0.0116968202343972	0.00186258070307584	0.00252527355612679	0.00186095180429251	0.00253882718394743	-0.0120062923788822	-0.00912321597500168
8.4	0.00645215305365527	0.0103640216237781	0.00219787815089037	0.00224639407807853	0.00219484793396177	0.00224617333221749	-0.0123528777942452	-0.00891113085236091
8.5	0.00823084488832655	0.008681810030536	0.00248211424571323	0.00191622700547291	0.00248122012687581	0.00191941036204716	-0.013682159595804	-0.0085546648332261
8.6	0.0100028348427868	0.00680502289068195	0.00272908559296479	0.0015561237142591	0.00273857911290101	0.00154957357059987	-0.0143645851007436	-0.00703637917245706
8.7	0.011215249877305	0.00428962347751325	0.00291451468670628	0.00115255281899724	0.00292007485769821	0.00115326939107761	-0.0144082646040431	-0.0060012065114275
8.8	0.01178364455615	0.00166396876604588	0.00305011043516722	0.000741358290856244	0.00305586701220352	0.000732594291938143	-0.0144214385288767	-0.00532407326483368
8.9	0.0119383304216259	-0.00106419117259895	0.00312651089762583	0.000308069019622315	0.00312563818829633	0.00030582382438605	-0.0142514314941547	-0.00490145803059838
9	0.0114879481412479	-0.00387407269724916	0.00313720421654796	-0.00013462925513816	0.0031403642633781	-0.000130531142093968	-0.0146705859863965	-0.00461871810381181
9.1	0.0108343784389663	-0.00668168932559241	0.00309010950354007	-0.000577181892804174	0.00309300940735942	-0.000564292120945841	-0.0146410377561793	-0.00362964987710687
9.2	0.00934501555190645	-0.00969072844943897	0.00297949300945869	-0.000994200956756513	0.00298714275113616	-0.000997085229846099	-0.0144149106669427	-0.00319187996429734
9.3	0.00703409175137047	-0.0123109534080717	0.00281058508032709	-0.00139861063113726	0.00280984951356088	-0.00140359700104241	-0.0143707716692955	-0.00278541132533098
9.4	0.00410704774069968	-0.0143691659726097	0.00258860166646067	-0.00178849009243903	0.00259511676228972	-0.00178090247618683	-0.0144697691303435	-0.00249204388886321
9.5	0.000547797297005899	-0.0154550206092624	0.0023125247693961	-0.00212369615529837	0.00231993099625805	-0.00212505304391215	-0.015174874530795	-0.00176351708456524
9.6	-0.00293818786513147	-0.0158182179826896	0.00199456719916726	-0.00242557176645614	0.00199489791856702	-0.00242459124264951	-0.0151354289927829	-0.000369270802629619
9.7	-0.00678649695816155	-0.0154917287989007	0.00162808787881471	-0.00267518929154427	0.00163360885159548	-0.00268249239480508	-0.0147713337180814	0.000512394631157329
9.8	-0.0106671536468246	-0.0141606504797744	0.00124364657448615	-0.00288385790763538	0.00124934534880822	-0.00287537462000759	-0.0144358899998067	0.00120454456739336
9.9	-0.0142161212644888	-0.0117881271005941	0.000838174907805407	-0.00302310520949931	0.000830853734118421	-0.00302187317580457	-0.014232955173957	0.00161739197069096
10	-0.0173211610469618	-0.00855643754714377	0.000408012386482131	-0.00311041259594859	0.000400524851332168	-0.00312282625803407	-0.0148312551763952	0.00212813336664293
10.1	-0.0192622096181493	-0.00463529201663515	-3.19236703352597E-05	-0.00314180308934234	-4.21350810672836E-05	-0.00313641621885541	-0.0147046023588404	0.00360119961710452
10.2	-0.0204977983980783	-0.000599336186047865	-0.000477358508458528	-0.00310554555371625	-0.000480759049533467	-0.00310277018526077	-0.0139182902207936	0.00454128984560624
10.3	-0.0209456103882331	0.00377667923390315	-0.000909435243694162	-0.0029998745382719	-0.000901360372039015	-0.00300893479257691	-0.012996964687665	0.00505731012061716
10.4	-0.020387876270444	0.00823050777585759	-0.00130580201269568	-0.00284461333280909	-0.00130411101491488	-0.00285079762619582	-0.0120207561654614	0.00485921352726518
10.5	-0.0189723918187183	0.0126587010624478	-0.00169474218692243	-0.00264689711754523	-0.00169165055057003	-0.00263392121072311	-0.0120918471077115	0.00457826826937868
10.6	-0.0162947733742234	0.0166810067638001	-0.00204781463624497	-0.00237872469981656	-0.0020456296397453	-0.00238254062985017	-0.0118374991383473	0.00504089712815749
10.7	-0.0130538256420689	0.0200178135519962	-0.00236291452311608	-0.00207698433929074	-0.00235942713592401	-0.00207171026990722	-0.0114854258152653	0.00531515473401979
10.8	-0.00925344831764621	0.0228162574676613	-0.00263131733204178	-0.00171751694804198	-0.00262612310746527	-0.0017264259326494	-0.0111818063298609	0.00558186491766648
10.9	-0.00479825885170015	0.0249041085463394	-0.00283856060861177	-0.00134491727063779	-0.00284373985468411	-0.00134419138858732	-0.0107893853361961	0.00568440233881399
11	-8.34737980332183E-06	0.0262591916670698	-0.00299928171848153	-0.000930330142709565	-0.00300411392955279	-0.000937066861697784	-0.0111841403288069	0.00595674415664626
11.1	0.00540915597877076	0.0266210520909527	-0.00310786250295821	-0.000504743352383875	-0.00309701888341129	-0.000501881428186439	-0.0106712330419745	0.00711753727822416
11.2	0.0106503110689693	0.0256749054387148	-0.00313681832421014	-6.80587401133267E-05	-0.00314395688625552	-7.28928868421414E-05	-0.00952960705390133	0.0076295427505015
11.3	0.0156572471173202	0.0237863542565588	-0.00311056644233611	0.000379191564950206	-0.00312208085481373	0.000369158757942626	-0.00811523540193301	0.00764719056756576
11.4	0.0202156554158661	0.0210352141923018	-0.00303855802831044	0.000806053628843569	-0.00303365889839201	0.000813615728151278	-0.00690537594034515	0.00703167636117476
11.5	0.0241269386808201	0.0174941772552165	-0.00289588453974786	0.00122279730497224	-0.00289866701828714	0.00123305960580876	-0.00684115907059921	0.0062577098762666
11.6	0.0276874733776434	0.0131409003099873	-0.00270130075003243	0.00161165989194763	-0.00270128454855155	0.0016145954111411	-0.00618230147361977	0.00615132839239663
11.7	0.030184594896361	0.00800535766317691	-0.00244174866769655	0.00196559937258844	-0.00244232243163226	0.00197419074245908	-0.00527885298258224	0.00527574386416837
11.8	0.031723485836378	0.00261835194378684	-0.00214811808477635	0.0022980716284573	-0.00215223034694971	0.00229976237125021	-0.00471348129841651	0.00405640367310963
11.9	0.0324415810218378	-0.00298391291495632	-0.00179950498921186	0.00257534075148817	-0.00181251719641142	0.00257962820628887	-0.00475733076679676	0.00271700065357376
12	0.031963535903433	-0.00866934446756022	-0.00142598811324415	0.00279724918191908	-0.00142539478924162	0.002798659351177	-0.00606570767048129	0.00197754703182116
