# GHZ S RI R 50
0.2	0.00577934075269157	0.00122699035685417	0.00304916645651194	-0.000897623518067629	0.00305953627372987	-0.000890811384885419	-0.0142176754635158	0.00483724370531772
0.3	0.00609704182826218	-0.000686368697786064	0.00290526228989034	-0.00132113956704979	0.00289801127234177	-0.00130819856553095	-0.0134172988321567	0.00507301100573094
0.4	0.00587301765972247	-0.00223818473230811	0.00267395497098601	-0.00169321262479157	0.00267922630874862	-0.0017017754792946	-0.0128582026089053	0.00571846561638492
0.5	0.00533240677060109	-0.00369184038813787	0.00241501443762343	-0.00205052807470927	0.00242655831249102	-0.00206277245963649	-0.012104206865194	0.0062504895958566
0.6	0.00416127889879343	-0.00484178995869546	0.00210227014730544	-0.00236502623899584	0.00210148408983826	-0.00237217863604455	-0.0117549258677261	0.00661625258644811
0.7	0.00282774375025845	-0.00543791700107565	0.0017551572254064	-0.00264303561700125	0.00175320038761082	-0.00264323476103164	-0.0115019788335919	0.00722787381979458
0.8	0.00149182164324225	-0.00573100880261553	0.00136957870674434	-0.00286077515140996	0.00135697290281311	-0.00286532748807055	-0.0112390338967964	0.00797853067436669
0.9	3.9676854958966E-05	-0.00561248831832428	0.000952075142901439	-0.00302462376930658	0.000953110405064385	-0.00303532866776744	-0.0109696946085131	0.00888069511375236
1	-0.00113095869486041	-0.00515164158638919	0.000526804131721119	-0.00312772273628955	0.000516938285665797	-0.00312846233575088	-0.0102689842955683	0.00999038829154341
1.1	-0.00244514463147047	-0.00481947775271985	7.13087841553954E-05	-0.00315665761004386	6.78003689973741E-05	-0.00317431613625242	-0.00956399723294366	0.0107010447501715
1.2	-0.00381074964929544	-0.00422283875120111	-0.000371223380031264	-0.00314622319464727	-0.000372035465560015	-0.00314414566938531	-0.00861520506715893	0.011576537681024
1.3	-0.00516245276339837	-0.00371232412868373	-0.000798769664061665	-0.00306289357448057	-0.000802011611967638	-0.00306489938514581	-0.00699327893657671	0.0121831842909262
1.4	-0.00635730413737782	-0.00306505497164787	-0.00122030476438707	-0.00291427088106033	-0.0012190921694009	-0.00291980670705799	-0.00531249025002947	0.0120116068060607
1.5	-0.00680014606327046	-0.00202927442252972	-0.00162094431163004	-0.00271846508206023	-0.00161933200428883	-0.00272696925185825	-0.0038591088956139	0.0113632440979394
1.6	-0.00690607281281021	-0.000576307166505078	-0.00198219190492009	-0.00246615896948021	-0.00198240368942018	-0.00247139640676708	-0.00356956416401947	0.0110182387679775
1.7	-0.00631625260903055	0.000971459288666047	-0.00231098100578476	-0.00216878994400362	-0.00231194566068452	-0.00216252452817945	-0.00312672569978937	0.0112603021724382
1.8	-0.00540500626721506	0.00240374709049291	-0.00258206220921838	-0.00181685677064217	-0.00259303565104889	-0.00182249330341524	-0.00254393281147579	0.0115308935553543
1.9	-0.00419440859626332	0.00354326445442543	-0.00280733991921228	-0.00144597466222412	-0.00281978457503987	-0.00143981516752543	-0.00187528936075158	0.0118861385131381
2	-0.00267676559470062	0.00424071864588391	-0.0029836352038313	-0.0010381640195794	-0.0029932624551757	-0.00103344961826715	-0.000891279608455427	0.0121296849268537
2.1	-0.00136128933717003	0.00447494411303827	-0.00309705781745843	-0.00060865636433411	-0.00309297292237099	-0.000610651506782897	-0.000116526820493933	0.0119728962340234
2.2	3.39942901159523E-05	0.00458723048600608	-0.00315401053117592	-0.000169900933475019	-0.00316532216498368	-0.000172732091248536	0.000738088787803201	0.0119155408971585
2.3	0.00141384384776068	0.00422772139874955	-0.00314905364861842	0.000273884219290898	-0.00314875523716871	0.000266997345555703	0.00154001405314686	0.0116555817083258
2.4	0.00260411829951825	0.00361065536858942	-0.0030764073660572	0.000712733157903906	-0.00307895304299895	0.000708474967059679	0.00224313940937207	0.0115093836512746
2.5	0.00374544552554776	0.0026676377420987	-0.00293844871903135	0.00112605211057071	-0.00294933777129357	0.0011324469683337	0.00330215661265732	0.0113613170368797
2.6	0.00447516200968091	0.00133537747172903	-0.00276318491481814	0.00152883447564579	-0.00275963961258982	0.0015165039067488	0.00429943292153076	0.0106833927484448
2.7	0.0050004786199457	4.527162061032E-05	-0.00251657549771399	0.00189997751435413	-0.00252185716840182	0.00189999407835946	0.00496741234605787	0.00999443773863348
2.8	0.00543819881970024	-0.00138220545784769	-0.0022328297730134	0.00222732555069272	-0.00222500256956015	0.00223710913670516	0.00545391120086809	0.00946679648110285
2.9	0.0057622092754728	-0.00298015132708562	-0.00189732060657088	0.00252719911459081	-0.00189361137880144	0.00252676721665523	0.00613855815737433	0.00922099768034201
3	0.00582144259437698	-0.00488666172996825	-0.00150981526149342	0.00276117935608659	-0.00152458550401327	0.00276729814110847	0.00725698928639509	0.00884058787741259
3.1	0.00525109317308412	-0.00686779412160486	-0.0011196914207538	0.00293729546029853	-0.00111502544109329	0.00294563119209197	0.00802899128358282	0.00803634430817799
3.2	0.00422572177489791	-0.00867429812268281	-0.000698770826816376	0.00307369333723227	-0.000700515733585886	0.00307308495175026	0.00851587862047415	0.00745467039468922
3.3	0.00275718159567719	-0.010415032748609	-0.000260041846399931	0.00314236442470067	-0.000258398391646466	0.00313862325199293	0.00907025328327266	0.00682229585614613
3.4	0.000770183648938334	-0.0117583805690846	0.000186626383646692	0.0031348121086973	0.000180445618409856	0.00315137622402077	0.00961626853028331	0.00609207283573866
3.5	-0.0014367483393612	-0.0128059121085464	0.000607173260659192	0.00309108062611791	0.000612765780304952	0.00309115052759361	0.0101843881417862	0.0050679610369236
3.6	-0.00417770717252501	-0.013325939619349	0.00103552320777959	0.00297169543981716	0.00104371115214106	0.00297136956907696	0.0102405859138029	0.00393099536966613
3.7	-0.00686463697189383	-0.0130791102901167	0.00144568459254486	0.00278979299920982	0.00143611852657769	0.00280347193377148	0.0102275479284583	0.00314226141362168
3.8	-0.00942461465494712	-0.0123053711388926	0.00182295681042879	0.00256197479237461	0.00182536905091441	0.00257111623400733	0.0102176661203967	0.00247470344958246
3.9	-0.0116858907455353	-0.0110501878173576	0.00216771732755432	0.00228873843710432	0.00216045536679563	0.0022869667559971	0.0102556961730815	0.0019778434117951
4	-0.0135870629562448	-0.00954095915612099	0.00245240607598101	0.00196791583974198	0.00245685084940184	0.0019654787560348	0.0107388411421083	0.00146919866770254
4.1	-0.0154556101668954	-0.00771385266142334	0.00270392669853708	0.00160699962734351	0.00270267558930747	0.00160773634243953	0.0110703323981437	0.000572719765874455
4.2	-0.0168898193618575	-0.00537453360084967	0.00290212114419828	0.00120559107767637	0.002906575182282	0.00119687659008611	0.0112832329234267	-0.000221491440901692
4.3	-0.0178443943585206	-0.00291234371929298	0.00304435259383489	0.000793609701988445	0.00305076312220917	0.000785806192278455	0.011449423464557	-0.00113539845702852
4.4	-0.0184714848624491	-0.000258494156031156	0.00312022426632425	0.000359620343209586	0.00312259492742055	0.000357363006602641	0.0114289111474526	-0.00194209679472318
4.5	-0.0185550166992028	0.00245727950935754	0.0031420310069687	-7.91186598222058E-05	0.00314738308880737	-8.24961967002397E-05	0.0117335560815769	-0.00275930189234804
4.6	-0.0184990602513736	0.00513451288084536	0.00309618001812805	-0.000521051932398193	0.0030974225392951	-0.000508154848607158	0.0116491323304587	-0.00409535556249629
4.7	-0.0177772185410876	0.00803430434094235	0.00299029290300598	-0.000938744215773916	0.00300554940816838	-0.000948365089016969	0.0112054422937463	-0.0052212197791393
4.8	-0.0164886695036034	0.0107511965795087	0.00282876182590078	-0.00135186682778793	0.00283722271542483	-0.00135795627921693	0.0106220532265306	-0.00613103227531605
4.9	-0.0144860323852473	0.013186465419418	0.00260743237321659	-0.0017351472546731	0.00261159557468185	-0.00173225119103677	0.0100609007576543	-0.00670212017718059
5	-0.0119038086633396	0.0149685540947444	0.00234687100572602	-0.00208826841733288	0.00235048839146165	-0.00208561297481877	0.0101010807877802	-0.00721474177123162
5.1	-0.00909569996322759	0.0162281536415776	0.00203720845070579	-0.00239709616961379	0.00203950536389975	-0.00239574258586445	0.00990496418008516	-0.00816098644343503
5.2	-0.00599735613757171	0.0169232595132735	0.00168038174941597	-0.0026460616901004	0.00168208869918914	-0.00265119493741056	0.00957495555629177	-0.0088418300735002
5.3	-0.00284979743447168	0.01688300666826	0.00129442381306322	-0.00286038934196954	0.00129755049556926	-0.00285833257850582	0.00930109203171642	-0.00937163081278829
5.4	7.66355758390358E-05	0.0162631554747718	0.000870715512788273	-0.0030065534065963	0.000887836338249403	-0.00301774039175836	0.00915322359686929	-0.00997461701288175
5.5	0.00272103233961205	0.0150652702273164	0.00045956832443516	-0.00310369280725492	0.000469598726023823	-0.00311309657072145	0.00916381910678201	-0.0109929652248779
5.6	0.00465541347081525	0.0136086833019201	2.22924511840246E-05	-0.00314051903370952	1.37857671188491E-05	-0.00314373264230935	0.00818154663665002	-0.0122529907650065
5.7	0.00639071259029495	0.0121017109055221	-0.000407673920155614	-0.00311002968318541	-0.000424249704833288	-0.00311368631894186	0.00684229752303317	-0.0127605714279755
5.8	0.00784962086036121	0.0102838326379668	-0.000852139346249665	-0.00301536737125454	-0.00085566184862745	-0.0030293270428913	0.00558129495582661	-0.0130086366873243
5.9	0.00888220667592557	0.00835675082410379	-0.00125545308716407	-0.00287626593818355	-0.00126366597298994	-0.00287618961992626	0.00429349999990927	-0.0127977190954065
6	0.00969500967396434	0.00614711780504749	-0.00165340367967623	-0.00267179385032416	-0.00164984862001888	-0.00267195781584351	0.00369421326744963	-0.012191767550026
6.1	0.00972319999955881	0.00361679886647541	-0.00200835096985834	-0.00241727422097945	-0.00200998901136432	-0.00241327794178163	0.00340306346963593	-0.0121808810835699
6.2	0.00927944334956768	0.00120107600995671	-0.0023201766160491	-0.00210475769285008	-0.0023238729250593	-0.00211660729370957	0.00315236193650115	-0.0123911201635078
6.3	0.00836996580525309	-0.00123841558273515	-0.00259726237678049	-0.00177136724017343	-0.00260637619648964	-0.00176564475399069	0.00277040724458658	-0.013016646558433
6.4	0.00685512514545114	-0.00343907486278681	-0.00282351556697789	-0.00138200196130104	-0.00281380545979263	-0.00138688959170848	0.00216428412256325	-0.0135420801131878
6.5	0.00500465486676395	-0.00537138083854468	-0.00298010677988808	-0.000977077569277045	-0.00298795512025997	-0.000972607541408305	0.00187017781360562	-0.0142984302329359
6.6	0.0026054807993276	-0.00650083184030202	-0.00308721934364163	-0.000553547924997442	-0.00308884647490015	-0.000557517359563865	0.000861928133446756	-0.0152097735444179
6.7	0.000390609731747854	-0.00697349522364176	-0.0031382418613537	-0.000117514619625794	-0.00314708379074179	-0.000111256944869525	-0.000418927920826436	-0.0155411213614999
6.8	-0.0018877345949638	-0.00699427136737097	-0.00311764234009459	0.00032276516591645	-0.00312871983779481	0.000327791734091644	-0.00174983068910743	-0.0154599662291751
6.9	-0.00414848989636237	-0.00642396700842994	-0.00304310807460504	0.000755535724725834	-0.0030460920978462	0.000757918869216728	-0.00285573636545127	-0.0149168325567086
7	-0.00607480918407553	-0.00550652059826589	-0.00290651073852359	0.00117483490651404	-0.0029193104148271	0.00117262815778405	-0.00318085331266507	-0.0145922206712925
7.1	-0.00824976866000227	-0.00403261030341829	-0.00273096142942913	0.00156214529304476	-0.00272731835209393	0.00157080058632347	-0.00423973920343312	-0.0147634006191635
7.2	-0.00978401328424922	-0.00186972761885727	-0.0024764541590373	0.00193001958344136	-0.00248297652265809	0.00193208401693043	-0.005397075125131	-0.014301738031581
7.3	-0.0108407210969375	0.000456077224256533	-0.00218264273401122	0.00224917644653571	-0.0021938477650408	0.00225420182457753	-0.00634015683800132	-0.0137093785506543
7.4	-0.0114937690215654	0.00293951987606238	-0.00184270294337174	0.00253231703503583	-0.00184960276475788	0.00254589085231062	-0.00733526101625359	-0.012940742523141
7.5	-0.0114997215910227	0.00537911298516865	-0.00148012236597494	0.00277201488710178	-0.00147315745893173	0.00277941880412366	-0.00742111317499231	-0.011971636422631
7.6	-0.0113155996907707	0.00765099489898228	-0.00107550006530928	0.00295312668361708	-0.00107686213453053	0.00294842970599319	-0.00748713859325163	-0.0119838891219383
7.7	-0.0105347491348682	0.0100155388144435	-0.000647827071666449	0.00307625605266783	-0.000649163930802117	0.00307519168411058	-0.00791805685037131	-0.0122581445323845
7.8	-0.00897104139258368	0.0119601980639	-0.000222662778838511	0.0031271308346637	-0.000230483013312467	0.00313356672011529	-0.00850685829622383	-0.0123622016482459
7.9	-0.00685735009881859	0.0133919716713334	0.00021789026028492	0.00313627540111201	0.000225826658649106	0.00313779427393694	-0.00894000577434502	-0.0121571955975217
8	-0.00439947548311946	0.014209245945073	0.000660603856571697	0.00306716460826696	0.000660673369503164	0.00307206659827688	-0.00915398802226326	-0.0123378806768748
8.1	-0.00199311967582862	0.014764294129996	0.00107282655601017	0.00295019681062276	0.00109198036604935	0.00295132291100894	-0.0101716805400518	-0.0126314684837514
8.2	0.000801236371235287	0.0148807384195012	0.00147823176790455	0.00277011956114145	0.00148749715440209	0.00276294007370873	-0.0111463366623996	-0.0121872543265804
8.3	0.00357552529941475	0.0142539545112905	0.00185560652440835	0.00253216488796634	0.0018539349838663	0.00254571955273667	-0.0119047816392177	-0.0116011792344427
8.4	0.00608390386806741	0.0131147338318274	0.00219298023084563	0.00225557845187953	0.00218994768391126	0.00225534791688285	-0.0125730745440128	-0.0108588601589038
8.5	0.00835260322188216	0.0112728558697517	0.00248077462352711	0.00192423157823424	0.00247987214889952	0.00192741678405926	-0.0126890738067275	-0.0102610918660652
8.6	0.00972438935592876	0.00921757433994927	0.00272702332432779	0.00156391201999683	0.0027365393248103	0.00155738110038859	-0.0134484082776615	-0.0102776215068901
8.7	0.0109871871247554	0.00712365089452292	0.00291401703791822	0.00116168700616726	0.0029195803631665	0.00116241963429743	-0.0144975856781193	-0.00977229337830289
8.8	0.0119397258735238	0.00466433725669698	0.00305211409280741	0.000750663335721599	0.00305790219473344	0.000741903478921117	-0.0156093733412335	-0.00900887916143822
8.9	0.0124888214771125	0.00185493631207691	0.0031307976501579	0.000315693030998617	0.00312992866995198	0.000313442261831952	-0.0164324900749054	-0.00760506720891599
9	0.0125043283075755	-0.00140267032862274	0.00314036313921851	-0.00012794141413569	0.00314351717657921	-0.000123832695961518	-0.0161515244043445	-0.00603959158511701
9.1	0.0114800543754725	-0.00471404661391455	0.00309591704284097	-0.00056919295355819	0.00309878428673302	-0.000556277559866987	-0.0158038927737931	-0.00523147015795798
9.2	0.00979192673665381	-0.00774180143882279	0.00298768313548853	-0.000988177160738821	0.00299535478219978	-0.000991046587052429	-0.0154233879419478	-0.00445310229958229
9.3	0.00734012806123807	-0.0104371599311449	0.00281955647636152	-0.00139497794422504	0.00281883092090902	-0.0013999761995084	-0.0149313594607703	-0.00384367015335345
9.4	0.0042032600084399	-0.0124673374925985	0.00259696482904076	-0.00178624613441544	0.00260347561460871	-0.0017786313345565	-0.014475179453035	-0.00331577455522219
9.5	0.000578010509064589	-0.0137407552918987	0.0023231035242058	-0.00212110541845133	0.00233052791377225	-0.0021224435368638	-0.0137599287478842	-0.00316625766437726
9.6	-0.00362121345717193	-0.0138791760494002	0.00200634457803222	-0.00242753476814145	0.00200667379386914	-0.00242655060815085	-0.0141467233507366	-0.00340558634269517
9.7	-0.00748104530830692	-0.0129306704759964	0.00163825477156648	-0.00267981738491982	0.00164380667519878	-0.0026871309640818	-0.0147527596265698	-0.00292454523027192
9.8	-0.0110943543196348	-0.0112839734568237	0.00125248638494005	-0.00288994726603305	0.00125818624528977	-0.00288142906534814	-0.0153239140659144	-0.00207744747141846
9.9	-0.0143517127468745	-0.00879971606668804	0.000846777002647525	-0.00303039433264963	0.00083943158305056	-0.00302917343821772	-0.0158146193366462	-0.0006850675733589
10	-0.0170272866525183	-0.00581050748531129	0.000415253123576494	-0.00312215915029156	0.000407757905318792	-0.00313463611561389	-0.0153216526141317	0.000740166978699875
10.1	-0.019324504864383	-0.00206900972631473	-2.95145217084715E-05	-0.00315384035185253	-3.9769311924985E-05	-0.00314844111342523	-0.0149583213640457	0.0014286720724822
10.2	-0.0204509317359982	0.00220307587321138	-0.000476885151788334	-0.00311695543511695	-0.000480299764689679	-0.00311417255130848	-0.0145411049994033	0.00229522792784073
10.3	-0.0206300376854173	0.00647428747767775	-0.000910615863330512	-0.00301154176510569	-0.000902504829750829	-0.00302062947226024	-0.0139830586778106	0.00304652940492847
10.4	-0.0199938629051075	0.0106596307071074	-0.00130977373526446	-0.00285736731130375	-0.00130807219923031	-0.00286357685605332	-0.0131873956750205	0.00376393283500149
10.5	-0.0185974214608806	0.0145926396839335	-0.00170405443458727	-0.0026570581750683	-0.00170093968425904	-0.00264402853307965	-0.0117623538430602	0.00410193423212844
10.6	-0.0167280908432088	0.0185018037066057	-0.00205689890943052	-0.0023854004445384	-0.002054709340474	-0.00238923149113039	-0.0109258678038611	0.00366152477544538
10.7	-0.0138809757220587	0.0222113857685132	-0.00237280950733106	-0.00208253134481432	-0.00236930585532231	-0.00207724129943658	-0.010350023350661	0.00336939241867251
10.8	-0.0101081739833798	0.0254369041845834	-0.00264266648668925	-0.00172114857595056	-0.00263746223652503	-0.00173009536058205	-0.0101189066568917	0.00314495924755001
10.9	-0.0057285210675482	0.0279314915808857	-0.00285113671615778	-0.00134500192604646	-0.00285633353490699	-0.00134426465602314	-0.0100389721125973	0.00324027327191766
11	-0.000681362352936018	0.0293877417455098	-0.00300858576578015	-0.000927121795244927	-0.00301344267539514	-0.000933866581507999	-0.00934307332412268	0.00328388945244167
11.1	0.00436969235489555	0.0301212674777949	-0.00311706923457579	-0.000502288448806354	-0.00310619212843576	-0.00049943205021879	-0.00926308534951849	0.00278595776250655
11.2	0.00998161852369483	0.0298655847002766	-0.00314638646130534	-6.34245073480059E-05	-0.00315355401704047	-6.82622242125749E-05	-0.00927584484079926	0.00275679759196457
11.3	0.0157142146492926	0.0282253328216668	-0.0031188171683058	0.00038644502700221	-0.00313038475667202	0.000376405975937541	-0.00911171393115292	0.002933912537225
11.4	0.0208972078444376	0.0253695134200335	-0.00304375761129774	0.000814677351427984	-0.00303883035929939	0.000822245946883571	-0.00884025610339153	0.00326116189729095
11.5	0.0253967924266127	0.0213058851837182	-0.00290062780377525	0.00122951819909304	-0.00290340227478493	0.00123980714780134	-0.00799245106093543	0.0031309766256542
11.6	0.0287851392398824	0.016550596315001	-0.00270615191893249	0.00162140000165292	-0.00270613018387281	0.00162434403566948	-0.00783493536351162	0.00238372152474582
11.7	0.0315070811353644	0.0112743198805709	-0.00244356844190303	0.00197666032450751	-0.00244412324729605	0.00198527595798427	-0.007871509945204	0.00204494619991387
11.8	0.0332444910604437	0.00539594664672459	-0.00214719637946369	0.00230869830900801	-0.00215131370522509	0.00231040325255853	-0.00783762147943738	0.0020108625739719
11.9	0.0338081628416941	-0.000766944403043164	-0.00179765647850139	0.00258438714013213	-0.00181068587439743	0.00258871100573897	-0.00759252011942561	0.00262676674894998
12	0.0330833311880665	-0.00724905508807225	-0.00142379057860845	0.00280887755587361	-0.00142319223419572	0.00281029056185375	-0.00624245463197701	0.00264732216644232
