# GHZ S RI R 50
0.2	0.00626972156481494	0.00142828348763085	0.00304591193260958	-0.000898961547289655	0.00305627751768508	-0.000892162481365226	-0.0136863760257029	0.00506893366472071
0.3	0.00655077315618233	-0.000646559247727266	0.0029007580846369	-0.00132215797075304	0.00289352674387288	-0.00130922554288171	-0.0129177888463213	0.00514287056989559
0.4	0.0062027779511404	-0.00251430792376043	0.00266821697125743	-0.0016931066629026	0.00267347207739775	-0.00170166121187631	-0.0124840588506638	0.00546455144783079
0.5	0.00508100324946632	-0.00371323153677429	0.00240940139690068	-0.00204830908058464	0.0024209169442262	-0.00206053845211551	-0.0123470845392183	0.00624863969121293
0.6	0.0044084536024515	-0.00450972177510911	0.00209703903807083	-0.00236241819809816	0.00209624940728607	-0.002369557792859	-0.0115158830255124	0.00702246800179785
0.7	0.00325259342295851	-0.00535295396169794	0.0017496999202959	-0.00263911914933612	0.00174774680742678	-0.00263931643144711	-0.0110586502760733	0.00742268043568447
0.8	0.00197183746248386	-0.00580768636179564	0.00136468941426686	-0.00285520783408772	0.00135210908000669	-0.00285974196066117	-0.0107044508816965	0.00802470630327469
0.9	0.000613419160606014	-0.00605253109192421	0.000948757031976176	-0.00301767950199494	0.000949786160286531	-0.00302835902792783	-0.0102979039858162	0.00854455897745405
1	-0.00131818768833394	-0.00604873033123319	0.000524820692408013	-0.0031212047518178	0.000514975660074206	-0.00312194005929366	-0.0103553642753362	0.00912577165189018
1.1	-0.00280903422980139	-0.00501183238858196	6.95308425512896E-05	-0.00314889916427472	6.60221296984698E-05	-0.0031665123065394	-0.00989223286197355	0.0105134217325764
1.2	-0.00394183845259713	-0.00444043033178713	-0.00037104709084678	-0.00313749303058192	-0.000371856392621558	-0.00313542098713449	-0.00876435529529466	0.0113790938984469
1.3	-0.00516979982533073	-0.00403239461068557	-0.000796564955538304	-0.00305423903961994	-0.000799797788584659	-0.00305623913921353	-0.00706653152577442	0.011915539766518
1.4	-0.00628375288795851	-0.00368064658816815	-0.00121663375215582	-0.00290647320862088	-0.00121542380596978	-0.00291199380417148	-0.0053188476623787	0.0115016283859764
1.5	-0.00709688699635009	-0.00237419108360884	-0.00161662260337738	-0.00271016274137043	-0.00161501650716864	-0.00271864207928587	-0.00424508719312703	0.0111950263944072
1.6	-0.00671935483632742	-0.000765606167268041	-0.00197462513424133	-0.00245828420276881	-0.00197483459424551	-0.00246350369762329	-0.00342601311437279	0.0110788141423796
1.7	-0.00614279746201231	0.000642717487672022	-0.00230166162724801	-0.00216304034287143	-0.00230262733566705	-0.00215679680466798	-0.00291552738879293	0.0111939518288592
1.8	-0.00527221032818793	0.00203434471448656	-0.00257190028141462	-0.00181305037351201	-0.00258283234238041	-0.00181867766400977	-0.0023224277969504	0.0113926439158252
1.9	-0.00423938274538421	0.00300641627977032	-0.00279650045223226	-0.00144346137671133	-0.00280890792046589	-0.00143733367755389	-0.00182226145322731	0.0115172452614587
2	-0.00327710163780677	0.00412823855411326	-0.00297047506038135	-0.00103783191536099	-0.00298007008732314	-0.00103314844919802	-0.00147928805577874	0.0121388256057184
2.1	-0.00142034888018464	0.00479510275242997	-0.00308453954304951	-0.000612452391090278	-0.0030804657173257	-0.000614432286960681	-0.000217640225521596	0.0124987408169717
2.2	0.000204386363555191	0.00472860832307076	-0.00314267328521566	-0.00017586779577141	-0.00315393963871173	-0.00017871261569249	0.000904506128566946	0.0123224873385803
2.3	0.00166337728113701	0.00421226702900494	-0.00313862484434044	0.000265813896066551	-0.00313831193149852	0.000258951855790509	0.00184956885254875	0.0119159858254646
2.4	0.0028187468405999	0.0032908346647183	-0.00306696217016971	0.000701992987895794	-0.00306948724127517	0.000697743757178753	0.0025831540833597	0.0114059194248853
2.5	0.00330418018349497	0.00239761335974964	-0.0029325790208138	0.00111206473397396	-0.00294345406121338	0.00111840035391852	0.00294057975362282	0.0111774734979999
2.6	0.0042971073404397	0.00169978868301901	-0.00276066912120896	0.001515254284217	-0.00275709202963505	0.00150296995455199	0.00407241211541786	0.0111288772526989
2.7	0.00524990772064587	0.000374563847477777	-0.00251622779236244	0.0018859296424356	-0.0025214948782862	0.00188592773243267	0.00510082738636895	0.0104606676408736
2.8	0.00593253026267223	-0.00134688825906435	-0.00223535767191392	0.00221281658055084	-0.0022275888610576	0.00222260385577642	0.0058076911503739	0.00970064217340629
2.9	0.00613579540779192	-0.00334479434038938	-0.00190377583362736	0.00251307501085789	-0.00190007345009034	0.00251266013952514	0.00637136339125065	0.00907370260570372
3	0.00574953919278281	-0.00505863344481463	-0.00151919644096263	0.00275054633040526	-0.00153396994289666	0.0027565931525205	0.00697044860837156	0.0089184707972574
3.1	0.00553442388995238	-0.00690443991812112	-0.00112958574108026	0.00292770491265955	-0.00112496140729928	0.00293604502022696	0.00806919241389645	0.00840820020486978
3.2	0.00451177657957734	-0.00889444734377396	-0.000711150444536337	0.00306566606385286	-0.000712889864052887	0.00306505099196749	0.00861288605948022	0.00771797701051181
3.3	0.00300886174242575	-0.0107492141554876	-0.000274350705323959	0.0031372902880134	-0.000272691855014535	0.00313356136585525	0.009202172476402	0.00702297754491672
3.4	0.00086165383697974	-0.0123061146808572	0.000171970289615554	0.00313360210641831	0.000165716826980923	0.00315012660349922	0.00965975210198136	0.00607781603210855
3.5	-0.00180947622863818	-0.013055668035601	0.000593929286438849	0.00309131033716712	0.00059951738503564	0.00309140333700585	0.00973894002633243	0.00532126886033952
3.6	-0.00412432135226136	-0.013364750603565	0.00102055783428238	0.00297404730877944	0.00102874028786628	0.00297376050106513	0.0102131465732747	0.00449552566931085
3.7	-0.00677710593949396	-0.0133919186636613	0.00143127679158641	0.00279600194411221	0.00142164599787921	0.00280962837652734	0.0103456512100706	0.00349259304762718
3.8	-0.00952324520397294	-0.0127696972220825	0.00181039570437093	0.00257114393159578	0.00181276287993728	0.00258029785116373	0.0102714442837522	0.00263549208055116
3.9	-0.0121280098930873	-0.0115568969678375	0.00215732580827632	0.00229943952769581	0.00215007078665025	0.00229763316388148	0.0100275937009534	0.00196084131191302
4	-0.0144318417711016	-0.00941026948420218	0.00244193426243757	0.00198053873769229	0.00244639136832515	0.00197812504218003	0.0099724849942331	0.00196851993391434
4.1	-0.0156079907091377	-0.00724533360821024	0.00269704453084066	0.00162353625550483	0.00269578826125503	0.00162426651087134	0.0108905456023115	0.00151170355202731
4.2	-0.0167890384107485	-0.00517911322222695	0.0028993163420977	0.00122292804958895	0.00290382351717996	0.00121422651819621	0.0113796837559145	0.000525555929557966
4.3	-0.0177329936555256	-0.00292370260050763	0.00304476221756196	0.000811095990370515	0.00305122425520287	0.000803314824194293	0.0116116812440397	-0.000572905306272952
4.4	-0.0185393747113981	-0.000503899437637606	0.0031233048079776	0.000377508620193973	0.003125691842981	0.000375260758817578	0.0114491866458173	-0.00165784931199896
4.5	-0.0191366482524923	0.00261111782463463	0.00315051908128041	-6.00841988608009E-05	0.003155905474281	-6.34375730624252E-05	0.0111649625014097	-0.00214143510158352
4.6	-0.0185268613555056	0.00567130928443663	0.00310938593867065	-0.000506061432257403	0.00311056290363507	-0.000493114355986313	0.0115402235524847	-0.00300570138542424
4.7	-0.0175377455122342	0.00838172576340916	0.00300564369158249	-0.000926780652798737	0.00302100319962167	-0.000936357541199522	0.011382964219486	-0.00421179566492835
4.8	-0.0161395088705839	0.0108725153735801	0.00284640672317553	-0.0013427366872526	0.00285493072993135	-0.00134880665047487	0.0109782289380567	-0.00528385665842381
4.9	-0.0142606268594202	0.0129789798938069	0.00262791261660715	-0.00172948466893057	0.00263207946133552	-0.00172655439225876	0.0103943346996989	-0.00619704592244111
5	-0.0120503484609199	0.0150634683583521	0.00236860016087822	-0.00208950050533863	0.00237222575055569	-0.00208681507584787	0.0100365406838063	-0.00647877183075826
5.1	-0.00879425572765378	0.0162848910854374	0.00205642947727448	-0.00240190007010343	0.00205873318813293	-0.00240053113310644	0.0102956002118982	-0.00735021276063868
5.2	-0.00583847688446821	0.0167303980969735	0.00169885258782743	-0.00265407227089433	0.00170058711441834	-0.0026592266557054	0.00996937864962552	-0.00828088057194854
5.3	-0.00283520926216272	0.0167314500989502	0.00131145047855819	-0.00287251669150309	0.00131458826838851	-0.0028704376225486	0.0096424328369403	-0.00888748366576764
5.4	-3.37555375483758E-05	0.0160935547925433	0.000884349572718689	-0.0030230971733744	0.000901608418625169	-0.00303430804809175	0.00934825682122646	-0.00968739268515664
5.5	0.00247116947812229	0.0155219415283508	0.000467687547733015	-0.00312108014347595	0.00047779317647081	-0.00313052148785663	0.00898023189539172	-0.0101500736338954
5.6	0.00526389058746851	0.0138974908309112	2.90143391006333E-05	-0.00315850203345658	2.04655651064296E-05	-0.0031617519524352	0.0087747408892103	-0.0113695811829367
5.7	0.00701344288426175	0.0118315308163268	-0.000404451341027749	-0.00313006195025552	-0.000421123116470611	-0.00313377189763987	0.00756915015086622	-0.0123329618470502
5.8	0.0082513276187629	0.00965049119131556	-0.000853706613924196	-0.00303598378742385	-0.000857233640046791	-0.00305003835046892	0.00623386970937694	-0.0129757626968824
5.9	0.00877330687632858	0.00729816672915691	-0.00126157887032464	-0.00289521842610025	-0.00126984367400749	-0.00289514677468013	0.00455548501036443	-0.0133729338678463
6	0.00844779421348877	0.00567026153036597	-0.00166053845027444	-0.00268903515782882	-0.00165696239773856	-0.00268919668351495	0.00268372404011365	-0.012502852169469
6.1	0.00893469776179903	0.00396813646152354	-0.00201992603117995	-0.00243525080523454	-0.00202157842229106	-0.0024312288848583	0.00252015491669943	-0.0116822305312285
6.2	0.00878827051637432	0.00162624679288385	-0.00233613500756772	-0.00211962782155357	-0.00233985595022413	-0.00213156026871248	0.00238781087111319	-0.0116834349407148
6.3	0.00809510545599046	-0.000872670674946325	-0.00261589550732446	-0.00178238849654623	-0.00262506941935155	-0.00177662264652325	0.00215325745494204	-0.012210053792371
6.4	0.00644417666232951	-0.00331501489166275	-0.00284303705702612	-0.00138952248864722	-0.00283326541925031	-0.0013944481652659	0.00142809331695212	-0.0128859574636525
6.5	0.00453650084200156	-0.00455325158955617	-0.0030027147347117	-0.000982836101091362	-0.0030106190855693	-0.000978328963792225	0.00095984099018926	-0.0128515328695498
6.6	0.00288534282536562	-0.00596658691915062	-0.00311172105138664	-0.000552230357757073	-0.00311336768761914	-0.000556227103981728	0.000779586261833465	-0.013753458257979
6.7	0.000708142116545954	-0.00669642319811893	-0.0031611921414758	-0.000111019715884615	-0.00317008331409592	-0.000104696134896868	-0.000245635970949427	-0.0142555541295641
6.8	-0.00146524180788623	-0.00694853184771249	-0.00313882850333771	0.000333135481606735	-0.00314997121126783	0.000338226304522538	-0.00130875998389374	-0.0144402286514418
6.9	-0.00404939949783966	-0.00677972049159966	-0.00306336730710809	0.000769524523982795	-0.00306636664221655	0.00077193344968453	-0.00264295113829404	-0.0144377290136648
7	-0.00639554688907275	-0.00499726668185961	-0.00292433470326395	0.00119596947510109	-0.00293724327742191	0.00119379824857302	-0.00358628736257535	-0.0133730478031715
7.1	-0.00753656726548999	-0.00364012473131894	-0.00274187783207933	0.00158596738722454	-0.0027381681109997	0.00159466362079706	-0.00370171130314857	-0.0133882863627781
7.2	-0.00903016688091758	-0.00208234889777502	-0.00248276368318657	0.00195492749151227	-0.00248931782476502	0.00195703802000009	-0.00461489277237308	-0.0133609063524496
7.3	-0.0102527761400091	-0.000172845870767977	-0.00218436061997246	0.00227540825518271	-0.00219560991582496	0.00228052664064549	-0.00543537115565766	-0.013183845543933
7.4	-0.0114230977044661	0.00173638947714217	-0.0018383772556829	0.00255998682465949	-0.00184523503913231	0.00257369015486391	-0.0066144272444625	-0.0132391048385871
7.5	-0.0126240042424326	0.00480696461262883	-0.00146740884504697	0.00279657928432865	-0.00146035549890565	0.00280396964568054	-0.00792519269678244	-0.0120850094531322
7.6	-0.0117561892149331	0.00774275100258169	-0.00106037521774662	0.00297339142321695	-0.0010617748989526	0.00296868288827242	-0.00761274106731269	-0.0115671035010117
7.7	-0.0109056280906269	0.0100376259450682	-0.000629122682362537	0.00309412028453762	-0.00063047277925458	0.00309306065121614	-0.00804551653337303	-0.0120236932861131
7.8	-0.00926437220723022	0.0120071213013468	-0.000200118990136013	0.00314121341770736	-0.000207922054122219	0.00314773344047534	-0.0087599125110721	-0.0121704561552301
7.9	-0.00737632717326877	0.0135701856734552	0.000243725033173827	0.00314434003669271	0.000251698442714078	0.00314580001115189	-0.00966482383590425	-0.0118008233241161
8	-0.00437982608236359	0.0152946167363143	0.000684226095836607	0.00306924932158187	0.000684331158062073	0.00307416176463909	-0.0098020590039792	-0.0109262448200549
8.1	-0.000965113930129515	0.0151417132226794	0.00109745908190665	0.00295038909405165	0.00111667363853626	0.00295137743426837	-0.00985889657310503	-0.0114277570051704
8.2	0.00169615785999237	0.0145451772076835	0.00150375544174736	0.00276486390312348	0.00151298545811272	0.00275759379180074	-0.0108120221431597	-0.0114006802029552
8.3	0.00417429869928812	0.0135240312196373	0.00187954402500751	0.00252097930920003	0.00187798166980504	0.0025345699119005	-0.011674942889545	-0.0110789956321809
8.4	0.00603052865590794	0.0120918509878669	0.00221280338312344	0.00224000182177092	0.0022097664442112	0.00223979526025985	-0.0128299869636202	-0.0106743330288271
8.5	0.00777202911254116	0.0112979482055774	0.00249889060260404	0.00190790805046165	0.00249801123940863	0.00191110452814786	-0.0136441295089942	-0.00912856209656371
8.6	0.0101016517238886	0.00915520077423732	0.00274311963970262	0.00154154335305802	0.00275258727386935	0.00153492356610474	-0.0135242656623509	-0.00885461876207582
8.7	0.011301360878009	0.00648798200845685	0.00292418074920482	0.00113595495923141	0.00292975038004637	0.00113663850229858	-0.0143458749205608	-0.00865410907108882
8.8	0.0118966535634022	0.00365277932793419	0.00305658277116774	0.00072391920779194	0.00306229174728994	0.000715115268128258	-0.0154191188814215	-0.00823082155115011
8.9	0.0116542286828487	0.000565103771970891	0.00313117433214935	0.000289409451475396	0.00313028724421604	0.000287167532639909	-0.0166653352261041	-0.00735757961027019
9	0.0107733296288481	-0.00165330540069178	0.00313650716081505	-0.000157307731786849	0.00313969709463078	-0.000153232090343438	-0.0172988141144282	-0.00514436758858689
9.1	0.0102318860686836	-0.00436997494749808	0.00308319692881257	-0.000596623051142384	0.00308617742238831	-0.000583765305358774	-0.0165695752784308	-0.00383138821750262
9.2	0.00871995143042592	-0.00695378748341916	0.00297027104616711	-0.00101152768528327	0.00297789506685938	-0.00101445609951884	-0.0160654276199717	-0.00273039575998421
9.3	0.00685064924694495	-0.00930208175019533	0.00279862142776727	-0.0014148245581265	0.00279785515596521	-0.00141980073904804	-0.0151114290148241	-0.00186774646084339
9.4	0.00409985554556829	-0.0115475452335521	0.00257193811043379	-0.0018035796367936	0.00257849535999545	-0.00179604971779859	-0.0144154666506033	-0.00162876763446289
9.5	0.00095833931711023	-0.0122254089276148	0.00229144728259577	-0.00213153328508512	0.00229882073748385	-0.00213293300186805	-0.0135316820674744	-0.000840357958588752
9.6	-0.00222861022926195	-0.013232657657222	0.00197553711508164	-0.0024295806132845	0.00197587227157762	-0.00242860471256864	-0.0129948246565413	-0.00156146947278083
9.7	-0.00621259795695105	-0.0130719601102635	0.00160811144829222	-0.00267658618779934	0.00161357472699593	-0.00268389921904	-0.0135173457884387	-0.00165703561579429
9.8	-0.0100870765711622	-0.0119476223334305	0.00122265853108412	-0.00288104304229044	0.00122838658165086	-0.002872622134084	-0.014092392116248	-0.00132052852503333
9.9	-0.0140103709627828	-0.00985660811821783	0.00081807572276319	-0.00301420468534137	0.000810793770550091	-0.00301293847833483	-0.0150582490654177	-0.000542340492876321
10	-0.017180875649282	-0.00600989920162377	0.000393950707738429	-0.00309896394613104	0.000386445352585688	-0.00311129572972359	-0.0152581355080354	0.00145994505303151
10.1	-0.0187738967821192	-0.00253849567294434	-4.6230970937572E-05	-0.00312980497039108	-5.63791247915854E-05	-0.00312439152777485	-0.01436144089645	0.00203496033967767
10.2	-0.0201753265503704	0.00121827034245802	-0.000489558222863198	-0.00308950979794167	-0.000492930813249853	-0.00308673110553687	-0.0141334705480776	0.00247429053109244
10.3	-0.0208574329293413	0.00523588160710609	-0.000917169385952804	-0.00298114695931778	-0.000909171997450197	-0.00299019496043327	-0.013952613517866	0.00291872330535141
10.4	-0.0211664639092448	0.00946085489979795	-0.0013080766017668	-0.00282640483873017	-0.00130641312502715	-0.0028325635319504	-0.014049888287069	0.00343564241544001
10.5	-0.0202507198502536	0.0149502031373495	-0.00169751496018571	-0.00263091208282866	-0.00169438986945553	-0.00261799635799499	-0.0134546199712048	0.00508443792866242
10.6	-0.0173695321935697	0.0193857610662465	-0.00204751431963068	-0.00235859376631661	-0.00204535577129417	-0.00236239989471301	-0.011947551403597	0.00538681668156544
10.7	-0.0137329511832406	0.023154554149863	-0.00235709263007526	-0.00205716549209056	-0.00235360608357689	-0.00205193292860529	-0.010760156089409	0.00540768832535038
10.8	-0.00949499175937861	0.0257672997379932	-0.00262134585739335	-0.00170023058880375	-0.00261620664370117	-0.00170910402864284	-0.00992842643676459	0.00479525138360626
10.9	-0.00546606098009867	0.0276429113590202	-0.00282747821078799	-0.00133017391984363	-0.00283262855186009	-0.00132943766589963	-0.0101498790511715	0.0043927745462622
11	-0.000569985800195921	0.029911130422839	-0.00298423802070457	-0.000913634372955125	-0.00298906515843263	-0.000920311976472525	-0.00979735665310588	0.00534015419625178
11.1	0.00529920005201966	0.0300621378226115	-0.0030869596791304	-0.000494221379777765	-0.00307618653176816	-0.00049140397101848	-0.0088204397716702	0.00477297962831775
11.2	0.0106962575116297	0.0291929376335144	-0.00311562291928477	-6.29082758489848E-05	-0.00312272023997482	-6.76989320551623E-05	-0.00863136710994357	0.00440464528196456
11.3	0.0160140721659318	0.0271457671235217	-0.00308962984350639	0.000380755124115187	-0.00310108166561992	0.000370803263800366	-0.00829970644007989	0.00421135665694215
11.4	0.020429653357358	0.0240521363087243	-0.0030162508263474	0.000805430020930533	-0.00301137323848566	0.000812931894904555	-0.00838308553023541	0.00400913325726397
11.5	0.0245606734218322	0.0210137380907629	-0.00287121540358685	0.00121372539555822	-0.00287397059780934	0.00122390307930919	-0.0079168611741312	0.00460345654715233
11.6	0.0285004967400858	0.0159593179990526	-0.00268290665566731	0.00159752854359493	-0.00268289310293276	0.00160044257825049	-0.0071118214559855	0.00350098992795165
11.7	0.0307042728691667	0.0104006033483518	-0.0024264085575455	0.00194976563059892	-0.0024269857573272	0.00195829653928754	-0.00740161134035541	0.00265250110153969
11.8	0.0317411991963581	0.00474206431202459	-0.00213489801345252	0.00227941201920888	-0.00213898231198947	0.00228108655115734	-0.00790855043922848	0.00237222582941909
11.9	0.0315845395580776	-0.000589910330616233	-0.00178967938406381	0.00255156852063479	-0.00180259516562738	0.00255579866693873	-0.0084397611318925	0.00319549550453855
12	0.0315298053599647	-0.00476942134880257	-0.00142655372132655	0.0027723951510554	-0.00142596982952706	0.00277379771904556	-0.00722323833922119	0.00498311983352211
