# GHZ S RI R 50
0.2	0.00615569545465817	0.00124849885194123	0.00304699724869819	-0.000898480068373403	0.00305736414008618	-0.000891676555743609	-0.0137221667941405	0.00496534615619204
0.3	0.0064323280772583	-0.00080859701497798	0.00290227394551868	-0.00132182378639995	0.00289503600618677	-0.00130888844107956	-0.0129725272348487	0.00505695619367775
0.4	0.0061504253697897	-0.00264197515423443	0.00267002340902834	-0.001693200097569	0.00267528354142024	-0.00170175743278018	-0.0125167897274836	0.00540448196351162
0.5	0.00508866693796159	-0.00403822779712199	0.0024110488642766	-0.00204875309003171	0.00242257284777019	-0.00206098577384609	-0.0124675626622239	0.00603351543993944
0.6	0.00423667386099603	-0.0048286379245717	0.00209896365758596	-0.00236300042336478	0.00209817597816394	-0.00237014415315719	-0.0118750464371853	0.00703888067579683
0.7	0.0030773785526734	-0.00562467478579686	0.00175169116239623	-0.0026402931023573	0.00174973683030293	-0.00264049113753881	-0.0113260850489277	0.00765619700486021
0.8	0.00178738876169239	-0.00604796929910028	0.00136643215505121	-0.00285688491143624	0.00135384403460469	-0.00286142565840892	-0.010831380966773	0.00837947480178349
0.9	0.000500985380985743	-0.00617704322859104	0.000950125664184223	-0.00301955310741615	0.000951158018236417	-0.00303023981143564	-0.010150171571295	0.00897306206669695
1	-0.00112203977200196	-0.00635641937130577	0.000526491321074249	-0.00312328686875128	0.000516639342663359	-0.00312402676834276	-0.00986869002413137	0.00907918176205212
1.1	-0.00280819558421361	-0.00556184449382524	7.06255897831327E-05	-0.00315201306641309	6.71191179825277E-05	-0.00316964489538992	-0.00987683186058545	0.0101422892987687
1.2	-0.00405911646461661	-0.00511981712737882	-0.000370790094873797	-0.00314080429959717	-0.00037160065369483	-0.003138730284293	-0.00906173773949944	0.0109523317550151
1.3	-0.00564800060937114	-0.00478748719732087	-0.000796900452160075	-0.00305756688574181	-0.000800136343565763	-0.00305956960713392	-0.00788577662402561	0.0115931067848841
1.4	-0.00694207338950925	-0.00413550464916049	-0.00121735389564878	-0.0029099643689102	-0.00121614140802018	-0.00291549083158142	-0.00631160416904045	0.0117288038914379
1.5	-0.00768382371933145	-0.00280726346813669	-0.00161868563178893	-0.00271428778779833	-0.00161707627720014	-0.00272277931078642	-0.00516968331315423	0.0116617720154807
1.6	-0.00717667281510829	-0.000962326485714625	-0.00197788612767381	-0.00246114365710629	-0.00197809711569364	-0.00246637017275855	-0.00397683502361031	0.0121251024385677
1.7	-0.00634521440114182	0.000398116725230333	-0.00230511405705062	-0.00216523995543732	-0.00230607949014098	-0.00215898823376563	-0.00287317020424913	0.0121891765450353
1.8	-0.00531082745588315	0.00172005338259763	-0.0025757854672339	-0.00181487027295356	-0.00258673354623938	-0.00182050250799436	-0.00192713868875564	0.0121538710031145
1.9	-0.004031828773758	0.00255410643965182	-0.00280136983806149	-0.00144472755886147	-0.0028137944973651	-0.00143858593420575	-0.00114644540694449	0.0118792325613814
2	-0.00314040233994595	0.00315644314797468	-0.00297587420890605	-0.0010367865629696	-0.00298547960764	-0.00103208758368224	-0.00120009512505041	0.0117962887075557
2.1	-0.00160331127658724	0.00396001861430811	-0.00308862442778224	-0.000610738337943453	-0.00308454740344739	-0.000612723754670898	-0.00047590577214336	0.0126095734275671
2.2	4.31684858126249E-05	0.00396534080470275	-0.0031467458256505	-0.000173653314318309	-0.00315802849456452	-0.000176492968921206	0.000815603405241359	0.0127435942767025
2.3	0.00152840151161242	0.00351731684242346	-0.00314248308103596	0.000269118349579258	-0.00314217622239635	0.000262247031785035	0.00204805209145251	0.0124523848520833
2.4	0.00291330481273662	0.00266530029114678	-0.0030697756109191	0.000706730847623968	-0.00307230912112201	0.000702479688068627	0.00329905791442336	0.0117867846019465
2.5	0.00360405805509758	0.00122842218673155	-0.00293311472988484	0.0011163131968309	-0.0029439890895076	0.0011226659871953	0.00372864309220097	0.0104897215387554
2.6	0.00410530822203324	0.000363457960219482	-0.00276180260706711	0.00151909926097265	-0.00275823330601822	0.00150680062935581	0.00387462961838129	0.0102365449478642
2.7	0.00475038448970716	-0.000827170170798859	-0.00251656977986987	0.00189064612164288	-0.00252184206436622	0.00189065018764441	0.00433928931519878	0.00991037847087479
2.8	0.00536029391838133	-0.00221310099965108	-0.00223430384570933	0.00221760099518549	-0.00222651568411533	0.00222738618406726	0.00488866274822962	0.00972541369236064
2.9	0.00587142917146483	-0.00404593668452235	-0.00190146140531746	0.00251674780974713	-0.00189775775965771	0.00251632796618429	0.00575579718265699	0.00938095205419241
3	0.00552847378129406	-0.00609135153806797	-0.00151818402825482	0.0027534299469965	-0.00153296270829384	0.0027594914062518	0.00613489100094481	0.00900230297980516
3.1	0.00522093121779481	-0.00773685619119478	-0.00112726523760837	0.00293214572849399	-0.00112262602700444	0.00294048908142429	0.00707283587573427	0.00921245419263926
3.2	0.00434791627296562	-0.00972447079233612	-0.000707327514570509	0.00306913859567427	-0.000709069207475178	0.00306852552353549	0.00802832074262914	0.00887566034005475
3.3	0.00293148855521802	-0.011569550730657	-0.000270152519802862	0.00313956824353693	-0.000268497853788205	0.00313583475995395	0.00902515084580489	0.00833239642524481
3.4	0.00105034214695045	-0.0131455000335135	0.000175607742482125	0.00313547852735987	0.00016936873177602	0.00315202097148323	0.0100365831045211	0.00728325017498842
3.5	-0.00165022800317523	-0.0143885136639135	0.000599387564917691	0.00309453150920117	0.000604983247691917	0.00309461619626563	0.0100080197071393	0.00586691052822842
3.6	-0.0041668035010961	-0.01444023227172	0.00102770957303024	0.002974070228694	0.00103589750742031	0.0029737656230568	0.0102773266550222	0.00560833865685015
3.7	-0.00656754272117057	-0.0144563263939039	0.00143755550331429	0.00279432704498226	0.00142794806568077	0.00280797889765337	0.0110659591207417	0.00474400515562657
3.8	-0.00910068743193912	-0.0140009762319396	0.00181625282871027	0.00256866626320906	0.00181863911116469	0.00257781942272909	0.0116261741866541	0.00349288626753029
3.9	-0.0114813765915875	-0.0131889793308755	0.0021638124032599	0.00229610347740256	0.00215654874970055	0.00229431210185215	0.0117984691532133	0.00184206943127677
4	-0.0142841005297367	-0.0118664459530865	0.00244819149651672	0.00197297848834191	0.00245264120704534	0.00197055080675333	0.0107128624248445	0.000429972712809594
4.1	-0.0162262206671771	-0.00928036570125228	0.00269901684747312	0.00161550459116328	0.00269776338878504	0.00161623742959668	0.0102831527419724	0.000680720447987703
4.2	-0.0174754558824365	-0.0067954172059579	0.00290000868424768	0.00121551999997723	0.00290449302998433	0.00120681450380302	0.0106622812447949	0.00041634980483271
4.3	-0.0183128002729765	-0.00422081916165766	0.00304443428607205	0.000803347837383357	0.00305087330293406	0.00079555719752847	0.0110876981946648	-0.000284613571407987
4.4	-0.0187016585337164	-0.00162852774860986	0.00312088910823096	0.000368625529126829	0.00312326742078997	0.000366373671567185	0.0113819052807317	-0.00139924972325194
4.5	-0.0192220918970502	0.000910956432166994	0.00314340732556618	-6.66184181290666E-05	0.00314877468040813	-6.99757572077447E-05	0.0106255942571284	-0.00272490019933451
4.6	-0.0189230173650344	0.00429758151808396	0.00310369261275881	-0.000509402444004992	0.00310488499008304	-0.000496477830254607	0.0101525953383139	-0.00272259885805485
4.7	-0.0177328918643659	0.00713809404631054	0.002999875751588	-0.000930053720205024	0.00301519835457781	-0.000939640335889949	0.0101907348097924	-0.00324192673382474
4.8	-0.0161778861898986	0.0096995618532074	0.00283940467924208	-0.00134514803075617	0.00284790435261985	-0.0013512217620759	0.0101570831774673	-0.00385692772815133
4.9	-0.0139169961095755	0.0117841066390175	0.00261966907277802	-0.00172913764216785	0.0026238304953019	-0.00172621957574366	0.0102535006816433	-0.00467926747020484
5	-0.0118161008785628	0.0132770869745051	0.00236393418570377	-0.00208640424973387	0.00236755405801398	-0.00208372441460882	0.00969662626895918	-0.00554924551651496
5.1	-0.00862210818195778	0.0148585494372589	0.00205169303001944	-0.00240115800314409	0.0020539954346308	-0.00239979291353449	0.0100492069850732	-0.00552692988093439
5.2	-0.00531695595237342	0.0150511403240719	0.00169307754095687	-0.00265183369737215	0.0016948033342041	-0.00265698191876033	0.010687611147097	-0.00660434460857496
5.3	-0.00236329144789348	0.0146308646798208	0.00130650274309898	-0.00286835428166046	0.00130963655369713	-0.00286628181329414	0.0107452438117255	-0.00797489752476297
5.4	0.000310699313860054	0.0137183999724031	0.000882014956671539	-0.00301842067520299	0.000899242315504283	-0.00302961832491777	0.0103636118617852	-0.00963636189621236
5.5	0.00200603913697923	0.0126775005008254	0.000464498170991119	-0.00311971571171356	0.000474589134323947	-0.00312916105781332	0.00840217027933142	-0.0108720028673487
5.6	0.00451999800761253	0.012131783774758	2.37028440000148E-05	-0.00315344111743269	1.51624818399315E-05	-0.0031566715302557	0.00761003279974963	-0.0101533750544471
5.7	0.00681633826838573	0.0103333692044012	-0.000407499610868003	-0.00312307340181169	-0.000424141444113684	-0.00312675496085816	0.00752603588178152	-0.0103829705865344
5.8	0.00846360585913898	0.00815969181501154	-0.000854756266708972	-0.00302897013357631	-0.000858289023766812	-0.00304299262026336	0.00732880820465581	-0.0111277516805876
5.9	0.00970265728931257	0.00561712392826292	-0.0012626010227682	-0.00288902597807258	-0.00127085196141115	-0.00288894552037748	0.00697814974990366	-0.0125085506922676
6	0.00939540748172933	0.00241329161010867	-0.00166176030533807	-0.00267839340687806	-0.00165819411064241	-0.00267856200545546	0.00458959875349356	-0.0145491481429822
6.1	0.00867055110040374	0.000800242348381362	-0.0020145073727739	-0.00242503415992772	-0.00201615086081432	-0.00242102540473841	0.00198003832728198	-0.0137020887306041
6.2	0.00812050946622179	-0.00118356274775866	-0.00232895765859076	-0.00211257679225877	-0.00233266825184921	-0.0021244707386633	0.000797034483231029	-0.0128900289137817
6.3	0.00731631063784122	-0.00309686476954124	-0.00260836446223219	-0.00177703876451624	-0.00261751127808104	-0.00177128921515246	0.000215879588922414	-0.0122644326875142
6.4	0.00631821090914165	-0.0053371653285596	-0.00283460198669606	-0.00138388570516019	-0.00282486351133638	-0.00138879993362497	0.000199752223475357	-0.0124441153707439
6.5	0.00407715065941433	-0.00725638667758119	-0.0029888985965896	-0.000980593977145752	-0.00299677144382397	-0.000976111987621972	-0.00108004383075559	-0.012697473288611
6.6	0.00255199431708647	-0.00815859443534663	-0.0031012512421975	-0.000555638539061276	-0.00310288626014511	-0.000559625702935822	-0.00081675335526967	-0.0119518744171246
6.7	0.000405617399558574	-0.00920863296770119	-0.00315263537082582	-0.000114617139419895	-0.00316151064900473	-0.000108321351262782	-0.000963728439890862	-0.0124548146653256
6.8	-0.00196535781904979	-0.00927209247296225	-0.00313002190107205	0.000328885585508801	-0.00314113742767636	0.000333949923319588	-0.00159486584687963	-0.0125965625778584
6.9	-0.00399272636714596	-0.00899473834277756	-0.0030534803586244	0.000761929468957871	-0.00305647261153275	0.000764324962870968	-0.00206094134920703	-0.0130379240289629
7	-0.00694414813631852	-0.00823030063486869	-0.00292051651036242	0.00118355267729043	-0.00293338453638059	0.00118134605839651	-0.00440912703365185	-0.0133838647584759
7.1	-0.00848379424117836	-0.00569087272862554	-0.00274067110372137	0.00157755104072824	-0.00273698588404428	0.00158624066185167	-0.00521874416470266	-0.0111124569924879
7.2	-0.00944512018792929	-0.00388898018453703	-0.00248136638799033	0.00194605239172957	-0.00248791094468556	0.0019481458504801	-0.00476061094765642	-0.0101242497013311
7.3	-0.0103846690526276	-0.00181291515028585	-0.00218484377655089	0.00226508769764075	-0.00219607987647256	0.00227016781106771	-0.00410125332948504	-0.00971636664240297
7.4	-0.0107066583832131	0.000325134728918774	-0.00184355869272291	0.00254969935857496	-0.00185044925988919	0.00256335728348609	-0.00313501798728586	-0.0104023971777222
7.5	-0.0115352410274457	0.00196232372481852	-0.00147350925730855	0.00279321561481898	-0.00146647253097671	0.00280062119399427	-0.00404026340688972	-0.012644148214474
7.6	-0.0113861044306565	0.00524119882963675	-0.00106300138780106	0.00296787551065648	-0.00106439270355292	0.00296317149092602	-0.00527089402819322	-0.0123953678195503
7.7	-0.0101331082895401	0.00740216016304167	-0.00063437082885443	0.00308765832506278	-0.000635716507138888	0.00308659771632274	-0.0058087148347125	-0.0132977903155346
7.8	-0.00839211142719475	0.00896909621596859	-0.000207589946323817	0.00313657886364514	-0.000215398776422078	0.00314307107555843	-0.00702767630400783	-0.0141511223390793
7.9	-0.00628164768734754	0.00980463240054056	0.00023679007663174	0.00314330814103512	0.000244756366274287	0.00314478467014092	-0.0088567674244068	-0.0148229790059822
8	-0.00516743784163457	0.010528240561864	0.000680716182725729	0.003064707513883	0.000680817263377326	0.00306961192016328	-0.0123396187460099	-0.0141920406048803
8.1	-0.00204143190387724	0.0117543577467155	0.00108732993497321	0.00294598518186339	0.0011064952430319	0.00294701969437345	-0.0130064084435138	-0.0113586882297251
8.2	0.000796592125562718	0.0114386280628578	0.00149272479063103	0.00276526499191123	0.00150196321062655	0.00275803522041572	-0.0130138311494229	-0.0101006515593126
8.3	0.00334662617065138	0.01074621368102	0.00187044395419294	0.0025242036954984	0.00186884315604027	0.00253777737961318	-0.0130498003135509	-0.00917031133654428
8.4	0.00588406017345158	0.0094034815039941	0.00220555432078068	0.00224211857176993	0.0022025212789853	0.00224190583681281	-0.0129985527863631	-0.00900815149537404
8.5	0.00691598186694138	0.00748575780190235	0.00248579006442418	0.00191178456106501	0.00248490174028183	0.00191496975864417	-0.0151843522876247	-0.0089483825380552
8.6	0.00876740675062966	0.00675342125018176	0.00273437328621474	0.00155259301597677	0.00274386354624128	0.00154601975795303	-0.0158462708275673	-0.00604457595049474
8.7	0.0106032948759224	0.00447703523324521	0.00291959359049812	0.00114678060392615	0.00292516002893511	0.00114748493428818	-0.0150763024024364	-0.0045970629868425
8.8	0.0116651709915077	0.00185006032052677	0.00305327665176789	0.000734034724987092	0.00305901374186085	0.000725252542924495	-0.0143167774187015	-0.00390119336793903
8.9	0.0124292161941715	-0.00124668576046937	0.00312692809391042	0.000301379905740965	0.00312605066488946	0.000299136742993804	-0.0132790939056175	-0.00404942799714535
9	0.0116016723753901	-0.00490227195834441	0.00313945746244278	-0.00013984816160342	0.00314262667849694	-0.000135751968415738	-0.0141381576163985	-0.00491754901363512
9.1	0.010787562102716	-0.00744854035859284	0.00309081773980893	-0.000585838713999481	0.00309375411175851	-0.000572947300030394	-0.0143700570402636	-0.00370146790118421
9.2	0.00928027610659295	-0.0106901870287717	0.00297714870135899	-0.0010024233075589	0.00298479152219457	-0.00100532873106121	-0.0142052857827947	-0.00355728717172077
9.3	0.00673222353771904	-0.0133305506658883	0.00280680097094248	-0.00140518143760183	0.00280605349081355	-0.00141016530270938	-0.014481743959566	-0.00323448794907602
9.4	0.00379784157127609	-0.0154129764910626	0.00258559282378206	-0.00179404307396479	0.00259212447208634	-0.00178646681708694	-0.0147601890214592	-0.00300409809917694
9.5	-0.000452914093125188	-0.0163413701096738	0.00230754395786816	-0.00213233459053349	0.00231495110844902	-0.00213371537464208	-0.0164083918822205	-0.00203702272703581
9.6	-0.00342429999234483	-0.0157467323093157	0.00198574151010038	-0.00243086848167718	0.00198607524899633	-0.00242988950313689	-0.0158785263935251	0.000633830402827804
9.7	-0.00658433998019975	-0.0154747213233317	0.00161948989198445	-0.00267792426549068	0.00162498665958692	-0.00268523784856211	-0.0146543530902839	0.0016334081553581
9.8	-0.0099735901235897	-0.0143717265685437	0.00123530980708882	-0.00288562651257599	0.00124102810808533	-0.00287716291780434	-0.0136165892466436	0.00212077018716296
9.9	-0.0130019739943337	-0.0126350787931393	0.000828439473819024	-0.00302484647937096	0.000821124321252414	-0.00302359182959013	-0.0127133459608352	0.00169696384623121
10	-0.016846792435302	-0.0103683915235027	0.000395755458488062	-0.00310711270358872	0.000388233145810074	-0.00311947912847719	-0.0141840989124846	0.00101244526079017
10.1	-0.0190751150416709	-0.00602619622531849	-4.02248772978451E-05	-0.00313605586544925	-5.04035530257397E-05	-0.00313065153621889	-0.0144818526128809	0.00301579974111428
10.2	-0.0203080268881012	-0.00210248844654036	-0.000484872368396943	-0.00309958571527205	-0.000488260409945122	-0.00309680552423829	-0.0136246643136405	0.00390773555718372
10.3	-0.0207823008627291	0.00224079971300454	-0.000916914587024778	-0.00299221584574931	-0.000908880115936893	-0.00300128534948615	-0.0126291805039787	0.00433988657894582
10.4	-0.0199801768566748	0.00629683041086134	-0.00131201375963599	-0.00283305453767021	-0.00131034771933451	-0.00283922885104112	-0.0113806738171736	0.00353724330500506
10.5	-0.0195088269945768	0.0100296709822622	-0.00169376993364395	-0.00263441963798324	-0.00169066475358527	-0.00262149509133211	-0.0126929446698334	0.00241075916671123
10.6	-0.0173568096628429	0.0145578046096547	-0.00204599753836831	-0.00236971206607407	-0.00204382359653306	-0.00237352138457363	-0.0131755611775527	0.00355618774245151
10.7	-0.0145901819160088	0.0182480834909154	-0.00236023792520931	-0.00206787109632223	-0.00235675092286407	-0.00206261611168477	-0.0133709646549305	0.00434905781997455
10.8	-0.0109419217704677	0.0218622339252923	-0.00262639935398016	-0.00170856330043111	-0.00262123366309061	-0.00171745468353951	-0.0132346157051681	0.00555625147683653
10.9	-0.00589124959390403	0.0242545547206838	-0.00283021958963723	-0.00133825596517007	-0.00283538113782774	-0.00133752844682793	-0.0121719819039769	0.00604440512531258
11	-0.00159409059045877	0.0255310170167736	-0.00299322648602495	-0.000928372159303378	-0.00299804906832853	-0.000935095109782817	-0.013221207803985	0.0062868965181652
11.1	0.00426142116550852	0.0268827525271571	-0.00310221415202044	-0.000500449389966728	-0.0030913890747671	-0.000497604637652647	-0.0122629058143809	0.00883384634776148
11.2	0.0101641393756858	0.0259894463821392	-0.00312897684441107	-6.48836332716424E-05	-0.00313610204178012	-6.96987597496841E-05	-0.0101598537402646	0.00963773277240055
11.3	0.0156062916002612	0.0240338315834892	-0.00310212338711643	0.000379608662289353	-0.00311361178567268	0.000369607802659595	-0.00791927750602246	0.00960848844273066
11.4	0.0207052293215316	0.0209265179147084	-0.00303239297619811	0.000804042280646239	-0.00302750481056312	0.000811589371296893	-0.00588812460814445	0.0084124173532806
11.5	0.0240208678617174	0.0168736989819801	-0.00289035950077493	0.00122419453747139	-0.00289312673639726	0.00123444503783324	-0.00648312461860432	0.00694963954837253
11.6	0.0278590445200145	0.0132718993145871	-0.0026923754028553	0.00161023238954296	-0.00269235612097513	0.00161316005589547	-0.00542607352507118	0.00763386028380582
11.7	0.0311035083137159	0.00801470744958795	-0.00243427174479657	0.00196124238986442	-0.00243484039434109	0.00196981054519797	-0.0035478149571088	0.0064726608571314
11.8	0.0333024380310925	0.00208772125744395	-0.00214274710380803	0.00229294497815478	-0.00214684944812021	0.00229463228952547	-0.00220308801080271	0.00437221340229352
11.9	0.0342832589828972	-0.00489874929974334	-0.00179435210124789	0.00257129747945297	-0.00180733575372588	0.00257558428607168	-0.00207776223561033	0.0011736218954608
12	0.0322639511622122	-0.0116612718122997	-0.0014176842313623	0.0027901213120529	-0.00141709095141116	0.00279152614922601	-0.00541463407559481	-0.000829114070152765
