# GHZ S RI R 50
0.2	0.00622459857314396	0.00144452844927728	0.00304581253443458	-0.000898699324355015	0.00305617708788677	-0.00089189989240336	-0.0136656272093675	0.00514494460404465
0.3	0.00646663916507918	-0.000676729017753895	0.00290079107150276	-0.00132183183089083	0.00289355871007342	-0.00130890053421153	-0.0129458649395588	0.00517168841757585
0.4	0.00614905523650726	-0.00256893952081124	0.0026683125831446	-0.00169279546136971	0.00267356839626319	-0.001701349255359	-0.0125141413938205	0.00546070013738559
0.5	0.00496600460812396	-0.00387680193993541	0.0024094901191692	-0.00204774960071706	0.00242100646370946	-0.00205997607084969	-0.012552085527981	0.00616513591334525
0.6	0.00427097197252021	-0.00456274830485923	0.00209761959615714	-0.00236184304588314	0.00209683182083201	-0.00236898274352364	-0.0117903673962246	0.00722175222943663
0.7	0.00319774518028821	-0.00542695332758238	0.00175043864063727	-0.00263878100632143	0.00174848549982594	-0.00263897879132891	-0.0111777875788863	0.00773030673732445
0.8	0.00194570555208518	-0.00591755365330866	0.00136549443210984	-0.00285498789115086	0.00135291468320619	-0.00285952549521996	-0.0106809294836558	0.00836374796817335
0.9	0.000664366843212206	-0.00616799492975331	0.000949723407491469	-0.00301744688604705	0.000950755905788088	-0.00302812631871045	-0.0100439163542901	0.00884440315629263
1	-0.00118867762833724	-0.00639577553195845	0.000526387451074792	-0.00312136473865378	0.000516541472653473	-0.00312210486667275	-0.010001279563881	0.00897093143625319
1.1	-0.00286059597838592	-0.0053485389602424	7.07282886171076E-05	-0.00314977835519453	6.7225153172777E-05	-0.00316739787258039	-0.00993024610424982	0.0103048050107993
1.2	-0.00395149118368525	-0.0048112020792732	-0.000370069594687676	-0.00313848137372958	-0.000370879831250354	-0.00313640904025789	-0.00890863810613463	0.0111947661530894
1.3	-0.00532294959671029	-0.0044749146076362	-0.000795639412806961	-0.00305544882548711	-0.000798872444632572	-0.00305745074882835	-0.00747834074296135	0.0117952361119826
1.4	-0.00653888923262001	-0.00400278821395459	-0.00121579984059556	-0.00290817416925622	-0.001214586916981	-0.00291369640215408	-0.00583128692447487	0.0116904161646398
1.5	-0.00742654414587707	-0.00266222630601969	-0.00161680424723001	-0.00271238647789547	-0.0016151944898536	-0.00272087069701428	-0.00484020865995312	0.0115910474609551
1.6	-0.00688933689728179	-0.000878858031063707	-0.00197519593900178	-0.00245975019469599	-0.00197540471563424	-0.00246497220463408	-0.00367567105442545	0.0119065914258915
1.7	-0.00617225452792768	0.00041715709000902	-0.00230218505275076	-0.00216455564424258	-0.00230315266923737	-0.00215830952882646	-0.00276624648009434	0.0119126781070595
1.8	-0.00524624381383326	0.00172366589932789	-0.00257278235802446	-0.00181474734721329	-0.00258371874899099	-0.00182038072839707	-0.00197070845121245	0.011903740837518
1.9	-0.00411914222127241	0.00256293337408875	-0.0027981840386339	-0.00144504283418539	-0.0028106014976285	-0.00143891330561604	-0.00134934239186678	0.0116952425273394
2	-0.00335021818859162	0.00341730840969081	-0.00297231435242602	-0.00103818435403193	-0.00298191462089536	-0.00103349729498813	-0.00145064773460173	0.0119068970789459
2.1	-0.00161414352227356	0.00429953549184963	-0.00308585267846736	-0.000613127327673446	-0.0030817767581542	-0.000615107590895521	-0.000477295469310342	0.0127262743624342
2.2	8.59656103518277E-05	0.0042558012035163	-0.00314454515430846	-0.000176474767192796	-0.00315581786560761	-0.00017932310174202	0.000833311635027071	0.012756395743414
2.3	0.00158488096633379	0.00375756577116483	-0.00314080314636603	0.000265809948826607	-0.00314048960889052	0.000258943199382963	0.00201813836906629	0.0124045600724179
2.4	0.00289560731806938	0.00283012654112645	-0.00306881335278142	0.000702773259821714	-0.0030713404812551	0.000698521635834554	0.00312669279650659	0.0117151352386316
2.5	0.00339698039023393	0.00158531938485615	-0.00293372152244779	0.00111220475092116	-0.00294460099291267	0.00111854167850543	0.00339538168911316	0.0107341307792106
2.6	0.00413047041123493	0.000923276509921857	-0.00276303206023326	0.00151567565390985	-0.00275944939127172	0.00150338332488782	0.00388858136527096	0.0106941033797425
2.7	0.00499442121645312	-0.000333866604128756	-0.00251840153439866	0.00188740163136507	-0.00252367301246398	0.00188739950892857	0.00463172239512407	0.0102539736282107
2.8	0.00567773135716992	-0.00191675033387945	-0.00223693252985002	0.00221473625317836	-0.00222915682134373	0.00222453058015464	0.00527256813906542	0.00981683863430468
2.9	0.00604649935441847	-0.00389927970920369	-0.00190493673863934	0.00251475546979755	-0.001901231970671	0.00251434022498385	0.0059985395740495	0.0092979558832656
3	0.0055756135530595	-0.00580497475820129	-0.00152138401752606	0.00275275493328363	-0.00153617321201032	0.00275880352846609	0.00631327355967181	0.00903738306269732
3.1	0.00535864201090631	-0.00747589387302769	-0.00113039190465038	0.00293142571875339	-0.00112576046701326	0.00293977495821262	0.00736028556118102	0.00910403788177904
3.2	0.00444098076330236	-0.00949820325048412	-0.000710867132305688	0.00306909521316704	-0.000712608568126613	0.00306848008176073	0.00820478765190524	0.00865130726476575
3.3	0.00298677913618643	-0.0113741275337992	-0.000273648679402013	0.00314047081598511	-0.000271989348511614	0.00313673770028974	0.00909052942443938	0.00804850102361787
3.4	0.000980233874429388	-0.0129882925814444	0.000172791517103001	0.00313716135672672	0.000166534173885968	0.00315370604877483	0.00991390987444807	0.00698516552611915
3.5	-0.00181829901334047	-0.0140040476444045	0.000596875920836031	0.00309583081976639	0.000602472947362181	0.00309592034434052	0.00981007827834044	0.00583262543293571
3.6	-0.00417296500265561	-0.0140643598142887	0.00102478376020939	0.00297633233977986	0.00103297511075252	0.00297603673800689	0.0102411207395988	0.00549648821686486
3.7	-0.00662150926978191	-0.0141316309747536	0.00143536612315278	0.00279741943739419	0.00142573873678282	0.00281106860789397	0.0108930466508596	0.00455486022764661
3.8	-0.00923823002321303	-0.013651353682921	0.00181486846120154	0.00257205624047006	0.00181724725379079	0.00258121746993984	0.0112785461066473	0.00338173464561281
3.9	-0.0117315769668501	-0.0127228009060334	0.00216286149957345	0.00229941791802922	0.00215559547772461	0.00229761871662437	0.0112988046652758	0.00197698536818465
4	-0.0144293137234416	-0.01102522830222	0.00244726559799553	0.00197730640757419	0.00245172118197898	0.00197488277696117	0.0104406571125792	0.00107686525508043
4.1	-0.0159539570295188	-0.00853252768971174	0.00270001801521098	0.00162017520112658	0.0026987624444661	0.00162090740648017	0.010569084844463	0.00116771742056204
4.2	-0.0171143476361823	-0.00629363285788234	0.00290201915950545	0.00121951415349645	0.0029065163981416	0.0012108033943724	0.0110495226643992	0.000583703483709456
4.3	-0.0179940773605457	-0.0039244167952059	0.003047016534857	0.000806858993917207	0.00305346925960604	0.000799065555127421	0.0114171645092105	-0.000340272508316489
4.4	-0.018592046850593	-0.00150031517475766	0.00312408471019338	0.000372099425833155	0.00312646793635406	0.000369847329463868	0.0114952010367465	-0.00157876593815943
4.5	-0.019323143154517	0.00125907282752232	0.00314857294158775	-6.39236090613145E-05	0.0031539520090458	-6.72816157065499E-05	0.0106644448439403	-0.00262508908088424
4.6	-0.0189032806089866	0.00462336868141575	0.00310878883611056	-0.000508759459115742	0.00310997708136908	-0.00049581405447056	0.0104368065094533	-0.0027863303792354
4.7	-0.0178059426335862	0.00742661661785136	0.00300477101728348	-0.000930205019844116	0.00302012063364518	-0.000939799677001223	0.0103805510318072	-0.00347831150960719
4.8	-0.0163312368886984	0.0100008432068463	0.00284442560063307	-0.00134617402943242	0.00285294110042322	-0.00135225407457305	0.0102158754572837	-0.00417322116205486
4.9	-0.0142311117165315	0.0121129720726443	0.00262493624050249	-0.00173162103173608	0.0026291045340393	-0.00172869650783732	0.0100808523871414	-0.00500066956457222
5	-0.0121542015869512	0.0139467354265529	0.00236758339322024	-0.00209097582180787	0.00237121074051973	-0.00208829225284214	0.00951634753190107	-0.00554181965514192
5.1	-0.0087836329453576	0.0154752333929643	0.00205403216397626	-0.00240530888873581	0.00205633837368988	-0.00240394244767301	0.00999812169940946	-0.00569818507007071
5.2	-0.00554742424008326	0.0157212806272734	0.00169492416610107	-0.0026564275483035	0.00169665113005007	-0.0026615842337841	0.0104203475692168	-0.00674820907539149
5.3	-0.00254327271912304	0.015443896227378	0.0013072865901383	-0.00287358684998346	0.00131042641546223	-0.00287151248419332	0.0104205768087368	-0.00790021384140731
5.4	0.000196428322440936	0.0145986905164056	0.000880948179839406	-0.00302380308919716	0.000898193180550201	-0.00303503195012026	0.0100833085013656	-0.00935920006975193
5.5	0.00216532672976765	0.0138244807892313	0.000462366846882584	-0.0031232218299692	0.00047246004172091	-0.0031326850174971	0.00856644778098658	-0.0102481991520486
5.6	0.00501674273130291	0.0128787132624464	2.20913788163275E-05	-0.00315708687344501	1.35394975380704E-05	-0.00316031657014413	0.00818284161210788	-0.0101206653020406
5.7	0.00720436196836046	0.0108113008450121	-0.000410116136285897	-0.00312675302619188	-0.000426781513892095	-0.0031304280523291	0.00785557075490545	-0.0107235956936485
5.8	0.00872556121623411	0.00846937302906772	-0.000858352230745255	-0.00303185903878514	-0.000861901128664022	-0.0030458952603026	0.00736088807166764	-0.0116066321336851
5.9	0.00965523831491481	0.00576791561590211	-0.00126634613625877	-0.00289054679018239	-0.00127460457448923	-0.00289045887178102	0.0065578830623296	-0.012956036191786
6	0.00905411361875205	0.0030256748955367	-0.00166459920826869	-0.00268040635734416	-0.00166102945715427	-0.00268057665611582	0.00400360174601126	-0.014219293653536
6.1	0.00866649989257123	0.00142255793657541	-0.00201932635948364	-0.00242686133425022	-0.00202096895659772	-0.00242284555265063	0.00201794418288203	-0.0133485909949446
6.2	0.00807488854470854	-0.000682810651865445	-0.0023342475461923	-0.0021126784050536	-0.00233797600265432	-0.00212458332513142	0.000942307031277687	-0.0127596246262947
6.3	0.00717038436753891	-0.00266394514606416	-0.00261326752587413	-0.00177583526622791	-0.00262241728025437	-0.00177006868684305	0.000322879682127673	-0.0123269165455074
6.4	0.00587133913946251	-0.00481061131980269	-0.00283884209203688	-0.00138234987270443	-0.00282909898164609	-0.00138727899136022	-4.87602183031974E-06	-0.012479162038746
6.5	0.00378011906468898	-0.00617791739060852	-0.00299451039395441	-0.000978248855135597	-0.00300238908919395	-0.000973750354709537	-0.00102043391761145	-0.0122710782678516
6.6	0.00249958508323087	-0.00721719832558889	-0.0031054049685796	-0.000550741605567426	-0.00310704868708443	-0.000554729969263603	-0.000580914938440359	-0.0119288360093447
6.7	0.000449151482603765	-0.00821677828195391	-0.0031551290265639	-0.000109447624677254	-0.00316400029647637	-0.000103132449442991	-0.000826097106805943	-0.0124581151018471
6.8	-0.00178239326059658	-0.00841336820276268	-0.00313169689591081	0.000333999209326698	-0.00314281229147596	0.000339084430609291	-0.0014635464920977	-0.0127025663598373
6.9	-0.00403782330909673	-0.00826709896485209	-0.00305504068986304	0.000767683830890688	-0.00305803174472886	0.000770086486653077	-0.00223690958338314	-0.0131504104534038
7	-0.00685903288634169	-0.00697666788369415	-0.00291962099114167	0.00119118574231468	-0.00293250252433461	0.00118900795815862	-0.00426681109455429	-0.0128798364628961
7.1	-0.00798462401092604	-0.00483528102568103	-0.00273759632307391	0.00158333198539767	-0.00273389286552421	0.00159201458222587	-0.00459894131566163	-0.0112643425059079
7.2	-0.00903592899582425	-0.00327623528245209	-0.00247781443658029	0.00195098328791666	-0.00248435547708501	0.0019530895128157	-0.00442638497654676	-0.0106836468900071
7.3	-0.0100344224956407	-0.00140607012392205	-0.00218045167033899	0.00226969798762266	-0.00219167846132356	0.00227480124910688	-0.00410472503735416	-0.0104958801803529
7.4	-0.0106805248429291	0.000442056661613533	-0.00183730867084855	0.00255376041359651	-0.00184416611075086	0.0025674330303305	-0.00377702641637272	-0.0112943349881065
7.5	-0.0118915289518835	0.00250737091256644	-0.00146606221382021	0.00279377272292941	-0.00145901607649654	0.00280115605382413	-0.00509536141727031	-0.0126464423998961
7.6	-0.0115407000273191	0.00567013959510223	-0.00105727885634569	0.00296753672834126	-0.00105867704810439	0.00296283839102248	-0.00590377688469612	-0.0123459936999055
7.7	-0.0106311791294573	0.00785841821101318	-0.000628405840713039	0.00308670769146839	-0.000629752510598806	0.00308565021268005	-0.00669789706444262	-0.0131394416170733
7.8	-0.00908113313467922	0.00974340450411103	-0.000201504411866842	0.00313415058622449	-0.000209294014609681	0.00314065165000708	-0.00796512403869989	-0.0135855049168985
7.9	-0.00706672815808653	0.0110177506313127	0.000241925908006677	0.00313864740444801	0.00024988399014581	0.00314010810987568	-0.00958584888918967	-0.013720884021923
8	-0.00514502414100848	0.012460227660154	0.000682794208735871	0.00306039883226962	0.000682899797050068	0.00306529727611291	-0.0119244306988959	-0.0125511240326806
8.1	-0.0016004959495326	0.013090839775263	0.00109037668322234	0.0029422025857942	0.00110952814532882	0.00294321083879444	-0.012080583282771	-0.0107945426383969
8.2	0.00124011461335293	0.0125148134753586	0.00149519266289073	0.00276002516800169	0.00150441025092774	0.00275278960578224	-0.0122658011399706	-0.0100101020408035
8.3	0.00375471499511644	0.0115929170867317	0.00187116627757373	0.0025182246726373	0.00186958559520147	0.00253178156902569	-0.0125049995779452	-0.00937054687796882
8.4	0.00595332267206615	0.010122876952527	0.00220428136171583	0.00223713322116841	0.00220125243316	0.00223692328333754	-0.0129044912769506	-0.00926020957117239
8.5	0.00711611428851325	0.00879179159658337	0.00248595325412644	0.00190783216519339	0.00248506885913457	0.00191101596244599	-0.0147984447712748	-0.00853652153193549
8.6	0.0093819298665224	0.00757686998322484	0.00273305843123838	0.00154670067515064	0.00274252710511427	0.00154012238399476	-0.0149697259714444	-0.0064042545855889
8.7	0.0110501591255555	0.00501038494844156	0.00291634871753142	0.00114172705755087	0.00292190730740954	0.00114242405294264	-0.0145864195866982	-0.00544925390560667
8.8	0.011929594761166	0.00216909396286431	0.00304930220059085	0.000730320066262851	0.00305502314182764	0.000721546218470398	-0.0143267394091853	-0.00499238217735984
8.9	0.012216691906122	-0.00108273509352815	0.00312356197629314	0.000298277502490438	0.003122683591717	0.000296037717164175	-0.0140682391615815	-0.00506333457572844
9	0.0111350812258558	-0.00416742106671556	0.00313420651969342	-0.000144563730344318	0.00313737710235069	-0.000140479087775226	-0.0151081436832488	-0.0049770789218742
9.1	0.010394382477502	-0.00673663510249939	0.00308354672486474	-0.00058743202097026	0.00308648866945212	-0.00057457139103376	-0.0151033466856107	-0.00373584247756862
9.2	0.00874888922860179	-0.00965572086465096	0.00297058528022584	-0.0010021594829959	0.0029782110566827	-0.00100506356294703	-0.014998920375082	-0.00321610179899307
9.3	0.00642120824262207	-0.0120152377426813	0.00280075358804685	-0.00140421511671538	0.00280000457203657	-0.00140918927006073	-0.0149436180785351	-0.00256595444146495
9.4	0.00357838160536031	-0.0140351857465064	0.00257869557089532	-0.00179280223280539	0.00258522100118321	-0.00178524736583327	-0.0149333615074216	-0.00222470941025465
9.5	-0.000164625462810132	-0.0146532667649729	0.00229999345522202	-0.00212696950439448	0.00230737842788642	-0.00212834904245761	-0.0157507104321231	-0.00105423700989788
9.6	-0.00289833116973694	-0.0146853510863441	0.00198171596164788	-0.00242443837520948	0.00198204860384476	-0.00242346164300055	-0.0149457153203405	0.000567016434141527
9.7	-0.00626831562877297	-0.0146067920281753	0.00161653081871488	-0.00267164014724051	0.00162201713431626	-0.0026789363208558	-0.0141531275250419	0.00114440337680133
9.8	-0.00980956663166299	-0.0136190537404849	0.00123300806096176	-0.00287861922957826	0.00123871124616583	-0.00287017427742589	-0.0135351967030709	0.00147457310588296
9.9	-0.0132101625615446	-0.0118773529119002	0.00082771190399032	-0.0030160027834363	0.000820416440982324	-0.0030147554343716	-0.0132518264381001	0.0012637131251433
10	-0.0169043634136677	-0.00892607356207077	0.000399693258649189	-0.0030992760837012	0.000392207752417143	-0.00311162554034299	-0.0144436605326484	0.0015372813661389
10.1	-0.0187061535056453	-0.00495405580620167	-3.66038649776435E-05	-0.00313058479270473	-4.67707535831015E-05	-0.00312520149321672	-0.0141760317610671	0.00305549134849536
10.2	-0.0200089489212041	-0.00127027222175019	-0.000480466401556694	-0.00309405440820386	-0.000483850906055228	-0.0030912834411705	-0.0134892164146737	0.00364749532184704
10.3	-0.0206509108542309	0.00282442051958889	-0.000910667626566198	-0.00298739601825626	-0.000902636468228928	-0.00299643515417327	-0.0127971714837932	0.00391673111101867
10.4	-0.0204459799562218	0.00685100808993615	-0.00130371896109591	-0.00283092359566876	-0.00130204269842374	-0.00283708365284691	-0.012190443154476	0.00336542832381281
10.5	-0.0200901761796522	0.0113684002872555	-0.00168817880006598	-0.0026356889470457	-0.0016850977992891	-0.00262276712921597	-0.0131448315927454	0.00319490362237848
10.6	-0.0175396381344144	0.0159610526679645	-0.00204071048515259	-0.00236949662756375	-0.00203853435796574	-0.00237329886328829	-0.0130396063392693	0.00426166066081642
10.7	-0.0144978473580249	0.0197276258017716	-0.00235400542173112	-0.00206893207499877	-0.00235053106680505	-0.00206367831950249	-0.0128466322602738	0.00493127869716781
10.8	-0.0105998243571416	0.023025364070366	-0.00262053092822342	-0.00171165559146135	-0.00261535413106654	-0.00172052825066024	-0.0124398776051898	0.0056475193003965
10.9	-0.00600564383834537	0.0252464391934339	-0.00282679930035499	-0.00134259866695122	-0.00283196006352715	-0.00134188031886788	-0.0118929206013911	0.00586413762952727
11	-0.00150686657138154	0.0271562304682484	-0.00298982634348679	-0.000930134953359718	-0.00299463895931863	-0.000936856197972908	-0.0125457489575577	0.00667151538445096
11.1	0.00462892326892893	0.028081773252293	-0.00309747606810339	-0.00050489127194812	-0.00308666932090761	-0.000502032407675374	-0.0112973569842448	0.00832961042124853
11.2	0.0104235201590959	0.0270927270087219	-0.0031262120032121	-7.07815122448116E-05	-0.00313332202523524	-7.56061290852031E-05	-0.00963168616987686	0.00873939830594833
11.3	0.0158305369960674	0.0250304919615588	-0.00310121641782452	0.000373926508793424	-0.00311268127421829	0.000363910410710174	-0.00785810210024305	0.00855660040510771
11.4	0.0206273480611913	0.0218529785304874	-0.00303151666802511	0.000799690391515838	-0.00302664113941008	0.000807238965638543	-0.00648076077289651	0.00752146176641362
11.5	0.0242104443132649	0.0183042593228442	-0.00288847300969935	0.00121680388788783	-0.00289125599398299	0.00122703395183692	-0.00674638759590743	0.00680111603901813
11.6	0.0282823284303369	0.0141040895392185	-0.00269479094598794	0.00160244902521106	-0.00269477906677545	0.00160537494662292	-0.00556174414116034	0.00679937474110277
11.7	0.0311263214695283	0.00858188241977398	-0.00243804656078744	0.00195522550849837	-0.0024386343916945	0.00196379009085533	-0.00437134134242739	0.00552269493758252
11.8	0.0327985107553144	0.00267954003099513	-0.00214675427010402	0.00228771770675245	-0.00215085869143167	0.00228939594321123	-0.00373290997647988	0.00382572197527512
11.9	0.0334083765989496	-0.00370520217652935	-0.00179914313343652	0.00256536763587169	-0.00181212801392858	0.00256962122129176	-0.0038814180549958	0.00179037778198723
12	0.0318995259706455	-0.00924100865114348	-0.00142763270303539	0.00278505512539243	-0.0014270444362967	0.00278646207420772	-0.00609215632514111	0.00126849673560035
