# GHZ S RI R 50
0.2	0.00590826858337042	0.00124458606745476	0.00304845134429167	-0.000897995007954117	0.00305882046228286	-0.000891185941631243	-0.014083536694917	0.00485851167924846
0.3	0.00626718023488792	-0.000657246389169981	0.00290419054323393	-0.00132143279262291	0.00289694434766312	-0.00130849364043332	-0.0132398420663861	0.00510574193153001
0.4	0.00602684833101554	-0.00230764564481646	0.00267252383431727	-0.00169316795021123	0.00267779114913793	-0.00170172868111396	-0.0126948591032919	0.0056508876237918
0.5	0.00530180878454645	-0.00364122202734037	0.00241373330700084	-0.00204985682917918	0.00242527081319096	-0.00206209691753976	-0.0121271865833705	0.00629947912435126
0.6	0.00433375609132663	-0.00468685664325291	0.00210110425046542	-0.0023643605661486	0.00210031753899976	-0.00237150998119968	-0.0115762042349975	0.00677213168057499
0.7	0.00305554196524482	-0.00536000283747505	0.00175393460130613	-0.00264201348404134	0.00175197867740221	-0.00264221225274336	-0.0112661993511759	0.00730674761522414
0.8	0.00175584142515037	-0.00568764807941761	0.0013685562194597	-0.00285932210929179	0.00135595695607012	-0.00286387075946241	-0.0109660639391112	0.00802131094675655
0.9	0.00037373527890848	-0.00568798795877614	0.000951566085545034	-0.00302284262804305	0.000952600909291072	-0.00303354125883979	-0.0106270287682845	0.00880192460080894
1	-0.00103761232347228	-0.00540423994329683	0.000526693184749465	-0.00312625578953629	0.000516831926903161	-0.0031269954649519	-0.0101687441168834	0.00973268566476073
1.1	-0.00240727940588474	-0.00484829924879158	7.11789389543935E-05	-0.00315491254036139	6.76719600208366E-05	-0.00317256119269468	-0.00952103092286373	0.0106651332990208
1.2	-0.00374506666782017	-0.00424555117660006	-0.000370829191062506	-0.00314433110060974	-0.000371640894406054	-0.00314225488140879	-0.00854889105724856	0.0115480352922689
1.3	-0.00509018004219414	-0.0036566303852971	-0.000797888530788047	-0.0030611601060315	-0.000801128269910126	-0.00306316513812281	-0.00692355665277589	0.0122328425049044
1.4	-0.0061821110275633	-0.00301010137117974	-0.00121915774967314	-0.00291293498370938	-0.001217944847952	-0.00291846766639843	-0.00514251675401854	0.0120608363518734
1.5	-0.00667118347196671	-0.00192207855812055	-0.00161989197153943	-0.00271702794238551	-0.00161828011658833	-0.00272552726199226	-0.00373576732413288	0.0114709981169693
1.6	-0.00658454031344971	-0.000490034154076661	-0.00198036828471197	-0.00246483751595833	-0.00198057894134784	-0.00247007139690076	-0.00325460421251717	0.0111059970870701
1.7	-0.00599643908440688	0.000942096052704188	-0.0023089005313932	-0.00216807812698859	-0.00230986636475856	-0.00216181694859278	-0.00281048101871001	0.011235972919407
1.8	-0.00510265471093684	0.00230029048346373	-0.00258001272954008	-0.00181661521090059	-0.00259097810973609	-0.0018222519156921	-0.0022416519081883	0.0114329159512952
1.9	-0.00396577733214096	0.00331692197488005	-0.00280538927657058	-0.00144589809744293	-0.0028178285697214	-0.00143974530531944	-0.00164554804810504	0.011662918603141
2	-0.00270614200700006	0.00409281844785845	-0.00298113148168864	-0.00103836273612844	-0.00299075323374683	-0.0010336548456037	-0.000923997270509451	0.0119821970619379
2.1	-0.00128386321630606	0.00449271516764319	-0.00309482136346569	-0.00060980208226252	-0.00309073803930626	-0.000611793964089351	-4.49253298907161E-05	0.0119957482720179
2.2	0.000157710657218464	0.0045874937242468	-0.00315214459358384	-0.00017133293024421	-0.00316344845890368	-0.000174167967307329	0.000858051548882581	0.0119234182574171
2.3	0.00157225280696225	0.00421668782394283	-0.00314737419645342	0.000272187955452981	-0.00314707259206473	0.000265305193070348	0.00169728602481057	0.0116520957910714
2.4	0.0027951917703877	0.00350429480320379	-0.00307480036204578	0.000710581540065904	-0.00307734204811735	0.000706324717722141	0.00243592709707449	0.011408265207547
2.5	0.00371938085860527	0.00250291961679233	-0.00293763218288736	0.00112306029639929	-0.00294851997565294	0.00112944277299355	0.00327345780411804	0.0111959592128437
2.6	0.00444904314595105	0.00136862793837059	-0.0027631964111679	0.00152617889049192	-0.00275964344630998	0.00151385591714914	0.00426403456191353	0.0107164525681253
2.7	0.00504846411138815	0.000124097290453761	-0.0025169206840627	0.0018973406425637	-0.00252220016707967	0.00189735332634181	0.00500239444698081	0.010076289189243
2.8	0.00556175129035136	-0.00131380287248632	-0.00223369712359071	0.00222461412667939	-0.00222588100380423	0.00223439996173208	0.00556274360666365	0.0095419575872582
2.9	0.00589480163493544	-0.00299543947304246	-0.00189904261592006	0.00252453440357116	-0.00189533426904001	0.0025241061497836	0.00625720091009539	0.00921214996431642
3	0.0058229994234696	-0.0048397237933839	-0.00151226173922902	0.00275954135982265	-0.00152703644677071	0.0027656458696812	0.00724044560306517	0.00889715898168931
3.1	0.00538925019192261	-0.00672550638002896	-0.00112193398510593	0.00293597029902286	-0.00111727546612581	0.00294430867651869	0.00814753293432185	0.00820201337913251
3.2	0.00442274189953579	-0.0085700851986057	-0.000701457288319486	0.00307268654100678	-0.000703201432614786	0.003072076656381	0.00869374395691509	0.00758103370392432
3.3	0.00300501032034286	-0.010345779731772	-0.000263069318972474	0.00314205169625486	-0.000261422286052321	0.00313831218312847	0.00930054916142991	0.00691895869454266
3.4	0.00103945011664365	-0.0117899097990651	0.000183662599418751	0.0031354985880415	0.000177465011829259	0.00315205948561981	0.00987224312041865	0.00609222772609938
3.5	-0.00130967044767844	-0.012821932920043	0.000605014516609767	0.00309207695498159	0.000610607981940054	0.00309215097044217	0.010299401142426	0.00508267455288802
3.6	-0.00391799770677449	-0.0132691341341789	0.00103309233171336	0.0029728532644552	0.00104128131674891	0.00297253432720536	0.0104874219023255	0.00402497117795128
3.7	-0.00655259085351195	-0.0131289991330083	0.00144351966713241	0.00279170155917755	0.00143393928389454	0.00280537500909909	0.0105339523507616	0.00313606190049669
3.8	-0.00913014253202447	-0.0124564158988403	0.00182141784154762	0.00256435489658252	0.00182382322808566	0.00257350140286065	0.010516087646403	0.00236739780212388
3.9	-0.0114798305522889	-0.0113174080000271	0.00216690725050195	0.00229109449666615	0.00215964387346085	0.00228931708007046	0.0104727307926929	0.00174671183299841
4	-0.0136142971555881	-0.0097345618553027	0.00245139993098459	0.0019701032000073	0.00245584734059924	0.00196766896516491	0.010714375944695	0.0013053408028441
4.1	-0.0153920512703967	-0.00776737687143053	0.00270349400220851	0.00160996046339328	0.00270224179132359	0.00161069634535126	0.011136168080913	0.000558236615307314
4.2	-0.0168005856577093	-0.00546608635345297	0.00290248623344274	0.00120847791839865	0.00290694932346885	0.00119976300477206	0.0113805836679988	-0.000271969131327077
4.3	-0.0177798656823875	-0.00302195832701706	0.00304520250471061	0.000796268500937146	0.00305162192527298	0.000788466093297522	0.0115267295640171	-0.0012050181548083
4.4	-0.0184558423396046	-0.000413287657765185	0.0031212574425719	0.000362173751242237	0.0031236308370577	0.00035991729215408	0.0114591765550343	-0.00205923707836322
4.5	-0.0187541635091053	0.0023985192911373	0.00314390158469045	-7.6039929117741E-05	0.00314926007684693	-7.94140711066493E-05	0.0115524086320497	-0.0027790040559843
4.6	-0.0185905951636861	0.00529928400295725	0.00309912745773967	-0.000518945253969117	0.00310036044789365	-0.000506036651206367	0.0115799639840778	-0.0038946383881497
4.7	-0.0177634515373021	0.00823197485680009	0.00299342683853671	-0.000937388485534048	0.00300870277398125	-0.000947006425095086	0.0112432866664564	-0.00498872644277977
4.8	-0.0163826790248375	0.0109490377929562	0.00283207828196977	-0.00135105526225504	0.00284055050215664	-0.00135714401065055	0.0107547662791733	-0.0059007227533695
4.9	-0.0143233421709463	0.0133011244810005	0.00261116007791803	-0.00173482041221947	0.00261532500262523	-0.00173191853962566	0.0102572877670698	-0.006558718512515
5	-0.0118436664155032	0.0151244829649114	0.00235099349623565	-0.00208944899808431	0.00235461376111142	-0.00208678814887089	0.0101962780152072	-0.00704535406612978
5.1	-0.00886725490102198	0.0164207332391075	0.00204035900779295	-0.00239906285028377	0.00204265801989825	-0.00239770692090805	0.0101593123201268	-0.00795439745362687
5.2	-0.00574229788337035	0.017012821119913	0.00168318091268491	-0.00264841376673189	0.00168489156560817	-0.00265355212294807	0.00985908265202384	-0.00873965926358001
5.3	-0.00261274688507777	0.0169308165875878	0.00129686874945533	-0.00286337584903691	0.00129999849284978	-0.00286131565074017	0.00956851510781851	-0.00931903364069787
5.4	0.000284621671214565	0.0162512578650868	0.000872458775508464	-0.00301040006016237	0.000889604623339016	-0.00302159867784241	0.00938740713817086	-0.00999458585552316
5.5	0.00279713056771946	0.0151926430163533	0.000459704327117524	-0.00310763849352793	0.000469745941341105	-0.00311705543265238	0.00924463697283033	-0.0108773275729966
5.6	0.00500230232124835	0.0138034138372528	2.21160929761635E-05	-0.00314396095115819	1.35998841808181E-05	-0.00314717753651961	0.00852786211436862	-0.01205599476694
5.7	0.00685831447898912	0.0121366281820626	-0.000408434932164212	-0.00311360990964612	-0.000425030336331623	-0.00311726927066906	0.00731294289567969	-0.012715879941763
5.8	0.00836002347409675	0.0101342980913711	-0.000853796020640277	-0.00301881696141733	-0.000857325684461222	-0.00303279269143883	0.0060974683982723	-0.0131502450382665
5.9	0.00933680105788488	0.00790400844586872	-0.00125805329384797	-0.00287904981854629	-0.00126627554809175	-0.00287897009085983	0.00475394210811054	-0.0132468824088365
6	0.00968197221057292	0.00553943643272357	-0.00165577354206095	-0.00267355475008313	-0.0016522154341034	-0.00267372009046524	0.00368297866847437	-0.012803054929727
6.1	0.00951551700159319	0.00322421080557115	-0.00201101042815495	-0.00241931377581933	-0.00201264922951933	-0.00241531295377991	0.00318422251954399	-0.0125794128237135
6.2	0.00893078693490611	0.000974052713353905	-0.00232349005620147	-0.00210622892333223	-0.00232719472671699	-0.00211809020526989	0.00278382573378916	-0.0126170283729325
6.3	0.00802093227209026	-0.00123726804085597	-0.00260087556193329	-0.00177203034099108	-0.00260999640983737	-0.00176629742747135	0.0023972149298918	-0.0130085507935734
6.4	0.00659291660917042	-0.00336444998040002	-0.00282689574855393	-0.00138188415234326	-0.00281717889851819	-0.0013867813394792	0.00187877548696827	-0.0134538670529429
6.5	0.00474518464785908	-0.00508789705716701	-0.00298363462624873	-0.000977098137262698	-0.00299148983302191	-0.000972620620666261	0.00158352867046913	-0.0139978118419421
6.6	0.00265301416059332	-0.00620832914158249	-0.00309128891120757	-0.000552285448122956	-0.00309292048662089	-0.000556258652954112	0.000883771154208031	-0.0148867348976329
6.7	0.000512966582196217	-0.0067729893514198	-0.00314174704668219	-0.000115218847346089	-0.00315059376343029	-0.000108947535685245	-0.000312449612764414	-0.0153045617152284
6.8	-0.0016979812257133	-0.00684987306201289	-0.00312047058188684	0.000325604894063823	-0.00313155499291823	0.000330645396481882	-0.00156799442077018	-0.0152795735776563
6.9	-0.00397017599846438	-0.00642908781721334	-0.00304556056784423	0.000758573832927529	-0.00304854576111755	0.000760961586643527	-0.00267901052955318	-0.014891898582651
7	-0.00612789967646493	-0.00535840264448648	-0.00290888844742828	0.00117904191903129	-0.00292170567949699	0.00117684479564846	-0.00324295407594808	-0.0144241811415702
7.1	-0.00802276616925611	-0.00374124288873116	-0.00273170838440339	0.00156691031734505	-0.00272805145825776	0.00157556954316788	-0.00402989721362061	-0.0144400745866631
7.2	-0.00942832388851788	-0.0016850400837678	-0.00247623073325257	0.00193457416484487	-0.00248275609453716	0.00193664807150821	-0.00505124006027825	-0.0140764575021954
7.3	-0.0103945771037673	0.000541717506638254	-0.00218169826637771	0.00225363196193625	-0.00219290631529732	0.00225867492881751	-0.00589256061062465	-0.0135816149229842
7.4	-0.0109910980834027	0.00280185796819818	-0.00184091807956064	0.00253695166813206	-0.00184780576925347	0.00255054636344732	-0.00681657097522969	-0.0130571503434092
7.5	-0.0112937221696434	0.0051329528045474	-0.0014764523876763	0.00277614997235218	-0.00146947101059055	0.00278354691866481	-0.00720943099786829	-0.0122134035936495
7.6	-0.0110425626812299	0.0075265807735821	-0.00107147020062651	0.00295576002415383	-0.00107283975024367	0.00295106344115483	-0.0072208866992079	-0.0120986219391534
7.7	-0.0102742640719889	0.00981090101299145	-0.000643550962218146	0.00307819948284162	-0.000644889807611723	0.00307713671843504	-0.00766845273403503	-0.0124576603207376
7.8	-0.00876228906565127	0.0117190104193639	-0.000218001529538954	0.00312831356356979	-0.000225814163736804	0.00313476299871578	-0.00831814623943236	-0.0125977614089632
7.9	-0.00678387353688537	0.013121616586107	0.000223031783635269	0.00313631585863937	0.00023097166013388	0.00313782198198438	-0.0089101753793753	-0.0124261489085654
8	-0.00443081817378414	0.0141819906996377	0.000664879743335691	0.0030655999538367	0.000664956287868727	0.00307050086074491	-0.00923047076620068	-0.0123405934425014
8.1	-0.00177866639032869	0.0147609165512744	0.00107652737994105	0.00294867756105289	0.00109568162921442	0.00294977921409378	-0.0100087336880397	-0.0125889541706786
8.2	0.00101162294932826	0.01474368407831	0.0014819595467541	0.00276801702010984	0.00149121485491819	0.00276082513528814	-0.010981320161958	-0.0122628764521947
8.3	0.00371956253666011	0.0140574811753766	0.00185902724161225	0.00252916952596796	0.00185737546902774	0.00254272490091921	-0.0117975587876357	-0.0117256459662154
8.4	0.0061025772087409	0.0128410903136166	0.00219544570212338	0.0022517306811268	0.00219241383175811	0.00225150451193089	-0.0125784408576903	-0.0110561182729446
8.5	0.00808661715107042	0.0112406839877379	0.00248243815530403	0.00192083330022023	0.00248153966015088	0.00192401879148832	-0.0129802249657298	-0.0102282691613984
8.6	0.00971324961312354	0.00940863009711328	0.0027286966437466	0.00155973884761203	0.00273820150352994	0.00155319574726692	-0.0134946042303083	-0.01000026878271
8.7	0.0111078745831357	0.00726551872691461	0.00291456714366988	0.00115693651126897	0.00292012933350364	0.00115766066088601	-0.0143928115965038	-0.00952418631521646
8.8	0.0121366841014448	0.00473219415532989	0.00305145538305334	0.000745952723826301	0.00305722792496254	0.000737189651233541	-0.0154009343956796	-0.0088323037035577
8.9	0.0126788902998424	0.00175018969135831	0.00312930177101394	0.000311630496939964	0.00312843053051666	0.000309382158688112	-0.0162055987590163	-0.00761883658048451
9	0.0124347138392198	-0.00147699376560482	0.00313879151256519	-0.000132218118758273	0.00314194981859961	-0.0001281155782501	-0.0161879434542191	-0.00604588131599682
9.1	0.0114778797246951	-0.00467442940701111	0.00309268479744116	-0.00057328954033598	0.00309556874962897	-0.000560388352900673	-0.0157705826973991	-0.00512282348994296
9.2	0.00976946813927621	-0.00766821285712665	0.00298366657614309	-0.000991160953642517	0.00299132747733217	-0.000994037738119062	-0.015409211134487	-0.00432375308010405
9.3	0.00735584335059976	-0.0102818805544694	0.00281528968473597	-0.0013969987836438	0.00281455892045753	-0.00140199153220648	-0.0148850206003534	-0.00364227817777804
9.4	0.00425823350936386	-0.01233404309218	0.00259263730602565	-0.00178780894738491	0.00259915159162984	-0.00178020834740495	-0.0143944420027145	-0.0031452037718654
9.5	0.000593452195794974	-0.0134052031047899	0.00231756835091612	-0.00212192705480718	0.00232498255509285	-0.00212327391071807	-0.0137281331014773	-0.00279396585507695
9.6	-0.00327415822033925	-0.0135324486918281	0.00200111085417223	-0.00242645319540249	0.00200144067960659	-0.00242547068771082	-0.0137903005895045	-0.00301347717844479
9.7	-0.0070062714670509	-0.0127373920363729	0.00163368509821084	-0.00267789347068498	0.00163922314538198	-0.00268520279573045	-0.0142648194391329	-0.00267974620950561
9.8	-0.0105295546809813	-0.0112516839440893	0.00124833878496334	-0.00288738960047101	0.00125403895507607	-0.00287888725328425	-0.0147395794003138	-0.00199427232377581
9.9	-0.0137943134486626	-0.00903974159775213	0.000842780989381027	-0.00302701424035845	0.000835446820285966	-0.0030257881654074	-0.0152324321413912	-0.0008788564018255
10	-0.0167306757731006	-0.00609391074277472	0.000412565161783375	-0.00311729335785042	0.000405074251097047	-0.00312974499830376	-0.0150127829440997	0.000488495854121485
10.1	-0.0189754269518303	-0.0023946130359099	-3.08947778279411E-05	-0.00314938014321101	-4.11326747219032E-05	-0.003143983894491	-0.014609061487544	0.00114579618378396
10.2	-0.0202493199260878	0.00174843973101128	-0.000477794896116386	-0.00311241377989006	-0.000481203396637796	-0.00310963301914919	-0.0143363752415529	0.0018900771238206
10.3	-0.0205963281176556	0.0060139366598164	-0.000910795654827505	-0.00300660404236964	-0.000902701297014339	-0.00301568237586386	-0.0139416184831907	0.00263583900149984
10.4	-0.0201388764533837	0.0101886178395038	-0.00130854785217551	-0.00285206624742234	-0.00130685136353044	-0.00285826585568138	-0.0133236193127525	0.00333669951596508
10.5	-0.0190142613962684	0.0143997034172627	-0.00170138418512943	-0.00265304198241751	-0.00169827452163291	-0.00264003216713047	-0.0121832617962093	0.00394618993636604
10.6	-0.0170376751186879	0.018502263541636	-0.00205423618406576	-0.00238178316485106	-0.00205205014863413	-0.00238560900476986	-0.0112137457604079	0.00371843285466689
10.7	-0.0140040436940779	0.0224030774409715	-0.00236925978622955	-0.00207924143441797	-0.00236576128370386	-0.00207395964127575	-0.0105570786119214	0.00361593226815125
10.8	-0.0101422240930666	0.0256017831429901	-0.00263823807393709	-0.00171877748932122	-0.00263304086289564	-0.00172770936640339	-0.0101633300968412	0.00338993663485221
10.9	-0.00573932230116292	0.0280053338482451	-0.00284637783639702	-0.00134413405697914	-0.00285156724087423	-0.00134339993329405	-0.0100538982017401	0.00338766670771622
11	-0.000825037956854051	0.0296557366618419	-0.00300471570191641	-0.000926812942724722	-0.0030095649560229	-0.000933550913457007	-0.00950098332940281	0.00361941153678627
11.1	0.00450346611639861	0.0304669849463771	-0.00311247687115477	-0.000502388570535592	-0.0031016160801773	-0.000499533401851723	-0.0091403518814249	0.00322828661255956
11.2	0.0102245228955098	0.0301270631961696	-0.00314184598455743	-6.48226928023228E-05	-0.00314900097578439	-6.96568668329624E-05	-0.00901941351745557	0.00312597691537918
11.3	0.0160252385426587	0.0283937596432732	-0.00311496048800563	0.000383974906846797	-0.00312650655452781	0.000373941775052771	-0.00873906408627657	0.00320824124219745
11.4	0.0212041864270773	0.0253827835821064	-0.00304089686545638	0.000811877695604254	-0.00303597978634201	0.000819440986809564	-0.00845263132159066	0.00335572477285725
11.5	0.0255592949386354	0.0214242529576256	-0.00289744195563034	0.0012266089910182	-0.00290021753071681	0.00123688338838251	-0.00776232216207941	0.00332041574144491
11.6	0.0291631584990621	0.0166699722991384	-0.00270384872114951	0.00161708061688357	-0.00270382936807808	0.00162002075275774	-0.00738209035840347	0.00256057700871744
11.7	0.0319094294670764	0.0112358464746461	-0.00244258831150063	0.00197216563765648	-0.00244315037289932	0.0019807709252829	-0.00739174658470166	0.00204550206543913
11.8	0.0335858530728445	0.00523775237722843	-0.00214713502873859	0.00230443920289621	-0.00215124977137924	0.00230613870814198	-0.0074265465642878	0.00186743423271923
11.9	0.0340270493986926	-0.00105951144473449	-0.00179791723717338	0.00258033913379326	-0.00181093696439635	0.0025846481867767	-0.00729222859638993	0.00233458822804442
12	0.0330554998773305	-0.00719159786001519	-0.00142520227313233	0.00280400024008023	-0.00142460618848353	0.00280541223867121	-0.00625791909681869	0.00264906200765437
