# GHZ S RI R 50
0.2	0.00571926703834744	0.00128523516255631	0.00304895769730738	-0.000897880053396081	0.00305932775129772	-0.000891069189343177	-0.014258482326183	0.00491429002206148
0.3	0.00609904101485009	-0.000576426279981473	0.00290486794122577	-0.00132140739866015	0.00289761913784865	-0.00130846647836649	-0.0133974188534541	0.00520192031053278
0.4	0.0059027001021702	-0.00213205287679571	0.00267339164662445	-0.00169336814366794	0.00267866115943809	-0.00170193065640756	-0.0128183392927524	0.00584081528925986
0.5	0.0053890276707333	-0.00350659390648992	0.00241447930801061	-0.00205055425209679	0.0024260203424903	-0.0020627984606777	-0.0120690551688384	0.00645965816017837
0.6	0.00434034615383266	-0.00470934690988266	0.00210158029119498	-0.002365050312816	0.0021007931415309	-0.00237220158250616	-0.0116086946011129	0.0068207885439652
0.7	0.00300578727946698	-0.0053658964128653	0.00175437185948278	-0.00264284414734339	0.00175241535362356	-0.0026430429158702	-0.0113356095122808	0.0074064135292419
0.8	0.0016639466080335	-0.00568640737019945	0.00136881651880035	-0.00286037552380047	0.00135621271651765	-0.00286492482423266	-0.0110468206284921	0.0081470465566189
0.9	0.000180214758428031	-0.00560242857862965	0.000951420179922324	-0.00302408498727894	0.000952453647161914	-0.00303478763798627	-0.0107667689246322	0.00900477902040062
1	-0.00110220891064886	-0.00504498734193008	0.000526082930146057	-0.00312713214815096	0.000516219125286324	-0.00312786967681552	-0.0101700453785485	0.0101489702166532
1.1	-0.00231040175886461	-0.00456060845376842	7.06998251286339E-05	-0.00315571333101435	6.71891887283544E-05	-0.00317336584785196	-0.00941840068327684	0.010991407379611
1.2	-0.00359941477021543	-0.00382514318116978	-0.000371592393190224	-0.00314515895111222	-0.000372403896724395	-0.0031430819646794	-0.00843497683085543	0.0120209298782814
1.3	-0.00473328232635407	-0.00313081752469928	-0.00079895147125052	-0.00306176057452417	-0.000802192635895707	-0.00306376524653248	-0.00663025604668788	0.0128463719438153
1.4	-0.00568869559355872	-0.0025502104360617	-0.00122034658992566	-0.00291306500683253	-0.00121913529927467	-0.00291859910580369	-0.00471059230844867	0.012659863681488
1.5	-0.00605703638658803	-0.00170384232549496	-0.00162065726938197	-0.00271701677228943	-0.00161904700111061	-0.00272551745699182	-0.00318570703688545	0.0118685434670117
1.6	-0.00625264004636105	-0.000566885134359908	-0.00198149192004843	-0.00246495805027913	-0.00198170395474178	-0.0024701931984395	-0.00293726757596481	0.0112845407403081
1.7	-0.0058587735052346	0.000853349336816705	-0.00231016525724538	-0.00216774645296447	-0.00231112911305943	-0.00216148356313631	-0.00261835923899358	0.0113984299865292
1.8	-0.00508905096776187	0.0022300953024535	-0.00258110014927388	-0.00181589086509283	-0.00259206934640335	-0.00182152417956833	-0.00213704163960626	0.0115781096491775
1.9	-0.00402556431151275	0.0033678996863589	-0.00280610915265977	-0.00144506622709923	-0.00281854738126996	-0.00143890871629597	-0.00160881716453792	0.011875946992094
2	-0.0025456900818859	0.00419110669621029	-0.00298209402183923	-0.00103770348933826	-0.0029917164828573	-0.00103299170408652	-0.000733274892855051	0.0122072776551295
2.1	-0.00118743360438753	0.00434864059718269	-0.00309566259430853	-0.000608392344872824	-0.00309157953061824	-0.000610386576843183	3.93045170781973E-05	0.0120421829643854
2.2	0.000112963409354805	0.00442930405630529	-0.00315243912576948	-0.000169785624651412	-0.00316374514538536	-0.000172615260763103	0.000830882286101974	0.0120035454230351
2.3	0.001404546316855	0.00408701689907703	-0.00314733017833609	0.000273654857899704	-0.00314703175837774	0.000266771775807855	0.00159991935091711	0.0117703632263638
2.4	0.00247261118322264	0.00352271542535403	-0.00307470192552053	0.000711993025384362	-0.00307724567523005	0.000707737029164394	0.00224091775366253	0.0116282679380788
2.5	0.00353466228354825	0.0028237788293427	-0.00293716481091792	0.00112508196230892	-0.0029480494206505	0.00113147213327933	0.00319086439484335	0.0116129690639071
2.6	0.00441975193513273	0.00161547313431732	-0.00276176782380826	0.00152770883261848	-0.00275822335839985	0.00151538556867948	0.00423866944890717	0.0110512711895936
2.7	0.00504445663348262	0.000367416446554615	-0.00251537282282152	0.00189835614874056	-0.00252065125242582	0.00189837174897815	0.00495174954269464	0.0104492091606807
2.8	0.00556359808639886	-0.00106472903285499	-0.00223207332631916	0.00222537818279108	-0.00222425348491201	0.00223515793692837	0.0055020634715099	0.00996732294586543
2.9	0.00591501223903446	-0.0026515804957966	-0.00189713543235657	0.00252521017927045	-0.00189342805902775	0.0025247797417456	0.00621150851443767	0.00975508648143631
3	0.00611959554022474	-0.00447378863678132	-0.00150973644129586	0.00275932289524289	-0.00152450045866323	0.0027654345840813	0.00741882986429251	0.00947948234195855
3.1	0.0057116991745344	-0.00661988900131757	-0.00112014786845858	0.00293510475806665	-0.00111548788614113	0.0029434372841554	0.00833102858609665	0.00862895452266612
3.2	0.00470029884211721	-0.00856608154718284	-0.000699806484966938	0.00307176543472438	-0.000701550200748039	0.00307115657215554	0.00888822834446059	0.00797751737074404
3.3	0.00321311168914282	-0.010430707744571	-0.000261400551858137	0.00314078929071326	-0.000259756096139256	0.00313705062107037	0.00949093300943273	0.00725331647700795
3.4	0.00113670838049998	-0.0118612638044011	0.000185185641916369	0.00313351196404598	0.000179000421234522	0.00315006610361178	0.0100089318934235	0.00641780029635497
3.5	-0.00107426334993975	-0.0128570854986367	0.000605285963937795	0.00308962947372392	0.000610875274943959	0.00308970212669996	0.0105459787512143	0.00540896966318104
3.6	-0.00379178222858764	-0.0135575588374803	0.00103312336935194	0.00297104210062775	0.00104130786623164	0.00297072171251743	0.0106230343126013	0.00416956448703707
3.7	-0.00664701126101311	-0.0133926350641555	0.0014433674967365	0.00278968706990369	0.00143379621879569	0.00280335483899618	0.0105307806222051	0.00333097001251291
3.8	-0.00937192762417007	-0.012586708798123	0.0018206815106333	0.00256222948792359	0.00182308707929546	0.00257136923337097	0.0104470121293352	0.00264976272015841
3.9	-0.011770484017996	-0.0111886642447877	0.0021653120020252	0.00228931013226545	0.00215805409783524	0.00228753421879834	0.0103859342572967	0.0021764262777625
4	-0.0135586675031236	-0.00942254573208891	0.00244992934162551	0.00196947302616563	0.00245437490482169	0.00196704059222889	0.0108693680980409	0.00181342173628319
4.1	-0.0152434147698387	-0.00773316372104189	0.00270227400311503	0.001608932094043	0.00270102247942744	0.00160966771100901	0.0112738354818597	0.000841940928165978
4.2	-0.016756747412365	-0.00550858965320961	0.00290074529878826	0.00120768416128943	0.00290520549790392	0.00119897445805385	0.0114026253403447	-1.48308759106578E-06
4.3	-0.0178421478949254	-0.00304620358703654	0.00304328412018474	0.000796077219760072	0.00304970040110009	0.000788280145134458	0.011461721603467	-0.000895541666111648
4.4	-0.0186124013746777	-0.000271256330475724	0.00311974612031141	0.000362598107867027	0.00312211884560191	0.000360343141692354	0.011314961270149	-0.00161832829533473
4.5	-0.0186100937084396	0.00276794091093108	0.00314281192538481	-7.63042026469376E-05	0.00314816826055841	-7.96776777769581E-05	0.0116080282390512	-0.0021768303438273
4.6	-0.0182729145081642	0.00541143866501469	0.00309704267779295	-0.000518804157236268	0.00309827569472217	-0.000505904177459196	0.0116887449230392	-0.00343761928961319
4.7	-0.0174449319648985	0.00821321304767909	0.00299147785172825	-0.000936450149783125	0.00300674432360636	-0.000946060002240471	0.0113546843550318	-0.0045423612811052
4.8	-0.0161011897879278	0.0107993749863511	0.00283053589249012	-0.00134969451360525	0.00283900386656194	-0.00135577790090414	0.0108781558467414	-0.00550717906376576
4.9	-0.0141647484135114	0.013129485735882	0.00260989199319063	-0.00173352352426209	0.00261405421084438	-0.00173062279087357	0.0103234926248854	-0.00617040811852448
5	-0.0115444037930604	0.014955517007375	0.00234911019535471	-0.00208744427306592	0.00235272709785397	-0.00208478545663404	0.0103721960633697	-0.00665225897354476
5.1	-0.0087788495074674	0.0159808573615367	0.00203977999775965	-0.00239611417531113	0.00204207646377521	-0.00239475830194426	0.010168188965928	-0.00771113827721955
5.2	-0.00591797227729992	0.0166854929011387	0.00168343237963625	-0.00264577683015362	0.00168514455644048	-0.00265091087632772	0.00973850719723428	-0.00836864718909125
5.3	-0.002878526837615	0.016801024449611	0.00129749902151112	-0.00286096229727302	0.0013006258058866	-0.00285890180641556	0.00944734957954606	-0.00882635380214703
5.4	4.86317067381319E-05	0.0163521101604558	0.00087331349907466	-0.00300780462608996	0.000890452526036587	-0.00301898674388742	0.00930021949615041	-0.00938974394876468
5.5	0.00298388204559007	0.0153232753348364	0.000462142018067705	-0.00310477727780381	0.000472184209010502	-0.00311417775516878	0.00943475148991954	-0.0102968591524572
5.6	0.00504893106311433	0.0134920756334463	2.50747385163735E-05	-0.00314275153965572	1.65647849211191E-05	-0.00314597494586776	0.008522196796508	-0.0117634908527392
5.7	0.00657883013454701	0.0118371043032018	-0.000405672169034509	-0.00311301422646979	-0.000422259450821614	-0.0031166865473973	0.00709385708525094	-0.0123246935854443
5.8	0.0078120024500707	0.0099985816515218	-0.000850979852214783	-0.00301863821198335	-0.000854496604554188	-0.00303261275580776	0.00575340231857841	-0.0126199361652645
5.9	0.00853326881989784	0.00821688892238258	-0.00125481074696415	-0.00287945335720078	-0.00126303065027223	-0.00287938185193017	0.00427764361248041	-0.0124318162881753
6	0.00932689710473401	0.0066176091966876	-0.00165305203679118	-0.00267573890014182	-0.00164949326680923	-0.00267590034410635	0.00354636695562143	-0.0115060212069447
6.1	0.0098163032589051	0.004230783192643	-0.00200954493290545	-0.0024211283544127	-0.00201118688128938	-0.00241712814061379	0.00343759309589489	-0.0113678120800882
6.2	0.00967489511306558	0.00178523108080301	-0.00232197775107721	-0.00210801681843582	-0.00232567366459799	-0.00211988116902734	0.00334308373245241	-0.011503193830633
6.3	0.00899021635872381	-0.000838513252459817	-0.00259948068712122	-0.00177431009143453	-0.00260860677684038	-0.00176858467591486	0.00313320537654338	-0.0121882216402806
6.4	0.00747283106066538	-0.00323114843197859	-0.00282628968552366	-0.00138491699678608	-0.00281656574879383	-0.00138980617353667	0.00253621534045362	-0.012839490018766
6.5	0.00579795972433448	-0.0052302304365023	-0.00298435427144147	-0.000979256029112801	-0.00299221547488077	-0.000974781150060799	0.00231318037373395	-0.0135795466450749
6.6	0.0032620267423185	-0.00678998013523635	-0.00309128760550969	-0.000554312923822135	-0.00309291683989728	-0.000558287615402386	0.00123725793626678	-0.0146730736300663
6.7	0.000785349295484871	-0.00731288695576637	-0.00314230075841939	-0.000117819653071177	-0.00315115444451747	-0.000111554304134759	-0.000123210708501938	-0.0149842524514678
6.8	-0.00165523276427928	-0.00735535943994658	-0.00312198869952595	0.000323086677308576	-0.00313308179873351	0.000328119780211331	-0.00148134430278115	-0.0149548553386075
6.9	-0.00416690109374474	-0.00671302091483391	-0.00304784643752236	0.000757008204300447	-0.00305083495664609	0.000759395387149895	-0.00276620287757497	-0.0144559314481551
7	-0.00591802131440174	-0.0054640095828641	-0.00291020127706488	0.00117795590611545	-0.00292302076190223	0.00117575209283137	-0.00308834589776128	-0.0138908591169128
7.1	-0.00799327528884782	-0.00437273328500577	-0.002733986481202	0.00156517008736337	-0.0027303355331927	0.00157383543509817	-0.00411423646113923	-0.0142069873344623
7.2	-0.00982332645222142	-0.00232107474475827	-0.00247918627038767	0.00193377611804778	-0.00248571706374244	0.00193584615316321	-0.00538920138016801	-0.0137071332356831
7.3	-0.0111769517293299	4.38194667439315E-05	-0.00218454547218642	0.00225373362084226	-0.00219576403359486	0.00225877283209749	-0.00637853172743241	-0.013068584203322
7.4	-0.0122666665118954	0.00271734141992122	-0.00184313629361163	0.0025373029197855	-0.0018500343625613	0.00255090100660608	-0.0075191116023588	-0.0122823991139121
7.5	-0.0123681432252067	0.00598414557069287	-0.00147970469976471	0.00277591804475056	-0.00147272739782636	0.002783324719217	-0.00768756199535168	-0.0108802417541031
7.6	-0.0116460901712189	0.00853672730807487	-0.00107516044900929	0.00295755146532341	-0.00107652700953326	0.00295284924236946	-0.00745604908336893	-0.0107455312268224
7.7	-0.0105767024463667	0.011043926308642	-0.000646339646822276	0.00308091970558693	-0.00064767913441783	0.00307985492335182	-0.00765828623217249	-0.0109756673358235
7.8	-0.00867753275836305	0.0129356624472762	-0.000220048004278769	0.00313140917097357	-0.000227872442608734	0.0031378606998643	-0.00805790012473712	-0.0111970847914703
7.9	-0.00639358189087965	0.0143035541381993	0.000221176454888472	0.00313963527536975	0.000229123360911854	0.00314114818960071	-0.00850053363730982	-0.0111023637680089
8	-0.00333360078215477	0.0150094401067659	0.000663845060792107	0.00307073808660306	0.000663918441191623	0.00307564654732674	-0.00850885698088833	-0.0112421113996156
8.1	-0.000902310891336551	0.0148102004104335	0.00107785074842206	0.00295326435692326	0.00109703394220851	0.00295436969450487	-0.00956385757114974	-0.0119013615944558
8.2	0.00159804015570993	0.0146005689134291	0.00148391685675384	0.00277166599166076	0.00149318436352075	0.00276446461244557	-0.0106892656243979	-0.01155708859155
8.3	0.00408672698893349	0.0138143627129394	0.00186131530838349	0.00253240413899306	0.00185966113982247	0.00254597658341035	-0.0115741031865354	-0.0110522001076301
8.4	0.00623261570524517	0.0127224602485222	0.00219847183788677	0.00225512812586533	0.00219543560048046	0.00225490143211702	-0.0124885471536952	-0.0103296646088145
8.5	0.00864610356782171	0.0112473828766483	0.0024873026513904	0.00192269260219742	0.0024864042580387	0.00192588358391143	-0.0126250592566824	-0.00944001536118158
8.6	0.0101186894954874	0.00877817071480873	0.00273254975333597	0.00156014696016212	0.00274206209877504	0.0015535917632361	-0.0133431986793718	-0.00957451660918445
8.7	0.0110562629939893	0.00654780040745705	0.00291831956177352	0.00115719733650116	0.00292388837239715	0.00115792028808186	-0.0145000420607435	-0.00901132360436118
8.8	0.0116867776453517	0.00412886748832824	0.00305558394778671	0.000745706100601877	0.00306136034858331	0.000736929761846882	-0.0156336218665197	-0.00818839105994975
8.9	0.0118341579853904	0.00157765098734787	0.00313383092867131	0.000310039198882008	0.00313295703030125	0.000307788314237132	-0.0165807615429695	-0.00673391181649203
9	0.0119208843241709	-0.000983542842746531	0.00314152430642639	-0.000135020631314107	0.0031446889822679	-0.000130917070530117	-0.0162635496749917	-0.00480577473331653
9.1	0.0112259882692717	-0.00419227602223921	0.00309558249363059	-0.000575316236820877	0.00309847540414292	-0.000562403190907787	-0.0157143473678575	-0.00396237892582169
9.2	0.00978103463147698	-0.00707123244228142	0.00298680786555753	-0.000994305012285681	0.00299447662195201	-0.000997190288785308	-0.0151608573212352	-0.0031043924638032
9.3	0.00766357611234621	-0.00981223176986425	0.0028175914777067	-0.00140139007469671	0.00281685515659329	-0.00140638852298023	-0.0144452939850945	-0.00258950030450665
9.4	0.00468361106177144	-0.0119926826514572	0.00259302806743427	-0.00179268234950834	0.00259955788838142	-0.00178508213638648	-0.0139678630978053	-0.00225805204379362
9.5	0.00144149570078348	-0.0133305091375843	0.00231766388830043	-0.00212534218798832	0.00232508264797284	-0.00212669585386656	-0.0131588919921952	-0.00210519761816056
9.6	-0.00279489216831256	-0.0141348533724521	0.00200111518366367	-0.002431174078786	0.00200144632817545	-0.00243019074694883	-0.0136454963062521	-0.00263818325865484
9.7	-0.00700202467505813	-0.0133903635346289	0.00163202014635155	-0.00268272162459404	0.00163755476818692	-0.00269004548144203	-0.0144002650071695	-0.0021585362637113
9.8	-0.0109034770643464	-0.011799839327746	0.00124538977731011	-0.00289141105400846	0.0012511061452289	-0.00288290968943492	-0.015020087710829	-0.00134184496600435
9.9	-0.0145345322016885	-0.00917401725739528	0.00083963246204449	-0.00302974386863457	0.000832295595694291	-0.00302850830830157	-0.0156897801474854	1.03684913179693E-05
10	-0.0170569740436146	-0.00573710885612143	0.000409562927188383	-0.00312086642725188	0.000402050874500358	-0.00313332232730264	-0.0151798909457828	0.00164912009976766
10.1	-0.0192581996575241	-0.00228915153916353	-3.60020569972481E-05	-0.00315187182551404	-4.62395074707956E-05	-0.00314645470025847	-0.014839291164885	0.00215834456740896
10.2	-0.0206568382156899	0.00197855866864395	-0.000482926687912562	-0.0031132061112241	-0.000486332505553862	-0.00311041861071401	-0.0146047516552752	0.00307692876451668
10.3	-0.0210739565117637	0.006426185593401	-0.000915414697839631	-0.00300656584267293	-0.000907329790294146	-0.00301565935915775	-0.0141639496136252	0.00393458595910023
10.4	-0.0206765951854569	0.0110547274258383	-0.00131310502213761	-0.00285227667638609	-0.00131141541264721	-0.00285848260934427	-0.0135585409567872	0.00485621304718172
10.5	-0.0187993488164794	0.0157291999748198	-0.00170804259417862	-0.00265190195670309	-0.00170490465484979	-0.00263888740305175	-0.011965585053166	0.00570060236218968
10.6	-0.0162827877932898	0.0195574157731123	-0.00205959498157916	-0.00237811022680806	-0.00205741630084682	-0.00238194142846541	-0.0107821031214278	0.00534399852636937
10.7	-0.012869014360253	0.0230699066057842	-0.00237349789033879	-0.00207479396988299	-0.00236998882340762	-0.00206951856733742	-0.00982577666206692	0.00504929441448938
10.8	-0.00890599255146527	0.0256608193781518	-0.00264166385459633	-0.00171369844896621	-0.0026364838583129	-0.00172264071460623	-0.00935320871064256	0.00441279695794626
10.9	-0.00480747686277232	0.0277692269317225	-0.00284931942616722	-0.00133788866026505	-0.00285450720931334	-0.0013371431572815	-0.00949201450566124	0.00419525514167691
11	0.000385188784943867	0.0292394537697428	-0.00300460119412007	-0.000919159296175893	-0.00300946240015519	-0.000925880971500574	-0.0088199251502765	0.00434439114829858
11.1	0.00531354169635942	0.0293227902802919	-0.00311092868431593	-0.000496571871007214	-0.00310007137453511	-0.000493737857647729	-0.00882779043199512	0.00361188278920463
11.2	0.0104609133955166	0.0288600061080582	-0.00313987219142438	-5.92976745266276E-05	-0.00314703086491299	-6.41161534046752E-05	-0.00899275378121188	0.00362454643515189
11.3	0.015800964119837	0.0271690569492162	-0.00311191766226495	0.000389491817959544	-0.0031234737957028	0.00037948769527734	-0.00880927830033362	0.00381090894581741
11.4	0.0205101801203955	0.0244962523412433	-0.00303585913560805	0.00081692591989152	-0.00303093278292548	0.000824470994332298	-0.00867077906760234	0.00411819172430059
11.5	0.0251043125004057	0.0208990043736198	-0.00289185404522466	0.00122861254141092	-0.00289461263153852	0.00123887623528032	-0.00773148627035044	0.00418163816293209
11.6	0.0283941778133786	0.0158563998093937	-0.0026991722746755	0.00161916700296281	-0.00269914902864634	0.0016221043670444	-0.00762530329853738	0.00317430411893659
11.7	0.0306424922328889	0.0107214025465728	-0.00243696898389864	0.00197377175832889	-0.00243751734157765	0.00198236868304129	-0.00789561651741171	0.00284425629763718
11.8	0.031987694701614	0.00530513285638882	-0.00214075820371183	0.00230460625202882	-0.00214486484826923	0.00230630972140373	-0.00809435622302488	0.00292848024799461
11.9	0.0323798987795981	4.31332494670642E-05	-0.00179196645884996	0.00257832328255449	-0.00180496014444148	0.00258264085003183	-0.0080722181957057	0.00393506265910406
12	0.0327078892209433	-0.005436443994627	-0.001420892323989	0.00280222594215771	-0.00142029554534114	0.00280363577830738	-0.00630144022052248	0.00460200458920805
