# GHZ S RI R 50
0.2	0.0055804029890404	0.000288514285970179	0.00305417338142306	-0.000896141183997661	0.00306455142494675	-0.000889310401949489	-0.0143553933936311	0.00397267483664019
0.3	0.0059734150656162	-0.00133558608173425	0.00291177367988967	-0.00132016468779102	0.00290449558510396	-0.00130720942861525	-0.0135019016648064	0.00449815657636733
0.4	0.00577277398421921	-0.00251244005734493	0.00268205737026123	-0.00169362382769308	0.00268735126321518	-0.00170219915679634	-0.0129766401282038	0.00551309373322181
0.5	0.00606415707599647	-0.00406975905945986	0.00242339006045011	-0.00205408847500817	0.00243497605838735	-0.00206635657849189	-0.0115560915594326	0.00600353497245991
0.6	0.00434796127404614	-0.00614916125427479	0.00210941872971879	-0.00236952231054637	0.00210863598269771	-0.00237669362338844	-0.0118078268978667	0.00568983913831712
0.7	0.00237195992678742	-0.00658423040674166	0.00176240339620658	-0.00264897354199986	0.00176044120787825	-0.00264917494521203	-0.012094926124288	0.00665009538787635
0.8	0.000647547176896828	-0.00662963781317918	0.00137611101533683	-0.00286886852060137	0.00136346842803867	-0.00287344491057381	-0.0120578382754935	0.00775430689522517
0.9	-0.00129625580255795	-0.00596109338602474	0.000956472723860785	-0.00303480842853466	0.000957515426365239	-0.00304555020992038	-0.0120528849054607	0.00917244026182935
1	-0.00172526463187403	-0.00426042128422865	0.000528538645386248	-0.00313726612442074	0.000518642660034879	-0.00313800837541413	-0.0105599843229754	0.0112028305944456
1.1	-0.00215562640239057	-0.00498686176581878	7.32310217063773E-05	-0.00316702462664221	6.97204802224611E-05	-0.0031847432350947	-0.00928549918791172	0.0107639231461113
1.2	-0.00397755651096632	-0.00494655634556033	-0.00037165062647173	-0.00315821651262902	-0.000372466421353844	-0.00315613139541077	-0.00898891400492897	0.0111692572699117
1.3	-0.00573999934255924	-0.00481616669046137	-0.000802125549863169	-0.00307499299598191	-0.000805380479360288	-0.00307700656367837	-0.00793804073119648	0.0115947521514063
1.4	-0.0073891077848717	-0.00413074206583704	-0.00122601240571875	-0.0029249772911648	-0.00122479715351844	-0.00293053471675519	-0.00669001758732993	0.0117321834494993
1.5	-0.00722891987006098	-0.00317834306198519	-0.0016266993888651	-0.00272922915906769	-0.00162507933995777	-0.00273776579921813	-0.00465596667825316	0.0112269421070882
1.6	-0.00808365329440938	-0.00208059915983953	-0.00199221546223902	-0.0024776913297386	-0.00199242924212701	-0.00248295400137012	-0.00483508734738828	0.0109255143671115
1.7	-0.00766395549112893	0.000184131354095614	-0.00232426099510467	-0.00217750186542775	-0.0023252250050156	-0.00217120468744584	-0.00418135194567535	0.0118635948053343
1.8	-0.00657477808092814	0.00211474868490923	-0.00259685084741814	-0.00182251317144576	-0.00260788457419743	-0.00182816360695354	-0.00321941276645642	0.0124449623107241
1.9	-0.00501526554533285	0.00389966006368188	-0.00282278719628134	-0.00144954307495182	-0.00283528480125083	-0.00144333823382707	-0.00216939301522547	0.0131564531841681
2	-0.00201028267126502	0.00454878253820905	-0.00300255589278012	-0.00103985085095207	-0.00301223238985974	-0.00103509486105379	-5.33761311376547E-05	0.0131608062162804
2.1	-0.000927046529833299	0.00341639198819749	-0.0031166053376692	-0.000603391525638479	-0.00311250258133474	-0.000605409714914708	0.000262828686467064	0.0119799408712944
2.2	-0.000191283559509132	0.00342223379176109	-0.00317131478688179	-0.000160530529253788	-0.00318269571773739	-0.000163339880651325	0.000620906452875068	0.012071144776367
2.3	0.000717816004772964	0.00323721908443431	-0.00316445626304833	0.000286343930908616	-0.00316418043768424	0.000279420227118305	0.00123717095455903	0.0120352432784481
2.4	0.00148200163899961	0.00328989694839253	-0.00309045134729159	0.000728566994760547	-0.00309302746003107	0.000724295415917879	0.00181603981783335	0.0123089190064485
2.5	0.00367036932291753	0.00333482710568755	-0.00294831908097058	0.00114786954858154	-0.00295923281843163	0.00115435727646086	0.00378776842853228	0.0125820719753596
2.6	0.00511609518092676	0.00100514418011106	-0.00276600128627716	0.00155062768133269	-0.00276251050636192	0.00153822641632825	0.00497143791912924	0.010867426256892
2.7	0.00549270497514093	-0.000805111307950777	-0.00251585176912402	0.00192133859405471	-0.00252115393926652	0.00192138450823039	0.00521906280931852	0.00989076820538811
2.8	0.00561183651730133	-0.0025382136237006	-0.0022282242689175	0.00224900619247774	-0.00222030945085196	0.0022587809956146	0.00530725604699865	0.00932340954298974
2.9	0.00564273813993279	-0.00389754393275328	-0.00188710562238956	0.00254889074522938	-0.00188338612858354	0.00254843244009112	0.00572185870943169	0.00944020968686525
3	0.00647689835504292	-0.00586386502822772	-0.0014930766737011	0.00277749739450087	-0.00150783264655289	0.00278373407659765	0.0073511431043776	0.00908630384002742
3.1	0.00537738232182733	-0.00878949630142696	-0.00110329522788826	0.00294963061989426	-0.00109856853032859	0.00295795216617505	0.00749533244134363	0.00789119595958631
3.2	0.00371573472250754	-0.0104857481984845	-0.000679893966476779	0.00308403243879736	-0.00068164613284352	0.00308343437347032	0.00765873098441445	0.00780317971875682
3.3	0.00184637266305439	-0.0119392445057298	-0.00023839039098778	0.00314873567114357	-0.000236770782914935	0.00314497756278463	0.00817780096411859	0.00759053043446457
3.4	-0.000347800150784593	-0.0125920711454131	0.000209389257426224	0.00313500650716655	0.000203325239417463	0.00315162348056396	0.00883768266554104	0.0074157997384458
3.5	-0.00145625830375843	-0.0133353683452962	0.000625918645477123	0.00308727800216648	0.000631511379628792	0.00308731394479001	0.0103721939433087	0.00649044504552901
3.6	-0.00445115154511822	-0.0149226954923719	0.0010553647896415	0.00296738395289124	0.00106355704125634	0.00296700538614858	0.010173399893452	0.00464825864705294
3.7	-0.00786685563523768	-0.0145455485132991	0.00146571335860727	0.00278052931780536	0.00145624024904408	0.00279427967876802	0.00988252093535527	0.00409576895526017
3.8	-0.0108433270918795	-0.0132339083590698	0.00184055189921582	0.00254810132153514	0.00184302835675497	0.00255722238740373	0.00989573182984295	0.00368466065453917
3.9	-0.0130559845412217	-0.0109642505239995	0.00218118594545627	0.00227242591569304	0.00217391813223975	0.00227070405359786	0.0101464002163334	0.00356752759582135
4	-0.0133161877557407	-0.00907397739014471	0.00246578165357928	0.00195171278363353	0.00247021055581534	0.00194924577700261	0.0116991317020513	0.00283165399199169
4.1	-0.0150215037153004	-0.00858818289872202	0.00271503995742182	0.0015841462200526	0.00271379562361804	0.00158489251058007	0.0115706350896287	0.000847503244977352
4.2	-0.0169717787734014	-0.00651072464735771	0.00290672150617376	0.00118025222482163	0.0029110980046297	0.00117151724570654	0.0111777551846485	0.000104858714212142
4.3	-0.0183157251775023	-0.0038858129783851	0.00304352343926359	0.000768334571785148	0.00304985919571695	0.00076049945706569	0.0110202180998889	-0.000565947566294414
4.4	-0.0191049413918584	-0.000505215212207872	0.00311602836157227	0.000335102421571748	0.00311837659796099	0.000332832077049039	0.010862687800116	-0.000850965820732752
4.5	-0.0176999868038864	0.00271607206224442	0.0031328995516001	-0.000107171504832659	0.0031382069080379	-0.00011058813673013	0.012055353122063	-0.00150260781042627
4.6	-0.0173511638100578	0.00394386258351956	0.00307725992673227	-0.000545148852593843	0.00307860715551255	-0.000532322629253774	0.0115769069534838	-0.00367159652893955
4.7	-0.017091915887164	0.00640404300158235	0.00296746692576893	-0.000957178906540829	0.00298256932085724	-0.00096686877407184	0.0106420400986564	-0.00457438905091698
4.8	-0.0162073089276371	0.00898428320239641	0.00280311719957525	-0.0013657499399474	0.00281148599491731	-0.00137186972301327	0.00988052619213165	-0.00518229651356935
4.9	-0.0145400519220711	0.0118080877506954	0.00257827528896564	-0.00174524409314416	0.00258243636905671	-0.00174239794714549	0.00929712648039551	-0.00523453254410324
5	-0.0109117398191803	0.0135605413053247	0.00231220397079327	-0.00208920309679674	0.00231581231951648	-0.00208659636132102	0.0102065101631909	-0.00573275729180783
5.1	-0.00887009533894058	0.0135897132518465	0.00200682614768934	-0.00238901287908504	0.00200911190689483	-0.00238768349293197	0.00944724183505311	-0.00722051854454247
5.2	-0.00669278558473411	0.0146221221194141	0.00165266865874711	-0.00263363608508552	0.00165433440318487	-0.00263873693726622	0.00890853776921076	-0.00743101393154854
5.3	-0.00386370144558106	0.0152532258073323	0.00126863340351675	-0.00284266507079832	0.00127174402116605	-0.00284064197351881	0.0087996365290066	-0.0076448654278245
5.4	-0.000687072619023779	0.0156266174558508	0.000848342186878789	-0.00298173729775077	0.000865246455896553	-0.00299289663445675	0.00895208515134564	-0.00784274686019881
5.5	0.00394843096665966	0.0142334729080213	0.000447416186904988	-0.00307390420242629	0.000457323741839747	-0.00308323879334278	0.0101890755022255	-0.00933127078924939
5.6	0.0052109428853879	0.0109151006604186	1.50345728657636E-05	-0.0031131435623003	6.59494837295872E-06	-0.00311630997510864	0.0082559070133058	-0.011575286176501
5.7	0.00582196589063088	0.00942753777230383	-0.000411128529882178	-0.00308097285700063	-0.000427562833063254	-0.00308455837081989	0.00643271278178492	-0.011578464472331
5.8	0.00652262082264279	0.00806778356640384	-0.000849216215617947	-0.00298505297284984	-0.000852729226276439	-0.00299887303599388	0.00521845057701458	-0.0114903396842453
5.9	0.00696637386047407	0.00741674293130445	-0.00124447159926907	-0.00284757240296188	-0.00125260413503529	-0.00284749313058367	0.00403590077481236	-0.0108665072372863
6	0.00971597528078432	0.00671322177629712	-0.00163950023401758	-0.00265001085657581	-0.00163597439257906	-0.00265017306648656	0.00482779974623751	-0.0102646001307293
6.1	0.0106567302425276	0.00248751806052088	-0.0019926322706382	-0.00239435815303699	-0.00199425264244641	-0.00239039572913218	0.00407019736728902	-0.0120412082795372
6.2	0.00970556078732439	-0.000516852241051458	-0.00229815756735318	-0.00208459820335468	-0.00230181916944927	-0.0020963347168842	0.00260349622254186	-0.0123428258936642
6.3	0.00829320231386518	-0.00299239734828259	-0.00257084409427679	-0.00175694090654667	-0.00257987647893671	-0.00175128154447714	0.00148502794965065	-0.0124049681450896
6.4	0.00669238142475928	-0.00445183099160515	-0.00279658525531661	-0.00137441889227491	-0.00278695234173081	-0.00137924819978379	0.000836739381601392	-0.011895580394414
6.5	0.00652194812242111	-0.00695342269491392	-0.00295367133943065	-0.000969831512850703	-0.00296145309309108	-0.00096540388543193	0.00168372372509095	-0.0128128066334724
6.6	0.00295057102689394	-0.00952965648236851	-0.00305470815174367	-0.000552470606773563	-0.00305631266339832	-0.000556401727432367	-0.000163320302675085	-0.0139274910699607
6.7	-8.8009085965659E-05	-0.00965763508059935	-0.0031063876053019	-0.000125041499837959	-0.00311515806754846	-0.000118871225490354	-0.00135991955535831	-0.0135605238870931
6.8	-0.00280055019857862	-0.00923077919398771	-0.00308895718372767	0.000309156002460142	-0.00309994585819547	0.000314097161911899	-0.00245222722034977	-0.0131839441375588
6.9	-0.0051243934954836	-0.00743221385571364	-0.00301705822045623	0.000738778296373076	-0.00302002193044362	0.000741129651863688	-0.00327545984864599	-0.0119882512908521
7	-0.00447044755482057	-0.00641642368592522	-0.00287872442398957	0.00115078145017191	-0.00289137374900029	0.00114855064495038	-0.00190181619114151	-0.0120200335453652
7.1	-0.0072285871340444	-0.00745067055160862	-0.00271206615273079	0.00152910642617534	-0.00270851414873073	0.00153769381296557	-0.0039020822418285	-0.0134613806294476
7.2	-0.0101892480100221	-0.00556186498758359	-0.00246583737138166	0.00189514254158308	-0.00247231159820455	0.00189714378250225	-0.00556792685967052	-0.012465162868467
7.3	-0.0124623437252222	-0.00290392631657408	-0.00217827740732424	0.0022131842319494	-0.00218941439232748	0.00221808490609636	-0.00642387898676414	-0.0114482143754456
7.4	-0.0143189356523219	0.00116491860474878	-0.0018443132901174	0.00249362244235504	-0.0018512505888125	0.00250701173100965	-0.00717646981283237	-0.00995115971214506
7.5	-0.0123783617597473	0.00573563507388755	-0.00149533506250164	0.00273167937687863	-0.00148850951698751	0.00273908819515868	-0.00524965530755794	-0.0088789305536003
7.6	-0.0113861698384297	0.00663528176082079	-0.00109901688522203	0.00292173241781198	-0.00110032057857492	0.00291705326650171	-0.00533140205360449	-0.0109946515984428
7.7	-0.0107879648759769	0.0089383935481677	-0.000675458560817733	0.00304997995523869	-0.000676775919698442	0.00304890856361644	-0.00645762242188192	-0.0117101969564855
7.8	-0.00914671790603281	0.0110937709156705	-0.000255320221678419	0.00310566014326473	-0.000263162822613018	0.00311197176414592	-0.00759554476119638	-0.0119521688972765
7.9	-0.0063865676088592	0.0131885877839791	0.000178372243690136	0.00312211431425869	0.000186247493029312	0.003123722081731	-0.00829521559489938	-0.0114617268012151
8	-0.00149041516016419	0.0125363108532071	0.000620700818430545	0.00306766313123795	0.000620709045552744	0.00307255362266251	-0.00789212538735975	-0.0124083944535222
8.1	-0.000486637080857716	0.0106978147070891	0.0010375779407254	0.00295519747561584	0.00105667442904354	0.002956533487527	-0.010739724702173	-0.0131198879444723
8.2	0.000822679509036524	0.0106782265903707	0.00144311518647391	0.00278093264975694	0.00145244241860447	0.00277387559691895	-0.0123957399554518	-0.0117398582529835
8.3	0.00248483792330465	0.0104768358580065	0.00182255310741399	0.00255105582117483	0.00182072052762918	0.00256457177783157	-0.0134369356093922	-0.0104398784865164
8.4	0.00438090721944435	0.0108566095674582	0.00216636859828574	0.00228301335037799	0.00216333777158214	0.00228274590542109	-0.0141608782686064	-0.00861393775893555
8.5	0.00903925445677817	0.00965209341666656	0.00246402883263993	0.00195108803755906	0.00246309348790343	0.00195426746814111	-0.0127286802196275	-0.00780561811836263
8.6	0.00998882328127299	0.0053380570072254	0.00271025063725638	0.00159271978882709	0.00271983522816435	0.00158629022768147	-0.0142664498686721	-0.00870332549898033
8.7	0.00982824482918256	0.0030924752805694	0.00290319358196425	0.00119556121622838	0.00290875303859706	0.00119635733675581	-0.0157047963001956	-0.00740293733702062
8.8	0.00958053157623044	0.00117041684394345	0.00304950077226378	0.00078636226555214	0.00305539825646426	0.000777650707100686	-0.0165766098176088	-0.00602011826072442
8.9	0.00921818290397529	9.35857009208783E-05	0.003135769765973	0.000348424837040778	0.00313492145038784	0.000346159324640065	-0.0169370856200341	-0.00392673572419869
9	0.011259817473269	-0.00153878030658848	0.00314491582545346	-9.58334177727575E-05	0.0031480309346966	-9.16880812528493E-05	-0.0148580342774883	-0.00253557835800833
9.1	0.0106917799224387	-0.0058528347779974	0.00311036802718549	-0.000533313515418494	0.00311308680021654	-0.000520331903357519	-0.0148949590085963	-0.00308925396402108
9.2	0.00915216712740898	-0.00863735022055187	0.00301103172679478	-0.00095710468324924	0.00301876721325547	-0.000959895632464346	-0.014814980645757	-0.00236884232574585
9.3	0.00721073028554648	-0.0112541540640343	0.00284801970043151	-0.00137018352618123	0.00284734616149031	-0.00137521288370476	-0.0144558992649642	-0.00186629135763019
9.4	0.00473588793762966	-0.0127677123974345	0.002627542493047	-0.00176568892235333	0.00263399847126233	-0.0017579706220668	-0.0140665053943038	-0.00101021748513868
9.5	0.00352836993507201	-0.0152897146329	0.00236302218876305	-0.00210221153386603	0.00237050346911988	-0.00210346031738472	-0.0125449664860471	-0.00167817011387157
9.6	-0.00183229019785215	-0.0179579278776804	0.00205138118525454	-0.00242294517175441	0.00205170126889228	-0.00242194921583554	-0.0144193203765883	-0.00241631756276453
9.7	-0.0070823951992616	-0.0173036706827679	0.00168139259506901	-0.00268507557508069	0.00168707151487792	-0.002692391782421	-0.0153834212667725	-0.00110181066845739
9.8	-0.0117593238366681	-0.0154027911611115	0.0012940248439054	-0.00290271893756469	0.00129968646280599	-0.00289406459209369	-0.0157651623514261	0.00021082923826928
9.9	-0.0157200201793827	-0.0116639714780969	0.000888512537915433	-0.00305086056568595	0.000881081422455921	-0.00304970864376382	-0.01585661897403	0.00205877012364481
10	-0.0163114651109124	-0.00816119234635101	0.000452206574258662	-0.00315856273453516	0.000444739984960191	-0.00317127769869144	-0.0138525594806659	0.00283503350609193
10.1	-0.0191574370187194	-0.0064681667585697	-6.22097179770179E-06	-0.00319516311579307	-1.66499402094823E-05	-0.00318977050410169	-0.0145496482661054	0.00202744286913096
10.2	-0.0217855121404866	-0.00227395495195337	-0.000461758947100331	-0.00316075823543728	-0.000465237013795922	-0.00315796252227201	-0.0151008569656845	0.00307931901273143
10.3	-0.0232124188297968	0.00285942851104421	-0.000904066567689394	-0.00305852814173238	-0.000895787083902701	-0.00306768906157532	-0.0150975462210852	0.00428709691719804
10.4	-0.0229965352748495	0.00923349854975495	-0.00131484285243012	-0.00290777873651497	-0.00131308297130213	-0.00291407410790994	-0.0144065526471902	0.00588538943552475
10.5	-0.018806413843624	0.0142162715978706	-0.00172560172315806	-0.00270044875360119	-0.00172246127593049	-0.00268721511214627	-0.0117684076111412	0.00603603355660701
10.6	-0.0163609728393848	0.0167321648997056	-0.00208106418889063	-0.00242024170234393	-0.00207883989300855	-0.00242412094215987	-0.0119000039408951	0.00488451048409732
10.7	-0.0133651464537997	0.020016025459259	-0.00240241806253303	-0.00211398880079867	-0.00239887357607191	-0.00210862213427917	-0.0118783418507077	0.00510903824899785
10.8	-0.00987335332543568	0.0227267024437177	-0.00267930617226813	-0.00174644063156492	-0.00267402508345539	-0.00175551169677096	-0.0119050475924836	0.00537568397265092
10.9	-0.00569541513307598	0.0259637456923304	-0.00289333073898793	-0.00135934925137251	-0.00289859938153667	-0.00135859333936057	-0.0118791489503124	0.00662536105881157
11	0.0017040788511035	0.0270416026428279	-0.00304492490904513	-0.000931764703393319	-0.00304985092600952	-0.000938577155973778	-0.0097071602024013	0.0066626809019006
11.1	0.00587142103580401	0.0252915808116982	-0.00315606932458586	-0.000505952142210317	-0.00314505522261647	-0.00050306929599052	-0.0105128133792411	0.00570631026273925
11.2	0.00998785975645208	0.0246534640560058	-0.00318772595043275	-5.82772909813005E-05	-0.00319499659584687	-6.31647653436611E-05	-0.0105844335615336	0.00658300979164355
11.3	0.0142517706141101	0.0234689959214827	-0.00315778820283546	0.000401439449552975	-0.00316953716145299	0.000391308096690323	-0.0100442221158369	0.00745032143761725
11.4	0.0185702218527012	0.0222340863892561	-0.00307574625002959	0.000836032884189004	-0.00307073235619706	0.000843669642137416	-0.00899740642718637	0.00845145657938094
11.5	0.0251921703798261	0.0186948237999696	-0.0029326056535296	0.00125014532578904	-0.002935391876518	0.00126056245313551	-0.00617311398498028	0.00753193712743372
11.6	0.0277344976445629	0.0123603662241395	-0.00273704055135798	0.00165409750577245	-0.00273700715808366	0.00165708186610696	-0.00670711551183315	0.00562329192219434
11.7	0.0291476792749913	0.00773871476185224	-0.0024650981816906	0.0020163035271795	-0.00246561297114186	0.0020250364417642	-0.00682123319926003	0.00542616978309816
11.8	0.0302871896727823	0.0033747217875457	-0.00215960903777169	0.0023509602711115	-0.00216376716702455	0.00235271223695744	-0.00655966768831752	0.00533651134383641
11.9	0.0318998221033473	-0.000191827424087528	-0.00180457322770202	0.00262704672146555	-0.00181773825474349	0.00263150143104489	-0.00566533763455417	0.00594423959195929
12	0.035464910305319	-0.0067151556100942	-0.001423768036807	0.00286056401449795	-0.00142315044031406	0.00286199325790339	-0.00308453949454661	0.00448034182054224
