# GHZ S RI R 50
0.2	0.00595526393517387	0.00121513447713751	0.0030482415525704	-0.000898058276427283	0.00305861032932498	-0.000891249994421788	-0.0139673320853221	0.00489357365218957
0.3	0.00628897070155994	-0.000734203766558806	0.00290392896916373	-0.00132147735596153	0.00289668387618855	-0.0013085387562937	-0.0131579994064693	0.00509296400756607
0.4	0.00603692482715706	-0.00240451349585559	0.00267221416217698	-0.00169317386674156	0.00267748058477049	-0.00170173418262122	-0.0126579482215956	0.00560948258336493
0.5	0.00533034807217791	-0.00377522195071614	0.00241337765133505	-0.00204978139609795	0.00242491332432094	-0.00206202087720454	-0.0121904596091363	0.00625273880129161
0.6	0.00434935211483761	-0.00488990251994742	0.00210077611116423	-0.00236421429533534	0.00209998914631069	-0.00237136293373968	-0.0116987866500001	0.00683661896716076
0.7	0.00302200917768191	-0.00562208912631848	0.00175360345067517	-0.00264181830247222	0.00175164772950096	-0.00264201694593363	-0.0113607926989827	0.00744596231091023
0.8	0.0016488216171868	-0.00598384135960838	0.00136823294199298	-0.00285905197180072	0.00135563495071278	-0.00286359937663808	-0.0110146552080143	0.00819599083960813
0.9	0.000173581278672929	-0.00597249661399059	0.000951282622470569	-0.00302249233113671	0.000952316751598025	-0.00303318960054234	-0.010607594561634	0.00895347619031725
1	-0.00127040941053912	-0.00559691287884582	0.000526478586821979	-0.00312585633385757	0.000516618631207903	-0.00312659545726078	-0.0101551447306391	0.00974159335007356
1.1	-0.00256058531409452	-0.00503231072737576	7.09954298226776E-05	-0.00315448100225044	6.74879633291848E-05	-0.00317212702557734	-0.00965112827695875	0.0106119793781042
1.2	-0.00383472156870023	-0.0045324487483999	-0.000370956789858455	-0.00314382806484005	-0.000371768247238853	-0.00314175211585747	-0.00876856873482589	0.0114507455625044
1.3	-0.00516855823241367	-0.00414398126443286	-0.000797931368391025	-0.00306061481279714	-0.000801170691648973	-0.00306261933399504	-0.00726185506822838	0.0120726769534127
1.4	-0.00636841757473337	-0.00366203863701512	-0.00121911991861023	-0.00291236677829561	-0.0012179075470649	-0.00291789858789501	-0.00558993611056473	0.0119318588195923
1.5	-0.00693795369478916	-0.00257633842632461	-0.00161978085586676	-0.00271641098772335	-0.00161816989241304	-0.00272490884295279	-0.00427741204722467	0.01152128919268
1.6	-0.00694679756923681	-0.00112627304525921	-0.0019801129170412	-0.00246415498287278	-0.00198032390571007	-0.00246938770305727	-0.00369900544943094	0.0114484795286958
1.7	-0.00645603641408458	0.00042901703457967	-0.00230845810898475	-0.00216739755544511	-0.00230942331987752	-0.00216113787659971	-0.00307995045318241	0.0117014681633075
1.8	-0.00559465110093406	0.00194924651549433	-0.00257938397743918	-0.00181598648446751	-0.0025903465849109	-0.00182162109570852	-0.0023910492014563	0.0119315278264564
1.9	-0.00441524710539741	0.00315025743558622	-0.00280455738091803	-0.00144535853860092	-0.00281699259331844	-0.00143920728176279	-0.00172625345274003	0.012135682449543
2	-0.0029542027846462	0.00406463896569288	-0.00298006848126001	-0.00103801736273181	-0.00298968686242682	-0.0010333112103426	-0.00106726520170051	0.012447826404525
2.1	-0.00134586331266566	0.00436662844878202	-0.003093638227173	-0.000609778787646025	-0.00308955628154793	-0.000611769667099886	-0.00017458783463934	0.0126191537065859
2.2	0.000125159433946012	0.00433692426403744	-0.0031509772927107	-0.000171624317160647	-0.00316227672276411	-0.000174459590371071	0.000876668747450008	0.0126131869631522
2.3	0.00148524833764557	0.00388932783501631	-0.00314629205554062	0.000271626185667937	-0.00314598954247454	0.000264745922158033	0.00186996000141345	0.0123025026798707
2.4	0.00260916935345622	0.00320636636947832	-0.00307384630919301	0.000709768682968948	-0.00307638632069147	0.000705512896509536	0.00273336046114313	0.0119032298030811
2.5	0.00357359419482098	0.00237648579200139	-0.00293690378326936	0.00112202033471183	-0.00294778937846796	0.00112839821444823	0.00350006750291526	0.0114444401038604
2.6	0.00451026131678389	0.00123914330756387	-0.00276272644885135	0.00152501882648492	-0.00275917150115112	0.00151270053583001	0.0043012474815892	0.0109348012158651
2.7	0.00523336150298175	-0.000133833759727475	-0.00251669444119046	0.00189611590267606	-0.00252197239015558	0.00189612717275149	0.0049584186557043	0.0103356419805541
2.8	0.00577528423581786	-0.0017339992637569	-0.00223371892989753	0.00222334699398366	-0.00222590782352804	0.00223313236552319	0.00547965042399487	0.00983185483713327
2.9	0.00606198334452649	-0.00352025901739911	-0.00189936217451991	0.00252327887492573	-0.00189565464304343	0.00252285191689019	0.00612863649026187	0.00948617544797245
3	0.00602133460312955	-0.00542483423819509	-0.00151283427078961	0.00275843233061065	-0.00152760771177428	0.00276453062768352	0.00693343635371428	0.00919320810547146
3.1	0.0055629453619582	-0.00751657106176347	-0.00112266989646098	0.00293499121575864	-0.00111801509463428	0.00294332940071068	0.00775011880493682	0.00871832237549324
3.2	0.00443051989679461	-0.00948116990035052	-0.000702364111309901	0.00307184096772913	-0.000704107703608704	0.00307123061018631	0.00833855799780651	0.00825647969454059
3.3	0.00283229871095896	-0.0112854371284702	-0.000264130253205086	0.00314138758932865	-0.0002624822001467	0.00313764933730942	0.00902059630803228	0.00768358774962559
3.4	0.000697091886877344	-0.0126580888629549	0.000182523463500902	0.0031350631240076	0.00017632100335087	0.0031516191845634	0.00965540542372154	0.00686021023916098
3.5	-0.00166321956756924	-0.0135559759971353	0.000603849715427012	0.00309177683014423	0.000609442235277593	0.00309185276050951	0.00999236343215553	0.00585182561985719
3.6	-0.0042822088425752	-0.0140630940677836	0.00103182526258787	0.00297270674531291	0.00104001292172211	0.00297239085327314	0.0101628735744167	0.00500277150679391
3.7	-0.00707914370287343	-0.0139140443126142	0.00144216428178286	0.0027917831808301	0.00143258017408102	0.00280545045337267	0.0103794940149407	0.00423298175152231
3.8	-0.00981617487246669	-0.0130968514774893	0.00182002401266549	0.00256470953439807	0.0018224251014847	0.00257385556041991	0.0105435848623048	0.00343007650665415
3.9	-0.0122288583042863	-0.0116738673931246	0.00216552027704058	0.00229172863895316	0.0021582588475206	0.00228994817527736	0.0105861153610005	0.00263685802525229
4	-0.0141218810873383	-0.00978327922571756	0.00245003663310849	0.00197110219006453	0.00245448468868847	0.00196867060223396	0.0106451224771752	0.00205570867803729
4.1	-0.0155921258261332	-0.00786104776965333	0.00270238468291045	0.00161135808751758	0.00270113215316735	0.00161209321005029	0.0109339024165499	0.0014943858740216
4.2	-0.0168661557896973	-0.00565562988829468	0.00290175853226317	0.00121012792353746	0.00290622656656756	0.00120141567346328	0.0112864537267245	0.000813761878153777
4.3	-0.0177637828015107	-0.00328408793262097	0.00304485750037121	0.00079801951767106	0.00305128155929262	0.000790220472370258	0.0116030608435135	-0.00012447519048294
4.4	-0.0183830505820702	-0.000696732104085764	0.00312123526472581	0.000363962140113617	0.00312361007581238	0.000361706892571722	0.0116394902711185	-0.00115661691835818
4.5	-0.0184639047973458	0.00213715213521404	0.00314427061013908	-7.4222983587979E-05	0.00314963161447732	-7.75943640456043E-05	0.0115453563989717	-0.00208766433960786
4.6	-0.0180853934869478	0.00474061730471065	0.00309985214166072	-0.000517237105988038	0.00310107788912102	-0.000504326017929388	0.0113461347883145	-0.00308677915996204
4.7	-0.017297401237021	0.00737527658548517	0.00299447801763449	-0.00093582302443497	0.00300976210393371	-0.000945433800215133	0.0109718831351537	-0.00403390404427994
4.8	-0.0160658257167951	0.00988710790243589	0.00283345455701005	-0.0013496734511758	0.00284193209454555	-0.00135575848806526	0.0105145886195448	-0.00485199180129973
4.9	-0.0142090318723209	0.012172126679102	0.00261289441861932	-0.00173370747840012	0.00261705869780828	-0.00173080233206008	0.0100664011130366	-0.0055099328077565
5	-0.0117577559636345	0.0140301197808056	0.00235297942242975	-0.00208880479202797	0.0023565993798706	-0.00208614097637586	0.00988111738106019	-0.00598687769533549
5.1	-0.00887183297768858	0.0151396650342521	0.00204243270798746	-0.00239884496988026	0.00204473183877711	-0.00239748727736955	0.00987484193829093	-0.00663827319032762
5.2	-0.00600318281999199	0.0157226195997371	0.00168526378111034	-0.00264863442928071	0.00168697782923754	-0.00265377402606235	0.00982134192901262	-0.00736141335433893
5.3	-0.00304187090909739	0.0157870587533343	0.0012988871357795	-0.00286404833020794	0.00130201729501859	-0.00286198563026428	0.00970329699383965	-0.00808720212004677
5.4	-0.000182383127080335	0.0153196438249894	0.000874258358734013	-0.00301152982093787	0.00089141793495385	-0.00302272637041102	0.00949564589358604	-0.00902670743167538
5.5	0.00257073300034192	0.0143899681112489	0.000461201318268444	-0.00310902412921144	0.000471251845482305	-0.00311844174847546	0.00896618753288454	-0.0100040519053427
5.6	0.00481861689325888	0.0127022609718647	2.33880121914388E-05	-0.00314562867820675	1.48685511157055E-05	-0.00314885039226476	0.00805750641601992	-0.0108133014961885
5.7	0.00636321818724316	0.010938962544202	-0.000407474471519025	-0.00311554539731203	-0.000424077954071317	-0.00311921321198469	0.00698290014891308	-0.0112120624810474
5.8	0.00751685353348612	0.00912439545101873	-0.000853272690336397	-0.00302098736706671	-0.000856799669027741	-0.00303497299752677	0.00598744214346418	-0.011549606294999
5.9	0.00824494497240471	0.00741196084628736	-0.0012580370607679	-0.00288130288056744	-0.00126626472418284	-0.00288122550051052	0.00487527211082505	-0.0117621362254519
6	0.00891979977008461	0.0058561865246132	-0.00165620884561369	-0.00267580623107503	-0.00165264826981564	-0.0026759707616949	0.00370852815332093	-0.0115909111133926
6.1	0.00960993667096941	0.00371720986666511	-0.00201201981574276	-0.00242144359100095	-0.00201366055075344	-0.00241744017043966	0.00304734424877385	-0.0112506841911246
6.2	0.0096742803840426	0.00113260744572619	-0.00232497341822458	-0.00210799521482952	-0.00232867960702201	-0.00211986550936244	0.00275562427346209	-0.0112435452517348
6.3	0.00901606419876485	-0.0016913452200468	-0.00260263970732214	-0.00177333768447274	-0.00261176707256699	-0.00176760102670643	0.00243477627570022	-0.0117749028985705
6.4	0.00741888558480505	-0.00425978406351062	-0.00282870502683041	-0.00138278882726055	-0.0028189819021474	-0.0013876891063667	0.00178965586313244	-0.0124171289949029
6.5	0.00552898699941115	-0.00620434918062152	-0.00298555724822726	-0.000977760348643413	-0.00299341758641945	-0.00097328000974714	0.00106719905839809	-0.0128658798150291
6.6	0.00317487979384161	-0.00773205620634263	-0.00309327650207899	-0.000552602144530116	-0.00309490917094946	-0.000556577875754061	0.000367341528478688	-0.0132417377914277
6.7	0.000664313022258071	-0.00835753490440562	-0.00314377489695815	-0.000115231319311006	-0.0031526271941645	-0.00010895579022093	-0.000514503372512289	-0.0134619898264721
6.8	-0.00178585648508585	-0.00836570217005849	-0.00312251884825005	0.000325895766281034	-0.00313361044015012	0.0003309398612754	-0.00150234280501979	-0.0134871505741797
6.9	-0.00420988565597107	-0.00775766456927084	-0.00304767929300932	0.000759208047276865	-0.0030506665089547	0.00076159758002086	-0.00250800948430124	-0.0133539183499725
7	-0.00608851281052484	-0.00649697876132605	-0.00291095105968189	0.00118023517044338	-0.00292377815986888	0.00117803774717229	-0.00343700423327181	-0.0130293122786672
7.1	-0.00786944954527895	-0.00533511768846562	-0.0027335306435069	0.00156852217825896	-0.00272986959913493	0.0015771873849504	-0.0043619614737349	-0.0126084418888288
7.2	-0.00964099449676478	-0.00357471579739226	-0.0024777328861277	0.00193658643289002	-0.00248426284194688	0.00193866331090828	-0.00507546282126016	-0.0119673897345962
7.3	-0.0111221952379225	-0.00138924507864567	-0.00218280710755995	0.00225599148698547	-0.00219402261224912	0.00226104143696397	-0.00547654033062809	-0.0114729697329575
7.4	-0.0123216126999634	0.00118436900560016	-0.00184148570212837	0.00253963461040641	-0.00184837405438991	0.00255324262246214	-0.00595617161257007	-0.0113229607175914
7.5	-0.0127506747303304	0.00433326863206556	-0.00147636784733632	0.00277886974521996	-0.00146937804692254	0.00278626924584679	-0.00646190612586745	-0.0111841155936799
7.6	-0.0121740540751419	0.0070533538089563	-0.0010708644567265	0.002958454428846	-0.0010722372423054	0.00295375501826205	-0.00685701035919114	-0.0112469887374729
7.7	-0.0112057052384496	0.0095590366308741	-0.000642336319836851	0.00308081978367484	-0.000643676734382802	0.00307975697095815	-0.00747506199820487	-0.0116666557484065
7.8	-0.00938710392460291	0.0116204894941162	-0.000216147087125349	0.00313071187079208	-0.000223961213129423	0.00313717098560764	-0.00834255478059909	-0.0118935773341123
7.9	-0.00699753582226372	0.0131090008500295	0.000225548525849368	0.00313818803464623	0.000233494707780824	0.00313968913408655	-0.00927034149826518	-0.0117938908768018
8	-0.00399813182247463	0.0140336230434138	0.000667778342079757	0.00306679026190655	0.000667858961553307	0.00307169388316119	-0.0103161979374258	-0.011307654164676
8.1	-0.00115423340533986	0.0138796163787881	0.00107979297871863	0.00294913668839073	0.00109895771468238	0.00295022112861196	-0.0111214849875519	-0.0107598026840109
8.2	0.00145329041584634	0.013538679544453	0.00148521188869651	0.00276751961995759	0.00149446332388605	0.00276031607922249	-0.0116918723231201	-0.00994463063396413
8.3	0.00401755658306116	0.0127167698545945	0.00186188038289219	0.00252781461355528	0.00186024168891869	0.00254137420328359	-0.0120361793497384	-0.00928492869960426
8.4	0.00629112612066932	0.0115134854526028	0.00219760897736922	0.00224986311124321	0.00219457673505961	0.00224963967975057	-0.0124874041664495	-0.00886931871194219
8.5	0.00857981280558648	0.00995144119781624	0.00248410838240333	0.0019188822088098	0.00248321245426837	0.00192206856322933	-0.0131523535259337	-0.00829792436462323
8.6	0.0102996549067439	0.00747774299525172	0.00272996453175417	0.00155760477870067	0.00273946435078496	0.00155105408583321	-0.0138070318244059	-0.00768123186831167
8.7	0.0112316487506548	0.00489565097171105	0.00291543997217338	0.00115471360325799	0.00292100269774279	0.00115543351485663	-0.0143716751775063	-0.00693179813190951
8.8	0.0116284430861222	0.00227861748409706	0.00305195683916823	0.000743688666293181	0.00305772282084331	0.000734921474341387	-0.014903957926336	-0.00626696255238948
8.9	0.0115445059738296	-0.00034391598844934	0.00312953426594956	0.000309380707245278	0.00312866140609604	0.000307132989579787	-0.015298996426732	-0.00548798057398746
9	0.0112739634503451	-0.00285827041194397	0.00313869397718706	-0.000134665202506171	0.00314185548692774	-0.00013056511682741	-0.0154770006581468	-0.00450257559795828
9.1	0.010549171845881	-0.00584425221238472	0.00309210967546691	-0.000575678151118261	0.00309500357140276	-0.000562779746941828	-0.0153609372616275	-0.00362151999272389
9.2	0.00900451207237137	-0.00862608258656442	0.00298270395226223	-0.000993482442851573	0.00299036211720766	-0.000996365168833454	-0.0151114258321856	-0.00287161989220364
9.3	0.00687885230514799	-0.0111202494873752	0.00281393695308268	-0.00139921794958955	0.00281320212799389	-0.00140420973816692	-0.0147475998435159	-0.00226848670881868
9.4	0.00407582872339128	-0.013144705779559	0.00259081723991558	-0.00178996991532711	0.00259733775079447	-0.00178237578793564	-0.0145291460497768	-0.00188979035640709
9.5	0.000949227710667457	-0.01435309693206	0.00231511716555005	-0.00212372717963769	0.00232252869359449	-0.00212508082004433	-0.0144560249325841	-0.00138111715219636
9.6	-0.00284707710866886	-0.0152057882392872	0.00199824851915562	-0.0024277967201106	0.00199857921899498	-0.00242681477874074	-0.0146648989692083	-0.000903594976576477
9.7	-0.00701397883087154	-0.0147793171315857	0.00163041225092868	-0.00267863721199439	0.00163594099676775	-0.00268594966120259	-0.0148362945177844	-0.000159604668092736
9.8	-0.0110681481210479	-0.0133030087017432	0.00124473734146747	-0.00288738939652682	0.00125044385592743	-0.00287889690265785	-0.0149433482282908	0.000635908987894217
9.9	-0.0147981853527736	-0.0106457440669688	0.000839019142803993	-0.00302601209102048	0.000831690891410652	-0.0030247789549115	-0.0151496083411795	0.00153793936093946
10	-0.0174899416503206	-0.00700551119734406	0.000409214556232505	-0.00311521862321653	0.000401717517298775	-0.0031276531138014	-0.0151825051207689	0.0027309351649752
10.1	-0.0193158922973566	-0.003330663013455	-3.36835765935849E-05	-0.00314644892149652	-4.3907207482257E-05	-0.00314104848958033	-0.0147918001355144	0.00381468682274756
10.2	-0.0204577585780117	0.000740605253089534	-0.000479650752755628	-0.00310878316149629	-0.000483053567316285	-0.00310600273919555	-0.0140204429098985	0.0047089153010476
10.3	-0.0207800941100654	0.00494556638405671	-0.000911532218778227	-0.00300267759213104	-0.000903452319763269	-0.00301175043276696	-0.0131248314188593	0.00512647053108092
10.4	-0.0203906733381164	0.00928767067220699	-0.00130815227117179	-0.00284829162424715	-0.00130646012604084	-0.00285448478496251	-0.0123805956575276	0.00508877040945581
10.5	-0.0187951806662437	0.0138036738339408	-0.00170028549499468	-0.00264984256771498	-0.00169717576221705	-0.00263684710928964	-0.011922890665785	0.00513995290846509
10.6	-0.0163203311418188	0.0175900280982862	-0.00205262551620036	-0.00237898405887794	-0.00205044242521164	-0.00238280646384785	-0.0115672331931887	0.00518692607060756
10.7	-0.0131448702476193	0.0210613248199136	-0.00236723381724456	-0.00207688889472354	-0.0023637380033776	-0.0020716127324272	-0.0111555008601599	0.00538312735225235
10.8	-0.0092913384494577	0.0238228881471648	-0.00263586157494687	-0.001716954347314	-0.00263066994658856	-0.0017258781332194	-0.0108151265802407	0.00545364438122184
10.9	-0.00508200814553986	0.026028373321183	-0.00284390234937457	-0.001342891784134	-0.00284908717370936	-0.00134215819701638	-0.0107011738728996	0.00553607785852266
11	6.91294133872129E-05	0.0275764069034583	-0.00300220527422396	-0.000925825231590918	-0.00300705081682367	-0.000932557123634926	-0.0105435994928093	0.005937015893445
11.1	0.0053172995939725	0.0276058545885599	-0.00310976141759599	-0.000501864929913948	-0.00309891007268949	-0.000499012554713005	-0.0102065622008782	0.00629274987709512
11.2	0.010406200617184	0.0268071855910621	-0.00313909886594175	-6.47572607895148E-05	-0.00314624761420263	-6.95871877356562E-05	-0.00957492507314405	0.00666458222210665
11.3	0.0154006326026256	0.0250120552991655	-0.00311228395922849	0.000383578607157826	-0.00312381986435303	0.000373553879988302	-0.00863055591405427	0.00677360373077028
11.4	0.019880753666364	0.0223913821060474	-0.00303827120813249	0.000811171877586229	-0.00303335838773734	0.000818728642563306	-0.0078545966284637	0.00653649317737479
11.5	0.0242149926017163	0.018986388965975	-0.00289471373043527	0.00122533107181659	-0.00289748701946818	0.00123559553844156	-0.00730823694077726	0.0061532224480187
11.6	0.0276675825709729	0.0142054175034703	-0.00270138580746941	0.00161527618089694	-0.00270136673852403	0.00161821348161666	-0.00685216771116487	0.00556196436207689
11.7	0.0299496765975829	0.00910107852644043	-0.00244037507071181	0.00196987320791544	-0.00244093764390535	0.00197846975750585	-0.00643150308351674	0.00488811450876389
11.8	0.0313372911686911	0.0037906157516626	-0.0021452577619553	0.00230163240152766	-0.00214936844131079	0.00230332940289326	-0.00617360251892308	0.00414489721240334
11.9	0.0318873315121945	-0.00148923750592734	-0.00179636172525042	0.002576861829193	-0.00180936693481941	0.00258116280840978	-0.00627230549125737	0.00370236642991949
12	0.0320209250382405	-0.00687858125928361	-0.00142462222740964	0.00279987246725257	-0.00142402749737217	0.00280128295245406	-0.00631473424945768	0.00359870011391427
