# GHZ S RI R 50
0.2	-0.000263047528897516	-5.29185593656892E-05	0.949154318609964	-0.307835494480638	0.948928076290507	-0.307977427490945	-6.8348434622914E-05	6.62873403215614E-05
0.3	-0.00043371675487188	0.000213718681765691	0.889261002072754	-0.451524781608849	0.889123566105468	-0.451578013483047	-0.000199008090289976	-0.000102134609872293
0.4	-0.000281509346962864	0.000372272720756109	0.807809843845083	-0.583848174360444	0.80784997077621	-0.58398779594333	-8.49861646221595E-05	-0.000134066569238031
0.5	-0.00038047131027639	0.000573788997365007	0.707054511829976	-0.70218322048196	0.706943909509178	-0.702279096136678	2.84460694941188E-05	-0.000226537866181003
0.6	-0.000336566544704302	0.00068297868422855	0.589129374913851	-0.803256052284381	0.588939805456635	-0.803258971912718	1.31566754175097E-05	-0.000452666747274904
0.7	-0.000358379246458877	0.00106629769121802	0.457047092328759	-0.884644116757	0.456973063654887	-0.884678502543446	-1.15084069709693E-05	-0.000710712967020444
0.8	-0.000122060810050548	0.00113935085600798	0.314007008063903	-0.944728835234989	0.313888466315963	-0.944642122807805	-0.000182336246756436	-0.000918485766645262
0.9	-8.42965173328575E-06	0.00146793577505373	0.163419897974655	-0.981760503950844	0.163270907009232	-0.981717661949953	-0.000513105035937381	-0.00114440399804809
1	0.000258724132905191	0.00146792056695056	0.00890878281724596	-0.994879426471183	0.00879072713762943	-0.994849758025835	-0.000845904381983037	-0.00130352854696304
1.1	0.000461840955795291	0.00145338786897799	-0.144982646410247	-0.984054821979956	-0.145630028088678	-0.984019743205294	-0.00144979077438352	-0.00126918989548533
1.2	0.000796852193753824	0.000642462035789002	-0.296743978467107	-0.949291194375718	-0.296737008207164	-0.949346860010434	-0.00157866763967382	-0.000993231953268253
1.3	0.00108247156160853	-0.000744729792979605	-0.440399991326596	-0.891462288894591	-0.440492066133141	-0.891486747308505	-0.00074217780145561	-0.000318718770515741
1.4	0.00112275926347571	-0.00261310146292582	-0.573206187186429	-0.812171675419615	-0.57327995905945	-0.81207213496601	0.000624712992436917	-0.000524451945274469
1.5	0.00101632253391173	-0.00345595564115474	-0.692331574397287	-0.713098924976201	-0.692356167331328	-0.713026902694482	0.00184972532265623	-0.00137819197374432
1.6	0.00078902660246001	-0.0038338044046478	-0.794154607930464	-0.597229692338722	-0.794583951324178	-0.596729313592731	0.00160378872990112	-0.00236734205417607
1.7	0.00070117246399494	-0.00377702704771899	-0.877005303137198	-0.466530255740102	-0.877309513181032	-0.466040522975861	0.00100763976701696	-0.00288717710781322
1.8	0.000404147483690027	-0.00384960619377689	-0.938778717447399	-0.324238428288429	-0.938794160764827	-0.324228966164278	9.48550765361584E-05	-0.00337846661893931
1.9	0.000147676172526252	-0.00373973345349384	-0.977654854634471	-0.174445434157171	-0.977699354200963	-0.174498156039397	-0.000799581140061697	-0.00355993985846509
2	-0.000291846994230776	-0.00380503791447922	-0.992565578766099	-0.0210968846496953	-0.992660195350735	-0.0204476128089504	-0.00182286267315723	-0.00341723078786987
2.1	-0.000756270641150565	-0.00369311968581411	-0.983498458613502	0.134425095170185	-0.983598097688247	0.133941114687862	-0.00250201999939327	-0.00301030265803257
2.2	-0.00149001531008415	-0.00370121850762863	-0.950751263469277	0.284691332280905	-0.950789986249784	0.284825043500536	-0.00309026642120661	-0.00269519526063324
2.3	-0.00219792581300341	-0.00344712995615527	-0.894947955074943	0.428719453379722	-0.894784163722121	0.428807825130612	-0.00370919643716297	-0.00237175123102884
2.4	-0.00310533887497182	-0.00310311486119207	-0.816902568786729	0.562929896770074	-0.817193966392273	0.562468271363636	-0.00429307775727429	-0.00202011285989989
2.5	-0.00377658707542296	-0.00235096551671505	-0.719727129441005	0.682715337629026	-0.720029420231854	0.682334978323088	-0.00456185670648599	-0.00177007648937391
2.6	-0.00436272736664802	-0.00156354322025006	-0.605380715445739	0.785723627743423	-0.605301539457652	0.785664237646823	-0.00468781499516029	-0.00137566211326367
2.7	-0.00437526174759845	-0.000603895759193806	-0.475940661983809	0.869965118322768	-0.475911196136956	0.869979191458796	-0.00475527919590541	-0.00100205340904963
2.8	-0.00405664823637546	5.92035048299839E-05	-0.335289200432193	0.933121690901284	-0.335171045657278	0.933206097684331	-0.00452342777093376	-0.0005158068096904
2.9	-0.00302879717354083	0.000485965088269152	-0.186386023556315	0.97367596270814	-0.186381552763094	0.973730717085543	-0.00393082978715116	0.000169911847363807
3	-0.00207173057537195	0.000491036686813658	-0.0327873810461688	0.990686024021959	-0.032851627804725	0.99075744277439	-0.00285348632866796	0.000729062671039983
3.1	-0.000915189419903191	0.000321754749407684	0.120551218237066	0.983691494029596	0.121198885239369	0.983772436703779	-0.00167283590169287	0.00102572799851448
3.2	-0.000177971630202511	-0.000246078169591013	0.272319930350687	0.952785541451796	0.272309994173965	0.952825109032602	-0.000761497061482818	0.00088310810604468
3.3	0.000672884940744836	-0.000932420647224329	0.417540043175062	0.898610058318826	0.416917943493814	0.898891587482875	0.000315754246447574	0.000548536741601846
3.4	0.00102228912686277	-0.0017776797380818	0.551386327073784	0.823151657887278	0.551301491615504	0.823266900442622	0.00132618256575488	-0.00020700895112587
3.5	0.00144524549371442	-0.00260659013581013	0.672281672150163	0.727622344281757	0.672295899360293	0.727648519882905	0.00196999675308121	-0.00129399896627464
3.6	0.00128809266428412	-0.00346071494254859	0.776539776720836	0.614797369502537	0.776961441490857	0.614403467581346	0.00210133579549184	-0.00239267085490574
3.7	0.00119666040924458	-0.00430225669726813	0.862840587935196	0.486193588990737	0.862847627733724	0.486320027006975	0.00200455522196529	-0.0033709207173107
3.8	0.000638614880653863	-0.00508173960900077	0.927669621020999	0.346300219205153	0.927698051617114	0.346483368014516	0.00145252473435809	-0.00443323119299098
3.9	0.000318799678578571	-0.00574900711685565	0.970191245198175	0.19756524020097	0.970093136777608	0.198152766964832	0.000331745609524904	-0.00552210231858661
4	-0.000451467184064498	-0.00629077317745294	0.988982516383055	0.0453252368041894	0.989064467922969	0.0453681710975369	-0.000936811658430311	-0.00621746973689115
4.1	-0.00115829157056097	-0.00683789580380417	0.984050410025545	-0.108701664035361	0.983988363516162	-0.10863766118752	-0.00243331494296691	-0.00668073716841269
4.2	-0.00240991911795899	-0.00722829285100617	0.954827876666427	-0.260705584763066	0.955021486444841	-0.260136829929279	-0.00404534306887766	-0.00678729056775992
4.3	-0.00354698076736923	-0.00764852088882605	0.902988200278036	-0.40512629564712	0.902989080435113	-0.405107782572761	-0.00575382241737626	-0.00678404355558255
4.4	-0.00511317160676728	-0.00771476213917331	0.829145176876994	-0.540217999260576	0.829065347144953	-0.540202045464266	-0.00768908554220035	-0.00631219408279839
4.5	-0.00649771952640547	-0.00763217464264146	0.735262647293938	-0.662424735299142	0.735139341178618	-0.662278751677634	-0.00950592012098025	-0.00544597447470952
4.6	-0.00818862643846456	-0.00705713576486757	0.623448150572529	-0.768450327616652	0.623433725857308	-0.76822111010271	-0.0112173602030304	-0.00415262749961025
4.7	-0.00960427310444875	-0.0065390011127194	0.496467989533998	-0.855887315335044	0.496585081764211	-0.855642936302506	-0.0128248945148213	-0.00273026129607385
4.8	-0.0110258838227755	-0.00542917490333415	0.357323214736931	-0.922368690135683	0.357616753374877	-0.922180507537045	-0.0139356974506073	-0.000786130923023463
4.9	-0.0117752538439785	-0.0043959204884934	0.209782939270607	-0.966188567782501	0.210042511813429	-0.966137753705891	-0.0142627058991106	0.00160755624054218
5	-0.0122794895011337	-0.00324037733967342	0.0577122849662054	-0.986760988503833	0.057870435134685	-0.986633312277448	-0.0136068488432732	0.00418466382538631
5.1	-0.0122023463943451	-0.00235491801479228	-0.0958768706624325	-0.983782626965456	-0.0955560319498369	-0.983720071202247	-0.0120800073145575	0.00658581520324403
5.2	-0.012117855638338	-0.00137003481876001	-0.247430349132785	-0.956997689981423	-0.2470033516722	-0.957119778536659	-0.0101826140188316	0.00876875686235395
5.3	-0.0119725382747034	-0.000743602118542852	-0.392890385625099	-0.907041652566422	-0.392601776090754	-0.90738598382653	-0.00767555846799747	0.0105521771422038
5.4	-0.011876075730336	0.000304998292412564	-0.528969674826707	-0.835114491881128	-0.528833912595318	-0.835403839819979	-0.00497330528605683	0.0117296150765718
5.5	-0.0118116063241417	0.00120701955903763	-0.652118718676323	-0.742790865875492	-0.652068939380756	-0.743104484668053	-0.00233098431944672	0.012182083773998
5.6	-0.0116963926515633	0.00263846430874167	-0.759314064714471	-0.632533183887943	-0.759327570725376	-0.632703416940698	0.000162793557126499	0.0122846339609135
5.7	-0.0115340032761177	0.00386245272287821	-0.848300284792809	-0.506991359113153	-0.848276588675446	-0.507166352814067	0.00255983804466385	0.0121744416098391
5.8	-0.0112212466136164	0.00548466181924778	-0.916526627227784	-0.369066354373954	-0.916571515984303	-0.369358294202823	0.0049178552739506	0.0116954647609752
5.9	-0.0107088779679435	0.00686269403343126	-0.962659740442196	-0.222473770317091	-0.962780074300916	-0.222521645325331	0.0069962758303733	0.0108046267115856
6	-0.00990067193413433	0.00845842766939318	-0.985518781027758	-0.0703875068927999	-0.985515734243218	-0.0704561568252311	0.0087086002809327	0.00969302091864363
6.1	-0.00891455642877664	0.00973147896004896	-0.984362904327951	0.0833498703221533	-0.984366117021268	0.0832465947005194	0.0103496517651437	0.00818699748297842
6.2	-0.00780379758439099	0.0109411908444397	-0.959364499867997	0.235165882141297	-0.959412582424002	0.234984292181855	0.0116288902801147	0.00608448658587878
6.3	-0.00670389058942326	0.0116815281191696	-0.911189111887639	0.381143907024531	-0.911213449974019	0.381015314402007	0.0123644452413107	0.00345193140626205
6.4	-0.00550042835838438	0.0121801494557104	-0.840922784328465	0.517879629524399	-0.840914073155105	0.517666193851933	0.0122800197026465	0.00045103616371677
6.5	-0.00436705414219048	0.0122335325192462	-0.75028048636482	0.642039349423036	-0.750380941539277	0.641867128324601	0.0115415925137688	-0.0025110072026994
6.6	-0.00300193171415608	0.0122682241433559	-0.641509695540151	0.750605036027863	-0.641658075023835	0.750459146122012	0.0102922103721264	-0.00503529150000883
6.7	-0.00172092124826989	0.0118946651340235	-0.517198962248567	0.841000736635646	-0.517320044486411	0.840843632661812	0.00839483848858797	-0.00716374854173811
6.8	-0.000411337123065002	0.0114796947719582	-0.380325185788553	0.910964802175515	-0.380536150798286	0.910889782807125	0.00605209822462637	-0.00857328504133569
6.9	0.000734068410057552	0.0106692174101636	-0.234344276275869	0.958839084450233	-0.234594815131561	0.958835265854545	0.00379035727224361	-0.00925253014690082
7	0.001908895545109	0.0098183100816216	-0.0827213929756688	0.983545466252198	-0.0829794953894298	0.983515377922796	0.00160566280923892	-0.00963934206496144
7.1	0.00269446094371752	0.00870090552370719	0.0708527644066239	0.984393620965007	0.0706462636146986	0.984381510865006	-0.000586782798008474	-0.0094321062442058
7.2	0.00336346066114485	0.00758009408862529	0.222743997862435	0.961388381194524	0.222488885478299	0.961432363137002	-0.00239332640253443	-0.00857926033562707
7.3	0.00347393717729318	0.00624748111705244	0.369186408111153	0.915095779998648	0.368946394743589	0.915186409004774	-0.003950733078923	-0.00739114477773035
7.4	0.00341786814683782	0.00513491924793774	0.506647005265246	0.846576367463326	0.506428919188044	0.846738091967994	-0.00529537757163823	-0.00592176706118947
7.5	0.00299043743415356	0.00399839946676198	0.631769080216429	0.757635690112826	0.631609167030463	0.757807353146357	-0.00608945925737741	-0.00408567732000182
7.6	0.00261487028803092	0.0031564087820916	0.741662020898278	0.650394277165794	0.741446797083825	0.650554936400516	-0.00614567590490554	-0.00252728344562677
7.7	0.00189966800252099	0.00258701892076933	0.833453263601163	0.527416483706724	0.833302292961867	0.52761116507584	-0.00604951138062127	-0.000976599415286713
7.8	0.00142844366397465	0.00245576724064154	0.9052264354788	0.391608251790669	0.905105578711808	0.391829591097349	-0.00536472678765033	0.00045416828637207
7.9	0.00083367335508153	0.00255613339006221	0.954898207743908	0.246431389736776	0.954857697776358	0.246656600338489	-0.00443923566227073	0.00173690065979825
8	0.000648751871828035	0.00294499300784695	0.981481215433217	0.0952387536972052	0.981551517320253	0.0955305510137834	-0.00360544543311256	0.00279623092577995
8.1	0.000318591644106686	0.00350799867734134	0.984325948015699	-0.0581829471910732	0.984449866601618	-0.0579119133497993	-0.002457105550688	0.00374381687411214
8.2	0.000378439497595472	0.00415229570779112	0.963281107644376	-0.210192534318126	0.963346804432489	-0.209896822606847	-0.00129506213028385	0.00428251078355561
8.3	0.000362577922943819	0.00488853947846025	0.918884122719768	-0.357100652982717	0.919021464153251	-0.35684483844446	-3.8689499171973E-07	0.00443852067722465
8.4	0.000765066028959872	0.00561358263728698	0.852280824609832	-0.495328922969336	0.852492267300034	-0.495129177545513	0.0012656615578027	0.00412644426545196
8.5	0.00119603608235941	0.00631560260438256	0.765137034654949	-0.621508402154483	0.765252650023074	-0.621382553980315	0.00233438091792026	0.0035012143214218
8.6	0.00210719025050246	0.00684615656067314	0.659275857679744	-0.732675940181476	0.659472926497501	-0.732490609474766	0.0033080293775184	0.00271092072554477
8.7	0.00303192665494522	0.00720214219408177	0.537494624284847	-0.825945414573504	0.537776023007985	-0.825836061593841	0.00406924264880381	0.00172706102495654
8.8	0.00444584892280809	0.0071788128997292	0.402892043259347	-0.899291886381471	0.403097840690525	-0.899237369936656	0.00440612631283453	0.000589466724189881
8.9	0.00591809008239222	0.00668035587267689	0.258437290768361	-0.950926829860888	0.258678720989881	-0.950786404846786	0.00472434195084616	-0.000370993814124459
9	0.00771987511802032	0.00536981850185674	0.10766241154394	-0.979347517893602	0.108024135316112	-0.979317481670035	0.00515215350405921	-0.00134017477816591
9.1	0.00917584600344946	0.00350480314683428	-0.0454953208541999	-0.984114109427181	-0.045143181270954	-0.984128376148612	0.00564538896464517	-0.00241880992394798
9.2	0.0103195399303936	0.000987671899165443	-0.197740281258691	-0.965025005084863	-0.197384706826879	-0.96509533520932	0.00618026731618797	-0.00353528018639969
9.3	0.010601577635602	-0.00158841079844815	-0.345116009888024	-0.922609671096737	-0.344759131404743	-0.922673689899461	0.00658883352335137	-0.00459206370282042
9.4	0.0103310370701774	-0.00431691257858808	-0.48398407794024	-0.857837387893274	-0.483660929003267	-0.857984851680849	0.00679431643548372	-0.00574756731871831
9.5	0.0090498110274025	-0.00654161283894907	-0.611129140355109	-0.772261713270425	-0.610922995543505	-0.772398749852411	0.00647342229276008	-0.00661375933879796
9.6	0.00744941944489452	-0.0085300065664873	-0.723527010611774	-0.667965947753147	-0.723254261014259	-0.668150376800127	0.00583667611367194	-0.00737499112239612
9.7	0.00522128239441991	-0.00978569188731065	-0.818278025542267	-0.547582567378022	-0.818031641620393	-0.54785142401972	0.00504644980495497	-0.00791853126709936
9.8	0.00277440693349211	-0.0105795204215146	-0.893271826994514	-0.413931748394869	-0.893062653662471	-0.414206276228489	0.00415853082152738	-0.00815629365950526
9.9	6.47458583562737E-05	-0.0104639183088677	-0.946553709355069	-0.270291200560379	-0.946441045585536	-0.270620148872646	0.0034820622263865	-0.00815220142581533
10	-0.00251102748929319	-0.00996416659392372	-0.977022255090994	-0.120175844845892	-0.97694175512086	-0.120554117859184	0.00278272599420536	-0.00800215868221014
10.1	-0.00505706826260615	-0.00866560271330643	-0.983675677485501	0.0329073005708251	-0.983655476858493	0.0324296442406006	0.00229871362004262	-0.00775067121238101
10.2	-0.0071324105200798	-0.0070730689188562	-0.966625851737471	0.185116936185892	-0.966610550029552	0.184667344640714	0.00197935236929446	-0.00766306653207781
10.3	-0.00905410395544574	-0.00486189180842766	-0.926127032784995	0.332878542347103	-0.926261844867609	0.332338432496946	0.00153053597371431	-0.00793674632027767
10.4	-0.0103165767415223	-0.00262590108164625	-0.863175331046756	0.472479930311372	-0.863439877996832	0.471944421282685	0.00107808848892446	-0.00851508051486849
10.5	-0.0111781036073546	2.30497743398182E-05	-0.779416148721561	0.600632769371545	-0.779698392258532	0.600246058410507	0.00063520040938556	-0.00935164055334142
10.6	-0.0113155176953405	0.00255417040166831	-0.676667313008955	0.714211303445065	-0.677093005586985	0.713867610704317	-0.000112966892824692	-0.0103290338616262
10.7	-0.0108002338697642	0.00528786005053647	-0.557670512341996	0.810507600584822	-0.55808156049504	0.810219576094077	-0.000854458524813906	-0.010992396959895
10.8	-0.00949308757371233	0.0075669956233345	-0.425055713605906	0.887111541051471	-0.42556560249212	0.886882613057712	-0.00175994120069017	-0.0116746460459662
10.9	-0.00782849609455843	0.00978775077844376	-0.282285151994013	0.94226086646582	-0.282772563282697	0.942209883802489	-0.00303667028770048	-0.012175830332253
11	-0.00538313888336384	0.0112085040853048	-0.13258564986403	0.974588182615857	-0.133131482444402	0.974584104910786	-0.00415278906747336	-0.0124644870876656
11.1	-0.00258174220440887	0.0122973149231003	0.0203625050929555	0.983213642412928	0.0197339178527053	0.983296780064904	-0.00521749627528856	-0.012639354968421
11.2	0.000548756103753536	0.0123283895169697	0.172586468683961	0.968069205012795	0.172067869558507	0.968272337200567	-0.0061250440280067	-0.0127319419709172
11.3	0.00361618937212827	0.0117641212102462	0.320557823070958	0.929544975737412	0.320128819178377	0.929807527203271	-0.00681894273693456	-0.012594382860978
11.4	0.00639956611534019	0.0102767032374642	0.460961529989384	0.86857080862674	0.460497866327993	0.868830816479205	-0.00752992461832019	-0.0122811369908059
11.5	0.00876244183379614	0.00860762620449029	0.590109537131623	0.786351451493452	0.589752159909985	0.786769485354407	-0.00839410405807181	-0.0118324487336184
11.6	0.0106543275738187	0.00609372850201415	0.704777160479938	0.68522572117702	0.704511077753489	0.685706161390849	-0.00931608848484615	-0.0112402920059644
11.7	0.0119128850362154	0.00361995890164616	0.802570722171948	0.56761412052269	0.802332310957845	0.56803618986243	-0.0102196007574576	-0.0105116998870398
11.8	0.0123676313198163	0.000739167716186703	0.88092523512732	0.436022120768449	0.880741925923782	0.436574360626709	-0.0112274894978019	-0.00967715586271085
11.9	0.0122707363088277	-0.00168108425998458	0.937792731984992	0.294078660634213	0.937755302784209	0.29462261012938	-0.0122643501228341	-0.00835829329694129
12	0.0111400922040311	-0.00422660787606295	0.972021425696008	0.145162887826969	0.97200994828891	0.145642388903064	-0.0130873752059809	-0.00700988000131628
12.1	0.00986078719521713	-0.00611765151083027	0.982718930582204	-0.00741535232395562	0.982695007268761	-0.00694238776982744	-0.0135063981972768	-0.00548995550066762
12.2	0.00789816540934031	-0.00789908412857901	0.969579337250194	-0.159895434167104	0.969686709344145	-0.159458384948641	-0.0138040291545841	-0.00389919937948809
12.3	0.00567571367665279	-0.00890056003989257	0.932862031277666	-0.308296062698273	0.933048274140285	-0.307938224897615	-0.0137408205905511	-0.00234675658817746
12.4	0.00308951669863583	-0.00951876493868476	0.87387951742592	-0.449269437916701	0.874012925591169	-0.448894720830813	-0.0134439202379548	-0.000967387149546998
12.5	0.000712390982073402	-0.00930532465620473	0.793427861497948	-0.57944949178523	0.793886913783106	-0.579057668764324	-0.0130268426658237	0.000186719272477724
