# GHZ S RI R 50
0.2	-0.000277901868717339	-5.90224947463282E-05	0.949158298746089	-0.307828551186869	0.948932057168018	-0.307970486206918	-8.32044887474452E-05	6.01826380297946E-05
0.3	-0.000450800288600019	0.000215620636170649	0.889268917030993	-0.451520071344988	0.889131480800503	-0.451573304554607	-0.000216089484247471	-0.000100232541497222
0.4	-0.00028840668897498	0.000383371656961123	0.807813528112259	-0.583847509975127	0.807853655525748	-0.583987131813207	-9.18802570403034E-05	-0.000122967239859013
0.5	-0.000374703749553993	0.000564580482907288	0.707054407535619	-0.702163331008903	0.706943808129506	-0.702259206866293	3.42233894418087E-05	-0.000235735705939932
0.6	-0.000355307777055915	0.00067947745276566	0.589155447758128	-0.803240505474149	0.588965877840895	-0.803243430861846	-5.54641800324402E-06	-0.00045617138473993
0.7	-0.000369809633643306	0.00108227699718558	0.457073507761692	-0.88464135413184	0.456999479223176	-0.884675742091453	-2.28907765543034E-05	-0.00069475246445792
0.8	-0.000118396417560293	0.00116983305717031	0.314030840453319	-0.944727274687861	0.313912295973934	-0.944640564486678	-0.000178633051166356	-0.000888040897119784
0.9	3.59323331421494E-05	0.00152495058458062	0.163453353313618	-0.981749200676485	0.163304361694342	-0.981706364137326	-0.000468716288902075	-0.00108749332433581
1	0.000416563405918376	0.00146273799592327	0.00898161347287719	-0.994898076650192	0.00886355333631605	-0.994868416250854	-0.000688018602996488	-0.00130910467530859
1.1	0.000582275062635148	0.0013301413869442	-0.144946414900255	-0.984109749991109	-0.145593830055614	-0.984074698026623	-0.00132911548390968	-0.0013926424562752
1.2	0.000884581000638386	0.000431834878819367	-0.296720477525902	-0.949341206536176	-0.29671350488997	-0.949396874188629	-0.00149201805034942	-0.00120423202782452
1.3	0.00103465033247686	-0.00105060977330472	-0.440376103562454	-0.891520504606263	-0.440468181061348	-0.891544968415332	-0.000791274847194695	-0.000623945325084368
1.4	0.000913898882462219	-0.00285916089451684	-0.573188481684289	-0.812262467898727	-0.573262264996074	-0.81216292599958	0.000415715965583109	-0.000769520147784607
1.5	0.000696243593546677	-0.0035823872256135	-0.692396148748069	-0.713204614787014	-0.692420746650874	-0.713132584427095	0.00152966716002265	-0.00150544079647709
1.6	0.000551089708922404	-0.0037159841287021	-0.79422270158707	-0.597264771266559	-0.794652071116971	-0.596764348928274	0.00136743711794296	-0.00225157739709786
1.7	0.000626268396445879	-0.00362597046487292	-0.877059201711414	-0.466566921878696	-0.877363435083713	-0.466077159325399	0.000933062455155313	-0.00273724764951565
1.8	0.000438154689902138	-0.0037196926611946	-0.938851604342882	-0.324281173478705	-0.938867049109414	-0.324271710820248	0.000128587344682474	-0.00324865511943603
1.9	0.00029790038789428	-0.00369204248415461	-0.977774476258116	-0.174460144807601	-0.977818981564873	-0.174512872780987	-0.000649527472046275	-0.00351222069225957
2	-0.000227953271654361	-0.0039560641462632	-0.992646132191054	-0.0210161788623249	-0.992740702395961	-0.0203668476173728	-0.00175917222664419	-0.00356837716373302
2.1	-0.000784905736077205	-0.0037116269712616	-0.983532177029334	0.134455073137955	-0.983631832118128	0.133971076911512	-0.00253074255072205	-0.00302869876969565
2.2	-0.00143855320145488	-0.00369588591465131	-0.950810513621083	0.284728164796532	-0.950849236562893	0.284861885800818	-0.00303877008693591	-0.00268993133902099
2.3	-0.00208881707532885	-0.00346936381788945	-0.895000642943883	0.428791545483518	-0.894836834843313	0.428879917265396	-0.00360006095648975	-0.00239443184909707
2.4	-0.0029074280084543	-0.00319656844924662	-0.816897377470129	0.563028837643227	-0.817188829589707	0.56256721289875	-0.00409428203505401	-0.0021136190632702
2.5	-0.00362088887692042	-0.00272881386653633	-0.719684164133911	0.682712291308715	-0.719986455272138	0.682331953097566	-0.00440459498243689	-0.0021481155331862
2.6	-0.00451247992057954	-0.00193394762281252	-0.605429171480454	0.785749710227998	-0.605349990132005	0.785690318911979	-0.00483694118592133	-0.00174780807451849
2.7	-0.00465080836060423	-0.000820168184922146	-0.475957074113785	0.870035136742838	-0.475927605933907	0.870049210284398	-0.0050321947855157	-0.00122050241682962
2.8	-0.00432706337457237	1.14012889328779E-06	-0.335268072860573	0.933181202289795	-0.335149908859935	0.933265608458515	-0.00479636191333358	-0.000574499462545942
2.9	-0.0032283997147846	0.000502252861202509	-0.186372310251897	0.973681455108549	-0.186367838648666	0.973736209573159	-0.00413077964516567	0.000186012783713342
3	-0.00225092892009529	0.000555763278653957	-0.0328704843396729	0.990761041871351	-0.0329347419433994	0.99083246100049	-0.00303286322063834	0.000793403598861468
3.1	-0.000976521886070135	0.000437290197637021	0.12059411241075	0.983824324013561	0.121241871141468	0.983905260617053	-0.00173407589977297	0.00114155406808843
3.2	-0.000167740799436156	-0.000178007401982124	0.272391658936185	0.952860842406168	0.27238172376309	0.952900414149038	-0.000751636888510467	0.000951164422425329
3.3	0.000718442437671315	-0.000905663976064792	0.417595182987443	0.898668613139588	0.416973042576648	0.898950179896315	0.000360797337412783	0.000575343696781884
3.4	0.00109420014320859	-0.00182673302888777	0.551434072613573	0.823263574049158	0.551349224287547	0.823378828574253	0.00139756176411033	-0.000256021572170637
3.5	0.00137599672561489	-0.0026911677163385	0.672504390115593	0.727744421763273	0.672518622917348	0.727770602567574	0.00190065971868815	-0.00137911961378806
3.6	0.00127987701549501	-0.00339306115679791	0.776740295241507	0.614744038379226	0.777161946718526	0.614350016309672	0.00209278973219609	-0.00232461900089822
3.7	0.00129803561336726	-0.00426229350201928	0.862990112711862	0.486126893538915	0.862997169992642	0.486253343071008	0.00210557574295771	-0.00333049329076402
3.8	0.000809741040051819	-0.0051032747277382	0.927828077218856	0.346220913610815	0.927856535273051	0.346404081023387	0.00162330007991205	-0.00445423120790097
3.9	0.000566277542081274	-0.0059034245377513	0.97039417631371	0.19740827860961	0.970296166589143	0.197995924038574	0.000578843949593953	-0.00567576865996665
4	-0.000391630676322647	-0.00669386454591882	0.989033455885364	0.0449867089371116	0.989115425121333	0.0450296165788967	-0.000877104449088811	-0.00661969991518487
4.1	-0.001296203825187	-0.00707131259841954	0.983960633055793	-0.108900167455466	0.983898604165142	-0.10883615598449	-0.00257117941593688	-0.00691335648302457
4.2	-0.00254735150854415	-0.00735962715673392	0.954750346400978	-0.260868516026461	0.954944051997223	-0.260299814250079	-0.00418259243677835	-0.00691790870328322
4.3	-0.00365528952824513	-0.00768891757166806	0.902877465211444	-0.405301190561901	0.902878349175004	-0.405282678220901	-0.00586259727745051	-0.00682507612680679
4.4	-0.00506982356873784	-0.00770791576998522	0.828918806153872	-0.540383199191195	0.828838988670651	-0.540367225865355	-0.00764604606975485	-0.00630521960529523
4.5	-0.0063905645126646	-0.00788808300099979	0.734989568778368	-0.662336908306697	0.734866312603348	-0.662190948641146	-0.00939814550283396	-0.00570152559106384
4.6	-0.00831741801579932	-0.00731746583602374	0.623374199623932	-0.768375059201393	0.623359778757495	-0.768145865875056	-0.0113464267363056	-0.00441309634921619
4.7	-0.00981938552855132	-0.00670772835346358	0.496380718461244	-0.855863387567562	0.496497818739141	-0.855619031976029	-0.0130399936250751	-0.002898520729765
4.8	-0.011281328532975	-0.00547898493700775	0.357206168148026	-0.922314482021854	0.357499696276068	-0.92212634366151	-0.0141895392510328	-0.000836072269882443
4.9	-0.0119919864499497	-0.004331440068638	0.209713494892511	-0.966033379142877	0.209973025546303	-0.965982582788952	-0.0144781461081055	0.00167095918522671
5	-0.0124828729553634	-0.00309511200504477	0.0578348625758307	-0.986731400943027	0.0579929931352943	-0.986603707751646	-0.0138105510004705	0.00432911163055022
5.1	-0.0122324300563689	-0.00206581411839275	-0.095939516418337	-0.983844437390506	-0.0956186521984383	-0.983781895641734	-0.0121088357690065	0.00687503599090542
5.2	-0.0119197320891525	-0.00114303045819009	-0.247517912518922	-0.956965414732807	-0.247090930557051	-0.957087542246552	-0.00998312246333816	0.00899477609061008
5.3	-0.0116256887332634	-0.000714193273472745	-0.392925408790252	-0.906984777692974	-0.392636829498178	-0.907329111605284	-0.00732846667794365	0.0105800327175094
5.4	-0.0115437299883523	1.64527327766505E-05	-0.528971456472785	-0.835147392671241	-0.528835685579615	-0.835436746813126	-0.00464137626767028	0.0114404865575734
5.5	-0.0119593860720832	0.000827578020502138	-0.652369000402182	-0.742825651501239	-0.652319263866813	-0.74313933929607	-0.00247568631013649	0.0118027402130761
5.6	-0.0117670149931353	0.00265680667021625	-0.759471807251988	-0.632308311540599	-0.759485360106752	-0.632478536939646	9.43641893689007E-05	0.0122999100978942
5.7	-0.0113897291778796	0.00386399989103054	-0.848329618543539	-0.50677220670446	-0.848305960501374	-0.506947189825504	0.00270394639234595	0.0121731900128604
5.8	-0.0109317902756134	0.00536288784375445	-0.916519992193304	-0.36888384167902	-0.916564926876213	-0.36917575195487	0.00520614342726866	0.011571074765086
5.9	-0.0102947469198469	0.00642452744016933	-0.962697965606934	-0.222252679375211	-0.962818308799357	-0.222300526467007	0.00741032526320381	0.0103643675428695
6	-0.00999948799908412	0.00751410665690559	-0.985329002529532	-0.0699808072581747	-0.98532598364962	-0.0700494432139015	0.00860596084338136	0.00874290347079771
6.1	-0.00953361178459217	0.00921090488258157	-0.984013961471615	0.0834679082313208	-0.984017188431309	0.0833646684023905	0.00972398906112568	0.00766684653645031
6.2	-0.00848226544879674	0.0108202062056152	-0.959100024286634	0.23517937959833	-0.959148108474628	0.234997839975592	0.0109474391466821	0.00596600890689692
6.3	-0.00722372443475954	0.0119016643666458	-0.910956352437052	0.381149485422411	-0.91098069765067	0.381020922814925	0.0118411581631752	0.00367246442530938
6.4	-0.00569182836839318	0.0125072720077289	-0.840594571929516	0.517880291340835	-0.840585900540603	0.517666914471939	0.01208310461257	0.000777468149304712
6.5	-0.00435741418724443	0.0124416597704702	-0.749953904643315	0.641703659970126	-0.750054304919193	0.641531515872983	0.011545913251601	-0.00229554915754465
6.6	-0.00283889510210294	0.012333129569535	-0.641487472981211	0.750342697493827	-0.641635797634557	0.75019681611648	0.0104553153230672	-0.00496432602176536
6.7	-0.00158166362940002	0.0117425504956763	-0.517155419542481	0.840835606446745	-0.517276473860077	0.840678522426858	0.00853279551104295	-0.00731165045656744
6.8	-0.000404800545418368	0.0112490740437332	-0.380244135861676	0.910756805959758	-0.380455052762409	0.910681802404279	0.00605677381408674	-0.00879764178628845
6.9	0.000627393249525123	0.0104532216596004	-0.234359012778998	0.958485343589556	-0.234609464913609	0.95848150134954	0.00368577162491402	-0.00946092266273962
7	0.00170979241411925	0.00975062714682391	-0.0830329212207143	0.983392365443966	-0.0832909807129349	0.983362196420904	0.0014149010705203	-0.00970425091664292
7.1	0.00263060010629935	0.00872419652351867	0.0707638114745187	0.984379380235045	0.0705573160589706	0.98436725203284	-0.000646978312519071	-0.0094083824830885
7.2	0.00336791920625401	0.00757830619749999	0.222658112113923	0.961285152152365	0.222403028043006	0.961329113143621	-0.0023848418845597	-0.00857902374046038
7.3	0.00351108430228171	0.0062242242004561	0.369007302301262	0.915004804198604	0.368767313623123	0.915095387182336	-0.00390719022355477	-0.00741331383452085
7.4	0.00347357778136803	0.00507847887273664	0.506410628234103	0.84667107561849	0.506192509805007	0.846832737963758	-0.00523990513673993	-0.00598083435057762
7.5	0.00292732635578673	0.00397925414785723	0.63189524822892	0.757787260048628	0.631735303046442	0.757958957373568	-0.00615518278621794	-0.00410593035274449
7.6	0.00270092769369295	0.00337218450325268	0.741688068288057	0.650241506329891	0.741472883682187	0.650402181156132	-0.00605339814963777	-0.00232268520864313
7.7	0.00227942695125032	0.00276722102882786	0.833339097948351	0.527316493450437	0.833188154887405	0.527511148811365	-0.00566716920969818	-0.000792268303265515
7.8	0.00205052482741353	0.00243544846956531	0.905108942666917	0.391594118334953	0.904988092242319	0.391815428054906	-0.00473809342941398	0.000439219430877231
7.9	0.00162897274618791	0.00212545956419477	0.954896179645895	0.246386369692103	0.95485568005929	0.246611579045581	-0.00367394554489467	0.00126091669966828
8	0.000909950236826003	0.00180487750120822	0.981219754250292	0.0949707416142113	0.981290107202731	0.0952624370449547	-0.00330994628583456	0.00166609270248611
8.1	1.19633642718812E-05	0.00271424567574213	0.983933643438869	-0.0580644861199022	0.984057485788287	-0.0577935498923376	-0.00277488813326215	0.00295195268468235
8.2	-7.894958095564E-05	0.00364226053080725	0.963076906375259	-0.209957483687007	0.963142530710114	-0.209661834440967	-0.00175640799110692	0.00377573309063203
8.3	-0.000140092771177789	0.0046731488943595	0.918786722855523	-0.35691424519728	0.918924006303512	-0.35665845244775	-0.000505255359026498	0.00422562226046867
8.4	0.00049066852420178	0.00565843781951005	0.852079284433256	-0.495205134243244	0.85229067523981	-0.495005435496609	0.000990010207092188	0.004173835883587
8.5	0.00101116361090398	0.00604887842795077	0.764960079811874	-0.620993293248797	0.765075604178422	-0.620867470264506	0.00215053251900203	0.00323924918279336
8.6	0.00164457295526735	0.00689197958273996	0.659481270403692	-0.732315845780785	0.659678239170161	-0.732130460882165	0.00284668954687211	0.00275954740426246
8.7	0.00276834907095231	0.00751429604497389	0.537673620524673	-0.825746595572371	0.537954970859455	-0.825637176442852	0.00380516813955956	0.00203987558459359
8.8	0.0044293906994627	0.00761523948559329	0.403019397766539	-0.899093182422903	0.403225157276185	-0.899038631890483	0.00438973871763921	0.00102737427137309
8.9	0.00626500186026755	0.00715111768721002	0.258660521874268	-0.950593043689236	0.258901844349773	-0.950452582007051	0.00507276803073528	0.000103039605626303
9	0.00838639876942565	0.00552790538060857	0.108207850338527	-0.979318962445356	0.108569568949387	-0.979288725065786	0.0058222126254552	-0.00118266526627323
9.1	0.00999648234042179	0.00331777712500208	-0.0452821721237339	-0.984240185239974	-0.0449299878677654	-0.984254375451133	0.00646683128226577	-0.00260883326114432
9.2	0.0110206299730001	0.000264395874773663	-0.197535585698282	-0.965026065392646	-0.19718001137737	-0.965096320199683	0.00688196674467234	-0.00425967052912039
9.3	0.010816442521458	-0.00259453098567742	-0.344780767427844	-0.922637895223614	-0.344423900853384	-0.922701790786567	0.00680495177103356	-0.00560051988753981
9.4	0.0101109229826948	-0.00531565821522437	-0.483566914222631	-0.858150905037264	-0.483243665477076	-0.858298209307981	0.00657690583206679	-0.00675020267887612
9.5	0.00814571337647781	-0.00718157762782193	-0.611197469042988	-0.772686071614204	-0.610991216523016	-0.772823116550361	0.00556708617651937	-0.00725562665037524
9.6	0.00685956742491232	-0.00839599469505366	-0.723510731656114	-0.668085795483347	-0.723237944333199	-0.668270210109853	0.0052467214849597	-0.00724016044779944
9.7	0.00503324901417727	-0.00959246573468399	-0.818189163970968	-0.547810044507579	-0.817942701802684	-0.548078855875365	0.00485849159499102	-0.00772455942934803
9.8	0.00284569736265698	-0.0104251278507151	-0.893301299915985	-0.414266291523514	-0.893092009884006	-0.414540804172483	0.00422962524467444	-0.00800135065100512
9.9	0.000456082428590935	-0.0105705515519544	-0.946852721604475	-0.270523819384176	-0.946739970332521	-0.270852868878354	0.00387365529951862	-0.00825746255503998
10	-0.00258457459051333	-0.0105797123028296	-0.977072491101245	-0.120036597311308	-0.976992043890326	-0.120414894757948	0.00271077428389167	-0.0086184535139924
10.1	-0.00531375359005206	-0.00872730815000064	-0.983645983401114	0.0327102136815342	-0.98362568841805	0.0322325789762562	0.00204156946330281	-0.00781288530723837
10.2	-0.00710317736938381	-0.00698652279136128	-0.966798426945466	0.184951685386426	-0.966783034121218	0.184502033651997	0.00200915002186791	-0.0075771211508793
10.3	-0.00873960031041884	-0.00480199032555695	-0.926319932154261	0.332895910872684	-0.926454743068014	0.332355691486206	0.00184510609196892	-0.00787992879574743
10.4	-0.00963849105641879	-0.00283943112391662	-0.863095933566907	0.47260600840748	-0.863360558986955	0.472070544334111	0.00175089542668973	-0.00873435198868651
10.5	-0.0106111913427107	-0.000949334612478402	-0.77928583418691	0.600227623478873	-0.779567882282908	0.599840981049173	0.00119057974381367	-0.0103187357842602
10.6	-0.011434735319622	0.00136869016604683	-0.676975931397381	0.713941806444135	-0.6774014880938	0.713597930727637	-0.000220697324485552	-0.0115137413696947
10.7	-0.0115392700884816	0.00441194684725879	-0.557976921859856	0.810421724403157	-0.558387924839364	0.810133543880711	-0.00156267833371454	-0.0119533974789135
10.8	-0.0102781514815688	0.0071196384109772	-0.42530960100886	0.887053314977838	-0.425819460411116	0.886824241882591	-0.00253494679108484	-0.0121087534861494
10.9	-0.00850602056325169	0.00966299263035025	-0.282652607032582	0.942080604444546	-0.283139964101302	0.942029425160829	-0.003709277088191	-0.0123001829396729
11	-0.00600454655107981	0.011284621563449	-0.133306455657388	0.974858504983229	-0.13385248803794	0.974854049594732	-0.00476110199964442	-0.01239783581479
11.1	-0.00295667886807346	0.0125417938462497	0.0201170788592464	0.98371433022232	0.0194881532687943	0.983797346303646	-0.00558979083509188	-0.0124083549688988
11.2	0.000358690794814989	0.0125772784885753	0.172464224973507	0.968449882000944	0.171945400849544	0.96865298847262	-0.00631442423958324	-0.0124931542672479
11.3	0.00359257463373488	0.0119879964033749	0.320405388004096	0.929928484236782	0.319976175745248	0.930191001818119	-0.00683513273300582	-0.0123815624449614
11.4	0.00653509357838752	0.0103023759714633	0.460825864021864	0.869220351345608	0.460361847606232	0.869480294005927	-0.00738576593376207	-0.0122736812014131
11.5	0.00852134343503274	0.00859878905470157	0.590627176702338	0.78698569222553	0.590269516314604	0.787404086010825	-0.0086544095556151	-0.0118560134168778
11.6	0.0107090579312521	0.00652055183113384	0.705179805681886	0.685394799047995	0.704913690840932	0.685875481131192	-0.00927375674057133	-0.0108154411513557
11.7	0.0123786394269715	0.00397144354319355	0.802877076972776	0.567819792204506	0.80263858014949	0.568242022105169	-0.00976535708770811	-0.0101644779432616
11.8	0.0131919408079985	0.000868860419874504	0.881349300301999	0.436272233702744	0.88116587928197	0.436824742699818	-0.0104197537291471	-0.00955207655105211
11.9	0.013559009180731	-0.00219020769159976	0.938516069777616	0.294120890121683	0.938478711304214	0.294665235307459	-0.0109999627741862	-0.00887619837102459
12	0.0116444786499064	-0.00567451431100566	0.972380766410355	0.144684286101591	0.972369542525984	0.145163932220905	-0.0126037137822085	-0.00845231626594596
12.1	0.00977553133758154	-0.00736563961238497	0.982908944526379	-0.00758489643445043	0.982885097460315	-0.00711183573722116	-0.0135969386734771	-0.00673286956878536
12.2	0.00745878569833229	-0.00900920602944737	0.969880466229056	-0.160151319733394	0.969987965832312	-0.159714142089755	-0.0142500874015016	-0.00500174043668749
12.3	0.00492094844041941	-0.00969561963946127	0.933063771347834	-0.308753378664913	0.933250212816745	-0.308395489143668	-0.0144996237598389	-0.00313041231255276
12.4	0.00237344414931368	-0.00991343243655533	0.873669359988483	-0.449807433994932	0.873802995285427	-0.449432772386374	-0.0141552731546152	-0.00134979317504905
12.5	-5.43449707914197E-05	-0.00978602250158529	0.793130077085918	-0.579322706399738	0.793589011279637	-0.578931043330088	-0.0137943587055899	-0.000287480812384809
