# GHZ S RI R 50
0.2	-0.000267114291006809	-5.41778805083765E-05	0.949155304963451	-0.307835279907861	0.948929062518591	-0.307977213157481	-7.24147772522373E-05	6.50290396823153E-05
0.3	-0.000439152794662078	0.000214993479645083	0.889262242855276	-0.451525212681995	0.889124806718116	-0.451578444650103	-0.000204443029107941	-0.000100859139940638
0.4	-0.000286642151242966	0.000376474139677098	0.807810910598323	-0.583849231500335	0.807851037556723	-0.583988853300417	-9.01180830907254E-05	-0.000129864268040527
0.5	-0.000384082483916788	0.000580619469378117	0.707055184879711	-0.702184687542205	0.706944582336681	-0.702280563279452	2.48363034242126E-05	-0.000219706236366326
0.6	-0.000337721091756153	0.000692068479529092	0.589129616762547	-0.803257700937116	0.588940047022883	-0.803260620421364	1.20040864186298E-05	-0.000443574206643425
0.7	-0.000356008510034404	0.00107734019451002	0.457046981991267	-0.884645779810823	0.456972953181628	-0.884680165582567	-9.13343219330272E-06	-0.000699665896628085
0.8	-0.000114507049920175	0.00115190217240795	0.314006704165203	-0.944730431500128	0.313888162317343	-0.944643718855167	-0.000174772414965612	-0.000905926038657721
0.9	7.06788911014082E-06	0.00148080941402849	0.163419612463277	-0.981762082810659	0.163270621295049	-0.981719240663914	-0.000497583708490453	-0.00113151709106697
1	0.000286489610679351	0.00147765683633104	0.00890873659923566	-0.99488123246338	0.00879068070724769	-0.994851563956946	-0.000818082274784029	-0.00129377208693714
1.1	0.0005067982207246	0.00145094613196692	-0.14498235634656	-0.984057416813612	-0.145629739691775	-0.984022338382968	-0.00140467645598485	-0.00127163203210385
1.2	0.000856408906070948	0.000609273381227138	-0.296743651019815	-0.949295542792708	-0.29673668064143	-0.949351208643029	-0.00151758252587988	-0.00102579930280997
1.3	0.00113018426096386	-0.000824695937120301	-0.440401217272548	-0.891469221348351	-0.44049329265646	-0.891493680111068	-0.000691651565248177	-0.000398379381806635
1.4	0.00111663985699552	-0.00271175825575084	-0.573211711441535	-0.812180587223436	-0.573285484153932	-0.812081045768186	0.000621741700858722	-0.00062381030722578
1.5	0.000961439321457209	-0.00351999982424886	-0.692343364635858	-0.713105902335854	-0.692367957636365	-0.713033879006932	0.00179336509596463	-0.00144224861976824
1.6	0.00073232947901492	-0.00384219918493075	-0.794170358884296	-0.597230181838117	-0.794599703274078	-0.596729792682374	0.00154834041032015	-0.00238051472610467
1.7	0.000665118611963065	-0.0037585477307912	-0.877019928926768	-0.466523914800656	-0.877324135865957	-0.466034173319679	0.000971295111664095	-0.00287148438050432
1.8	0.000385373488923505	-0.00382253841836077	-0.938789480343398	-0.324228138472741	-0.938804923639491	-0.324218676077147	7.60042616709423E-05	-0.00335138804142557
1.9	0.000143575654311084	-0.00371141405453246	-0.977661832043723	-0.174433617310177	-0.977706332506503	-0.174486338870531	-0.000803768241691984	-0.00353163966201331
2	-0.000284762951600576	-0.00377830448640134	-0.992569652056841	-0.0210848182912391	-0.992664261058164	-0.0204355427971429	-0.00181588465970322	-0.00339051746694533
2.1	-0.000739269140387784	-0.00366947565944959	-0.983500451725328	0.134436995585395	-0.983600096776643	0.133953014510548	-0.00248514873464367	-0.00298666819020777
2.2	-0.00146309019359716	-0.00368248676358397	-0.950751776630477	0.284703100476633	-0.950790498062475	0.284836812651016	-0.00306351889128956	-0.00267647021843118
2.3	-0.00216065200254014	-0.00343656114979797	-0.894947319550371	0.428731348025699	-0.89478352646403	0.428819718366882	-0.00367220055315412	-0.00236116435976188
2.4	-0.00305716519948402	-0.00310716848601966	-0.816900792836512	0.562942346992733	-0.817192197326703	0.56248072228643	-0.00424691005231504	-0.00202426837718396
2.5	-0.00372298109954475	-0.00237540430770664	-0.719724099261966	0.682728999776717	-0.72002639684809	0.682348641364391	-0.00451067263156123	-0.00179430893293771
2.6	-0.00431447517107851	-0.00161401202116703	-0.605375567392889	0.785739319648508	-0.605296391480939	0.78567992790575	-0.00464231749814892	-0.0014253705715469
2.7	-0.00435029854181973	-0.000677109017651481	-0.475931339849914	0.869983442944143	-0.475901873417167	0.869997515740498	-0.00473311039153001	-0.00107380216522412
2.8	-0.0040701206726368	-1.63674450212017E-05	-0.335272054996966	0.933141689000676	-0.335153896720717	0.933226094163573	-0.00453920486906035	-0.000589271030426788
2.9	-0.0030719793250037	0.000442961161186863	-0.186358474889807	0.973691350548372	-0.186354002397596	0.973746105339362	-0.00397366794357955	0.000126367764357806
3	-0.00210955751673543	0.000486532937417536	-0.0327520095008932	0.990689301530896	-0.0328162538411126	0.990760722733706	-0.00289133915069289	0.000724068402581216
3.1	-0.000925122105955231	0.000327983935264864	0.120584770170438	0.983679633362772	0.121232434984125	0.983760552702359	-0.00168275879342012	0.00103204399192601
3.2	-0.000176050532093608	-0.000252995350428665	0.272343220865536	0.952765801413116	0.272333285925779	0.952805368770699	-0.000759950576219292	0.000875594524392155
3.3	0.000669174256452207	-0.000952856088047685	0.417554489375103	0.898587988864949	0.416932404802125	0.898869528135845	0.000311525874605232	0.000527488540704673
3.4	0.00100584868904738	-0.00180037754960381	0.551394815856965	0.823130642224123	0.551309983670018	0.82324588490341	0.00130908432012682	-0.00023014569037775
3.5	0.00141894302401452	-0.00262350243473959	0.672286511375792	0.727602602733505	0.672300738872742	0.72762877779485	0.00194378274524269	-0.00131101716523123
3.6	0.00125576806451845	-0.00346722765367263	0.776542882561776	0.614778699029206	0.77696453684626	0.614384793695955	0.00206853033993876	-0.00239950847070303
3.7	0.00116291936910326	-0.00429779832375845	0.862842123688956	0.486174903162187	0.862849165606327	0.486301340057087	0.00197044668077549	-0.00336682445839847
3.8	0.00060678915815153	-0.00506618750906611	0.927669480630665	0.346280785558969	0.927697914386272	0.346463932565582	0.00142039602627857	-0.00441803058882227
3.9	0.000291959680547782	-0.00572211212283501	0.970188808695508	0.197544435132259	0.97009071273183	0.198131959987833	0.00030454576325095	-0.0054956104404578
4	-0.000469485476727858	-0.00625164545420705	0.988976690221732	0.0453025908883476	0.989058642163543	0.0453455230338079	-0.000955424302514417	-0.00617872786649232
4.1	-0.00116056138510982	-0.00678525743894188	0.984039229704462	-0.108726111598894	0.983977185373566	-0.108662107696107	-0.00243656724478394	-0.00662828153113356
4.2	-0.00238299359553252	-0.00716403790584065	0.954808475621922	-0.260730428673678	0.955002099727703	-0.260161686522024	-0.00401994450236649	-0.00672250259462025
4.3	-0.0034722921064517	-0.00758900808265066	0.902957420022697	-0.405147192681264	0.90295830075476	-0.40512868000041	-0.00568004029312295	-0.0067245710690862
4.4	-0.00497903160872025	-0.00770340266013649	0.829104091409333	-0.540226431333624	0.829024264558376	-0.540210475638954	-0.00755605131014639	-0.00630038405530129
4.5	-0.00634564142911503	-0.00772985077806675	0.735220961191028	-0.662413582106232	0.735097662758229	-0.662267601710319	-0.00935488156259985	-0.00554250401094353
4.6	-0.00811710026489198	-0.00726706118491756	0.62341920809852	-0.768423793411305	0.623404785283297	-0.768194584810218	-0.0111464880445244	-0.00436269249330996
4.7	-0.00967686724042853	-0.00677158890096512	0.496455502668466	-0.855858496448635	0.496572590303548	-0.855614124687231	-0.0128980728989164	-0.0029626581088871
4.8	-0.0112143610191503	-0.00559177146539732	0.357320398906727	-0.922345725810209	0.357613929809683	-0.92215754579617	-0.0141238580742839	-0.000948228729701883
4.9	-0.0120121905011068	-0.00445311032073836	0.209783603534947	-0.966171773433861	0.210043171589531	-0.9661209590875	-0.0144995581319871	0.00155067283365117
5	-0.0125082066742977	-0.00320011304101808	0.0577131326761938	-0.98674810225756	0.0578712805877499	-0.986620427430656	-0.0138355710090056	0.00422528296638371
5.1	-0.0123883165229936	-0.00224306691061717	-0.0958768182560774	-0.983771306947799	-0.095555983136147	-0.983708752237368	-0.0122659414070336	0.00669797472449651
5.2	-0.0122454783072402	-0.00121485882863774	-0.247430703830864	-0.956986180834866	-0.247003711543844	-0.957108269417458	-0.0103101577951315	0.00892410580933295
5.3	-0.0120382104633438	-0.000568419949178651	-0.39289007899025	-0.907028913964147	-0.392601474570566	-0.907373242505669	-0.00774109176884332	0.0107274530372866
5.4	-0.0118808867242611	0.000483507373308109	-0.528967172494746	-0.835100117830547	-0.528831413748145	-0.83538946258814	-0.00497784355622405	0.0119080924992166
5.5	-0.0117555292054537	0.00137567156367915	-0.652112097330686	-0.742775301101357	-0.652062320524587	-0.743088915060914	-0.00227464872784436	0.0123505404126273
5.6	-0.0115759195810889	0.00278139808926618	-0.759301155405372	-0.632518279662455	-0.759314661700328	-0.632688509315705	0.000283346486908137	0.0124272572580811
5.7	-0.0113462450751921	0.00395091184270517	-0.848280028123454	-0.506981254283993	-0.848256332242194	-0.507156243940194	0.002747363031547	0.0122624335191912
5.8	-0.0109763018826481	0.00547059669477151	-0.916500239837613	-0.369067349043606	-0.916545124309272	-0.369359282231685	0.00516204791153811	0.0116812154169145
5.9	-0.0104688881762814	0.00668561469927412	-0.962635815050339	-0.222491849402778	-0.962756145441759	-0.222539726274552	0.00723550870072115	0.0106280373565077
6	-0.00979956990329836	0.00811656737434627	-0.985511868629972	-0.0704187619388969	-0.985508819647674	-0.0704874114498448	0.0088090862038903	0.0093522531601057
6.1	-0.00906448996622514	0.00936109715050807	-0.984378644229753	0.083322707451838	-0.984381853989226	0.083219430330963	0.0101999555331373	0.00781829837996144
6.2	-0.0081537039664748	0.0107270128983698	-0.959391400425927	0.235156230693613	-0.95943948123774	0.234974635575205	0.0112799990624778	0.00587137604799497
6.3	-0.00708944914487993	0.0116853309265052	-0.911214285614373	0.381150138349747	-0.91123862381775	0.381021542284003	0.0119807098454402	0.00345656463582904
6.4	-0.005800021850896	0.0123409551642883	-0.840939728407809	0.517894387138057	-0.840931017839627	0.517680946635874	0.0119819005900899	0.000611809218644561
6.5	-0.0045421144605525	0.0124588497548728	-0.750289688205086	0.642056667872987	-0.750390146495124	0.641884444317043	0.0113678556658715	-0.00228595497853438
6.6	-0.00306870549570114	0.0124932272407195	-0.641513132983716	0.750621777079424	-0.641661515945581	0.750475886203035	0.0102268172539331	-0.00481064539299634
6.7	-0.00170995690968611	0.0120894342920301	-0.517198869500869	0.841015588216842	-0.51731995454441	0.840858483201861	0.00840723448525613	-0.00696949796605707
6.8	-0.00034777830978964	0.011634517007261	-0.380323542488369	0.910977458400198	-0.380534510353627	0.910902439560827	0.00611720955770799	-0.00841907608411525
6.9	0.000835196631250954	0.0107842813937156	-0.234342592851402	0.958850416523436	-0.234593134424583	0.958846598988791	0.003891967280223	-0.00913777239364141
7	0.0020346295353419	0.00988746448631618	-0.0827215586877233	0.983556730325371	-0.082979664070032	0.98352664186207	0.00173210988593615	-0.00957071343620472
7.1	0.00283277997355635	0.00871827572618561	0.0708498557212329	0.984407895104458	0.0706433520385624	0.984395784015929	-0.000447558337090155	-0.00941558470770454
7.2	0.00349469117839374	0.0075387904800542	0.222739628106318	0.961410421189558	0.222484510013469	0.961454401662834	-0.00226065763082998	-0.00862166964292455
7.3	0.00356609270027771	0.00615172992273456	0.369186883647436	0.91513090358007	0.368946861147221	0.915221532508083	-0.00385633654642476	-0.0074891491213132
7.4	0.00344421882565882	0.00501602676969901	0.506666186049807	0.846622665944862	0.5064480878149	0.846784396960663	-0.0052719491267384	-0.00604133982093506
7.5	0.0029526381894177	0.00391746611635729	0.631818143165263	0.757678315329468	0.631658221386573	0.757849991211212	-0.00612993517629777	-0.00416707317533107
7.6	0.00256403753180618	0.00314178867938073	0.74173265693012	0.650408807818944	0.741517425244557	0.650569485040931	-0.00619567328367057	-0.00255877964352093
7.7	0.00188121901398951	0.00259105720610228	0.833523882032119	0.527398525910683	0.833372914177491	0.527593225264834	-0.00606861987679739	-0.000971423822428295
7.8	0.0014242417826716	0.00246147486952529	0.905279929322443	0.391568924155397	0.905159081318524	0.391790278000194	-0.00536904105725649	0.000460921229394119
7.9	0.000828897771194234	0.00256905406542559	0.954933215532437	0.24638436619161	0.954892717049558	0.246609584079849	-0.00444416725925147	0.00175047378611766
8	0.000653002275357209	0.00296348263794018	0.981502144350332	0.0951912484358426	0.981572461984237	0.0954830470434896	-0.0036011619196783	0.00281516078402744
8.1	0.000329397525143963	0.00353061740295924	0.984337290647128	-0.0582282550621882	0.984461223239569	-0.057957222973823	-0.00244575132288678	0.0037670136330836
8.2	0.000400771106494398	0.00417324634089481	0.963286157726329	-0.21023569271252	0.963351867779909	-0.209939979499841	-0.00127267150974497	0.0043038209844178
8.3	0.000394525590787513	0.00490247480097205	0.918884847852347	-0.35714254333385	0.919022201557593	-0.356886730085758	3.12283957399552E-05	0.00445283501699916
8.4	0.000802625805546313	0.00561636605238539	0.852278266295932	-0.495371076886504	0.852489720700401	-0.495171335712063	0.00130269093771198	0.004129769941372
8.5	0.0012330585977728	0.00630511681484686	0.765131159843319	-0.621552931539929	0.765246782854806	-0.621427084851864	0.00237071656216118	0.00349142879682057
8.6	0.0021350468024094	0.00682481664019334	0.659264938231649	-0.732725629949016	0.65946202075014	-0.732540301938664	0.00333492491074469	0.00269039061775018
8.7	0.00304225730529456	0.00718160998393421	0.537473410476987	-0.826002586584033	0.537754825012752	-0.825893243552953	0.00407887636201943	0.00170709032799992
8.8	0.00444411866133122	0.00718460119445212	0.402851183525716	-0.89935562704691	0.403056993120665	-0.899301121538132	0.00440321515960031	0.000596073278283123
8.9	0.00594579875619858	0.00673137191137793	0.258365199732002	-0.950985768078349	0.258606651371671	-0.950845358484524	0.00475064212277894	-0.000318436149805941
9	0.00783686099591592	0.00542138615415437	0.107559418716351	-0.979376768388363	0.107921152249469	-0.979346770380072	0.00526760637765007	-0.00128572376049762
9.1	0.00935579262751774	0.00345766839015745	-0.0456033918929494	-0.984095139734922	-0.0452512588735054	-0.984109445152823	0.00582488548207614	-0.00246370761656922
9.2	0.0104472818168328	0.000824920456335272	-0.197822554041983	-0.964969115301045	-0.197466999961767	-0.965039475836838	0.0063080667796396	-0.00369563823085127
9.3	0.0106183633485336	-0.00177976888249034	-0.345165644992151	-0.922542819289595	-0.344808787427087	-0.922606860485821	0.00660609968354219	-0.00478155574812376
9.4	0.0102559351197774	-0.00446380900485584	-0.484012503411626	-0.857777461725204	-0.48368937511916	-0.857924937587567	0.00672548499481022	-0.00589217646669222
9.5	0.00895193851106149	-0.00663310454120169	-0.611143670224755	-0.77220592047632	-0.610937539079865	-0.772342961878459	0.00637588018698869	-0.00670408019506823
9.6	0.00734880571322042	-0.00856941249076693	-0.723535556681916	-0.667915408720796	-0.723262822881566	-0.668099844439745	0.00573663066914274	-0.00741366077681749
9.7	0.00513249374522211	-0.00978806065272778	-0.818283052439783	-0.547534194232997	-0.818036685953136	-0.547803055452885	0.00495808144313509	-0.00792034931946416
9.8	0.00270179550621497	-0.010556366334496	-0.893273540662914	-0.413882857835073	-0.89306438395059	-0.414157389966167	0.00408658622596299	-0.0081328619589137
9.9	1.08439135103909E-05	-0.0104232749099433	-0.946551144278375	-0.270239439200176	-0.946438498827896	-0.270568387564499	0.00342825926070451	-0.0081122758328157
10	-0.00254781625152817	-0.009908446071091	-0.977012625496038	-0.120119885575934	-0.976932147768319	-0.12049815673997	0.00274567285856237	-0.00794710234357711
10.1	-0.00507345186672314	-0.00859224960882876	-0.983654829337127	0.0329679961414301	-0.983634658881687	0.0324903476807576	0.00228197554656445	-0.0076779013832589
10.2	-0.00711392932777272	-0.00697727133950183	-0.966587405799287	0.185180363398848	-0.966572136257569	0.184730782575767	0.00199719710030085	-0.00756793941803076
10.3	-0.00896718005426017	-0.00475176096521555	-0.926063429902991	0.332936880348037	-0.926198278427505	0.332396802989402	0.0016161933900345	-0.00782703797389423
10.4	-0.0101219917461408	-0.00255558652128914	-0.863084146349917	0.472515586418839	-0.863348717244316	0.471980131786305	0.00127101193755311	-0.00844453441395055
10.5	-0.0109019216077121	-5.79035752042124E-05	-0.779313288906103	0.600624702386864	-0.779595529817018	0.600238041561558	0.000909684025888033	-0.00943165924290633
10.6	-0.0110338542985064	0.00223599327570796	-0.676588423515034	0.714157790772184	-0.677014082941629	0.713814139413748	0.000134268025293484	-0.0105713906793386
10.7	-0.0108163646562216	0.00490779538583364	-0.557630722180265	0.810440553760812	-0.558041736288449	0.81015254985086	-0.000870447050329986	-0.0113704974324652
10.8	-0.0097106636458439	0.00726743969297367	-0.425046462758611	0.887055899170289	-0.425556319901314	0.886826975630845	-0.00197706589274643	-0.0119727946258119
10.9	-0.00813842599064731	0.00964410516464227	-0.282287282506385	0.942222710976571	-0.282774675313896	0.94217172372535	-0.00334802453224073	-0.0123184676319794
11	-0.00569810554911793	0.0112085567641167	-0.132588202248352	0.974562186372923	-0.133134020703054	0.974558105418115	-0.00446879415536087	-0.0124634229724224
11.1	-0.00285433596988487	0.0124074016696471	0.0203631912946295	0.983192966625539	0.019734617349645	0.983276103241273	-0.00549092188010033	-0.0125285296731648
11.2	0.000340663604938303	0.0125162324950374	0.172590037954891	0.968048758164066	0.172071450581148	0.968251890068583	-0.00633401250513031	-0.0125433064092663
11.3	0.0034829893147862	0.0120019711679361	0.320561962882745	0.929521710755721	0.320132971067435	0.929784261726011	-0.00695105241230963	-0.0123558858464849
11.4	0.0063504870635758	0.0105457577953681	0.460963057359057	0.868542997531112	0.460499408747745	0.868803005860946	-0.00757764496685987	-0.0120113953012125
11.5	0.00881021885495254	0.00888771179636029	0.590104251723794	0.786318856146191	0.589746891653478	0.786736883147986	-0.00834728560107247	-0.0115507759968636
11.6	0.0108088450909806	0.00635437156382775	0.704760359754196	0.685190811160043	0.704494293385138	0.685671237197084	-0.00916183805818194	-0.010977576281173
11.7	0.012184535490803	0.00381640177236433	0.802537522287999	0.567582926435864	0.802299124720292	0.568004977930501	-0.00994779960298919	-0.0103132911572175
11.8	0.0127433130402307	0.000796013497625623	0.880873891372884	0.436006477665456	0.880690587125185	0.4365586861384	-0.0108510780024235	-0.00961742164522511
11.9	0.0127794825480108	-0.00185828800128864	0.937727186081352	0.294093615086473	0.937689740339341	0.294637531152796	-0.011758717311713	-0.00853966467289237
12	0.0113868004596854	-0.00465831574710102	0.971982571546074	0.145216925125349	0.971971065619112	0.145696410655677	-0.0128447275478159	-0.00744419447981313
12.1	0.00980152529907723	-0.00670348923701923	0.982723922731843	-0.00734298225040928	0.982699964463907	-0.0068700173189846	-0.0135672319043504	-0.00607791885986463
12.2	0.00749590362054474	-0.00831946458421354	0.969627225496884	-0.159845942779158	0.969734576690301	-0.159408869940558	-0.0142077425736624	-0.0043203650480505
12.3	0.00514524037560867	-0.00901558953637006	0.932922351144428	-0.308285072685553	0.933108593515887	-0.307927209714953	-0.0142726257668488	-0.00246151193500689
12.4	0.00261569695055654	-0.00937305025983098	0.873929651144944	-0.449286981814893	0.874063063661399	-0.448912243672886	-0.0139182273121305	-0.000820797472552448
12.5	0.000426687116156168	-0.00908342230093645	0.793458006854362	-0.579471898406494	0.793917076814917	-0.579080060553888	-0.0132904393362325	0.000427118801387689
