# GHZ S RI R 50
0.2	-0.000328464949276429	8.45829894147248E-05	0.948588030679277	-0.307982453014844	0.94836185548107	-0.308124244546487	-0.000133892121285504	0.000203584268372167
0.3	-0.000404470004657191	0.000368728401968788	0.888531943319381	-0.451592552842729	0.888394571864014	-0.451645697845775	-0.000170087694534961	5.29590121640839E-05
0.4	-0.000122727617917834	0.000473289912923505	0.806907961577685	-0.583726922522315	0.806947995985195	-0.583866449075593	7.3412503368236E-05	-3.27387784250287E-05
0.5	-0.000271660445916819	0.000435130109670394	0.706175699862736	-0.701685847983572	0.706065180029225	-0.701781600361363	0.000136608166359406	-0.000364577711381214
0.6	-0.000399708216928723	0.000685208069353165	0.588408646700629	-0.802669523878648	0.588219247683882	-0.802672396286423	-5.06446885553438E-05	-0.000449501946458983
0.7	-0.000334793255611149	0.00115156929459729	0.456346367191656	-0.883886757974699	0.45627240296685	-0.883921088981367	1.11274868318943E-05	-0.000623706772599437
0.8	-1.5487406722492E-05	0.00125090402179946	0.313435861163299	-0.943733336049746	0.313317473217328	-0.943646694449962	-7.63130973232475E-05	-0.000804591863171912
0.9	0.00030853944382781	0.00158970963503541	0.163142184271389	-0.980565298848378	0.162993379977963	-0.980522497932596	-0.000196005708592736	-0.00101967047260828
1	0.000725971677145701	0.00105552725549869	0.00894316539521718	-0.993811544226361	0.00882523508791717	-0.993781912836113	-0.000376652308661999	-0.00171297538814113
1.1	0.000331136501810047	0.00104622145195926	-0.144938623982779	-0.98290617877906	-0.14558525750705	-0.982871059693524	-0.00157500011548839	-0.00167166497985582
1.2	0.000587065463871518	0.00052805920889389	-0.296394304853583	-0.948037141576456	-0.296387345973	-0.948092734671234	-0.00178528829750958	-0.00110247146370098
1.3	0.00084116923233349	-0.000613728375464182	-0.439715794537925	-0.890291304098297	-0.439807741732348	-0.890315738014595	-0.000978470367689932	-0.000185579833720021
1.4	0.000958639831153666	-0.0023143309282504	-0.57230238889789	-0.811236477522016	-0.572376085337112	-0.811137080546982	0.000467447626490928	-0.000228264393383087
1.5	0.000581534686413879	-0.00295004492796009	-0.691432347540566	-0.712183925736191	-0.691456909297746	-0.71211199661819	0.00141767698195976	-0.000873924811327262
1.6	0.00094300016487177	-0.00293425412760523	-0.79277846462774	-0.596369286625006	-0.793207179588219	-0.59586978240781	0.00176098252371891	-0.00147996037683365
1.7	0.00120048987478986	-0.00324977099712932	-0.875377698201304	-0.466093726793474	-0.87568159226402	-0.465604919583064	0.00150763220746208	-0.00236691805735389
1.8	0.000996150775044804	-0.00365538119689049	-0.937102541567283	-0.324193142925162	-0.937117964825956	-0.324183703881685	0.000687926060109221	-0.00318842391841399
1.9	0.000716927478214998	-0.00403266709624128	-0.976004226181863	-0.174652985946865	-0.976048628323337	-0.17470564564681	-0.000229023369632351	-0.00385695257840824
2	-0.000590564611341685	-0.00430817699769286	-0.990626957492123	-0.02163301618885	-0.990721767924834	-0.0209850594702874	-0.00212086508840747	-0.00392490801820986
2.1	-0.000967542374812589	-0.00342520237801553	-0.981791442981501	0.133132678129794	-0.981890383099565	0.132649502261077	-0.0027127170137994	-0.00274624166496431
2.2	-0.00134833209429809	-0.00346907693353178	-0.949457680809661	0.283081357821095	-0.949496495023317	0.283214794162352	-0.00294903110811851	-0.00246710834637033
2.3	-0.00189408571641342	-0.00335697336858614	-0.893984438659622	0.426884308645303	-0.893821031917507	0.426972736874362	-0.00340675215033252	-0.00228526546319536
2.4	-0.00263958885709274	-0.00333419463074475	-0.816222978062696	0.5608117558318	-0.816513226147267	0.560350551038499	-0.00382821701597796	-0.00225409865864274
2.5	-0.00390567530107911	-0.00312545461662246	-0.719757006595141	0.680158288852127	-0.720058048534567	0.679778024386295	-0.0046927792908417	-0.00254409348160714
2.6	-0.00494160314135921	-0.00167523763999964	-0.606142628193282	0.783519831822819	-0.606063437759885	0.783460673931202	-0.0052719817240288	-0.00148833337644404
2.7	-0.00475513715727371	-0.000347682977245713	-0.477047141682317	0.867990066768383	-0.477017738777133	0.868004179847139	-0.00514135778014311	-0.000745443706234247
2.8	-0.00417531776198372	0.000442429227737513	-0.336808317839218	0.931331396243251	-0.336690475866442	0.931415945823306	-0.00464767915798588	-0.000130163461288405
2.9	-0.00297859598723791	0.0008128379829504	-0.188456834577188	0.972192442499663	-0.188452496344044	0.972247148332387	-0.00388160876400225	0.000492170991079713
3	-0.00198890425967972	0.000897117708283393	-0.035216107321574	0.990089735240008	-0.0352804969766912	0.990160958227755	-0.00277285671283297	0.0011295569262291
3.1	-0.000498073863527467	0.000638134753652634	0.118388040662731	0.983496296310822	0.119035235665086	0.983578589324699	-0.00125671834525464	0.00135606651122942
3.2	0.000266488255245998	-0.000179130178790678	0.270052261087858	0.952936329291233	0.270042240991026	0.952975855499495	-0.000321860298816937	0.00094787449548016
3.3	0.00107004145537068	-0.00105405182398344	0.415255918803828	0.899312711852642	0.414633350673647	0.899592662209693	0.000707548095453468	0.000425110308734995
3.4	0.00123347453474855	-0.00212883846083072	0.5493775796923	0.824517736909508	0.549292460217434	0.8246327734453	0.00153203970304277	-0.000558367507684888
3.5	0.00119225627840607	-0.00269784510466716	0.670948853268532	0.729128038928265	0.670963030507072	0.729154248585429	0.00171266566623574	-0.00138267568667662
3.6	0.00141796227471009	-0.00325702438486448	0.775160779887909	0.616396503489749	0.775583246006012	0.616003534967301	0.00222801069215716	-0.00218547786276654
3.7	0.00148847068297084	-0.00428577453682924	0.861781048789737	0.488243386864578	0.86178779479241	0.488369851891357	0.00229400208298372	-0.00335118064256078
3.8	0.000969642283215432	-0.00523875180265529	0.927160319616588	0.348579716373639	0.927188331462932	0.348762990812478	0.00178237037535166	-0.00458691288993422
3.9	0.000600524699600703	-0.00624207504794574	0.970236173455689	0.199735691521577	0.97013676103327	0.200323291551884	0.000613254102962431	-0.00601376379531975
4	-0.000921297984155628	-0.00686543412787988	0.989010459996313	0.0474305554542275	0.989092330675111	0.0474736691228247	-0.00140671555877245	-0.00679212567172652
4.1	-0.00156352508159411	-0.00672072118331024	0.98471571020028	-0.106185998918445	0.984653473189333	-0.106122132460946	-0.00283944756285251	-0.00656539924878176
4.2	-0.00253626331188919	-0.00703820692699761	0.956206939673104	-0.258451101139597	0.956399235054563	-0.257881426592063	-0.00417438043864092	-0.00659862282619349
4.3	-0.00348372010345943	-0.00747058447718955	0.904801487032112	-0.403281824408902	0.904802322625393	-0.403263292353891	-0.0056939013352934	-0.0066083265034464
4.4	-0.00479324696933966	-0.00776390005576494	0.831163872683546	-0.538682972531693	0.831083935607551	-0.538667197622732	-0.00737290887219941	-0.00636311992693197
4.5	-0.0065911633320494	-0.00819844713119552	0.737950978141277	-0.660958221356955	0.737827119324586	-0.660812447865091	-0.00960585526163001	-0.00601538291987446
4.6	-0.00862710183268561	-0.00714429185352915	0.62663246732423	-0.768058755915919	0.626617387843334	-0.767829183762223	-0.0116684621673179	-0.00424420145014521
4.7	-0.00991370047562225	-0.00640684122236792	0.499516941333599	-0.856277663231329	0.499633651549494	-0.856032534031492	-0.0131493247485331	-0.00259988120682647
4.8	-0.0112145595852497	-0.00519239290987566	0.360212814218934	-0.923343223456411	0.360506486651192	-0.923153974264203	-0.0141396378061647	-0.000546468293590678
4.9	-0.0118375748634258	-0.00416194264012973	0.212631889500996	-0.967738341331124	0.212891892172401	-0.967686773747959	-0.0143437822428944	0.00184766764805871
5	-0.01238183647051	-0.00290997039225796	0.0602010721788011	-0.989475468733717	0.0603593787214836	-0.989347051549575	-0.01372819704764	0.00453158238439455
5.1	-0.0119330812424113	-0.00195579116607137	-0.0945079336561657	-0.986809645014931	-0.0941862649481765	-0.986746369437393	-0.0118232996983589	0.00700915873770496
5.2	-0.0116584518729354	-0.00125619886337134	-0.246658590625784	-0.960106251828396	-0.246230188136358	-0.960228029343127	-0.00973252433466935	0.00891201889085106
5.3	-0.011534950520572	-0.000982654557718703	-0.392734539447831	-0.91033102896642	-0.392444561458713	-0.910675966599313	-0.00724189879435328	0.0103505933959145
5.4	-0.0118388191601945	-0.000346195482953615	-0.529682875267743	-0.838585184154771	-0.529546290718805	-0.838875329690191	-0.00492773273396652	0.0111225544897029
5.5	-0.012640838413652	0.00120444628636954	-0.654008271328558	-0.745640897305884	-0.653958175318769	-0.745955568022496	-0.00313283280481327	0.0122217148148906
5.6	-0.011710683090801	0.00321757325411442	-0.761299588894399	-0.634721122466238	-0.761313064228642	-0.634891865151779	0.000180329115538723	0.0128976800648755
5.7	-0.0111695540228875	0.00412680227466994	-0.85067236606684	-0.508901183983607	-0.850648522839176	-0.509076701607025	0.00296445644912784	0.0124738446179756
5.8	-0.0107317025680915	0.00541221743073351	-0.919384291077431	-0.370452267178005	-0.919429259328522	-0.370745153134283	0.00545843782831053	0.0116497129817974
5.9	-0.0103214751710836	0.00616414369226537	-0.96583590310714	-0.222963712108381	-0.965956638810233	-0.223011713458384	0.00744420837294611	0.0101181323204117
6	-0.01080606436294	0.00769967309610151	-0.988136185208382	-0.0701514655033665	-0.988133159735147	-0.0702202970241683	0.0078545522304152	0.0089323879386471
6.1	-0.00969528548326676	0.0101055197279466	-0.987119847108146	0.0836350272642645	-0.987123074233497	0.0835314620742583	0.00962535825749765	0.00855893495834943
6.2	-0.00812119547826359	0.0115114474628452	-0.962213506401832	0.236163626211825	-0.962261788700888	0.235981498027168	0.0113736315266076	0.00663703189247575
6.3	-0.00667418763972527	0.0122510307029468	-0.913718902279712	0.382856980988764	-0.913743392845466	0.382728013332649	0.0124448266991509	0.00398409166214164
6.4	-0.00522168832800164	0.0124941553583858	-0.842806477028731	0.519989403659147	-0.842797916724212	0.519775375134863	0.0125958468094838	0.000717957943856062
6.5	-0.00417478068727328	0.0123769676870983	-0.752115127523411	0.644075308546493	-0.752215920901817	0.643902649495267	0.0117695987849317	-0.00241085610904864
6.6	-0.00273527561581894	0.0122872391654783	-0.643059563270113	0.753574831279067	-0.643208544344578	0.753428571918886	0.0105850576404515	-0.00507990127856932
6.7	-0.00159122648094949	0.0117545928628327	-0.517832156165932	0.844323975470359	-0.517953817438764	0.844166515620529	0.00852893165639891	-0.00737256842813486
6.8	-0.000441638375713925	0.0113438734496575	-0.38017643656211	0.914241749733434	-0.380388141949184	0.914166804048769	0.00600856161330931	-0.00877215198632792
6.9	0.000544999826312637	0.010607679272781	-0.233750172296032	0.961957676265982	-0.234001449386149	0.961954180901397	0.00358593135677446	-0.00937591901671868
7	0.00174046583160184	0.0100900039228166	-0.0814527824730277	0.987137527826143	-0.0817118408259432	0.987107742901112	0.00140924125496865	-0.00943450669014114
7.1	0.00281705822448833	0.00892672340349305	0.0734239529347127	0.987388027636154	0.0732167597640091	0.987376370238772	-0.000515117341708924	-0.00925552400610874
7.2	0.00353100782615865	0.00769169378645224	0.225814497277573	0.963569301805034	0.225558767862271	0.963614055350003	-0.00228039258253975	-0.0084977737246109
7.3	0.00365147952923978	0.00628310717394235	0.372582305420134	0.916634571945668	0.372341872278989	0.91672607468485	-0.003825049487452	-0.00737136311703187
7.4	0.00353004561359245	0.00506896653994442	0.510492750973072	0.847586869737104	0.510274492550487	0.847749674841962	-0.00523717512327029	-0.00600010034540236
7.5	0.00286843112454757	0.0041157887900975	0.636270776141328	0.757275151855048	0.636111082319164	0.757447866276492	-0.00626007666007355	-0.0039508221228845
7.6	0.00286904359162137	0.00347379587148397	0.745410903522067	0.648818775961833	0.745195886870153	0.648980522806268	-0.00592255859431558	-0.00218089175561505
7.7	0.00240225517172563	0.00268898945623184	0.836711999208704	0.525272321779308	0.836561484152797	0.525467864429618	-0.00556412682413622	-0.000846534961088045
7.8	0.00204688463234838	0.00223676338328896	0.908069046222494	0.388815000768187	0.907948834263593	0.389037129106713	-0.00475433699711401	0.000259789526738492
7.9	0.00132628886407094	0.00176745346811354	0.957131713231823	0.242772686663575	0.957092088452695	0.242998350805583	-0.00400204871111323	0.00096619383341389
8	-0.000130106992453185	0.00201686994985607	0.982142754292529	0.0911893899097525	0.982214286803252	0.0914809744403596	-0.00435960673437988	0.00186636887248824
8.1	-0.000415933549859853	0.00364663070367617	0.984368942778035	-0.061731247414928	0.984493865994073	-0.0614605890535432	-0.00318829098127437	0.00390402472942451
8.2	2.22135982170449E-05	0.00453560324144352	0.962765019211169	-0.213808768614531	0.962831826441427	-0.213513219661147	-0.00164491119884576	0.00467664480802762
8.3	0.000343548541022995	0.00536480894981672	0.917513318568609	-0.360661704342354	0.917651651858	-0.360406418226692	-1.59180704476465E-05	0.00491720218871322
8.4	0.00122682707281915	0.00581165372733253	0.849877961321842	-0.498351025638766	0.850090058222806	-0.498152212904376	0.00172676294235582	0.00432430833746665
8.5	0.00105531815985245	0.00582151902520039	0.762659893351812	-0.623439113894268	0.762775816696114	-0.623313714729911	0.00219068067271481	0.00300590449466649
8.6	0.00172214296495212	0.00716415608333377	0.656604138961861	-0.734654183301332	0.656801766745086	-0.734469573781286	0.00291224771220682	0.00302365843384921
8.7	0.00307918040614515	0.00771299649085166	0.534186219436851	-0.827352887784593	0.534467832628624	-0.827244615198091	0.00409577094027557	0.00223770826905671
8.8	0.00483577324005647	0.00762829769518159	0.399298800492888	-0.899799478396556	0.3995045807483	-0.899745745777841	0.00477362943605032	0.00104637215589225
8.9	0.00664441593578904	0.0068471892137996	0.255119694290627	-0.95055638626115	0.255361266130999	-0.950416896740071	0.00543216984517077	-0.000190717006515531
9	0.00830585099820452	0.00506428421328113	0.104460390710048	-0.978998229734061	0.104821954423816	-0.97896936930007	0.00572394335209215	-0.00163421865845164
9.1	0.00968485208627295	0.00307834507692231	-0.0491258000965166	-0.98273885047853	-0.0487741450734647	-0.982754418739085	0.00614154208494207	-0.00282740352294924
9.2	0.0105717182963734	0.000296718258214599	-0.200839542614101	-0.962663113404609	-0.20048482943203	-0.962734589836454	0.0064260068565217	-0.00420598478938361
9.3	0.0104738508797196	-0.00231096264315851	-0.347498406259222	-0.919711304177028	-0.347142419898346	-0.919776377134116	0.00645870254942045	-0.00529923413274615
9.4	0.00975550756066919	-0.0051012136829714	-0.485874832055243	-0.854791269401703	-0.485552719360902	-0.854939506469919	0.00621550234899002	-0.00652248443919567
9.5	0.00772528025948286	-0.00626962812935535	-0.612856619628821	-0.768288085695544	-0.612651434321962	-0.768425637603113	0.00515855487960585	-0.00632822573182471
9.6	0.00724169193272624	-0.0076132463804222	-0.723715918913845	-0.663491597190953	-0.723444611328929	-0.663676429880113	0.00564433114550499	-0.00645258589606634
9.7	0.00552262474617247	-0.00920859797823	-0.817430150099727	-0.543397792294174	-0.817185345880875	-0.543666573281108	0.00536118031144364	-0.00734617364625713
9.8	0.00333025519011946	-0.0103414176404491	-0.891674345913594	-0.410033995055548	-0.89146662758585	-0.410308270382449	0.00472409000299209	-0.0079319425144997
9.9	0.000670310428290221	-0.0109297215516659	-0.944190764286087	-0.26645983788224	-0.944079495194926	-0.266788022722442	0.00407952281583079	-0.00863052858317541
10	-0.00316381586060079	-0.010435420160032	-0.97304890074987	-0.116985037127879	-0.972969785695607	-0.117361864413696	0.00211054377000667	-0.00849019191127886
10.1	-0.00527169109859376	-0.00815952738678133	-0.979418607101929	0.034569433088315	-0.979399367964723	0.0340937776198959	0.00205195342781212	-0.00725353908454751
10.2	-0.00682599061371421	-0.00668814964554867	-0.962291256705507	0.185965762050519	-0.962276771983788	0.18551801670275	0.00224686571868016	-0.00727935971828225
10.3	-0.00847298724405608	-0.00475049938833489	-0.92157567205413	0.33288182217148	-0.921710744149482	0.332344273668801	0.00206448198105144	-0.00781538500364176
10.4	-0.00957944944781142	-0.00305807108589696	-0.858386933816653	0.471246473092764	-0.858650854699073	0.470713899417799	0.00175956313178299	-0.00891856479789725
10.5	-0.0111719058947412	-0.000942162081934094	-0.775632547782299	0.597784282422567	-0.775913453869605	0.597399447827649	0.000592897841679802	-0.0102524231852397
10.6	-0.0116854441866829	0.00200712525316839	-0.673809394461188	0.711248884263764	-0.67423331909871	0.710906645460578	-0.000546089410811613	-0.0107283397296145
10.7	-0.0113170867000504	0.00510931297396651	-0.555286816156496	0.807050505303622	-0.55569611109988	0.806763711877098	-0.00138763408548812	-0.0110861282562528
10.8	-0.00994085288203856	0.00774321035418082	-0.423453950300435	0.883071370555544	-0.423961521756633	0.882843295394873	-0.00223632172241612	-0.011508760351226
10.9	-0.00809848722535125	0.00993067574291705	-0.281974163975823	0.937888503971918	-0.282459406023573	0.937837268856075	-0.00331064479830872	-0.0119402192871091
11	-0.00564363337368999	0.0115670491700126	-0.133166623575391	0.971091915525438	-0.133710572770591	0.971087270867099	-0.00439816877757633	-0.0120271191241368
11.1	-0.00251237240112215	0.0126589457248731	0.0196472401991327	0.979558388980784	0.019020944239732	0.979640807744839	-0.00512657761885182	-0.0121879070640742
11.2	0.000735388163623915	0.0125429725490193	0.1709384280102	0.964418428616357	0.170421674132732	0.964620240864276	-0.00588988374159792	-0.0124262096772144
11.3	0.00383741539755912	0.0118013235383365	0.318003963452865	0.926434109486174	0.317576232091714	0.926695042462617	-0.00650710544702944	-0.0125069077651079
11.4	0.006433408166476	0.0099807871122232	0.458015472146673	0.866409512801849	0.457552939715799	0.866667901349138	-0.00740358557518081	-0.0125525567300396
11.5	0.00819640862090044	0.00885312288006331	0.587309211623675	0.784195549432792	0.586952670057829	0.784611791621898	-0.00888160222664093	-0.0115331636394219
11.6	0.0108439267494998	0.00671888885343437	0.700854098528365	0.683548238685376	0.700588344940238	0.684026317897222	-0.0090199290686912	-0.0105811712975024
11.7	0.0124594545090655	0.00391454287823279	0.798306518653561	0.567104264804843	0.798068144737376	0.567524216692845	-0.00956466798901482	-0.0102176193107414
11.8	0.0130891707309026	0.000642840518520016	0.876813157183514	0.436487827730419	0.876629237413208	0.437037695079894	-0.0104099923923828	-0.00980683414889426
11.9	0.0128965851655031	-0.00258591549864567	0.933946905672458	0.295020839310243	0.933908471035944	0.295562835783246	-0.0115350110048291	-0.0092731638695473
12	0.0102545716860759	-0.00516131319688681	0.967559748360875	0.147017859953181	0.96754710265593	0.147495312633988	-0.0138731166338345	-0.00799884295845936
12.1	0.00912308734236133	-0.00604074531112727	0.979122131762429	-0.00400900801575317	0.979096670369504	-0.00353786906470418	-0.014157758441457	-0.00549069856726246
12.2	0.00744649154476226	-0.00761714499291317	0.967007992502869	-0.155931345314451	0.967113463436807	-0.15549532969628	-0.0141976360106544	-0.00370410167174307
12.3	0.00547133214445811	-0.0084769442038951	0.931084265749448	-0.303972172214918	0.931268639323123	-0.303614770869687	-0.0139070521537221	-0.00201104125720398
12.4	0.00328768004431278	-0.00929045236666731	0.872733226249723	-0.444365427641274	0.872864728227544	-0.443991433419659	-0.0132196835547036	-0.0008315032516117
12.5	0.000410607826796458	-0.00957897035804817	0.794112794750783	-0.573777079213306	0.794568554383809	-0.573384040725295	-0.0133101547313326	-0.000173790810731985
12.6	-0.00184318048170749	-0.00825513202338287	0.696008250484359	-0.690747516627403	0.69635323597876	-0.690437407339134	-0.0128303061424936	0.00157344314674813
