# GHZ S RI R 50
0.2	-0.000246120165548298	-1.7803912904191E-05	0.94915275453985	-0.307834671986239	0.948926512657973	-0.307976604816697	-5.14064863764573E-05	0.000101390036400787
0.3	-0.000397947417555166	0.000258801788759137	0.889259443735073	-0.451522728387229	0.889122008147576	-0.451575960292252	-0.000163236663881956	-5.70565658251685E-05
0.4	-0.000223196053004778	0.00041930960118816	0.80780894837205	-0.583844869880389	0.807849075498115	-0.58398449100257	-2.66605099872419E-05	-8.70129264558071E-05
0.5	-0.000299396003920017	0.000613652963933764	0.707054815472364	-0.702178956469246	0.706944213773848	-0.702274832212845	0.000109523261747566	-0.000186663903449926
0.6	-0.000236806026113176	0.000706873003406254	0.589131272032168	-0.803251381333669	0.588941703093029	-0.8032543017673	0.000112926895145603	-0.000428761968319357
0.7	-0.000248832224953129	0.00106771092196239	0.457050707981752	-0.884639709274493	0.456976679660516	-0.88467409536709	9.80379602282422E-05	-0.00070929000869739
0.8	-1.70578884386511E-05	0.00111691816974037	0.314012192984179	-0.944725422531085	0.313893650911395	-0.944638710951311	-7.73131695906968E-05	-0.000940922011024714
0.9	7.19411217553836E-05	0.00143038863979604	0.163426198217397	-0.981758729517583	0.163277207088251	-0.981715888515562	-0.000432704227106284	-0.00118196214167155
1	0.000289551610362649	0.00144267672733184	0.00891551662902795	-0.994879746350955	0.00879746071444471	-0.994850078688195	-0.000815076058977288	-0.00132877266198187
1.1	0.000419225971704671	0.0014999740363505	-0.144976307984424	-0.984057407474028	-0.145623690950128	-0.984022332966385	-0.00149243614278738	-0.00122267395843556
1.2	0.000679254225523692	0.000858827820520909	-0.296738617768236	-0.949296881166381	-0.296731647090809	-0.949352546967948	-0.00169615291462412	-0.00077689264284637
1.3	0.000952913457920108	-0.000280377192396906	-0.440396784863684	-0.891470474991042	-0.440488860051065	-0.891494934154573	-0.000871700321310657	0.000145456902569037
1.4	0.00109200433900305	-0.00199440640067498	-0.573206296670365	-0.812181817010001	-0.573280069731839	-0.812082276151492	0.000594014091207992	9.42580060272763E-05
1.5	0.00111341121829896	-0.00288955061977522	-0.692334741210092	-0.713109397835799	-0.692359334738992	-0.713037374980557	0.00194720888291447	-0.000811740339621971
1.6	0.000959640923194071	-0.00342190598801257	-0.794159873698996	-0.597238125524644	-0.794589222890687	-0.596737743661806	0.00177442187902223	-0.00195557914569752
1.7	0.000886806010944059	-0.00351326091151845	-0.877011620744542	-0.46653625524813	-0.877315834497978	-0.466046519071028	0.00119322522865996	-0.00262340654092053
1.8	0.000574547269840809	-0.00369474756608384	-0.938785399258107	-0.32424179765135	-0.938800842692826	-0.324232335485608	0.000265227223278668	-0.00322350129257571
1.9	0.000290107462592677	-0.0036584124679843	-0.977661347545131	-0.174446467217813	-0.977705847408061	-0.17449918945566	-0.000657156918452294	-0.00347862107747703
2	-0.000179606326498955	-0.00377020927034517	-0.992571400683133	-0.0210958942670632	-0.992666017089846	-0.0204466185372314	-0.00171063677231652	-0.00338240233713498
2.1	-0.000672256781028491	-0.00368601768052268	-0.983503262168767	0.134427645920746	-0.983602902670697	0.133943663130781	-0.00241800190115035	-0.0030032079215389
2.2	-0.00143210675736111	-0.00370863673794159	-0.95075485465396	0.284694991675954	-0.950793577276521	0.284828703592814	-0.0030323610353814	-0.00270259787837434
2.3	-0.00216613508301626	-0.00345776242839282	-0.894950308078633	0.428723754480282	-0.894786515814457	0.428812126111192	-0.00367740723634659	-0.00238237306757788
2.4	-0.00310219058720478	-0.00310273010190914	-0.816903803198813	0.562934483840322	-0.817195203298996	0.562472857653328	-0.0042899262050104	-0.00201971894810742
2.5	-0.00380346364946597	-0.00231862569401414	-0.719727361200945	0.682719941746096	-0.720029654226742	0.682339582131426	-0.00458872480427568	-0.00173773153846114
2.6	-0.00441288908630549	-0.00147248771832565	-0.605380093929273	0.785728135249205	-0.605300917876764	0.785668744704995	-0.00473795365997863	-0.00128460252551923
2.7	-0.00442698445179152	-0.000431847137092065	-0.47593925332089	0.869969504894964	-0.475909787325603	0.869983577978903	-0.00480699240219697	-0.000829985020072922
2.8	-0.00407600228591796	0.000315246580668113	-0.335286956982711	0.933126004745922	-0.33516880150203	0.933210411386062	-0.00454283457968872	-0.00025973873387259
2.9	-0.00298292811074394	0.000804550687233247	-0.18638265513493	0.973680189929911	-0.186378184090979	0.97373494448376	-0.00388503894391853	0.000488565180261498
3	-0.00194187469733586	0.00083351010709589	-0.032782764859127	0.990689993319598	-0.0328470115166392	0.990761412654737	-0.00272364958253833	0.00107151232454241
3.1	-0.000704630840466877	0.000645511178627304	0.120556798383041	0.983693702281646	0.121204467695819	0.983774641746445	-0.00146230158546924	0.00134991312916664
3.2	0.000106198895809238	2.85983962690346E-05	0.272326862677861	0.952787918890565	0.272316926701048	0.952827486699461	-0.000477306318534409	0.00115780401605812
3.3	0.00100417242945455	-0.000730320168909352	0.417547893887826	0.89861096983041	0.416925793524984	0.898892504398478	0.000647068618405379	0.00075065310970101
3.4	0.00137401382680373	-0.00165812788692402	0.551394619807253	0.82315074745869	0.55130978487891	0.823265991096571	0.00167791882137923	-8.74350996244379E-05
3.5	0.00179317263029489	-0.00256939831771888	0.672289269485793	0.727619282644393	0.6723034969398	0.72764545821257	0.00231786891431492	-0.0012568587306055
3.6	0.00160854720932233	-0.00349695938212157	0.776546885409695	0.61479217541628	0.776968547805272	0.614398268948663	0.00242179241197	-0.00242891715168184
3.7	0.00147614063908795	-0.00439892589812306	0.862845996208175	0.486186470012533	0.862853037146037	0.486312908121376	0.00228403505503851	-0.00346759916920894
3.8	0.000869172301768721	-0.00522401387725611	0.92767266573568	0.346291776841847	0.927701097988949	0.346474925375179	0.00168311006005505	-0.00457550230744214
3.9	0.000497409535378814	-0.00592320629952288	0.97019160960709	0.197556266828092	0.970093506589726	0.198143793619771	0.000510348159378469	-0.00569629108332672
4	-0.000324886990860624	-0.00648451551257533	0.988980389261517	0.0453166135797792	0.989062340962479	0.0453595470586906	-0.000810231512616867	-0.00641121950895881
4.1	-0.00108273650795844	-0.007039019905809	0.984046188912868	-0.10870930705333	0.983984143135084	-0.108645303917381	-0.00235778461625018	-0.00688188229132328
4.2	-0.00238242169660602	-0.00742352585321972	0.954822186154847	-0.260711780716781	0.955015799474586	-0.260143029561881	-0.004017821263372	-0.00698250931993525
4.3	-0.00356130156293205	-0.00782446292198413	0.902981590224725	-0.405131013475332	0.902982470508908	-0.405112500483706	-0.0057681331057818	-0.00695999769289326
4.4	-0.0051573449818176	-0.0078580120805465	0.829138122969813	-0.540221015337368	0.829058293683785	-0.540205061095359	-0.00773323030139687	-0.00645545523300756
4.5	-0.00655555855193428	-0.00773435576402727	0.735255489925919	-0.66242619851009	0.735132185217155	-0.662280214796589	-0.00956373259757719	-0.00554816582439111
4.6	-0.00824069729591449	-0.00711644234525599	0.623440876930004	-0.768450483043724	0.623426453609796	-0.76822126648029	-0.0112694076498026	-0.00421188190538149
4.7	-0.00963613894701028	-0.00656362242982475	0.496461024227242	-0.855886234969947	0.496578117286717	-0.855641857680844	-0.0128566731706048	-0.00275487494951
4.8	-0.0110296578987033	-0.00543318060193205	0.357316648341758	-0.922366513340681	0.357610186688617	-0.922178333163277	-0.0139394349220986	-0.000790144312191966
4.9	-0.0117552308838135	-0.00439494056294704	0.209776619103017	-0.966185317685025	0.210036190742528	-0.966134505280835	-0.0142426372908417	0.00160852399805366
5	-0.0122517354185754	-0.00324400401179631	0.0577063597771188	-0.986756469086098	0.0578645098996188	-0.986628794391125	-0.0135790558314455	0.00418099841810207
5.1	-0.0121859320151775	-0.00236120832710605	-0.0958820562399873	-0.983776648726024	-0.0955612189303071	-0.983714095170994	-0.0120635519111653	0.00657944578808927
5.2	-0.0121238067671709	-0.00136792253057574	-0.247434285946296	-0.956990186237937	-0.247007291898329	-0.957112276476177	-0.010188521825869	0.00877079400605577
5.3	-0.0119988849095321	-0.000721117753892663	-0.392892481347809	-0.907032722194055	-0.392603875864044	-0.907377052489385	-0.00770185712123603	0.0105745625011299
5.4	-0.0119114154857024	0.000353357471414427	-0.528969359819113	-0.835104515815141	-0.528833600243248	-0.835393861938894	-0.00500865153796367	0.0117778562269093
5.5	-0.0118424981842939	0.00127867618128968	-0.652115594414463	-0.742780382057392	-0.652065817051428	-0.74309399793575	-0.00236191448207742	0.0122535565963249
5.6	-0.0117127713472052	0.002725248145767	-0.75930788437601	-0.632522867624349	-0.759321390888438	-0.632693098685842	0.000146448723494177	0.0123711415924861
5.7	-0.0115316705545024	0.00395413247398158	-0.848291323718691	-0.506983956831632	-0.848267628149982	-0.50715894857221	0.00256199805829206	0.0122657880164502
5.8	-0.0111991143873052	0.0055739795097666	-0.916515283643168	-0.369060824774698	-0.916560172047384	-0.369352760892966	0.00493993887810349	0.0117848330390687
5.9	-0.0106673629938895	0.00694684049051782	-0.962646675195526	-0.222470787483828	-0.962767007376942	-0.222518661912089	0.007037837838142	0.0108883892527169
6	-0.00983721148710039	0.00853709218700732	-0.985504853812226	-0.0703876057039572	-0.985501806959573	-0.0704562547439551	0.00877184182716909	0.00977167706912186
6.1	-0.00882109110964654	0.00980562632103809	-0.984349326612658	0.0833463997674819	-0.984352538998245	0.0832431255095409	0.0104430421591376	0.00826127465279055
6.2	-0.00766666910072182	0.0110071798346412	-0.95935254723384	0.235159108486427	-0.95940062845362	0.234977520712115	0.0117657846130591	0.00615045394004182
6.3	-0.00651163727856803	0.0117245961354196	-0.91117763595798	0.381134943286639	-0.911201973202814	0.381006352352242	0.0125565789166981	0.00349530587038721
6.4	-0.00526611627313808	0.0121799608518833	-0.840914482050903	0.517868516398345	-0.840905769897383	0.51765508352382	0.0125143089932583	0.000451001243215672
6.5	-0.00412295794308677	0.0121783093959545	-0.750275326430748	0.642027123283638	-0.750375779376244	0.641854903624545	0.0117857858717147	-0.00256591138648902
6.6	-0.00278451991879319	0.01216500620641	-0.641507387727548	0.750592441337338	-0.641655764613349	0.750446552078509	0.0105098041246877	-0.00513808075442013
6.7	-0.00155398311707433	0.0117643860256958	-0.517199083913437	0.840988473275299	-0.517320163855768	0.840831370134105	0.00856201784809455	-0.00729369248141372
6.8	-0.000301429046668855	0.0113467887025423	-0.38032735564748	0.910953329842758	-0.380538318100278	0.910878309828603	0.00616224220820314	-0.0087058971018372
6.9	0.000792308116999836	0.0105561566715463	-0.234348393645009	0.958829295318771	-0.234598930322961	0.95882547514125	0.0038486736803014	-0.00936537774758104
7	0.00193121029973252	0.0097364635316943	-0.0827267071068603	0.983537035289565	-0.0829848072650605	0.983506945627844	0.00162809980301157	-0.00972101600733857
7.1	0.00269791917391893	0.00865618636188667	0.0708465802383483	0.984386635752318	0.0706400810630706	0.984374524555392	-0.000583183929787241	-0.0094766985474216
7.2	0.00336460786924126	0.00757087036697382	0.222737162653541	0.961382842908381	0.22248205182147	0.961426823142953	-0.00239205194107466	-0.00858840894550482
7.3	0.00348559410169689	0.00626545715333536	0.369179053279768	0.915091679034827	0.368939041021995	0.915182306153353	-0.00393895197864658	-0.00737313525083969
7.4	0.00344610761691194	0.00516659978434111	0.506639096160303	0.846573736413974	0.506421010590159	0.846735458681556	-0.00526706482004473	-0.00589006345799857
7.5	0.00303199185999794	0.00402983556760271	0.631760334671022	0.757634528785883	0.631600421498977	0.757806189721304	-0.00604788670434205	-0.00405454826009129
7.6	0.00266407171689236	0.00317933443716999	0.741654436578757	0.650395440637104	0.741439212884499	0.650556097785962	-0.00609634628344004	-0.00250442788621219
7.7	0.00193995841113757	0.00259548482623831	0.833445254595478	0.527418914913333	0.833294283542569	0.527613594232589	-0.0060091973242198	-0.00096820479830041
7.8	0.00146040281821046	0.00245501061250044	0.905219070909314	0.391612295064892	0.905098213285128	0.391833632400959	-0.00533258595185016	0.000453384624378469
7.9	0.000863090102677348	0.00254848476716349	0.954891832020947	0.246436750768919	0.954851320703008	0.246661959986802	-0.00440977442949648	0.00172919891210209
8	0.000677200379327428	0.00293007142629665	0.981475981979406	0.0952454255031493	0.98154628142678	0.0955372219771719	-0.00357713386417475	0.00278112946121128
8.1	0.000346199208615938	0.00348544889431557	0.984323195903347	-0.0581750977544342	0.984447111977065	-0.0579040638322089	-0.00242939724803582	0.00372132273487852
8.2	0.00040155646770871	0.00412304129278257	0.963280589389764	-0.210184010517357	0.963346283558807	-0.209888298955921	-0.00127195624508557	0.0042531678016021
8.3	0.000376309180833314	0.00485891518804519	0.918886043867346	-0.357091913182285	0.919023382814946	-0.356836097769276	1.32949950397186E-05	0.00440897145213714
8.4	0.000767834123441677	0.00559537423858565	0.852285112658041	-0.49532057075971	0.85249655334336	-0.495120823424193	0.00126847669075861	0.0041082421713316
8.5	0.0011930772389329	0.00632325910865992	0.765143540753206	-0.621501031815807	0.765259154914358	-0.621375182438437	0.00233148982875108	0.00350883676745077
8.6	0.00211229821339401	0.00689284801547152	0.659284039471576	-0.732670106105363	0.659481106638937	-0.732484773189228	0.00331312664243812	0.00275768223955636
8.7	0.00306461038635665	0.00729246884907975	0.537503678707301	-0.825941147173719	0.537785076718914	-0.825831791211712	0.00410201427981089	0.00181732702191145
8.8	0.00452955142647211	0.00730689161474238	0.402901616691804	-0.899289620650251	0.403107413974039	-0.899235102085702	0.00448994122493153	0.000717490291737234
8.9	0.00606635720050577	0.00682315757234062	0.25844683654056	-0.950926719368809	0.258688266032537	-0.950786291749696	0.00487265889658813	-0.000228210581036125
9	0.00792528045888284	0.0054942958834991	0.107671386354663	-0.979349461122241	0.108033110930552	-0.979319421613283	0.00535764514877832	-0.0012157126546152
9.1	0.00940902398323163	0.00358284110236193	-0.04548707147141	-0.984118102982558	-0.0451349304765454	-0.98413236674595	0.00587860231747072	-0.00234085045676539
9.2	0.0105387783252583	0.0010108801800481	-0.19773322703138	-0.965030768042583	-0.197377650497463	-0.965101095559029	0.00639950944166213	-0.0035121581435425
9.3	0.0107743565116031	-0.00160725248958172	-0.345110323189763	-0.922617068159444	-0.344753442405421	-0.922681084417877	0.00676161497895243	-0.00461097425729811
9.4	0.0104411892499842	-0.00435305145664773	-0.483980277550234	-0.857845996571218	-0.483657125641184	-0.857993458733113	0.00690451942360757	-0.0057837977584393
9.5	0.0091063739194603	-0.00657240718501656	-0.611126262202483	-0.772271566853851	-0.61092011498697	-0.772408602514091	0.00653000100531795	-0.00664458051589958
9.6	0.00746428860243719	-0.00853820640549062	-0.723525999092184	-0.667976148505533	-0.723253246253632	-0.668160576444978	0.00585152672423681	-0.00738319622715846
9.7	0.005212290000184	-0.00976192960565206	-0.818278812719289	-0.547592575332271	-0.818032425083837	-0.547861431700273	0.00503738086136576	-0.00789477793816975
9.8	0.00275885419156455	-0.0105202361566493	-0.893274294291746	-0.413941052211075	-0.893065117573083	-0.414215580186925	0.00414289043941542	-0.00809684518811368
9.9	5.89393870545904E-05	-0.0103658201870583	-0.946557658148485	-0.270300537493658	-0.946444990991369	-0.270629487032904	0.00347628056281616	-0.00805399938309072
10	-0.00249062236690364	-0.00982826650454906	-0.977027897872636	-0.120184277266382	-0.976947394387654	-0.120562552210412	0.00280317792665687	-0.00786625641100398
10.1	-0.00499203288385287	-0.00849470349659826	-0.983683005002922	0.032900167105896	-0.983662800636794	0.0324225074732536	0.00236365052235366	-0.00757975588757799
10.2	-0.00700340590629543	-0.00687628641883697	-0.966634762778339	0.185111527879511	-0.966619457751224	0.184661932893562	0.00210825056674444	-0.00746620622038298
10.3	-0.00884529874702201	-0.00465795608903867	-0.926137122621657	0.332875308902551	-0.926271932311227	0.332335193542383	0.00173946364876271	-0.00773287380545037
10.4	-0.0100224551589245	-0.00244370263586235	-0.863186148683887	0.472479052625453	-0.863450694830266	0.471943537044568	0.00137233738392976	-0.0083331422562056
10.5	-0.0109027408244331	0.000162724760981458	-0.779424928865107	0.600636067299098	-0.779707173906293	0.600249352006089	0.000958372922863683	-0.00927681721339242
10.6	-0.0108258925488151	0.00257326408644546	-0.676679847935115	0.714213318231012	-0.677105542194006	0.713869618617596	0.000343818019432189	-0.0102363400317398
10.7	-0.0103829381025684	0.00524349613532653	-0.557679925191568	0.810513233117686	-0.558090976198165	0.810225203781837	-0.000437171065473633	-0.0110368487784371
10.8	-0.00911017345088024	0.00743702277623165	-0.425063669001467	0.887118960161096	-0.425573562240424	0.88689002773523	-0.00137662887285669	-0.0118045752780388
10.9	-0.00751525403467079	0.00959932169714873	-0.282291008638108	0.942270583205113	-0.282778425255786	0.942219598561452	-0.00272411774166881	-0.0123644226479856
11	-0.005151931314185	0.010987055315373	-0.132589129108075	0.974599287236205	-0.133134968071859	0.974595208396421	-0.00392171133631951	-0.0126860024482853
11.1	-0.00243429998027927	0.0120759379891832	0.020361751987291	0.983225735064113	0.0197331569288392	0.983308873097454	-0.00507055947566133	-0.0128614012336494
11.2	0.000623504218735675	0.0121346197489316	0.172588551370604	0.968081863388778	0.172069945437344	0.968284998140349	-0.00605119478442123	-0.0129261857231042
11.3	0.00363796175317264	0.0116090344721526	0.320562830464205	0.929555385332548	0.320133821922096	0.929817940449374	-0.0067974706290793	-0.0127500853031623
11.4	0.00639028799583742	0.0101697142576134	0.460969035032934	0.868579824408852	0.460505366592781	0.868839836432177	-0.00753906618021011	-0.0123880036067824
11.5	0.00874400221964671	0.00854831728270486	0.590119762567188	0.78635939921063	0.589762382253685	0.786777439624657	-0.00841254297939336	-0.0118918137072829
11.6	0.0106362350351295	0.00606240633002631	0.704788803825356	0.685231308475644	0.704522719794707	0.685711755787531	-0.00933441260482862	-0.0112717385734372
11.7	0.0118991282145337	0.00360488257209944	0.8025830296946	0.567617036072169	0.802344617665095	0.568039111597324	-0.0102337356169588	-0.0105267634871264
11.8	0.0123582171150599	0.000732441759576	0.880937524397417	0.436022234250943	0.88075421613637	0.436574481325235	-0.0112371698497237	-0.00968376740627978
11.9	0.012264776447869	-0.0016839827385232	0.937804320398795	0.294076018244741	0.937766894121466	0.294619973651751	-0.0122706131476298	-0.00836116406346436
12	0.0111384134823579	-0.00422732498207938	0.972031846307147	0.145157772170795	0.972020372007719	0.145637277984195	-0.013089300318967	-0.00701045473108606
12.1	0.00986209169095722	-0.00611831383296346	0.982727769522595	-0.0074226171142991	0.982703849456789	-0.00694964810538507	-0.0135053004091195	-0.0054904637642827
12.2	0.00789884149749194	-0.00789997677361395	0.969586377285058	-0.159904359718415	0.969693753704355	-0.159467307603107	-0.0138035040257706	-0.00389988999647092
12.3	0.00566940343550982	-0.00889788734263742	0.932867142819969	-0.308306228723064	0.933053390139273	-0.307948389520438	-0.0137471916868283	-0.00234387942901798
12.4	0.0030696290127398	-0.00950199285396776	0.873882637655759	-0.449280486147054	0.874016050087009	-0.448905767219165	-0.0134638469165804	-0.000950504979056854
12.5	0.000677182750181053	-0.00925869585650151	0.793428461356482	-0.579460954528528	0.793887520576721	-0.579069132781291	-0.0130620079519971	0.000233641616490254
12.6	-0.00153914255163294	-0.00866757233135709	0.693886169465949	-0.69544007396304	0.694233314041442	-0.695131093353215	-0.0124980771316886	0.00123176309752152
