# GHZ S RI R 50
0.2	-0.000267233569083243	-5.37348645487232E-05	0.949154867485654	-0.307835437466404	0.94892862508361	-0.307977370599164	-7.25380156375786E-05	6.54692575834344E-05
0.3	-0.000438874290990826	0.000215636283711414	0.889261631170483	-0.451525093665329	0.889124195106789	-0.451578325577913	-0.000204169521711692	-0.000100217650297563
0.4	-0.000285991439768932	0.000377051985831537	0.807810333756968	-0.58384879216271	0.807850460688727	-0.583988413860522	-8.94737257333159E-05	-0.000129287253806557
0.5	-0.000383162524612177	0.000581123368621822	0.707054784847641	-0.702184008583679	0.706944182408441	-0.70227988426977	2.57458838937211E-05	-0.000219202465756752
0.6	-0.000336420015966199	0.000692663186493625	0.589129450354045	-0.803256892927863	0.588939880758098	-0.803259812475319	1.32881962499445E-05	-0.00044297953975981
0.7	-0.000353788529319691	0.00107817818117865	0.457047052350606	-0.884644942192848	0.456973023609312	-0.884679327973242	-6.94487700917816E-06	-0.000698824769022718
0.8	-0.000110085903990638	0.00115277000701439	0.31400698484618	-0.944729649956343	0.313888443031396	-0.944642937429341	-0.000170407129367056	-0.000905044100656954
0.9	1.62270778037044E-05	0.00148001918637794	0.163420051657438	-0.981761447990474	0.163271060548988	-0.981718605948043	-0.000488523543872463	-0.00113226737407439
1	0.000303899629219326	0.00146876884142216	0.00890920819581352	-0.994880866689559	0.00879115233251678	-0.994851198250243	-0.000800842019013786	-0.00130255315518507
1.1	0.000530511641129533	0.0014162657404172	-0.144982222687745	-0.984057430688329	-0.145629606033977	-0.984022352345216	-0.00138120733613658	-0.00130605174328222
1.2	0.00085670950734158	0.000524390044893726	-0.296744710105094	-0.94929549197183	-0.296737739782156	-0.949351157844242	-0.00152125771889173	-0.00111160431492749
1.3	0.00103924328317579	-0.000925036460070933	-0.440403625621657	-0.891467229060899	-0.440495701013482	-0.891491687524424	-0.000788783576926391	-0.000498120871904933
1.4	0.000968784025184301	-0.0027178050867274	-0.57321277726779	-0.812174777161454	-0.573286549250682	-0.81207523580747	0.000468091619958884	-0.000626740399529254
1.5	0.00088331169926705	-0.00344185346042469	-0.692339619909402	-0.713098649052711	-0.692364212545369	-0.713026626232467	0.00171821179084321	-0.00136447334127215
1.6	0.000718924938949292	-0.0037790248968661	-0.794161232214973	-0.597226739963789	-0.794590573936827	-0.596726356705838	0.00153394351929823	-0.0023101864513444
1.7	0.000676438818900906	-0.00372197396612916	-0.877010412933521	-0.466525878617967	-0.877314620641255	-0.466036142724842	0.000983594827676904	-0.00283060679387464
1.8	0.000405427993011969	-0.00380327878988581	-0.938782538906046	-0.324233472412922	-0.938797982197844	-0.324224010177542	9.60496358893933E-05	-0.00333261711560396
1.9	0.000163545827767154	-0.00370207432001067	-0.977657784697475	-0.174440185140478	-0.97770228465333	-0.174492906872374	-0.000783791394637303	-0.0035225699324484
2	-0.000263734962315803	-0.00377493968282217	-0.992567928314501	-0.0210913665869041	-0.99266254147104	-0.0204420927562622	-0.00179479651826861	-0.00338736028790661
2.1	-0.000714526332658933	-0.0036721231392574	-0.983500449329283	0.134431059363135	-0.983600091432672	0.133947078091229	-0.0024602707214352	-0.00298952841292869
2.2	-0.00143168478507016	-0.00369578002781125	-0.950752988660441	0.284698150351111	-0.950791710768396	0.284831862292266	-0.00303193470379779	-0.00269004353786305
2.3	-0.00212284398405119	-0.00347226692618667	-0.894949171330735	0.42872781792312	-0.894785378575396	0.428816188935076	-0.00363417630217654	-0.00239727482213296
2.4	-0.00302990046240808	-0.00318258649176659	-0.81690218063685	0.562940646887382	-0.817193584161425	0.562479021456205	-0.00421505358235486	-0.00209972312857764
2.5	-0.00374987360262213	-0.00250139692563376	-0.719722696229321	0.68272851806614	-0.720024993639631	0.682348160359284	-0.00453198370044454	-0.00192172502686867
2.6	-0.00445642146305677	-0.00173244668507638	-0.60536942130579	0.78573621830385	-0.605290246065904	0.785676826694299	-0.00477884579483434	-0.0015473119032775
2.7	-0.004568576556854	-0.0006689347713598	-0.475923895407645	0.869971602451614	-0.475894429377158	0.869985675021597	-0.0049476435257186	-0.00107041712034274
2.8	-0.00421926188440752	0.000125802785154788	-0.335272762207152	0.933120633173676	-0.33515460692805	0.933205037594975	-0.00468649773640305	-0.000451711959113982
2.9	-0.0030991750766473	0.00059546982182949	-0.186373027088131	0.973670240520559	-0.186368555687467	0.973724994398516	-0.00400169734072209	0.000279019268140669
3	-0.00207629596018537	0.000580279430203603	-0.0327779178506442	0.990678760148803	-0.0328421634552598	0.990750178952712	-0.00285850021535128	0.000818083567093288
3.1	-0.000892273756257855	0.000378005835193978	0.120559035710897	0.983684919614069	0.121206699768721	0.983765856239399	-0.00165032013242005	0.00108173264486038
3.2	-0.000148746837176921	-0.000216216738929799	0.272326807825669	0.952778857340568	0.272316872031719	0.952818424824952	-0.000732696937568681	0.000912751879323607
3.3	0.00069912527325677	-0.000919983100724297	0.417546484319121	0.898602831333667	0.416924389573496	0.89888436498604	0.000341608181636364	0.000560851590442563
3.4	0.00104266010769231	-0.00177572107258928	0.551392463444752	0.823143380920537	0.551307629411699	0.823258623904203	0.00134624694615678	-0.000205112897524529
3.5	0.0014589580358497	-0.00261083934193608	0.672287353091251	0.727612352321375	0.672301580540767	0.727638527673168	0.00198384003158849	-0.00129815941981519
3.6	0.0012961321143695	-0.00346693188385993	0.776544251747362	0.614784988293056	0.776965909773922	0.614391082717738	0.00210917974959152	-0.00239885425534934
3.7	0.00119988530249091	-0.00430880632446345	0.862842312598599	0.486178168705478	0.862849354177179	0.486304605845609	0.0020076482007073	-0.00337738676286468
3.8	0.000638099411333926	-0.00508800077319366	0.927665791017838	0.346282391003325	0.927694224173462	0.346465537554678	0.00145189983651212	-0.00443938199517631
3.9	0.000313953781671553	-0.00575435888541503	0.970179125969291	0.197548960806907	0.970081027078261	0.198136479937297	0.000326858239111072	-0.00552734230820231
4	-0.00046090929637039	-0.00629171261267745	0.988964352853727	0.0453170081923248	0.989046303180931	0.0453599410708727	-0.000946188688619889	-0.00621834387548541
4.1	-0.00116676988584856	-0.0068316177737223	0.984034006326436	-0.108700465957022	0.98397196088657	-0.108636464133469	-0.00244178004809886	-0.00667448433515946
4.2	-0.00241236007205334	-0.00721971067163102	0.954817376419683	-0.260700458444203	0.955010982700071	-0.260131709780598	-0.00404774474349241	-0.00677865743107402
4.3	-0.00354564084290339	-0.00764516551992353	0.902981838531451	-0.405122112788909	0.902982718659019	-0.405103599854009	-0.00575193698804938	-0.00678114709677212
4.4	-0.00511393386041251	-0.00771580233526182	0.829140187467432	-0.540215291344347	0.829060358198921	-0.540199337602505	-0.00768934552041154	-0.00631354634847458
4.5	-0.00650469408141058	-0.0076351159966508	0.735257462971785	-0.662422815546449	0.735134157797524	-0.662276832427943	-0.00951228317533466	-0.00544918731834496
4.6	-0.00820427555845846	-0.00705793643528161	0.623442770190081	-0.768447937642216	0.62342834616976	-0.768218721304347	-0.0112327807307694	-0.00415339976107856
4.7	-0.00963092052383002	-0.00653062389101451	0.496461987514448	-0.855883679455911	0.496579079847113	-0.855639302342276	-0.0128512676053886	-0.00272196650645737
4.8	-0.0110617766225824	-0.00540114576588109	0.357317195442409	-0.922362735816914	0.357610732445426	-0.922174555715242	-0.0139712778436367	-0.000758005264779186
4.9	-0.0118106002053333	-0.00433517995810701	0.209778356484167	-0.966179544287728	0.21003792658795	-0.966128731386963	-0.0142976707945124	0.0016682717982383
5	-0.012289372820304	-0.00313753475110609	0.0577115394426702	-0.986748824002079	0.0578696876653349	-0.986621149354745	-0.0136163844053266	0.00428724121118554
5.1	-0.0121449722059193	-0.00222365399560427	-0.0958704682128737	-0.983769315874793	-0.0955496343236706	-0.983706759339284	-0.0120223789631724	0.00671664948001336
5.2	-0.0119628239657619	-0.00127483592225439	-0.247414817794171	-0.956989356542513	-0.246987823897904	-0.957111438025538	-0.0100275212605259	0.00886326945999752
5.3	-0.0117731840646407	-0.000774423554321243	-0.392871251287172	-0.907046384395195	-0.39258263593167	-0.90739070884206	-0.00747664364557239	0.0105207758904277
5.4	-0.0117584470746388	0.000158274502822338	-0.528959279425221	-0.835131372774683	-0.528823510780043	-0.835420720814699	-0.0048561381272494	0.0115828840441615
5.5	-0.0118138214272818	0.00105661490522828	-0.652121657114067	-0.742808664118705	-0.652071874017302	-0.743122287296319	-0.00233334182866379	0.0120319137549503
5.6	-0.0117593900429905	0.00254735330703584	-0.759324842705488	-0.632544442961443	-0.759338348624299	-0.632714678715813	9.98708790396859E-05	0.0121937817761015
5.7	-0.0116046087924642	0.00382619575932033	-0.84831270777401	-0.50699558039474	-0.848289011837833	-0.507170576444628	0.00248957032714832	0.0121384783470577
5.8	-0.0112801291317545	0.00548150812703087	-0.916537897489362	-0.369065836955254	-0.916582788103465	-0.369357779613833	0.00485924477515881	0.0116924670871636
5.9	-0.0107528030151954	0.00687722453345862	-0.962668944401726	-0.222470604103309	-0.962789279524026	-0.222518478892298	0.00695278348636716	0.0108193800683327
6	-0.00993123414463136	0.00848282475284716	-0.985525983367757	-0.0703832509404228	-0.985522936902387	-0.070451901371664	0.00867845016813159	0.00971750505676048
6.1	-0.00893381189397205	0.0097632737838858	-0.98436867136751	0.0833540041039158	-0.984371884469888	0.0832507278540533	0.0103308618648048	0.00821898891849456
6.2	-0.00781103454449372	0.0109829291608057	-0.959369978738398	0.235169007131551	-0.959418061916251	0.234987416141429	0.0116223111444092	0.00612636208590527
6.3	-0.00669031097232602	0.0117375630020185	-0.911196292514207	0.381146034152571	-0.911220630685197	0.381017440543267	0.0123786362679784	0.00350774875918693
6.4	-0.00544337568200363	0.0122454741424701	-0.840934416145318	0.517882167073913	-0.840925704026452	0.517668729013109	0.0123377717918826	0.000515770098799885
6.5	-0.0042429863805041	0.0122690584934133	-0.750298259820647	0.642047752678892	-0.750398716024964	0.641875527754604	0.0116661345576539	-0.00247659813606989
6.6	-0.00284135008819949	0.012200702734016	-0.641528242057647	0.750627171410006	-0.641676625918685	0.750481277291163	0.0104524345139117	-0.00510432831407874
6.7	-0.00163639823591949	0.0117119576068919	-0.517204800698599	0.841035806759244	-0.517325889094995	0.840878699196591	0.00847769444615952	-0.0073475550840827
6.8	-0.000467065107629955	0.0112891134014145	-0.380312529637021	0.910998998101892	-0.380523502222531	0.910923982016819	0.00599421968187315	-0.00876359265912889
6.9	0.000590214322479152	0.0105603486072169	-0.234320864373332	0.958862721302611	-0.234571407745684	0.958858909829483	0.00364756791250728	-0.00936157172711817
7	0.00175170803893076	0.00979880514140378	-0.0826956195557457	0.983558751529764	-0.0829537256790139	0.983528669862298	0.00144913986342038	-0.00965919163776635
7.1	0.00255836165669604	0.00874602905382463	0.0708774035471803	0.984399945852367	0.070670900770193	0.984387840695059	-0.000722533394231452	-0.00938721954962252
7.2	0.00325939277129785	0.00766961955638774	0.222766863885277	0.961390494518033	0.222511750606055	0.961434482414629	-0.002497118796581	-0.00848975276230304
7.3	0.00340705665527019	0.00637034633690524	0.369208030385494	0.915095269579707	0.368968017024173	0.91518590420784	-0.00401739357361185	-0.00726791970336218
7.4	0.0033957889084675	0.00528426556126465	0.506668260518903	0.846574015532413	0.506450175662397	0.84673574579364	-0.0053172159477628	-0.00577096084775994
7.5	0.0030281747284384	0.00416750603601677	0.631791140449991	0.75763158189627	0.631631228891295	0.757803250012162	-0.00605129061573362	-0.00391567630549498
7.6	0.00273425990646715	0.00332168472448107	0.741686457220514	0.650387673274661	0.74147123378021	0.650548339391066	-0.00602490841662866	-0.00235917238325772
7.7	0.00211270420865807	0.00270421246356822	0.83348145442855	0.527404588536526	0.833330486076078	0.527599277198092	-0.0058354620511718	-0.000858421328768963
7.8	0.00171438293081504	0.00244450990417595	0.905257798436635	0.391585725300638	0.905136946672643	0.391807073119026	-0.00507571949271825	0.000445647533731627
7.9	0.00110865428715216	0.00236768537025493	0.954918470972075	0.246391858623381	0.954877970501733	0.246617073230099	-0.0042018760855904	0.00152248563174016
8	0.00070270295613947	0.0025799198301236	0.98148992397924	0.0951853594432121	0.98156024209162	0.0954771539498746	-0.0035261228585866	0.00243204913903265
8.1	0.000145009676516891	0.00321217015960845	0.984310989353493	-0.0582318123238274	0.984434920075946	-0.0579607880357356	-0.00264425262367427	0.00345121701651821
8.2	9.07619584445679E-05	0.00404391597155471	0.963253868531203	-0.210226579226596	0.963319575747599	-0.209930875923684	-0.00158838404312142	0.00417813884947145
8.3	9.41664030380245E-05	0.00494470655157514	0.918855461535172	-0.35712205754507	0.91899280819819	-0.356866252152935	-0.00027177628957445	0.00449800652354743
8.4	0.000566457543917413	0.00577393725286191	0.852254065319929	-0.495343184230769	0.852465509807721	-0.49514344757179	0.00106562441230588	0.00428929943521445
8.5	0.00107868810492724	0.00653901826792643	0.765111685056437	-0.621519043353909	0.765227301998664	-0.621393199678525	0.00221630239227773	0.00372638941154296
8.6	0.00207696015670078	0.00711001406881213	0.659250395361511	-0.732684336002776	0.659447466636825	-0.732499012232324	0.00327725308843312	0.00297610761601537
8.7	0.00310358743694222	0.00748776082856713	0.537467530942659	-0.825951644637251	0.537748929833995	-0.825842300172849	0.00413937567790334	0.0020112025236912
8.8	0.00464129359283891	0.00746055702600696	0.402862008514583	-0.899294955150213	0.403067805551844	-0.89924044521608	0.0046000054223919	0.000871086202640441
8.9	0.00626190130467298	0.00690550196831402	0.258403259932515	-0.950924567841979	0.258644692027756	-0.950784152310996	0.00506667875391988	-0.000144505042957526
9	0.00820978427509412	0.00544296641569368	0.107624600778184	-0.979335832771618	0.107986319876025	-0.979305810357475	0.00564156160606384	-0.00126342176888195
9.1	0.00972511172143449	0.00331218024745238	-0.0455317031756653	-0.984088398211875	-0.0451795727147891	-0.984102677999618	0.00619377192339188	-0.00261221278350085
9.2	0.0107022734891151	0.000461291434355564	-0.197765653546348	-0.964982619528538	-0.197410094642071	-0.965052959094543	0.00656261306609357	-0.00406179628280011
9.3	0.0105543644168862	-0.00224594440174127	-0.345117713038465	-0.922560935542441	-0.34476085208203	-0.922624958186557	0.00654241573056311	-0.00525049940588342
9.4	0.00990880682803166	-0.00471656069444177	-0.483961589956116	-0.857798406850328	-0.483638455713787	-0.857945863774997	0.00637171800195786	-0.00614660906914776
9.5	0.00859873963024444	-0.0065675706811812	-0.611102552514242	-0.772244270570759	-0.610896412630663	-0.772381300871989	0.00602174531226777	-0.00664020409586158
9.6	0.00715668552881338	-0.00835465889277304	-0.723508222411291	-0.667960631380448	-0.723235475995087	-0.668145054729714	0.00554322218902909	-0.0071994830139044
9.7	0.00508559086070981	-0.00955525583075964	-0.818267104019442	-0.547579658368904	-0.818020721790885	-0.547848511178967	0.0049102236390562	-0.007687547277573
9.8	0.00275038412438772	-0.0103536341070961	-0.893264875552626	-0.413926991266583	-0.893055704387897	-0.414201517077426	0.0041341037208	-0.00792987714749126
9.9	0.000118483284094947	-0.010262991094583	-0.946546858175377	-0.270284563707768	-0.946434196882397	-0.270613509718838	0.00353628577594663	-0.00795152205056819
10	-0.00238881623319639	-0.00979154355096105	-0.977013303525167	-0.12016707486489	-0.976932807300225	-0.120545344667004	0.00290572065082035	-0.00782997522544839
10.1	-0.00486580966946329	-0.00853394505773849	-0.983662597687303	0.0329162726281058	-0.983642401888414	0.0324386223123085	0.00249075007571814	-0.00762031655695076
10.2	-0.0068699371470637	-0.00701074322756519	-0.96660741499271	0.185123331912836	-0.966592117999064	0.184673747946517	0.0022420778327839	-0.00760284332462166
10.3	-0.00873450637624777	-0.0049188491796781	-0.926103272372722	0.33287797504435	-0.926238085477744	0.332337878605616	0.00184918387527989	-0.00799634512507043
10.4	-0.0100022967852584	-0.00286449603977945	-0.863149701283253	0.472466809557447	-0.863414240917268	0.471931316409819	0.00138933929648057	-0.00875625226268124
10.5	-0.011014102661032	-0.000414853568445974	-0.779398943322912	0.600603252543369	-0.779681172701943	0.600216550319377	0.0007928109711911	-0.00978988455908804
10.6	-0.0114904743575894	0.00204766463464639	-0.676674540653358	0.714173141436956	-0.677100212372461	0.71382944297881	-0.000281457159920819	-0.0108357218672056
10.7	-0.0113237176199406	0.00508482071245805	-0.557703162712575	0.810487425963706	-0.558114200443541	0.810199384849863	-0.00135012972336806	-0.0112798074375854
10.8	-0.00987257058072344	0.00763466304088288	-0.425090320868315	0.887116319156409	-0.425600212984678	0.886887371547769	-0.00213135689153398	-0.0115983245861246
10.9	-0.00801968443024854	0.010008551390545	-0.282305331573351	0.942285161396309	-0.282792756650067	0.94223417110097	-0.00323046518283915	-0.0119584110790873
11	-0.00541935690693229	0.011401068917131	-0.132589454362135	0.974614271661386	-0.133135301584843	0.974610193712494	-0.00419135543067694	-0.0122739109524433
11.1	-0.00254879587267251	0.0124203448077956	0.0203687063693968	0.983234834965574	0.0197401059873068	0.983317978107122	-0.00518713992911496	-0.0125172880451399
11.2	0.00059723353959673	0.0123924033947718	0.172597066873179	0.968084387361862	0.172078460488622	0.968287527121636	-0.00607859739356593	-0.0126682021315388
11.3	0.00364327288958192	0.0117882536204703	0.320572335729641	0.929556825863989	0.320143327517277	0.929819385885717	-0.00679126836224435	-0.0125791151461201
11.4	0.00641372118964695	0.0102837477065046	0.460973079277436	0.868578920225859	0.460509411377143	0.868838934422067	-0.00751543525890539	-0.0122807610047152
11.5	0.00877368440313967	0.00860619023716131	0.590117663659205	0.786359202241433	0.589760283197507	0.78677724148367	-0.00838430735180824	-0.0118336884205736
11.6	0.0106572731638639	0.00609271139225466	0.704784142050149	0.685237130290754	0.704518054197657	0.685717575940656	-0.00931437197396801	-0.0112414580757196
11.7	0.011915604865841	0.00361776986871409	0.802580802458355	0.567632848373726	0.802342382561888	0.568054923591824	-0.0102187817666111	-0.0105138003518464
11.8	0.0123695909801426	0.000726349109244361	0.880948086462135	0.436048654585242	0.880764763583264	0.436600910015029	-0.0112277339971325	-0.00968842576830548
11.9	0.0122494360759071	-0.00171396412061292	0.937839882242857	0.294101345774054	0.93780244690544	0.29464532363326	-0.0122871841709776	-0.0083933915490846
12	0.0110818305078953	-0.0042402382585797	0.972088898727203	0.145157406903078	0.972077428067355	0.145636940311932	-0.013147520304419	-0.00702180765917438
12.1	0.0097971340378627	-0.00608430895228412	0.982777079816417	-0.00745835827861924	0.98275317556863	-0.00698536456357549	-0.0135719580149827	-0.00545516911324215
12.2	0.00787077681910984	-0.00783736497811473	0.969608741644183	-0.159955770057058	0.969716142325412	-0.159518709561222	-0.0138323371512595	-0.00383528415774166
12.3	0.00568353559573158	-0.00884938169693819	0.932866965465236	-0.308353845198964	0.933053232066062	-0.307996009198283	-0.0137332464162829	-0.00229347226594606
12.4	0.0031078929622862	-0.00949381836693627	0.87387049650514	-0.449318268702292	0.874003924742829	-0.448943552618016	-0.0134254229947719	-0.000940469786593221
12.5	0.000782729743977778	-0.00938569563096756	0.793406907572549	-0.579480314659008	0.793865975298403	-0.579088508539602	-0.0129332789788421	0.000127232625708779
12.6	-0.00151268986931205	-0.00877018105427568	0.693868734201355	-0.695462706481211	0.694215888997181	-0.695153734709916	-0.0124708108830403	0.0011302905812156
