# GHZ S RI R 50
0.2	-0.000277964061111889	-6.0847682974651E-05	0.949163959543154	-0.307807176048665	0.94893772137991	-0.30794911590271	-8.326890264705E-05	5.83638470690336E-05
0.3	-0.000452083127168066	0.000207629396576048	0.889288054535068	-0.451489327648831	0.889150619796736	-0.451542565997842	-0.000217359390342632	-0.000108214180542444
0.4	-0.000302871352442566	0.000370715578042531	0.807857232604952	-0.583814750259127	0.807897367977427	-0.583954372271355	-0.00010631481551275	-0.000135617590843189
0.5	-0.000394226820149518	0.000576747736896014	0.707114518200256	-0.702158709632639	0.707003918812411	-0.70225459434558	1.47545616660663E-05	-0.000223567548366881
0.6	-0.000352316805075563	0.000679090199416407	0.589209129836847	-0.803238785314687	0.589019554271591	-0.803241719222618	-2.48377141417004E-06	-0.000456562107432526
0.7	-0.00037603588991787	0.00106469717081137	0.457142706871956	-0.88464863508001	0.457068677498777	-0.884683028681886	-2.89766026457376E-05	-0.000712365168736411
0.8	-0.00013973692373724	0.00113735316730851	0.314110151490122	-0.944759781934497	0.31399159469675	-0.9446730746081	-0.000199791499152908	-0.000920618288497333
0.9	-3.21525223339563E-05	0.00146668316942532	0.163521204440753	-0.981819641340135	0.163372198369064	-0.981776809618174	-0.0005365565149079	-0.0011459152527075
1	0.000238380046362242	0.00148199609268922	0.00900610043895064	-0.994962251426445	0.00888803194878684	-0.994932591944379	-0.000865996072136587	-0.00128988945533059
1.1	0.000448287583181964	0.00146311647370499	-0.144897654967781	-0.984172495810754	-0.145545107922985	-0.984137479256095	-0.00146320175287348	-0.00126015522600028
1.2	0.000788091841231179	0.000659291920292695	-0.296684838695109	-0.949435048040468	-0.296677862035074	-0.949490719675777	-0.0015872666478135	-0.000977241924403908
1.3	0.00108579907876437	-0.000734589903511946	-0.440371694409153	-0.891625959798177	-0.440463779236111	-0.891650430575584	-0.000739105877027908	-0.000309133212796514
1.4	0.00111946340431862	-0.00261601911587671	-0.573212370126543	-0.812348069988784	-0.573286162637994	-0.81224852192071	0.000621018671279226	-0.000527218606875092
1.5	0.00100365873307445	-0.00346698088627013	-0.692377415363449	-0.713287783643839	-0.692402019589875	-0.71321575167062	0.00183726993931399	-0.00138908827578589
1.6	0.000759473331326194	-0.00383640545035196	-0.794250967731346	-0.597412098530581	-0.794680436017992	-0.596911663761095	0.00157404540609936	-0.00236907479245763
1.7	0.000675570522068158	-0.00377172058737231	-0.877144334834437	-0.46669569398421	-0.877448646077341	-0.466205887135111	0.000981967330019064	-0.00288144252841596
1.8	0.000380211637221453	-0.00384327032700315	-0.938958599969393	-0.32437895249526	-0.938974047349516	-0.324369489466689	7.06002212804545E-05	-0.00337190715490663
1.9	0.000125936719995919	-0.00372721529591197	-0.977872889032228	-0.174553211387558	-0.977917395465356	-0.174605948708358	-0.00082169067657693	-0.003547250878853
2	-0.00029912306655721	-0.00379903428916732	-0.99282088150581	-0.0211558972081665	-0.992915557572318	-0.0205064627260438	-0.00183060530318391	-0.00341101181179062
2.1	-0.000774529783761291	-0.00369259591989895	-0.983769371853547	0.134423856994043	-0.983869019368558	0.133939741915895	-0.00252078239323251	-0.00300945402630534
2.2	-0.00150728223581226	-0.00369633943987109	-0.951031322536322	0.284749209447304	-0.951070059785748	0.284882958078344	-0.00310793830463054	-0.00268985045310163
2.3	-0.00221440276697714	-0.00344217128228538	-0.895223905400806	0.428842826783484	-0.895060064881075	0.428931226756546	-0.00372593773626038	-0.00236627694970242
2.4	-0.00312257426865005	-0.00309355238172937	-0.817158780361102	0.563121949897387	-0.817450277880211	0.562660179364032	-0.00431053659165696	-0.00201001764967114
2.5	-0.00377920969239913	-0.00233900970984794	-0.719939151768336	0.682972072381576	-0.720241558744145	0.682591598646887	-0.00456434643043612	-0.00175774440378806
2.6	-0.00436634617713212	-0.00156430874335886	-0.605542009707647	0.786029275126441	-0.605462810053765	0.785969859946666	-0.00469088754672582	-0.00137623958924925
2.7	-0.00438401667013252	-0.000607164533966022	-0.476036246115729	0.87031600590477	-0.476006768558376	0.870330081547784	-0.00476344221313567	-0.001005503904517
2.8	-0.00406990018924819	5.82020175708798E-05	-0.335305111599194	0.933501821993077	-0.335186903885477	0.933586246153909	-0.00453619148391387	-0.00051710401424295
2.9	-0.00304106418583792	0.000488362310281964	-0.186312037638797	0.974065262135959	-0.186307557127671	0.974120036205242	-0.00394357429417345	0.000172957660039356
3	-0.00208320132370926	0.000492414330544505	-0.0326263949543151	0.991058084014262	-0.0326906529900736	0.991129540401715	-0.00286500702806455	0.000731384883153017
3.1	-0.000929505833876813	0.00032463247627437	0.120797994749457	0.984036940144062	0.121445922020525	0.984117780660145	-0.00168560966489562	0.00102608683743798
3.2	-0.000186484292079559	-0.000243043101635672	0.272650492559132	0.953076650057407	0.272640562161619	0.953116234826512	-0.000769505654714319	0.000887078290226259
3.3	0.000663575287973787	-0.000931768065444674	0.417939468809684	0.898826306217055	0.417317217361709	0.899108109130498	0.000307097816805831	0.000550150905822676
3.4	0.00101286197583878	-0.00177672329211603	0.551834423103141	0.823277296395263	0.551749592524193	0.823392605990176	0.00131769125473963	-0.000205292337886929
3.5	0.00143539636433561	-0.00261195520507233	0.67275858634096	0.727654150092533	0.672772827219746	0.727680330141819	0.00196112931426486	-0.00129913736000133
3.6	0.00127145710634544	-0.00346317644978465	0.777030458643389	0.614719335862098	0.777452121111617	0.614325144490884	0.00208559265479225	-0.00239495351203768
3.7	0.00118123863798903	-0.00430226771897713	0.863312858375524	0.486004387706197	0.863319951079931	0.486130863572414	0.00198989932322407	-0.00337088104556369
3.8	0.000623263345532042	-0.00508126693353528	0.928099682536879	0.346006662599173	0.928128200440413	0.34618985472642	0.00143777983418444	-0.00443288569125545
3.9	0.00030490737021212	-0.00574579128033524	0.970557451228513	0.197178642763665	0.970459583049385	0.197766381466101	0.000318006142204724	-0.00551880445217387
4	-0.000457243436967846	-0.00629339426033092	0.989269609533034	0.0448535966852972	0.989351604027733	0.0448965023912543	-0.000942546359889817	-0.00621980275950757
4.1	-0.00117166258535086	-0.00684625287304057	0.984227740513005	-0.109238259042289	0.984165712485872	-0.109174208785743	-0.0024466190661182	-0.00668841530606525
4.2	-0.00242617360250974	-0.007236481922611	0.954887406942208	-0.261279060801795	0.955081366389488	-0.26071029131805	-0.00406106184088748	-0.00679468815059305
4.3	-0.00356718762665277	-0.00765727766279044	0.902923360538501	-0.405712800129538	0.902924251362642	-0.405694284170422	-0.0057737463563339	-0.00679243955622174
4.4	-0.00513806169892616	-0.00771781916225556	0.828953210918885	-0.540792580988765	0.828873378309587	-0.540776577440314	-0.00771353219134778	-0.00631468802550947
4.5	-0.00651474383984542	-0.00762992817407556	0.734937878395092	-0.662958170266298	0.734814648382087	-0.662812093104269	-0.00952218504548583	-0.00544280360789175
4.6	-0.00820723515032065	-0.00705991211805591	0.623010049295215	-0.768906731528788	0.622995768851869	-0.768677486701182	-0.0112352054932494	-0.00415307211237355
4.7	-0.0096239904158319	-0.0065414069107554	0.495931709115816	-0.856248934112557	0.496048965906086	-0.856004620650651	-0.0128429566609177	-0.00273016150221174
4.8	-0.0110449856896474	-0.00543062951235648	0.356707716034101	-0.922613219725716	0.357001382349464	-0.92242523257891	-0.0139515772485747	-0.000786043573228481
4.9	-0.0117962028921062	-0.00439496308033741	0.209112037604328	-0.966297081750555	0.209371635493713	-0.966246447712306	-0.014279349961534	0.00160968135185533
5	-0.0123005891448144	-0.00323768024969961	0.0570226814626894	-0.986716365088271	0.057180906648073	-0.986588809547359	-0.0136226260101069	0.00418749127712273
5.1	-0.0122252714678208	-0.00234703144049565	-0.0965539467883355	-0.983592017307984	-0.096233104518273	-0.983529694131691	-0.0120965518283432	0.00659248945033906
5.2	-0.0121376654582318	-0.00135770557247405	-0.24806535206511	-0.956657226728483	-0.247638514791821	-0.956779596593949	-0.0101953747689109	0.00877804626220163
5.3	-0.011988359038761	-0.000728608088477136	-0.39344727731454	-0.906560587755643	-0.393158976654377	-0.906905047380727	-0.00768409153561589	0.0105616728836198
5.4	-0.0118849071425352	0.00032069605239211	-0.529414355314281	-0.834511050730003	-0.529278834884233	-0.83480041504044	-0.00497581386378278	0.0117373396591868
5.5	-0.0118175997860529	0.00121052361730149	-0.652425921599169	-0.74209939799168	-0.652376376260674	-0.742412950821148	-0.00233236668899525	0.0121754742761277
5.6	-0.0117112062754706	0.00264599164762357	-0.75947072501694	-0.631775090875366	-0.759484343646821	-0.631945251751018	0.000150172658363623	0.0122804448458571
5.7	-0.0115450336706854	0.00386940490500617	-0.848285752402491	-0.506203393557173	-0.848262184723276	-0.50637832950998	0.00254924248606677	0.0121676602200265
5.8	-0.0112298614656909	0.00549252177358705	-0.916336489302484	-0.368289276746147	-0.91638154885818	-0.368581049175804	0.00490620373360833	0.0116890705888874
5.9	-0.0107119921126914	0.0068738030212595	-0.962299768089347	-0.221748984458358	-0.96242006964563	-0.221796758432079	0.00698676891851067	0.0108017565619607
6	-0.00989003398036181	0.00845727270221498	-0.985007357812418	-0.069745921779612	-0.98500435467485	-0.0698145349545486	0.00870982153191059	0.00967905339287758
6.1	-0.00891404913553284	0.00971808827869249	-0.983709298968842	0.0838720145923266	-0.983712569843228	0.0837688043206202	0.0103377658149161	0.00816242354073934
6.2	-0.00781063026877054	0.0109249976696207	-0.958603857290855	0.235535000052235	-0.958652007360997	0.23535355601731	0.0116070502217069	0.00605960525455525
6.3	-0.00671169577569371	0.0116697015507021	-0.910357808516842	0.381340301893442	-0.910382194927556	0.381211811620787	0.0123396557279007	0.00343679152405617
6.4	-0.00550940917201843	0.0121735762151935	-0.840060812922268	0.51789284517872	-0.840052208278526	0.51767956254066	0.0122531827406987	0.000445156932516598
6.5	-0.0043719639838158	0.012228641524942	-0.749420517868144	0.6418638798641	-0.749520969231246	0.641691835932241	0.0115187639722302	-0.00251098709398593
6.6	-0.00300393732205412	0.0122626614349376	-0.640703563153627	0.750238606196074	-0.640851877441577	0.750092891146356	0.0102737189722118	-0.00503135477990143
6.7	-0.00172094660621329	0.0118844500000362	-0.516485179889591	0.840464917403362	-0.516606212381095	0.840307985696664	0.00838108016876008	-0.00716057856719102
6.8	-0.000414462430780794	0.0114643153168858	-0.379737215586024	0.910281196945761	-0.379948018590018	0.910206302400904	0.00603913441284995	-0.00857213323099239
6.9	0.000723489319149635	0.0106556551347848	-0.233910438419207	0.958035061229955	-0.234160753778145	0.958031304571472	0.00377200457733301	-0.00924908882282001
7	0.00189319680131492	0.00980401492378664	-0.0824733420276125	0.982651171253787	-0.0827312112220917	0.982621155760512	0.00158669947743653	-0.00963554449389622
7.1	0.00267618570291486	0.00869101639253848	0.0709006815080556	0.983461869188413	0.0706943730398155	0.983449794444854	-0.000603924185743706	-0.00942445420432214
7.2	0.00334517107871591	0.00757209302914929	0.222588427247866	0.960457122793593	0.222333561082216	0.960501077896581	-0.00240658184080118	-0.00857136697617354
7.3	0.00345567224593588	0.00624061500516176	0.368827480801286	0.914209224578368	0.36858769996882	0.914299765455624	-0.00396082784089573	-0.00738486063327708
7.4	0.00340204155465645	0.00513023751644507	0.506093883201867	0.845779074820868	0.505876000452775	0.845940626211255	-0.00530394532630932	-0.00591554725056679
7.5	0.00297223143452088	0.00399065318111064	0.63104570954549	0.756978509924695	0.630885929838282	0.757149982679039	-0.00609742725074466	-0.0040866603917886
7.6	0.00258813381173259	0.00315042730024049	0.740807209324319	0.649902943065185	0.740592164785825	0.650063402496453	-0.00615924739466963	-0.00253233681840362
7.7	0.00187448064084482	0.00258621032385833	0.832499077018684	0.527120821314199	0.832348202599122	0.527315272467763	-0.00606498687409041	-0.000976984326994229
7.8	0.00140371243766872	0.00245805467632224	0.904218389089833	0.391530082680828	0.904097575774111	0.391751167146374	-0.00538153990531585	0.000454832339252551
7.9	0.00081697106035396	0.0025671182687855	0.953887491058473	0.24658228576247	0.953846928699913	0.246807265107954	-0.00444948083342614	0.00174609053274549
8	0.00064092868144204	0.00294438067223286	0.980523949264203	0.0956093636161857	0.9805940492611	0.0959009224713636	-0.00360896945198608	0.0027926381186577
8.1	0.000307556515554654	0.00350304344334866	0.983459944875846	-0.0576037365938164	0.983583605639132	-0.057332883528128	-0.0024655892335618	0.00373487300939261
8.2	0.000364007308448329	0.00414416755804199	0.962558944959655	-0.209425119597838	0.962624405131496	-0.209129628871134	-0.00130833582746702	0.00427184464891007
8.3	0.000343363350378211	0.00487754876892687	0.918347618815485	-0.356182427105637	0.918484672583941	-0.355926736478995	-1.93607775415556E-05	0.00442672793074523
8.4	0.000738840145133149	0.0056058710460266	0.851961672880406	-0.494307724513837	0.852172799908935	-0.4941079839951	0.00123973312270947	0.00411964055759124
8.5	0.00117444546159504	0.00631148377925353	0.765045996415832	-0.620433303936781	0.765161424785968	-0.620307460180061	0.00231378923755674	0.00349969740572645
8.6	0.0020794443000705	0.00684008611133954	0.659431740879768	-0.731594487323358	0.659628512002053	-0.731409120370438	0.00328265387215854	0.00270846104780056
8.7	0.00300157064659672	0.00720213876613695	0.53789144758592	-0.824919660893914	0.538172563618146	-0.824810124559296	0.00404326347167138	0.0017311770221767
8.8	0.00441534081670994	0.00718296849674847	0.403511186029831	-0.898373746807725	0.403716809312402	-0.898319066314547	0.00438179310494339	0.000596743053858752
8.9	0.00588606636731766	0.00669048549224222	0.259248522987753	-0.950162532074089	0.259489684513916	-0.950021940937506	0.00469944487999069	-0.000359349844845575
9	0.00769173512748372	0.00538866168553793	0.108635065304805	-0.978772883195811	0.108996587001872	-0.978742483129991	0.00513119409605444	-0.00132208885794031
9.1	0.00915578503888474	0.00352985200660559	-0.0444106455473442	-0.983772075379517	-0.0440586305333232	-0.983785954778492	0.00563125371025042	-0.00239594946330268
9.2	0.0103112875754565	0.00101265113919903	-0.196599333107461	-0.964929821065262	-0.196243796568356	-0.964999731621928	0.00617667856408041	-0.00351350717845306
9.3	0.0105995491521852	-0.00157163849485798	-0.34397191678053	-0.922768919120648	-0.34361505621308	-0.922832513123685	0.0065902383500074	-0.00457865023601951
9.4	0.0103252392771592	-0.00430455493742267	-0.482889945621202	-0.858247735151752	-0.48256668296132	-0.858394793156171	0.00679107499880522	-0.00573806000712183
9.5	0.00904527150493212	-0.00653884853200433	-0.610142183344903	-0.772917279389295	-0.609935894825819	-0.773054055123907	0.00646905011717562	-0.00661445812585267
9.6	0.00743863738204026	-0.00852141226541205	-0.722705170305997	-0.668829260976569	-0.722432202544999	-0.669013356499759	0.00582431223933481	-0.00736892734413357
9.7	0.00521546111569529	-0.00977606537964833	-0.81765905472799	-0.54861671741276	-0.817412326921545	-0.548885289424329	0.00503793414820059	-0.00790963247060085
9.8	0.00277069648512768	-0.0105727618597341	-0.892891926431037	-0.415091288657415	-0.89268238484857	-0.415365598856558	0.00415131182524624	-0.00814803887836472
9.9	6.06918758107555E-05	-0.0104600140140093	-0.946439800971198	-0.271523636127083	-0.946326704548009	-0.271852521709304	0.00347725166526016	-0.008144092567579
10	-0.0025089884615835	-0.0099702558628899	-0.977191783771799	-0.121413269763055	-0.977110793688047	-0.121791566742705	0.00278551182487879	-0.00800232789733487
10.1	-0.00506596845975165	-0.00867580975334229	-0.984115983137805	0.0317240557174135	-0.98409519322467	0.0312462295939029	0.00229299779536205	-0.00775349680479832
10.2	-0.0071446309586534	-0.00708165778065237	-0.96732836636762	0.184046057727989	-0.967312516242683	0.183596261411111	0.00197329336461496	-0.00766367679281284
10.3	-0.00907012078090667	-0.0048689485691275	-0.927063905858925	0.331980403557988	-0.927198159323096	0.331439817377334	0.001524533933829	-0.00793656454038533
10.4	-0.0103342434037512	-0.00262708741242633	-0.864304171348279	0.471808734107084	-0.864568282495325	0.471272557590729	0.00107398464303043	-0.00851115513199412
10.5	-0.0111883651553813	2.37628621719108E-05	-0.780673712261131	0.600226076622186	-0.780955742035508	0.599838759172621	0.000641916516758276	-0.00934905822379463
10.6	-0.0112467017009828	0.00252076018695206	-0.678004554323373	0.714087707058432	-0.678430237210925	0.713743267581833	-5.83526685957286E-05	-0.0102911124212786
10.7	-0.0108150280055362	0.00527840000130652	-0.559016107719942	0.810689475228011	-0.559427242793869	0.810400763493848	-0.000848743779870904	-0.0110092225804017
10.8	-0.0095157951487352	0.00755971681241019	-0.426341394736744	0.887595005083259	-0.426851576370955	0.887365353618339	-0.00176242687339705	-0.0116947185211721
10.9	-0.00785734792064414	0.00978278145920868	-0.283441233658166	0.943026248608207	-0.283929126640832	0.94297477082277	-0.00304167864978542	-0.0121980326573891
11	-0.00541243475191955	0.0112093334281788	-0.13355827090697	0.975597859903438	-0.1341047280255	0.975593318206179	-0.00416125714987811	-0.0124877246700843
11.1	-0.00260934325103631	0.0123054778372277	0.0196303993147341	0.984433035626724	0.0190009785036299	0.984515791074149	-0.00522903550137886	-0.0126619455662837
11.2	0.000526189165534087	0.0123402381071885	0.172139849622859	0.969434517168171	0.171620442634526	0.969637552561557	-0.00613856167300307	-0.012755534178465
11.3	0.00360263385614596	0.0117804233768914	0.320422879365425	0.930989468492529	0.319993139050596	0.93125211171995	-0.0068355015260019	-0.012612016602288
11.4	0.00639165306009365	0.0102932495623906	0.46114784944111	0.870023454554951	0.460683403004403	0.870283581291982	-0.00754715388572069	-0.012298203816785
11.5	0.00875690830086169	0.00861730200790604	0.590616512590834	0.78774911186598	0.590258434109249	0.788167592894281	-0.00841558566675438	-0.0118574478951623
11.6	0.0106482154894705	0.00610391824532061	0.705591347626933	0.68648731224336	0.705324704125735	0.68696837639619	-0.00934564447350174	-0.0112594419019343
11.7	0.0119120631263021	0.00362888410421951	0.803651607405451	0.568677064621475	0.803412728664306	0.56909971729389	-0.010249584934702	-0.010525058174694
11.8	0.0123720282864122	0.00074482726689348	0.882225674535108	0.436832085093909	0.882041997232396	0.437385153830721	-0.0112551525865838	-0.00968268895007245
11.9	0.0122707660258673	-0.00167067710780639	0.939255593769567	0.294593921658879	0.939218075686314	0.29513872696756	-0.0123050827073369	-0.00836699260374552
12	0.0111549424472209	-0.00422916063768974	0.973584185332876	0.145344182742239	0.973572714698245	0.145824451580157	-0.0131099244813856	-0.00701308656936941
12.1	0.0098644768510166	-0.00612904899024766	0.984296826759533	-0.00758094946116254	0.984272938969796	-0.00710722119533198	-0.0135397529146192	-0.00549925349266373
12.2	0.0078989893386281	-0.00791709889015588	0.971102241952262	-0.160405581820291	0.971209900955993	-0.159967855314111	-0.0138367552920863	-0.00390685812157867
12.3	0.00566906174110709	-0.00892428846760743	0.934254779329585	-0.30913618459175	0.934441454200793	-0.30877783750066	-0.013776117412181	-0.00235419917344477
12.4	0.0030718647207586	-0.00954130705558251	0.875071105596722	-0.450409898598957	0.875204907464627	-0.450034642262212	-0.0134843156259229	-0.000969496072438436
12.5	0.000693137744055203	-0.00932635111902316	0.794345095829582	-0.58083851382742	0.794805108582471	-0.580446340047097	-0.0130614484987498	0.000189543672382288
12.6	-0.0015240717380103	-0.00878405293862277	0.694490843873802	-0.696998111285207	0.69483874058974	-0.696688887064716	-0.0124920796444702	0.00113914630087826
