# GHZ S RI R 50
0.2	-0.000266684816868328	-5.50454102537631E-05	0.949156118554789	-0.307834592234729	0.948929876111309	-0.307976525769479	-7.19836448968538E-05	6.41589851994134E-05
0.3	-0.000439429641144012	0.000213378379006347	0.889263756362415	-0.451524868898831	0.889126320113671	-0.451578101067324	-0.000204718442785324	-0.0001024773018557
0.4	-0.000287893060659402	0.000374718055735472	0.807812784096251	-0.583849665772168	0.807852911230461	-0.583989287790568	-9.13644775175971E-05	-0.000131625819528862
0.5	-0.000386092658556627	0.000579026963323851	0.707056935588142	-0.702185992036993	0.706946332834868	-0.702281868016378	2.28309912615697E-05	-0.000221308182975991
0.6	-0.000340375467679997	0.000690460067716734	0.589130860753486	-0.803259707189218	0.588941290565434	-0.803262626645447	9.35465481789094E-06	-0.000445199781692496
0.7	-0.000359715400504504	0.00107524471642691	0.457047492768595	-0.884648212155433	0.456973463758024	-0.884682597960619	-1.28364807786136E-05	-0.000701789604976477
0.8	-0.00012057569840083	0.00114886076716464	0.314006376276364	-0.944732989562541	0.313887834249203	-0.944646276582016	-0.000180843199161295	-0.000909014046975102
0.9	-4.14644816505688E-06	0.0014769314502594	0.163418415486862	-0.981764447354905	0.163269424066492	-0.981721604881329	-0.000508816253424501	-0.00113547393172786
1	0.000265018092183317	0.00147502710481256	0.00890671326325218	-0.994883019750286	0.00878865722223817	-0.994853350949119	-0.000839608653917619	-0.00129654257128629
1.1	0.000467523253048422	0.00145708610034937	-0.144985000345439	-0.984058087086411	-0.145632384284174	-0.984023006979963	-0.00144414712982359	-0.00126567984827611
1.2	0.000795696769581343	0.000642401343346691	-0.296746544296738	-0.949294368978757	-0.296739574094252	-0.949350034836642	-0.0015799630296211	-0.000993587362741992
1.3	0.00106554406419426	-0.000743889974928916	-0.440402433761836	-0.891465753706359	-0.440494508972448	-0.891490212162933	-0.000759406634920069	-0.000318242561200908
1.4	0.00108977621204148	-0.00260103430729969	-0.573208598937045	-0.812176175158987	-0.573282371249104	-0.812076634244922	0.000591443956501359	-0.00051271111787582
1.5	0.000981089104785758	-0.00342743557273707	-0.692334564638673	-0.71310533979379	-0.692359157907931	-0.713033317086036	0.00181430306956464	-0.00134988352128479
1.6	0.000765448647866508	-0.0037930488395414	-0.794159840434402	-0.597238470563038	-0.794589189866592	-0.596738088727538	0.0015797699304792	-0.00232653990388929
1.7	0.000695636887249358	-0.00373217688009226	-0.877015121984245	-0.466541185130426	-0.877319338741628	-0.466051447104633	0.00100189393693701	-0.00284226845783365
1.8	0.000417905532427763	-0.00380946623480583	-0.938796134447842	-0.324249450755951	-0.938811578125759	-0.324239988512743	0.000108379282667732	-0.00333817072398781
1.9	0.000176077479978138	-0.00371333356819785	-0.977681469335578	-0.174451355048815	-0.97772597006404	-0.174504078426155	-0.000771365944629742	-0.00353328247530145
2	-0.000258069828981626	-0.00379727726408041	-0.992598749602474	-0.0210911354991147	-0.992693365117095	-0.0204418414315017	-0.00178918588908815	-0.00340917795514155
2.1	-0.000726872022379255	-0.00370252743716474	-0.983530566614256	0.134446164798853	-0.983630217226216	0.133962169076746	-0.00247258682124115	-0.00301946040271024
2.2	-0.00147077616622723	-0.00372237895039913	-0.950774001679319	0.284725045539996	-0.950812722213032	0.284858762004788	-0.00307092661589975	-0.00271622753029224
2.3	-0.00219082034308416	-0.0034754963501926	-0.894957225663523	0.428758951291253	-0.894793427296685	0.428847320088601	-0.0037019615057544	-0.00240013400551077
2.4	-0.00311216420842043	-0.00313480514412599	-0.816899234041488	0.562968332464894	-0.81719065285172	0.562506708039708	-0.00430001983926335	-0.00205165976321613
2.5	-0.00379986059859823	-0.00238347605234334	-0.719714465270412	0.682749423492924	-0.720016773231679	0.682369068906109	-0.00458521329519985	-0.00180243882107531
2.6	-0.00440441202776934	-0.00159083054073896	-0.605361916477973	0.785752109006127	-0.605282741536095	0.785692715667506	-0.00472957255780055	-0.0014027911909766
2.7	-0.00443351571710339	-0.000618323115578613	-0.475918103434857	0.869988094841728	-0.475888636872928	0.87000216719181	-0.004813615072089	-0.00101624458612381
2.8	-0.00412494755672487	6.4064858667624E-05	-0.335264371453343	0.933139798896171	-0.335146213138054	0.93322420289818	-0.00459184177564107	-0.000510588275729035
2.9	-0.0030984350615476	0.000512097742090219	-0.186359680406047	0.97368997328219	-0.186355207999268	0.973744728015003	-0.00400065899504884	0.000196652498900827
3	-0.00213402684173416	0.000538124055682815	-0.0327599057474651	0.990696572498243	-0.0328241511274736	0.990767993745581	-0.00291586125536575	0.000776670698123619
3.1	-0.000961358775710556	0.000387880017545025	0.120579734822473	0.983699038133139	0.121227411221539	0.983779963803421	-0.00171864818553893	0.00109474126820314
3.2	-0.000206052225557368	-0.000167577421198513	0.272350043351583	0.952790420116822	0.272340108147228	0.952829988491906	-0.00078949811884325	0.000962247794370206
3.3	0.000668262425395611	-0.000845306633522957	0.417572308222599	0.898612181970062	0.416950206855562	0.89889373335286	0.000311230799528097	0.000636260730535883
3.4	0.00104510706468219	-0.00168796519130645	0.551421650383522	0.82315051003829	0.551336816811559	0.823265757336944	0.00134908329976864	-0.000116692929339246
3.5	0.00149842761738875	-0.00252210090941311	0.67232108517016	0.727616375533564	0.672335313573363	0.727642551251693	0.00202287721429199	-0.00120980475154876
3.6	0.0013752756433778	-0.00339408279192085	0.776584187513317	0.614784283348668	0.777005848605069	0.61439035470629	0.00218846091109269	-0.00232545481923232
3.7	0.00131448358726007	-0.00426969925279142	0.862889493865012	0.486168815677829	0.862896539700328	0.486295257256874	0.00212224367717078	-0.00333767789629578
3.8	0.000774504014250175	-0.00510292150251492	0.927719395443779	0.346258161772373	0.927747837463949	0.346441314855093	0.00158830342752698	-0.00445365182651912
3.9	0.000444810774941197	-0.00583994147691715	0.97023310736515	0.197501585142638	0.970135038108578	0.198089135719138	0.000457740052744961	-0.0056120698494812
4	-0.000378118960701521	-0.0064485684951641	0.989003510851486	0.0452423380744879	0.989085467446282	0.0452852661782556	-0.000863154910644795	-0.00637423135756353
4.1	-0.00117743726177947	-0.00702732018200198	0.984040054133395	-0.108791467534149	0.983978013495123	-0.108727459049022	-0.00245170822426119	-0.00686919789338788
4.2	-0.00252963274499118	-0.0073899800515646	0.954786868325866	-0.260784773559604	0.954980524550107	-0.260216046528604	-0.00416378436269042	-0.00694864328049607
4.3	-0.0037347076572028	-0.00773365945629731	0.902927982301768	-0.405183345124485	0.902928863865673	-0.405164832709593	-0.0059416480890477	-0.00686909817727388
4.4	-0.00531800235142554	-0.00770567507144244	0.82907942018139	-0.540251710921435	0.828999594443626	-0.540235752543144	-0.00789396931211294	-0.00630307496745968
4.5	-0.00667692384467406	-0.00754121998926903	0.735199831779702	-0.662440452441749	0.735076538093482	-0.662294467460015	-0.00968519293475283	-0.00535496574251891
4.6	-0.00831646795789018	-0.00690878703267683	0.623391505847151	-0.768454887525548	0.623377092456121	-0.768225676776576	-0.0113447441797049	-0.00400450561959839
4.7	-0.00967154036665283	-0.00636107687298369	0.496416822393529	-0.855884528794978	0.496533921886952	-0.855640161772672	-0.0128917028837705	-0.0025522473951517
4.8	-0.0110321371696164	-0.00524717399119084	0.357276069672719	-0.922361040720902	0.357569608977962	-0.922172874946459	-0.0139413652508382	-0.000604569095016537
4.9	-0.011729257943063	-0.00423052021960747	0.209738159514805	-0.966177067541482	0.209997728736158	-0.96612626537986	-0.0142161835772844	0.00177260369948809
5	-0.0121956738574356	-0.00310755103392628	0.057668568183294	-0.986745444731885	0.0578267209803742	-0.986617777677645	-0.0135226460977281	0.00431727240429641
5.1	-0.0120984175302057	-0.00226288205478747	-0.095920247597424	-0.983762116962681	-0.095599411287184	-0.983699576884552	-0.0119756889708663	0.00667771078148003
5.2	-0.0120102757471537	-0.00131867859718627	-0.247473530922285	-0.956970962111899	-0.247046545961163	-0.957093069756292	-0.0100746007749723	0.00881985300387896
5.3	-0.0118724865758501	-0.000727177982588867	-0.392932895722914	-0.90700712979818	-0.392644308873402	-0.907351471305125	-0.00757512066962489	0.0105681652477931
5.4	-0.0117890213767591	0.000293676293512348	-0.529010285362087	-0.83507030156925	-0.528874542237761	-0.835359652901371	-0.0048859936818599	0.0117176873411455
5.5	-0.0117391632599467	0.00117300113864628	-0.652155060961158	-0.7427349513449	-0.652105302947548	-0.743048567647044	-0.00225838314847313	0.0121473340416373
5.6	-0.011639473170513	0.00258305537237407	-0.759342104501729	-0.63246358235207	-0.759355622507715	-0.632633810466545	0.000219610504449098	0.0122282930352846
5.7	-0.0114978617753105	0.0037908419732795	-0.848314135544836	-0.506905550736668	-0.848290454509918	-0.507080540682456	0.00259486564864461	0.0121028369846357
5.8	-0.0112170786928774	0.00538676564559116	-0.916515707826242	-0.368968815671745	-0.916560620011574	-0.369260737809734	0.00492084295137881	0.0115970507862508
5.9	-0.0107609188933078	0.00674545143814864	-0.962614310936628	-0.22237440718377	-0.962734640890889	-0.22242226840271	0.00694242578410275	0.0106872963793098
6	-0.0100340826514228	0.00835643416300401	-0.985434995512864	-0.0703049076187456	-0.985431954324128	-0.0703735515488977	0.00857319829298791	0.00959115442703922
6.1	-0.00911959820955888	0.00970604526288905	-0.984251797955497	0.0833939778606283	-0.984255015875761	0.0832907136185669	0.0101422347843197	0.00816279850285647
6.2	-0.00800989161248659	0.0110326611480314	-0.959252141814999	0.235161799742015	-0.959300223193761	0.234980231145666	0.0114216048965056	0.00617882877842085
6.3	-0.00683109186172684	0.0118556089071731	-0.911100606749215	0.381102562969454	-0.911124941905074	0.380973982960525	0.0122352237736631	0.00362677191230288
6.4	-0.00552165393124387	0.0123383855860732	-0.840867612977283	0.517823637923673	-0.840858898422131	0.517610218915104	0.012257414560046	0.00061053442704824
6.5	-0.00433854468075892	0.0123174832991629	-0.750252400517924	0.641986707684248	-0.750352846246171	0.641814494064663	0.0115691603911025	-0.00242550512899169
6.6	-0.00298375743211705	0.0122865735031424	-0.641497215861347	0.750563030866539	-0.641645586694868	0.750417144199243	0.0103098684650057	-0.00501534173659163
6.7	-0.00173794472820826	0.0118840302361507	-0.517192664320505	0.840969258578629	-0.517313741092806	0.84081215802872	0.00837765927820285	-0.00717304579823774
6.8	-0.00046145313750041	0.0114709769654817	-0.380319581935455	0.910940486399204	-0.380530541367909	0.91086546799882	0.00600199726601729	-0.00858089623189844
6.9	0.000662202091352552	0.010679949153829	-0.234337337171589	0.958818010188156	-0.234587870418985	0.958814192114096	0.00371863922641395	-0.00924065924680841
7	0.00182882308472064	0.00985716075674172	-0.0827124879840216	0.983524374893204	-0.0829705849235858	0.983494289081045	0.00152579341425048	-0.00959949886463645
7.1	0.00261788022485204	0.0087712308929847	0.0708624808350532	0.984369840725909	0.0706559847193048	0.984357733290089	-0.000663099164731808	-0.00936077725251417
7.2	0.00330148501691306	0.00768289904991826	0.222752453086306	0.961360156913498	0.222497347967033	0.961404141489801	-0.00245485848341182	-0.00847541424073269
7.3	0.00343871304507625	0.00638186747471298	0.369190922951518	0.915062201837271	0.368950918285082	0.915152832211737	-0.00398523658077785	-0.00725583831044532
7.4	0.00342439296780531	0.00529679286492246	0.506644313692315	0.846537507845704	0.506426238183573	0.846699230558247	-0.00528904795815519	-0.00575886591050721
7.5	0.0030540411743811	0.00417427461742405	0.631755328586921	0.757593380271947	0.631595424973378	0.757765038798682	-0.00602625095349738	-0.00390831878627778
7.6	0.00274461775583249	0.00332136733282561	0.74163358903274	0.650352614136329	0.741418377924232	0.650513268159992	-0.00601400564462586	-0.00236247939305242
7.7	0.00209926490314754	0.00271024065031254	0.833406791411297	0.527381491514016	0.833255830578378	0.527576162160836	-0.00584987541435537	-0.000851455872200182
7.8	0.00167746617901597	0.00249941235336347	0.905162109173308	0.391590511466621	0.905041258425984	0.391811834809044	-0.00511424196016477	0.000500859959121026
7.9	0.00108421104455915	0.00249713219039603	0.954827919386364	0.246443650943108	0.954787405366418	0.24666884549317	-0.00419098660471018	0.00166044944760397
8	0.000875939691391212	0.00274693425845672	0.981422048958465	0.0952894983405066	0.981492330359717	0.0955812836895092	-0.00336872556641405	0.00260669726100164
8.1	0.000424893044525056	0.00320547999948185	0.984294492995177	-0.0581003893744704	0.984418384879858	-0.0578293553790692	-0.00235250490678708	0.00343989712104673
8.2	0.000311434927195971	0.0038143617799799	0.963299811600021	-0.210102460754699	0.963365480735973	-0.20980674319219	-0.00136309463904911	0.00394427902223675
8.3	0.000123418484372976	0.00462119680818517	0.918948054952057	-0.357035640028989	0.919085379672752	-0.356779804469954	-0.00024026251648074	0.00417132599575738
8.4	0.000423698937653396	0.0054969456246047	0.85236466115991	-0.49530763716671	0.852576104838484	-0.495107866239329	0.000924085826526346	0.00401000661022694
8.5	0.000847162446681263	0.0063659541791201	0.765214294830746	-0.621527996470818	0.765329914404348	-0.621402135133972	0.00198546473688176	0.00355156206073079
8.6	0.00182336172433875	0.00702876144124574	0.659331564525112	-0.732721865399016	0.65952864560875	-0.732536519128935	0.00302406208283217	0.00289332635989746
8.7	0.00284603599242183	0.00746154074701137	0.537525385919278	-0.826002424101464	0.537806803667919	-0.825893065474482	0.00388215681282936	0.00198641823950286
8.8	0.00436679976629232	0.00746167655571123	0.402901382589726	-0.899349149616908	0.40310719255592	-0.899294633179269	0.00432690824941288	0.000872669148704693
8.9	0.00593093188196039	0.00694121526953009	0.258430749869019	-0.950978262342041	0.25867219465194	-0.950837835350897	0.00473810600233339	-0.000109904726101952
9	0.0077958897801757	0.0055782795529544	0.107645784117129	-0.979390286503299	0.10800752347662	-0.979360256822974	0.00523012732372427	-0.00113271481340211
9.1	0.00928688198758161	0.00364542986051655	-0.0455190566272713	-0.984148985691602	-0.0451669045192689	-0.98416326083289	0.0057560640868037	-0.00227930093106619
9.2	0.0104307481168222	0.00106674463743579	-0.197766011485584	-0.96505206916888	-0.197410427030801	-0.965122408692888	0.00629094116725528	-0.00345770293660694
9.3	0.0106956167184613	-0.00155592764586234	-0.345140987626432	-0.922631198526546	-0.344784099697868	-0.922695224952992	0.00668199667807628	-0.00456106152980544
9.4	0.0104027921600986	-0.00431243263434277	-0.484006885031505	-0.857856765125608	-0.48368372843015	-0.858004236514969	0.00686556247994848	-0.0057446103785757
9.5	0.00909813544995129	-0.00655405589100883	-0.61114925479656	-0.772282461208925	-0.610943104374202	-0.772419502405175	0.00652089406633205	-0.00662718344231041
9.6	0.00748234429505041	-0.00855131257889057	-0.723547051771559	-0.667992297730785	-0.723274292074813	-0.668176731294908	0.00586880649595754	-0.00739702471079045
9.7	0.00524317917692371	-0.00981455179001409	-0.818303154575892	-0.547618245701736	-0.818056756197703	-0.54788710954863	0.00506784227660661	-0.00794803665409155
9.8	0.0027857977609371	-0.0106181862207997	-0.893311043218709	-0.413978160448244	-0.89310185105418	-0.414252698202557	0.0041692672760358	-0.00819590214549041
9.9	5.94140749647464E-05	-0.0105173615849279	-0.946619172403329	-0.270342975335226	-0.946506489186195	-0.270671945787885	0.00347606364157277	-0.00820546744470278
10	-0.00254478440699338	-0.0100193462442539	-0.977126028490039	-0.120218420371555	-0.977045508308668	-0.120596732535424	0.00274876398456218	-0.00805680130784028
10.1	-0.00511613896010192	-0.0086996779627813	-0.9838186037512	0.032901381363121	-0.983798395007394	0.0324236560277526	0.00223990944878537	-0.00778441085376076
10.2	-0.00718640460158171	-0.00707195632044391	-0.966785783377693	0.185175779073014	-0.966770491713755	0.184726110288002	0.00192609789248136	-0.00766198882463234
10.3	-0.00906668952871849	-0.00485141632722411	-0.92626232831058	0.333008801273772	-0.926397206028257	0.332468607890659	0.00151887671644212	-0.00792728193391062
10.4	-0.0102932056133453	-0.00265951938618854	-0.863250431411897	0.472656489010827	-0.863515083521742	0.472120929939792	0.00110169513048492	-0.00855079751745344
10.5	-0.0111711901099657	-7.9456890568778E-05	-0.779422553607786	0.600817262732744	-0.779704886794692	0.600430546313963	0.000640815339768729	-0.00945667436743622
10.6	-0.0113789962749568	0.0024066146737802	-0.676618494782424	0.714376200342216	-0.677044276621565	0.714032541913285	-0.000177046373061232	-0.0104801238085578
10.7	-0.0110210895159877	0.00519245050932426	-0.557586560385627	0.810642170411553	-0.557997677557494	0.81035418814877	-0.00105415890992512	-0.0111718890903456
10.8	-0.00969792098559476	0.00748205584526423	-0.424955381778513	0.887211567371573	-0.425465326067549	0.886982697770327	-0.00196827911885513	-0.0117601772798794
10.9	-0.00807150826045224	0.00977545541856831	-0.28217676576568	0.942332983960734	-0.282664202331315	0.942282061025638	-0.00328247050000113	-0.0121911474527051
11	-0.00562875203874952	0.0112746685684848	-0.13247545876394	0.974637719546994	-0.133021310824626	0.974633705994656	-0.00440147562601093	-0.0124006200640271
11.1	-0.00280348324356732	0.0124369570361298	0.0204720273096195	0.983245213013214	0.0198434276442991	0.983328423095887	-0.0054425405876289	-0.0125014638051368
11.2	0.000371908493494886	0.0125298592157507	0.172694792527027	0.968086404604594	0.172176195849842	0.968289598867552	-0.00630536275997928	-0.0125317124075584
11.3	0.0035050376419179	0.0120073139047655	0.320665397608004	0.929550654692224	0.320236402732144	0.929813260519543	-0.00693204255452601	-0.0123472463590383
11.4	0.00636054436430097	0.0105468371678382	0.461069981627566	0.868565820536548	0.460606322019702	0.868825886941168	-0.00757059054084577	-0.0120072951969449
11.5	0.00880017779755604	0.00888718659312586	0.590220777719098	0.786334921098242	0.589863423083002	0.78675301367661	-0.0083611289649516	-0.0115537296668959
11.6	0.0107758566007202	0.00635622936374619	0.704893621049969	0.685196307018649	0.70462757125813	0.685676805706548	-0.00920002920051289	-0.0109782481370817
11.7	0.0121179870507838	0.00384205909758388	0.802694421129055	0.567567061972383	0.802456039175728	0.567989189649445	-0.0100209929489992	-0.0102910038218352
11.8	0.0126512256002716	0.000894196217679978	0.881055288329394	0.435948442091662	0.880872032995967	0.436500752146549	-0.0109573598286203	-0.00952618293603658
11.9	0.0126553343497465	-0.00166974630170593	0.937933744768507	0.293972233340405	0.937896391213123	0.294516245154588	-0.0118810235254161	-0.00834525111853285
12	0.0115342953668621	-0.00434761592809529	0.972151974002872	0.145004855068418	0.972140581026156	0.145484409803455	-0.0127089376430384	-0.00713460194383425
12.1	0.0102154367228794	-0.00649661462032942	0.982807657043689	-0.00763283192644329	0.982783835872378	-0.00715981860273832	-0.0131522507789121	-0.00586101498462466
12.2	0.00804415892917072	-0.00847871847085081	0.969592887795017	-0.160154519148863	0.969700378670493	-0.159717472923776	-0.0136571930163733	-0.00447127920593792
12.3	0.00548917237643732	-0.00953435224749102	0.932779392880954	-0.308553542572309	0.932965734673281	-0.308195755181068	-0.0139246058362979	-0.00297365870704955
12.4	0.00258760792124556	-0.0099851218840691	0.873715023599587	-0.449475335616955	0.873848523198182	-0.449100673492046	-0.0139414354750646	-0.00142916845862222
12.5	7.2599496620178E-05	-0.00944945119846947	0.793223874796548	-0.579577263443575	0.793682974451918	-0.579185580488883	-0.0136731027230545	5.47404256251224E-05
