# GHz S RI R 50
82.5  0.02779  0.02713  0.678  -0.9598  -0.4159  -0.5888  -0.006166  -0.04
82.5  0.02858  0.02644  0.6705  -0.9638  -0.4214  -0.5847  -0.006912  -0.03932
82.5  0.02937  0.02576  0.6624  -0.9691  -0.4271  -0.5804  -0.007531  -0.03872
82.5  0.03016  0.02506  0.6541  -0.9745  -0.4328  -0.5761  -0.008121  -0.03809
82.5  0.03091  0.02433  0.6456  -0.9799  -0.4386  -0.5717  -0.008675  -0.03748
82.51  0.03165  0.02359  0.6371  -0.9853  -0.4443  -0.5673  -0.009196  -0.03686
82.51  0.03237  0.02282  0.6287  -0.9904  -0.45  -0.5627  -0.009688  -0.03625
82.51  0.03307  0.02204  0.6202  -0.9955  -0.4557  -0.5581  -0.01016  -0.03564
82.51  0.03374  0.02122  0.6115  -1.001  -0.4612  -0.5535  -0.0106  -0.03503
82.51  0.0344  0.02039  0.6028  -1.006  -0.4668  -0.5488  -0.01102  -0.03442
82.51  0.03503  0.01954  0.5943  -1.011  -0.4723  -0.5441  -0.0114  -0.03382
82.51  0.03564  0.01866  0.5855  -1.016  -0.4778  -0.5392  -0.01177  -0.03324
82.52  0.03622  0.01776  0.5768  -1.02  -0.4832  -0.5344  -0.01211  -0.03266
82.52  0.03678  0.01686  0.5678  -1.025  -0.4886  -0.5294  -0.01244  -0.03209
82.52  0.03731  0.01592  0.559  -1.03  -0.4939  -0.5244  -0.01275  -0.03152
82.52  0.03783  0.01498  0.5501  -1.034  -0.4992  -0.5193  -0.01305  -0.03097
82.52  0.03831  0.01402  0.5413  -1.039  -0.5044  -0.5142  -0.01331  -0.03042
82.52  0.03876  0.01304  0.5322  -1.043  -0.5096  -0.5091  -0.01358  -0.02988
82.52  0.03919  0.01205  0.5232  -1.048  -0.5148  -0.5039  -0.01382  -0.02937
82.52  0.03959  0.01104  0.5143  -1.052  -0.5198  -0.4986  -0.01404  -0.02886
82.53  0.03996  0.01002  0.5052  -1.056  -0.5248  -0.4933  -0.01426  -0.02835
82.53  0.0403  0.008977  0.496  -1.06  -0.5297  -0.488  -0.01447  -0.02786
82.53  0.04061  0.007935  0.487  -1.064  -0.5347  -0.4826  -0.01467  -0.02738
82.53  0.0409  0.00688  0.4779  -1.068  -0.5395  -0.4771  -0.01485  -0.02691
82.53  0.04114  0.005811  0.4687  -1.072  -0.5442  -0.4716  -0.01505  -0.02644
82.53  0.04137  0.004732  0.4595  -1.076  -0.549  -0.4661  -0.01522  -0.02599
82.53  0.04156  0.003642  0.4503  -1.08  -0.5537  -0.4605  -0.01539  -0.02555
82.53  0.04171  0.002563  0.441  -1.083  -0.5583  -0.4548  -0.01556  -0.02512
82.53  0.04184  0.00146  0.4317  -1.087  -0.5629  -0.449  -0.01573  -0.02469
82.54  0.04193  0.0003519  0.4223  -1.09  -0.5675  -0.4433  -0.01589  -0.02428
82.54  0.042  -0.0007545  0.413  -1.094  -0.5719  -0.4375  -0.01604  -0.02386
82.54  0.04202  -0.001867  0.4037  -1.097  -0.5762  -0.4317  -0.01621  -0.02345
82.54  0.04202  -0.002982  0.3945  -1.1  -0.5805  -0.4259  -0.01637  -0.02305
82.54  0.04197  -0.004098  0.3851  -1.103  -0.5849  -0.4199  -0.01652  -0.02266
82.54  0.04191  -0.005224  0.3756  -1.106  -0.5891  -0.4139  -0.01667  -0.02227
82.54  0.04181  -0.006338  0.3662  -1.109  -0.5932  -0.408  -0.01682  -0.02189
82.55  0.04166  -0.00745  0.3566  -1.112  -0.5972  -0.4019  -0.01698  -0.02151
82.55  0.04149  -0.008557  0.347  -1.115  -0.6013  -0.3958  -0.01714  -0.02113
82.55  0.04129  -0.009669  0.3372  -1.118  -0.6052  -0.3897  -0.0173  -0.02075
82.55  0.04105  -0.01078  0.3277  -1.121  -0.6092  -0.3835  -0.01746  -0.02036
82.55  0.04078  -0.01188  0.318  -1.123  -0.613  -0.3772  -0.01762  -0.01999
82.55  0.04047  -0.01298  0.3085  -1.126  -0.6168  -0.3709  -0.01779  -0.01962
82.55  0.04014  -0.01407  0.2989  -1.128  -0.6205  -0.3646  -0.01796  -0.01923
82.55  0.03977  -0.01515  0.2895  -1.131  -0.6242  -0.3583  -0.01812  -0.01885
82.56  0.03936  -0.01622  0.2797  -1.133  -0.6277  -0.352  -0.01829  -0.01846
82.56  0.03892  -0.01727  0.27  -1.135  -0.6312  -0.3455  -0.01845  -0.01808
82.56  0.03846  -0.01832  0.2604  -1.137  -0.6347  -0.3391  -0.01862  -0.01768
82.56  0.03795  -0.01935  0.2507  -1.139  -0.6381  -0.3327  -0.01879  -0.01728
82.56  0.03742  -0.02037  0.2412  -1.141  -0.6414  -0.3261  -0.01896  -0.01687
82.56  0.03684  -0.02137  0.2313  -1.143  -0.6447  -0.3196  -0.01912  -0.01647
82.56  0.03625  -0.02237  0.2215  -1.145  -0.6478  -0.3131  -0.01929  -0.01605
82.56  0.03563  -0.02334  0.2119  -1.146  -0.6509  -0.3066  -0.01945  -0.01564
82.56  0.03497  -0.0243  0.2021  -1.148  -0.654  -0.2999  -0.01961  -0.0152
82.57  0.03427  -0.02523  0.1924  -1.149  -0.657  -0.2932  -0.01978  -0.01476
82.57  0.03355  -0.02615  0.1826  -1.151  -0.6599  -0.2864  -0.01993  -0.01432
82.57  0.03281  -0.02705  0.1728  -1.152  -0.6627  -0.2798  -0.02008  -0.01386
82.57  0.03203  -0.02793  0.163  -1.153  -0.6655  -0.273  -0.02023  -0.0134
82.57  0.03123  -0.02878  0.1531  -1.154  -0.6682  -0.2663  -0.02037  -0.01293
82.57  0.0304  -0.02961  0.1434  -1.156  -0.6708  -0.2595  -0.02052  -0.01245
82.57  0.02954  -0.03042  0.1336  -1.157  -0.6734  -0.2527  -0.02064  -0.01196
82.58  0.02865  -0.03119  0.1239  -1.157  -0.6759  -0.2459  -0.02077  -0.01146
82.58  0.02774  -0.03195  0.114  -1.158  -0.6784  -0.2389  -0.02088  -0.01095
82.58  0.02681  -0.03268  0.1041  -1.159  -0.6807  -0.232  -0.021  -0.01044
82.58  0.02585  -0.03338  0.09424  -1.16  -0.683  -0.2251  -0.02109  -0.00992
82.58  0.02487  -0.03405  0.08432  -1.16  -0.6853  -0.218  -0.02118  -0.009377
82.58  0.02387  -0.03469  0.07438  -1.161  -0.6874  -0.211  -0.02126  -0.008826
82.58  0.02284  -0.0353  0.06468  -1.161  -0.6895  -0.204  -0.02133  -0.008272
82.58  0.0218  -0.03589  0.05494  -1.162  -0.6915  -0.1969  -0.02138  -0.007703
82.58  0.02073  -0.03643  0.04506  -1.162  -0.6934  -0.1899  -0.02143  -0.007132
82.59  0.01964  -0.03694  0.03526  -1.162  -0.6953  -0.1829  -0.02145  -0.006556
82.59  0.01855  -0.03743  0.02544  -1.162  -0.6971  -0.1758  -0.02147  -0.005966
82.59  0.01743  -0.03789  0.0156  -1.162  -0.6988  -0.1687  -0.02148  -0.005362
82.59  0.0163  -0.03829  0.005792  -1.162  -0.7004  -0.1616  -0.02146  -0.004761
82.59  0.01515  -0.03868  -0.00401  -1.162  -0.702  -0.1545  -0.02144  -0.004159
82.59  0.01398  -0.03902  -0.01376  -1.162  -0.7035  -0.1472  -0.02139  -0.003529
82.59  0.01281  -0.03934  -0.0236  -1.161  -0.705  -0.1399  -0.02134  -0.002909
82.59  0.01162  -0.0396  -0.03319  -1.161  -0.7064  -0.1327  -0.02125  -0.002285
82.6  0.01042  -0.03985  -0.04301  -1.16  -0.7076  -0.1255  -0.02116  -0.001653
82.6  0.009217  -0.04004  -0.05278  -1.16  -0.7088  -0.1182  -0.02104  -0.001008
82.6  0.008001  -0.0402  -0.06259  -1.159  -0.71  -0.1109  -0.02091  -0.0003709
82.6  0.006785  -0.04032  -0.07239  -1.158  -0.711  -0.1038  -0.02075  0.0002726
82.6  0.005554  -0.04041  -0.08203  -1.158  -0.712  -0.09651  -0.02058  0.0009219
82.6  0.004326  -0.04046  -0.09167  -1.157  -0.7129  -0.08917  -0.02039  0.001569
82.6  0.003096  -0.04046  -0.1015  -1.156  -0.7138  -0.08192  -0.02017  0.00222
82.61  0.001853  -0.04043  -0.111  -1.155  -0.7146  -0.07458  -0.01994  0.002868
82.61  0.0006202  -0.04036  -0.1208  -1.154  -0.7152  -0.06736  -0.01968  0.003517
82.61  -0.0006149  -0.04024  -0.1305  -1.152  -0.7159  -0.05993  -0.01939  0.004163
82.61  -0.001854  -0.04009  -0.1402  -1.151  -0.7164  -0.05267  -0.0191  0.004811
82.61  -0.003088  -0.0399  -0.1499  -1.15  -0.7168  -0.04534  -0.01878  0.005449
82.61  -0.004319  -0.03967  -0.1595  -1.148  -0.7172  -0.03796  -0.01843  0.00609
82.61  -0.005542  -0.03941  -0.169  -1.147  -0.7175  -0.03058  -0.01807  0.00672
82.61  -0.006752  -0.03909  -0.1785  -1.145  -0.7178  -0.02328  -0.01768  0.007357
82.61  -0.007963  -0.03874  -0.188  -1.143  -0.718  -0.01595  -0.01727  0.007966
82.62  -0.009155  -0.03836  -0.1975  -1.142  -0.7181  -0.008633  -0.01684  0.008583
82.62  -0.01035  -0.03792  -0.207  -1.14  -0.7181  -0.001175  -0.01638  0.009192
82.62  -0.01152  -0.03746  -0.2165  -1.138  -0.718  0.006142  -0.01591  0.009787
82.62  -0.01268  -0.03696  -0.2262  -1.136  -0.7179  0.01347  -0.01542  0.01038
82.62  -0.01383  -0.03642  -0.2354  -1.134  -0.7177  0.02074  -0.01489  0.01095
82.62  -0.01496  -0.03582  -0.245  -1.131  -0.7174  0.02798  -0.01434  0.01151
82.62  -0.01607  -0.03521  -0.2545  -1.129  -0.717  0.03539  -0.01378  0.01207
82.62  -0.01717  -0.03456  -0.2639  -1.127  -0.7166  0.0428  -0.0132  0.01261
82.63  -0.01825  -0.03386  -0.2732  -1.124  -0.716  0.05011  -0.01258  0.01314
82.63  -0.01931  -0.03313  -0.2826  -1.122  -0.7154  0.05753  -0.01196  0.01365
82.63  -0.02033  -0.03236  -0.292  -1.119  -0.7148  0.06484  -0.01131  0.01414
82.63  -0.02135  -0.03157  -0.3011  -1.117  -0.714  0.07227  -0.01064  0.01462
82.63  -0.02233  -0.03073  -0.3106  -1.114  -0.7132  0.07955  -0.009947  0.01508
82.63  -0.02329  -0.02987  -0.3197  -1.111  -0.7123  0.08701  -0.009242  0.01553
82.63  -0.02422  -0.02897  -0.329  -1.108  -0.7114  0.09423  -0.008512  0.01594
82.64  -0.02512  -0.02804  -0.3382  -1.105  -0.7103  0.1015  -0.007758  0.01635
82.64  -0.026  -0.02708  -0.3475  -1.102  -0.7092  0.1087  -0.007004  0.01674
82.64  -0.02684  -0.02608  -0.3566  -1.099  -0.708  0.116  -0.006214  0.0171
82.64  -0.02765  -0.02507  -0.3657  -1.096  -0.7068  0.1232  -0.005422  0.01743
82.64  -0.02843  -0.02402  -0.3747  -1.093  -0.7054  0.1306  -0.004605  0.01775
82.64  -0.02918  -0.02294  -0.3838  -1.089  -0.704  0.1378  -0.003777  0.01805
82.64  -0.02989  -0.02184  -0.3925  -1.086  -0.7025  0.145  -0.002928  0.01831
82.64  -0.03057  -0.02072  -0.4016  -1.083  -0.7009  0.1522  -0.00207  0.01855
82.64  -0.03121  -0.01956  -0.4104  -1.079  -0.6993  0.1594  -0.001193  0.01877
82.65  -0.03181  -0.0184  -0.4196  -1.075  -0.6976  0.1666  -0.0003101  0.01896
82.65  -0.03237  -0.01721  -0.4284  -1.072  -0.6958  0.1737  0.0005795  0.01913
82.65  -0.0329  -0.01598  -0.4372  -1.068  -0.694  0.1808  0.001495  0.01926
82.65  -0.03338  -0.01475  -0.4461  -1.064  -0.692  0.1878  0.002418  0.01937
82.65  -0.03383  -0.0135  -0.4549  -1.06  -0.69  0.1951  0.003337  0.01945
82.65  -0.03424  -0.01223  -0.4637  -1.056  -0.6879  0.2021  0.004274  0.0195
82.65  -0.0346  -0.01095  -0.4726  -1.052  -0.6858  0.2092  0.005213  0.01953
82.66  -0.03492  -0.009656  -0.4812  -1.048  -0.6836  0.2161  0.006173  0.01951
82.66  -0.03519  -0.008342  -0.49  -1.044  -0.6813  0.2232  0.007135  0.01948
82.66  -0.03542  -0.007031  -0.4986  -1.04  -0.6789  0.2302  0.008095  0.01941
82.66  -0.03561  -0.005714  -0.5072  -1.035  -0.6765  0.237  0.009048  0.01931
82.66  -0.03575  -0.004372  -0.5157  -1.031  -0.674  0.2439  0.01002  0.01919
82.66  -0.03586  -0.003034  -0.5242  -1.026  -0.6714  0.2508  0.01099  0.01901
82.66  -0.03591  -0.001694  -0.5329  -1.022  -0.6688  0.2576  0.01196  0.01883
82.66  -0.03593  -0.0003534  -0.5413  -1.017  -0.666  0.2645  0.01293  0.01861
82.67  -0.03589  0.0009991  -0.5497  -1.012  -0.6633  0.2713  0.01391  0.01834
82.67  -0.03581  0.002345  -0.5582  -1.008  -0.6604  0.2781  0.01486  0.01805
82.67  -0.03569  0.003702  -0.5666  -1.003  -0.6574  0.2849  0.01583  0.01773
82.67  -0.03551  0.005037  -0.5748  -0.9977  -0.6544  0.2916  0.01679  0.01738
82.67  -0.03529  0.006366  -0.583  -0.9928  -0.6514  0.2982  0.01774  0.017
82.67  -0.03504  0.007697  -0.5915  -0.9876  -0.6483  0.3048  0.01869  0.01658
82.67  -0.03473  0.009018  -0.5996  -0.9825  -0.6451  0.3115  0.01964  0.01613
82.67  -0.03437  0.01033  -0.6077  -0.9773  -0.6418  0.3181  0.02056  0.01565
82.67  -0.03398  0.01163  -0.6159  -0.972  -0.6385  0.3246  0.02149  0.01512
82.68  -0.03354  0.01291  -0.6239  -0.9666  -0.6351  0.3311  0.0224  0.01459
82.68  -0.03306  0.01419  -0.6319  -0.9612  -0.6317  0.3375  0.02329  0.01401
82.68  -0.03253  0.01544  -0.64  -0.9556  -0.6282  0.344  0.02419  0.01339
82.68  -0.03196  0.01667  -0.6478  -0.9502  -0.6247  0.3503  0.02506  0.01275
82.68  -0.03136  0.0179  -0.6558  -0.9445  -0.621  0.3566  0.02592  0.01209
82.68  -0.03071  0.01909  -0.6634  -0.939  -0.6173  0.3629  0.02676  0.01138
82.68  -0.03001  0.02026  -0.6712  -0.9332  -0.6136  0.3691  0.02758  0.01065
82.69  -0.02927  0.0214  -0.6791  -0.9272  -0.6098  0.3752  0.02839  0.009894
82.69  -0.02852  0.02253  -0.6869  -0.9213  -0.6058  0.3815  0.02918  0.009102
82.69  -0.02771  0.02363  -0.6945  -0.9155  -0.6019  0.3876  0.02995  0.008282
82.69  -0.02687  0.02469  -0.702  -0.9095  -0.5979  0.3937  0.03069  0.007432
82.69  -0.02599  0.02573  -0.7095  -0.9034  -0.5938  0.3998  0.03142  0.006562
82.69  -0.02507  0.02673  -0.7171  -0.8972  -0.5897  0.4058  0.03212  0.00566
82.69  -0.02413  0.02771  -0.7246  -0.8909  -0.5854  0.4118  0.0328  0.004722
82.69  -0.02315  0.02865  -0.732  -0.8847  -0.5812  0.4176  0.03346  0.003772
82.69  -0.02214  0.02956  -0.7393  -0.8784  -0.5769  0.4235  0.03408  0.00279
82.7  -0.02111  0.03043  -0.7467  -0.8719  -0.5726  0.4293  0.03468  0.001787
82.7  -0.02005  0.03127  -0.7539  -0.8654  -0.5682  0.435  0.03526  0.0007696
82.7  -0.01895  0.03206  -0.761  -0.859  -0.5637  0.4407  0.03581  -0.0002913
82.7  -0.01783  0.03282  -0.7683  -0.8523  -0.5592  0.4464  0.03632  -0.001355
82.7  -0.01669  0.03355  -0.7754  -0.8456  -0.5546  0.452  0.03681  -0.00246
82.7  -0.01553  0.03422  -0.7823  -0.839  -0.55  0.4576  0.03726  -0.003574
82.7  -0.01436  0.03486  -0.7893  -0.8321  -0.5452  0.4632  0.03768  -0.004708
82.7  -0.01315  0.03546  -0.7962  -0.8253  -0.5405  0.4687  0.03808  -0.005856
82.71  -0.01194  0.03601  -0.8033  -0.8183  -0.5358  0.474  0.03844  -0.00703
82.71  -0.01071  0.03653  -0.81  -0.8114  -0.5309  0.4794  0.03877  -0.008217
82.71  -0.009454  0.03699  -0.8168  -0.8043  -0.526  0.4847  0.03907  -0.009421
82.71  -0.008196  0.03742  -0.8236  -0.7971  -0.521  0.49  0.03932  -0.01064
82.71  -0.006931  0.03781  -0.8302  -0.79  -0.516  0.4952  0.03954  -0.01187
82.71  -0.005649  0.03816  -0.8368  -0.7829  -0.5109  0.5004  0.03973  -0.01312
82.71  -0.004372  0.03844  -0.8433  -0.7756  -0.5059  0.5054  0.03988  -0.01437
82.72  -0.003082  0.0387  -0.8497  -0.7683  -0.5007  0.5105  0.04  -0.01565
82.72  -0.00179  0.03891  -0.8561  -0.761  -0.4956  0.5154  0.04008  -0.01692
82.72  -0.0004871  0.03907  -0.8625  -0.7535  -0.4903  0.5204  0.04011  -0.0182
82.72  0.0008018  0.0392  -0.8687  -0.7461  -0.485  0.5253  0.04012  -0.0195
82.72  0.00209  0.03928  -0.8749  -0.7385  -0.4796  0.5302  0.04008  -0.0208
82.72  0.003381  0.03931  -0.8811  -0.7309  -0.4742  0.5349  0.04001  -0.0221
82.72  0.004671  0.03931  -0.8872  -0.7231  -0.4686  0.5398  0.03989  -0.02341
82.72  0.005946  0.03926  -0.8934  -0.7153  -0.4632  0.5443  0.03973  -0.02472
82.72  0.007218  0.03918  -0.8994  -0.7075  -0.4578  0.5489  0.03955  -0.02603
82.73  0.008476  0.03905  -0.9052  -0.6996  -0.4522  0.5535  0.03932  -0.02735
82.73  0.009732  0.03888  -0.9111  -0.6918  -0.4465  0.558  0.03905  -0.02866
82.73  0.01097  0.03867  -0.9169  -0.6839  -0.4409  0.5624  0.03874  -0.02997
82.73  0.01219  0.03843  -0.9225  -0.6759  -0.4352  0.5667  0.03838  -0.03128
82.73  0.01341  0.03814  -0.9282  -0.6679  -0.4294  0.5711  0.038  -0.03258
82.73  0.0146  0.03782  -0.9337  -0.6599  -0.4237  0.5753  0.03757  -0.03388
82.73  0.01578  0.03747  -0.9393  -0.6517  -0.4178  0.5796  0.0371  -0.03517
82.73  0.01693  0.03709  -0.9448  -0.6434  -0.412  0.5837  0.03659  -0.03645
82.74  0.01807  0.03666  -0.9502  -0.6351  -0.4061  0.5877  0.03605  -0.03773
82.74  0.01919  0.03621  -0.9554  -0.627  -0.4002  0.5917  0.03545  -0.03898
82.74  0.02029  0.03572  -0.9606  -0.6186  -0.3942  0.5957  0.03483  -0.04023
82.74  0.02136  0.03521  -0.9658  -0.6102  -0.3882  0.5995  0.03418  -0.04147
82.74  0.02241  0.03468  -0.9707  -0.6021  -0.3821  0.6034  0.03347  -0.04269
82.74  0.02344  0.0341  -0.9757  -0.5937  -0.3761  0.6071  0.03273  -0.04391
82.74  0.02444  0.0335  -0.9807  -0.5851  -0.37  0.6108  0.03195  -0.04509
82.75  0.02542  0.03288  -0.9855  -0.5766  -0.3639  0.6144  0.03114  -0.04627
82.75  0.02638  0.03225  -0.9904  -0.5679  -0.3578  0.6179  0.03028  -0.04742
82.75  0.0273  0.03157  -0.9952  -0.5592  -0.3516  0.6215  0.02939  -0.04856
82.75  0.0282  0.03088  -0.9998  -0.5505  -0.3452  0.625  0.02847  -0.04967
82.75  0.02907  0.03018  -1.004  -0.5417  -0.339  0.6283  0.02751  -0.05077
82.75  0.02993  0.02945  -1.009  -0.533  -0.3327  0.6316  0.02652  -0.05184
82.75  0.03074  0.02871  -1.013  -0.5242  -0.3264  0.6349  0.02549  -0.05288
82.75  0.03153  0.02795  -1.018  -0.5153  -0.3199  0.6381  0.02443  -0.05389
82.75  0.03232  0.02717  -1.022  -0.5065  -0.3136  0.6412  0.02333  -0.05489
82.76  0.03305  0.02639  -1.026  -0.4974  -0.307  0.6443  0.02221  -0.05586
82.76  0.03375  0.02559  -1.03  -0.4885  -0.3005  0.6473  0.02105  -0.05679
82.76  0.03444  0.02477  -1.034  -0.4794  -0.2941  0.6502  0.01985  -0.05771
82.76  0.0351  0.02395  -1.038  -0.4704  -0.2878  0.653  0.01864  -0.05858
82.76  0.03574  0.02312  -1.042  -0.4613  -0.2812  0.6558  0.01739  -0.05943
82.76  0.03633  0.02227  -1.046  -0.4522  -0.2746  0.6585  0.01612  -0.06025
82.76  0.03692  0.02143  -1.05  -0.443  -0.2681  0.6611  0.01482  -0.06103
82.77  0.03747  0.02057  -1.054  -0.4338  -0.2616  0.6637  0.01349  -0.06178
82.77  0.038  0.01971  -1.057  -0.4245  -0.255  0.6662  0.01215  -0.06248
82.77  0.0385  0.01885  -1.061  -0.4154  -0.2484  0.6687  0.01077  -0.06316
82.77  0.03899  0.01798  -1.064  -0.4061  -0.2418  0.6711  0.009365  -0.0638
82.77  0.03944  0.01711  -1.067  -0.3968  -0.2351  0.6734  0.007943  -0.06441
82.77  0.03988  0.01624  -1.071  -0.3875  -0.2284  0.6756  0.006506  -0.06496
82.77  0.04029  0.01536  -1.074  -0.3782  -0.2216  0.6778  0.005041  -0.06549
82.77  0.04068  0.01447  -1.077  -0.3686  -0.2148  0.68  0.003561  -0.06598
82.78  0.04104  0.0136  -1.08  -0.3592  -0.2081  0.682  0.002058  -0.06642
82.78  0.04139  0.01272  -1.083  -0.3499  -0.2012  0.684  0.0005391  -0.06683
82.78  0.04171  0.01184  -1.086  -0.3402  -0.1944  0.6859  -0.0009918  -0.0672
82.78  0.04202  0.01097  -1.089  -0.3306  -0.1877  0.6877  -0.002529  -0.06751
82.78  0.0423  0.01008  -1.091  -0.321  -0.181  0.6895  -0.004089  -0.0678
82.78  0.04257  0.009209  -1.094  -0.3115  -0.1743  0.6912  -0.005661  -0.06804
82.78  0.04282  0.008333  -1.097  -0.3019  -0.1675  0.6928  -0.007235  -0.06824
82.78  0.04306  0.00746  -1.099  -0.2922  -0.1606  0.6944  -0.008828  -0.06839
82.78  0.04327  0.006588  -1.101  -0.2826  -0.1537  0.6959  -0.01043  -0.0685
82.79  0.04347  0.00572  -1.104  -0.273  -0.1469  0.6974  -0.01203  -0.06856
82.79  0.04364  0.004848  -1.106  -0.2633  -0.14  0.6987  -0.01364  -0.06859
82.79  0.0438  0.003985  -1.108  -0.2535  -0.1331  0.7  -0.01525  -0.06858
82.79  0.04396  0.003117  -1.11  -0.2438  -0.1261  0.7013  -0.01687  -0.06851
82.79  0.04409  0.002254  -1.112  -0.2341  -0.1192  0.7024  -0.01849  -0.06839
82.79  0.04421  0.001401  -1.114  -0.2241  -0.1124  0.7035  -0.02011  -0.06823
82.79  0.04432  0.0005338  -1.116  -0.2144  -0.1055  0.7045  -0.02173  -0.06803
82.8  0.04441  -0.0003173  -1.117  -0.2045  -0.09854  0.7055  -0.02335  -0.0678
82.8  0.04448  -0.001176  -1.119  -0.1948  -0.09154  0.7064  -0.02497  -0.0675
82.8  0.04455  -0.002037  -1.121  -0.185  -0.08457  0.7072  -0.02658  -0.06717
82.8  0.04459  -0.002877  -1.122  -0.1751  -0.07762  0.708  -0.02818  -0.06679
82.8  0.04463  -0.003732  -1.123  -0.1655  -0.0707  0.7086  -0.02977  -0.06637
82.8  0.04466  -0.004577  -1.125  -0.1557  -0.06369  0.7093  -0.03135  -0.0659
82.8  0.04467  -0.005429  -1.126  -0.1459  -0.05658  0.7098  -0.03294  -0.06539
82.8  0.04467  -0.006277  -1.127  -0.1359  -0.04967  0.7103  -0.0345  -0.06483
82.81  0.04465  -0.007124  -1.128  -0.1261  -0.04273  0.7107  -0.03604  -0.06424
82.81  0.04463  -0.007968  -1.129  -0.1162  -0.03574  0.7111  -0.03758  -0.06359
82.81  0.04458  -0.008807  -1.13  -0.1062  -0.0288  0.7113  -0.03911  -0.06291
82.81  0.04454  -0.009662  -1.13  -0.09624  -0.02188  0.7115  -0.04063  -0.06218
82.81  0.04446  -0.0105  -1.131  -0.08633  -0.0149  0.7117  -0.04211  -0.06141
82.81  0.04439  -0.01135  -1.132  -0.07645  -0.00789  0.7117  -0.04358  -0.0606
82.81  0.0443  -0.01219  -1.132  -0.06652  -0.0008386  0.7117  -0.04502  -0.05975
82.81  0.0442  -0.01304  -1.133  -0.05665  0.006116  0.7117  -0.04645  -0.05885
82.81  0.04409  -0.01388  -1.133  -0.04682  0.01309  0.7115  -0.04786  -0.05792
82.82  0.04395  -0.01472  -1.133  -0.03671  0.02003  0.7113  -0.04924  -0.05695
