!My New Comment
# Hz S RI R 50
1e+07  0.2446  -0.4012  0.6619  -0.4625  0.6743  -0.1144  0.02566  -0.3901
3.45e+08  -0.1054  0.1462  0.4367  0.7743  0.7327  0.5334  0.115  0.1592!My New Comment
6.799e+08  0.2094  -0.06095  -0.7636  0.4053  -0.04246  0.9  -0.1557  -0.02423
1.015e+09  -0.1891  -0.03828  -0.3912  -0.7634  -0.7623  0.428  0.115  -0.09089
1.35e+09  0.1969  0.1536  0.7499  -0.3682  -0.8081  -0.3808  0.03282  0.1598
1.685e+09  -0.1139  -0.09295  0.3847  0.7739  -0.09857  -0.9024  -0.1269  -0.08137
2.02e+09  0.07934  0.1864  -0.7534  0.3349  0.6387  -0.5503  0.1732  -0.118
2.355e+09  0.06666  -0.1618  -0.2801  -0.7724  0.824  0.2449  0.03135  0.2019
2.69e+09  -0.1343  0.1141  0.7512  -0.2867  0.2007  0.8348  -0.04528  -0.1011
3.025e+09  0.1867  0.08174  0.2098  0.7874  -0.5689  0.5907  0.1293  0.04923
3.36e+09  -0.1192  -0.08328  -0.7533  0.2207  -0.8383  -0.139  -0.1228  0.09011
3.694e+09  0.08135  0.1269  -0.1914  -0.7472  -0.3107  -0.7654  0.04558  -0.1241
4.029e+09  -0.01937  -0.09809  0.7698  -0.1658  0.4518  -0.6864  0.02613  0.07156
4.364e+09  -0.06567  0.11  0.1188  0.7756  0.8127  0.008856  -0.07051  -0.01149
4.699e+09  0.1748  -0.1024  -0.7865  0.08907  0.3989  0.7274  0.1088  -0.06829
5.034e+09  -0.147  -0.002485  -0.1009  -0.7655  -0.346  0.7212  -0.00354  0.1767
5.369e+09  0.0247  0.01364  0.7448  -0.08662  -0.7736  0.09506  -0.1425  -0.004254
5.704e+09  0.02904  -0.04646  0.05501  0.7349  -0.5079  -0.6052  0.04733  -0.008844
6.039e+09  -0.1439  0.07442  -0.7538  0.009794  0.2311  -0.7361  -0.121  0.09272
6.374e+09  -0.01326  -0.1303  -0.001979  -0.7348  0.7511  -0.2212  -0.02812  -0.03756
6.709e+09  -0.00396  0.007083  0.7255  0.008711  0.5758  0.5232  -0.007038  0.02228
7.044e+09  -0.05693  0.01149  -0.04719  0.7414  -0.1061  0.761  -0.05555  0.01819
7.379e+09  0.07349  -0.1032  -0.7123  -0.06094  -0.7234  0.3325  0.01621  -0.06957
7.714e+09  -0.03303  0.1478  0.1287  -0.7443  -0.6189  -0.4604  0.06384  0.1082
8.049e+09  0.02564  -0.1034  0.7048  0.1184  0.009637  -0.7741  -0.08339  0.05186
8.384e+09  -0.01637  0.01785  -0.1171  0.7045  0.6516  -0.4013  0.005884  -0.08146
8.719e+09  0.1344  0.005149  -0.6906  -0.1616  0.7049  0.3015  -0.05057  0.1267
9.054e+09  -0.07259  -0.03534  0.1688  -0.7068  0.09967  0.7581  -0.1004  -0.1151
9.389e+09  0.0987  0.0365  0.6749  0.1984  -0.5474  0.4912  0.05558  -0.01706
9.724e+09  -0.01125  -0.09965  -0.1857  0.6772  -0.7289  -0.2033  -0.08465  -0.1056
1.006e+10  -0.02569  0.1853  -0.7047  -0.2334  -0.2158  -0.7542  0.06874  -0.1482
1.039e+10  0.02168  -0.1302  0.216  -0.6769  0.4848  -0.5522  0.04416  0.0177
1.073e+10  0.0422  0.01371  0.6476  0.241  0.7502  0.09551  0.05047  -0.06868
1.106e+10  0.01384  0.09076  -0.2968  0.6402  0.3285  0.6974  0.09157  -0.00327
1.14e+10  -0.1105  -0.1055  -0.6276  -0.3248  -0.3911  0.6343  0.01754  0.1089
1.173e+10  0.1483  0.07999  0.354  -0.6126  -0.7499  -0.03217  -0.1007  -0.01444
1.207e+10  -0.121  0.03395  0.6142  0.3985  -0.3996  -0.6432  0.06737  -0.01174
1.24e+10  -0.006622  -0.07096  -0.3783  0.5875  0.3357  -0.6609  -0.1422  -0.01195
1.274e+10  0.05756  0.007034  -0.5745  -0.4073  0.7352  -0.1183  0.004791  -0.1687
1.307e+10  -0.05045  0.0862  0.4294  -0.5456  0.4545  0.5756  0.07284  -0.04461
1.341e+10  -0.02572  -0.05286  0.543  0.4393  -0.1937  0.7249  -0.003147  -0.0925
1.374e+10  0.09756  0.005757  -0.5151  0.5039  -0.7472  0.2048  0.1734  0.01947
1.408e+10  -0.1415  0.08912  -0.5183  -0.4426  -0.5241  -0.4932  0.06649  0.09865
1.441e+10  0.05303  -0.06038  0.4588  -0.5092  0.06534  -0.7204  -0.01111  0.1086
1.475e+10  0.02375  0.003742  0.4695  0.4898  0.6505  -0.3059  0.02444  0.04879
1.508e+10  0.04945  0.02927  -0.4878  0.4724  0.6069  0.393  -0.01552  0.1552
1.542e+10  -0.05014  -0.1209  -0.4406  -0.5354  -0.02012  0.7305  -0.1011  -0.06391
1.575e+10  0.07289  0.124  0.5704  -0.4249  -0.6157  0.3931  0.04765  0.02421
1.609e+10  0.06305  -0.0456  0.4011  0.5733  -0.687  -0.2746  -0.06191  -0.06659
1.642e+10  -0.1586  0.0273  -0.5612  0.3895  -0.0964  -0.728  0.1079  -0.0667
1.676e+10  0.1403  -0.07006  -0.3619  -0.585  0.5161  -0.4603  0.04027  0.04543
1.709e+10  -0.09301  0.08379  0.5517  -0.3835  0.6952  0.1667  0.116  -0.03485
1.743e+10  0.01907  0.02503  0.3755  0.5521  0.2446  0.6949  0.01427  0.09764
1.776e+10  -0.02383  -0.08396  -0.6035  0.3042  -0.4626  0.5149  0.04645  0.02935
1.81e+10  0.07599  0.1508  -0.2586  -0.5786  -0.6595  -0.09545  -0.1138  0.1035
1.843e+10  -0.1668  -0.09405  0.5713  -0.2864  -0.2792  -0.6217  -0.07975  -0.05695
1.877e+10  0.07351  -0.006528  0.3034  0.5942  0.3441  -0.601  -0.09154  0.04835
1.91e+10  -0.009214  0.0781  -0.569  0.2742  0.7266  0.005424  -0.08132  -0.136
1.944e+10  -0.07436  -0.02625  -0.2847  -0.5972  0.3707  0.5944  0.02067  -0.01016
1.977e+10  0.05105  -0.04926  0.6011  -0.2858  -0.2812  0.6389  -0.03095  -0.1483
2.011e+10  -0.02391  0.08516  0.1779  0.6264  -0.6937  0.1007  0.1579  -0.01214
2.044e+10  -0.008815  -0.06645  -0.6131  0.1981  -0.4701  -0.5202  -0.01157  0.0196
2.078e+10  0.04944  0.05332  -0.1545  -0.6358  0.1944  -0.6339  0.05666  0.01618
2.111e+10  0.0357  -0.1016  0.6479  -0.1454  0.6703  -0.1794  -0.08888  0.03933
2.145e+10  -0.06742  0.07834  0.1356  0.6413  0.5158  0.4566  -0.02069  -0.01368
2.178e+10  0.1074  -0.1175  -0.5997  0.1468  -0.1193  0.6845  -0.126  0.04008
2.212e+10  -0.04929  -0.01758  -0.0922  -0.6595  -0.6601  0.2756  0.05883  -0.07856
2.245e+10  0.06774  0.0552  0.6222  -0.04737  -0.5899  -0.4061  -0.008264  0.0002893
2.279e+10  -0.1683  -0.1114  0.01371  0.6103  -0.009297  -0.6755  0.06678  -0.1557
2.312e+10  0.2365  0.03742  -0.6231  0.02714  0.5477  -0.3922  0.1151  0.05644
2.346e+10  -0.1592  -0.00415  0.0133  -0.6377  0.6041  0.2717  0.08958  -0.07718
2.379e+10  0.05647  -0.04965  0.6385  0.04533  0.1337  0.6649  0.07202  0.02674
2.413e+10  0.02353  0.004294  -0.08518  0.6361  -0.522  0.4394  -0.01797  0.01633
2.446e+10  -0.113  0.1445  -0.6089  -0.07426  -0.6301  -0.1887  0.04244  0.1125
2.48e+10  0.06416  -0.1642  0.1229  -0.6392  -0.2085  -0.6548  -0.07696  -0.03454
2.513e+10  0.01085  0.1786  0.6223  0.08968  0.4287  -0.5277  0.05046  0.07086
2.547e+10  -0.07704  -0.07081  -0.1438  0.5997  0.6938  0.1048  -0.07854  -0.03077
2.58e+10  -0.008154  0.04932  -0.6349  -0.1608  0.311  0.6224  0.1395  -0.01643
2.614e+10  0.00542  0.0644  0.1879  -0.5828  -0.371  0.5947  -0.003813  -0.0007261
2.647e+10  -0.02598  -0.007266  0.6116  0.1936  -0.6984  0.03384  0.07827  -0.0396
2.681e+10  0.06008  -0.01307  -0.222  0.5852  -0.352  -0.5787  -0.0963  0.1163
2.714e+10  -0.1489  0.06334  -0.5508  -0.2519  0.2682  -0.6121  0.04127  -0.02989
2.748e+10  0.1877  -0.1166  0.2099  -0.586  0.6694  -0.125  -0.08312  0.1363
2.781e+10  -0.182  0.07053  0.5553  0.2317  0.45  0.5147  -0.06258  -0.03795
2.815e+10  0.1394  -0.1222  -0.2753  0.5175  -0.1524  0.6344  0.007725  0.1346
2.848e+10  -0.0619  0.07746  -0.5496  -0.2648  -0.6284  0.2303  -0.07991  -0.02568
2.882e+10  -0.03884  -0.03397  0.3046  -0.5301  -0.5144  -0.4399  0.0431  0.0812
2.915e+10  0.1287  -0.1088  0.5652  0.2975  0.09167  -0.6609  -0.07946  -0.02523
2.949e+10  -0.07728  0.1353  -0.3461  0.4838  0.6209  -0.2588  0.07837  0.05128
2.982e+10  -0.009049  -0.2657  -0.4898  -0.3572  0.484  0.3046  -0.1251  0.07372
3.016e+10  0.09692  0.1815  0.3234  -0.5094  0.04503  0.6779  0.0269  -0.002112
3.049e+10  -0.1017  -0.0643  0.4588  0.3874  -0.5165  0.3371  -0.09198  0.05995
3.083e+10  0.002594  -0.03186  -0.4355  0.4606  -0.6264  -0.2559  0.007788  -0.02029
3.116e+10  0.08399  0.01856  -0.4288  -0.3735  -0.08844  -0.6537  -0.0682  -0.03617
3.15e+10  -0.2302  0.08084  0.421  -0.4816  0.465  -0.4205  0.09933  -0.1103
3.183e+10  0.143  -0.05206  0.3957  0.4645  0.6443  0.1285  -0.02498  -0.004105
3.217e+10  -0.1075  0.1244  -0.4393  0.4228  0.1966  0.655  0.02629  -0.1393
3.25e+10  -0.009163  -0.09106  -0.4468  -0.4418  -0.4406  0.4749  0.07299  0.06752
3.284e+10  -0.06193  0.0666  0.4932  -0.3467  -0.6538  -0.0737  -0.05562  -0.09149
3.317e+10  -0.129  0.003361  0.3495  0.476  -0.2829  -0.5708  0.04672  -0.01974
3.350e+10  0.1162  -0.07909  -0.4856  0.3607  0.3084  -0.579  0.0136  -0.06646
3.384e+10  -0.05971  0.1133  -0.3081  -0.5107  0.6596  0.002749  0.02468  -0.03364
3.417e+10  -0.04192  -0.2436  0.4933  -0.278  0.3655  0.4817  -0.01477  -0.1483
3.451e+10  0.07119  0.1147  0.3052  0.5087  -0.2424  0.5822  0.08197  0.04819
3.484e+10  -0.07784  -0.1143  -0.5256  0.2864  -0.6254  0.08592  -0.08823  -0.08135
3.518e+10  0.07396  0.02821  -0.2401  -0.5343  -0.4265  -0.4647  0.1305  -0.02719
3.551e+10  0.003446  -0.0803  0.5116  -0.2831  0.1485  -0.6223  -0.0988  0.05247
3.585e+10  -0.06701  -0.007787  0.2515  0.543  0.6031  -0.1908  0.1245  -0.05133
3.618e+10  0.07054  -0.07836  -0.5283  0.21  0.4653  0.3898  -0.03608  0.1287
3.652e+10  -0.0941  0.04281  -0.2068  -0.5434  -0.06015  0.6386  0.03084  -0.08473
3.685e+10  0.124  -0.1055  0.5429  -0.1975  -0.561  0.2802  0.02093  0.0696
3.719e+10  -0.1155  0.05136  0.1243  0.5638  -0.5544  -0.3097  -0.01249  -0.05475
3.752e+10  0.06206  0.0661  -0.5659  0.127  -0.02143  -0.6403  0.002278  -0.005731
3.786e+10  0.007037  -0.05015  -0.1613  -0.5619  0.4969  -0.3724  -0.005528  -0.00663
3.819e+10  -0.01234  0.1797  0.5681  -0.1086  0.5764  0.2409  0.0445  0.09637
3.853e+10  -0.03008  -0.1055  0.08598  0.5597  0.1133  0.5944  -0.02986  -0.04601
3.886e+10  -0.01927  0.2149  -0.5515  0.04435  -0.4502  0.4411  0.1639  0.1037
3.92e+10  -0.02656  -0.04071  -0.06141  -0.569  -0.6107  -0.1323  -0.1129  0.01118
3.953e+10  -0.01521  0.07829  0.5688  -0.03945  -0.2075  -0.5998  0.1446  -0.03857
3.987e+10  0.06892  0.002352  0.007966  0.5808  0.3811  -0.4748  -0.08252  0.1093
4.02e+10  -0.1273  0.1092  -0.5463  -0.002339  0.5985  0.02966  -0.03259  -0.1052
4.054e+10  0.1063  -0.02521  0.0446  -0.5851  0.2917  0.5543  -0.02177  0.08457
4.087e+10  -0.0845  0.06611  0.548  0.03022  -0.3073  0.5296  -0.06175  0.0239
4.121e+10  0.105  -0.08183  -0.08044  0.56  -0.5982  0.02516  -0.102  0.07802
4.154e+10  -0.08146  0.006265  -0.5705  -0.07814  -0.3538  -0.5024  0.02987  -0.07514
4.188e+10  0.04779  -0.06143  0.06735  -0.5078  0.188  -0.589  -0.0186  0.13
4.221e+10  -0.03956  -0.01639  0.5842  0.1214  0.609  -0.17  -0.03141  -0.1359
4.255e+10  0.02337  -0.01483  -0.1529  0.5081  0.4234  0.4227  0.06484  0.1056
4.288e+10  -0.05342  -0.1463  -0.5101  -0.1543  -0.1117  0.5833  -0.1795  -0.08829
4.322e+10  0.1263  0.05931  0.1341  -0.5428  -0.5747  0.1978  0.06709  -0.02301
4.355e+10  -0.1061  -0.1116  0.514  0.2185  -0.4401  -0.3366  -0.1802  0.002035
4.389e+10  0.04445  0.06376  -0.2114  0.5245  0.03831  -0.6192  0.07711  -0.05461
4.422e+10  0.01353  -0.1227  -0.5174  -0.1908  0.5441  -0.2699  -0.06963  0.04877
4.456e+10  -0.06048  0.13  0.2165  -0.518  0.549  0.2906  0.07564  -0.06128
4.489e+10  0.03877  -0.1114  0.4934  0.1819  0.03898  0.6215  0.01862  0.05711
4.523e+10  -0.01868  0.1252  -0.2322  0.5011  -0.463  0.3608  0.04726  -0.07162
4.556e+10  0.004349  -0.1064  -0.5083  -0.2372  -0.6187  -0.1748  -0.02379  0.05907
4.59e+10  -0.02787  0.1096  0.2745  -0.4721  -0.1562  -0.5936  0.02078  -0.1635
4.623e+10  0.02514  0.02211  0.4789  0.3202  0.4519  -0.4376  0.01972  0.08852
4.657e+10  -0.03274  0.07613  -0.3201  0.432  0.5925  0.09341  -0.1036  -0.1142
4.69e+10  0.08469  0.05135  -0.4335  -0.3678  0.2022  0.5653  0.1621  0.04802
4.724e+10  -0.06074  -0.01756  0.3511  -0.4528  -0.3262  0.5022  -0.04901  0.04595
4.757e+10  0.05136  0.1158  0.4465  0.401  -0.6097  -0.05074  0.09413  -0.06021
4.791e+10  -0.1059  0.03287  -0.3737  0.425  -0.3205  -0.5364  0.05963  0.08597
4.824e+10  0.1438  0.00373  -0.4535  -0.3868  0.2772  -0.5445  0.02017  -0.0197
4.858e+10  -0.01329  0.03767  0.4161  -0.4042  0.6117  -0.05958  -0.03638  -0.01898
4.891e+10  -0.0734  0.01274  0.4094  0.3964  0.3678  0.4551  0.05641  0.0415
4.925e+10  0.05875  -0.09753  -0.4041  0.3965  -0.1964  0.5952  -0.1385  0.09491
4.958e+10  0.03988  0.1634  -0.3691  -0.4522  -0.6082  0.1581  0.0178  -0.1196
4.992e+10  -0.03767  -0.1944  0.4458  -0.3437  -0.4629  -0.4073  -0.006178  0.1001
5.025e+10  0.09683  0.01694  0.3598  0.4773  0.09352  -0.5978  -0.04741  -0.08392
5.059e+10  -0.06205  -0.01081  -0.4893  0.3179  0.5816  -0.2128  0.1455  0.06468
5.092e+10  -0.006536  0.005679  -0.3393  -0.4826  0.467  0.3395  -0.05048  0.02991
5.126e+10  0.06004  -0.05615  0.4502  -0.3628  0.0502  0.6377  0.07213  0.02311
5.159e+10  0.03947  0.02642  0.3487  0.4687  -0.5346  0.3088  -0.06901  0.05453
5.193e+10  0.00626  -0.01724  -0.5145  0.268  -0.5606  -0.2664  -0.05428  0.01135
5.226e+10  -0.02535  0.04512  -0.3569  -0.4269  -0.05945  -0.5862  -0.01114  0.02118
5.26e+10  0.03808  -0.05811  0.4593  -0.39  0.4211  -0.4025  -0.04229  -0.00711
5.293e+10  -0.00666  0.05082  0.2858  0.5435  0.6338  0.1937  -0.07117  -0.02863
5.327e+10  -0.02319  0.0783  -0.4974  0.1911  0.1317  0.5857  0.07258  -0.03783
5.36e+10  0.06014  -0.02259  -0.3191  -0.5042  -0.3937  0.4655  -0.01336  0.02557
5.394e+10  0.02624  0.1108  0.4721  -0.3164  -0.5583  -0.07036  -0.0717  -0.1151
5.427e+10  -0.03696  -0.07833  0.1858  0.5601  -0.2785  -0.5299  0.02512  0.05571
5.461e+10  0.0585  0.009556  -0.4709  0.2064  0.2899  -0.4812  -0.06651  -0.03602
5.494e+10  -0.06121  0.0595  -0.2961  -0.4633  0.5874  -0.06396  0.04026  -0.08628
5.528e+10  0.1089  -0.01983  0.4981  -0.1994  0.3176  0.4958  -0.06831  0.02512
5.561e+10  0.01147  0.02725  0.2029  0.5288  -0.2224  0.5535  -0.01733  -0.0161
5.595e+10  -0.01006  -0.03649  -0.4652  0.2394  -0.5671  0.1296  0.008255  0.005097
5.628e+10  -0.03793  -0.02685  -0.2036  -0.3827  -0.4467  -0.3723  -0.04929  -0.07225
5.662e+10  0.06675  0.02112  0.5044  -0.1956  0.1448  -0.5975  -0.06631  0.03433
5.695e+10  -0.03544  0.05961  0.1857  0.499  0.6091  -0.1394  0.0313  -0.02481
5.729e+10  0.04945  -0.1205  -0.52  0.2885  0.4359  0.3644  0.05813  -0.01052
5.762e+10  -0.034  0.007541  -0.2659  -0.4574  -0.1005  0.5607  -0.01774  -0.004741
5.796e+10  -0.0523  -0.03749  0.4404  -0.2133  -0.5921  0.2152  0.0772  0.07148
5.829e+10  0.1083  0.00303  0.1529  0.5459  -0.4311  -0.393  -0.06978  0.08109
5.863e+10  -0.03708  0.03527  -0.5447  0.1138  0.02328  -0.5811  0.1083  -0.04174
5.896e+10  0.07484  -0.177  -0.2026  -0.5476  0.4837  -0.2413  -0.04542  0.105
5.93e+10  -0.03214  0.109  0.5203  -0.1303  0.4565  0.309  -0.02811  0.0004736
5.963e+10  -0.01201  -0.06939  0.1371  0.5444  -0.02561  0.5884  0.03858  0.05395
5.997e+10  0.0735  0.02538  -0.6204  0.08722  -0.5148  0.301  0.004264  0.001115
6.03e+10  -0.00104  0.009961  -0.1235  -0.6068  -0.5158  -0.1866  -0.01876  0.09115
6.064e+10  0.01196  -0.03243  0.4787  -0.1302  -0.0159  -0.6412  -0.01765  -0.05123
6.097e+10  0.08186  0.0201  0.05786  0.5664  0.4096  -0.3617  0.1173  0.1129
6.131e+10  -0.1023  -0.01552  -0.5283  0.008101  0.6019  0.1326  -0.09918  -0.0516
6.164e+10  0.09022  -0.05321  -0.01377  -0.5295  0.1925  0.5686  0.05579  -0.06312
6.198e+10  -0.08172  0.07143  0.5501  0.01913  -0.3723  0.4479  -0.08354  0.07538
6.231e+10  0.02119  -0.03497  -0.04901  0.5401  -0.5588  -0.01636  0.01402  -0.05981
6.265e+10  0.1048  0.02108  -0.5006  -0.04991  -0.2622  -0.4856  -0.07434  -0.02394
6.298e+10  -0.1003  0.02745  0.06475  -0.5133  0.2472  -0.45  0.01598  -0.02454
6.332e+10  0.07549  -0.1852  0.5637  0.1077  0.5871  -0.03707  -0.04122  0.09243
6.365e+10  -0.102  0.2102  -0.09574  0.5226  0.396  0.4618  0.02361  -0.1971
6.399e+10  0.02371  -0.1168  -0.4915  -0.0804  -0.1725  0.5374  0.01862  0.04754
6.432e+10  0.04706  0.1922  0.1183  -0.5022  -0.5646  0.1495  -0.1091  -0.037
6.466e+10  -0.03827  -0.1688  0.5368  0.1282  -0.4279  -0.3405  0.1011  0.02103
6.499e+10  0.01456  0.006384  -0.1496  0.5259  0.1044  -0.5892  -0.08185  -0.06782
6.533e+10  -0.01823  0.1331  -0.4954  -0.1714  0.5223  -0.1907  0.01372  0.05371
6.566e+10  -0.06554  -0.08195  0.1176  -0.4619  0.4391  0.3491  -0.106  0.01879
6.6e+10  0.1941  0.1679  0.4853  0.1932  -0.03902  0.5744  0.1577  -0.1007
6.633e+10  -0.1984  -0.1298  -0.2354  0.4917  -0.4765  0.2078  -0.0922  -0.009077
6.667e+10  0.1936  0.0305  -0.449  -0.1959  -0.4697  -0.2589  -0.006198  -0.1249