# GHZ S RI R 50
0.2	0.00590075740794218	0.00124083427640817	0.00304834057548073	-0.000897934802217194	0.003058709234598	-0.000891125913695584	-0.0140497760699902	0.00489261373941713
0.3	0.00621477540488057	-0.000705038541505218	0.00290412086527051	-0.00132135903366929	0.00289687472787666	-0.00130842034948267	-0.0132568661384167	0.00509554399910965
0.4	0.00597075107923669	-0.00234947012928938	0.00267248290572795	-0.00169312369055467	0.00267775016544759	-0.00170168423803171	-0.0127357760046615	0.0056417269112671
0.5	0.00526776791861318	-0.0037406371075922	0.00241361764522124	-0.0020498007159145	0.00242515457380393	-0.0020620404400682	-0.0122165365286887	0.00625195356939847
0.6	0.00425895748294119	-0.00479911280875341	0.00210107854335862	-0.00236423877452162	0.00210029199821343	-0.00237138796054705	-0.0117343791780766	0.00681904007566202
0.7	0.00297839268807864	-0.00549165420057809	0.00175393257191424	-0.00264194511780826	0.00175197668609689	-0.00264214390515454	-0.0113809359501161	0.00741450038234855
0.8	0.00165173604955791	-0.00584264372063672	0.0013685331763548	-0.00285926938294958	0.00135593414437145	-0.00286381795847199	-0.0110363598046409	0.00814756856987499
0.9	0.000234695591581829	-0.00582642661928231	0.000951516009421125	-0.00302275857583745	0.000952550726022527	-0.0030334568925761	-0.0106357905965383	0.00892410613079211
1	-0.00113520534478695	-0.00552764991242516	0.000526742107426932	-0.00312612751358597	0.000516881233978927	-0.00312686737773928	-0.0101203381266894	0.00972973401080765
1.1	-0.00249607846033596	-0.00500974485614754	7.11976548112449E-05	-0.00315489836070662	6.76907975893805E-05	-0.003172546957275	-0.00959666993341717	0.0105825412844721
1.2	-0.00381166365374853	-0.0044864394880026	-0.000370858875770063	-0.00314427493125306	-0.000371670542063847	-0.00314219873711162	-0.00869482658688462	0.0114209949262652
1.3	-0.00523514055077284	-0.00401765423668377	-0.000797904230477959	-0.00306106740316974	-0.000801143906239657	-0.00306307234141172	-0.00722552431835875	0.0120691622915289
1.4	-0.0064477240306146	-0.00335846723744957	-0.00121912401795885	-0.00291283395586473	-0.00121791117086482	-0.00291836645548462	-0.00556446885687479	0.0120275140806969
1.5	-0.00694014877085493	-0.00221514788278577	-0.00161990709576142	-0.00271700337157279	-0.00161829531634378	-0.00272550266831647	-0.00416719239170731	0.0115985202969258
1.6	-0.00684118153215622	-0.000737669848589237	-0.00198039626143535	-0.00246465082524386	-0.00198060713922175	-0.00246988448503497	-0.00355936919031538	0.0114435161593473
1.7	-0.00623786107766632	0.00071822957043886	-0.00230878784188654	-0.00216787838841118	-0.0023097534731752	-0.00216161762180611	-0.00293791575446323	0.0115968536397382
1.8	-0.0053318629238216	0.00211331808073304	-0.00257982132251229	-0.00181648628914915	-0.00259078589237727	-0.00182212259838622	-0.0022666748949168	0.0117531515854728
1.9	-0.00415053237247177	0.00317652736256036	-0.00280520302047193	-0.00144585436800786	-0.00281764167270914	-0.00143970212079843	-0.00161036919045539	0.0119047578894669
2	-0.00281249063263935	0.00393420215330139	-0.00298094692186124	-0.00103824307828431	-0.00299056794474288	-0.00103353534698633	-0.000967530528536773	0.012118864526678
2.1	-0.00135968946747219	0.00429727153169491	-0.00309447985101415	-0.000609827351144179	-0.00309039689693699	-0.000611818906898273	-0.000161002792266721	0.0122481360114342
2.2	8.98585310693994E-05	0.00434271057980667	-0.00315188338623566	-0.000171497498368443	-0.00316318618927643	-0.000174332948389551	0.000820913895780635	0.0122404785363585
2.3	0.00148044011300541	0.00394501610830758	-0.00314719837598579	0.000271987814113711	-0.00314689638854274	0.000265105488530781	0.00176082496204044	0.0119645554318858
2.4	0.00268729318628716	0.00324994238701849	-0.00307465693902531	0.000710403684159448	-0.00307719829011113	0.000706146990772756	0.00261827535497728	0.0116292533845043
2.5	0.00365888778608953	0.00224438477662534	-0.00293742082750242	0.00112274865894333	-0.00294830798911366	0.001129129762599	0.00343823546853666	0.0111627630872061
2.6	0.00439611340780052	0.00105732846744326	-0.0027632466838549	0.00152580216655178	-0.00275969249222533	0.00151348013096412	0.00420006021263167	0.0106132844549405
2.7	0.00495722114372659	-0.000221231996931677	-0.0025170377536631	0.00189708346740785	-0.0025223171350705	0.00189709568889935	0.00477733529142805	0.0100391397472822
2.8	0.00544718046742474	-0.00163805308410236	-0.00223381526630442	0.00222439081619113	-0.00222600007963301	0.00223417702090367	0.00527292462787244	0.00964095896050057
2.9	0.00581299224092717	-0.00329946784076612	-0.00189918502558366	0.00252426567829512	-0.00189547679299259	0.00252383776522751	0.0059994563844641	0.0093867186336836
3	0.00579695159287852	-0.00518826918175342	-0.00151265611508154	0.00275930731271372	-0.00152743163796215	0.00276540964012447	0.00691371140255613	0.00907708134475116
3.1	0.00536917902951435	-0.00714483751424422	-0.00112224644200879	0.00293601351878822	-0.0011175884312841	0.00294435270902753	0.00778927226559055	0.00856435628473055
3.2	0.00436198143967175	-0.00905117736696555	-0.000701682834481928	0.00307271847898549	-0.000703426982615259	0.00307210846087034	0.00841950575516053	0.00804774003882198
3.3	0.0028821716593815	-0.010843302356274	-0.000263314689407003	0.00314208388678754	-0.000261667342227499	0.00313834443765899	0.00911702841981704	0.00743910990195762
3.4	0.000879646135739954	-0.0122531755312372	0.000183349759057376	0.00313562356478951	0.000177150276156091	0.0031521843930881	0.00979050691401175	0.00660605198169454
3.5	-0.00144950440387668	-0.0132733123804093	0.000604892644249209	0.00309243648879578	0.000610486690004359	0.00309251084689512	0.0101924680562656	0.00552952540120053
3.6	-0.00404674948899115	-0.0137306639061349	0.00103312409451639	0.00297298249983507	0.00104131342557137	0.00297266358147183	0.0103878499079979	0.00461935803276954
3.7	-0.00669010979709006	-0.013619495148892	0.00144346354954499	0.00279180561355869	0.00143388253831843	0.00280547905582908	0.0106233121096048	0.00376662612266892
3.8	-0.0092924234341235	-0.0129587313285576	0.00182136828081623	0.00256451617168466	0.00182377335689013	0.00257366307916758	0.0107844772950921	0.00287911211342771
3.9	-0.0116610549516712	-0.0118151967886922	0.00216697422804537	0.00229128483567282	0.00215971047278195	0.00228950712602901	0.0108120924535435	0.00199002504583343
4	-0.0138104918524907	-0.0102430647792387	0.00245149595898192	0.00197001826458541	0.00245594330140045	0.00196758383429787	0.010786309729581	0.00126711716681811
4.1	-0.0156221122355344	-0.00824931771966851	0.00270330486470984	0.00161000637637004	0.00270205267728884	0.00161074217160619	0.0109085870265498	0.000683564571975824
4.2	-0.0170336331396777	-0.00590366067833515	0.00290238829413012	0.00120868500492947	0.00290685200307666	0.00119997044611123	0.0111335503225312	4.3452845538601E-05
4.3	-0.0179902043102565	-0.00341348975479446	0.00304521271072555	0.000796472772878725	0.00305163274030811	0.000788670610455137	0.0113525862967216	-0.000804299874339704
4.4	-0.0186090127648739	-0.000749767534985487	0.00312126529356444	0.000362272218280887	0.00312363877210421	0.00036001581863814	0.0113687557402956	-0.00169725720353035
4.5	-0.0187901746493725	0.00205808268919013	0.00314369072678215	-7.57427496535682E-05	0.0031490491608055	-7.91161602329616E-05	0.0113344111641666	-0.00255770342076609
4.6	-0.0185394083846629	0.00488678219906824	0.00309929415330873	-0.00051846625733521	0.00310052512312368	-0.000505557107979756	0.0111879175158218	-0.0034973208916515
4.7	-0.0176906516177432	0.00771562381617015	0.00299375548449437	-0.000937082333868522	0.00300903369870656	-0.000946699053440531	0.0108733716435304	-0.00443052365110828
4.8	-0.0163437284179723	0.0103665650930602	0.00283242666087051	-0.00135086898023931	0.0028409001307814	-0.00135695732416948	0.0104576154337757	-0.00523024954734388
4.9	-0.014311484367647	0.0127109594509444	0.00261149754268062	-0.00173462007401067	0.0026156623662067	-0.00173171757405468	0.0100813220310238	-0.00585425282492996
5	-0.0118037913511127	0.0145074998844646	0.00235168991969884	-0.00208929486074235	0.00235531017702678	-0.00208663299267143	0.00999333779671799	-0.00638083154083435
5.1	-0.00880712196246582	0.0157335624829553	0.00204094283679444	-0.00239938768873756	0.00204324220477705	-0.00239803131895123	0.010047300045242	-0.00709743306303988
5.2	-0.00572107554871907	0.0162234941663089	0.00168355206066337	-0.00264878232920149	0.0016852631808861	-0.0026539214577453	0.0100060388838547	-0.00794042301336214
5.3	-0.00270110720870211	0.0160766545443247	0.00129718805490152	-0.00286375988571083	0.00130031819098699	-0.00286169923993942	0.00980906039292344	-0.00875684687610411
5.4	7.82330437863724E-05	0.0154468783180588	0.000872805900404556	-0.00301091391422097	0.000889955656913928	-0.00302211359914938	0.0095186061661347	-0.00966534203491227
5.5	0.00258170869217436	0.0144621053484485	0.000459710442497363	-0.00310851835360439	0.000469754473958813	-0.00311793829674993	0.00899165814310343	-0.0106099567240809
5.6	0.00482074819357431	0.0130932457801225	2.17401707754073E-05	-0.0031444887481456	1.32221511682041E-05	-0.00314770484250949	0.00816657353599976	-0.0113660884608696
5.7	0.00665837115514805	0.0114020244541132	-0.00040878331590465	-0.00311395976542269	-0.000425381142219892	-0.00311761799853145	0.00720391914198908	-0.0118345423665782
5.8	0.00809865130259164	0.00942992483282197	-0.000854165767703286	-0.00301912362277256	-0.000857697089986566	-0.00303310080926523	0.00626738380044139	-0.0122918413913034
5.9	0.00905276808848063	0.00731979117046663	-0.00125859037021885	-0.00287933022096316	-0.00126681385010467	-0.00287924948723242	0.00518883349873255	-0.0126447516768329
6	0.00950980331046383	0.00505340918194964	-0.00165641933272458	-0.00267332052702455	-0.00165286110079251	-0.00267348663553832	0.00397691362589082	-0.0127455080887965
6.1	0.00948766547520433	0.00273637844173049	-0.00201116495057347	-0.00241907510631212	-0.00201280336273132	-0.00241507425069405	0.00301948179302074	-0.0125579672276765
6.2	0.00897865547327492	0.000392164284726673	-0.00232363488567371	-0.00210616940014684	-0.00232734017049907	-0.00211803076971029	0.00237699132794287	-0.0124652728179956
6.3	0.00806811389947326	-0.00188905356209627	-0.00260110294610599	-0.00177198226559684	-0.00261022395462363	-0.00176624857287135	0.00187785942247745	-0.0126489216619299
6.4	0.00666117967639087	-0.00404067916176194	-0.00282711368289103	-0.00138166943926989	-0.00281739696866227	-0.00138656767559201	0.00140574165648833	-0.0129752247947629
6.5	0.00488183734756114	-0.00587047232749498	-0.00298349074093619	-0.000977065084002083	-0.00299134559896363	-0.000972587810487869	0.000949093930311093	-0.0134379663593288
6.6	0.00276695850699495	-0.00718000510370696	-0.00309157570568888	-0.000552493007249239	-0.00309320725209927	-0.00055646669536481	0.000380041791840214	-0.0139684307663438
6.7	0.000439400159905896	-0.00786380747563568	-0.00314219446372069	-0.00011512008592166	-0.00315104219888893	-0.000108847565620665	-0.000596857871375877	-0.0143503719670286
6.8	-0.0019564880255336	-0.00787204352312897	-0.00312077952022742	0.000325922769198071	-0.00313186467694446	0.000330964822059822	-0.00173517773699338	-0.0143260905096084
6.9	-0.00425849061161401	-0.00727943270769695	-0.0030456284690632	0.000758827213439967	-0.00304861360864987	0.000761215282162077	-0.00272137114638959	-0.0140308623270411
7	-0.00629254192179186	-0.0061515695829478	-0.00290930062413422	0.00117912227331941	-0.00292211948305614	0.00117692453327337	-0.00354503341294017	-0.0137050009381023
7.1	-0.00809015411598608	-0.00460731460679905	-0.00273202928254849	0.00156751505470433	-0.00272837068040256	0.00157617544953694	-0.00438638415635879	-0.0132623831455109
7.2	-0.00954363880034765	-0.00267728123806896	-0.00247622254960341	0.00193517763920023	-0.00248274835182712	0.0019372527848065	-0.00505467625989407	-0.012681251308334
7.3	-0.0106599106914712	-0.000475364261093744	-0.00218157323516315	0.00225410981392642	-0.00219278152133438	0.0022591547016054	-0.00547598438054165	-0.0121838504395707
7.4	-0.0113916486519125	0.0019210654542413	-0.0018408946850681	0.00253740150913934	-0.00184778191663577	0.00255099834609031	-0.00590914483923382	-0.0119341127665183
7.5	-0.0116415451297304	0.00443808219266137	-0.00147616519186029	0.00277704894018529	-0.0014691807624264	0.00278444593619063	-0.00624166968578312	-0.0118170270389284
7.6	-0.0112445477073828	0.00690450908430701	-0.0010706735530393	0.00295621479134094	-0.00107204452097296	0.00295151836900449	-0.00652098065687566	-0.0119254799462903
7.7	-0.0103741254282112	0.00913665635530662	-0.000642824431936636	0.00307835600133575	-0.000644163530418043	0.00307729355180283	-0.00709185383924014	-0.0125005296497461
7.8	-0.00881356724001043	0.0109790057974685	-0.000217329323811244	0.00312837695672352	-0.00022514061093719	0.00313482810745452	-0.00799537456255315	-0.012849187399451
7.9	-0.00675269629908272	0.0123349293248922	0.000223844329367741	0.00313635090132736	0.000231784826719406	0.00313785502861966	-0.00901001314482961	-0.0128351313157529
8	-0.00439051041476387	0.013243742469138	0.000665924743910459	0.00306500216258654	0.000666003073110622	0.00306990247479967	-0.0100569657341882	-0.0125840548702175
8.1	-0.00174466192626967	0.0136894789379543	0.0010768906537159	0.00294787096785645	0.00109604125673277	0.00294896862856768	-0.0110078570258639	-0.012033623698616
8.2	0.00092646878964241	0.0135959386010755	0.0014821265741816	0.00276740570470218	0.00149137952786573	0.0027602135891681	-0.0117426476995457	-0.0113056012934401
8.3	0.00352178918697239	0.0129379068086487	0.00185919111001797	0.00252860464343119	0.00185754154085935	0.00254215871744435	-0.012305023359038	-0.0105913547091699
8.4	0.00588313532985167	0.0118339127261706	0.00219554892499977	0.0022509425459714	0.00219251748430589	0.00225071701385478	-0.0128474953146739	-0.009968654635251
8.5	0.00796758729362846	0.0102609693162233	0.00248187557732736	0.00192018940360245	0.00248097748975959	0.00192337409064018	-0.0134817349830155	-0.00929062658648028
8.6	0.00967702615338116	0.00834433723594774	0.00272843141886634	0.00155960024346807	0.00273793539779705	0.00155305779980351	-0.0140577909685928	-0.0085398939095467
8.7	0.0110097272764336	0.00606541270474982	0.0029144642098188	0.00115664472635634	0.00292002609285864	0.00115736841533658	-0.0145484131670559	-0.00777541993383981
8.8	0.0118816996678591	0.00351258907956348	0.00305123024397281	0.000745533257642334	0.0030570012134131	0.000736770422481554	-0.0150524619305532	-0.00706577879950776
8.9	0.0123223130947389	0.000667605116890653	0.00312877509108028	0.000311348115249902	0.00312790383994871	0.000309100235080092	-0.0153376963791939	-0.00618803042603442
9	0.012165659405906	-0.0024463586948174	0.00313863991570314	-0.000132089254165953	0.00314179790420665	-0.000127986795508255	-0.0153353195962287	-0.00528243254409371
9.1	0.0113353714645864	-0.0056849179184934	0.00309253475621122	-0.000573682624011581	0.00309542033626464	-0.000560782127261765	-0.0151137093551412	-0.0045498330541556
9.2	0.0096066578003456	-0.0088153520493778	0.00298313591818417	-0.000991460530421081	0.00299079540917292	-0.000994338040877634	-0.0149351213099425	-0.00404199718541549
9.3	0.0070545753045335	-0.0114500654727982	0.00281467502024728	-0.0013969538524087	0.00281394401856237	-0.0014019456403242	-0.0148153849781375	-0.00350189018707982
9.4	0.00391215665817598	-0.0133423934712495	0.0025923723588062	-0.00178749033813834	0.00259888554917645	-0.00177989046960135	-0.014714923915834	-0.00293190216556678
9.5	0.000406721605518357	-0.0143250247279922	0.0023173923791153	-0.00212219237206958	0.00232480656511685	-0.00212353999130002	-0.014568260471103	-0.00231356224057018
9.6	-0.00329956728175392	-0.0145609498881701	0.00200044773930888	-0.00242638489164606	0.00200077766124293	-0.00242540258143671	-0.0145980737850707	-0.0017911600941045
9.7	-0.00706500696654133	-0.013926363259868	0.00163321851359711	-0.00267753322819322	0.00163875509781623	-0.00268484164253731	-0.0146669671923212	-0.00115033139075578
9.8	-0.0107178352373884	-0.0124759600615698	0.00124808448621375	-0.0028870290703288	0.0012537841178822	-0.00287852805413316	-0.0147355848922588	-0.000425935387402016
9.9	-0.0140621412408164	-0.0101384932897521	0.000842486673038323	-0.00302687027969165	0.000835153107352831	-0.00302564371800698	-0.0148572063630624	0.000422508730223731
10	-0.0169100820367757	-0.00709150765198759	0.000411870032966259	-0.00311664731260956	0.000404378472063797	-0.00312909461605399	-0.0148413673744116	0.00137068546909807
10.1	-0.0190275009273014	-0.00342149979971908	-3.08879460511622E-05	-0.00314850534520036	-4.11229963284713E-05	-0.00314311058969122	-0.0145712559912876	0.00226546458748004
10.2	-0.0203014863068584	0.00064232315439943	-0.000477623956749695	-0.00311181403609095	-0.000481031856456351	-0.00310903390610635	-0.014080961141448	0.00306554645422136
10.3	-0.0206819111898491	0.004926304093621	-0.000910692020802302	-0.00300605319650051	-0.000902599273685969	-0.00301513007557164	-0.0134332117804325	0.00367201360138742
10.4	-0.020140691741998	0.0091860303152716	-0.0013084269262318	-0.00285118150468207	-0.001306731411405	-0.00285737956449601	-0.0126139503708268	0.00391683115610106
10.5	-0.0188022624624355	0.0133024824199788	-0.00170026870814321	-0.00265213094350677	-0.00169716224125358	-0.00263912633812139	-0.0119483908144396	0.0039194900356072
10.6	-0.0167840053862447	0.0170955467677472	-0.00205313877369861	-0.00238179814134567	-0.00205095220561816	-0.00238562253874244	-0.0115515128877381	0.00371845204963529
10.7	-0.0140498706784436	0.0207841658960423	-0.00236845609468971	-0.00207948150798149	-0.00236495927716047	-0.00207419967306099	-0.0114025420587668	0.00382259484018549
10.8	-0.0103186666282714	0.0241097711373955	-0.00263753516292451	-0.0017190670530563	-0.00263233688630899	-0.00172799667419976	-0.0112240205193129	0.00418893669241593
10.9	-0.00589864514017316	0.0266926434869606	-0.00284554449103535	-0.00134462312140685	-0.00285073318358393	-0.00134389044061038	-0.0109873376751768	0.00452211290374199
11	-0.000806631117441866	0.0283319812330098	-0.00300448847569758	-0.000927951693151354	-0.00300933543732788	-0.000934691699396118	-0.0106334723865271	0.00489692201542799
11.1	0.00461536484869522	0.0289207251055079	-0.00311267285655817	-0.000502902941197849	-0.00310181154838423	-0.000500045881399507	-0.0101573855910667	0.00519562582015278
11.2	0.0101666122379817	0.0283522149175482	-0.00314184536266967	-6.52106093134106E-05	-0.00314899977411917	-7.004567773369E-05	-0.00952787254389902	0.00542609329112214
11.3	0.0156512965927685	0.0265871395553117	-0.00311496336390345	0.000383433427821632	-0.00312650747812719	0.000373398520370231	-0.00868322955593363	0.005528668997629
11.4	0.0206194896116745	0.0237745940777628	-0.00304129113272448	0.000811142658423788	-0.0030363757056314	0.000818707677729683	-0.00790023491917249	0.00541174902716769
11.5	0.0249815534817487	0.0200022724664918	-0.00289811337222172	0.00122666496418215	-0.00290089019839328	0.00123694126638664	-0.00729303786811731	0.00502910563080852
11.6	0.0286266875050778	0.0153385104670519	-0.00270390244678567	0.00161702876721209	-0.00270388316084778	0.0016199689217328	-0.00672994147620305	0.00448510379768901
11.7	0.0313636402967537	0.00999968126359043	-0.00244280578989303	0.00197186163252433	-0.00244336887021278	0.00198046679369298	-0.006215867852475	0.00377257965916721
11.8	0.0331063348302173	0.00414435157327434	-0.00214764585469352	0.00230424503307967	-0.00215176113971497	0.00230594398842408	-0.00584432277572886	0.00299069897171458
11.9	0.0337441201772004	-0.002069059274302	-0.00179842825978521	0.00258069562274425	-0.00181145070253191	0.00258500458473212	-0.00572057158990512	0.00239786295114419
12	0.0328931122667591	-0.00830920953728062	-0.00142491181720131	0.00280413653006467	-0.00142431559046841	0.00280554846339364	-0.00586186611965765	0.0019294240598769
