# GHZ S RI R 50
0.2	0.0059023755544272	0.00124335771828647	0.00304833857812394	-0.000897935372773095	0.00305870723389771	-0.000891126491638425	-0.0140481534009489	0.00489512713006018
0.3	0.00621782918463795	-0.00070449438879375	0.00290411835012851	-0.00132135856676969	0.00289687222087367	-0.00130841989125049	-0.0132537872393134	0.00509607133575827
0.4	0.00597364023451357	-0.00235105697156694	0.00267248060148424	-0.0016931222733318	0.0026777478566029	-0.00170168281354945	-0.0127328324357022	0.00564011178181236
0.5	0.00526959672618054	-0.00374392918222765	0.00241361575866235	-0.00204979892314365	0.00242515267833933	-0.00206203863672424	-0.0122145883654396	0.00624859835733961
0.6	0.00425883393920018	-0.00480385892337848	0.0021010766525737	-0.00236423662754379	0.00210029010816888	-0.00237138580710594	-0.0117343528901782	0.00681412374387586
0.7	0.00297523209202508	-0.00549716339353403	0.00175393071742617	-0.00264194260175182	0.00175197483352454	-0.00264214138880759	-0.0113839773989927	0.00740872905617185
0.8	0.00164400303539686	-0.00584772631627774	0.00136853101775829	-0.00285926652575519	0.00135593199869819	-0.00286381509340593	-0.0110440251560371	0.00814215834089072
0.9	0.000220084827375784	-0.00582801585812473	0.000951512922169817	-0.0030227549751646	0.000952547631055411	-0.0030334532777871	-0.0106503993575866	0.00892216514812397
1	-0.00115821985734744	-0.00551780873941815	0.000526737345514326	-0.00312612136662762	0.000516876492524226	-0.00312686121775202	-0.0101433399453862	0.00973926483795335
1.1	-0.00252111200346778	-0.00497339950578566	7.11931638252939E-05	-0.00315488685662242	6.76862958388185E-05	-0.00317253538360138	-0.0096215777025866	0.0106185240947311
1.2	-0.00380922144104473	-0.00441030913761849	-0.000370858708465186	-0.00314425614901553	-0.000371670368638358	-0.00314217996659747	-0.00869076011727073	0.0114962981889397
1.3	-0.00516299736480945	-0.00393883602500559	-0.000797892391606799	-0.003061045334013	-0.000801132038707572	-0.00306305026285832	-0.00715136901079105	0.0121459816383016
1.4	-0.00634308533713159	-0.00334577933012855	-0.00121910113621949	-0.00291281862608852	-0.0012178882713388	-0.00291835107961735	-0.00545870042396231	0.0120374115533371
1.5	-0.00687611598337766	-0.00225033842625142	-0.00161987943778187	-0.00271699820727656	-0.00161826761111659	-0.00272549744328597	-0.00410375193706496	0.0115624918388513
1.6	-0.00681362418833231	-0.000774538302696079	-0.00198037287994139	-0.00246465437504027	-0.00198058372308302	-0.00246988801653162	-0.00353212838450521	0.0114044352727657
1.7	-0.00622786319979647	0.000689885066395745	-0.00230876839803076	-0.00216788563122722	-0.00230973406325747	-0.00216162488851016	-0.00292849856778127	0.0115668802123474
1.8	-0.00532990050558383	0.00209035884961119	-0.00257980455059643	-0.00181649483214414	-0.00259076906017041	-0.00182213118349934	-0.00226501949348226	0.0117296978068504
1.9	-0.00415311734742913	0.00315574380423882	-0.00280518702370819	-0.0014458639372083	-0.00281762566805097	-0.00143971177158267	-0.0016133357560376	0.0118836134070927
2	-0.00282005576668277	0.00391373165321028	-0.00298093137588554	-0.00103825477762308	-0.00299055238985367	-0.00103354711174062	-0.000975368062578554	0.0120981727651453
2.1	-0.00137498951828121	0.00427626073783325	-0.00309446442956921	-0.000609840115851532	-0.00309038148209375	-0.00061183164353707	-0.000176496024492855	0.0122268323749587
2.2	6.21779795782546E-05	0.00432367676590038	-0.00315186609716572	-0.000171512890702349	-0.00316316882673501	-0.00017434838436494	0.000793021243450776	0.0122211170799751
2.3	0.001435230647076	0.00393571474260141	-0.00314717879339351	0.000271966788141351	-0.00314687676602321	0.000265084510850154	0.00171535299897656	0.0119549623807457
2.4	0.00262536077397594	0.00326769193351035	-0.00307463698498375	0.000710372340972218	-0.00307717827959588	0.000706115662351902	0.00255479365993196	0.0116459592808477
2.5	0.00360031389205815	0.00231274977701566	-0.00293740739332162	0.00112270325657896	-0.00294829453169393	0.00112908417165487	0.00337760416224884	0.0112306633236643
2.6	0.00439259715419475	0.00117085869124493	-0.00276325216512042	0.00152574361579398	-0.00275969778953255	0.00151342173265587	0.00419451042272315	0.0107272452156586
2.7	0.00503421251647805	-0.000128754959740726	-0.00251707185149957	0.00189703008634228	-0.00252235122495146	0.0018970422020434	0.00485313380327059	0.0101327947749953
2.8	0.00555016947629773	-0.00161790483100375	-0.00223386439531954	0.00222435987228806	-0.00222604935215639	0.00223414625759949	0.00537576281088625	0.00966225161009593
2.9	0.00588689735769373	-0.00332796836871088	-0.00189923311654065	0.00252425625252	-0.00189552485287429	0.00252382838832626	0.00607503913609687	0.00935774473224339
3	0.00583682333438238	-0.00522999323539986	-0.00151269477738261	0.00275930879896677	-0.00152747045800736	0.00276541100911521	0.00695541635029368	0.00903417537901142
3.1	0.00538903972265423	-0.00718478172482615	-0.0011222802253782	0.00293601445066405	-0.00111762227832752	0.00294435372148728	0.00780999343877858	0.00852378232872723
3.2	0.00437021996024925	-0.00908779768566394	-0.00070171502395609	0.00307272134247358	-0.000703459171649243	0.00307211130541815	0.00842842232935944	0.00801022093708871
3.3	0.00288309942818879	-0.010878793924828	-0.000263346963589072	0.00314208885555832	-0.000261699574764407	0.00313834941394729	0.00911839696591715	0.00740255618822472
3.4	0.000872648810371184	-0.0122905696931709	0.000183316393759942	0.00313563122570759	0.000177116721631383	0.00315219201743572	0.00978368048615192	0.00656759988888898
3.5	-0.00146939574651031	-0.0133134404817428	0.000604854942411929	0.00309244804725615	0.000610448994530996	0.00309252247507875	0.0101725681254378	0.00548750762893436
3.6	-0.0040865780995456	-0.0137720845303611	0.00103308358937955	0.0029730045074167	0.00104127294453826	0.00297268570664361	0.0103481579981256	0.0045769564323149
3.7	-0.00676077236694697	-0.0136481239107649	0.00144342416306986	0.00279184124581018	0.00143384288708753	0.00280551459054082	0.0105527681770756	0.00373693268806537
3.8	-0.00939240309217067	-0.0129444732633124	0.00182133744293472	0.00256456913589317	0.00182374237607888	0.00257371615969375	0.0106845701495973	0.00289220311204772
3.9	-0.0117502160837194	-0.0117264518992043	0.00216696562976235	0.002291351550354	0.00215970180582749	0.00228957369674536	0.0107228814147033	0.00207748226888227
4	-0.0138184653432324	-0.0101057506823941	0.0024515183065783	0.00197008042450729	0.00245596575536291	0.00196764599931848	0.01077803104119	0.00140318302973297
4.1	-0.015542709605223	-0.00815038877931948	0.00270334428122776	0.00161004205872764	0.00270209207061034	0.00161077786197909	0.0109876083693961	0.000781329198326841
4.2	-0.0169337744293667	-0.00587917131200369	0.0029024212114572	0.00120869897211463	0.00290688497183282	0.00119998431452401	0.0112328752760862	6.68828689002756E-05
4.3	-0.0179150797658962	-0.00343592881110936	0.00304523370623559	0.000796481777153056	0.00305165379031937	0.000788679565665378	0.0114273109296578	-0.000827419356965548
4.4	-0.018563730643306	-0.000789687241919963	0.00312128099408648	0.000362283799694466	0.00312365449237716	0.000360027395216485	0.0114135335929045	-0.00173769941001155
4.5	-0.0187661955554728	0.00201571771187958	0.00314370798539181	-7.57295739401749E-05	0.00314906646285209	-7.91029795339458E-05	0.0113580535665589	-0.0026003311514184
4.6	-0.0185287792264257	0.00484523227290884	0.00309931161484834	-0.000518454027922713	0.00310054252923434	-0.000505544810250995	0.0111987617014061	-0.00353937053484891
4.7	-0.0176888490047169	0.00767397482903576	0.0029937775278249	-0.000937069920617847	0.00300905588293881	-0.000946686603545022	0.0108755794875976	-0.00447279935649199
4.8	-0.0163505280011952	0.0103208709220632	0.00283245533393185	-0.00135086047464837	0.0028409289026831	-0.00135694880762687	0.0104510829669205	-0.00527688000753929
4.9	-0.0143327851061698	0.0126585413431477	0.00261153175449791	-0.00173462117626745	0.00261569660001977	-0.00173171862543642	0.0100603046532847	-0.0059077063784979
5	-0.0118519881295596	0.0144519679932038	0.00235172299012083	-0.0020893100943122	0.00235534327859766	-0.00208664818458908	0.0099455678604408	-0.00643738657112712
5.1	-0.00889675601804205	0.0156952782034963	0.00204096855193828	-0.00239941817655562	0.00204326794910794	-0.00239806178971843	0.00995813687738206	-0.00713698265424501
5.2	-0.00584209719734309	0.0162472234319299	0.00168355478320057	-0.00264882537009582	0.00168526588998201	-0.00265396457184851	0.00988535196330555	-0.00791805303695372
5.3	-0.0027864672574281	0.0161875837625762	0.00129715809673606	-0.0028637917166188	0.00130028827587479	-0.00286173110019909	0.00972392722618465	-0.00864728620162947
5.4	9.49751381109654E-05	0.0155823770911059	0.000872763898142518	-0.00301090926262475	0.00088991342672371	-0.00302210910342966	0.00953544496926727	-0.00953111478235009
5.5	0.00267085581845096	0.0145375195222332	0.000459689500225792	-0.00310848397649076	0.000469733366141332	-0.00311790385864874	0.00908123214680491	-0.0105357258054423
5.6	0.00491393389153128	0.0130968131862595	2.17466192728062E-05	-0.00314445306473243	1.32287030214095E-05	-0.00314766914076781	0.00826034961823574	-0.0113641618964103
5.7	0.00672167119679858	0.011364214579343	-0.000408761589508315	-0.0031139349544025	-0.000425359249567457	-0.00311759325231249	0.00726747613247359	-0.0118743827271054
5.8	0.00812958301184615	0.00937597533861728	-0.000854138262074714	-0.00301911072134361	-0.000857669459718867	-0.00303308784497753	0.0062982161729593	-0.0123478908607512
5.9	0.00905577598577034	0.00726389724451325	-0.00125856229994829	-0.0028793268367886	-0.00126678574293	-0.00287924616715034	0.00519121948931399	-0.0127026457302922
6	0.00949038967386612	0.00500377253107575	-0.00165639500855961	-0.00267332694858108	-0.00165283678367341	-0.00267349302944906	0.00395695699051685	-0.0127966282733607
6.1	0.00945037826947629	0.00269651428634735	-0.00201115018299045	-0.0024190829891487	-0.00201278861422928	-0.00241508214633709	0.00298194806519506	-0.0125993918668776
6.2	0.00892651263801505	0.000365594341838598	-0.00232362620770552	-0.0021061722967578	-0.00232733145705766	-0.0021180336587596	0.00232474788393489	-0.0124934876977933
6.3	0.00800415887897966	-0.00189995897748337	-0.00260109521710663	-0.00177197520621454	-0.00261021619287573	-0.0017662415280566	0.00181433103611725	-0.0126616860402195
6.4	0.00658677796688759	-0.00403010582374607	-0.00282709730033343	-0.00138164817469775	-0.00281738067890793	-0.00138654641035114	0.00133188581846609	-0.0129666066811243
6.5	0.00480330322572855	-0.00582436348605488	-0.00298344866555274	-0.000977032266814078	-0.00299130337215212	-0.000972555019631769	0.000871384512846685	-0.013393999950352
6.6	0.00271288358843109	-0.00708356153422396	-0.00309148857648362	-0.000552478785891792	-0.00309312007533061	-0.000556452363036513	0.000326804889157688	-0.0138746938830714
6.7	0.000458102394683366	-0.00774242198979537	-0.00314209100953136	-0.000115166111614237	-0.00315093855783409	-0.000108893934321566	-0.000577583395423554	-0.0142321592395424
6.8	-0.00186604756590272	-0.00779297947030996	-0.00312071230268425	0.000325825287766587	-0.00313179733204611	0.000330866899033495	-0.00164490103974608	-0.0142506016281223
6.9	-0.0041489622939381	-0.00727289189761201	-0.00304561207010077	0.000758719984259621	-0.00304859724608102	0.000761107925947169	-0.002613614325399	-0.0140257067225026
7	-0.00620582080158298	-0.00619956598727631	-0.00290931494322002	0.0011790300546647	-0.00292213365131128	0.00117683195861197	-0.00345936263356462	-0.0137537929141404
7.1	-0.00804071392111718	-0.00468717104288863	-0.00273206086400329	0.00156743672723136	-0.00272840250534735	0.00157609718737868	-0.00433748930330791	-0.0133432949933065
7.2	-0.00953476164819945	-0.00277156682735335	-0.00247626358051323	0.00193511440420874	-0.00248278941860453	0.00193718938953194	-0.00504644643187583	-0.0127767939391478
7.3	-0.0106935892722715	-0.000572344192808904	-0.00218161750497571	0.0022540576576307	-0.00219282587673754	0.00225910229128949	-0.00551039172045392	-0.0122822001381328
7.4	-0.0114698987805468	0.00183408155086865	-0.00184093939120427	0.00253735524027178	-0.0018478268729687	0.00255095188946227	-0.00598968582768222	-0.0120226460495939
7.5	-0.011768574675662	0.00437955919765085	-0.00147621455200608	0.00277700061460132	-0.00146923032174592	0.00278439771190222	-0.00637081942000936	-0.0118755623990248
7.6	-0.0114152569547466	0.00690317263914742	-0.00107073264772401	0.00295616761495462	-0.00107210349809968	0.00295147119758304	-0.00669396463228957	-0.0119269318064864
7.7	-0.0105562089734447	0.00921716764692425	-0.000642897578201957	0.00307830711629846	-0.000644236635107129	0.00307724464313658	-0.00727448508194299	-0.0124191003906869
7.8	-0.00895052395199297	0.0111519577940213	-0.000217429285743885	0.0031283308893169	-0.000225240687365725	0.00313478170340837	-0.00813378233505773	-0.0126754548866307
7.9	-0.00680031490396984	0.0125586831400027	0.000223711552679157	0.00313635128056275	0.000231651963748374	0.00313785573803837	-0.0090277347703434	-0.0126088666623022
8	-0.00428673693388779	0.0134476548022013	0.000665769441266249	0.0030650488775367	0.000665847518182647	0.00306994921359356	-0.00996218748754076	-0.0123717123273862
8.1	-0.0015847525188898	0.0137963879789784	0.00107677655605921	0.0029479750984627	0.0010959274670274	0.00294907365167183	-0.0108381752019067	-0.0119344333084021
8.2	0.0010878085561194	0.0136063407425096	0.00148206807151346	0.00276752433394847	0.00149132149848353	0.00276033235919484	-0.011576847995142	-0.0113021917388173
8.3	0.00365051829876822	0.0128851441656017	0.00185916964148295	0.00252871081390931	0.00185751968774715	0.00254226516025691	-0.0121738717324074	-0.0106501232506768
8.4	0.00597226335350885	0.0117436208518766	0.00219554509670518	0.0022510343099503	0.00219251360005001	0.00225080870889959	-0.0127571838839503	-0.0100641389631703
8.5	0.00801762624082842	0.0101472767336335	0.00248188372499413	0.00192026852855136	0.00248098556327149	0.00192345325478441	-0.0134309709518462	-0.00940890796484378
8.6	0.00968425500480483	0.00821305211318408	0.00272844073286623	0.00155967011141124	0.00273794495775799	0.00155312774819081	-0.0140499932046474	-0.00867587483187143
8.7	0.0109644928193054	0.00592661426313943	0.00291447556725724	0.00115671458524144	0.00292003750071222	0.00115743839035078	-0.0145927746614848	-0.00791784117765946
8.8	0.0117734554971247	0.00338048479841832	0.00305124759044063	0.000745607107299467	0.00305701881170065	0.000736844300468378	-0.0151605011472648	-0.00720236530673198
8.9	0.012140588876794	0.000570609068466553	0.00312880491395656	0.000311427141350693	0.00312793370654283	0.000309179213398281	-0.0155201233430626	-0.00628999866037311
9	0.0119171724878994	-0.00246011427980862	0.003138686304939	-0.000132006497953433	0.00314184422601369	-0.000127903898233297	-0.0155853767621166	-0.00530167122733245
9.1	0.0110672494402523	-0.00556759802471835	0.00309261165561834	-0.00057360066338514	0.00309549690327437	-0.000560699831040056	-0.0153837824870034	-0.00443616480796627
9.2	0.00942480911891544	-0.00854267700462661	0.00298325507768439	-0.000991404638755475	0.00299091488419337	-0.000994282015794355	-0.0151201622779143	-0.00377279852026545
9.3	0.00707116367081537	-0.0111187515349365	0.00281481260147934	-0.00139695948549202	0.0028140816596725	-0.00140195148623892	-0.0148034645514335	-0.00317221804225118
9.4	0.00410388136051004	-0.0131187266215758	0.00259248569521404	-0.00178756749340367	0.00259899916714588	-0.00177996729228737	-0.0145246157636836	-0.00270952804821939
9.5	0.000630317097148689	-0.0142570209545051	0.00231744503168901	-0.0021222819128412	0.00232485943887122	-0.00212362964654072	-0.0143448383887163	-0.00224597232311349
9.6	-0.00311869594605841	-0.0145905898084997	0.00200046472329508	-0.00242645921145412	0.0020007946630189	-0.0024254768834942	-0.0144165993696777	-0.00182214885175953
9.7	-0.00693271237474588	-0.014002286508698	0.00163322036664734	-0.00267758757684542	0.00163875697220385	-0.0026848961486735	-0.0145341238547717	-0.0012282103848329
9.8	-0.0106241334968432	-0.0125789191381141	0.00124808416047221	-0.00288706992192392	0.001253783904488	-0.0028785688346009	-0.0146414702208303	-0.000530774777512119
9.9	-0.0140026833869353	-0.0102621209892273	0.000842487670945954	-0.00302690528018007	0.000835154029241513	-0.00302567868553267	-0.0147974600711846	0.000297942600454217
10	-0.0168881598187512	-0.00723620999268103	0.000411877051890186	-0.00311668847509696	0.00040438539777642	-0.00312913594746642	-0.0148187310993584	0.00122547614411668
10.1	-0.0190567459738642	-0.00358563415257289	-3.08884892439969E-05	-0.0031485563816979	-4.11237053291772E-05	-0.0031431615385951	-0.0145989328919883	0.00210104635126863
10.2	-0.0204025927706323	0.000473935310054931	-0.000477636769027088	-0.00311187436906013	-0.000481044732263675	-0.00310909418090309	-0.0141796586907098	0.00289667529047785
10.3	-0.0208749051192659	0.00478928265454708	-0.000910728724655221	-0.00300612217220513	-0.000902635823732896	-0.00301519931179244	-0.0136229671930493	0.00353388657216832
10.4	-0.0204255941276176	0.00914675526147683	-0.00130850381723058	-0.00285124820933981	-0.00130680833539356	-0.00285744647506816	-0.01289461170173	0.00387579197384522
10.5	-0.0191116420535947	0.0134454976003509	-0.00170040071393059	-0.00265215699892562	-0.00169729375448118	-0.00263915210467766	-0.01225147061672	0.00405888175590073
10.6	-0.0169076042552705	0.0174789692141075	-0.00205327277036238	-0.00238172655882175	-0.00205108635953425	-0.00238555109982605	-0.0117302239945768	0.00410833036607284
10.7	-0.0138959691829479	0.0211733595283533	-0.00236851370002502	-0.00207932069049298	-0.00236501668615423	-0.00207403913706561	-0.0113109483070924	0.00423266270721123
10.8	-0.0100796120578299	0.0242957816623559	-0.00263750362041558	-0.00171891829699153	-0.00263230582625801	-0.00172784779005492	-0.010989449884825	0.00436588358632551
10.9	-0.00566101261678966	0.0267061640094856	-0.00284544680464012	-0.00134452957160386	-0.0028506352757274	-0.00134379684995015	-0.01074900587045	0.00453503641975961
11	-0.000635990601255786	0.0282653493907472	-0.00300438020644868	-0.000927914342231151	-0.00300922699963452	-0.000934654097315669	-0.0104613300037871	0.00482953475943505
11.1	0.00472951190703561	0.0288243024200393	-0.00311257765534178	-0.000502908282074234	-0.00310171668649888	-0.000500051236180832	-0.0100402703608731	0.00509725973398431
11.2	0.0102437149109413	0.0282423057987736	-0.00314177249792851	-6.52361293218986E-05	-0.00314892670314036	-7.00711479988191E-05	-0.0094478638968212	0.00531264309178326
11.3	0.0157027220387632	0.0264761256153109	-0.00311490151410145	0.000383395094569679	-0.00312644528781348	0.000373360286218487	-0.00863507232815508	0.00541636620538485
11.4	0.0206406980006624	0.0236422283034177	-0.00304124273392935	0.000811111237909713	-0.00303632743549839	0.00081867615329205	-0.00788268314498039	0.00527790725339087
11.5	0.0249498617595001	0.0198399823698003	-0.00289807110537944	0.00122663692250301	-0.00290084791808917	0.0012369130536622	-0.00732475472586503	0.00486297415109305
11.6	0.0285192797561862	0.0151666150567702	-0.00270385872018172	0.00161701093996805	-0.00270383942786507	0.00161995105087985	-0.00683821877003964	0.0043101003914514
11.7	0.0311485891629242	0.00986397599422295	-0.00244273799088879	0.00197184938701358	-0.00244330096975921	0.00198045438841215	-0.00643177687046948	0.00363482582219196
11.8	0.0327879494904449	0.00413835723243089	-0.00214753565623713	0.00230421019793965	-0.00215165077914039	0.00230590917328653	-0.0061630418329272	0.00298343540714839
11.9	0.0334402601919689	-0.00184093194701127	-0.00179829048062544	0.00258058452926567	-0.00181131215208189	0.00258489346347986	-0.006023782377794	0.0026273933829517
12	0.0328167902523396	-0.00790759545584677	-0.00142482372998115	0.00280392568438215	-0.00142422755408944	0.00280533751859984	-0.00593624114135272	0.00232999124316271
