# GHZ S RI R 50
0.2	0.00590242956696137	0.00124328700793713	0.00304833877393598	-0.000897934956625137	0.0030587074289651	-0.000891126073856954	-0.014048082717018	0.00489506461487395
0.3	0.00621786603790995	-0.000704585335997256	0.0029041187653417	-0.0013213580600702	0.0028968726331375	-0.00130841938530733	-0.0132537539078215	0.00509598592849106
0.4	0.00597369259415449	-0.00235119133969544	0.002672481183623	-0.00169312176945356	0.00267774844110618	-0.0017016823090448	-0.0127328163155721	0.00563998456538603
0.5	0.00526954217602783	-0.00374413768305551	0.00241361652436668	-0.00204979822432715	0.00242515344849663	-0.00206203793466867	-0.0122147492757367	0.00624842369910454
0.6	0.00425876487305983	-0.0048039435252735	0.00210107797378659	-0.00236423605955355	0.00210029143235415	-0.00237138524047925	-0.0117345634182101	0.00681417539653419
0.7	0.00297523113415658	-0.00549724642426784	0.00175393229280648	-0.00264194237152323	0.00175197640857599	-0.00264214115950965	-0.0113840911290982	0.00740886829392095
0.8	0.00164404816848237	-0.00584781703213913	0.00136853275322314	-0.00285926658282187	0.00135593373319138	-0.00286381515774546	-0.0110440399381722	0.0081423460164092
0.9	0.000220255771601981	-0.0058281238617658	0.000951514878369371	-0.0030227552460326	0.00095254959355584	-0.00303345355092757	-0.0106502188837378	0.00892233972499579
1	-0.00115796459969051	-0.00551821410355539	0.000526739853356932	-0.00312612231126707	0.000516878996713781	-0.0031268621699101	-0.0101430866793565	0.00973905356020559
1.1	-0.00252103044531138	-0.00497384858908268	7.11952299556577E-05	-0.00315488871768202	6.768837116704E-05	-0.003172537257576	-0.00962166159261935	0.0106182672643384
1.2	-0.00380911003478437	-0.00441087296018455	-0.000370856972577326	-0.00314425841517663	-0.000371668634579901	-0.00314218223192608	-0.00869101864238275	0.0114960243957534
1.3	-0.00516303277899795	-0.0039394992653853	-0.000797890931364615	-0.00306104808949882	-0.00080113057948281	-0.00306305302195959	-0.00715200293577593	0.0121458297866241
1.4	-0.00634317547360283	-0.00334629796329443	-0.0012191000781333	-0.00291282209327499	-0.00121788720812554	-0.00291835455080281	-0.00545943974763763	0.012037683641704
1.5	-0.00687626630671148	-0.00225076255474942	-0.00161987976659147	-0.0027170023119314	-0.00161826793315502	-0.00272550155693898	-0.00410442135229399	0.011563030605098
1.6	-0.00681358558616337	-0.000774715191084022	-0.0019803739851565	-0.00246465783598419	-0.00198058482636195	-0.00246989148317451	-0.00353232394282407	0.0114053107622247
1.7	-0.00622766149710898	0.000689623991594412	-0.00230876995775448	-0.00216788911468378	-0.00230973562696442	-0.00216162836545401	-0.0029282447851835	0.0115675782747583
1.8	-0.00532962984481474	0.00209000830251247	-0.00257980694685092	-0.00181649832285147	-0.00259077146758327	-0.00182213468642113	-0.00226452128616286	0.0117301363942329
1.9	-0.00415276130648227	0.00315521796157466	-0.00280519067200609	-0.00144586703050524	-0.0028176293368178	-0.00143971486004434	-0.00161268452859784	0.0118836723402942
2	-0.00281997463219368	0.00391291376704293	-0.0029809355648767	-0.0010382562577706	-0.00299055659241576	-0.00103354858532309	-0.000975097797980953	0.0120977774371994
2.1	-0.0013750745969336	0.00427571318826297	-0.00309446843500518	-0.000609841393553515	-0.00309038548181999	-0.000611832923256291	-0.000176487689286644	0.0122267522280543
2.2	6.21846623070146E-05	0.00432320136233232	-0.00315187081911171	-0.000171513494890054	-0.00316317356537017	-0.000174348994059148	0.000793143690587654	0.0122211474055015
2.3	0.00143534275906695	0.00393527334674974	-0.0031471838563664	0.000271967401510701	-0.00314688182889045	0.00026508511309796	0.00171563579494819	0.0119550112645322
2.4	0.00262572452971492	0.00326718595849219	-0.00307464162467343	0.00071037436881426	-0.00307718292455001	0.000706117684230246	0.00255538535839978	0.0116458369061044
2.5	0.00360071576819508	0.00231174667266521	-0.00293741109167558	0.00112270525091368	-0.00294829824337242	0.00112908617632248	0.00337812160202423	0.0112298260891102
2.6	0.00439268663378191	0.00116981216287232	-0.00276325669275491	0.00152574646748149	-0.00275970231235365	0.00151342456314327	0.00419444195223168	0.0107263291278628
2.7	0.00503417316075163	-0.000129765022473033	-0.00251707568900535	0.00189703443559889	-0.00252235507197058	0.00189704655327076	0.00485271817897365	0.0101319918819744
2.8	0.00555010693073582	-0.00161878917684234	-0.00223386705760329	0.00222436503841435	-0.00222605199519393	0.00223415143647991	0.00537515553053459	0.00966171494371327
2.9	0.00588696759997231	-0.00332886785137251	-0.00189923466627614	0.00252426142858198	-0.00189552639691452	0.00252383356150236	0.00607445740412291	0.00935735139854107
3	0.00583668750479558	-0.00523109165995817	-0.00151269661995479	0.00275931457401106	-0.0015274723262665	0.00276541680114625	0.00695448841772165	0.00903378321850438
3.1	0.0053888089934312	-0.00718559088057698	-0.00112227997682257	0.00293602164491502	-0.00111762201251384	0.00294436092918117	0.00780898481082855	0.00852402765462254
3.2	0.00437007324844311	-0.00908853451929884	-0.000701712997789692	0.0030727280661199	-0.000703457149532596	0.00307211802980454	0.00842768735575952	0.00801081904884494
3.3	0.00288302050953115	-0.0108794648927728	-0.000263343844001197	0.00314209501354697	-0.000261696456403282	0.00313835556307446	0.0091179888723165	0.00740336723868458
3.4	0.000872757933529818	-0.0122912597733565	0.000183320227409788	0.00313563729170492	0.00017712056119875	0.00315219812339625	0.00978371845158838	0.00656839945908082
3.5	-0.00146942448436279	-0.0133143942923628	0.000604861434272012	0.00309245453538324	0.000610455500028595	0.00309252895428599	0.0101725772600895	0.00548796923366338
3.6	-0.00408662085730308	-0.0137727057314278	0.00103309178419673	0.00297300810078151	0.00104128115452142	0.00297268928231989	0.0103482407590903	0.00457781862829765
3.7	-0.00676050311101803	-0.0136487535202542	0.00144343255966455	0.00279184317680355	0.00143385129528823	0.00280551656580807	0.0105533597704108	0.00373779464228552
3.8	-0.00939188414901705	-0.0129452964408684	0.00182134638408544	0.00256456967531978	0.00182375134181423	0.00257371671011954	0.0106855967416864	0.0028927697383349
3.9	-0.0117495141952189	-0.0117277000918876	0.0021669756227197	0.00229135023564927	0.00215971178056803	0.00228957239751153	0.0107242033965997	0.00207740992384126
4	-0.0138182491980026	-0.010107597495614	0.00245152788432001	0.00197007497463231	0.00245597533090216	0.00196764053181551	0.0107787368441495	0.00140227852582143
4.1	-0.0155429500170155	-0.00815188734697219	0.00270335109235434	0.001610035538944	0.00270209888286067	0.00161077134640005	0.0109877310519631	0.000780840203160027
4.2	-0.0169340171487344	-0.00588047262707912	0.00290242707547378	0.00120869154741975	0.00290689081423568	0.0011999768698043	0.0112330716239866	6.6606964192246E-05
4.3	-0.0179152677916999	-0.00343713416536276	0.00304523829559926	0.000796472853931453	0.00305165835985679	0.000788670617058604	0.011427647341837	-0.000827715605876293
4.4	-0.0185637386566188	-0.000790950188063274	0.00312128314204184	0.00036227320599307	0.00312365663328725	0.000360016792724328	0.0114140484902764	-0.00173829169221068
4.5	-0.0187664893492974	0.00201401615710907	0.00314370630025526	-7.57389004184742E-05	0.00314906476518194	-7.91123204029965E-05	0.0113579988927405	-0.00260159214442993
4.6	-0.0185294398668084	0.0048439349771575	0.00309931013452995	-0.000518462249990874	0.003100541083193	-0.000505553036016589	0.0111980175718133	-0.00354012133674794
4.7	-0.0176894661377533	0.00767291595619058	0.00299377465619027	-0.000937078659498734	0.00300905298247452	-0.000946695386823239	0.0108747294601298	-0.00447314158730945
4.8	-0.0163510457134199	0.0103200369377861	0.00283245026855296	-0.0013508688078701	0.00284092381582154	-0.00135695716513589	0.0104502727307596	-0.00527682972655184
4.9	-0.0143329761961904	0.0126577959433542	0.00261152464942862	-0.00173462754960634	0.00261568950032717	-0.00173172501326502	0.0100598192817746	-0.00590746559791269
5	-0.0118522547116491	0.0144509908920126	0.00235171697430975	-0.00208931488537927	0.00235533726768467	-0.00208665298548936	0.00994490142420726	-0.00643732809586645
5.1	-0.00889678975027633	0.0156947112512032	0.00204096050491308	-0.00239942384688196	0.00204325990565092	-0.00239806746758612	0.00995766715702478	-0.00713628914050486
5.2	-0.00584166580680048	0.0162464418990392	0.00168354481936959	-0.00264882881821549	0.0016852559080258	-0.00265396802157457	0.00988547045189545	-0.00791748638088123
5.3	-0.00278592242352759	0.0161864197404412	0.00129714770512554	-0.00286379263302259	0.00130027788727856	-0.00286173202866709	0.00972421790081288	-0.00864714115635212
5.4	9.54772334962034E-05	0.0155808649456677	0.000872754396448217	-0.00301090851999261	0.000889903874789956	-0.00302210839759212	0.00953564111399323	-0.00953139661012585
5.5	0.00267066274276011	0.0145357093926996	0.000459678406738087	-0.00310848350175546	0.000469722233275317	-0.00311790341249585	0.00908042884243184	-0.0105362437547024
5.6	0.00491371826860923	0.013095812542855	2.17345041575337E-05	-0.00314444790947465	1.321658974321E-05	-0.00314766394743189	0.00825948264707406	-0.0113633482852064
5.7	0.00672196213137176	0.0113632764042468	-0.000408771687281262	-0.00311392690022989	-0.000425369324966717	-0.0031175851319185	0.00726748728165901	-0.0118731829652595
5.8	0.00813026168809381	0.00937483817862929	-0.000854146293139561	-0.00301910097591626	-0.000857677528933921	-0.00303307805583311	0.00629908946920362	-0.0123468345669571
5.9	0.00905696292832715	0.00726222667519981	-0.00125856929187952	-0.00287931594869439	-0.00126679271580513	-0.00287923525106234	0.00519303396068746	-0.0127023977420479
6	0.0094911676643929	0.00500065093155863	-0.00165640003821544	-0.0026733117144969	-0.00165284182563338	-0.00267347780873642	0.00395832933270166	-0.0127983747912178
6.1	0.00944994312408339	0.00269343168712379	-0.00201114921924885	-0.00241906784411516	-0.00201278763273047	-0.00241506701224142	0.00298172157920244	-0.0126012307225718
6.2	0.00892543806134045	0.000362894402693386	-0.00232362259427602	-0.00210615874473541	-0.00232732785851055	-0.00211802005319209	0.00232357031948258	-0.0124948547486828
6.3	0.00800289067755559	-0.00190191983588111	-0.00260108956079402	-0.00177196241501338	-0.00261021048868854	-0.00176622873708457	0.00181273385443453	-0.0126620726715513
6.4	0.00658604311114079	-0.00403163568666738	-0.00282708887156174	-0.00138163539706698	-0.00281737230295433	-0.00138653363621998	0.00133073816925201	-0.0129663463987345
6.5	0.00480244921175945	-0.00582597086837244	-0.00298343510817995	-0.00097702287778492	-0.00299128976852424	-0.000972545641376934	0.000869978461770365	-0.0133935830148503
6.6	0.00271253124208239	-0.00708461726777359	-0.00309147592319879	-0.000552473607774894	-0.00309310741873452	-0.000556447166515246	0.000326146005817844	-0.0138733325874143
6.7	0.000458040388557887	-0.00774371384285077	-0.00314207785978567	-0.000115162166024485	-0.00315092536379927	-0.000108890005494575	-0.000577498568438309	-0.0142310560932663
6.8	-0.00186607042523084	-0.00779424068427385	-0.00312069763232697	0.000325827059079666	-0.00313178260551148	0.000330868658802969	-0.00164446449368517	-0.0142497292390562
6.9	-0.00414860276391461	-0.00727425048229352	-0.00304559600314392	0.000758717489051055	-0.00304858116260959	0.000761105419809099	-0.00261269597737389	-0.014025358414855
7	-0.00620610489791357	-0.00620153326268521	-0.00290930268391989	0.00117902288243744	-0.0029221213331847	0.00117682478788506	-0.00345945681850677	-0.0137543779031638
7.1	-0.00804106782782562	-0.00468813341119628	-0.00273204958672952	0.00156743016138807	-0.00272839124345834	0.00157609058575213	-0.00433789922420731	-0.0133425801767734
7.2	-0.00953450289095991	-0.00277238432477086	-0.00247625257344042	0.00193510509732738	-0.00248277838198937	0.00193718007198633	-0.00504608175672454	-0.0127757093014929
7.3	-0.0106928162909369	-0.000573187339990966	-0.00218160872509595	0.00225404539532961	-0.00219281704712623	0.00225908999706983	-0.00550920992382179	-0.0122811125786693
7.4	-0.0114682543782589	0.0018330243295456	-0.00184093492448266	0.00253734151380714	-0.00184782239535524	0.00255093809366525	-0.00598729300947061	-0.0120221095409814
7.5	-0.0117667756312129	0.00437699690540138	-0.00147621142582169	0.00277698968332116	-0.00146922722583117	0.00278438675973289	-0.00636843661353685	-0.0118772927453031
7.6	-0.0114139152505482	0.00690038964589345	-0.00107072941422936	0.00295615343582182	-0.00107210025564069	0.00295145703922894	-0.0066926426822685	-0.0119291542592741
7.7	-0.0105548966787438	0.00921407919530337	-0.000642898418886279	0.00307829146825983	-0.000644237467983396	0.00307722899850245	-0.00727379224175612	-0.0124216910866807
7.8	-0.00894946198351511	0.0111486237989635	-0.000217433904615893	0.00312831600689057	-0.000225245281654209	0.00313476677705164	-0.008133927295506	-0.0126781912585467
7.9	-0.00679944285662899	0.0125550100425607	0.000223704908236746	0.003136338574476	0.000231645283367995	0.00313784304011526	-0.00902873364859736	-0.01261170412754
8	-0.00428734954382429	0.0134437700109641	0.000665761781996237	0.00306503417277243	0.000665839851697256	0.00306993448394742	-0.00996507083945234	-0.0123740481638096
8.1	-0.0015854549921646	0.0137937687261484	0.00107676213062355	0.00294796236186205	0.00109591293517717	0.00294906096516781	-0.0108410519903645	-0.0119343942437295
8.2	0.00108729529762768	0.0136040148122602	0.00148205130412827	0.00276751657057014	0.00149130471306041	0.00276032466239454	-0.0115788617562976	-0.0113012783010392
8.3	0.00365008471835732	0.0128830885601876	0.00185915261105247	0.00252870692665209	0.00185750261495502	0.00254226120990581	-0.0121751214607991	-0.0106487504024532
8.4	0.0059722458815472	0.0117415837044277	0.00219552790522486	0.00225103205475256	0.00219249642246851	0.00225080644433209	-0.012757467115004	-0.0100628944431491
8.5	0.00801691323611089	0.0101446829318107	0.00248186230217443	0.00192027065922033	0.0024809641299134	0.00192345536534649	-0.0134319128685364	-0.00940846778496549
8.6	0.00968346783107957	0.00821169591076292	0.00272842269304253	0.00155967921570365	0.00273792691932605	0.00155313692665804	-0.0140510065745837	-0.00867387761418356
8.7	0.0109644743696353	0.00592555719792812	0.00291446066363594	0.00115672587163871	0.00292002257621408	0.00115744970287123	-0.0145926371931428	-0.00791528871600678
8.8	0.0117741336821781	0.00337939676440522	0.00305123441372491	0.000745620371402942	0.00305700566192402	0.000736857620918995	-0.0151591468241351	-0.00719977453626157
8.9	0.0121422296947837	0.000569063178473716	0.00312879275699258	0.000311443974572409	0.00312792156530497	0.000309196049101835	-0.0155172546653055	-0.00628815148399665
9	0.0119187085060917	-0.00246306254397858	0.00313868115832581	-0.000131984783238012	0.0031418390452633	-0.000127882169832982	-0.0155825653744828	-0.00530182041364528
9.1	0.0110684554386333	-0.00557068063753754	0.00309261100372364	-0.000573582007122619	0.00309549617292199	-0.000560681174643432	-0.0153813498871054	-0.00443664404932522
9.2	0.00942568715263279	-0.00854628915757261	0.00298325630094399	-0.000991385590220382	0.00299091611254272	-0.00099426291783855	-0.0151180225369542	-0.00377421934528834
9.3	0.00707131031621311	-0.0111224115681949	0.00281481766034128	-0.00139693936019751	0.00281408675177241	-0.00140193135864659	-0.0148022573351363	-0.0031741856276358
9.4	0.00410367833625525	-0.0131220941202014	0.00259249746264348	-0.00178754778900843	0.00259901087620465	-0.00177994754413639	-0.0145242139816697	-0.00271165472850255
9.5	0.000629128949493451	-0.0142602509381431	0.00231746053936028	-0.00212226961506357	0.00232487496231274	-0.00212361730399569	-0.0143462178008182	-0.00224804445315349
9.6	-0.00311956163121073	-0.0145924038431855	0.00200047942051895	-0.0024264478587127	0.0020008093545074	-0.00242546552862252	-0.0144180412736989	-0.00182225986702205
9.7	-0.00693283470321134	-0.014003904213401	0.00163323854663512	-0.00267757830530319	0.00163877520234866	-0.00268488684482773	-0.0145347646837809	-0.00122774436828498
9.8	-0.0106236996670079	-0.0125805464573981	0.00124810517165881	-0.00288706528370578	0.001253804865967	-0.00287856414707247	-0.0146413603499013	-0.000530166077937023
9.9	-0.0140014250840138	-0.0102642292547352	0.000842508295307345	-0.00302690724427767	0.000835174628726468	-0.00302568069188089	-0.0147963418580005	0.000297889376624951
10	-0.0168874493316544	-0.00723949732484946	0.000411893473216711	-0.00311669132924447	0.000404401870210475	-0.00312913885923956	-0.0148185363562604	0.00122393196572206
10.1	-0.0190563012280647	-0.00358840050429391	-3.08688815074322E-05	-0.00314856191614666	-4.11041486434984E-05	-0.00314316712780232	-0.014599423039435	0.00210033906588081
10.2	-0.0204019242174403	0.000471046202945835	-0.000477618907893462	-0.00311188572473352	-0.000481026897458543	-0.00310910555003292	-0.0141800163667144	0.00289613598032909
10.3	-0.0208740583766515	0.00478630486434592	-0.000910715118705407	-0.00300613693688895	-0.000902622141539268	-0.00301521406133099	-0.0136231820155293	0.00353344990565068
10.4	-0.0204241703386744	0.00914324123475762	-0.00130849431847169	-0.00285126243332864	-0.00130679880301079	-0.00285746070889861	-0.0128943001556838	0.00387485756636916
10.5	-0.0191110751254936	0.0134406643342714	-0.00170038812041812	-0.00265217220270446	-0.00169728123268663	-0.00263916726513215	-0.0122524534086748	0.00405677608097027
10.6	-0.0169536658039667	0.0174383379896727	-0.00205327542627219	-0.00238174740412077	-0.00205108898913828	-0.00238557195837684	-0.0117242117871689	0.00405834865078257
10.7	-0.0138972110541865	0.0211690091005529	-0.00236851176951414	-0.00207934361314165	-0.0023650147714739	-0.00207406201627628	-0.0113135132554015	0.00423233140292602
10.8	-0.0100813343039458	0.0242924812835367	-0.00263750619626078	-0.00171894045699707	-0.00263230832989358	-0.00172786996217026	-0.0109919145639057	0.00436692689201583
10.9	-0.00566216162283219	0.0267035379707326	-0.00284545157388893	-0.00134455186237743	-0.00285064007200301	-0.00134381916737072	-0.0107502910793829	0.00453657805639083
11	-0.000637671586032487	0.0282625720067113	-0.00300439322004854	-0.000927939677475914	-0.00300924000026989	-0.000934679506630466	-0.0104631040568072	0.00483062291737767
11.1	0.00472819664641576	0.0288228348442716	-0.00311259737927961	-0.000502926119876534	-0.00310173634666849	-0.000500069003939196	-0.0100415993035938	0.00509996992154944
11.2	0.0102432185837086	0.0282410405220648	-0.0031417936232048	-6.52492277416917E-05	-0.00314894785764562	-7.00843081492625E-05	-0.00944791524970437	0.0053156947529944
11.3	0.0157028670567012	0.0264748358216734	-0.00311492450461369	0.000383385256906473	-0.0031264683176365	0.000373350333193434	-0.00863391321845717	0.00541940527188605
11.4	0.0206417441832154	0.0236406039992419	-0.00304127001162988	0.000811104672308475	-0.00303635470682381	0.000818669667854211	-0.00788015478437951	0.00528019790929532
11.5	0.0249505168431886	0.0198375054564118	-0.00289810056979298	0.00122664183638138	-0.00290087743086068	0.00123691805625733	-0.00732280515631474	0.00486393654483017
11.6	0.0285202500953722	0.0151648646084291	-0.0027038822978604	0.00161702009896757	-0.00270386300934876	0.00161996023317633	-0.00683574865681606	0.00431182169269756
11.7	0.0311504823976204	0.00986192416460412	-0.00244276037124049	0.00197186140866124	-0.00244332336748011	0.0019804664776486	-0.00642796957941595	0.00363579226527894
11.8	0.0327906052817808	0.00413553984158351	-0.00214755691995763	0.00230422726166124	-0.00215167208022505	0.00230592624643816	-0.00615835384742858	0.00298279722506836
11.9	0.0334435246304252	-0.00184549104243278	-0.00179830755498204	0.00258060905820301	-0.00181132935014659	0.00258491803342344	-0.00601894587073664	0.00262389377637861
12	0.0328177826022262	-0.00791396861768044	-0.00142483008546672	0.00280395069452764	-0.00142423390226033	0.00280536253897277	-0.00593495248418104	0.00232414128846129
