# GHZ S RI R 50
0.2	0.00590163100714547	0.00123877689619679	0.0030483419607086	-0.000897934318859544	0.00305871062188369	-0.000891125424993573	-0.0140488996747595	0.00489054808537932
0.3	0.00621443340812731	-0.00070714266800517	0.00290412283206969	-0.00132135936600337	0.0028968766882211	-0.00130842067516176	-0.013257210898426	0.00509343279507768
0.4	0.00596953641053471	-0.00235108819769164	0.00267248481152281	-0.0016931249961661	0.00267775207486165	-0.00170168555002817	-0.0127369964127802	0.00564010426146186
0.5	0.00526604372764959	-0.00374165787852885	0.00241361907102633	-0.0020498027866017	0.00242515600591894	-0.00206204252252477	-0.0122182657613529	0.0062509285931719
0.6	0.00425684004883731	-0.00479960717140568	0.00210107929440348	-0.00236424129080408	0.00210029274615731	-0.00237139048193246	-0.0117364988044804	0.00681854174467815
0.7	0.0029756820964202	-0.0054916055345718	0.00175393261377571	-0.00264194779184335	0.00175197672647955	-0.00264214657844003	-0.0113836438023296	0.00741453979748656
0.8	0.00164787408489931	-0.00584161462270693	0.00136853255710799	-0.00285927192479039	0.00135593351469842	-0.0028638204966374	-0.0110402111026817	0.00814857698792729
0.9	0.000228853977641918	-0.00582276726715048	0.000951514850003338	-0.00302276063974468	0.000952549561308351	-0.00303345896251763	-0.0106416122940657	0.00892771955147014
1	-0.00114291674008273	-0.00551676932271513	0.000526740812937296	-0.00312612853682297	0.000516879936682347	-0.0031268683966622	-0.0101280224779251	0.00974051389096479
1.1	-0.00249898932000976	-0.00498259037751281	7.11976442627991E-05	-0.00315489761143172	6.76907879093198E-05	-0.00317254620381664	-0.00959957862972044	0.0106094982043573
1.2	-0.00378562812758145	-0.00443899335205175	-0.000370853725274968	-0.00314427340004461	-0.000371665394261162	-0.00314219720856161	-0.00866666237213208	0.0114679093009998
1.3	-0.00515457476459115	-0.00398870101539243	-0.000797891740131426	-0.0030610724878142	-0.000801131409233249	-0.00306307744086907	-0.00714197914890856	0.012095953070978
1.4	-0.00636049032766422	-0.00339443297162321	-0.00121911384421137	-0.00291285450168903	-0.001217900961006	-0.00291838702098009	-0.00547566777225618	0.0119877875484055
1.5	-0.00690689152564893	-0.00227999719770102	-0.00161991363654456	-0.00271703151151316	-0.00161830181948073	-0.0027255308777153	-0.00413581595657628	0.0115340300109324
1.6	-0.00684003269095714	-0.000786622954700061	-0.00198042245098896	-0.00246466972697118	-0.00198063334504784	-0.00246990343773038	-0.00355906344153172	0.0113907753055117
1.7	-0.00625122891920946	0.000686023184289953	-0.00230881904632727	-0.00216788056157063	-0.00230978464591046	-0.00216161974102155	-0.00295232599992259	0.0115626815363629
1.8	-0.00535177971609237	0.0020946728154104	-0.00257984724175253	-0.00181647612537883	-0.00259081190642993	-0.00182211238128266	-0.00228661329127327	0.0117348332630207
1.9	-0.00417079892496794	0.00316702729035209	-0.00280522143948187	-0.00144583823650997	-0.00281766008271349	-0.00143968588201426	-0.0016306753434443	0.0118954810240747
2	-0.00283234527167257	0.00393045688973119	-0.00298095856432678	-0.00103822487946814	-0.00299057957113008	-0.00103351707664533	-0.000987441095835752	0.012115315027637
2.1	-0.00138045870970392	0.00429745832604508	-0.00309448591975737	-0.000609809171428114	-0.00309040297452466	-0.00061180075333155	-0.000181859571435543	0.0122485036453122
2.2	6.51447870378693E-05	0.00434758619021441	-0.00315188470106918	-0.00017148066441678	-0.00316318752069827	-0.000174316054351069	0.000796094299198034	0.0122455418315078
2.3	0.00144835364167244	0.00396023428531848	-0.00314719557892519	0.000272001428379303	-0.00314689362171142	0.000265119104993295	0.00172859426119963	0.0119799958722673
2.4	0.00265114013409609	0.00328912931451811	-0.00307465201704626	0.000710410914040669	-0.00307719337657726	0.000706154231491189	0.00257981828604523	0.0116673343326636
2.5	0.00363881306447223	0.002325562671026	-0.00293742092926144	0.00112274668533792	-0.00294830809257884	0.00112912778124639	0.0034149857957049	0.0112433665019481
2.6	0.00444117139608935	0.0011683941959945	-0.00276326481542868	0.0015257972435241	-0.00275971055757511	0.00151347516998662	0.00424149624701152	0.0107249476423721
2.7	0.00508523680702641	-0.000152960079314816	-0.0025170766775539	0.00189709976514849	-0.00252235612750303	0.00189711196936544	0.00490229015449343	0.0101092948147456
2.8	0.00559094440258989	-0.00166494319025989	-0.00223384856390288	0.00222444811077961	-0.00222603316541741	0.0022342344718472	0.00541472250470956	0.00961648489292696
2.9	0.0059044388377288	-0.00338951107349173	-0.00189917849647153	0.00252434797966356	-0.00189547019869251	0.00252391999401588	0.00609309080607575	0.00929693002472094
3	0.00582534374671809	-0.00529369751065795	-0.0015125991765937	0.00275937767193952	-0.00152737469823659	0.00276548045917207	0.00694450555598556	0.00897090503354594
3.1	0.00535194839624274	-0.00723630411790395	-0.0011221652034992	0.0029360387394683	-0.00111750697562761	0.00294437778945727	0.00777297981115715	0.00847290273237052
3.2	0.00431624957111023	-0.00911641880840492	-0.000701615608981926	0.00307270738778229	-0.000703359755056123	0.00307209740955827	0.00837408838528422	0.00798240394767537
3.3	0.00282579520498032	-0.0108826934506557	-0.00026326838469413	0.00314205491336454	-0.000261621106473475	0.00313831548022	0.00906086880581873	0.00739966294065715
3.4	0.000820935617285836	-0.0122732263597636	0.000183376958979944	0.00313559199511804	0.000177177688032462	0.00315215272285203	0.00973186705948424	0.00658608829961956
3.5	-0.00151017735114475	-0.0132797184334288	0.000604906833206392	0.00309240827019436	0.000610500835088732	0.00309248259336643	0.0101320109412572	0.00552224926288309
3.6	-0.00411310156962352	-0.0137260660559653	0.00103313130553257	0.00297296300435308	0.00104132059349208	0.00297264405324193	0.0103219005033042	0.00462411640093205
3.7	-0.00677023124850352	-0.0135948337244523	0.0014434687609965	0.00279179633344666	0.00143388780628638	0.00280546977737165	0.0105439094943414	0.00379124280919354
3.8	-0.00938338525810309	-0.0128891495733578	0.00182138066842325	0.0025645185205471	0.00182378577685987	0.00257366544777493	0.0106944358339372	0.00294829733617503
3.9	-0.0117221624743027	-0.0116746947928885	0.00216700782540025	0.00229129159710905	0.00215974399450955	0.00228951391720433	0.0107519031799331	0.00212955070234741
4	-0.0137726486764552	-0.0100635987662137	0.00245155614774274	0.001970005571763	0.00245600350842081	0.0019675710440058	0.0108244872276066	0.00144509741591771
4.1	-0.0154808553548052	-0.00812313014896002	0.00270337033331794	0.00160995097145847	0.0027021181537601	0.00161068680549491	0.0110495783496531	0.000808181082736916
4.2	-0.0168587076883672	-0.0058741888682682	0.00290242684343971	0.00120858943285492	0.00290689026512022	0.00119987473093669	0.0113074573639693	7.15466924252077E-05
4.3	-0.0178345392798361	-0.00346160785582112	0.00304520189723707	0.000796357523363514	0.00305162157640899	0.000788555237321839	0.0115073080467972	-0.000852669651057013
4.4	-0.0184905692908795	-0.000855149924794907	0.00312119594799627	0.000362168779845119	0.00312356929745624	0.000359912366658461	0.0114858490735546	-0.00180257092240151
4.5	-0.0187260044396532	0.00190950672101363	0.00314357846020337	-7.57948768306577E-05	0.00314893664631484	-7.91682617631598E-05	0.0113970123068659	-0.00270552818222115
4.6	-0.0185478873964038	0.00472042494318405	0.00309918486286489	-0.000518452946834307	0.00310041580974109	-0.000505544251243926	0.0111778560485141	-0.00366329063194514
4.7	-0.0177697376060803	0.00757032609268569	0.00299368860214838	-0.000937031174585313	0.00300896651948963	-0.00094664751115262	0.0107932802760399	-0.00457488583514682
4.8	-0.0164694264822052	0.0102660371639581	0.0028324024503197	-0.00135081876943008	0.00284087587057007	-0.00135690693479327	0.0103313713281835	-0.00532962150894364
4.9	-0.0144587943680287	0.0126581884305683	0.00261149858842932	-0.00173458903826436	0.00261566336583263	-0.00173168651828723	0.00993368505456602	-0.00590626278517077
5	-0.0119623122608912	0.0144965240826513	0.00235169824501629	-0.00208928870727487	0.0023553184962337	-0.00208662682573897	0.00983458194697263	-0.00639118028741487
5.1	-0.00897784101641507	0.0157702909569505	0.00204094088185404	-0.00239940550708971	0.0020432402644329	-0.00239804914152085	0.0098763195192527	-0.00706023734891187
5.2	-0.00588925031019226	0.0163369391693948	0.00168352095572817	-0.00264881264333715	0.00168523201119152	-0.00265395180963347	0.00983755532349572	-0.00782655535878598
5.3	-0.0028012237308434	0.0162799994900148	0.00129711947517434	-0.00286377284870515	0.00130024963928946	-0.00286171228127179	0.00970862008708042	-0.00855307750186172
5.4	0.000108970711406056	0.0156698154374097	0.000872724050321392	-0.00301088019903811	0.00088987325767222	-0.00302208006558517	0.00954896418138105	-0.00944189103035287
5.5	0.00270999580381016	0.0146152689975872	0.000459650298556805	-0.00310844238361345	0.000469693916605821	-0.00311786222973816	0.00911971311015083	-0.0104560190788321
5.6	0.00497801839309119	0.013162311998913	2.17170470406484E-05	-0.00314439108429338	1.31992694144992E-05	-0.00314760701778134	0.00832387874733961	-0.0112961322809821
5.7	0.0068141571505531	0.0114092979310463	-0.000408766294497217	-0.00311385792721348	-0.000425363571309378	-0.00311751605922713	0.00735970700640103	-0.0118267585248991
5.8	0.00825298452274027	0.00938789813112266	-0.000854102840530012	-0.0030190314727622	-0.000857633885781992	-0.00303300822779676	0.00642188776297783	-0.0123333555506678
5.9	0.00920559092875117	0.0072144312555081	-0.00125848361755029	-0.00287927562643241	-0.00126670685658715	-0.0028791950937698	0.00534199052291811	-0.0127498520631309
6	0.00962904586543027	0.00485682850517291	-0.00165629969518885	-0.00267333427173598	-0.00165274151555272	-0.00267350025421761	0.00409632840412428	-0.0129420515889554
6.1	0.00950040049778522	0.00245863411050092	-0.00201108606199143	-0.00241914829747105	-0.0020127246138058	-0.00241514749033731	0.00303223363639	-0.0128357675649435
6.2	0.00883705369164817	0.00011619457226768	-0.00232362013491447	-0.00210625230124238	-0.00232732520277479	-0.0021181139243055	0.00223509191525789	-0.0127414610078946
6.3	0.00780818434132274	-0.00207360388154961	-0.0026011320037601	-0.00177203660034208	-0.00261025322249054	-0.0017663028908691	0.00161917158841519	-0.0128338320211294
6.4	0.00636090015475516	-0.00409119668205617	-0.00282714972158059	-0.00138167690248708	-0.00281743291141332	-0.00138657522249171	0.00110632266513664	-0.0130263864257052
6.5	0.00460904262169952	-0.00579540735545381	-0.00298349709150959	-0.000977037629399694	-0.00299135190320445	-0.000972560289273903	0.000677157990417905	-0.0133634441609448
6.6	0.00257480185866087	-0.0070030291827622	-0.00309153145891699	-0.000552470313627235	-0.00309316299902698	-0.000556443934074938	0.000189062522447452	-0.0137920835485716
6.7	0.000374611709761743	-0.00764131911957607	-0.00314212500377539	-0.000115148724114153	-0.00315097260874924	-0.000108876427952785	-0.000660264009399114	-0.0141291182820918
6.8	-0.00190473185899905	-0.00768808781970708	-0.00312073748559635	0.000325844167256613	-0.00313182258442228	0.0003308858789962	-0.00168243409980497	-0.0141441025025013
6.9	-0.00415026681254711	-0.00717095242166883	-0.00304563289093953	0.000758734969493899	-0.00304861808237	0.000761122938333876	-0.00261435507590154	-0.0139219510242761
7	-0.00617668345869452	-0.00610622417702155	-0.00290934256248956	0.00117903732154162	-0.00292216138372713	0.00117683919078511	-0.00342991461241551	-0.0136589716132221
7.1	-0.00798146037090289	-0.00460334921063322	-0.0027321021011321	0.00156744323907516	-0.00272844373808155	0.00157610382375043	-0.0042780594228249	-0.0132576134149364
7.2	-0.0094408191555597	-0.00270316615894402	-0.00247632825735745	0.00193512736255814	-0.00248285423740744	0.00193720232530354	-0.00495172094402789	-0.0127058318370292
7.3	-0.010556038451678	-0.000533381074421258	-0.00218171275752375	0.0022541009151389	-0.00219292153874243	0.00225914556825505	-0.00537081788299603	-0.0122397238190255
7.4	-0.0112772589235356	0.00181489833872233	-0.00184104242748106	0.00253746576595208	-0.00184793031894481	0.00255106302497141	-0.00579910698894841	-0.0120445561208701
7.5	-0.0115611749417024	0.00423710845388584	-0.00147626682275004	0.00277719244523574	-0.00146928205861618	0.0027845899011813	-0.00617004132355026	-0.0120230500443649
7.6	-0.0113160628974391	0.00664013393694811	-0.00107067594819712	0.00295637815215613	-0.00107204706319027	0.00295168152244732	-0.00658394378972553	-0.0121997129453535
7.7	-0.0106154761355156	0.00892747251409788	-0.000642755421307355	0.00307847311063853	-0.000644094593503815	0.00307741066609978	-0.00733933883184659	-0.0127092545440178
7.8	-0.00912990186803807	0.0109586845451945	-0.00021725455826113	0.003128423908581	-0.000225065789019553	0.00313487533889715	-0.00831765467612494	-0.012867931431425
7.9	-0.00700381277309202	0.0124907896065955	0.000223883733134064	0.00313638767732534	0.000231824347755669	0.00313789173085924	-0.00923614589933824	-0.0126746731767598
8	-0.00445667036235364	0.0134663574513976	0.000665925688358374	0.0030650444161875	0.000666004006020818	0.00306994479342137	-0.0101361456138765	-0.0123515936243311
8.1	-0.00170315640638484	0.0138673221105416	0.00107690991750881	0.00294795034409433	0.00109606101261001	0.0029490480889783	-0.010960068297064	-0.0118607567815185
8.2	0.00101922100095996	0.0136982471420848	0.00148218710577228	0.00276749024648811	0.00149144033254591	0.00276029785510731	-0.0116483784044621	-0.0112068825463891
8.3	0.00362416240141141	0.0129825937661347	0.00185928121373778	0.00252867070818541	0.00185763173304324	0.00254222526014962	-0.0122026333842796	-0.0105491403261637
8.4	0.00598226215805384	0.0118375004079046	0.00219565531483967	0.00225098770345688	0.00219262376816166	0.00225076220671924	-0.0127492577048365	-0.00996689527998376
8.5	0.0080590589295651	0.0102307870340894	0.0024819945609771	0.0019202164199768	0.00248109649395117	0.00192340123402191	-0.0133918433075404	-0.009322201204515
8.6	0.00975610096594094	0.00828205489247873	0.00272856753156635	0.00155960782325131	0.00273807175231348	0.00155306494138233	-0.0139809451110602	-0.00860342327365821
8.7	0.0110655910670012	0.00597155715457676	0.00291462127286391	0.00115662036313282	0.00292018341751079	0.00115734394079595	-0.0144935314658479	-0.00786706767183869
8.8	0.0119041609248979	0.00338784841723099	0.00305140374531264	0.000745454271654091	0.003057174661023	0.000736690801950813	-0.0150310800531806	-0.0071881202361507
8.9	0.0122920766252335	0.000515665110615155	0.00312893145152268	0.000311189861865005	0.00312806003796661	0.000308941929586922	-0.0153684682578393	-0.00633706800287811
9	0.0120487448682929	-0.00260556878680028	0.00313871836890441	-0.000132311956256762	0.0031418767318834	-0.000128209603370319	-0.0154515405942931	-0.00543892550533544
9.1	0.011107400776354	-0.00578308168356949	0.00309250791375358	-0.000573900429964006	0.00309539440446774	-0.0005610000794817	-0.0153411442697457	-0.00464516229391952
9.2	0.009340402236447	-0.00874364510431526	0.00298306152864193	-0.000991614743320142	0.00299072081070271	-0.000994492647410309	-0.0152013081198723	-0.0039688325497086
9.3	0.0069100987110763	-0.011232803125527	0.00281460571274791	-0.00139707267848967	0.00281387449517992	-0.00140206441976567	-0.0149614065577626	-0.003283084109295
9.4	0.00392932514831537	-0.0131353797287444	0.00259231297196957	-0.00178762555530681	0.00259882657000726	-0.00178002591947609	-0.0146942446690303	-0.00272238496149381
9.5	0.000490106597441425	-0.0142111307724876	0.00231729127617369	-0.00212231067729612	0.0023247054080841	-0.0021236586657432	-0.0144834894194901	-0.00219792644346934
9.6	-0.00321413612598954	-0.0145022147172628	0.00200032537567081	-0.00242647564874849	0.00200065534435929	-0.00242549335690038	-0.0145111412460706	-0.00173174385935228
9.7	-0.00698131380348613	-0.0138939041756322	0.00163308987865273	-0.00267759848237355	0.00163862610794574	-0.00268490712426349	-0.0145820681004045	-0.00111767391974095
9.8	-0.0106285291410198	-0.0124647607632501	0.00124795243375099	-0.00288707826349858	0.00125365243272298	-0.00287857752190904	-0.014644757854025	-0.00041475357574609
9.9	-0.0139601095901745	-0.0101538216077906	0.000842344173991014	-0.00302691063947931	0.000835010664604805	-0.00302568373185765	-0.0147545175397403	0.00040818847677091
10	-0.0168065335105896	-0.00714666753725255	0.000411712174641032	-0.00311667556652352	0.000404219962017529	-0.00312912251724586	-0.0147373111102118	0.00131678745460701
10.1	-0.0189400156565341	-0.00352513205647517	-3.10713221889091E-05	-0.0031485129430981	-4.13060889419607E-05	-0.0031431175756938	-0.0144827021251746	0.00216374775203884
10.2	-0.0202573831822771	0.000491302006012122	-0.000477838756318656	-0.00311178088818248	-0.000481246463890699	-0.00310900052310649	-0.0140351119891501	0.00291644465639534
10.3	-0.0207142517810849	0.00474786366145798	-0.0009109293997062	-0.00300594702037914	-0.000902837482545786	-0.00301502446937053	-0.0134633381466372	0.003495204602393
10.4	-0.0202745960934382	0.009030285785996	-0.00130864690261162	-0.00285097126644213	-0.00130695200973163	-0.00285716928548712	-0.0127448600942585	0.0037624083980045
10.5	-0.0190181421553942	0.0132500200968104	-0.00170039946164985	-0.00265181981188095	-0.00169729203592251	-0.00263881627058463	-0.0121597402789269	0.00386681927127301
10.6	-0.0169264639982975	0.0172459174097764	-0.00205311602245756	-0.00238145093573085	-0.00205092990243044	-0.00238527514090169	-0.0117506942460173	0.00388020310825097
10.7	-0.0140344453638802	0.0209850874350169	-0.00236829060378993	-0.00207917993072284	-0.00236479394833726	-0.00207389876787457	-0.0114498976004653	0.00404948664044305
10.8	-0.0102807394901448	0.0242090965579166	-0.00263730928740438	-0.00171889060544095	-0.00263211155181186	-0.00172781945691677	-0.0111904959016872	0.00428420751112719
10.9	-0.00585774977109569	0.0267192432994169	-0.00284531181633748	-0.00134455282001758	-0.00285050012086177	-0.00134382025419607	-0.0109458352332518	0.004553482379452
11	-0.000794943756747113	0.0283525035977902	-0.00300429858146114	-0.000927951134884518	-0.00300914514416628	-0.000934690837399662	-0.0106202380729872	0.00492161172132849
11.1	0.00462498384951793	0.0289590231352295	-0.00311252728984617	-0.000502930573862091	-0.00310166650724106	-0.000500073466329944	-0.0101446377039179	0.00523685757623751
11.2	0.0101987184702739	0.0284001883130396	-0.00314173158235635	-6.52439315603403E-05	-0.00314888568149702	-7.00789072432225E-05	-0.00949241563960082	0.00547553670886028
11.3	0.0157179934375818	0.0266380449826278	-0.00311485887039764	0.000383395690180508	-0.00312640250724604	0.000373361038260436	-0.00861778397534608	0.00558301722083546
11.4	0.0207121934305047	0.0237910026976792	-0.00304119314356878	0.000811113199852544	-0.00303627788390438	0.000818677978371535	-0.00780862563549906	0.00543090744620201
11.5	0.0250709542137686	0.0199598969021365	-0.00289800861467079	0.00122663776699438	-0.00290078529481436	0.00123691373348977	-0.00720233173249571	0.00498734932164108
11.6	0.0286819416066056	0.015243191267953	-0.00270377768204414	0.0016169893823102	-0.0027037583686707	0.00161992941784923	-0.00667324812142539	0.00439152288288474
11.7	0.0313409441110437	0.00988132661621576	-0.00244265493179822	0.00197178738595744	-0.00244321788132926	0.00198039210415765	-0.00623612669189918	0.00365618695226629
11.8	0.0329890986718938	0.00407952296947099	-0.00214747856180553	0.0023040956136978	-0.00215159354394831	0.00230579447533529	-0.00595786136769498	0.00292797879691247
11.9	0.0336698887609833	-0.00199700240115057	-0.00179829779569856	0.00258042018655086	-0.00181131906320096	0.00258472852794419	-0.00579331226933948	0.00247009504930479
12	0.0329114514204207	-0.00814399860500533	-0.00142494216435849	0.00280379839486604	-0.00142434607308732	0.00280521023317208	-0.00584351649825965	0.00209281680473658
