# GHZ S RI R 50
0.2	0.00591128141627959	0.00125414934622515	0.00304833216131117	-0.000897927933306185	0.00305870077873711	-0.000891119052495596	-0.0140391816339125	0.00490588573680356
0.3	0.00623202656106002	-0.000700878937086507	0.00290411210762956	-0.00132135192133434	0.00289686598348416	-0.00130841328788365	-0.0132395442053321	0.0050996581681492
0.4	0.00599300682244557	-0.00236392810239685	0.00267245446525974	-0.00169311745154073	0.0026777216524964	-0.00170167794154086	-0.0127133249478677	0.00562724507304489
0.5	0.00525388419084585	-0.00377624184787978	0.0024135715293192	-0.00204972591490326	0.0024251082584167	-0.00206196521707007	-0.0122300430669071	0.00621590594368362
0.6	0.004232788313733	-0.00479532483503595	0.00210111142928259	-0.00236415449661175	0.00210032507647372	-0.00237130360965888	-0.0117606452344396	0.00682223888877282
0.7	0.00296693285629906	-0.00547831150574425	0.00175397735030987	-0.00264188636280009	0.00175202148378369	-0.00264208519168303	-0.0113925813652901	0.00742739345834637
0.8	0.00164926198993786	-0.00582470582443815	0.00136857801261507	-0.00285920499467572	0.00135597923245294	-0.00286375378586317	-0.0110390034269601	0.00816501255351355
0.9	0.000256139992106554	-0.00580847415664489	0.000951595524469507	-0.00302265435129802	0.000952630578105426	-0.00303335237803328	-0.0106146783764584	0.00894125547259367
1	-0.00111933433878472	-0.00557312155355617	0.000526954355796469	-0.00312608938505417	0.000517093539928806	-0.00312682991938734	-0.0101056793820826	0.00968348173946403
1.1	-0.00256005282685411	-0.00500788712857201	7.13239509214784E-05	-0.00315497316443667	6.78177041341706E-05	-0.00317262233362066	-0.0096614247368153	0.0105842355401197
1.2	-0.00384297878896943	-0.00440449728489099	-0.00037076381230976	-0.00314432215230168	-0.00037157555330801	-0.00314224596033165	-0.00872547582563931	0.0115022867874148
1.3	-0.00517558165984766	-0.00391877587033667	-0.000797777456065534	-0.0030611178063909	-0.000801017063220526	-0.00306312289393476	-0.00716541289660954	0.0121663806902629
1.4	-0.00632757837654549	-0.0033451033308501	-0.00121896305795879	-0.00291297832916613	-0.0012177498257723	-0.00291851087480423	-0.00544511502783592	0.0120388059471795
1.5	-0.00691536060168684	-0.00227971803763457	-0.00161993975952874	-0.00271724847771362	-0.00161832760244501	-0.00272574833540044	-0.00414389371709625	0.0115348290752672
1.6	-0.00684044913038218	-0.000735121954514547	-0.00198046720395363	-0.00246470984378953	-0.00198067811812182	-0.00246994365206961	-0.00355896261885385	0.0114451399807752
1.7	-0.00621653067952496	0.000724111017250919	-0.00230879510581625	-0.00216793744358542	-0.00230976082632362	-0.00216167659821066	-0.00291714737609369	0.0116022393448948
1.8	-0.00529791820122324	0.00211076617238297	-0.00257984796690604	-0.00181658069165757	-0.00259081269086749	-0.00182221735182853	-0.00223282976950165	0.011751190090122
1.9	-0.00409750578046523	0.00313756370416381	-0.00280533773996917	-0.00144591985405207	-0.00281777697559258	-0.00143976730106278	-0.00155716106093971	0.0118664045147011
2	-0.00283912853361643	0.0038319052727234	-0.00298100475727411	-0.00103804771109421	-0.00299062544723121	-0.00103333937385885	-0.00099377267821311	0.0120164896574308
2.1	-0.00143245934211877	0.00428303970828169	-0.00309431265814786	-0.000609788739327056	-0.00309022992959429	-0.000611780193985071	-0.00023403504027823	0.0122337049423404
2.2	4.10180958454904E-05	0.0043565799169388	-0.00315177292141707	-0.00017155596481691	-0.0031630752830386	-0.00017439154914821	0.000771762792338702	0.012254367484681
2.3	0.00144090497472567	0.00397477408183107	-0.00314711556362841	0.000271945158874738	-0.0031468135073745	0.000265063024424896	0.00172111599799626	0.0119943763048108
2.4	0.00267751440377206	0.00329365699136452	-0.00307446904673638	0.000710404159231708	-0.00307701030816446	0.000706147747082841	0.00260738275530059	0.011671984170916
2.5	0.00363162181622211	0.00224308351627495	-0.00293708314402652	0.00112242025504042	-0.0029479691854904	0.00112879983609845	0.00340878789541691	0.0111605235454723
2.6	0.00435072606396227	0.00115559963368804	-0.00276328331900079	0.00152536949277303	-0.00275972777903919	0.00151304859485567	0.00415150865436935	0.0107118389123871
2.7	0.00501803543916376	-0.000109822171809657	-0.00251716623983146	0.00189677737681572	-0.00252244548576891	0.00189678905902742	0.00483577723234231	0.0101516905465392
2.8	0.00556106440487609	-0.00159629690379493	-0.00223394001888213	0.00222410939904485	-0.00222612599764321	0.00223389597434393	0.00538533743981161	0.00968370731960522
2.9	0.00592789589878203	-0.00333626776932655	-0.00189937224560852	0.00252386119640606	-0.00189566420709941	0.00252343377296587	0.00611395267789296	0.00934905951223634
3	0.0058106210779395	-0.00529326527123921	-0.00151327824805056	0.00275902198415319	-0.00152805532429957	0.00276512120071624	0.00692592321861838	0.00897185913969419
3.1	0.00534235119201998	-0.00716290042462761	-0.00112269492621667	0.00293611966082815	-0.00111803754216696	0.00294446010360515	0.00776110597138362	0.0085480973367371
3.2	0.00436508771380657	-0.00905027895625948	-0.000702006398147503	0.00307279842273867	-0.000703750571664223	0.00307218821088658	0.00842153745824796	0.00805013697178448
3.3	0.00290828935663838	-0.0108455988545091	-0.000263681550575836	0.00314216400346425	-0.000262033720050873	0.00313842461082163	0.00914162793640633	0.00743845667483595
3.4	0.000939243730907891	-0.0122949586192649	0.000182871302001432	0.00313589403628175	0.00017666873968503	0.00315245516705145	0.00984817120924731	0.00656725414971416
3.5	-0.00147832857405912	-0.0134064033422039	0.000604816581455833	0.00309304978492431	0.000610411665284685	0.00309312449841497	0.0101643675799299	0.00539901390298844
3.6	-0.00414850599700732	-0.0137668046762235	0.0010332489006926	0.00297318579078135	0.00104143883280455	0.00297286671569135	0.0102877749010649	0.00458430039720324
3.7	-0.00677833523438387	-0.0136119154564051	0.00144345166333333	0.00279196266016691	0.00143386988374115	0.00280563643354133	0.0105358869905492	0.00377537644052743
3.8	-0.00937441995519736	-0.0129079508986206	0.00182137790960109	0.00256476469005867	0.00182378274922991	0.00257391230697876	0.0107036466738189	0.00293150907561654
3.9	-0.0116859341091487	-0.0117279665193422	0.00216724244067852	0.00229154203252534	0.00215997782031441	0.00228976415544658	0.0107901999968498	0.00207803830691431
4	-0.013833869773042	-0.0101984487094945	0.00245177185876894	0.00196970405806525	0.00245621890361824	0.00196726902291194	0.0107643651852256	0.00130776439716324
4.1	-0.0156065430995968	-0.00813625114711557	0.00270309109948624	0.00160985088853924	0.00270183902248132	0.00161058663185441	0.0109215226066159	0.000795444646530032
4.2	-0.0169489525927837	-0.0058350846740286	0.00290222815437327	0.00120871023603903	0.00290669190241023	0.00119999618057306	0.0112163935179124	0.000112582349032761
4.3	-0.0178911948641428	-0.00339041205604568	0.00304510909034853	0.000796466298162041	0.00305152896158593	0.000788664428989953	0.0114505390981833	-0.000780803193907917
4.4	-0.0184799582292384	-0.000783048485059578	0.00312099644906686	0.000362104208100701	0.00312336961367365	0.000359847911487519	0.0114950281220425	-0.001731403792271
4.5	-0.0187590645358374	0.0018967545760926	0.00314297107601329	-7.54317856024496E-05	0.00314832858623729	-7.88039161613627E-05	0.0113591571383895	-0.00271486592316777
4.6	-0.018604893511993	0.00483743537982696	0.00309913897614931	-0.000517825582972793	0.00310036735389563	-0.000504917259113569	0.0111216395240481	-0.00354004326852278
4.7	-0.0177180274635039	0.0077114323145457	0.00299376878400092	-0.000936608073599299	0.00300904776972497	-0.000946222174079238	0.0108466012288716	-0.00442993026065703
4.8	-0.0163367790016426	0.0103641894672908	0.00283241901228603	-0.00135041194504533	0.0028408927262715	-0.00135649878886453	0.0104647518439674	-0.00522812504136526
4.9	-0.0142623970927809	0.0126569255717849	0.00261152076824919	-0.00173389999002511	0.00261568452098166	-0.00173099702710799	0.0101308833160904	-0.00590127516280742
5	-0.0118876986739298	0.0143511182943564	0.00235248873590593	-0.00208854885352182	0.00235610818942477	-0.00208588564697225	0.00991729522050508	-0.00653027246835932
5.1	-0.00896810107588613	0.0157324577826003	0.00204165146304328	-0.0023993560527606	0.00204395090734026	-0.00239799908668456	0.00989312940787641	-0.00709831279038441
5.2	-0.00584252889407512	0.0163086214238228	0.00168403010960638	-0.00264878019585662	0.00168574203115239	-0.00265391952076257	0.00988916602925545	-0.00785507804908094
5.3	-0.00273292371878178	0.0162345713777402	0.00129769725170686	-0.0028637188326369	0.00130082724461731	-0.00286165759500408	0.00978204835062693	-0.00859841579578627
5.4	0.000209593936576145	0.0155442821416775	0.000873564519333244	-0.00301107062716352	0.000890718701934646	-0.00302226785708071	0.00965676074962366	-0.00956934471173712
5.5	0.00260812567494935	0.0143684891189081	0.000460022195111702	-0.00310933654804155	0.00047006952511059	-0.00311875845110962	0.00902099032559103	-0.0107107608456275
5.6	0.00479116376614946	0.0131282010364103	2.16086534494284E-05	-0.00314477733778224	1.30897180184134E-05	-0.00314799336469273	0.00813612186744519	-0.011333616238158
5.7	0.00668258560076054	0.0114459803558176	-0.000408732384565684	-0.00311411435415064	-0.000425330903634672	-0.00311777313124918	0.0072284545901979	-0.0117918024484529
5.8	0.00815502885391516	0.00946958368459211	-0.000854096760024912	-0.00301940743373221	-0.000857627728564073	-0.00303338591473336	0.00632445050269197	-0.0122541202878589
5.9	0.00919747914487073	0.00731416352576955	-0.00125887981027575	-0.00287972463307422	-0.00126710453655117	-0.0028796436063814	0.00533211540012144	-0.0126532531447105
6	0.00955196847405513	0.00481435217286438	-0.00165691361097417	-0.00267286598061428	-0.00165335555645597	-0.00267303282866838	0.00401551466890846	-0.0129827517704514
6.1	0.00933950338482993	0.00265404904740923	-0.0020108631601857	-0.00241868883175311	-0.0020125012982093	-0.00241468859150102	0.00287204455830692	-0.0126382894087287
6.2	0.00887682595167244	0.0004073355850328	-0.00232333861413965	-0.00210608853658858	-0.00232704304949091	-0.00211794903480238	0.00227602943739773	-0.0124495121736561
6.3	0.00802335460840174	-0.00185064722646896	-0.00260091038024416	-0.00177188490649385	-0.00261003081962225	-0.00176615168457011	0.00183388424808122	-0.0126100618566402
6.4	0.00667310656011591	-0.00407204381946963	-0.00282675237742522	-0.00138125582415951	-0.00281703755789747	-0.00138615393008831	0.00141870494456362	-0.0130048304204622
6.5	0.00467669369669363	-0.00594763932081228	-0.00298228461349829	-0.00097714088122145	-0.00299013730072197	-0.000972666328172897	0.00074739462507295	-0.0135126719164332
6.6	0.00261594528218211	-0.00697724280753789	-0.00309096472727191	-0.000553250919633483	-0.00309259495044249	-0.000557224458916462	0.000231548789632098	-0.0137655780913001
6.7	0.000478358545029992	-0.00763210972799152	-0.0031418511357714	-0.000115784037945033	-0.00315069932259127	-0.000109514056047776	-0.000555921568883945	-0.0141191368753681
6.8	-0.00176735630196822	-0.00771408951236206	-0.00312043063854512	0.000325237631047071	-0.00313151535475684	0.000330276732568899	-0.00154482765241091	-0.0141688639746895
6.9	-0.00395260514988325	-0.00732613347021946	-0.00304523493169299	0.000757733691077218	-0.00304822019162493	0.000760120349441415	-0.0024158127482213	-0.0140757033366937
7	-0.00627249198615677	-0.0064700539181241	-0.00290999044770452	0.00117766128290501	-0.00292280854700051	0.00117545689225655	-0.00352236934282073	-0.0140211653346266
7.1	-0.00822235699112718	-0.00467052928609839	-0.00273291547658963	0.00156701791921514	-0.00272925866720183	0.00157568076037265	-0.00451588153767053	-0.0133252738268369
7.2	-0.00960749742201037	-0.00267034820956922	-0.00247686869444193	0.00193480976384565	-0.00248339553758809	0.00193688366796899	-0.00511648409925013	-0.0126737927281385
7.3	-0.0106801379628831	-0.000444905963893336	-0.00218230234302872	0.00225369277161698	-0.00219351267920976	0.00225873508455338	-0.00549354622850902	-0.012152113624644
7.4	-0.0112990148156919	0.00191853239189172	-0.00184208739334708	0.00253720467542051	-0.00184898050223758	0.00255080148429406	-0.00581325275663562	-0.0119387947476781
7.5	-0.011693779656151	0.00416414716450808	-0.00147698600420367	0.00277796302036514	-0.00146999962226472	0.0027853634776513	-0.0062930809932879	-0.0121005445418694
7.6	-0.0115295003511609	0.00687373982013302	-0.00107069472008679	0.00295661228285668	-0.00107206602658456	0.00295191534184438	-0.0068075969757309	-0.0119605132789998
7.7	-0.0105810390397609	0.00927418496364704	-0.000643035930149556	0.00307850518848874	-0.000644375049583591	0.00307744259983796	-0.00729886136913767	-0.0123635836226894
7.8	-0.00888749597881455	0.0111969403947344	-0.00021763744497698	0.00312868307685226	-0.000225450134672447	0.00313513418693059	-0.00807112119690049	-0.0126336551251704
7.9	-0.00667834878650872	0.0124713330018959	0.000223926816764444	0.00313700120155752	0.000231868984220202	0.00313850555107886	-0.00891018199567449	-0.0127025452008338
8	-0.00446033467509417	0.0132662204744963	0.000666548145789548	0.00306465808704974	0.000666627535795051	0.00306955806370268	-0.0101446483518611	-0.0125493880000129
8.1	-0.00171896686075419	0.0139017145573489	0.00107656272391601	0.00294738531567857	0.00109570980733754	0.00294848364017462	-0.0109731264947443	-0.0118207601483086
8.2	0.0010864304234661	0.0137306272640881	0.00148173750317008	0.00276730886157048	0.00149099034483162	0.00276011823860086	-0.0115772312734813	-0.0111722216142099
8.3	0.00374080515622742	0.0129877061474469	0.00185898306095585	0.00252852319739479	0.00185733307554551	0.00254207639305485	-0.0120830761338717	-0.0105420204059339
8.4	0.00618959396236458	0.0117125894980452	0.00219527271714803	0.00225037405649435	0.00219224184043865	0.00225014875946259	-0.0125383756180325	-0.0100848472465518
8.5	0.00796873467597891	0.0098553671978883	0.00248035750088402	0.0019199460527363	0.00247945905213154	0.00192312915931505	-0.013465453966439	-0.00969193615360058
8.6	0.00949625718504469	0.00821792847651039	0.00272746446192725	0.00156041128206563	0.00273696958409574	0.00155387332865901	-0.0142279040355448	-0.00867305888469741
8.7	0.0108877130334442	0.00602526399493693	0.00291390648336006	0.00115738366973121	0.00291946772437172	0.00115810888519915	-0.0146633317061422	-0.00782074900795402
8.8	0.0117889401652217	0.00350001185214349	0.00305063301312493	0.00074622975646667	0.00305640550342838	0.00073746958221722	-0.0151378433403823	-0.00708393573756036
8.9	0.0122956846641887	0.000618384660175963	0.00312791272181488	0.000312535511237126	0.00312704258166108	0.000310287809436372	-0.0153544959291467	-0.006247587049173
9	0.0119116036239792	-0.0026406284838502	0.00313900681056003	-0.000130043160020506	0.00314216239124859	-0.000125938264424461	-0.0155904273473632	-0.00549795395816022
9.1	0.0109615364308327	-0.00553552367913055	0.0030934728592603	-0.000572744220209858	0.00309635464238879	-0.000559839638915171	-0.0154942554799368	-0.00441038108995012
9.2	0.00942209641447212	-0.00845757538330327	0.00298386389198454	-0.000990765529024536	0.0029915253459764	-0.000993641304795563	-0.0151259215888613	-0.00369169677536591
9.3	0.00715616643777868	-0.0110527702703746	0.00281550614994776	-0.00139621112922172	0.00281477669571587	-0.00140120381602459	-0.0147222639549906	-0.00311110332660563
9.4	0.0042792860544767	-0.013202237170311	0.00259387275503256	-0.00178689877909295	0.00260038457470576	-0.00177929397077492	-0.0143586257775849	-0.00279827263555378
9.5	0.000494232594455851	-0.0144915117779569	0.00231874892910452	-0.00212315018002608	0.00232616709186268	-0.00212449801068033	-0.0144904930994333	-0.00247593955009199
9.6	-0.0032809350846203	-0.0145182772162353	0.0020006314645838	-0.00242698017751495	0.00200096152096862	-0.00242599771218724	-0.0145806593215775	-0.00174550438857773
9.7	-0.00696219639502898	-0.0138814873202519	0.00163349742913291	-0.00267777222357723	0.00163903489475756	-0.0026850812511874	-0.0145654147674965	-0.0011044268407086
9.8	-0.0105550048342941	-0.0124647137147593	0.00124850194688863	-0.00288742915216162	0.00125420193758127	-0.00287892628898167	-0.0145747341333027	-0.000412804603252662
9.9	-0.0137958161632174	-0.0102701012861079	0.000842474780788036	-0.0030277828952909	0.00083513927032017	-0.00302655539363795	-0.0145901662965277	0.000295276849338965
10	-0.0169279682682571	-0.00749485582422326	0.000410793033259894	-0.00311653402629776	0.000403297907590402	-0.00312897781722899	-0.0148559062198653	0.000966689947030067
10.1	-0.0192124630100593	-0.00356882026728798	-3.08533180641425E-05	-0.00314781103110829	-4.10861579791391E-05	-0.00314241755616507	-0.0147568157042011	0.00211815347186746
10.2	-0.0204451133443634	0.000567285730569201	-0.000477340193223071	-0.00311152097567124	-0.000480747941161731	-0.00310874139501537	-0.0142243690955565	0.00299250635324511
10.3	-0.0208196203146815	0.00488425298043648	-0.000910607433936185	-0.00300584962312914	-0.000902515188602187	-0.0030149258118366	-0.0135694482644078	0.00363146277423556
10.4	-0.0202450138808614	0.00911633336885845	-0.00130847283437995	-0.00285035190600164	-0.00130677848279948	-0.00285654872354218	-0.0127174648340729	0.00384814877563772
10.5	-0.0191987657260017	0.0132159646608192	-0.00169872339637486	-0.00265119549030227	-0.00169562181453598	-0.00263819679365071	-0.0123412733350842	0.00383937021205582
10.6	-0.0170533735434814	0.0175331369846986	-0.00205185837446615	-0.0023822054557764	-0.0020496706703576	-0.00238602835245366	-0.0118732610560955	0.00417154649346671
10.7	-0.0139171041399616	0.0212797506394828	-0.00236758181199236	-0.00207987237199094	-0.00236408689632682	-0.00207459024003263	-0.0113286380397204	0.00434658039054929
10.8	-0.0100555367868459	0.0243742677754236	-0.0026365509607162	-0.00171941983994971	-0.00263135136498642	-0.00172834629340993	-0.0109086662110348	0.00440961373813515
10.9	-0.00545752620905642	0.0266467170647502	-0.00284396574065777	-0.00134551718107638	-0.00284915305486863	-0.00134478718824336	-0.0105316637189084	0.00448431419041748
11	-0.000755099251780577	0.0279932770624576	-0.0030040845752887	-0.000930307274369329	-0.00300892693388624	-0.00093705159629157	-0.0105624742001385	0.00455025447208059
11.1	0.00453937706142031	0.0288796362137305	-0.00311324586488313	-0.000504194817968566	-0.00310238297114323	-0.000501332980543837	-0.0102246644016304	0.00514377786696023
11.2	0.0101884916388338	0.0283698435455016	-0.00314222424242827	-6.61935144146616E-05	-0.00314937806283195	-7.10314163786063E-05	-0.0094979363772357	0.00543417828065763
11.3	0.0157593693077567	0.0266049076528428	-0.00311540844651018	0.000382250292503735	-0.00312694972545772	0.00037220991549603	-0.00857057862850466	0.00554003998290466
11.4	0.0208451264110782	0.0236408831060285	-0.00304260498429307	0.000809806414644446	-0.00303769202932842	0.000817376202409689	-0.00767427005497833	0.00526180305961072
11.5	0.0248796333455394	0.0196044908563321	-0.00289987500584669	0.0012271583591554	-0.00290265419168603	0.00123744038184433	-0.00741492277879691	0.00461785079313709
11.6	0.0283694472186189	0.0152244916084746	-0.00270427333905489	0.00161753042840615	-0.00270425382545209	0.0016204711187917	-0.00699433439666128	0.00437122361203446
11.7	0.031132753608853	0.00998588862020919	-0.00244315816497512	0.00197197199816399	-0.00244372167819784	0.00198057807661789	-0.0064508318848479	0.00375663642785445
11.8	0.032890579443422	0.00424473080931686	-0.00214818570552306	0.00230450633690175	-0.00215230183808254	0.00230620531067045	-0.0060661603121134	0.00308885693062996
11.9	0.0336490026840708	-0.00191120606228475	-0.00179860007146429	0.00258170405473926	-0.00181162574940846	0.00258601608801916	-0.0058278705805	0.0025638406568274
12	0.0326640946118931	-0.00819418854409833	-0.00142347275460749	0.00280412185076061	-0.00142287608104187	0.00280553324360318	-0.00607704550738956	0.00205817446882205
