# GHZ S RI R 50
0.2	0.00590492260096102	0.00123495370016884	0.00304834454740935	-0.000897932176877649	0.00305871320873716	-0.000891123269903179	-0.0140456231127472	0.00488670620462479
0.3	0.00621549092752539	-0.000712272100485758	0.00290412764861328	-0.00132135814891663	0.0028968814833712	-0.00130841944938663	-0.0132561861730298	0.00508828863412984
0.4	0.00596816012153417	-0.00235614096418806	0.00267249084629991	-0.00169312608161982	0.00267775812535142	-0.00170168664699733	-0.012738415111688	0.00563504820423524
0.5	0.00526279597529545	-0.00374576222617487	0.002413624945253	-0.00204980654831891	0.00242516190894528	-0.00206204630755305	-0.012221560377873	0.00624683668859775
0.6	0.00425228077338574	-0.00480253914164847	0.00210108381360406	-0.00236424731718002	0.00210029726207815	-0.00237139652512013	-0.0117411013623268	0.00681563394667261
0.7	0.00296993070349953	-0.00549345708793736	0.00175393504114697	-0.00264195535700832	0.001751979149	-0.00264215414275077	-0.0113894322407787	0.00741272035002488
0.8	0.00164040608909296	-0.00584235400069975	0.00136853246119555	-0.00285928014705864	0.00135593338425539	-0.00286382871503562	-0.0110477119953679	0.00814787045791313
0.9	0.000218348702397755	-0.00582164493274815	0.000951511976191679	-0.00302276855711691	0.000952546672401309	-0.00303346690414327	-0.0106521522280314	0.0089288709747936
1	-0.0011585916961507	-0.00551118760347475	0.00052673509182054	-0.00312613490528829	0.000516874197425327	-0.00312687474553173	-0.0101437450428122	0.00974610698748265
1.1	-0.0025217315747154	-0.00496609804924076	7.11894147192012E-05	-0.00315490041402984	6.76825090921766E-05	-0.00317254901183306	-0.00962243055594024	0.0106260207309343
1.2	-0.00381249274469592	-0.004400147337933	-0.000370863621994938	-0.00314426991943325	-0.000371675283679297	-0.003142193726833	-0.00869455970520371	0.0115067414893977
1.3	-0.00517078222368036	-0.00392061422899091	-0.000797897231767858	-0.00306106002794672	-0.000801136895300448	-0.00306306496557784	-0.00716002678000344	0.0121647159575342
1.4	-0.00635050926590253	-0.00331499888705009	-0.00121910573419644	-0.00291283637058365	-0.00121789285777604	-0.00291836885490199	-0.00546700795384309	0.0120690591966494
1.5	-0.0068732087219161	-0.00221109889306368	-0.00161988550356863	-0.0027170221424528	-0.00161827364591432	-0.00272552143846002	-0.00410149090299495	0.0116026994519323
1.6	-0.00679414711470224	-0.000736291637573972	-0.00198038380993952	-0.00246468615019919	-0.00198059463635546	-0.00246991984478847	-0.0035131275263477	0.0114439568029124
1.7	-0.00619198871105084	0.00071664948763294	-0.00230879069473721	-0.00216792781448435	-0.00230975640435439	-0.00216166698727881	-0.00289268947543477	0.0115948546238702
1.8	-0.00528327942950483	0.00209639914731499	-0.00257984881270536	-0.00181654430648023	-0.00259081352029872	-0.00182218082538885	-0.00221822001017205	0.0117367577758059
1.9	-0.00410849834373723	0.00313577730352469	-0.00280526316905928	-0.00144590769751153	-0.0028177021670228	-0.001439755376663	-0.00156840710464365	0.0118644998685471
2	-0.0027931984903282	0.00387218839496531	-0.00298103794158995	-0.00103827061861609	-0.00299065924821321	-0.00103356273362734	-0.000948259037745549	0.0120572980178025
2.1	-0.00137451204217322	0.00422847506869481	-0.00309458320623242	-0.000609812068479699	-0.00309050014679673	-0.000611803731668968	-0.000175780700997174	0.0121797311262651
2.2	4.06361296032077E-05	0.0042850771674691	-0.00315197274517178	-0.000171439415315808	-0.00316327591286858	-0.0001742747175867	0.000771755059163898	0.0121831386285165
2.3	0.00140316891688281	0.0039126952941197	-0.0031472550152286	0.000272071726936596	-0.00314695319321184	0.000265189255150094	0.00168361538305926	0.011932432657849
2.4	0.00259266359430444	0.00325803819229097	-0.00307467743546735	0.000710489430918781	-0.00307721892464765	0.000706232748122512	0.00252251510969322	0.0116369867553001
2.5	0.00356891465403131	0.00231016620720072	-0.00293741731998698	0.00112281885098616	-0.00294830442142848	0.00112920023017407	0.00334656479850315	0.0112284855366026
2.6	0.00436096990439283	0.00117304217212805	-0.00276324029896581	0.0015258530876442	-0.00275968627197654	0.00151353092411806	0.00416294826725731	0.0107297409020982
2.7	0.00500125426419754	-0.000121128394752861	-0.0025170427204355	0.00189713135568379	-0.00252232215663015	0.00189714363635193	0.004820007866361	0.0101408417033174
2.8	0.00551710324137932	-0.00160254244839037	-0.00223382224519167	0.00222445258493888	-0.0022260068176194	0.00223423884400573	0.00534233289467769	0.00967826274898597
2.9	0.00585681771277255	-0.00330379391745362	-0.00189918019734647	0.0025243406415514	-0.00189547190446717	0.0025239126633259	0.00604461942143561	0.00938292767349558
3	0.00581355498143053	-0.00519729751858757	-0.00151263451071017	0.00275938613160945	-0.0015274101991383	0.00276548883977023	0.00693184939279903	0.00906802230310484
3.1	0.00537722250569401	-0.00714372853763123	-0.0011222112179542	0.00293608723098454	-0.00111755296671056	0.00294442648276927	0.00779776782246506	0.00856753214556379
3.2	0.00437122108693749	-0.00904379745304102	-0.000701636164175471	0.00307278976849012	-0.000703380356896732	0.00307217977289431	0.00842932378920107	0.00805602890590784
3.3	0.00289902198476494	-0.010834986809893	-0.000263257277241334	0.00314215334532714	-0.000261609971134378	0.00313841378687613	0.00913462397400439	0.00744830818786719
3.4	0.000904237272399811	-0.0122517266103011	0.000183419552653589	0.00313569207531811	0.000177220272993393	0.00315225341532972	0.00981595006065659	0.00660839843323907
3.5	-0.00142389618405539	-0.013284880636677	0.000604979116482042	0.00309250479169067	0.000610573312402859	0.00309257902438194	0.0102189172143143	0.00551737410919546
3.6	-0.00402883604286104	-0.0137589368766531	0.00103323403258818	0.00297304885870247	0.00104142361232053	0.00297272971680357	0.010407084898723	0.00459192005684718
3.7	-0.00669626116808365	-0.0136549865812434	0.0014436058569948	0.00279186226072968	0.00143402492989946	0.00280553651231558	0.0106188629816223	0.00373174361178324
3.8	-0.00932792419915016	-0.0129740040351389	0.00182155210261684	0.00256454766964672	0.0018239576624868	0.00257369486068194	0.0107510422016763	0.00286388908979003
3.9	-0.0116930850033974	-0.0117798734595755	0.00216720089915303	0.00229126142253187	0.0021599367224344	0.00228948405104889	0.0107822520846144	0.0020245795448478
4	-0.0137787510353511	-0.0101834388877775	0.0024517373493091	0.0019699028643081	0.00245618466891295	0.00196746800329288	0.0108197702276648	0.00132515754005457
4.1	-0.0155341784135337	-0.00824677089227337	0.00270349852649212	0.00160978911309223	0.00270224638392261	0.00161052503496548	0.0109976611627276	0.000684124450878136
4.2	-0.0169686245268432	-0.00597796407885541	0.00290248148783122	0.00120841270487283	0.0029069443742335	0.0011996977899985	0.0111990413204222	-3.32103084235945E-05
4.3	-0.0179922799879165	-0.00351325560102493	0.00304520574257017	0.000796209085217399	0.00305162499434614	0.000788406588165629	0.0113497692563351	-0.000906142317639609
4.4	-0.0186668455792012	-0.000826336057769164	0.00312119259548112	0.000362053265282921	0.00312356585024881	0.000359796777669936	0.0113096356632037	-0.0017755567151976
4.5	-0.0188731845064311	0.00202428616989737	0.00314358728518906	-7.59120321513977E-05	0.00314894536573095	-7.92856287904896E-05	0.0112497634763567	-0.00259274879754838
4.6	-0.0186213205232416	0.00489490530581358	0.00309918272648954	-0.000518597480091408	0.00310041426895561	-0.00050568875117483	0.0111055761923794	-0.00349001662048062
4.7	-0.0177550383392851	0.00775090759518238	0.00299364510796484	-0.000937186692013918	0.00300892255459524	-0.000946803829871732	0.0108085034377982	-0.0043957366500881
4.8	-0.0163856269785052	0.0104102806767651	0.00283231922502436	-0.0013509576587191	0.00284079229115241	-0.00135704622958552	0.0104146839726046	-0.00518751373005744
4.9	-0.0143386452340684	0.0127489761685471	0.0026113908970693	-0.00173470266201977	0.00261555578160991	-0.00173180037178226	0.0100530344188267	-0.00581701710588585
5	-0.0118352128572333	0.0145337957679551	0.0023515769409907	-0.00208937886850369	0.00235519728196968	-0.0020867171833245	0.00996069541254616	-0.00635505806040424
5.1	-0.00886513559052197	0.0157647555641597	0.00204081126635278	-0.00239947640046095	0.00204311068933899	-0.00239812015340006	0.00998798940104392	-0.00706664649803296
5.2	-0.00580227791928034	0.0163042800755703	0.00168338425384174	-0.00264886789845331	0.00168509505730786	-0.00265400710009743	0.00992343734485539	-0.00785999536887831
5.3	-0.00274160653889546	0.0162356233495978	0.00129697226335405	-0.00286381442255244	0.00130010250383639	-0.00286175402070286	0.00976700679043417	-0.00859819795809584
5.4	0.000146707849324992	0.0156250492889793	0.000872562995207887	-0.00301090642465364	0.000889711516327422	-0.00302210710717967	0.00958518575639273	-0.0094873987892502
5.5	0.00273507307387589	0.0145751399203039	0.000459469538348061	-0.00310845012042514	0.000469512556898613	-0.00311787048540858	0.00914291583997474	-0.0104967642707128
5.6	0.00499977933276799	0.0131245236625589	2.15115024821699E-05	-0.0031443696769981	1.29935766284683E-05	-0.00314758503079558	0.00834337901611839	-0.0113342339544797
5.7	0.00683906862346713	0.0113694782066004	-0.000409003836073477	-0.00311378710139769	-0.000425601190247222	-0.00311744389427109	0.00738231596775336	-0.0118651747302548
5.8	0.00827295313329572	0.00932654573178316	-0.000854356274410619	-0.00301888236638105	-0.000857888503029363	-0.00303285846952782	0.0064400216637254	-0.0123929939119447
5.9	0.00919636411513185	0.00712620792375134	-0.00125871910986169	-0.00287901666229776	-0.00126694196662768	-0.00287893529723963	0.00533109973487982	-0.0128354422264702
6	0.00956316875513471	0.00476614081836351	-0.00165643931744754	-0.00267295763139838	-0.00165288143369615	-0.0026731239596024	0.00402992743352741	-0.0130297943350872
6.1	0.0093815685191481	0.00241056202159488	-0.00201105221893144	-0.00241872406598878	-0.00201269027785253	-0.00241472357352083	0.00291371366133716	-0.0128806709886596
6.2	0.00870523241767452	0.000140260668249804	-0.0023234165979423	-0.00210590087506	-0.0023271216766518	-0.00211776088891654	0.00210523778465838	-0.0127141593751904
6.3	0.00771398914100509	-0.00197975165732237	-0.00260084211430323	-0.0017718216900269	-0.00260996226186362	-0.00176608859566026	0.00152517857150584	-0.0127390818983863
6.4	0.00634102477086691	-0.00398515234783801	-0.00282686528816572	-0.0013815935069006	-0.00281714930241093	-0.0013864912177833	0.00108684229131941	-0.0129196785900588
6.5	0.00464217759011876	-0.00572783439137941	-0.00298326330154593	-0.000977034180927424	-0.00299111765374692	-0.000972557333010628	0.000710288972697276	-0.0132954121403812
6.6	0.00261834898918006	-0.00698539363712967	-0.00309135199733271	-0.000552501600232038	-0.00309298336958979	-0.00055647503648506	0.000232180566725158	-0.0137740301364898
6.7	0.000400562619891928	-0.00765655750571553	-0.00314198633797753	-0.00011518666005623	-0.00315083364265615	-0.000108914758495442	-0.000634879898141838	-0.0141438260092281
6.8	-0.00190397937480968	-0.00771441012778978	-0.00312062264671786	0.000325813086131039	-0.00313170736109712	0.000330854542097105	-0.00168235027041079	-0.0141698152812688
6.9	-0.00417222949588789	-0.00719470335380623	-0.00304552488655948	0.00075871244619749	-0.00304850996986247	0.000761100335217552	-0.00263651778669818	-0.0139454923493333
7	-0.00621384756495725	-0.00611724213959761	-0.00290922648126697	0.00117902332724599	-0.00292204486313991	0.00117682540057874	-0.00346738618641207	-0.0136697357277326
7.1	-0.0080279240675843	-0.00459775444444578	-0.00273196272751055	0.00156742949977114	-0.00272830435484947	0.00157608966653294	-0.0043249814667593	-0.0132517546034615
7.2	-0.00949365536329649	-0.00267834345456948	-0.00247615341691786	0.00193509468102416	-0.00248267901501365	0.00193716970959737	-0.0050055207853805	-0.0126809996226209
7.3	-0.010616927719144	-0.000482296861854875	-0.00218149808852915	0.00225401689151261	-0.00219270596648291	0.00225906154979857	-0.00543360609138452	-0.0121891374524051
7.4	-0.0113523565864427	0.00190978573786477	-0.00184081665070981	0.00253728529341848	-0.00184770359698737	0.00255088151244796	-0.00587204446950567	-0.0119444391177364
7.5	-0.0116119204337488	0.00442124198316712	-0.00147609456804048	0.00277689648028419	-0.00146911053282792	0.00278429310212385	-0.00621462085862416	-0.0118318358209519
7.6	-0.0112348937720322	0.0068929570892621	-0.00107063054432943	0.00295601689155134	-0.00107200138448227	0.00295132075727687	-0.00651360288855624	-0.0119356989199426
7.7	-0.0103789408955809	0.00915212981701143	-0.00064283919083975	0.00307810788946688	-0.00064417816517027	0.00307704549322068	-0.00709846228065417	-0.0124807669244231
7.8	-0.00880378143084604	0.0110439420461476	-0.000217444436810187	0.00312809735465632	-0.000225255325120744	0.00313454761367582	-0.00798611561113248	-0.0127789976862097
7.9	-0.00669658784872765	0.0124349000727452	0.000223597370801614	0.00313613225487366	0.000231537162609503	0.00313763685219344	-0.00893188507665171	-0.0127372014895419
8	-0.00421258960270607	0.0132976372026996	0.000665548307007404	0.00306489802664739	0.000665626091496334	0.00306979806364129	-0.00988019276747915	-0.0125179307065703
8.1	-0.00155226435459064	0.0136373953618557	0.00107647699270796	0.00294793798799238	0.00109562696979428	0.00294903813231493	-0.0108065074106387	-0.0120910922759667
8.2	0.00106414775203989	0.0134350168538868	0.0014817855434177	0.00276765074424583	0.00149103961300312	0.00276045972977813	-0.0116002313252755	-0.0114715977716239
8.3	0.00355475973339972	0.0127304294305327	0.00185899914628878	0.00252895811845314	0.0018573479150464	0.00254251273989829	-0.0122694485680841	-0.0108037628213952
8.4	0.00581668669347124	0.011644865020962	0.00219552083614957	0.00225131098262613	0.00219248917998307	0.00225108516559609	-0.0129132342076191	-0.0101621770508729
8.5	0.00783788377680977	0.0101259238642771	0.00248197340058043	0.00192050074733927	0.0024810750471807	0.00192368565291004	-0.0136121639159959	-0.00942919377851546
8.6	0.00951977563011535	0.0082662838729298	0.00272859885018019	0.00155982829674966	0.00273810385014547	0.00155328566235256	-0.0142164846871312	-0.00862054576265446
8.7	0.0108387781612938	0.00603283775445193	0.00291465467940382	0.00115679337930809	0.00292021695806277	0.00115751724226252	-0.0147203233177789	-0.00780880789067786
8.8	0.0116983177498748	0.00351173449596572	0.00305141782049338	0.000745624786574046	0.00305718928847966	0.000736861464012129	-0.0152363534891599	-0.00706766286657916
8.9	0.012111677971268	0.000702573712005878	0.00312895152845149	0.000311404322858366	0.00312808025462478	0.000309156302533245	-0.0155486832428058	-0.00615475219244027
9	0.0119198450053153	-0.00234352766610986	0.00313881051669218	-0.000132050520357132	0.00314196861500275	-0.000127947795116876	-0.0155818299548406	-0.0051829833021265
9.1	0.0110885378524373	-0.00547376540296263	0.0030927155783108	-0.000573666720702296	0.0030956011194097	-0.00056076546204536	-0.0153624318457722	-0.00433970552622508
9.2	0.0094496196241137	-0.00846406990969399	0.00298333851920383	-0.000991474326197499	0.00299099853575526	-0.000994351892843988	-0.0150951491435952	-0.00369215626584704
9.3	0.00709599370504123	-0.0110454484003338	0.00281488482516667	-0.00139702572206216	0.00281415381821813	-0.00140201786602726	-0.014778613027276	-0.00309739171030778
9.4	0.00413345860230778	-0.0130405954571916	0.00259255987539077	-0.00178762948878769	0.00259907356799719	-0.00178002907381705	-0.0144946601199998	-0.00263005051302406
9.5	0.000675571556966201	-0.0141730743456572	0.00231752827774884	-0.0021223455529859	0.00232494293520233	-0.00212369330954908	-0.0143003622807649	-0.00216072235640164
9.6	-0.00304189148797017	-0.0145030761984593	0.00200056447860839	-0.00242652753866551	0.00200089442008207	-0.00242554517093561	-0.0143407356778842	-0.00173266177327882
9.7	-0.00681076465002815	-0.0139276328646139	0.00163335017344843	-0.00267767801168527	0.00163888718313809	-0.0026849868084945	-0.0144126071112223	-0.00115113284034506
9.8	-0.0104513115411133	-0.0125451203149475	0.0012482463422129	-0.00288721284458256	0.00125394619151462	-0.0028787110618069	-0.0144687830386783	-0.000494692566746619
9.9	-0.0137928299069199	-0.0103077879833221	0.000842660950166941	-0.00302713767003822	0.00083532663659939	-0.00302591121409012	-0.0145886682543013	0.000254031406371776
10	-0.0166900152851582	-0.00739177115131935	0.000412011239979726	-0.00311703944631455	0.000404519059458402	-0.00312948857340676	-0.0146221367415746	0.00107141667961178
10.1	-0.0189412844760534	-0.00383988331111206	-3.08689379705633E-05	-0.00314902736992544	-4.11057257837629E-05	-0.00314363179879561	-0.0144859071021597	0.00184843003819852
10.2	-0.0204217754339109	0.000187780461401548	-0.000477819745984629	-0.00311239762076697	-0.000481228209515122	-0.00310961684153026	-0.0142016806995467	0.00261279180965416
10.3	-0.0210128816467764	0.00455891779877823	-0.000911130502838723	-0.00300656896816379	-0.000903036936890072	-0.00301564833703931	-0.0137636613579096	0.00330626638912704
10.4	-0.020613213957286	0.0090111299374112	-0.0013090449228617	-0.0028515155662061	-0.00130734993905689	-0.00285771496345584	-0.0130850101713548	0.00374277527052939
10.5	-0.019296273483163	0.0133850521687315	-0.00170096638563409	-0.00265222330425874	-0.0016978572520189	-0.00263921735361045	-0.0124398444339237	0.0040012731505224
10.6	-0.0171235705421326	0.0174305872189086	-0.00205379889475918	-0.00238163513727907	-0.00205161285043964	-0.00238546033044637	-0.0118972602420228	0.0040466238944114
10.7	-0.0141074579209663	0.0211668097161175	-0.00236895917587231	-0.00207913146870604	-0.00236546119822746	-0.00207385004735183	-0.0114693304074626	0.00420187905934414
10.8	-0.0102211079828956	0.024349495693259	-0.00263784989465649	-0.00171867139029607	-0.00263265296706406	-0.0017276019775086	-0.0111341685413126	0.00442514797273885
10.9	-0.00578541976062498	0.0267955123128474	-0.00284571980787071	-0.00134425633135409	-0.00285090840874639	-0.00134352297983444	-0.0108783466742265	0.00462743770372758
11	-0.000733474912247773	0.0283859659042116	-0.00300459948429423	-0.000927634044967681	-0.0030094471856437	-0.000934373559288012	-0.0105635687346441	0.00495394340449122
11.1	0.00466915257121044	0.0289713172020001	-0.00311275682227252	-0.000502616629046031	-0.00310189511760187	-0.0004997605552788	-0.0101050117790762	0.00524903457774967
11.2	0.0102280419542893	0.0284040408338809	-0.00314191622608235	-6.49389246431472E-05	-0.00314907120616843	-6.97734716516153E-05	-0.00946715537997076	0.0054798094799599
11.3	0.0157388199572647	0.0266374301418549	-0.0031150187423037	0.000383699632221138	-0.00312656400147121	0.000373665391988425	-0.00860085150907304	0.00558545996056784
11.4	0.0207219574275556	0.0237892825788959	-0.00304134188130829	0.000811430357839007	-0.0030364256251821	0.000818995259499665	-0.00780203406819548	0.00543231977675751
11.5	0.025065162265176	0.0199624613987007	-0.00289814792703329	0.0012269872130059	-0.00290092396705392	0.0012372642792454	-0.00721147472560184	0.0049903428205144
11.6	0.0286612807733334	0.0152574107976651	-0.00270390300517502	0.00161739700747931	-0.00270388342341252	0.00162033733689034	-0.00669891089390603	0.00440661103568211
11.7	0.0313065745954	0.00992194149198316	-0.00244274007129537	0.00197228110333665	-0.00244330218187272	0.00198088691247271	-0.00627674169779747	0.00369828333449147
11.8	0.0329564837405437	0.00416814477116871	-0.00214746520774552	0.00230470022429293	-0.00215158052822363	0.00230639987090888	-0.00600123565695934	0.00301773270384125
11.9	0.0336385043752124	-0.00186230110511172	-0.0017981269720933	0.00258115802605352	-0.0018111495715235	0.00258546938959177	-0.00582735167068201	0.00261278073803386
12	0.0330281063694523	-0.00795284843797317	-0.00142448078824664	0.00280452614712828	-0.00142388428099275	0.00280593804238835	-0.00573523650791119	0.00229175331374822
