# GHZ S RI R 50
0.2	0.00590235714922127	0.00124334666282542	0.00304833857466517	-0.000897935371928537	0.0030587072304277	-0.000891126490802031	-0.0140481364910496	0.0048951380244154
0.3	0.00621782977192149	-0.000704503246601898	0.00290411834633416	-0.00132135856331231	0.00289687221708404	-0.0013084198878165	-0.0132537892943524	0.00509608065311324
0.4	0.00597367280276622	-0.00235106730376835	0.00267248059901582	-0.00169312226672774	0.00267774785413664	-0.0017016828069231	-0.012732865973358	0.00564012330492168
0.5	0.00526969960949745	-0.00374396780327276	0.00241361576057768	-0.00204979891545349	0.00242515268026929	-0.00206203862899462	-0.0122146902501654	0.00624863795317864
0.6	0.0042589687123356	-0.0048040013061808	0.00210107665586733	-0.0023642366226505	0.00210029011147578	-0.00237138580221075	-0.0117344863903462	0.00681426434650243
0.7	0.00297533563716996	-0.0054973910711296	0.00175393071995811	-0.00264194259734485	0.00175197483605816	-0.00264214138440329	-0.0113840815058468	0.00740895342519242
0.8	0.00164405152849693	-0.00584800910945005	0.00136853102013521	-0.0028592665205321	0.00135593200109607	-0.00286381508819504	-0.0110440763798185	0.00814243766908935
0.9	0.000220061390426201	-0.00582830169360045	0.000951512925862471	-0.00302275496790682	0.000952547634765417	-0.00303345327050784	-0.010650380670502	0.0089224491111014
1	-0.00115823527744816	-0.00551800225871026	0.00052673735668864	-0.00312612135823147	0.000516876503721413	-0.00312686120939299	-0.0101433280175521	0.0097394602979331
1.1	-0.00252095968193808	-0.00497358654797089	7.11931839312108E-05	-0.00315488685841565	6.7686316054424E-05	-0.00317253538542948	-0.00962172781155801	0.0106187131605023
1.2	-0.00380886340220845	-0.00441059272296781	-0.000370858686280161	-0.00314425616519154	-0.00037167034647248	-0.00314217998277079	-0.00869111029922045	0.0114965803175668
1.3	-0.0051624073375166	-0.00393933973079156	-0.000797892372144619	-0.00306104537052397	-0.000801132019258778	-0.00306305029941729	-0.00715194680125592	0.0121464766598027
1.4	-0.0063424424706227	-0.00334656379462116	-0.00121910112828769	-0.00291281867600369	-0.0012178882633439	-0.00291835112959761	-0.00545933344516375	0.0120381810441248
1.5	-0.00687560031323337	-0.0022512939690762	-0.00161987944229333	-0.00271699825688843	-0.00161826761554729	-0.00272549749300757	-0.00410426335872282	0.0115634322575294
1.6	-0.0068133934841275	-0.000775585934854072	-0.00198037289311547	-0.0024646544129706	-0.00198058373623728	-0.00246988805452546	-0.00353236019607336	0.0114054708836294
1.7	-0.00622792012950002	0.00068893502735999	-0.00230876841296657	-0.00216788565476662	-0.00230973407821521	-0.00216162491199832	-0.00292844567454418	0.0115678229011556
1.8	-0.00533013199842702	0.00208958147214298	-0.00257980456298676	-0.00181649484462492	-0.00259076907261543	-0.00182213119602174	-0.00226479264123133	0.011730471215492
1.9	-0.00415341405560862	0.00315517208694494	-0.00280518703204062	-0.00144586394309444	-0.00281762567642598	-0.00143971177745471	-0.00161304303759857	0.0118841832602025
2	-0.00282024445784041	0.00391331967806394	-0.00298093138041404	-0.00103825478199826	-0.00299055239440354	-0.00103354711611534	-0.000975182039474723	0.0120985834569323
2.1	-0.00137508415622805	0.00427580323993886	-0.00309446443480575	-0.000609840119115543	-0.00309038148732145	-0.000611831646801894	-0.000176403374421875	0.0122272876024561
2.2	6.20608569578393E-05	0.00432318151299233	-0.0031518661027463	-0.000171512890646787	-0.00316316883233585	-0.000174348384313097	0.000793135812801282	0.0122216091584335
2.3	0.00143505898843071	0.00393523501899506	-0.00314717879775904	0.000271966791689248	-0.00314687677039519	0.000265084514387607	0.00171552143478414	0.0119554383553578
2.4	0.00262513484444212	0.00326732152366805	-0.00307463698790942	0.000710372348024901	-0.0030771782825335	0.000706115669403602	0.00255501564133724	0.0116463259843245
2.5	0.00360020155531911	0.0023125962259112	-0.00293740739122614	0.00112270326808437	-0.00294829452958257	0.00112908418320445	0.0033777125052785	0.0112308134777882
2.6	0.00439275755809924	0.00117074093234847	-0.00276325215408399	0.00152574362932607	-0.00275969777856671	0.0015134217461808	0.00419434623919626	0.0107273593248236
2.7	0.00503459115301667	-0.000128949697111321	-0.0025170718307891	0.00189703009885369	-0.00252235120422581	0.00189704221459241	0.00485275142451688	0.01013298504158
2.8	0.00555071617720638	-0.00161823823400599	-0.00223386436431497	0.00222435988196272	-0.00222604932110016	0.00223414626715593	0.00537521210007115	0.00966257855417495
2.9	0.00588755362115377	-0.00332845451699643	-0.00189923307652825	0.00252425625615821	-0.00189552481289132	0.00252382839192726	0.00607437769394601	0.00935822225493957
3	0.00583762317188158	-0.00523067427091392	-0.00151269473284839	0.00275930879445598	-0.00152747041328249	0.00276541100472843	0.00695461125929048	0.00903484508355376
3.1	0.00538983791883483	-0.00718581892005874	-0.00112228018219761	0.00293601443202674	-0.00111762223510621	0.00294435370271297	0.00780918677351234	0.0085248018776409
3.2	0.0043708275939758	-0.00908911528459418	-0.000701714981062859	0.00307272132780598	-0.000703459128750265	0.0030721112907765	0.00842780112327081	0.00801151620004577
3.3	0.00288345011298833	-0.0108802610696784	-0.00026334692170363	0.00314208883756837	-0.000261699532937874	0.00313834939596173	0.00911802526573184	0.00740399855531935
3.4	0.000872743619598185	-0.0122920430658182	0.000183316435100484	0.00313563120459347	0.000177116763232858	0.00315219199630707	0.00978355697127076	0.00656904953238881
3.5	-0.00146939143252546	-0.0133148439353654	0.00060485498057759	0.00309244801698839	0.000610449032657949	0.00309252244473365	0.0101725299409951	0.00548888913947541
3.6	-0.00408665888000194	-0.01377357201526	0.00103308362151297	0.00297300446407177	0.00104127297658807	0.00297268566318577	0.0103481991258496	0.00457842662858528
3.7	-0.00676105153916701	-0.013649625549649	0.00144342417817902	0.00279184119465929	0.00143384290247464	0.00280551453933497	0.0105530035733047	0.00373842480212074
3.8	-0.00939286435532778	-0.0129458777720118	0.00182133743881265	0.00256456908061521	0.00182374237200384	0.00257371610425589	0.0106849868484407	0.0028936083718326
3.9	-0.0117507796635241	-0.0117276520141523	0.00216696560292872	0.00229135149601287	0.0021597017791172	0.00228957364247797	0.0107234052481283	0.00207869358156634
4	-0.0138188988405299	-0.0101067488122034	0.00245151826024106	0.00197008038316944	0.00245596570893549	0.0019676459580241	0.010778434932349	0.00140419527808223
4.1	-0.015543037133753	-0.00815146121671086	0.00270334423018297	0.00161004203128576	0.00270209201958799	0.00161077783452266	0.0109879066629133	0.000782413005843151
4.2	-0.0169341856642208	-0.00588026710529967	0.00290242116010344	0.00120869895410561	0.00290688492041057	0.00119998429667002	0.0112332556921046	6.79936231405308E-05
4.3	-0.0179155905010611	-0.0034369186977543	0.00304523365579311	0.000796481768109804	0.00305165373978264	0.000788679556756955	0.0114277924371055	-0.000826409759398425
4.4	-0.0185642596451947	-0.000790448884844166	0.00312128094955142	0.000362283793088768	0.00312365444780709	0.000360027388642029	0.0114140385794913	-0.00173691438431577
4.5	-0.0187664678804424	0.00201520093467171	0.00314370793598358	-7.57295758459352E-05	0.00314906641335645	-7.91029813920342E-05	0.0113583110970183	-0.00259979353570718
4.6	-0.0185287266310184	0.00484461208569741	0.00309931157021333	-0.000518454007369086	0.00310054248452774	-0.000505544789887088	0.01119869663665	-0.00353873938011504
4.7	-0.0176886610973795	0.00767317661887908	0.00299377750523622	-0.000937069885745283	0.00300905586027574	-0.00094668656844521	0.0108753770404946	-0.00447199795545871
4.8	-0.0163502981004164	0.0103199087439366	0.00283245533724505	-0.00135086043507132	0.00284092890603044	-0.00135694876792226	0.0104508344011905	-0.00527592034098102
4.9	-0.0143325727025028	0.0126574949655756	0.00261153178348197	-0.00173462114445511	0.00261569662897313	-0.00173171859356153	0.0100600703029667	-0.00590666580542498
5	-0.0118516593943527	0.0144508823594419	0.00235172303872851	-0.00208931008586763	0.00235534332720805	-0.00208664817607409	0.00994521081250203	-0.00643631357492049
5.1	-0.00889641509295834	0.0156939598738357	0.00204096859761831	-0.00239941820054094	0.00204326799481462	-0.00239806181366908	0.00995775360179967	-0.00713567380677165
5.2	-0.00584189869299521	0.0162458411247376	0.00168355480849921	-0.00264882541939299	0.00168526591530239	-0.00265396462123881	0.00988510458956144	-0.00791667080149212
5.3	-0.00278633029564409	0.016186265452742	0.00129715809032829	-0.0028637917800477	0.00130028826954288	-0.00286173116362373	0.00972373841857482	-0.00864596012419499
5.4	9.51735233993475E-05	0.0155811524813786	0.00087276385583789	-0.00301090932003993	0.000889913384454053	-0.00302210916130954	0.00953519292406984	-0.00952987527440427
5.5	0.00267134644059649	0.0145362300072431	0.000459689443309288	-0.00310848400758932	0.000469733309114129	-0.00311790389000912	0.00908068625327209	-0.0105344162427957
5.6	0.00491445595037005	0.013095042704915	2.17465668250601E-05	-0.0031444530883354	1.3228650456932E-05	-0.0031476691642521	0.00825976803575043	-0.0113623612497894
5.7	0.00672183826922375	0.0113621455841818	-0.000408761646995427	-0.00311393497703524	-0.000425359307275614	-0.00311759327469452	0.0072672530069528	-0.0118722715429424
5.8	0.00812929456813832	0.00937386252497234	-0.000854138328119061	-0.00301911073866929	-0.000857669526064234	-0.00303308786239149	0.00629845673456465	-0.0123457277384028
5.9	0.00905507087765471	0.00726206759270151	-0.0012585623770342	-0.00287932684353639	-0.00126678582011109	-0.00287924617371959	0.00519189198151751	-0.0127007625311588
6	0.00948972935820134	0.00500250417095477	-0.0016563950891014	-0.00267332692438045	-0.00165283686419476	-0.00267349300534168	0.00395759196702584	-0.0127953119789378
6.1	0.00945014143496947	0.00269537731689476	-0.00201115023493929	-0.00241908293887563	-0.00201278866608364	-0.00241508209603361	0.00298216697376989	-0.0125982095018178
6.2	0.00892660869819596	0.000364351417834611	-0.00232362622629942	-0.0021061722416071	-0.00232733147582592	-0.00211803360345803	0.00232464164304983	-0.0124922062255543
6.3	0.00800449264013224	-0.00190145791436299	-0.00260109520669567	-0.00177197515412004	-0.00261021618228715	-0.00176624147592352	0.00181399051630041	-0.0126601520707414
6.4	0.00658719977978542	-0.00403183121232222	-0.00282709727182051	-0.00138164813446746	-0.00281738065056549	-0.00138654637012649	0.00133146183192395	-0.0129648512282164
6.5	0.00480387041586029	-0.00582633035558387	-0.00298344863127207	-0.000977032243865708	-0.00299130333775624	-0.000972554996712244	0.000870814618903827	-0.0133920083874051
6.6	0.0027131944596804	-0.00708593520829959	-0.00309148855045199	-0.000552478776532407	-0.00309312004929073	-0.000556452353640289	0.000326488456464849	-0.0138722994342624
6.7	0.000457953238495667	-0.00774477688549477	-0.00314209099249797	-0.000115166107392197	-0.00315093854074527	-0.000108893930123748	-0.000577440247739866	-0.0142297872547252
6.8	-0.00186651299309849	-0.00779507191034809	-0.0031207122919374	0.000325825288706067	-0.00313179732125863	0.000330866899963143	-0.00164444291135884	-0.0142484959892167
6.9	-0.00414953556139374	-0.00727456077971958	-0.00304561206806784	0.000758719987379645	-0.00304859724404433	0.000761107929069576	-0.00261305018639558	-0.0140240292551215
7	-0.00620602142708913	-0.00620090847106238	-0.00290931494587951	0.00117903006102824	-0.00292213365399409	0.00117683196499211	-0.00345917284452367	-0.0137524463713772
7.1	-0.0080406754510495	-0.00468880949199591	-0.00273206085777245	0.00156743673932125	-0.00272840249907847	0.0015760971994545	-0.0043375419204758	-0.0133416542475353
7.2	-0.00953488978326986	-0.00277341715390342	-0.00247626356014456	0.00193511440833931	-0.00248278939819739	0.00193718939368641	-0.00504633343228559	-0.0127749414999756
7.3	-0.0106940154496692	-0.000574200213694875	-0.00218161747356559	0.00225405764162722	-0.00219282584518987	0.00225910227527328	-0.00550998019715477	-0.0122803408282741
7.4	-0.0114706751939382	0.00183253825766008	-0.00184093935619562	0.00253735518139012	-0.00184782683783723	0.00255095183027102	-0.00598891523526387	-0.0120210982716548
7.5	-0.0117691920364797	0.00437874377459377	-0.00147621456309173	0.00277700049985996	-0.0014692303331947	0.00278439759707615	-0.00637019222728939	-0.0118747565720519
7.6	-0.0114151556281499	0.00690265754696964	-0.00107073273016455	0.00295616754802065	-0.00107210358037518	0.0029514711306574	-0.00669405805098716	-0.0119264551916591
7.7	-0.0105555907945208	0.00921673907184265	-0.000642897705828647	0.00307830707504127	-0.000644236762682653	0.00307724460182742	-0.00727510539720259	-0.0124187362182036
7.8	-0.00894928893881554	0.0111514227140282	-0.000217429447589534	0.00312833090157201	-0.00022524084960013	0.00313478171531163	-0.00813504311187633	-0.012675012441286
7.9	-0.00679853078167432	0.012557839694681	0.000223711380826401	0.00313635136628613	0.000231651791995783	0.00313785582424507	-0.00902957718127325	-0.0126081350801566
8	-0.00428439767747863	0.0134461380433284	0.000665769314085363	0.00306504903030318	0.000665847390760014	0.00306994936655497	-0.00996463221595539	-0.0123703078207654
8.1	-0.00158256054446275	0.0137938073717351	0.00107677650243325	0.00294797527266781	0.00109592741424912	0.00294907382659981	-0.0108405128872746	-0.0119319334652645
8.2	0.0010893631639798	0.0136031605640494	0.00148206806947707	0.00276752448887224	0.00149132149701854	0.00276033251402878	-0.0115785574461784	-0.0112990493026233
8.3	0.00365140129327149	0.0128817587336763	0.00185916966910601	0.00252871093761879	0.00185751971508886	0.00254226528444065	-0.0121749030176532	-0.0106467397548749
8.4	0.0059726101021211	0.0117403837978935	0.00219554512999598	0.00225103440624865	0.00219251363325504	0.00225080880514946	-0.0127576601927331	-0.0100608804865141
8.5	0.00801798797261893	0.0101442600649429	0.00248188377012595	0.00192026863081761	0.00248098560832111	0.00192345335713514	-0.0134314575027777	-0.00940586406330654
8.6	0.00968458321252621	0.00820966119645714	0.00272844083325379	0.00155967019157168	0.00273794505857057	0.00155312782814679	-0.0140504571046702	-0.00867242697410674
8.7	0.0109644206419475	0.00592296905306731	0.00291447569489885	0.00115671460107506	0.00292003762858207	0.0011574384061557	-0.014592824708051	-0.00791409985425411
8.8	0.0117728655326391	0.00337677172060559	0.00305124771713615	0.000745607059342709	0.00305701893838749	0.000736844252059167	-0.0151600074459467	-0.0071985223162129
8.9	0.0121394629082315	0.000567162036162589	0.00312880501252169	0.000311427035527241	0.00312793380500139	0.000309179107544083	-0.0155190532164193	-0.00628640317966187
9	0.0119159628847394	-0.00246302317655306	0.00313868634695362	-0.000132006629424537	0.00314184426824525	-0.000127904029772623	-0.0155841834940026	-0.00529862528081101
9.1	0.0110660516351647	-0.00557029631839906	0.00309261164665668	-0.000573600775617332	0.00309549689478267	-0.000560699943327141	-0.0153825783426489	-0.00443334921582808
9.2	0.00942356762674317	-0.00854497116498867	0.00298325504357241	-0.000991404711641998	0.00299091484998533	-0.000994282088866994	-0.0151188991825794	-0.00377041499790398
9.3	0.0070701007267583	-0.0111205659950802	0.00281481256398607	-0.00139695951287179	0.00281408162211876	-0.00140195151357505	-0.014802376628126	-0.00317034548763378
9.4	0.00410322755751618	-0.0131200909791267	0.0025924856839367	-0.00178756748821901	0.00259899915584842	-0.00177996728713662	-0.0145239464399099	-0.00270813345452728
9.5	0.000630413367144443	-0.0142582560218097	0.00231744505054608	-0.00212228190965243	0.00232485945776252	-0.00212362964332143	-0.0143449397882039	-0.0022447156200478
9.6	-0.00311820020706967	-0.0145923452890227	0.00200046473248996	-0.00242645922049208	0.00200079467221466	-0.00242547689252808	-0.0144171016608938	-0.00182036235685138
9.7	-0.00693227484850343	-0.0140044012294666	0.0016332203614366	-0.00267758757647136	0.00163875696697771	-0.00268489614829991	-0.0145345574524053	-0.00122606553612008
9.8	-0.0106238906486097	-0.012581171785371	0.00124808414855729	-0.00288706990645776	0.0012537838925516	-0.00287856881919447	-0.0146417051239469	-0.000528503438840587
9.9	-0.0140026037069157	-0.0102641558867165	0.000842487672283884	-0.00302690524906033	0.000835154030644716	-0.00302567865444675	-0.0147975299552829	0.00029998725214317
10	-0.0168876784416325	-0.0072379343468797	0.000411877074753585	-0.0031166884421528	0.000404385420817331	-0.00312913591446884	-0.0148192091749983	0.00122720744521942
10.1	-0.0190558383350907	-0.00358766497492396	-3.08884641283792E-05	-0.00314855637137183	-4.11236802220141E-05	-0.00314316152836819	-0.0145998366291329	0.00210308580733765
10.2	-0.0204015660480417	0.000471623411479397	-0.000477636763190435	-0.00311187436671782	-0.000481044726428238	-0.00310909417856922	-0.0141806752624551	0.00289899653066194
10.3	-0.0208738111880453	0.00478677423976833	-0.000910728739892136	-0.00300612215942705	-0.000902635839042604	-0.00301519929903869	-0.0136240393575029	0.00353640381463314
10.4	-0.0204244278048863	0.00914418871139643	-0.00130850384841026	-0.00285124817102681	-0.0013068083666723	-0.00285744643673584	-0.0128957442608918	0.00387835993686762
10.5	-0.0191100212618373	0.0134427826136025	-0.00170040074050219	-0.00265215692982206	-0.00169729378084927	-0.00263915203581385	-0.0122530513957419	0.00406158430626598
10.6	-0.0169058219265166	0.0174755038488495	-0.00205327278159613	-0.00238172647680856	-0.00205108637088106	-0.00238555101778955	-0.0117319560494144	0.00411176599253178
10.7	-0.0138945236797872	0.0211692668363455	-0.00236851370226603	-0.00207932059716232	-0.00236501668834117	-0.00207403904391514	-0.0113123535195975	0.00423669434325639
10.8	-0.0100787496518047	0.0242913202451048	-0.00263750360672376	-0.00171891819799044	-0.00263230581288799	-0.0017278476909931	-0.0109902958219051	0.0043702750476257
10.9	-0.00566079244750609	0.0267018408152792	-0.0028454467953587	-0.00134452948334672	-0.00285063526635204	-0.00134379676157936	-0.0107492338857478	0.00453927954646262
11	-0.000635827309524159	0.0282612497427885	-0.00300438018488988	-0.000927914237707335	-0.00300922697819679	-0.000934653992537977	-0.0104615094640991	0.00483356177503901
11.1	0.0047295035548764	0.0288198547555961	-0.00311257759232641	-0.000502908179851794	-0.0031017166236717	-0.000500051134342824	-0.010040294345971	0.00510161086753194
11.2	0.0102431835443252	0.0282377186413241	-0.00314177240568911	-6.52360653621204E-05	-0.00314892661078351	-7.00710837540099E-05	-0.0094474072975136	0.00531712541105096
11.3	0.0157015491651156	0.0264714894514951	-0.00311490134532639	0.000383395107616263	-0.0031264451185355	0.000373360299919022	-0.00863401382389388	0.00542090823619923
11.4	0.0206389768484236	0.0236380102955362	-0.00304124255356721	0.000811111162031156	-0.00303632725550346	0.000818676076989557	-0.00788111233857449	0.00528206137161729
11.5	0.0249482015311283	0.019836318974472	-0.00289807101519705	0.00122663677290019	-0.00290084782811717	0.00123691290350725	-0.00732326257925501	0.00486660314907972
11.6	0.0285174260239135	0.0151630169516267	-0.00270385870052648	0.00161701078749025	-0.00270383940832315	0.00161995089831404	-0.00683654077248457	0.00431369426771054
11.7	0.0311462977106272	0.0098608816260826	-0.00244273801972752	0.00197184926062856	-0.00244330099890697	0.00198045426185018	-0.00642965199841181	0.00363795870889883
11.8	0.0327855163658902	0.00413618042967913	-0.00214753571790045	0.00230421012323648	-0.00215165084083907	0.0023059090984511	-0.00616073230804913	0.00298569199028608
11.9	0.0334382702702389	-0.00184193576434957	-0.00179829052755756	0.00258058453103579	-0.00181131219918248	0.00258489346513352	-0.00602184512141294	0.00262848336829052
12	0.0328161820107722	-0.00790795211884313	-0.00142482372819441	0.002803925714392	-0.00142422755229097	0.00280533754861847	-0.00593564056864478	0.00233037909011186
