# GHZ S RI R 50
0.2	-0.966005693811427	0.251528519446312	8.82292855953212E-06	5.32075791342897E-06	1.13668649907598E-06	-2.88965084512894E-06	0.999633575281961	-0.00693743803302486
0.3	-0.926553595648581	0.371334012985573	-7.6621961166223E-06	-8.19193928369207E-07	-1.45945971838174E-08	3.65946250663872E-06	0.999547987264127	-0.0099032449181018
0.4	-0.871859468659841	0.485055810836062	-2.19850465305388E-06	6.3391719524578E-06	2.91935591147272E-06	5.7363198776275E-06	0.999490625724211	-0.0125904523758642
0.5	-0.80357685720638	0.59111148451187	-2.64896785698477E-06	5.48881362094955E-07	1.05200647216689E-05	4.88500279832192E-06	0.999300541715177	-0.0157293993682196
0.6	-0.722327962236388	0.687483387469985	-1.7252182379253E-06	-1.8278059590127E-08	4.16313897569215E-06	-1.03357523256106E-05	0.999352874883577	-0.0186638847845171
0.7	-0.629857660658262	0.772909097872324	-2.04688413017219E-06	9.88265651860717E-07	3.78320188039683E-06	1.11595536389476E-05	0.998980837000698	-0.0216466637371597
0.8	-0.527310760260045	0.846105202928427	-5.60503179647262E-06	3.78170554082962E-06	-3.16766104523283E-06	-2.13888652848049E-06	0.998729916838012	-0.0238242010970397
0.9	-0.416599741030259	0.905602448017998	-6.68604994565038E-07	5.24968060148461E-06	3.26602964619792E-06	-2.94713849503993E-07	0.998625061688318	-0.0262357317627943
1	-0.298835024253896	0.950725099673749	1.56825634412189E-05	-3.68658857485783E-06	-9.59669369993643E-06	5.27166012394803E-07	0.998262985397379	-0.0278676656900023
1.1	-0.177357180594211	0.980426190117821	1.34214316017012E-06	-2.9814829234758E-06	9.39358396751891E-06	1.25955663565265E-05	0.99796680402737	-0.0298464414537089
1.2	-0.0522272292970403	0.994674679931889	-7.9062569879995E-06	-3.25907229103431E-06	-3.09651373751771E-06	-4.47785678853951E-06	0.997227651463608	-0.0308893407395165
1.3	0.0737368781540709	0.992996029446976	1.78117967165102E-07	3.33314206465982E-06	1.92847629874788E-06	3.41199443047234E-07	0.997267332050015	-0.031794576499148
1.4	0.198142783478635	0.975403550934171	2.22041677746468E-08	3.76617474541595E-06	-2.52635212189932E-06	-5.61317252703068E-06	0.99707170929764	-0.0338671397381606
1.5	0.319351095490414	0.942693274057847	3.18582827363982E-06	-2.66358223829154E-07	2.70114755841566E-06	2.09398120690498E-06	0.997665688242142	-0.0373096693992983
1.6	0.435312332427162	0.895174098703437	1.78732784519771E-06	-1.93878771975537E-06	-8.93327349085442E-07	-3.06279724390898E-06	0.997320350794289	-0.0407283934319597
1.7	0.544170016055589	0.833141022400026	-8.5380829753902E-08	-3.52432016663131E-06	2.00477372530748E-06	4.92581683184904E-06	0.997774344208175	-0.0432566741154696
1.8	0.644167954323816	0.758365654513908	-2.05714592746895E-06	-1.81402362455146E-06	-4.64054468140639E-06	1.83160974477146E-05	0.99769518363882	-0.0459734220879226
1.9	0.733871253391707	0.671794971049016	-4.38952269832709E-06	-1.46756774462152E-06	-4.92461149777089E-06	-6.00365219658163E-06	0.997570598300414	-0.0482032047535334
2	0.812123925514105	0.574649120558133	-9.45955360270921E-08	-6.74091649407459E-07	-1.66773172784594E-06	-1.41810565954601E-06	0.997146123935786	-0.0508868112323663
2.1	0.877992479809281	0.467327614686138	-1.1419694172135E-06	9.44634094355774E-06	1.99417524182989E-06	-3.79963866750554E-07	0.99695326340718	-0.0531812858190271
2.2	0.929367970280975	0.353354629999089	-2.23229486406489E-08	-5.92773649416966E-06	-7.36801092753967E-07	2.7364649276329E-06	0.9969351617055	-0.0555849082781822
2.3	0.965996881325726	0.233814975953598	-1.31512795492214E-06	2.76458475393182E-06	-2.71728972164143E-07	1.19683053649636E-05	0.996645692654694	-0.0574416645929144
2.4	0.987397021983365	0.10982603306112	-5.86954036999411E-06	-3.70732915667607E-06	-1.75882057546814E-05	1.45161436891383E-05	0.996580490363549	-0.0605525725582723
2.5	0.993433540328081	-0.014970003225905	1.81947544004399E-06	-2.96147783170095E-06	-1.79302888734329E-06	7.54531226954189E-06	0.996210857629647	-0.062797682574633
2.6	0.983623297363437	-0.138596800398131	2.8617063804116E-06	9.20030647491952E-07	-1.75271609296281E-06	4.50173079433147E-06	0.996140093573822	-0.065680806630628
2.7	0.958343666120995	-0.260548820120477	3.82069872542536E-06	1.04467833667448E-05	2.32196010618928E-06	3.86907665420997E-06	0.99576916902536	-0.0686383024067382
2.8	0.918061019804893	-0.378610413679385	-8.13130744848297E-07	-2.29327350829702E-06	2.19833704205879E-07	-1.88812431035758E-06	0.99592785084127	-0.0706484685961915
2.9	0.863580881561388	-0.490307240118451	3.76893561772337E-06	-8.31724300998401E-06	-1.27135468545236E-06	-1.42268317694039E-05	0.995612096599071	-0.0726963217617725
3	0.795455559183717	-0.594823447459549	-1.40965670719232E-08	6.64989768888246E-06	-1.47729337146566E-05	5.30000927743997E-06	0.995457517689844	-0.0751598912609642
3.1	0.715674902654821	-0.688931647991178	-4.98622514666191E-06	7.82280177931332E-06	5.80896789002639E-06	-8.39797263794368E-08	0.995124888144529	-0.0771610371344699
3.2	0.623003947946819	-0.77347323898132	9.59664620055385E-07	2.12613610611065E-06	-4.56137242466324E-06	4.76846511944504E-07	0.994824059611006	-0.078898752902258
3.3	0.520756916623272	-0.84561290586012	7.19997185451473E-07	-1.45945700080052E-06	-4.58199977285994E-06	7.29864699525204E-07	0.994571553057339	-0.0821307575784045
3.4	0.409826157285991	-0.904088529496184	6.47048927762403E-06	2.38021089610412E-07	-8.13350508139994E-06	-7.18537287951791E-06	0.994562029136215	-0.084133146474911
3.5	0.29268161912268	-0.94819733201481	-7.69953461192677E-06	1.95915086494367E-06	-5.89990155028639E-06	-7.9844270811177E-06	0.994400975507516	-0.0869778571265822
3.6	0.170169737032924	-0.977498141338662	-8.55657502642375E-07	-4.38196457499243E-06	-7.81496375478178E-06	-6.33455583599602E-06	0.994084344058475	-0.0895066619322542
3.7	0.0453161848712116	-0.991446331632852	-6.71488557594402E-06	-6.77187316765947E-06	5.28908113268626E-07	-4.76435386273192E-06	0.993896974666636	-0.0922086766070968
3.8	-0.080518253957165	-0.989069072470005	-3.64414321757125E-06	1.08273662169002E-06	-3.29672140613695E-06	-2.46613680781648E-06	0.993470929601917	-0.0942372866757768
3.9	-0.204227691631009	-0.970860036062182	-4.79826767425663E-07	3.50811152690165E-06	2.05373293325881E-06	-1.21929542906273E-06	0.993467539813457	-0.0973675584481512
4	-0.324866020827747	-0.937592994762218	1.16807196069991E-05	8.11887775788826E-06	7.26644165635596E-06	-4.04141669146456E-06	0.993080204071132	-0.0987377825618415
4.1	-0.440083368498093	-0.889442053858934	5.21829436268102E-06	1.32328755830083E-06	-3.45790660879485E-06	6.65284412920196E-06	0.992925498500608	-0.100530006439929
4.2	-0.548173124927081	-0.827557815409712	-7.09889515268769E-06	-1.20133435098353E-06	-8.26697868808594E-06	-4.11208208267698E-08	0.992423514809737	-0.103170649880022
4.3	-0.647797325134473	-0.752129417743437	7.02383368787724E-07	-2.3683648307004E-06	5.21373552512691E-06	8.80437520658375E-07	0.992330331802116	-0.105179750854804
4.4	-0.737184455135455	-0.664422973884252	4.47371077916137E-06	-1.77468711270526E-06	-8.68431362573297E-07	1.34698020230266E-06	0.991896741328004	-0.107583305263911
4.5	-0.81493476102745	-0.566005055943436	6.78603787180269E-06	1.86707163141255E-06	-8.04974720991374E-07	-3.25764630697758E-06	0.991868756845888	-0.109680154684606
4.6	-0.879857722859449	-0.458572358499389	2.4566386713768E-06	2.95144048576169E-06	-6.58738756551536E-06	9.74931350186971E-06	0.991631460310717	-0.112561455908632
4.7	-0.930589975250736	-0.34305862435075	-1.40515081600634E-05	5.92033598630132E-06	-3.46256578078379E-06	-3.38144522273088E-08	0.991536709339884	-0.114742497941273
4.8	-0.966244710009834	-0.222609139320492	-3.16258696237481E-06	-5.1426310362252E-06	-5.5238412422453E-06	2.3664181831914E-06	0.99111035895783	-0.117308446829652
4.9	-0.985966147166662	-0.0991096714179505	-1.02238241223272E-06	-8.55223971716177E-06	-4.2212430893234E-06	7.40577035026022E-07	0.990702142529768	-0.119145133076059
5	-0.990320677130211	0.0251133343101562	7.55094562731409E-06	-1.57138881162432E-06	-1.75272679869945E-06	-2.72174829669203E-06	0.990529785084335	-0.120752353077411
5.1	-0.979158275631305	0.150192721868905	-2.60162319010258E-06	-6.39379456399321E-06	-1.00888506975418E-06	-1.95301977084068E-06	0.990547464422656	-0.122155039243064
5.2	-0.952786240400808	0.272127804464947	3.99731896368703E-06	-4.36550022144226E-07	-5.43862964906964E-06	6.30770430120382E-06	0.990337048647978	-0.124425420721458
5.3	-0.911434635070745	0.389885418478226	5.13962399725808E-06	6.00692538805409E-06	-9.60637186287301E-07	-3.58609587038171E-06	0.990083129016682	-0.126761145031628
5.4	-0.855506049866475	0.501506428081981	3.0623616800928E-06	-2.01677968708005E-06	-1.13146286025751E-05	2.20105521897091E-06	0.990052417103966	-0.129572650817299
5.5	-0.785549128600367	0.604874550524156	-4.32471900536347E-07	-2.19455049383717E-06	-5.78743497744494E-06	6.12655640658677E-06	0.989846502351072	-0.132480654579567
5.6	-0.70303420422546	0.698477014797737	2.38124748679457E-06	7.30445932151972E-06	-5.37583677585134E-07	2.92963312913165E-06	0.98958372657472	-0.13508617436669
5.7	-0.609705564664892	0.781366594677456	-2.57159546442776E-06	2.36167580008841E-06	7.91287025445078E-06	2.77816287363393E-06	0.989298502041106	-0.13756362650984
5.8	-0.506477449040457	0.851315531072652	-4.64837396237525E-06	5.10555694030508E-06	-3.65923869811742E-07	3.4229380171876E-06	0.989123151419804	-0.139793580694056
5.9	-0.395648605741488	0.908031608452513	6.35866161896661E-06	1.49824871586727E-06	-2.71140610124578E-06	2.54765973448613E-06	0.988802863047668	-0.142113148649598
6	-0.278857582800624	0.950139402062808	3.52392548092078E-06	3.29906310759173E-06	-3.28422576687199E-07	-1.43399313523109E-06	0.988317697302961	-0.143741321365978
6.1	-0.157824930963903	0.97727272609076	9.17573029775027E-06	1.52166247440161E-06	-1.28033770103041E-07	-1.80837196246878E-06	0.988307116399738	-0.145035336109548
6.2	-0.0339070430389718	0.989144009379214	2.43855346165263E-06	-1.73019136495487E-06	1.47873156010188E-06	-4.84446860957803E-06	0.987975003164201	-0.146469435473461
6.3	0.0906118693479668	0.985501509161422	-4.35763582935056E-06	4.24456650321266E-06	-6.15378473305771E-07	-1.72443718058132E-06	0.987544789285516	-0.148471129133813
6.4	0.213588235294119	0.966247952179396	-4.26292645680522E-06	1.07045854807635E-06	-1.75881533804787E-06	8.84036030910036E-06	0.987047346161522	-0.15061569430114
6.5	0.333229796664776	0.932053248768961	2.45082391506862E-06	-1.33070357786783E-06	1.4864543859232E-06	-2.92867989619841E-06	0.986796058352537	-0.153269459551057
6.6	0.447571520971279	0.882836214931016	-4.73199379727746E-06	-2.25413895560807E-06	-1.86331412305835E-06	-6.63607594479446E-06	0.986572822261993	-0.155958259463272
6.7	0.554507237949577	0.819634935869118	4.16016556358211E-06	-6.59644685624484E-07	-4.67311199759433E-06	1.00950059913961E-06	0.986301900957899	-0.15834113889593
6.8	0.652622218848139	0.74369473721691	3.75472160584169E-06	-2.07765612501442E-06	6.20987094406866E-06	-9.21458468810652E-07	0.98588352100616	-0.160641250520728
6.9	0.740331085123758	0.656175288318806	2.04631879354243E-06	1.63994328079186E-06	8.77645936259064E-06	-2.75337134152374E-06	0.985541845209366	-0.162763135023087
7	0.81627437928106	0.558343720490542	2.17100300569392E-06	4.09353893217775E-06	-9.34627024570857E-08	5.37877358654669E-06	0.984950890974148	-0.164552249615513
7.1	0.879318696591642	0.452260949871611	-1.33510579629412E-07	1.7155298505851E-06	8.25274734447321E-06	-4.63696181736736E-06	0.984448415499133	-0.166198432107594
7.2	0.928643522263947	0.338848140930211	4.84360345318671E-06	-1.38890833670498E-06	7.24688078378723E-06	3.78242327388063E-06	0.983855171957812	-0.16789902793782
7.3	0.963117278077803	0.220129205366425	4.85724533124368E-06	-1.102657827191E-06	-7.32648636144884E-06	-7.38041076686688E-06	0.982908424039259	-0.169614886615157
7.4	0.98275687910321	0.0976297400763947	-1.85075953768247E-06	9.88391962977743E-06	1.43710713432889E-06	-4.0633723958171E-06	0.982034565179892	-0.171882447330831
7.5	0.986926084581364	-0.0265631287195342	8.38516125556275E-07	8.0684872679098E-07	1.67053041378427E-06	9.945814717789E-07	0.981159975223008	-0.174311993913896
7.6	0.975601066520017	-0.150628041393	1.45628157885863E-06	-2.61194412780467E-06	-5.41345021550697E-06	-3.62910794788711E-06	0.980640373860684	-0.177291755953269
7.7	0.94880007242036	-0.272482052166401	5.56779648485392E-06	2.41090673665217E-06	-6.83006640204422E-06	1.2037077569946E-05	0.98020452327492	-0.180507273440034
7.8	0.907139318572352	-0.389917894825617	-6.10266610083818E-07	-5.24040872137979E-06	3.7348811408577E-06	-4.73276300364624E-06	0.980036848193336	-0.183671868042307
7.9	0.850823583768859	-0.501107465389379	8.84709180260444E-06	1.53132401594011E-06	-9.52793464735963E-06	-8.63688808298775E-06	0.979808021697108	-0.186906137669427
8	0.781169986158402	-0.604016671979623	-6.65190923482723E-06	-1.63084675344682E-06	-1.20011208360479E-05	2.49111818293479E-06	0.979337845948919	-0.189822284347684
8.1	0.699304947252986	-0.697391564744566	5.07196788397463E-06	7.32367845579662E-07	2.88898211073078E-06	2.26138964977867E-06	0.978858836226276	-0.192445519795247
8.2	0.606370165915411	-0.779613653750583	3.56304174452536E-06	-2.57179597277127E-06	-3.67328357598572E-06	-1.16087766380591E-05	0.978526137025335	-0.19484754708514
8.3	0.503629276218819	-0.849471907652849	2.72666412520093E-06	-1.85514452619501E-06	1.63455998067465E-06	5.28917803074124E-06	0.977921032082681	-0.197518156173534
8.4	0.39286471116595	-0.905730411217471	-5.54829399476452E-06	-1.02128549586784E-06	1.05334354353207E-06	2.94961336811532E-06	0.977151999970568	-0.200157484712663
8.5	0.275456817150807	-0.947610702997075	-3.28699528355582E-06	1.62183493948442E-06	-4.7860518356952E-06	-5.00165726443602E-06	0.976481040932972	-0.202837323382648
8.6	0.153508740395459	-0.97427231476256	-8.13427090279976E-06	1.38162291289807E-06	-4.33514667356497E-06	-6.85830110261689E-06	0.976044078467551	-0.205500342572815
8.7	0.0291688013478498	-0.985494778571519	2.24511747988216E-07	-2.1442941831174E-07	6.11357484998155E-06	5.10867135747847E-07	0.975588471602296	-0.208066729676563
8.8	-0.0955974670903653	-0.980889059647777	1.02451468961856E-06	-1.81661907770878E-06	-2.38854373394351E-06	-1.28041098751843E-06	0.975188999675104	-0.2103285567916
8.9	-0.218241182013515	-0.961257397021803	-3.03162052967516E-07	3.03301674017554E-06	-1.23210436936452E-06	-1.64148273493956E-06	0.975140049793708	-0.212418488913733
9	-0.337049363495225	-0.926176268458427	2.97482595932075E-06	1.59024693377347E-06	-1.57695050023248E-06	2.11240999066371E-06	0.9749784618663	-0.214750578750499
9.1	-0.450354148830137	-0.876748069648456	-9.31307609592242E-06	2.25387783149378E-06	-1.56668641613241E-06	2.40730542587634E-06	0.974703184199893	-0.216916940856486
9.2	-0.556890332788127	-0.813549392740731	7.50513854301319E-06	-2.23210824968606E-07	-9.10940046633791E-06	1.95586388970269E-06	0.974243986680693	-0.219507804414123
9.3	-0.654500786186408	-0.737702503131058	8.72256900271944E-08	-7.16421368311428E-06	1.58870948258828E-06	-1.29810774798783E-06	0.973846687290514	-0.222038562877072
9.4	-0.742008617637574	-0.650308554889759	5.9635230309831E-07	2.48477791902935E-06	1.6220437693306E-06	-3.59640155439033E-06	0.973210353242943	-0.225011472996433
9.5	-0.817858260832412	-0.552020541045815	-2.87811589293918E-06	6.64433687392258E-06	4.72664313037127E-06	-1.36489359648314E-06	0.972398017211857	-0.227884984377792
9.6	-0.880602396648606	-0.444506825623432	-5.02153770562214E-06	-5.20867803899078E-06	4.75971820576287E-06	2.88552531127011E-06	0.971709119057864	-0.230928847468601
9.7	-0.929513980511333	-0.329629531568602	-1.99877602701625E-06	-5.07613860967053E-06	2.09734009994637E-06	1.17722698287494E-08	0.971059151394442	-0.233555574008192
9.8	-0.963825606416245	-0.208973990863523	5.95592087114884E-07	-4.28602126858375E-06	-2.9404637641785E-06	-2.52002872952618E-06	0.970693068403181	-0.235680535970346
9.9	-0.982316244422492	-0.0847921733642154	-6.11737830402808E-06	4.20734701560457E-06	-3.08572133457685E-06	1.66400539767927E-06	0.970211738415574	-0.23761607860695
10	-0.985314156469218	0.0400210692443585	3.57333530157218E-06	-4.01136201386718E-08	8.2270711045245E-06	1.11108680260315E-05	0.969768297298459	-0.239221008488714
10.1	-0.972321336526099	0.164408369514753	-2.85874019859213E-06	-2.52512755487298E-06	-2.0096183149113E-06	-2.49994639980086E-06	0.969242799086214	-0.240886852811967
10.2	-0.943724522982098	0.286305968637399	2.35837009996208E-06	-1.02122798373754E-06	-2.76972142545632E-06	-1.06794088287796E-06	0.968837916398783	-0.242365801958762
10.3	-0.899869332490256	0.403545289739979	7.76557149967812E-06	-5.95296438592437E-06	3.86143980501421E-06	8.23675236506282E-06	0.968204614161473	-0.244238091108723
10.4	-0.842073812475292	0.514018534640319	1.70655636864975E-06	2.5087564287061E-07	6.27938109410407E-06	-1.18745951622231E-06	0.967292161719306	-0.246361203564703
10.5	-0.7711917910945	0.616374666640048	8.35269288711231E-06	-4.14077124235707E-06	-4.94849473324279E-07	1.97286701084951E-06	0.966419524090896	-0.248900927209304
10.6	-0.687796945420268	0.708548519297004	8.93904269313917E-06	-1.26735438600095E-06	-1.48094122398599E-06	1.36450449908268E-05	0.965755558035135	-0.251377511946883
10.7	-0.593357232401363	0.789209415749652	8.01910929124601E-06	-1.90125867756502E-06	-3.05293942469726E-06	-5.28342988340889E-06	0.964978531852446	-0.254034432548486
10.8	-0.488831858055074	0.857598967532108	2.45029411558812E-06	5.24931462535354E-06	-3.62855438867705E-06	-2.05942371255151E-07	0.964344241948186	-0.256082372129245
10.9	-0.376147525760797	0.912287819379726	-5.55972671536928E-06	4.84520377093754E-07	1.59672513545556E-06	4.02940120762914E-06	0.963950358178504	-0.258018542186652
11	-0.257938990264659	0.952148739863843	4.50942664930741E-09	-5.22336739322603E-06	-8.38311142211983E-06	2.23017538909068E-06	0.963432856399331	-0.259699014526651
11.1	-0.135687596884762	0.977193859900379	6.31229969071724E-06	4.09077335672477E-06	-1.90448618351023E-06	1.07637674384404E-05	0.962895403715447	-0.261340796981352
11.2	-0.0116492642389845	0.986462689211546	1.57908075071483E-06	1.35530436737609E-06	5.13901553188182E-06	8.90447480253233E-06	0.962058730588889	-0.263124540655531
11.3	0.112498569547764	0.979730399663026	-4.62207512288096E-07	-1.73753118138247E-06	-6.98447525759196E-07	-4.39586633030171E-06	0.961449144006764	-0.264880449610897
11.4	0.234679553138817	0.957979959696504	2.2195106592113E-07	1.18599953273471E-05	2.42185894257054E-06	4.92949328341062E-06	0.960592015315021	-0.267452582434998
11.5	0.353560349026511	0.921231841731844	6.19462983391585E-06	-3.24021204617208E-07	3.16901878377054E-07	-1.88194405388699E-06	0.959564551158638	-0.270226881379329
11.6	0.465747871915134	0.869893050518066	-6.00263619628943E-06	3.07177208597734E-06	-4.86807805305124E-06	1.91511716965362E-06	0.958372155878646	-0.273641881219666
11.7	0.570530723234959	0.80558602833227	3.32566772452929E-06	-1.79440423869161E-06	-1.7063337603401E-06	2.23567290009221E-06	0.957230912160972	-0.277172791747332
11.8	0.666673743204072	0.728263654564112	-8.24470988153598E-07	9.7893849489339E-06	-2.71943606929951E-06	1.05327284220272E-05	0.956195093761281	-0.280669096061452
11.9	0.75201701685471	0.638918794783949	-7.29317114584278E-06	-1.04014131026148E-06	-3.91475284173443E-06	1.12437265385106E-05	0.955710884133087	-0.283189918908017
12	0.825445227270036	0.539575941737737	-6.45129028472452E-07	1.38176012808874E-06	-3.1359448227656E-06	-1.92640017057536E-06	0.954954805895623	-0.285667731865363
12.1	0.886489520082948	0.431875959140129	-3.87956384493856E-06	4.98785495029479E-06	-1.3399256309045E-06	8.41600604332249E-06	0.954103382609214	-0.287790856441249
12.2	0.933123039350013	0.317122514941019	-5.76602616514011E-07	-3.79882892863257E-06	-3.11445920494655E-06	-7.31308141328053E-07	0.953343012856001	-0.290314038422235
12.3	0.964973518517947	0.198290604026496	3.59701702657238E-06	3.4330369977994E-06	-3.43624624906168E-06	6.26714799708339E-06	0.952365161821887	-0.292972003584647
