# GHZ S RI R 50
0.2	-0.966042982006238	0.25149031936535	8.82276443588745E-06	5.3210684596021E-06	1.13678704181766E-06	-2.88961771666357E-06	0.999608872028191	-0.00690924572916585
0.3	-0.926614989306908	0.371311637254336	-7.66220989040793E-06	-8.19564824259342E-07	-1.47691402749915E-08	3.65948703958121E-06	0.999518040043249	-0.00983643919052995
0.4	-0.871926699240676	0.485070181848842	-2.19881570177519E-06	6.33921125266753E-06	2.91917617393998E-06	5.73656102178824E-06	0.999483016469444	-0.0125080060191595
0.5	-0.803578921859637	0.591131395661367	-2.6488665756094E-06	5.48824080147203E-07	1.05195696781826E-05	4.88494093644673E-06	0.999232605294693	-0.0156609360525603
0.6	-0.722365836764265	0.687455211928514	-1.72513564194192E-06	-1.84567590608445E-08	4.16401996033465E-06	-1.03348356069862E-05	0.999307972996086	-0.0184798325835256
0.7	-0.62990766361866	0.772908069145599	-2.04697443176843E-06	9.88043285273161E-07	3.78200039110554E-06	1.11598768583272E-05	0.999003554888087	-0.0214706614707688
0.8	-0.527351313175873	0.846111359422815	-5.60540246360067E-06	3.78116375037332E-06	-3.16745538032588E-06	-2.13919540440867E-06	0.998774809453472	-0.0236703980643307
0.9	-0.416642873897312	0.905606650142781	-6.69172942361837E-07	5.24967491492263E-06	3.26610186388814E-06	-2.94369385654047E-07	0.998698994745069	-0.0260922701543608
1	-0.298894272993347	0.950738907111971	1.56837706195269E-05	-3.68543546624121E-06	-9.59728231142841E-06	5.26362596812229E-07	0.99836226597453	-0.0277966528470478
1.1	-0.177448596762612	0.980467600243781	1.34250602417255E-06	-2.9814379393862E-06	9.39254826210498E-06	1.25969858039422E-05	0.998022541705098	-0.0297126273126426
1.2	-0.0523435523744449	0.994787981792224	-7.90633568620298E-06	-3.26097003661081E-06	-3.09589895553212E-06	-4.47889804148823E-06	0.997416566194634	-0.0306595363717724
1.3	0.0736296718048565	0.993168874297053	1.77196412172282E-07	3.33372859112741E-06	1.92868900459876E-06	3.41804039604314E-07	0.997601225101971	-0.0315233334276668
1.4	0.198050252112587	0.975575008165056	2.08796160683363E-08	3.76676435822521E-06	-2.52476313542557E-06	-5.61493043811126E-06	0.997458799037903	-0.0335701660616739
1.5	0.319268527488091	0.942797134156961	3.18620786091188E-06	-2.65283024499385E-07	2.70066895728966E-06	2.09510230981657E-06	0.997982673133962	-0.0370597345582516
1.6	0.435199571455225	0.895258735597487	1.78805164053285E-06	-1.93819988646955E-06	-8.92266239710801E-07	-3.06318032983146E-06	0.997550123268377	-0.0404657798587984
1.7	0.544079780884803	0.833216158171249	-8.42929602219346E-08	-3.52441376989671E-06	2.00328920414198E-06	4.92653051705176E-06	0.99796353259155	-0.0430577686646344
1.8	0.644098296532632	0.758432699801886	-2.0567244212978E-06	-1.81458693752537E-06	-4.64532340355456E-06	1.83152877274817E-05	0.99783843050738	-0.0458325855498747
1.9	0.733871449291446	0.671864644757337	-4.38959268832869E-06	-1.46854069537264E-06	-4.92384222951167E-06	-6.00509667101616E-06	0.997732271224087	-0.0481405468188088
2	0.812180232294414	0.574508377773402	-9.46523259761699E-08	-6.74127600534691E-07	-1.66794504544834E-06	-1.41807072511442E-06	0.997167109647747	-0.051081448587727
2.1	0.877800075839079	0.467206379000622	-1.14154572910205E-06	9.44452606651555E-06	1.99377887395389E-06	-3.79932392187223E-07	0.996726215781624	-0.0532038304488006
2.2	0.929173338373767	0.353360062631183	-2.18333648429627E-08	-5.92670017087121E-06	-7.36896258747703E-07	2.73592530974386E-06	0.996761830716447	-0.055502447153258
2.3	0.965834757211031	0.233868962503372	-1.31520622727977E-06	2.76405123215549E-06	-2.72861495391851E-07	1.19665267226285E-05	0.996507275113401	-0.057342129231792
2.4	0.987260499871374	0.10990639660325	-5.8681562398436E-06	-3.70741824157812E-06	-1.75870645221859E-05	1.4511732781546E-05	0.996462200028174	-0.060443449509684
2.5	0.993294357341271	-0.0148712888106541	1.8199155480215E-06	-2.96072679058253E-06	-1.79448514059724E-06	7.54402698253996E-06	0.996081900630913	-0.0626922927765492
2.6	0.983517852037832	-0.138441068660424	2.86155726642027E-06	9.20450559609927E-07	-1.75337528864489E-06	4.50145096913042E-06	0.996024253796912	-0.0655236483339481
2.7	0.958271042897471	-0.260408464322068	3.82012974996417E-06	1.0446709342847E-05	2.32172777810304E-06	3.86909073302033E-06	0.995687241264105	-0.0685009642404909
2.8	0.917975364104736	-0.378473344361178	-8.13129520850216E-07	-2.29308202722027E-06	2.19768600694496E-07	-1.88798962450054E-06	0.99584458754353	-0.0705364729367204
2.9	0.863500663799416	-0.490152755277703	3.76791353097988E-06	-8.31652848712952E-06	-1.27219630962553E-06	-1.42250719484283E-05	0.995545039972367	-0.07259955863545
3	0.795386911303951	-0.594685002443853	-1.34318588862468E-08	6.64907830606126E-06	-1.47705819209156E-05	5.30082790679944E-06	0.995415973577876	-0.0751044848572141
3.1	0.715601984289887	-0.688770472410256	-4.98443567150135E-06	7.82238468117501E-06	5.80813372975003E-06	-8.477236631759E-08	0.995098021496104	-0.0771252028331551
3.2	0.622971601791409	-0.773295309856344	9.59787869709322E-07	2.12566014914971E-06	-4.56056029605484E-06	4.77370749434364E-07	0.994822854692651	-0.0788839313119103
3.3	0.520787806546218	-0.845428614893364	7.19745625251711E-07	-1.45927153418696E-06	-4.58115373234077E-06	7.30144349047132E-07	0.994589186053427	-0.0821183648659625
3.4	0.410004020572576	-0.903956736171493	6.46963711191304E-06	2.38184532367371E-07	-8.13222687182549E-06	-7.1846790332156E-06	0.994639025856713	-0.0840910356631998
3.5	0.292790856305991	-0.948409190754419	-7.70063287217502E-06	1.95926588275883E-06	-5.90055284921214E-06	-7.98564356736035E-06	0.994589629642818	-0.0870582946378418
3.6	0.169992160312871	-0.977523031148136	-8.56589588869347E-07	-4.38203590272066E-06	-7.81667750339388E-06	-6.33333126910226E-06	0.994132084702246	-0.0896480327263451
3.7	0.045238762717756	-0.991328274115247	-6.71564718049896E-06	-6.77048835616072E-06	5.28126015244813E-07	-4.76421457860404E-06	0.993918088055034	-0.0922832048254589
3.8	-0.0804969885232	-0.988941326285976	-3.64381320019798E-06	1.08309545111342E-06	-3.29681980608123E-06	-2.4656180885189E-06	0.993534758680454	-0.0942835212421476
3.9	-0.204155217452109	-0.970783900189669	-4.79271236749669E-07	3.50808957900776E-06	2.05348814194937E-06	-1.21957954011444E-06	0.993641956974076	-0.0975003852177134
4	-0.324842524683108	-0.937496448570312	1.16803913526363E-05	8.11404151038141E-06	7.26381899368997E-06	-4.04248876754576E-06	0.993045833354138	-0.0991703011878256
4.1	-0.439942198081908	-0.889316341226853	5.21679724987373E-06	1.32272108386153E-06	-3.4566612523658E-06	6.65099501789444E-06	0.992669871181316	-0.100685313986525
4.2	-0.548000360653071	-0.827512867418358	-7.0974686936273E-06	-1.20129128085447E-06	-8.26535439327095E-06	-4.13372776293392E-08	0.992274454185773	-0.103225748600164
4.3	-0.647643798045702	-0.752131432949301	7.02332679772399E-07	-2.36800384800612E-06	5.21295542011884E-06	8.80423093384219E-07	0.992230671272504	-0.105240427842104
4.4	-0.737051027522765	-0.664429324494711	4.47307926803475E-06	-1.77443706714407E-06	-8.68308683371116E-07	1.34679018930537E-06	0.991786675482536	-0.107668325856269
4.5	-0.814754249581081	-0.566050799677481	6.7845020868911E-06	1.86719811168886E-06	-8.04564186462166E-07	-3.25703700692371E-06	0.991644053250064	-0.109683494904474
4.6	-0.879753467926549	-0.458688174931417	2.45593672266938E-06	2.95155361733028E-06	-6.58831986901002E-06	9.74734450202541E-06	0.991504106741786	-0.112411586936913
4.7	-0.930528317373156	-0.343149794228268	-1.40516284171733E-05	5.91819979979091E-06	-3.46239812611137E-06	-3.42705015438473E-08	0.991477653858579	-0.114590459059343
4.8	-0.966158899242991	-0.222677853107143	-3.16178173636064E-06	-5.14270158201887E-06	-5.52379362058495E-06	2.36561501607058E-06	0.991066534472949	-0.117148885987688
4.9	-0.985765254355433	-0.0992728800828682	-1.02078962498049E-06	-8.5513830216216E-06	-4.22086077694965E-06	7.39762380382727E-07	0.990668096166328	-0.118966099536624
5	-0.990399207261849	0.0246142372852776	7.55151195162234E-06	-1.56877332927049E-06	-1.7517873620038E-06	-2.72236403387126E-06	0.99050781632607	-0.120564164026671
5.1	-0.979496019397807	0.150076823017093	-2.60078457347818E-06	-6.39517722630104E-06	-1.00865884365282E-06	-1.9534823880766E-06	0.990536643686286	-0.12193860127837
5.2	-0.952970391612703	0.272157386597837	3.99769059760514E-06	-4.36081560760444E-07	-5.43985433701114E-06	6.30751961025088E-06	0.990357042448422	-0.124182862271357
5.3	-0.91152921736124	0.389908530279615	5.13897937084092E-06	6.00792185644295E-06	-9.60162219731921E-07	-3.58638745612916E-06	0.990144301241771	-0.12648664549102
5.4	-0.855588190896859	0.501498232602827	3.06295589125251E-06	-2.01631032114157E-06	-1.13157947994292E-05	2.19898009768114E-06	0.990213741342146	-0.129260112487336
5.5	-0.785651218331659	0.604916781206521	-4.32283116611344E-07	-2.19495685273564E-06	-5.78909464650429E-06	6.12686592128973E-06	0.990118514591164	-0.132348967623423
5.6	-0.703060868935402	0.698530939123216	2.38099729189467E-06	7.30494323358983E-06	-5.37758344644545E-07	2.92975185914442E-06	0.989683412708931	-0.134988626335101
5.7	-0.60972256318019	0.781398145793214	-2.57186766572967E-06	2.36147291308337E-06	7.91274819580087E-06	2.77896913414263E-06	0.989398318699763	-0.137396157076367
5.8	-0.506504229798697	0.851372236153332	-4.64925601396958E-06	5.10532788129547E-06	-3.66346147605639E-07	3.4231056944601E-06	0.98930411644991	-0.139623199572647
5.9	-0.39560318260408	0.908207752784856	6.35993899670637E-06	1.49860066607326E-06	-2.71197498909102E-06	2.54815549581102E-06	0.989136911239175	-0.142139446838352
6	-0.278489677317881	0.950135040006604	3.52508470168261E-06	3.29757885666855E-06	-3.28968364020036E-07	-1.43381556788229E-06	0.988216409105833	-0.144200026266911
6.1	-0.157704765012838	0.977020316361754	9.17273510304842E-06	1.52025443241782E-06	-1.28164724115256E-07	-1.80774029925853E-06	0.987926320238186	-0.145014219282273
6.2	-0.0338985275077115	0.988966783293024	2.43801161916578E-06	-1.72966068133308E-06	1.47855437758057E-06	-4.84319608553024E-06	0.987772844475259	-0.146321424234284
6.3	0.0906349206950876	0.985357832689083	-4.35692289620119E-06	4.24351898630009E-06	-6.15181173181003E-07	-1.72411080121717E-06	0.987431979508832	-0.148345975169589
6.4	0.213707355990278	0.965944198574838	-4.26158765603815E-06	1.07024018668761E-06	-1.75804460695348E-06	8.83768737933807E-06	0.986899653502922	-0.150596131621045
6.5	0.332775406062525	0.931423491329617	2.44975963158368E-06	-1.32897625280344E-06	1.48657737542193E-06	-2.92629367898058E-06	0.986322676491632	-0.152977669697513
6.6	0.446919418935836	0.882888199945749	-4.72961727608382E-06	-2.25684418820798E-06	-1.85857888742784E-06	-6.63606406852588E-06	0.986506470921688	-0.155355296055781
6.7	0.554123020582665	0.819847802054456	4.1604866768166E-06	-6.57471872722238E-07	-4.67361271654524E-06	1.00705840524941E-06	0.986425355794428	-0.157897729872719
6.8	0.65236784828106	0.743916107635487	3.755819000599E-06	-2.07610416050477E-06	6.21057876690266E-06	-9.1876934577772E-07	0.986043578432509	-0.160317165088908
6.9	0.740196586556413	0.656382660544119	2.04604567401306E-06	1.64092352723947E-06	8.77878015817657E-06	-2.75065958445882E-06	0.985736948317396	-0.162593243088298
7	0.816140428223918	0.558384206971677	2.17105069788278E-06	4.0941550616064E-06	-9.37603252874347E-08	5.37942640501018E-06	0.98487600389745	-0.164591291938416
7.1	0.87905511715762	0.452398309197072	-1.3366181059631E-07	1.71528851439626E-06	8.25210640369754E-06	-4.63553210739308E-06	0.984231825743634	-0.165968382095936
7.2	0.92841276571912	0.339094904975408	4.843098786139E-06	-1.38767560843639E-06	7.2449093010117E-06	3.78330822692413E-06	0.983720686004519	-0.167557806752995
7.3	0.96293452741472	0.220498041168242	4.85670053137013E-06	-1.10087768364613E-06	-7.32273161122317E-06	-7.38141568746111E-06	0.982848509129117	-0.169167300242969
7.4	0.982834907912019	0.0982085127031247	-1.85683891158508E-06	9.88226722785042E-06	1.43957244358882E-06	-4.06227077401901E-06	0.982281327323844	-0.171290876096986
7.5	0.987443315111247	-0.0264973194150374	8.38727352852995E-07	8.07661909977856E-07	1.67118270302754E-06	9.95824418963225E-07	0.981731260046532	-0.174339086879875
7.6	0.975580657888795	-0.15070490972194	1.45628362109879E-06	-2.61265958079613E-06	-5.41500384855443E-06	-3.62924002747578E-06	0.980618516790676	-0.177374181299721
7.7	0.948755715392212	-0.272330846716655	5.56783437773936E-06	2.41090161062588E-06	-6.83006404932596E-06	1.20371647603642E-05	0.980160921081954	-0.180355630498173
7.8	0.907250163663929	-0.389741649885302	-6.10084660753131E-07	-5.24071000657447E-06	3.73527148487431E-06	-4.73285996905457E-06	0.980143497918027	-0.183482113658266
7.9	0.851069471077498	-0.501280701136629	8.84985495954733E-06	1.53015795344535E-06	-9.5321714157952E-06	-8.6375964564111E-06	0.980147345384001	-0.187014024187954
8	0.780527498789821	-0.604408045178715	-6.65197405014347E-06	-1.62479798355382E-06	-1.1996564899602E-05	2.50093843823276E-06	0.979012389869243	-0.190467659318585
8.1	0.698777687243313	-0.696913576594165	5.06872239304704E-06	7.30258324520953E-07	2.88771794842175E-06	2.25892357415323E-06	0.978299579979134	-0.192402599484362
8.2	0.60624640881	-0.779092281002491	3.56094091616583E-06	-2.57064371491466E-06	-3.67207585712692E-06	-1.16022480915278E-05	0.978240028174714	-0.194667568178414
8.3	0.503696625237544	-0.849029623007039	2.7253841336491E-06	-1.85425304286121E-06	1.63375958047254E-06	5.28668495570317E-06	0.97776061185695	-0.197381683655592
8.4	0.393105898644475	-0.905420531893146	-5.54544180975454E-06	-1.02164102224857E-06	1.05237904607459E-06	2.94834210809339E-06	0.977000798264442	-0.200100463499521
8.5	0.275591711334148	-0.947580449980109	-3.28699614755791E-06	1.62026664396942E-06	-4.78322703879662E-06	-5.00254832466198E-06	0.976196885691481	-0.202677830236339
8.6	0.153520774931527	-0.974069677392654	-8.13420563199637E-06	1.38047742960101E-06	-4.33408244685798E-06	-6.85867579278138E-06	0.975926084398836	-0.205209670776969
8.7	0.0292826530903984	-0.985203098119519	2.24496057057505E-07	-2.14391567176319E-07	6.11280938640204E-06	5.11131050033604E-07	0.975546402441182	-0.207818692745458
8.8	-0.0953541629346876	-0.980522773453767	1.02435212476475E-06	-1.81616895853896E-06	-2.38795444522239E-06	-1.28021232405396E-06	0.975160611698865	-0.210095869000422
8.9	-0.217623184692782	-0.960845154572116	-3.03436818817537E-07	3.03165516162381E-06	-1.23134761183031E-06	-1.64093310153667E-06	0.975137868690605	-0.212172448034926
9	-0.336228168134763	-0.92649472501136	2.97312017920396E-06	1.59145279574468E-06	-1.57768256323507E-06	2.11095083617177E-06	0.975041804782139	-0.214539897634003
9.1	-0.450066093210584	-0.877083487515625	-9.3139434177283E-06	2.25062791825504E-06	-1.56754409127589E-06	2.40677533449154E-06	0.974771379297827	-0.216747076301764
9.2	-0.55659193240699	-0.813777790194962	7.50490078807265E-06	-2.21156328140664E-07	-9.10957114102583E-06	1.95330319785216E-06	0.974319466936917	-0.219342896412606
9.3	-0.654150015250872	-0.738043228161311	8.97566250287936E-08	-7.16390421929607E-06	1.58910690271032E-06	-1.29749526310719E-06	0.97395147989534	-0.221823663934679
9.4	-0.74179428900965	-0.6510543767025	5.95084750904711E-07	2.48556431568893E-06	1.62433438581289E-06	-3.59616256264973E-06	0.973502858579307	-0.224728915252485
9.5	-0.818619469263579	-0.552570224932715	-2.88096968940858E-06	6.64842012660763E-06	4.73001708454369E-06	-1.36516374509647E-06	0.972798634161521	-0.227971686218322
9.6	-0.881013251867795	-0.444265852883061	-5.02376430761683E-06	-5.20908163350496E-06	4.76145360367061E-06	2.88538726281888E-06	0.971807876170788	-0.230973171785042
9.7	-0.929598795175457	-0.329439084239188	-1.99928114120147E-06	-5.07659333443719E-06	2.09757456303231E-06	1.16569451567283E-08	0.971191925246034	-0.233460475767887
9.8	-0.963813735621354	-0.208867774127811	5.95675027050836E-07	-4.28662307877531E-06	-2.94087697431863E-06	-2.52038205395107E-06	0.970976346455962	-0.23557872036645
9.9	-0.982241406819236	-0.0847789564619437	-6.11818788345855E-06	4.20902539444964E-06	-3.08618673960242E-06	1.66475212820553E-06	0.970692970265439	-0.237878491283758
10	-0.985364170804701	0.0399360085578791	3.57284516075297E-06	-4.12835548425899E-08	8.22962742698868E-06	1.11066790870548E-05	0.969366782117235	-0.23991158572856
10.1	-0.972398062507298	0.164468618392864	-2.85794251686738E-06	-2.52453035009296E-06	-2.00904227060618E-06	-2.49933783457536E-06	0.96866886632791	-0.240680492516333
10.2	-0.943724509314338	0.28643630830069	2.35812458923496E-06	-1.02085008613873E-06	-2.76921322222445E-06	-1.06805345590132E-06	0.968609402397026	-0.241972656255645
10.3	-0.899738635555073	0.403768209750934	7.76490169814056E-06	-5.95196140761714E-06	3.86066217786205E-06	8.23594453846185E-06	0.968143040967175	-0.243865594839802
10.4	-0.841522491542022	0.514218189876199	1.70605259179835E-06	2.5065604886694E-07	6.27735123329137E-06	-1.18761858343837E-06	0.967224259225373	-0.246080102422389
10.5	-0.770516421685899	0.615818147597746	8.34896725451603E-06	-4.13525993711345E-06	-4.95237120853732E-07	1.97146834767288E-06	0.966231862787871	-0.248230902381026
10.6	-0.687834704097005	0.708084869022257	8.93771117999227E-06	-1.26169052175514E-06	-1.48878735300263E-06	1.36409617534635E-05	0.965905731102899	-0.250622478749864
10.7	-0.593369934311467	0.788895224675391	8.01900775593234E-06	-1.89712225714036E-06	-3.04998409110406E-06	-5.28423707191755E-06	0.965271439272415	-0.25345739842858
10.8	-0.48899103870566	0.85722553217771	2.44748085615461E-06	5.24955489279784E-06	-3.627851189839E-06	-2.07568203031517E-07	0.964529109340467	-0.25574520658116
10.9	-0.37633273736147	0.911672640312963	-5.55906716418141E-06	4.81201438589156E-07	1.59410878156365E-06	4.0296483707029E-06	0.964222203886423	-0.257656580067056
11	-0.258784055096562	0.951935520784983	7.58048138798718E-09	-5.2244055225444E-06	-8.3860926329969E-06	2.22569239190349E-06	0.963545879311326	-0.259440002277674
11.1	-0.136091472777969	0.977468041435755	6.31205390924272E-06	4.09293012591156E-06	-1.90751219504987E-06	1.07646586595943E-05	0.962951943636875	-0.260946253874077
11.2	-0.011849385934893	0.98664080640031	1.5786924078977E-06	1.35569368763861E-06	5.13656755253231E-06	8.90565301408718E-06	0.962166828326932	-0.262668267832328
11.3	0.112322020569687	0.979846336170672	-4.61501882589884E-07	-1.73755017643331E-06	-6.9670502156956E-07	-4.39573450331709E-06	0.961674564551953	-0.264324003735479
11.4	0.234514870199552	0.958096563794588	2.1438350553313E-07	1.18599934915396E-05	2.41868538990339E-06	4.93097845607067E-06	0.961203348315978	-0.266853615461225
11.5	0.353382876646934	0.921342304722837	6.19776947259037E-06	-3.21008753557502E-07	3.18016465973751E-07	-1.88268547396076E-06	0.960277828571736	-0.270381194386792
11.6	0.465555096024106	0.870083973768869	-6.00510743547412E-06	3.07171355304663E-06	-4.86998157497653E-06	1.9148840361111E-06	0.958535038116384	-0.273736820069326
11.7	0.57040523030992	0.805862737307045	3.32680667491471E-06	-1.79416173910799E-06	-1.70718060077616E-06	2.23585721231842E-06	0.957410532964615	-0.277074779804348
11.8	0.666731727129963	0.728650240815102	-8.26656642582884E-07	9.79262765132434E-06	-2.7224245895218E-06	1.05358618879708E-05	0.956548870419352	-0.280579237007953
11.9	0.752558216605788	0.639125297092992	-7.29760722703719E-06	-1.03959009086935E-06	-3.9152563827724E-06	1.12509332424635E-05	0.956224369890699	-0.283555914777824
12	0.825617849736484	0.538747871221966	-6.43765061285533E-07	1.38213884585799E-06	-3.13722754280836E-06	-1.92323371373473E-06	0.954356743833466	-0.28649093529227
12.1	0.885977198801773	0.431636869004982	-3.87618908494178E-06	4.98553171511748E-06	-1.33744926609672E-06	8.41106651528395E-06	0.953409311395936	-0.287598666421411
12.2	0.932791827809365	0.317188690327624	-5.76292888373308E-07	-3.79721739194895E-06	-3.11311781555716E-06	-7.31048234163081E-07	0.953013500020635	-0.289988159996605
12.3	0.964784048703238	0.198349811717694	3.59560600994274E-06	3.43163835314537E-06	-3.43482614039818E-06	6.2646703195736E-06	0.952177156491132	-0.292715867091965
