# GHZ S RI R 50
0.2	-0.96604361750809	0.25149113459454	8.82276052995186E-06	5.32106586610544E-06	1.13678646788832E-06	-2.8896164254215E-06	0.999607376009294	-0.00690837285157697
0.3	-0.926616604324278	0.371310424856967	-7.66220425725667E-06	-8.19591360308641E-07	-1.47819497782674E-08	3.65948566815698E-06	0.999517135817371	-0.00983082230531741
0.4	-0.871939638590591	0.48506624766223	-2.19892821177411E-06	6.33923831062668E-06	2.91912003779673E-06	5.73665678909288E-06	0.999494815787057	-0.0124894937335157
0.5	-0.803604803898036	0.591161336631492	-2.64898863010337E-06	5.48865724124501E-07	1.05200962229302E-05	4.88510973796848E-06	0.999288536791088	-0.0156705088451164
0.6	-0.722350846935471	0.687492034207626	-1.72516976896377E-06	-1.83812202184465E-08	4.16364570532181E-06	-1.03352183797122E-05	0.999325324257441	-0.0185325820244037
0.7	-0.629884705954273	0.772928611627207	-2.04693804449517E-06	9.88122562172183E-07	3.78243140559346E-06	1.11597400506679E-05	0.998997446780012	-0.0215134984604762
0.8	-0.5273274978592	0.8461257642286	-5.60523114153813E-06	3.78134629719787E-06	-3.16751485823141E-06	-2.13906699175821E-06	0.998758021234537	-0.0237070200657196
0.9	-0.416616881168701	0.905617199283852	-6.68977217770492E-07	5.24958784394979E-06	3.26602309753232E-06	-2.94476233623723E-07	0.99866317616952	-0.026111576547644
1	-0.298869434865176	0.95074686710832	1.56834412657412E-05	-3.6852452827037E-06	-9.59706898932388E-06	5.26285292715569E-07	0.99836438412162	-0.0277581730217903
1.1	-0.177416159556774	0.980478270868383	1.34252712523481E-06	-2.98152624705443E-06	9.39287001018023E-06	1.25972805122241E-05	0.998081563134934	-0.029736209912123
1.2	-0.0523015156969281	0.994790817148854	-7.90668823585146E-06	-3.26078765307532E-06	-3.09615045705448E-06	-4.47892261089674E-06	0.997453373655236	-0.0307250330528797
1.3	0.0736755926467672	0.993156149746256	1.77380838043386E-07	3.33378439612373E-06	1.92874540670378E-06	3.41706061764282E-07	0.997609199754156	-0.0316064516897887
1.4	0.198080049372077	0.975545170881919	2.10958250840276E-08	3.76673361222334E-06	-2.52506586738794E-06	-5.61474136541502E-06	0.997423771397726	-0.0336379161555033
1.5	0.319292850365916	0.942790862602691	3.18619832755398E-06	-2.65368426756296E-07	2.70072320613316E-06	2.09502816986841E-06	0.997980233577275	-0.0370837210942391
1.6	0.435242346196317	0.895219421755494	1.78793074386153E-06	-1.93830875225984E-06	-8.92454545726556E-07	-3.06312300996622E-06	0.997534829394839	-0.0405395845042385
1.7	0.54409879850964	0.833153355233765	-8.45311721912756E-08	-3.52429521817533E-06	2.00356184449622E-06	4.92623592210557E-06	0.99790809200079	-0.0431241948576383
1.8	0.644081737803388	0.758351624277236	-2.05669985881019E-06	-1.81431877529086E-06	-4.64375746382213E-06	1.83142930864182E-05	0.997742268585198	-0.0458808304858849
1.9	0.733759362542849	0.671797620254758	-4.38892192083278E-06	-1.46825154278196E-06	-4.9231476322897E-06	-6.00408707368411E-06	0.997568922357744	-0.0480986661070742
2	0.812077907635079	0.57466174878678	-9.45028163796753E-08	-6.74101349785021E-07	-1.66752959610746E-06	-1.41832709368149E-06	0.997184779256723	-0.0508465455972742
2.1	0.877902413232019	0.467285825829965	-1.1424775419952E-06	9.44567864264178E-06	1.99407353938652E-06	-3.79817663957846E-07	0.996887659518725	-0.0531838510796518
2.2	0.929257084054106	0.353346856648886	-2.18840580479126E-08	-5.92732595703409E-06	-7.36951751180138E-07	2.73622028809512E-06	0.996849813813615	-0.0555600488561502
2.3	0.965888959397443	0.233830852805807	-1.31524147387012E-06	2.76435458180674E-06	-2.72502147588575E-07	1.19676655610637E-05	0.996555535815042	-0.0574095062371242
2.4	0.987294467153492	0.1098666007166	-5.86909883134021E-06	-3.70740247986034E-06	-1.75879818391611E-05	1.45146905616676E-05	0.996485235127403	-0.0605043291536431
2.5	0.993347123967418	-0.0149115652391357	1.81948887813076E-06	-2.96116638233247E-06	-1.79327440438933E-06	7.54466145752336E-06	0.996127163778392	-0.06273614925802
2.6	0.983550122005397	-0.138527443613248	2.8615398435078E-06	9.20124225008735E-07	-1.75285010019105E-06	4.50145458557427E-06	0.996064042988297	-0.0656147671924875
2.7	0.958270682396538	-0.260494892509818	3.82071387617503E-06	1.04462375607815E-05	2.32192434848165E-06	3.86885806403051E-06	0.995699329827225	-0.0685948647432619
2.8	0.917957653731356	-0.378557447451472	-8.13256558034601E-07	-2.29302349439446E-06	2.19659360265497E-07	-1.88799234400019E-06	0.995845345208566	-0.0706278940855015
2.9	0.86345972633434	-0.490234649273093	3.76740235458268E-06	-8.31683907385777E-06	-1.27313146978899E-06	-1.42251013115473E-05	0.995534003097142	-0.0726887423939256
3	0.795339710557223	-0.594741393397831	-1.29220569191902E-08	6.64906519851306E-06	-1.47701441101686E-05	5.3019490712529E-06	0.995409551456845	-0.0751796821758991
3.1	0.715555746081818	-0.68884979706026	-4.9839258684695E-06	7.82281946283282E-06	5.80818571975016E-06	-8.51887358266831E-08	0.995100287505961	-0.0772204270880314
3.2	0.622889647238881	-0.773387788813924	9.60010586395781E-07	2.12562469668201E-06	-4.56063179829088E-06	4.77808336754819E-07	0.994816692825397	-0.0789962046313109
3.3	0.520642310929133	-0.84552432626179	7.195659002062E-07	-1.45941798929666E-06	-4.58119830813767E-06	7.30803831978409E-07	0.994566152482753	-0.082258594810884
3.4	0.409716678989827	-0.903966091145532	6.46953026011239E-06	2.36592263220119E-07	-8.13378065225117E-06	-7.18250171228421E-06	0.994538695706414	-0.0842672777721291
3.5	0.29265510138305	-0.948081744657519	-7.69814455136927E-06	1.95993299265913E-06	-5.90015061985327E-06	-7.98244964357187E-06	0.994392762439628	-0.0870877786459092
3.6	0.170113181381272	-0.977410305911283	-8.5619903687079E-07	-4.38137063800056E-06	-7.81504065722033E-06	-6.33274646599224E-06	0.994068378095092	-0.0896363784133703
3.7	0.0452849508020385	-0.991321307703574	-6.71487577158164E-06	-6.77014729516843E-06	5.28236142995945E-07	-4.76380517416451E-06	0.993857167681497	-0.0923232411101209
3.8	-0.0804963130980826	-0.988931283654335	-3.6435173074168E-06	1.08291009702776E-06	-3.29646746448973E-06	-2.46548084241974E-06	0.993417961277779	-0.0943295374209667
3.9	-0.204142101854631	-0.970738167055731	-4.79593350483121E-07	3.50765020128531E-06	2.05339136522953E-06	-1.21922501806398E-06	0.993428395527133	-0.0974260317795179
4	-0.324754335589549	-0.937529262600832	1.16800105884448E-05	8.11730828093327E-06	7.26543552051352E-06	-4.0414484000758E-06	0.993105988476568	-0.098845056852899
4.1	-0.439971591288389	-0.889401144668231	5.21770036919978E-06	1.32281589322969E-06	-3.45707774908822E-06	6.6521892040908E-06	0.992897989075053	-0.100675100438699
4.2	-0.548060919414844	-0.827548104621642	-7.09814581637094E-06	-1.20091188854508E-06	-8.26605107414786E-06	-4.07814825546553E-08	0.992391241607424	-0.10330646784171
4.3	-0.647697711017625	-0.752152419825818	7.02247649593408E-07	-2.36816563603295E-06	5.21327721217637E-06	8.80200618367779E-07	0.992295862946658	-0.105313584532117
4.4	-0.737118327143797	-0.664475285836369	4.47339017220885E-06	-1.77464603613659E-06	-8.68352455421893E-07	1.34690699956111E-06	0.991858606496357	-0.107702273371063
4.5	-0.814906702358419	-0.566057944012032	6.78573843658121E-06	1.86687347022818E-06	-8.04987356037499E-07	-3.2574755800613E-06	0.991815641588592	-0.109785040584769
4.6	-0.879862930079984	-0.458629142675369	2.45653995291326E-06	2.95138463048364E-06	-6.58730749768394E-06	9.74897531119714E-06	0.991570668189528	-0.112609286568922
4.7	-0.930631847764248	-0.343102325922307	-1.40515981344744E-05	5.92011433958473E-06	-3.46256453626422E-06	-3.38687624658275E-08	0.991490763847246	-0.114757088494834
4.8	-0.966316372060622	-0.222626390174273	-3.16257769277844E-06	-5.14275113061129E-06	-5.52395815173645E-06	2.36639159239536E-06	0.991069177135276	-0.117301746481797
4.9	-0.986044669747126	-0.0990730416159668	-1.02244608693106E-06	-8.55239155085627E-06	-4.22131679366139E-06	7.40612800733039E-07	0.990660129705244	-0.119119852560667
5	-0.990343944955675	0.0251457333741721	7.55089098881684E-06	-1.5713338467309E-06	-1.75269703620363E-06	-2.721735166915E-06	0.990491310231037	-0.120708294608704
5.1	-0.979216968175848	0.150234976623639	-2.60158438737683E-06	-6.39391000394781E-06	-1.00887608153251E-06	-1.95305749805393E-06	0.990519123937495	-0.122094629966907
5.2	-0.952808921395315	0.272206460793927	3.99734644207747E-06	-4.36558730014602E-07	-5.43865897401577E-06	6.30775630671717E-06	0.990328317088156	-0.124353483519294
5.3	-0.911411724124414	0.389958131019975	5.13959749660925E-06	6.006867011676E-06	-9.606377844167E-07	-3.58606576986422E-06	0.990090845046053	-0.12669003331045
5.4	-0.855456772563115	0.501555172978634	3.06228346316962E-06	-2.01670482041444E-06	-1.13143116820561E-05	2.20093110248395E-06	0.990052215522303	-0.129497124084102
5.5	-0.785494728165995	0.604905630201583	-4.32399887062857E-07	-2.19448700222114E-06	-5.78739767260825E-06	6.12619659481824E-06	0.989860422943167	-0.132379641805108
5.6	-0.702960568223537	0.698504876306879	2.38101902532226E-06	7.30415340287523E-06	-5.3760504238359E-07	2.92948665402013E-06	0.9895916574814	-0.134993904297097
5.7	-0.609613250347354	0.781371796676106	-2.57145824308287E-06	2.36145394967799E-06	7.91224495546112E-06	2.7781230141383E-06	0.989294935211509	-0.137461790447948
5.8	-0.506377363097456	0.851286501323005	-4.64809026165724E-06	5.10492897469346E-06	-3.65994724142922E-07	3.42260185056762E-06	0.98911216102436	-0.139684039687836
5.9	-0.395571755125748	0.907974752817442	6.35794645261739E-06	1.49847759420222E-06	-2.71128981557315E-06	2.54724820001987E-06	0.988805530279566	-0.141986075037676
6	-0.278776634042353	0.950103596138502	3.52365881532628E-06	3.29902432526898E-06	-3.2836179976631E-07	-1.4339379050695E-06	0.988375532137833	-0.143687733019672
6.1	-0.157741252088065	0.977185596244269	9.17496120995047E-06	1.52154101070376E-06	-1.28021886365244E-07	-1.80822066490491E-06	0.988295665586677	-0.145028874098804
6.2	-0.0338707348946303	0.989032972497581	2.43838140290875E-06	-1.72998367602472E-06	1.47871585038356E-06	-4.8440119992505E-06	0.987948767743825	-0.14645870487553
6.3	0.0905844990044695	0.98539264886789	-4.35756483674619E-06	4.24398330555573E-06	-6.15227779163629E-07	-1.72434466110138E-06	0.987518469662816	-0.148441223009959
6.4	0.213516050100144	0.966195441505206	-4.26286998419579E-06	1.07000691562905E-06	-1.75960277292673E-06	8.83985912918519E-06	0.987053804340084	-0.150552440103111
6.5	0.333177005088091	0.931988275092693	2.45081245474312E-06	-1.33041030727686E-06	1.48663934583849E-06	-2.92838790301273E-06	0.986806117870456	-0.153217512629874
6.6	0.447453474655791	0.882797807644882	-4.73137635955999E-06	-2.25475552873934E-06	-1.8621692885043E-06	-6.63599820200571E-06	0.986587558173172	-0.155854613859499
6.7	0.554403401686787	0.819626018870664	4.16014730847863E-06	-6.58975375885856E-07	-4.67313345110712E-06	1.00874093228723E-06	0.986338258030754	-0.158254359283103
6.8	0.652523983973955	0.743686957903022	3.75492036684885E-06	-2.07710517541851E-06	6.20986077540734E-06	-9.20601667816674E-07	0.985900003443094	-0.160584765993961
6.9	0.740233038484705	0.656180164008506	2.04609774645886E-06	1.64014715601421E-06	8.7766209592033E-06	-2.75232902196892E-06	0.985532537060828	-0.162716563635288
7	0.816202718574788	0.558352992505634	2.17071912142477E-06	4.09376465123794E-06	-9.3877935268776E-08	5.37884347408131E-06	0.984937418956455	-0.16454046162463
7.1	0.879248267440785	0.452258044566871	-1.33542544621236E-07	1.71553150551119E-06	8.2528526859225E-06	-4.63682071751624E-06	0.984389922254121	-0.166200906881834
7.2	0.928577154577412	0.338840418539429	4.8435403520641E-06	-1.3889607030556E-06	7.24686514922989E-06	3.78229116503366E-06	0.983781927246918	-0.167902873433469
7.3	0.963038201831972	0.220106768617293	4.85703918338508E-06	-1.10286354026514E-06	-7.32662252058195E-06	-7.37981815256942E-06	0.982810066506629	-0.169626231069547
7.4	0.982624236902757	0.0976224575375549	-1.84994483008899E-06	9.88304421475798E-06	1.43670425081723E-06	-4.06305552197196E-06	0.981885412841151	-0.171863000662774
7.5	0.986812455189878	-0.0264899788730577	8.38392447558837E-07	8.06765526006575E-07	1.67029760548123E-06	9.94493034359116E-07	0.981050767297781	-0.174220962308373
7.6	0.975471944318315	-0.150555384300398	1.45606334260503E-06	-2.61158691617747E-06	-5.41271327058763E-06	-3.62857019850463E-06	0.980510654172288	-0.177215897142732
7.7	0.948652703165781	-0.272365052077253	5.56678287872705E-06	2.41042513965563E-06	-6.82872617266281E-06	1.20348966920748E-05	0.980051941118699	-0.180408032357887
7.8	0.906991453196985	-0.389755841156575	-6.10226265681851E-07	-5.23925893748275E-06	3.73398598194908E-06	-4.73180009198912E-06	0.979876640823041	-0.183556430316651
7.9	0.850723436349037	-0.500909202844063	8.84528840049857E-06	1.53081239722517E-06	-9.52614542784063E-06	-8.63488623000753E-06	0.979686929817506	-0.186774919825577
8	0.781113259766129	-0.603900649673523	-6.65117181460914E-06	-1.62993395198999E-06	-1.19992263918285E-05	2.49202440268367E-06	0.979296894268669	-0.189783558645314
8.1	0.699193720334653	-0.697261340337073	5.07113796024744E-06	7.31383373563566E-07	2.88881735944942E-06	2.26048265577974E-06	0.978779569107787	-0.192456568533431
8.2	0.606291403214756	-0.779467751882359	3.56196790998089E-06	-2.57185879655243E-06	-3.67438135192485E-06	-1.16060055733592E-05	0.978467566833008	-0.194870201759266
8.3	0.503578445020968	-0.849337919923571	2.72593436342448E-06	-1.85521694223003E-06	1.635035516398E-06	5.28804256972641E-06	0.977882808280253	-0.197563353708803
8.4	0.392836881537362	-0.905602023136187	-5.54755134491538E-06	-1.02038280381604E-06	1.05357053508642E-06	2.94900539781865E-06	0.977126409812755	-0.200219497142088
8.5	0.275472031400923	-0.947506077413052	-3.28632197164761E-06	1.62185778848358E-06	-4.78571111007276E-06	-5.0004313324637E-06	0.97644792635498	-0.202914911661886
8.6	0.153530857883832	-0.974189963817671	-8.13319821860421E-06	1.38188473671975E-06	-4.33497792815504E-06	-6.85722848302126E-06	0.976006486964244	-0.205556844362177
8.7	0.0292114296467409	-0.985424281860285	2.24480064928657E-07	-2.14415056595519E-07	6.11294725648111E-06	5.10586709813822E-07	0.97556042223067	-0.208114678092754
8.8	-0.0955407618072047	-0.980838667987238	1.02437322427478E-06	-1.8164786903742E-06	-2.38835741464172E-06	-1.28023111338578E-06	0.975167741909642	-0.210378139404683
8.9	-0.218191294779898	-0.96119905669961	-3.02995883543433E-07	3.03277677909399E-06	-1.2320773632635E-06	-1.64128806314335E-06	0.975124828628423	-0.212479528146054
9	-0.336932562589718	-0.926099956160976	2.97455048156242E-06	1.58989495809588E-06	-1.57664629373454E-06	2.11223833786679E-06	0.974974190822291	-0.214831801869477
9.1	-0.450230367183484	-0.876728947572433	-9.31198461690282E-06	2.25406811266627E-06	-1.5664093146684E-06	2.40712236503251E-06	0.974706170034748	-0.21703464345979
9.2	-0.556780491599249	-0.813559684438983	7.50440572953364E-06	-2.23580383981191E-07	-9.10842322704256E-06	1.95615053438106E-06	0.97423747441687	-0.219656198690121
9.3	-0.654432729002631	-0.737740873485883	8.68778388769603E-08	-7.16366474548976E-06	1.58852502307171E-06	-1.29808317650366E-06	0.973813477060483	-0.222195485067328
9.4	-0.741982510245796	-0.650338432603499	5.96404495190138E-07	2.48459499690986E-06	1.62180708581531E-06	-3.59622767295383E-06	0.973141127401742	-0.225132627712121
9.5	-0.817884964084793	-0.552085249989193	-2.87809017349885E-06	6.6442397907373E-06	4.72658113070594E-06	-1.36486509341322E-06	0.972346711515762	-0.227951464340172
9.6	-0.880689095598898	-0.444491534338032	-5.021775942134E-06	-5.20856361435504E-06	4.75987286743429E-06	2.88539332496296E-06	0.971652076093681	-0.230976778017577
9.7	-0.929578240383436	-0.329574866172159	-1.99893946311906E-06	-5.07606179044879E-06	2.09733603000867E-06	1.17029611965085E-08	0.970995088027197	-0.233565605083555
9.8	-0.963874095921011	-0.20890726859155	5.95506468748784E-07	-4.28598631118756E-06	-2.940478812597E-06	-2.51994734541793E-06	0.97062436386918	-0.235651072119499
9.9	-0.982347682620965	-0.0847143542732364	-6.11735302875532E-06	4.20728873634044E-06	-3.08570650548378E-06	1.66397932426597E-06	0.970167404424781	-0.237529946938626
10	-0.985320533521662	0.0400947344895084	3.57336672553689E-06	-4.01417841369511E-08	8.22723063693386E-06	1.11109026826116E-05	0.969778533209536	-0.239166552504482
10.1	-0.972317107790763	0.164483079063208	-2.85868560739258E-06	-2.52508934614155E-06	-2.00957851274876E-06	-2.49990695774165E-06	0.969216134431954	-0.24080373381119
10.2	-0.943699723735766	0.286384591111984	2.35835887522822E-06	-1.02115252850591E-06	-2.7696510909417E-06	-1.0679939598353E-06	0.968848184590726	-0.242233959978533
10.3	-0.899825672307649	0.403630492676144	7.7657490855397E-06	-5.95258190418752E-06	3.86105711695368E-06	8.23683755300335E-06	0.968260285816635	-0.244072396060571
10.4	-0.842002256745311	0.514136587524634	1.70654755824533E-06	2.50954380249177E-07	6.27944556161132E-06	-1.18717314375504E-06	0.967403761439898	-0.246166230406205
10.5	-0.770879630533404	0.616565380522202	8.35269534705271E-06	-4.14067020197355E-06	-4.94866596633397E-07	1.9728531170896E-06	0.96664556809419	-0.248616297058039
10.6	-0.687583519572511	0.708571196829475	8.93860898551643E-06	-1.26657081361344E-06	-1.4819332520479E-06	1.364411249322E-05	0.96594868404886	-0.251173340231803
10.7	-0.593155859570496	0.78916860333603	8.01884472073562E-06	-1.90042082520904E-06	-3.05228894382216E-06	-5.28342032381911E-06	0.965191509283828	-0.253882730886963
10.8	-0.488671327079889	0.857522085398569	2.44971623457661E-06	5.24924009194618E-06	-3.62834148949371E-06	-2.06239525820465E-07	0.964522239046554	-0.255982877243396
10.9	-0.376013058598568	0.912203869252729	-5.55940045764745E-06	4.84132855309376E-07	1.59636422869335E-06	4.0292445948743E-06	0.964072921076487	-0.257948707609896
11	-0.257855468593685	0.952020829205419	4.90846982485762E-09	-5.22299834132443E-06	-8.38269018680178E-06	2.22937702021628E-06	0.963522533104182	-0.259655340642381
11.1	-0.135650229870406	0.97710364342551	6.3117530049019E-06	4.09094333276832E-06	-1.90502299911255E-06	1.07631318340232E-05	0.962949512510253	-0.261314991303329
11.2	-0.0116217487619295	0.986379454473934	1.57894793157769E-06	1.35531368518735E-06	5.13838120996539E-06	8.90430058659053E-06	0.962093497611403	-0.26311488740704
11.3	0.112504937563579	0.979636725547123	-4.62101581726956E-07	-1.73748119869666E-06	-6.98199310567318E-07	-4.3957164295741E-06	0.961478465942031	-0.264888434438744
11.4	0.234661796936919	0.957887670775979	2.21340236547646E-07	1.18593546296252E-05	2.42147700720382E-06	4.92934456973832E-06	0.960590624007457	-0.267448231302884
11.5	0.353524490047662	0.921148640662251	6.19434033939888E-06	-3.23506725150014E-07	3.17037021928535E-07	-1.88182271631155E-06	0.959586644098262	-0.270205115214994
11.6	0.465690269950689	0.869812117251436	-6.00259669164241E-06	3.0712498602027E-06	-4.86800783648733E-06	1.91471697838775E-06	0.958363385823018	-0.273647612255935
11.7	0.570453569214938	0.805511088621534	3.32556252308906E-06	-1.79411303880272E-06	-1.70635158025284E-06	2.23544315485114E-06	0.957182563795321	-0.277162833905435
11.8	0.666573704797281	0.728203688480127	-8.24878904320482E-07	9.78850894958421E-06	-2.71971853209625E-06	1.05316963773294E-05	0.956114169945145	-0.280629505266744
11.9	0.751905686798873	0.638910352866376	-7.29244874488153E-06	-1.04053761221084E-06	-3.91515700239247E-06	1.12424577462779E-05	0.955640049434309	-0.283101441993509
12	0.825411382374491	0.53957335832907	-6.45137380756691E-07	1.38170629830385E-06	-3.13581345719436E-06	-1.92640541196188E-06	0.954933376224789	-0.285643485938559
12.1	0.886433397582009	0.431854870098172	-3.87930967088541E-06	4.98765808411126E-06	-1.33975335537118E-06	8.41560815553402E-06	0.954034866730489	-0.287778489426711
12.2	0.933081806170528	0.317119931302869	-5.76706730039746E-07	-3.79874040450604E-06	-3.11442304702802E-06	-7.31200254261789E-07	0.953283386260979	-0.290308088088172
12.3	0.964953405173324	0.19828336112325	3.59728738566729E-06	3.43281049826068E-06	-3.43583155065471E-06	6.26743963143327E-06	0.952310601946188	-0.292985238332803
