# GHZ S RI R 50
0.2	-0.96604373695656	0.251490952145097	8.8227606421296E-06	5.32106736024162E-06	1.13678690621282E-06	-2.88961653400321E-06	0.999607414255167	-0.00690832278788295
0.3	-0.92661680863865	0.371310235704665	-7.66220519082727E-06	-8.19592487911762E-07	-1.47824370888498E-08	3.6594861639824E-06	0.999517173305825	-0.00983075453455936
0.4	-0.871939875104874	0.485066091524636	-2.198929177829E-06	6.33923908844986E-06	2.91911993284451E-06	5.73665797423798E-06	0.999494820774752	-0.0124894461300506
0.5	-0.803605044020238	0.591161092835552	-2.64898880512552E-06	5.4886528745726E-07	1.05200957086184E-05	4.88511168833385E-06	0.999288327084116	-0.0156703200546026
0.6	-0.72235128313818	0.687491829709264	-1.72517004344207E-06	-1.83818509412772E-08	4.16365014452223E-06	-1.0335218549136E-05	0.999325250459533	-0.0185320719036488
0.7	-0.629885178385701	0.772928545214234	-2.0469390191735E-06	9.88122065420757E-07	3.782428230104E-06	1.1159744749546E-05	0.998997545189788	-0.0215128768113681
0.8	-0.527327953045696	0.846125801955119	-5.60523483658512E-06	3.78134550288349E-06	-3.16751522306164E-06	-2.13906909684626E-06	0.998758294010928	-0.0237063029296099
0.9	-0.416617286770146	0.905617334794964	-6.68979654183356E-07	5.24959040830909E-06	3.26602497397791E-06	-2.94475100784611E-07	0.998663724204673	-0.0261108725816003
1	-0.298869716196918	0.950747079381657	1.56834518883983E-05	-3.68524586529447E-06	-9.59707528969E-06	5.26284525238444E-07	0.998364986935793	-0.0277578742168703
1.1	-0.177416281009674	0.980478443998967	1.34252741778299E-06	-2.98152753915801E-06	9.39287475574611E-06	1.25972847562946E-05	0.998081854763384	-0.0297360078860747
1.2	-0.0523015226911249	0.994790792816597	-7.90668986176707E-06	-3.26078623846201E-06	-3.09615181543785E-06	-4.4789224177811E-06	0.997453344484454	-0.0307250031149165
1.3	0.0736754069938223	0.993155851936812	1.77381370602022E-07	3.33378324598478E-06	1.92874482020879E-06	3.4170560456242E-07	0.997608618133253	-0.0316062934731477
1.4	0.198079491110113	0.975544981343925	2.1094580305643E-08	3.76673191295392E-06	-2.52506288239005E-06	-5.61473965019371E-06	0.997423261236083	-0.0336371163812823
1.5	0.319292172936682	0.942791004692814	3.18619800934877E-06	-2.65366017355506E-07	2.70072121330784E-06	2.09502983694696E-06	0.997980239087473	-0.0370825774836714
1.6	0.435241785391127	0.895220058402361	1.78793361299605E-06	-1.93830718235563E-06	-8.92451127385481E-07	-3.06312500320883E-06	0.997535579714674	-0.0405380371365106
1.7	0.544098615591054	0.833154273631311	-8.45264796393412E-08	-3.52429815480344E-06	2.00355679521631E-06	4.92624257351187E-06	0.997909532175276	-0.0431227163093481
1.8	0.644081982958232	0.758352719924816	-2.05669981808147E-06	-1.81432391712582E-06	-4.64378910042273E-06	1.83143090223974E-05	0.997744222770395	-0.045879554175868
1.9	0.733760303798424	0.671798733671147	-4.3889281918337E-06	-1.46825980606649E-06	-4.92314916192465E-06	-6.00410440985858E-06	0.997571406129299	-0.0480979352994005
2	0.812079207367814	0.574661984210319	-9.45027666631015E-08	-6.74102615202611E-07	-1.66753218048805E-06	-1.41833024144429E-06	0.997186685081024	-0.0508468714611379
2.1	0.877903328960694	0.467286260840468	-1.14248609893422E-06	9.44569046585013E-06	1.99407649718074E-06	-3.79816690677947E-07	0.996889010204874	-0.0531835287150539
2.2	0.929258533975642	0.353347440454053	-2.18786118277605E-08	-5.92733641958869E-06	-7.36955581410545E-07	2.73622442662768E-06	0.996851496775541	-0.0555595768793491
2.3	0.965890999650659	0.233831188223189	-1.31524646919217E-06	2.76435942164627E-06	-2.72512232925607E-07	1.19676908201236E-05	0.996557508481531	-0.0574091477518307
2.4	0.987297063674676	0.109866411716007	-5.86911052204895E-06	-3.70741528829078E-06	-1.75880337987376E-05	1.45147139123798E-05	0.996487548000351	-0.0605042868652755
2.5	0.993350068236491	-0.0149125732299552	1.81949620345311E-06	-2.96117435466465E-06	-1.79328437631283E-06	7.54468346102791E-06	0.996129511133573	-0.0627367408614386
2.6	0.983553120821076	-0.13852943217722	2.8615502734162E-06	9.20126527616206E-07	-1.75285480289192E-06	4.5014710944137E-06	0.996066147833614	-0.065615753777309
2.7	0.958273167076287	-0.260497740531164	3.82073697062304E-06	1.04462672336776E-05	2.32193582060497E-06	3.86886811629698E-06	0.995700940398453	-0.0685961093279831
2.8	0.917959553083456	-0.378560666622645	-8.13261774981057E-07	-2.29302874914048E-06	2.19657512370719E-07	-1.88799782570761E-06	0.995846453241798	-0.070629005728276
2.9	0.863461194142003	-0.490238105527823	3.76739959303543E-06	-8.316863818939E-06	-1.27315428094365E-06	-1.42251328796313E-05	0.995534806499948	-0.0726896809963397
3	0.795340703479657	-0.594745064827278	-1.29125084600037E-08	6.64907853939443E-06	-1.4770166069525E-05	5.30198096273602E-06	0.995409987472873	-0.0751805905024978
3.1	0.715556314275672	-0.688853451704363	-4.98392277533943E-06	7.82283929951181E-06	5.80819503311668E-06	-8.51971819456217E-08	0.995100342842866	-0.0772210680206525
3.2	0.622889899196606	-0.77339148123263	9.60014721667712E-07	2.12562643658733E-06	-4.560637601778E-06	4.77814979218494E-07	0.994816629400074	-0.0789964954353223
3.3	0.520642309387182	-0.845528014331762	7.1956515341181E-07	-1.459420800488E-06	-4.58120361797139E-06	7.30810201927218E-07	0.994566225279038	-0.082258594916119
3.4	0.409716741686922	-0.903969978393989	6.46954050609552E-06	2.36586939353553E-07	-8.13379959042133E-06	-7.18250570144617E-06	0.994539279117293	-0.0842671084344559
3.5	0.292654180580397	-0.948086791124522	-7.69816136669061E-06	1.95994871532072E-06	-5.90017674631924E-06	-7.98246168121372E-06	0.994393913853141	-0.0870883187184946
3.6	0.170110857486266	-0.977414281724141	-8.56211138912995E-07	-4.38137699167731E-06	-7.81507075662064E-06	-6.33273994505333E-06	0.994069191507349	-0.0896371453895295
3.7	0.0452825451106865	-0.991324592662893	-6.71490167608648E-06	-6.77014152734023E-06	5.28225708954191E-07	-4.7638134856794E-06	0.993858289843018	-0.0923239928106868
3.8	-0.0804988884842495	-0.98893425035552	-3.64351979551633E-06	1.08292032421007E-06	-3.29647795878901E-06	-2.4654763920966E-06	0.993419582801414	-0.0943306335839342
3.9	-0.204145107728305	-0.97074087200544	-4.79584101440522E-07	3.50765642187694E-06	2.05339076715297E-06	-1.21923251293094E-06	0.993430556529994	-0.0974281660634055
4	-0.32475792771732	-0.937531067201262	1.16800429954214E-05	8.11727123745547E-06	7.2654244172447E-06	-4.04147493938971E-06	0.993106862218812	-0.0988489484049988
4.1	-0.439974896278406	-0.889402150999106	5.21770369584592E-06	1.32280106456802E-06	-3.45705870562821E-06	6.65219844232237E-06	0.992897659792659	-0.100678191465841
4.2	-0.548064117411413	-0.827548635200527	-7.09814871232218E-06	-1.20089168693122E-06	-8.26605059886927E-06	-4.07580540837074E-08	0.992390920668485	-0.103309433866376
4.3	-0.647700821734244	-0.752152420718637	7.02240513546998E-07	-2.36816737232135E-06	5.21327905749318E-06	8.801850072235E-07	0.99229545893024	-0.10531678045911
4.4	-0.737121287973321	-0.664474550492867	4.47338324180854E-06	-1.77466013685732E-06	-8.68347847707204E-07	1.34690947796182E-06	0.991858005732621	-0.107705853003821
4.5	-0.81490886981138	-0.566056573492787	6.78573972344849E-06	1.86685042500064E-06	-8.04997241129455E-07	-3.25747074442045E-06	0.991814443273044	-0.109788670812302
4.6	-0.879864501166155	-0.458627646752401	2.45654776259419E-06	2.95137559776635E-06	-6.58727424868834E-06	9.74899057946056E-06	0.99156961565473	-0.112612752850471
4.7	-0.930632752836773	-0.343100664360701	-1.40515712040928E-05	5.92015553642492E-06	-3.46256264033059E-06	-3.38577471378867E-08	0.991489638997411	-0.114760781515576
4.8	-0.966316471888278	-0.222624703853516	-3.1625912340252E-06	-5.14273713743744E-06	-5.52394634164684E-06	2.36640696126622E-06	0.991067856478766	-0.117305428344483
4.9	-0.986043656494285	-0.099071915165892	-1.0224684383524E-06	-8.55237912276355E-06	-4.22131001098935E-06	7.40623567656212E-07	0.990658761692213	-0.119123419613567
5	-0.990343525606118	0.0251453018946934	7.55088387521105E-06	-1.57134797515033E-06	-1.75270150034973E-06	-2.72173025232595E-06	0.990489958604134	-0.120711957646858
5.1	-0.979216993888063	0.150235568264343	-2.60160137817277E-06	-6.39390289216539E-06	-1.00888126576617E-06	-1.95305475417635E-06	0.990517668590041	-0.122098401128433
5.2	-0.952808330077562	0.272207034230652	3.99734443708563E-06	-4.36570490083043E-07	-5.43863932512841E-06	6.30777128913019E-06	0.990326736125071	-0.124357541261754
5.3	-0.911411082563411	0.389958469220671	5.13961532697876E-06	6.0068499031372E-06	-9.60648804319493E-07	-3.58606213352474E-06	0.990088836822292	-0.126694385812376
5.4	-0.855456204585682	0.501555725350726	3.06227661675841E-06	-2.01671485416157E-06	-1.13143037770327E-05	2.20096845975802E-06	0.990049832978019	-0.129501369789215
5.5	-0.785493609510789	0.60490663456005	-4.32408661396004E-07	-2.19448527056284E-06	-5.78737316941107E-06	6.12621972881549E-06	0.989857796431605	-0.132384298176439
5.6	-0.702958629548231	0.698505534816476	2.38104756248679E-06	7.30413793947006E-06	-5.37592458943838E-07	2.9294866544712E-06	0.98958814823456	-0.134998007785057
5.7	-0.609610872499545	0.781372006409244	-2.57144636088389E-06	2.36146158494011E-06	7.91224769583929E-06	2.77808920025059E-06	0.98929162254847	-0.137465211207827
5.8	-0.506374599135671	0.851286384030032	-4.64806591559948E-06	5.10494162525055E-06	-3.65981204573961E-07	3.42259976790881E-06	0.989109384224032	-0.139687314389638
5.9	-0.395568134285657	0.907974528915811	6.35794844657723E-06	1.498448191295E-06	-2.71127648303727E-06	2.5472583952001E-06	0.988803403825782	-0.141990341093171
6	-0.278771076753226	0.950101477394084	3.52367094870988E-06	3.2989940008564E-06	-3.28370031948744E-07	-1.43393230945676E-06	0.988371000517394	-0.1436939963757
6.1	-0.157736636672975	0.977180821618275	9.17492545431622E-06	1.52148632167397E-06	-1.28030630052507E-07	-1.80821140499127E-06	0.988288993635615	-0.14503312589598
6.2	-0.0338674354968417	0.989026896279227	2.43836026596977E-06	-1.72998424485124E-06	1.47868691891284E-06	-4.84399088053578E-06	0.987941539468458	-0.146461664439528
6.3	0.0905865232280709	0.98538596584372	-4.3575225138477E-06	4.24397177523585E-06	-6.15229928244845E-07	-1.72433163437025E-06	0.987511055047421	-0.148442952377032
6.4	0.213517393887691	0.966188045667638	-4.26283683508856E-06	1.07001245372933E-06	-1.75956340527473E-06	8.83980255581516E-06	0.987046578684952	-0.150553590451516
6.5	0.333175174300468	0.931979729063121	2.45079138300332E-06	-1.33040128752517E-06	1.48662494670874E-06	-2.92836507034146E-06	0.986798374079322	-0.153217082602198
6.6	0.447450129911141	0.882791990338513	-4.73134499226594E-06	-2.25474616892232E-06	-1.86215140978294E-06	-6.63595904411334E-06	0.98658209273481	-0.155853066686615
6.7	0.55439993891337	0.819621140038069	4.16012655471157E-06	-6.58967276761957E-07	-4.67311044115918E-06	1.00873044696768E-06	0.986333786465061	-0.158253404053438
6.8	0.65252009569453	0.743682924814129	3.75490598350892E-06	-2.07709045489788E-06	6.20983352001873E-06	-9.20588873562679E-07	0.985895844449837	-0.160583986043664
6.9	0.740229114740925	0.65617698318972	2.04608732038376E-06	1.64014370026129E-06	8.77659051238291E-06	-2.75230541438556E-06	0.985528772976922	-0.162716017398027
7	0.816198432789182	0.558349912187589	2.17070777414629E-06	4.09374949344832E-06	-9.38809507155141E-08	5.3788216989346E-06	0.984932791510021	-0.164540424470324
7.1	0.879243205200899	0.452256207420775	-1.33544287172267E-07	1.71552263732138E-06	8.25281746567512E-06	-4.63678562365372E-06	0.984384965576318	-0.166199433140212
7.2	0.928572165975127	0.338840015002569	4.84351937981908E-06	-1.38894135064772E-06	7.24681885837283E-06	3.78229046822402E-06	0.983777582704789	-0.16790050961507
7.3	0.963033821299816	0.220107998064113	4.85702067037337E-06	-1.10283929974945E-06	-7.32655911662701E-06	-7.3798121926709E-06	0.982806653210253	-0.16962292725931
7.4	0.98262197708159	0.0976254592902863	-1.84999881844686E-06	9.88300177316876E-06	1.43672430874901E-06	-4.06303397984735E-06	0.981884301958424	-0.171858803255887
7.5	0.986813476897169	-0.0264891220930865	8.38389257719903E-07	8.06771057974656E-07	1.6702945147864E-06	9.94503245837651E-07	0.981052271593024	-0.17421982623176
7.6	0.975472198613475	-0.150556030895036	1.4560743402235E-06	-2.61158696521702E-06	-5.41271141502206E-06	-3.62859409459612E-06	0.980510923125215	-0.177216082206169
7.7	0.948652778092297	-0.27236616882976	5.56678903366184E-06	2.41044292056378E-06	-6.8287680035431E-06	1.20349062996449E-05	0.980052008752897	-0.180408462687681
7.8	0.906990982563856	-0.389757432661575	-6.10221876695926E-07	-5.23927065249449E-06	3.73399898661351E-06	-4.73180602964064E-06	0.979876406147189	-0.183557217790174
7.9	0.850721901638342	-0.500911507210957	8.84530401382002E-06	1.5308070102291E-06	-9.52616844618518E-06	-8.634891686605E-06	0.979686301804167	-0.186776808798364
8	0.781107154096212	-0.603901892086256	-6.65116149781069E-06	-1.6299040116704E-06	-1.19991866582766E-05	2.49206481479485E-06	0.979292173569433	-0.189786768090614
8.1	0.699188834626904	-0.697256923064476	5.07110724449476E-06	7.31374700011981E-07	2.88880137346396E-06	2.26046632870495E-06	0.978773152573697	-0.192455738364161
8.2	0.606289392795017	-0.779461879496502	3.56194730805472E-06	-2.57183785251864E-06	-3.67434413087575E-06	-1.16059331760238E-05	0.978461900331375	-0.194867721686906
8.3	0.503578705175644	-0.849331713626835	2.72592021373212E-06	-1.85519829759688E-06	1.63501256267751E-06	5.28801068206599E-06	0.977877693307668	-0.197560084284393
8.4	0.392839264602652	-0.905596203635826	-5.5475100507017E-06	-1.0203949673413E-06	1.05355320041116E-06	2.9489889448438E-06	0.977121667334703	-0.200215784442267
8.5	0.275475292436532	-0.947501244192011	-3.28631104650143E-06	1.62183369865712E-06	-4.7856615157012E-06	-5.00042531402998E-06	0.976443246258749	-0.202910214488799
8.6	0.153535507329013	-0.974184634373639	-8.13316121213986E-06	1.38184558985533E-06	-4.33492838475305E-06	-6.85720972972701E-06	0.976003179023227	-0.205551409201361
8.7	0.0292182195939706	-0.985419450060959	2.2447966437404E-07	-2.14412926444849E-07	6.11291050086564E-06	5.10608698507835E-07	0.975558077323089	-0.208109361478678
8.8	-0.095531796577684	-0.980834727054832	1.02437493953846E-06	-1.81646263698299E-06	-2.38833660693655E-06	-1.28023378859901E-06	0.975166083012907	-0.210373046706285
8.9	-0.218179193909691	-0.961196618153823	-3.03010630807018E-07	3.03275230675003E-06	-1.23205889998098E-06	-1.64128265486605E-06	0.975123701954623	-0.212474807594823
9	-0.33691849881404	-0.926102911509988	2.9745166287412E-06	1.58990872994438E-06	-1.57665297219317E-06	2.11221056879257E-06	0.97497335645721	-0.21482776774868
9.1	-0.450218239929719	-0.876735072287277	-9.31195321909451E-06	2.25397640608849E-06	-1.56642133589205E-06	2.40709591255523E-06	0.974705036825254	-0.217031155501404
9.2	-0.55677014033206	-0.813568284556808	7.50437450157526E-06	-2.23512361151466E-07	-9.10840037358689E-06	1.95606051289875E-06	0.9742359530305	-0.219652657459781
9.3	-0.654425012575506	-0.737750943267525	8.69426382339212E-08	-7.16364317909276E-06	1.58853220326494E-06	-1.29806498657119E-06	0.973811978860261	-0.222191205603499
9.4	-0.741977477253359	-0.650349423401689	5.96381313725031E-07	2.48459845626103E-06	1.62183864807737E-06	-3.59620997223261E-06	0.973140857484154	-0.225127300849071
9.5	-0.817883952993867	-0.552094535911644	-2.87813859833604E-06	6.6442299770384E-06	4.72659692805579E-06	-1.36483547194995E-06	0.972347678038164	-0.227947330365069
9.6	-0.880686448878905	-0.444498690175969	-5.02174660636831E-06	-5.20859219996034E-06	4.75985667568247E-06	2.88542035811139E-06	0.971652822852334	-0.230972124714324
9.7	-0.929575501351694	-0.329583452996314	-1.99890726884526E-06	-5.07607625522343E-06	2.09733659352057E-06	1.17165185399563E-08	0.970996908987493	-0.233560269961567
9.8	-0.963872714792082	-0.208916816650573	5.9553663660871E-07	-4.28598807239909E-06	-2.94046555916544E-06	-2.51997091959983E-06	0.970627685480843	-0.235645607596387
9.9	-0.982348090511383	-0.0847242482441695	-6.11739658395435E-06	4.20726097505381E-06	-3.08572554032552E-06	1.6639640769366E-06	0.970172350962509	-0.237526025422196
10	-0.985323137234073	0.0400854919788377	3.57337588391048E-06	-4.01228171171355E-08	8.22719194197757E-06	1.1110974393852E-05	0.969780670250291	-0.239164299720432
10.1	-0.972320646771596	0.164475556536044	-2.8586795587155E-06	-2.52511384709582E-06	-2.00957001006793E-06	-2.49992640216452E-06	0.969218771843989	-0.240798371398937
10.2	-0.943703539224067	0.286378502544142	2.35837384989372E-06	-1.02114449703021E-06	-2.76965692579954E-06	-1.06801269978075E-06	0.968852795053418	-0.242228634191822
10.3	-0.899829042249946	0.40362590024646	7.76580959934488E-06	-5.95257741661991E-06	3.86104100290784E-06	8.23689161719566E-06	0.968266134525103	-0.244067775926642
10.4	-0.842003618001302	0.514132538558064	1.70655392280576E-06	2.50960627449359E-07	6.27947541049208E-06	-1.18715897338533E-06	0.967410269015903	-0.246162789198527
10.5	-0.770880967342542	0.616557698917384	8.35274177311392E-06	-4.14064342423828E-06	-4.94877613935453E-07	1.97285703455263E-06	0.966651693913886	-0.248612705433478
10.6	-0.687727672380973	0.70850572887909	8.93838880230863E-06	-1.26637880273055E-06	-1.4821336799038E-06	1.36437161666715E-05	0.965864558575417	-0.251272598766601
10.7	-0.593162947199705	0.789163196091963	8.01890825927516E-06	-1.90039310263142E-06	-3.05228278682133E-06	-5.28347128093913E-06	0.965198427823524	-0.253879919139641
10.8	-0.488678966630229	0.857519014246631	2.44970857858355E-06	5.24928802152504E-06	-3.62836569750497E-06	-2.06257998264637E-07	0.964529049812212	-0.255979161733016
10.9	-0.376020883526362	0.912202242510366	-5.55944196521159E-06	4.84107179002659E-07	1.59635435133647E-06	4.02928119071128E-06	0.964080507891102	-0.25794435808018
11	-0.257864019397016	0.952022424165309	4.93507669150631E-09	-5.22304323351207E-06	-8.38277361573961E-06	2.22935355744596E-06	0.963530708725639	-0.25965080013373
11.1	-0.135655332521456	0.977106861206861	6.31178871376742E-06	4.09099887382437E-06	-1.90507714132672E-06	1.07632110552731E-05	0.962958921666251	-0.261309982131841
11.2	-0.0116254529181266	0.986382053213031	1.57895430838219E-06	1.35532915513462E-06	5.13838558149567E-06	8.90438313945582E-06	0.962104219653589	-0.263110191627164
11.3	0.112501786395357	0.979638953951872	-4.62097676326261E-07	-1.73749467821529E-06	-6.98186281207086E-07	-4.39574863596678E-06	0.961490733019554	-0.264884059447856
11.4	0.23465918624541	0.957890197497123	2.21280868797115E-07	1.18594368961054E-05	2.42146826699895E-06	4.92939072257958E-06	0.960605384148435	-0.267444476311374
11.5	0.353522789815681	0.921151653852393	6.19439610927691E-06	-3.23479328527543E-07	3.1704897835195E-07	-1.88183763239485E-06	0.959602369335665	-0.270205119703044
11.6	0.465689595280338	0.869815580432098	-6.00265891872684E-06	3.07125133200049E-06	-4.86805599218121E-06	1.91471338224585E-06	0.958377984786702	-0.273647965892802
11.7	0.570454327499429	0.805515119303463	3.32559852662789E-06	-1.79411322567746E-06	-1.70637594500008E-06	2.23545430773963E-06	0.957198135701446	-0.277163778996325
11.8	0.666576747938632	0.728208282498238	-8.2493342295035E-07	9.7885970620624E-06	-2.7197944204979E-06	1.05317824269299E-05	0.956130673095674	-0.280632316193585
11.9	0.751913257414223	0.638913935951846	-7.2925304101969E-06	-1.04057224154148E-06	-3.91523728723634E-06	1.12425765100874E-05	0.955656520477276	-0.283108662095949
12	0.825419168815287	0.539571050580692	-6.45142552171216E-07	1.38171950584441E-06	-3.1358437054018E-06	-1.92642143955009E-06	0.954942860364353	-0.285653735954923
12.1	0.886439797702233	0.43185229730387	-3.87934190154328E-06	4.98769925552779E-06	-1.33976466065641E-06	8.4156777589574E-06	0.954041680669624	-0.287785835044275
12.2	0.933088743849903	0.317115871255355	-5.76716997542782E-07	-3.79877058953354E-06	-3.11444955569E-06	-7.31201670961851E-07	0.953289122349973	-0.290314890736539
12.3	0.96495979684506	0.19827718108004	3.59732224428083E-06	3.43282282848507E-06	-3.43583576848603E-06	6.26749261265943E-06	0.952314985919637	-0.292991715438949
