# GHZ S RI R 50
0.2	-0.96604913883723	0.251489015916337	8.82276855273793E-06	5.32106509046541E-06	1.13678583336213E-06	-2.8896187702835E-06	0.999602929986857	-0.00691154904107286
0.3	-0.926624167474788	0.371311422705502	-7.6622120644628E-06	-8.19582944211035E-07	-1.47775945410452E-08	3.65948894727222E-06	0.999510763940112	-0.00983240928549608
0.4	-0.871947127417396	0.485070883262099	-2.19891708347106E-06	6.33924881267987E-06	2.91913469930221E-06	5.7366560827344E-06	0.999487941770818	-0.012489116288277
0.5	-0.8036107997482	0.591169064826693	-2.64898897960528E-06	5.48873885147662E-07	1.05201182952507E-05	4.88508254545734E-06	0.999281966992857	-0.0156683628677381
0.6	-0.722354663269178	0.687502483988859	-1.72517118758382E-06	-1.83746503600869E-08	4.16360951475402E-06	-1.03352423489965E-05	0.99931998327974	-0.0185290481217849
0.7	-0.629885370405135	0.772941570828955	-2.04693462991777E-06	9.88134120863182E-07	3.78249304600971E-06	1.11597298317637E-05	0.998993813663581	-0.0215094426323122
0.8	-0.527323768214602	0.846141002694696	-5.60520865671427E-06	3.78139126365414E-06	-3.16753367806678E-06	-2.13904569662436E-06	0.998756592208364	-0.0237034578398648
0.9	-0.416606678317965	0.905634304102654	-6.68920413863448E-07	5.24960114023811E-06	3.26602357695826E-06	-2.94512381040173E-07	0.998664592101744	-0.0261105166492973
1	-0.298849161288825	0.950764294875436	1.56833906991382E-05	-3.68552539475127E-06	-9.59706854908013E-06	5.26455106505357E-07	0.998368519846168	-0.0277639194107899
1.1	-0.177380809571959	0.980491036907498	1.34243778404148E-06	-2.98156100292762E-06	9.39322449490038E-06	1.25969862850383E-05	0.998085602964217	-0.0297557088923275
1.2	-0.0522484733264764	0.994786647488018	-7.90675871626248E-06	-3.26039092290867E-06	-3.09632542961975E-06	-4.4787350218186E-06	0.997448852346146	-0.0307655585133726
1.3	0.0737330241131292	0.993119132033792	1.77570697161614E-07	3.33366701859871E-06	1.92870356162389E-06	3.41581962248445E-07	0.997577527268473	-0.0316632093885679
1.4	0.198109570345806	0.975482131562634	2.12467210468808E-08	3.76652298534155E-06	-2.52515192129335E-06	-5.61432672968712E-06	0.997367940999529	-0.0336765489853681
1.5	0.319280554217496	0.94273221014108	3.18601930418742E-06	-2.65354664712508E-07	2.70057229053833E-06	2.09490955209165E-06	0.997929035598547	-0.0370884706001481
1.6	0.435209619304237	0.89519179603183	1.78795342858229E-06	-1.93822017463797E-06	-8.92348584906983E-07	-3.0630912149984E-06	0.997520500194052	-0.0405326897568244
1.7	0.544065736745619	0.833152430568995	-8.44187672731551E-08	-3.52433543460461E-06	2.00342478652916E-06	4.9263527511742E-06	0.997908954961212	-0.0431193964723704
1.8	0.644056066415369	0.758367826850024	-2.05670239289796E-06	-1.81441666785015E-06	-4.6443493578964E-06	1.83146167628286E-05	0.997746225668718	-0.0458742960858601
1.9	0.733745288361956	0.671824109134486	-4.38903842816176E-06	-1.46838426614841E-06	-4.92319462020302E-06	-6.0043796163139E-06	0.997577443948611	-0.0480902648652302
2	0.812075513950116	0.574693527411733	-9.44967668769512E-08	-6.74128118498107E-07	-1.66757225363898E-06	-1.41840436065668E-06	0.997198295863555	-0.0508352307183786
2.1	0.877911699635371	0.46732162186726	-1.14264944573933E-06	9.44605892792878E-06	1.99416197968118E-06	-3.79807362041131E-07	0.996908617020268	-0.053167798698351
2.2	0.929280688991182	0.353384764544939	-2.18051636823671E-08	-5.92761348781606E-06	-7.37024372944966E-07	2.73634294322755E-06	0.996881938821203	-0.0555405202909868
2.3	0.965930010525738	0.233867697111922	-1.3153572549136E-06	2.76449531481172E-06	-2.72690237698784E-07	1.19683529109664E-05	0.996602206126142	-0.0573884306693603
2.4	0.987357529101337	0.109896763124357	-5.86946953289823E-06	-3.70775758379338E-06	-1.75894701461712E-05	1.45154833256119E-05	0.996551433372146	-0.0604867583472247
2.5	0.993434003810998	-0.014898576240174	1.81968842415628E-06	-2.96141115356785E-06	-1.79352681219414E-06	7.54531934980726E-06	0.996214304825221	-0.0627274971268214
2.6	0.98365743942796	-0.138547227634828	2.86185715533599E-06	9.20226239452693E-07	-1.75304444423394E-06	4.50195374668862E-06	0.996171559362926	-0.065625709165254
2.7	0.958381598531856	-0.260565085963224	3.82149592182249E-06	1.0447470476249E-05	2.32233029449868E-06	3.86928933200226E-06	0.995818629623261	-0.0686396548640746
2.8	0.918037872831236	-0.378684862290035	-8.13535609291425E-07	-2.2932560822002E-06	2.1954381519163E-07	-1.88825155983744E-06	0.995957012613975	-0.070718958368593
2.9	0.863465817299762	-0.490393723113454	3.76661751418006E-06	-8.31805629045289E-06	-1.27513726641386E-06	-1.42261544979032E-05	0.995605489598978	-0.0728265578134779
3	0.795258997559022	-0.594877610256661	-1.18463447780808E-08	6.64910719586564E-06	-1.47693749260098E-05	5.30437063747954E-06	0.995412993767861	-0.0753416958279065
3.1	0.715427142700335	-0.688914538331724	-4.982497242433E-06	7.82290356576616E-06	5.80773798075658E-06	-8.59651045045372E-08	0.995032007765323	-0.0773657285435579
3.2	0.622768940051188	-0.773381651127821	9.60064127385483E-07	2.12531599379125E-06	-4.56008873880865E-06	4.78099085530537E-07	0.994704239556011	-0.0790930960858048
3.3	0.520554848554477	-0.845475506267891	7.19448953323035E-07	-1.45926981810993E-06	-4.58066086336876E-06	7.3083175123355E-07	0.994440579504111	-0.0823053065139158
3.4	0.40966462915631	-0.903898963597813	6.4688763434545E-06	2.36616720936749E-07	-8.13290710959561E-06	-7.18183842604769E-06	0.994418983865283	-0.0842756485256204
3.5	0.292631721237806	-0.948008596132974	-7.69751187669685E-06	1.95958112072863E-06	-5.8994449528464E-06	-7.98188362972993E-06	0.99428667530054	-0.0870710226902566
3.6	0.170115059478649	-0.977338264445964	-8.55997192457405E-07	-4.38106179730994E-06	-7.81424528748707E-06	-6.33250467355279E-06	0.993978128180854	-0.0896037468560612
3.7	0.0453101025936539	-0.991254457168821	-6.71416900248143E-06	-6.76991842327433E-06	5.28369746263551E-07	-4.76345647105089E-06	0.993784033603029	-0.0922819885592991
3.8	-0.0804506182030001	-0.988875624835854	-3.64333049306097E-06	1.08270226467784E-06	-3.29616611429165E-06	-2.46545289969312E-06	0.993362266149731	-0.0942862725279252
3.9	-0.20407962017565	-0.970699833215019	-4.7970774113416E-07	3.50743455228157E-06	2.05332552023407E-06	-1.21907409302094E-06	0.993389490683697	-0.0973866670159833
4	-0.324681619902689	-0.937514377412983	1.16791046842369E-05	8.11740629553681E-06	7.26525387470678E-06	-4.04094773623984E-06	0.993080219609661	-0.0988146436864969
4.1	-0.439897946634692	-0.889415279633171	5.21744733499549E-06	1.3230031397168E-06	-3.45725093157185E-06	6.65178644648195E-06	0.992882427588296	-0.100653194133363
4.2	-0.54800178609683	-0.827593209847198	-7.09794761154569E-06	-1.2012216590251E-06	-8.26588409679116E-06	-4.11693332252389E-08	0.99238386593621	-0.103293113928449
4.3	-0.64767173387237	-0.752214560755599	7.02346142540092E-07	-2.36813641888061E-06	5.21324058219834E-06	8.80417443317461E-07	0.992295863407896	-0.105305865925496
4.4	-0.737134991113971	-0.664532195262466	4.47354407624437E-06	-1.77457374362485E-06	-8.68408148608713E-07	1.34691721180464E-06	0.991870305986602	-0.107699852684198
4.5	-0.814949550015963	-0.566080828322398	6.78599701704129E-06	1.86692056121499E-06	-8.05028033908441E-07	-3.25759410610716E-06	0.991841969708241	-0.109795973665878
4.6	-0.879899572615216	-0.458614550790434	2.45670865380244E-06	2.95139245778601E-06	-6.58718647699163E-06	9.74947842588936E-06	0.991600898803124	-0.112644379531806
4.7	-0.93064638848039	-0.343072849993388	-1.40514796709684E-05	5.92078052232839E-06	-3.4625999474848E-06	-3.37192368069454E-08	0.991504831658612	-0.114807664059336
4.8	-0.966316653527792	-0.222596111721895	-3.16275908741439E-06	-5.14260089394136E-06	-5.52383658982923E-06	2.3665920583578E-06	0.991061859468113	-0.117345717626235
4.9	-0.986034625390883	-0.0990433851742792	-1.02265537950016E-06	-8.55226201392203E-06	-4.22124674240285E-06	7.40713261189494E-07	0.99064547428583	-0.119139915920848
5	-0.990325698755263	0.0251747973413502	7.55078837880911E-06	-1.57140880290098E-06	-1.7527109514963E-06	-2.72168367800388E-06	0.990485249868316	-0.12070091891745
5.1	-0.979188754651212	0.150263945417048	-2.60157595873926E-06	-6.39386204945288E-06	-1.00887203002002E-06	-1.95304253150153E-06	0.990532438140332	-0.122065631240838
5.2	-0.952769500676263	0.272230480452211	3.99733986743538E-06	-4.36528574670748E-07	-5.43869161037525E-06	6.30770133936311E-06	0.990364971626199	-0.124313053866995
5.3	-0.911363729662216	0.389972392304969	5.13952310892265E-06	6.00695583464388E-06	-9.60588275493358E-07	-3.58608833215334E-06	0.990150022026046	-0.126648093308116
5.4	-0.855404503048753	0.501556483283496	3.06234957753466E-06	-2.01665932889902E-06	-1.13144494883805E-05	2.20071978740186E-06	0.99013161735333	-0.129461995736163
5.5	-0.785443629614356	0.604892157847108	-4.32352986000672E-07	-2.19453365451827E-06	-5.78764338670004E-06	6.12615472594695E-06	0.989957950398434	-0.132359724691119
5.6	-0.702918456193866	0.698477055526305	2.38088670354312E-06	7.30443038112492E-06	-5.37701307503635E-07	2.9295566221684E-06	0.989705036773249	-0.134997233038887
5.7	-0.609586699917095	0.781335767662768	-2.57164673336085E-06	2.36150707671042E-06	7.91257071418017E-06	2.77846233880114E-06	0.989424234626938	-0.137501707050401
5.8	-0.50637094418465	0.851262037250744	-4.64849647109707E-06	5.10533446430069E-06	-3.66038681548679E-07	3.42288461198323E-06	0.989246367347429	-0.139783238310743
5.9	-0.395562182312327	0.907985652523663	6.35875912207141E-06	1.49828538111848E-06	-2.71145417793265E-06	2.54769449340411E-06	0.988913325619189	-0.142172967473836
6	-0.278710610286585	0.950135650858181	3.52455176637364E-06	3.29877035737637E-06	-3.28630707354739E-07	-1.43402585633345E-06	0.988386685405348	-0.143971663551543
6.1	-0.15760579582391	0.977164697950565	9.17535417716553E-06	1.51912132849241E-06	-1.28498385519922E-07	-1.80818532807757E-06	0.988134431706348	-0.145349532725402
6.2	-0.0337369577289851	0.988910613058779	2.43753443593513E-06	-1.73042994896204E-06	1.47711815668331E-06	-4.84373360829155E-06	0.987610599500868	-0.146707628129997
6.3	0.0906440946973657	0.985206980893153	-4.3554742656791E-06	4.24391018207076E-06	-6.15469781041486E-07	-1.72376341319272E-06	0.987088353952635	-0.148544481445993
6.4	0.213494203411505	0.966024769102656	-4.26145233956381E-06	1.07035815608951E-06	-1.75770716952217E-06	8.83754016886409E-06	0.986631407473054	-0.150515418197897
6.5	0.333110470193546	0.931869281466261	2.44999623326867E-06	-1.33026010400752E-06	1.48594842523411E-06	-2.92769657991421E-06	0.986455044175993	-0.153089255690752
6.6	0.44737868562637	0.88273291227011	-4.73030708591487E-06	-2.25395583823009E-06	-1.86203570506746E-06	-6.63424740934752E-06	0.986326663091411	-0.155686600980789
6.7	0.554337743148497	0.819598130039852	4.15922438228359E-06	-6.58930906954347E-07	-4.67209031440658E-06	1.00863242617816E-06	0.986155449603883	-0.158079076750068
6.8	0.652469842306478	0.743682521263931	3.75417951343822E-06	-2.07671450939729E-06	6.20864537709072E-06	-9.20446271065729E-07	0.985777524488389	-0.160413911037354
6.9	0.740189906601811	0.656192682420904	2.04570072465536E-06	1.63987613257733E-06	8.77505549802417E-06	-2.75170263372835E-06	0.985456027860921	-0.162550820087349
7	0.816165450926672	0.558381639741605	2.17016613606998E-06	4.09312807624819E-06	-9.40822406323555E-08	5.37788605711681E-06	0.98489982826637	-0.16437671871128
7.1	0.879216807598459	0.452311957956006	-1.33667277303449E-07	1.71521889234431E-06	8.25180477413388E-06	-4.63529415126657E-06	0.984393162236436	-0.166029471878086
7.2	0.928564646755386	0.338935821069504	4.84297806465609E-06	-1.38795583990549E-06	7.24508068462215E-06	3.78284382316764E-06	0.983841509993931	-0.167716491468596
7.3	0.963086572893559	0.220258316766028	4.85682639274799E-06	-1.10142199926405E-06	-7.32383464806733E-06	-7.38103630781114E-06	0.982961698491952	-0.16942828573189
7.4	0.98281298391239	0.0978051147409752	-1.85400806850392E-06	9.8827205802582E-06	1.43840358598533E-06	-4.06264988375107E-06	0.982183332345035	-0.171691936058638
7.5	0.987195595540699	-0.0264216776989537	8.38314828611529E-07	8.07389743981674E-07	1.67040820741539E-06	9.95538139743364E-07	0.981498018209332	-0.174203574894634
7.6	0.975899870042655	-0.15075677498757	1.45758620266461E-06	-2.61269475037579E-06	-5.41484784535189E-06	-3.63207557023364E-06	0.98094843796774	-0.177430052549768
7.7	0.948909843116304	-0.272796092077618	5.57045825979134E-06	2.41192448810888E-06	-6.83302586825761E-06	1.20428650800542E-05	0.980331862842722	-0.18077967278247
7.8	0.907004013434753	-0.390203393988693	-6.1163359480212E-07	-5.24203306671193E-06	3.73508578028944E-06	-4.7351804262127E-06	0.979972185893122	-0.183904856747913
7.9	0.850585298093031	-0.501235455068278	8.8492675522929E-06	1.52909978082787E-06	-9.53227230263246E-06	-8.63586593736592E-06	0.979684187597407	-0.187008617488035
8	0.780926219261145	-0.604104375919088	-6.6535416597497E-06	-1.62867286009653E-06	-1.20020826171718E-05	2.49588737577362E-06	0.979276268550985	-0.18991811373757
8.1	0.699013423584504	-0.697360847413017	5.07236047204804E-06	7.30366568379802E-07	2.88993874787329E-06	2.26028663220269E-06	0.978773485321887	-0.192515566922677
8.2	0.606140293976247	-0.779507750849461	3.56203186411911E-06	-2.57299715748665E-06	-3.67732122559051E-06	-1.16071623552097E-05	0.978494476800814	-0.194889528593878
8.3	0.503456688735214	-0.849343272159963	2.72597011595384E-06	-1.85596860445866E-06	1.63622417565009E-06	5.28847005149307E-06	0.977944050979955	-0.197565502444534
8.4	0.392739980795019	-0.905587166980832	-5.54839924889363E-06	-1.01954255593052E-06	1.05421014533057E-06	2.94917890963277E-06	0.977221548444846	-0.200220457100462
8.5	0.275393748935684	-0.947477670120719	-3.28639537315042E-06	1.62261577334218E-06	-4.78711825280589E-06	-5.00013365256635E-06	0.976576688992441	-0.202928436522165
8.6	0.153468917279096	-0.974145786918896	-8.13369205280722E-06	1.38359427611115E-06	-4.33671636826664E-06	-6.85702903408586E-06	0.976169496537064	-0.205600383782548
8.7	0.0291691569992801	-0.985359349404697	2.24446043711156E-07	-2.14478994239426E-07	6.1134471401413E-06	5.0924567472713E-07	0.975751325193028	-0.208211787683702
8.8	-0.0955390371183173	-0.980746655937493	1.02390205059778E-06	-1.8167394167259E-06	-2.38868301663632E-06	-1.27961173968731E-06	0.975365423286898	-0.21056212781711
8.9	-0.218101711697709	-0.961105202667723	-3.02164316360341E-07	3.03251506211487E-06	-1.23237024472265E-06	-1.64077933795549E-06	0.975276999472989	-0.21278110272445
9	-0.336744739773642	-0.926094573813435	2.97415423659473E-06	1.5889538853574E-06	-1.57587277397302E-06	2.11204232837119E-06	0.974990651396733	-0.215240987646563
9.1	-0.450049425740632	-0.876884040698821	-9.30919884158751E-06	2.25393868173084E-06	-1.56582860849331E-06	2.40652104394706E-06	0.974517003695914	-0.217455422775836
9.2	-0.556734002900971	-0.813812145940022	7.50260203907206E-06	-2.23072883307102E-07	-9.10633579155236E-06	1.9551265876413E-06	0.973878333304978	-0.219958715776234
9.3	-0.654530781113468	-0.73796238135352	8.76092502777202E-08	-7.16248827333181E-06	1.58840124832586E-06	-1.29770630551229E-06	0.973397517688444	-0.222330558107751
9.4	-0.742164540872815	-0.650469132137928	5.96099536939763E-07	2.48442920405421E-06	1.62202246949647E-06	-3.59573694184125E-06	0.972760741645724	-0.225127935394281
9.5	-0.818069423540709	-0.552126240642826	-2.87840201641827E-06	6.64362290744274E-06	4.72639269458929E-06	-1.36443490872809E-06	0.972029460868495	-0.227878895881138
9.6	-0.880850455867704	-0.444463447465066	-5.02130938543592E-06	-5.2085909823109E-06	4.75953126624642E-06	2.88550550057979E-06	0.971402535090407	-0.23086509894407
9.7	-0.929707104664711	-0.329503080521797	-1.99873305191508E-06	-5.0759672152263E-06	2.09727278582186E-06	1.17631231174493E-08	0.970806418213855	-0.233439938798574
9.8	-0.963970178543434	-0.208805479112745	5.95537916948625E-07	-4.28588737212048E-06	-2.94038909108256E-06	-2.519923215998E-06	0.970487038713921	-0.235526591029068
9.9	-0.98240949721225	-0.0845912189290567	-6.11723665257546E-06	4.20726380897399E-06	-3.0856506059639E-06	1.6639735406593E-06	0.97007447511724	-0.237415143750587
10	-0.985347241695533	0.0402358879644853	3.5733188348128E-06	-4.02353505012551E-08	8.22741537609163E-06	1.11105404234109E-05	0.96971662239653	-0.239071626000256
10.1	-0.972300624822438	0.164642186378342	-2.8587620560701E-06	-2.52491406217266E-06	-2.00966683755253E-06	-2.4997725742191E-06	0.969180748135495	-0.240728209721443
10.2	-0.943620898519146	0.286558668117384	2.3582195617356E-06	-1.02129612992721E-06	-2.7696525733257E-06	-1.06776286774319E-06	0.968833229505459	-0.242180882164202
10.3	-0.899649690936522	0.403798322070765	7.76472752627512E-06	-5.95295868936633E-06	3.86160253086333E-06	8.23598475876784E-06	0.968261648870678	-0.244037162603009
10.4	-0.841698394309729	0.514227471934227	1.70637169255216E-06	2.50770422480835E-07	6.27860705466111E-06	-1.18760439035896E-06	0.967425699618719	-0.246145522192432
10.5	-0.770498588276445	0.616457780229789	8.35109474509926E-06	-4.14019910449205E-06	-4.94718246300858E-07	1.97252069586019E-06	0.966691049950432	-0.248619527478394
10.6	-0.687304124498798	0.708225786922062	8.93708071739124E-06	-1.26567756984658E-06	-1.48267688677249E-06	1.36415262454894E-05	0.965996762894737	-0.251214891626176
10.7	-0.593123656896777	0.788727841810624	8.01820441354299E-06	-1.8988994647764E-06	-3.05107382219131E-06	-5.28328955389757E-06	0.965206355896378	-0.253940985938857
10.8	-0.488855392553011	0.857164780834146	2.44861466782774E-06	5.24954611441479E-06	-3.62818324990624E-06	-2.06939118953735E-07	0.964506241371654	-0.256013501959227
10.9	-0.376298664795916	0.912000594677807	-5.55969394043168E-06	4.83106290350005E-07	1.59566559053045E-06	4.0296912350476E-06	0.964055406315276	-0.25793629803748
11	-0.258152509289209	0.951959287218663	5.80467639969347E-09	-5.22342100664886E-06	-8.38375226340886E-06	2.22812005470035E-06	0.963532339550268	-0.259598624741923
11.1	-0.135909475270285	0.977145621626051	6.31179215197077E-06	4.09237171236025E-06	-1.90691281852028E-06	1.07639923545331E-05	0.963003696060388	-0.261226963111799
11.2	-0.0118269805885603	0.986488882487766	1.57894612656329E-06	1.35572009535313E-06	5.13770682987726E-06	8.90619185511071E-06	0.962200187731893	-0.263011362153527
11.3	0.112359316344613	0.979787024867387	-4.61908644051659E-07	-1.73779871457361E-06	-6.97643811188768E-07	-4.39644951466834E-06	0.961644638007388	-0.264782738907413
11.4	0.234575825641505	0.95806359801752	2.1961085564636E-07	1.18613340393108E-05	2.4211405223937E-06	4.9305141418847E-06	0.960811753680652	-0.267359929584113
11.5	0.353500470875157	0.921337762512637	6.19558834106255E-06	-3.22694682324448E-07	3.1736433069935E-07	-1.8821431997761E-06	0.959854465988919	-0.270157227571747
11.6	0.465732580872605	0.870001091007275	-6.00435795026018E-06	3.07122125033421E-06	-4.86936547831512E-06	1.91456094282345E-06	0.958666947973935	-0.273657876162065
11.7	0.570573921040269	0.805684221667966	3.3266254632403E-06	-1.79434756304558E-06	-1.70700077217505E-06	2.23592776441426E-06	0.957503439025461	-0.277256652868871
11.8	0.666785643662104	0.728323746997786	-8.25016108949757E-07	9.79163975985342E-06	-2.7204501950223E-06	1.05350884280116E-05	0.956414128217046	-0.280833487428293
11.9	0.752293616611242	0.638933106979283	-7.29559360642017E-06	-1.03946567298415E-06	-3.91443366808239E-06	1.12477783358493E-05	0.955922662229433	-0.283485325477865
12	0.825712755287675	0.539353711170121	-6.44776720258787E-07	1.38221563454425E-06	-3.13713379124024E-06	-1.92568053084702E-06	0.954966923923831	-0.286068184927111
12.1	0.886605362550028	0.431420302788573	-3.87686679481432E-06	4.98959949545182E-06	-1.33560460890612E-06	8.41631324320853E-06	0.953850424115836	-0.28824647683494
12.2	0.932964248067327	0.316652791893971	-5.7823969216886E-07	-3.79756096634879E-06	-3.11398647927058E-06	-7.29650143172158E-07	0.952893086202497	-0.290633285233963
12.3	0.964621062767336	0.197963063901774	3.59692463551082E-06	3.43041911884477E-06	-3.43264446146158E-06	6.26605030370749E-06	0.951836833922793	-0.293109386036752
