# GHZ S RI R 50
0.2	-0.966045420993659	0.251488382604208	8.82236417608777E-06	5.32035174275843E-06	1.13659423164183E-06	-2.8894626859424E-06	0.999498447799956	-0.00699661409537862
0.3	-0.926623757854109	0.371303881280746	-7.66153600910323E-06	-8.19341757262948E-07	-1.46965143968731E-08	3.6591578542621E-06	0.999393361329914	-0.00990818586949204
0.4	-0.871957309420765	0.48505601588222	-2.19878041074479E-06	6.33856259562689E-06	2.91875128515043E-06	5.7361051560388E-06	0.999374773271297	-0.0125306579661783
0.5	-0.803639190928686	0.591149944995905	-2.64886044038545E-06	5.4867012707633E-07	1.05191548723656E-05	4.88545507877468E-06	0.999278326482107	-0.0156708730100789
0.6	-0.722406357597729	0.687486186604852	-1.72516240514168E-06	-1.84306819844558E-08	4.16392596067624E-06	-1.03350578757738E-05	0.999422619254685	-0.0186653125040431
0.7	-0.629962238890211	0.772935322997268	-2.04691253851618E-06	9.88146107214073E-07	3.78256876156185E-06	1.11596237925964E-05	0.999069396978379	-0.0217811763101116
0.8	-0.527425417741295	0.846152540694703	-5.60489209462826E-06	3.7814818147719E-06	-3.16751421837249E-06	-2.1388605921495E-06	0.998750444270513	-0.0240703658632512
0.9	-0.416728850449347	0.90566910974924	-6.68569282522005E-07	5.24914588997951E-06	3.26570129619831E-06	-2.94664229953013E-07	0.998498576526499	-0.0265210334420551
1	-0.298993811069563	0.950820946088897	1.56803137321839E-05	-3.68445894744897E-06	-9.59514980418786E-06	5.26150129738193E-07	0.998009834433075	-0.028006176611075
1.1	-0.177555158430577	0.980587714088378	1.34269313802358E-06	-2.98077911650378E-06	9.38934388360389E-06	1.25962345526249E-05	0.997794531258946	-0.0297624562832872
1.2	-0.0524353083737116	0.994939401491733	-7.90497590917108E-06	-3.26204309457432E-06	-3.09480099328522E-06	-4.47900076901684E-06	0.997278164012686	-0.0306539687765851
1.3	0.0735579199606217	0.993334284406105	1.76532708653548E-07	3.33366739967863E-06	1.92856582617287E-06	3.42175196219043E-07	0.997582061271144	-0.0314944756420279
1.4	0.197996660609607	0.975739793752399	2.02114188307739E-08	3.76692141600294E-06	-2.5238686054675E-06	-5.61560747297764E-06	0.997540428096657	-0.0335756953029626
1.5	0.319235862219605	0.942954529816427	3.18669183165115E-06	-2.64771849547589E-07	2.70068040162052E-06	2.09585477752642E-06	0.998268890368663	-0.0370680337594889
1.6	0.435169576911312	0.895368925335205	1.78851637447255E-06	-1.93853654383643E-06	-8.92324973502201E-07	-3.06387215196041E-06	0.997954759692712	-0.0407351479984253
1.7	0.544021381793886	0.833295628050074	-8.4497858494707E-08	-3.52502159342207E-06	2.00390321974132E-06	4.92727837131008E-06	0.998277843679282	-0.0434664496210788
1.8	0.643989826318702	0.75847439549318	-2.05711907798487E-06	-1.81454258498858E-06	-4.64380931060001E-06	1.83175665108049E-05	0.998046699970731	-0.0462719920104889
1.9	0.733627630867615	0.671893358223311	-4.38952953020719E-06	-1.46809793216352E-06	-4.92414783288555E-06	-6.00441137787291E-06	0.997819927932993	-0.0484861885392058
2	0.811857123229266	0.57475344007673	-9.45449564580849E-08	-6.74127264677017E-07	-1.66768625670058E-06	-1.41829933944498E-06	0.997439672992976	-0.0511714713529794
2.1	0.877598344209572	0.46744589996221	-1.14236380777703E-06	9.44609440887828E-06	1.99415068349006E-06	-3.7986772337404E-07	0.997237584906372	-0.0535225997328877
2.2	0.928911162900768	0.353598707294624	-2.19860136677561E-08	-5.92760315105488E-06	-7.36939668879459E-07	2.7363609695219E-06	0.99723505251999	-0.0559854284499324
2.3	0.965545675239246	0.234179248588147	-1.31523073196109E-06	2.76449276168E-06	-2.72242836768998E-07	1.19681414628686E-05	0.996912837354227	-0.057907700507464
2.4	0.986996676463298	0.110257837513717	-5.86933698489309E-06	-3.70736129545704E-06	-1.75880975074955E-05	1.45154760152448E-05	0.996782212236953	-0.0609986411457487
2.5	0.992990982617757	-0.0145533079372763	1.81947241311752E-06	-2.96121017439128E-06	-1.79320898729874E-06	7.54474280954667E-06	0.996483223019301	-0.0631317867237723
2.6	0.983096656840034	-0.138033856386071	2.86154016189763E-06	9.20186231599163E-07	-1.75294960141669E-06	4.50144909847406E-06	0.996555777124976	-0.0660590319247766
2.7	0.957848187106083	-0.259864975673165	3.82034283934865E-06	1.04466241423578E-05	2.32180614154232E-06	3.86904047550579E-06	0.996232603866356	-0.0691098366056988
2.8	0.91761470966535	-0.377837360608481	-8.13164519018594E-07	-2.29315749463438E-06	2.19770057552036E-07	-1.88805459756053E-06	0.99637566595837	-0.0711972845597702
2.9	0.863238938523374	-0.489509260729652	3.76805660077836E-06	-8.31713700954654E-06	-1.27246999142386E-06	-1.42260106908537E-05	0.996008062100084	-0.0732707087272289
3	0.795130614532794	-0.594141966111538	-1.30361406364458E-08	6.64961672546013E-06	-1.47714598676067E-05	5.30213799059624E-06	0.995864876274115	-0.0756964834986551
3.1	0.71522594408819	-0.688207141215443	-4.98393142273622E-06	7.82353101771491E-06	5.80855989859279E-06	-8.54307503489973E-08	0.995599422104362	-0.077765445831792
3.2	0.622551413360857	-0.772626147515392	9.60193565619298E-07	2.12560276398055E-06	-4.56070397020463E-06	4.78163401988887E-07	0.995284975304843	-0.0795941675987286
3.3	0.52035653576946	-0.84466470476503	7.19411559218958E-07	-1.45945245847188E-06	-4.58102416964067E-06	7.3121971882844E-07	0.994969327302387	-0.0828785084022558
3.4	0.409498443461148	-0.903049514685093	6.46901235515072E-06	2.3602160284898E-07	-8.13371589063551E-06	-7.18121164065193E-06	0.994876652968164	-0.0848320052259388
3.5	0.292447403428	-0.947080132356842	-7.69732181356425E-06	1.9598282040891E-06	-5.89964116254537E-06	-7.98154712779137E-06	0.994841688889335	-0.0875606704399229
3.6	0.170050511577144	-0.976235839003628	-8.56149774628207E-07	-4.38115970153505E-06	-7.81465051504824E-06	-6.3324532107109E-06	0.994615075404707	-0.0902812555675579
3.7	0.0454830626148403	-0.990120911730688	-6.71479974684544E-06	-6.76970548583784E-06	5.28087332538234E-07	-4.76363595940435E-06	0.994279767056806	-0.0931085582819847
3.8	-0.0800550322958026	-0.98787843628536	-3.64330806639058E-06	1.08302723104715E-06	-3.29643395601753E-06	-2.46522331794297E-06	0.993647622773812	-0.0951338480919763
3.9	-0.203614386339835	-0.970040112607279	-4.79304166549596E-07	3.50757996234528E-06	2.05323288386945E-06	-1.21934822422415E-06	0.993440394685398	-0.0981155669433029
4	-0.324624100487296	-0.937116428577751	1.16807702966966E-05	8.11481796004456E-06	7.26432399840379E-06	-4.04248787001664E-06	0.993044789335482	-0.0992191261908924
4.1	-0.440121174349161	-0.888692976036669	5.21721686130857E-06	1.32160546008188E-06	-3.45528252289376E-06	6.65191962590195E-06	0.99304300792255	-0.100908335691547
4.2	-0.548135193542522	-0.826629175219512	-7.09713481103124E-06	-1.19939812611974E-06	-8.26462403578447E-06	-3.92542780194306E-08	0.99263693671323	-0.103580635094137
4.3	-0.647623078104644	-0.751178255538352	7.01732721852458E-07	-2.36782480104858E-06	5.21241996034322E-06	8.79194581837783E-07	0.992557364634411	-0.105615485305995
4.4	-0.736880050595996	-0.663632380062289	4.47250104594524E-06	-1.77460182293546E-06	-8.68120129960581E-07	1.34672287353109E-06	0.992135329218809	-0.1079646299822
4.5	-0.814825950099299	-0.56551215929467	6.7858401853662E-06	1.86736048916433E-06	-8.04808504198355E-07	-3.25763140422466E-06	0.992251801426694	-0.109965786799318
4.6	-0.880097110027299	-0.457944526098264	2.45735962346388E-06	2.95206729443398E-06	-6.58861643453474E-06	9.75197025810688E-06	0.992225950193711	-0.112924869074867
4.7	-0.930905135651566	-0.342172929293944	-1.40555773479035E-05	5.92518699142696E-06	-3.4638514719822E-06	-3.31705638199383E-08	0.992209032670585	-0.115257949072838
4.8	-0.966506784885876	-0.221517546899736	-3.16566261305884E-06	-5.14377268872685E-06	-5.52541266374429E-06	2.36928077942363E-06	0.99176467239172	-0.117963311185069
4.9	-0.986124283979507	-0.097867451256283	-1.02712942056226E-06	-8.555254678936E-06	-4.22261190879804E-06	7.43017522115967E-07	0.991232388700655	-0.119874761867548
5	-0.990379320438752	0.0265636408837142	7.55175472476076E-06	-1.57665033449846E-06	-1.754910045995E-06	-2.7212729758053E-06	0.990968580108544	-0.121363936214952
5.1	-0.978821405110148	0.151897497279419	-2.60596550866886E-06	-6.39244061346465E-06	-1.01022332380146E-06	-1.95246555225906E-06	0.991049625720564	-0.122760607252534
5.2	-0.951938352746033	0.273706203117211	3.99652212509753E-06	-4.38994088502806E-07	-5.43397021035473E-06	6.31028108522473E-06	0.990751646190424	-0.125066994998193
5.3	-0.91027512880273	0.391088544444834	5.14100367444688E-06	6.00237928344607E-06	-9.62142637034267E-07	-3.58444932331621E-06	0.990366515901958	-0.127313502029491
5.4	-0.854349448456475	0.50221792724586	3.06054895767779E-06	-2.01662227391079E-06	-1.13091704291677E-05	2.20276532378742E-06	0.990273109325618	-0.129902800992547
5.5	-0.784843609044364	0.605446433588807	-4.32330354799107E-07	-2.19410555272665E-06	-5.78637938783811E-06	6.12514899726349E-06	0.990291959561672	-0.132578614100935
5.6	-0.702254283084488	0.699377944394642	2.38208486117615E-06	7.30373556986728E-06	-5.37164563966898E-07	2.9295411093425E-06	0.990228325566359	-0.135333591060588
5.7	-0.608594292197128	0.782157038161171	-2.57069095017638E-06	2.36187612555246E-06	7.9122717392744E-06	2.77601963782029E-06	0.989888133887072	-0.137960194860126
5.8	-0.505177442403359	0.851737813223163	-4.64578271037083E-06	5.10496824146024E-06	-3.65054942699726E-07	3.42193793481705E-06	0.98953390084646	-0.140250783186768
5.9	-0.394407266216102	0.907916702585814	6.35522784274926E-06	1.49659602442513E-06	-2.70954137425156E-06	2.54654931191347E-06	0.988922180196213	-0.142462356191824
6	-0.278146479878066	0.949600731446343	3.52035161021415E-06	3.29726179330332E-06	-3.27826370957165E-07	-1.43292910074052E-06	0.988284376653066	-0.143674909350604
6.1	-0.157663751792016	0.976853106606211	9.16843958837572E-06	1.52652878039045E-06	-1.26780422863672E-07	-1.80721084596736E-06	0.988479973028967	-0.144628107602386
6.2	-0.033995528469259	0.988987901168234	2.43889233137277E-06	-1.72735287588412E-06	1.48212442265719E-06	-4.8410132736939E-06	0.988392119946054	-0.145962225839226
6.3	0.0904517714455055	0.985581282052305	-4.36047822612448E-06	4.23961168803152E-06	-6.13666352844464E-07	-1.72459401155291E-06	0.9881462856137	-0.147978530151649
6.4	0.213418509036938	0.966524027788201	-4.26387863445627E-06	1.06656891298184E-06	-1.76686002638193E-06	8.83871001974256E-06	0.987766619831432	-0.150165373266936
6.5	0.333151702827541	0.932580989848638	2.45255371122332E-06	-1.32904889209163E-06	1.48923772207002E-06	-2.92823213201605E-06	0.987685142737171	-0.152863063870832
6.6	0.447796008752011	0.883458599248583	-4.73289970961418E-06	-2.25791448377623E-06	-1.86035986799597E-06	-6.64024036253398E-06	0.987622000446787	-0.155784067604315
6.7	0.554934893029215	0.820089784501651	4.1624321265402E-06	-6.58711535527764E-07	-4.67573940888875E-06	1.00858578542647E-06	0.987291729843953	-0.158435753326507
6.8	0.653072602245254	0.743937586852218	3.75648860569055E-06	-2.07819206187122E-06	6.21256680850243E-06	-9.21286747951667E-07	0.986698004107021	-0.160904419810243
6.9	0.740666249100471	0.656251745144208	2.04690759303569E-06	1.64027208961239E-06	8.77856803131325E-06	-2.7544432680933E-06	0.986108990750804	-0.16306168784492
7	0.816443824471022	0.558413998155988	2.17113390913011E-06	4.09400518940917E-06	-9.35915933984607E-08	5.37932086453177E-06	0.985378116094314	-0.164657284353945
7.1	0.879458606545863	0.45234941763087	-1.33658192049329E-07	1.71578291430962E-06	8.25435600944678E-06	-4.6370609193956E-06	0.985008945393307	-0.166235140595444
7.2	0.928724147399358	0.338874202234239	4.84457585456702E-06	-1.38914297316152E-06	7.24828625000932E-06	3.78323459441819E-06	0.984472636804154	-0.168059699976979
7.3	0.963054224167311	0.220117729901414	4.85803585233472E-06	-1.1032726371011E-06	-7.32844960108125E-06	-7.38113026016467E-06	0.983469553505642	-0.169931177177088
7.4	0.982492526775125	0.0977060610233179	-1.8493993112926E-06	9.88501907415529E-06	1.43660377061799E-06	-4.06392790799736E-06	0.982426030824617	-0.172317254161629
7.5	0.986629530211066	-0.0262494365669869	8.38555208444714E-07	8.06753503542457E-07	1.67055786684919E-06	9.94411704397662E-07	0.981358165920483	-0.174717080562026
7.6	0.975315909526627	-0.150187629248512	1.45604048583358E-06	-2.61166743671826E-06	-5.41289224284289E-06	-3.62853491816973E-06	0.98068650455023	-0.177628162436238
7.7	0.948580425268514	-0.271888898586464	5.56651394790152E-06	2.4110056273586E-06	-6.8299768346294E-06	1.20341447462403E-05	0.980148983050257	-0.180738717106223
7.8	0.907061763698594	-0.389272682127893	-6.09079977431203E-07	-5.23954249163253E-06	3.73514232015879E-06	-4.73110454884041E-06	0.979914450400636	-0.183791944179389
7.9	0.850954029529031	-0.500608829461991	8.84599072644418E-06	1.53354115058337E-06	-9.52490245940555E-06	-8.63872576079284E-06	0.979676775952952	-0.186906377191712
8	0.781240894969609	-0.604079514954798	-6.65269295295527E-06	-1.63168966267692E-06	-1.20030362106556E-05	2.49036053003835E-06	0.979277303885038	-0.189794194193295
8.1	0.698770313596333	-0.697619934637223	5.0725817566763E-06	7.31579111899498E-07	2.88964428026077E-06	2.2611184761668E-06	0.978802179742155	-0.192419568267746
8.2	0.605442583510089	-0.779669403744647	3.56233782613179E-06	-2.57293240522675E-06	-3.67688515823745E-06	-1.16079112158681E-05	0.978493017916079	-0.194842839520384
8.3	0.502463954309342	-0.8492679994084	2.72575072563351E-06	-1.85609872871839E-06	1.63654102255167E-06	5.2881820462484E-06	0.977881923906226	-0.197552238578488
8.4	0.391691193306506	-0.905223232822551	-5.54757638209375E-06	-1.01891910099922E-06	1.05428066815661E-06	2.94861010865068E-06	0.977087094331028	-0.200220978538112
8.5	0.27441733555523	-0.947206425326921	-3.28614153354097E-06	1.62214867788596E-06	-4.78613280717007E-06	-4.99994128666065E-06	0.976373122610587	-0.202929894320203
8.6	0.15199792061978	-0.973892751215944	-8.13456571385068E-06	1.38387004126675E-06	-4.3372975718707E-06	-6.85771739969021E-06	0.975883437178613	-0.205595790042082
8.7	0.0273189040218789	-0.984637028250168	2.2443505737166E-07	-2.14566954109236E-07	6.11460417993486E-06	5.07930561194401E-07	0.975375921708174	-0.208162654261108
8.8	-0.0974707078494289	-0.979395276729057	1.02323191680449E-06	-1.81748632038206E-06	-2.38963468817597E-06	-1.27872035760192E-06	0.974930850116197	-0.210415262731154
8.9	-0.219792328154129	-0.959159547651534	-2.99910518618749E-07	3.03295484114275E-06	-1.23368777512369E-06	-1.63997009429247E-06	0.974879376826727	-0.212501838514783
9	-0.338073312846441	-0.923849936855294	2.97515188833837E-06	1.58551644970858E-06	-1.57333355406684E-06	2.11321554951544E-06	0.974751080858788	-0.214920813458792
9.1	-0.451035609269827	-0.87431492305921	-9.30152571801798E-06	2.26293923974887E-06	-1.56230413348306E-06	2.40690472342776E-06	0.974419825633686	-0.217203770551138
9.2	-0.557118496012393	-0.811188408496182	7.49608801263747E-06	-2.30457045078815E-07	-9.09672958703664E-06	1.9626772739715E-06	0.97389502999238	-0.219859066658704
9.3	-0.654443994610294	-0.735703008819686	8.21756217422861E-08	-7.15534971662212E-06	1.58583514926584E-06	-1.29758654523436E-06	0.973423347226463	-0.222425781373785
9.4	-0.741846380405919	-0.648865617340767	5.96300995286234E-07	2.48160894363385E-06	1.6191095102236E-06	-3.59248559903246E-06	0.97270421587796	-0.22537806563848
9.5	-0.818437602000559	-0.551385956232451	-2.87751884688178E-06	6.6390309380106E-06	4.72360429856141E-06	-1.36291204053266E-06	0.971890041174893	-0.22823849459698
9.6	-0.882210389764896	-0.44326069252459	-5.02026558046132E-06	-5.20833046721458E-06	4.75870369682E-06	2.88551717801148E-06	0.971075073950753	-0.23130211721386
9.7	-0.931126188445779	-0.327524670496403	-1.99930402157976E-06	-5.07595412841018E-06	2.09734968415906E-06	1.15574610818371E-08	0.970300650377245	-0.23384357675519
9.8	-0.9649667857209	-0.206301627953715	5.9454948665184E-07	-4.28630855531181E-06	-2.94118403871712E-06	-2.51938226815871E-06	0.969868221197333	-0.235836169618931
9.9	-0.982607455276574	-0.0820106368990225	-6.11489264642885E-06	4.20957989401926E-06	-3.08466801568778E-06	1.66518001378983E-06	0.969471663456735	-0.23764682921839
10	-0.985132161407633	0.0420954782432801	3.57139411357315E-06	-4.16341042258949E-08	8.22743658599693E-06	1.1101335544464E-05	0.969145164769067	-0.239460465512833
10.1	-0.972477233193274	0.166225785114889	-2.85684155759584E-06	-2.5234872764321E-06	-2.00827838038368E-06	-2.49831654596396E-06	0.968358949789551	-0.241179814767341
10.2	-0.943914806608444	0.288274806125941	2.35755089435243E-06	-1.02022514811971E-06	-2.76823464393046E-06	-1.0681038638176E-06	0.967867549268015	-0.242488956859869
10.3	-0.899874986291182	0.405587570614621	7.7658839866605E-06	-5.94948357763688E-06	3.85821646633804E-06	8.23634368820306E-06	0.967289705514371	-0.244147890559385
10.4	-0.841938222731464	0.515833650704735	1.70669875604223E-06	2.51461338781411E-07	6.28058871027626E-06	-1.18558101563625E-06	0.966630511145076	-0.246031546808904
10.5	-0.771434096446462	0.618131662017366	8.35836620659234E-06	-4.14223249072863E-06	-4.95409924354039E-07	1.97401575457685E-06	0.966299280214556	-0.248523759864554
10.6	-0.688390563588288	0.71081055183084	8.94551098876148E-06	-1.27053645864813E-06	-1.47867567285772E-06	1.36557669336232E-05	0.965773011643877	-0.251403455728859
10.7	-0.5938375710847	0.79184429303865	8.02370549468162E-06	-1.90646094234765E-06	-3.05760605570958E-06	-5.28558398694371E-06	0.964981719444931	-0.254387784416547
10.8	-0.489107381258362	0.86055558178659	2.45482214416535E-06	5.2509504664314E-06	-3.63080375245263E-06	-2.03926545006543E-07	0.964162509843647	-0.25667343585055
10.9	-0.376043923516995	0.915144119508657	-5.5613998720309E-06	4.88579797985822E-07	1.60011787165688E-06	4.02974365061881E-06	0.96363133210795	-0.258765248142489
11	-0.258459028067103	0.954724323410453	2.15298081013733E-09	-5.22333082778213E-06	-8.38204337532725E-06	2.2339407731778E-06	0.962933166033078	-0.260873027467975
11.1	-0.136462482707675	0.981007513640544	6.31309999979748E-06	4.09089913833767E-06	-1.90420176654264E-06	1.07649098594886E-05	0.961708449604023	-0.262700660419501
11.2	-0.0115013790865966	0.991108470298205	1.57944782588759E-06	1.35586403088908E-06	5.13980932569026E-06	8.90768483379371E-06	0.960323606748205	-0.264256319303859
11.3	0.113920250117055	0.984487800321101	-4.62235336335874E-07	-1.73849302681115E-06	-6.98272589472625E-07	-4.39824203066033E-06	0.959385119804681	-0.265543310598719
11.4	0.237206898341491	0.962228000075995	2.20636657889861E-07	1.18686663827404E-05	2.42301041271541E-06	4.93338728076201E-06	0.958453401621773	-0.267485944593885
11.5	0.356539254713441	0.924694532213341	6.20030588151753E-06	-3.24663294072115E-07	3.17088587514247E-07	-1.88369153290817E-06	0.957846627716086	-0.269971147096032
11.6	0.46912444574938	0.872841440125274	-6.00673168688845E-06	3.07596889677344E-06	-4.8715592393705E-06	1.91804593883038E-06	0.956631446783654	-0.273458230800988
11.7	0.57432881397943	0.807658063613062	3.32731311644069E-06	-1.7966799934574E-06	-1.7067529125725E-06	2.2377204969469E-06	0.955386481799982	-0.276681622769467
11.8	0.67040519824516	0.729109593026239	-8.2154536947007E-07	9.79459833868523E-06	-2.7172114625088E-06	1.05389630453645E-05	0.954544964333392	-0.279769848292875
11.9	0.754674225019726	0.63849912403417	-7.29531680284772E-06	-1.03815806652459E-06	-3.91227386951411E-06	1.12477454498683E-05	0.95474266076652	-0.282101332590241
12	0.826180907068445	0.539289517454613	-6.44936925402274E-07	1.38193473245622E-06	-3.13641624897152E-06	-1.92598751032745E-06	0.954741610646227	-0.285376732135429
12.1	0.886539049846725	0.432800003782137	-3.87939974531484E-06	4.98779638051769E-06	-1.3397698396085E-06	8.4158301270577E-06	0.953733189813523	-0.288397214313796
12.2	0.933254656091061	0.318878926702555	-5.76396120943635E-07	-3.7987893757936E-06	-3.11436466295281E-06	-7.31455471880108E-07	0.952671343204821	-0.291482647775105
12.3	0.965456776783386	0.20048128965201	3.5968456201637E-06	3.43326490532241E-06	-3.43662626197738E-06	6.26699432045661E-06	0.951366251895722	-0.294472528029025
