# GHZ S RI R 50
0.2	-0.000272800602727107	-0.00017707515261397	0.949233090884368	-0.307942400672442	0.949010798662732	-0.307916975242407	-0.000258649133503074	-9.05568019773642E-05
0.3	-0.000395161661941682	-9.2526234022748E-05	0.889294422366606	-0.451621582212634	0.889138196835987	-0.451526201481202	-0.000447654520847884	-0.000206880066008148
0.4	-0.000278852427845764	-3.42479054448866E-06	0.807863417804062	-0.583930594159733	0.807875213754488	-0.583955714523864	-0.000463858170953563	-0.000173532152827224
0.5	-0.000299437715424099	5.17853999905213E-05	0.707140386453864	-0.702324532249945	0.706985327677241	-0.702223047139283	-0.000453449376902079	-0.000120326493068383
0.6	-0.000273304332944271	0.000127521069346896	0.589150929565423	-0.803383886608855	0.58903164825115	-0.803222156056413	-0.000497388180184173	-0.000145485094015397
0.7	-0.000223119768546053	0.000350773209504975	0.457054133033961	-0.884764880214893	0.457035357495657	-0.884652366822504	-0.000474996408035957	-0.00014753779987737
0.8	2.46849935159079E-05	0.000384398209980321	0.31400462833479	-0.944796334978955	0.313973252880947	-0.944606568769473	-0.000509511013415967	-8.27544026158001E-05
0.9	0.000187789522833186	0.00047001840061315	0.163415693257321	-0.981803050176118	0.163350642389074	-0.981711122668397	-0.000612882498322473	-0.000108150757906722
1	0.000422500814201369	0.000331849013428124	0.00893889555523361	-0.994919697867723	0.00888724139414606	-0.994888226039204	-0.00064670097152016	-9.55649093850703E-05
1.1	0.000574622099010704	6.568888864057E-05	-0.145526130074871	-0.984149516172301	-0.145541881171503	-0.984019059857348	-0.000830290261881536	-9.40712648764728E-05
1.2	0.000811877749504905	-0.000886410516264688	-0.296679819841557	-0.94936445619149	-0.296603437239	-0.949338362256565	-0.000576075747036966	0.000271300375565758
1.3	0.000856179280708326	-0.00253681846991586	-0.440410187209974	-0.891547433229364	-0.440387152092503	-0.891540820188226	0.000624666698496628	0.000784211744100165
1.4	0.000592748946530801	-0.00444283876487735	-0.573171455611868	-0.812214178776573	-0.573147277142391	-0.812192546285105	0.00225689220416221	0.000403274490144884
1.5	0.00013542463219104	-0.0053309049999979	-0.692334669811688	-0.71322744973934	-0.692232897405331	-0.713142493238546	0.0036958199194889	-0.000640140197410006
1.6	-0.000384700866559645	-0.00555889705494848	-0.794523616350912	-0.596874361581004	-0.794449535086434	-0.596814343686036	0.00362402693239433	-0.00185445873856392
1.7	-0.000829474074823645	-0.0053461555793382	-0.877001296631008	-0.466677551200906	-0.877165459705281	-0.466161367050541	0.00327172172002763	-0.0027103769429515
1.8	-0.00141208523290407	-0.00512246836630936	-0.938845046494509	-0.324399611116544	-0.938733789472078	-0.324398278471058	0.00247346802426696	-0.00350889973613075
1.9	-0.00198110925119648	-0.00473041878345642	-0.977560740354907	-0.175136993997063	-0.97765348166039	-0.174649402513852	0.00154277178307418	-0.00392293300724803
2	-0.00258500133942904	-0.00436214617116908	-0.992631050480803	-0.0206769128472026	-0.992642965423176	-0.02063105550453	0.000757132020698583	-0.00419525262298873
2.1	-0.00320085533852908	-0.00382742317854556	-0.983615910117814	0.133639740341593	-0.983653994998143	0.133676849068733	-0.000171109456003082	-0.00423311356794514
2.2	-0.00392318010068938	-0.00328982103233787	-0.950903575479557	0.284571926378297	-0.95082845994981	0.284634687576729	-0.000808406847614615	-0.00406607188645555
2.3	-0.00458985783481112	-0.00255089523576615	-0.895285958866731	0.428073862548515	-0.894903535027568	0.428586861144189	-0.00147656520328806	-0.00404576534677353
2.4	-0.00528840369750959	-0.00172951932940454	-0.817062995155294	0.562843430959803	-0.817329924034951	0.562257788407968	-0.00228100475125928	-0.00394032240775298
2.5	-0.00571909412961817	-0.000610399155079122	-0.719970814931135	0.682671023563323	-0.720184749312993	0.682161362952907	-0.00275491271723809	-0.00397032013703691
2.6	-0.00591024930998595	0.000572434133299555	-0.605591765245062	0.785697695112914	-0.60548577872488	0.785514926157122	-0.00316897762927126	-0.0038211402347789
2.7	-0.0055741872444167	0.00173454750621534	-0.475709613502249	0.870275718037225	-0.476158915775508	0.869869180275814	-0.00347889429743938	-0.00360170306660909
2.8	-0.00474146437158559	0.00260236527813728	-0.336082225972228	0.932968242642211	-0.335414529979193	0.933126502077283	-0.00378185004178802	-0.00328389689333757
2.9	-0.00333713057838955	0.00310536779770562	-0.186605540930279	0.973771303382329	-0.186636856994339	0.973683981071826	-0.00349209529955179	-0.00253939864387496
3	-0.00184472073173654	0.00309691303054674	-0.0324108038505781	0.990872637446846	-0.0331118614515861	0.990714780705764	-0.00287899368275929	-0.00187490404140179
3.1	-0.00029162973932647	0.00277051596727982	0.120309641263968	0.983782102500704	0.120900131002972	0.983763680362104	-0.00190668080492452	-0.00148253991610298
3.2	0.000883619695391078	0.00192960636462098	0.272063757729381	0.952942371353008	0.272008907422297	0.952882138778738	-0.00125944412673938	-0.00143693661362781
3.3	0.00195035117253931	0.000902022101101815	0.416794489955769	0.898998591475154	0.416657348326788	0.898984554376806	-0.000464435770734753	-0.00150871457867009
3.4	0.00253293587966544	-0.000374273254902741	0.551203769872618	0.82332940248266	0.551041736237587	0.823447491794841	0.000396210449382538	-0.00206837541118333
3.5	0.00292070214792371	-0.00168214063292396	0.672174316104971	0.727840671831675	0.672094805216589	0.727879523897385	0.000948933362270032	-0.00276322577032315
3.6	0.00272704109182854	-0.0029644467954678	0.776485796068565	0.615102017643719	0.776725999937119	0.614653176434724	0.00115655067041143	-0.00352868913422086
3.7	0.00234407310594791	-0.00420105530811933	0.862769772228035	0.486484092891541	0.862651755559314	0.486627323478631	0.00118818730716471	-0.00422051747583211
3.8	0.00148428753707483	-0.00527554957513159	0.927516503258071	0.347181082074153	0.927572645030421	0.346801979829323	0.000974295594037447	-0.00498902235269341
3.9	0.00059609697538625	-0.00614446994211127	0.970228433023021	0.19784100403469	0.969991270757523	0.198508512933476	0.000169825264014244	-0.00594774991062243
4	-0.000747293799390802	-0.0067520141939664	0.989078017904057	0.0456498406722871	0.989039266228186	0.0457527159349045	-0.000591124428130839	-0.00660005888254174
4.1	-0.00216812214290445	-0.00717463723160335	0.984184703237991	-0.108372915952317	0.984000540353049	-0.108245524710722	-0.00154214187153215	-0.00721191588144691
4.2	-0.00398998108655286	-0.00724919294264875	0.955015273007163	-0.260432482059481	0.955051451923076	-0.259779240946189	-0.00261488337622021	-0.00767188120088997
4.3	-0.00579150725689701	-0.00711348434970868	0.903238474284197	-0.404825488290708	0.903102919478771	-0.404714216009347	-0.00384542031724612	-0.00821396456807718
4.4	-0.00782465639662592	-0.00649429956335336	0.829389817771152	-0.539985388122573	0.829224994905335	-0.539851890053071	-0.00534797119246873	-0.00856832767073033
4.5	-0.00970580354718995	-0.00553043134021276	0.735538049019588	-0.662120368938239	0.735349694992982	-0.661947065152457	-0.00695605632153866	-0.00876913491940913
4.6	-0.0116621538722748	-0.00400170472510049	0.623345567437994	-0.76858740912516	0.623688190833023	-0.767890643816565	-0.00885839536988696	-0.00877602720827575
4.7	-0.0132156471136101	-0.00211757880687388	0.496898213559239	-0.855686989172893	0.496915151471958	-0.855331493265694	-0.0109080880050309	-0.00847227870824049
4.8	-0.0143454395418896	0.000416506610729103	0.357811269413032	-0.922214109660747	0.35803303716687	-0.921898258105377	-0.012749976018438	-0.00766545010109952
4.9	-0.0144643373133224	0.00301388391472166	0.210797250203291	-0.965965547682203	0.210577434495421	-0.965973050357476	-0.0140538809268659	-0.00642966393370668
5	-0.0137818290723557	0.00555379920544062	0.0581813176514123	-0.986832415692173	0.058358653478443	-0.98658752559786	-0.01462791219222	-0.00471733040448099
5.1	-0.0121821153364105	0.00769113054920255	-0.0954280723506598	-0.983955683388778	-0.0950964689116844	-0.983730969679888	-0.014605796378395	-0.00303451652948589
5.2	-0.010147703231788	0.00954900581469224	-0.247049263768068	-0.957195406779016	-0.246557771487333	-0.957169128099531	-0.014364912251875	-0.00137735193477967
5.3	-0.00776784985921932	0.0107706383090043	-0.392516486540391	-0.907258325154095	-0.392176319358169	-0.90747467486754	-0.0137288480433935	9.2200543280857E-05
5.4	-0.00523116430192311	0.0117812387709015	-0.528576434254459	-0.835387472780385	-0.52836403812086	-0.83558824380439	-0.0130628540617316	0.00135764170011684
5.5	-0.00260536073736763	0.0122123118703343	-0.651812890724256	-0.743171683668223	-0.651574303275443	-0.743366437434263	-0.0124522936492558	0.00236722034667008
5.6	3.36369137124997E-05	0.0124535624625367	-0.759064242215002	-0.632926180931496	-0.75887482605403	-0.633098019496983	-0.0119417593194011	0.00337632330747196
5.7	0.00257410133545557	0.0120239884594449	-0.848068904221704	-0.507439019357215	-0.847939826479379	-0.507658710391491	-0.0114110040218497	0.0045238299672315
5.8	0.00492674451972639	0.0112685621827167	-0.916375047350294	-0.369572084278581	-0.916307391859268	-0.369856798635744	-0.0107707662649869	0.00568165172041703
5.9	0.00698387468776967	0.00988705814968143	-0.962562386064764	-0.223019890573449	-0.962576870749422	-0.223103428825186	-0.0101396230853804	0.00672194824009023
6	0.00862444919243527	0.00823772463304725	-0.985549867952451	-0.0710258934665349	-0.985430754387645	-0.071083900091419	-0.00958018586606776	0.0078137871612732
6.1	0.00971348382545152	0.00628647513245561	-0.984500375564657	0.0827736189444514	-0.984373915408851	0.0826252907250603	-0.00878529020185924	0.00886531469195208
6.2	0.0102458346922569	0.0042974928336816	-0.959577118430988	0.23458493571926	-0.959563480755769	0.234382370853836	-0.0078448961781997	0.00963998019955169
6.3	0.0102416852516105	0.00205430315018366	-0.911491306745081	0.380602042485906	-0.911486831505949	0.380416956118676	-0.00670324809510902	0.00995677321606559
6.4	0.00976901386604149	-0.000222346673114049	-0.841333415893096	0.517399120858782	-0.841301828178719	0.517188752972635	-0.00571901684971395	0.00976308745840195
6.5	0.00875550497970793	-0.00254649876248608	-0.750738542210392	0.641613813042764	-0.750762698927398	0.641410032617155	-0.00490296382343815	0.00931323953187104
6.6	0.00749303415170422	-0.00448578731924366	-0.642043886801595	0.75030392857633	-0.642117715898415	0.750052178347433	-0.00418614029001147	0.00892010527521495
6.7	0.00584077638351679	-0.0061606066953802	-0.517746953901443	0.840748158116302	-0.517849673320539	0.840527352370728	-0.00370036142838615	0.00855445038356951
6.8	0.00412158605268209	-0.00730687688658955	-0.380982730229461	0.910849877273942	-0.381124192218545	0.910679437946909	-0.0033183455332069	0.00845322858706408
6.9	0.00223598759398981	-0.00811256915271532	-0.23499272331971	0.958806713748324	-0.235219019593937	0.958696521161631	-0.00270774830952358	0.00848934125729959
7	0.000537334894268177	-0.0084208844577568	-0.0834195377934213	0.983518512995963	-0.0836290391605402	0.983428882974437	-0.00191546900428703	0.00834132478705641
7.1	-0.00117314138552676	-0.00844344373077332	0.0701985022880964	0.984515955866082	0.0699968177178912	0.984382951898912	-0.001125498057934	0.00818416252425112
7.2	-0.00267343939604571	-0.00814879918774097	0.222112812578993	0.961590973599079	0.221831149004339	0.961556495203982	-0.000125573341748925	0.0080630218344251
7.3	-0.00420560552822175	-0.00769985839758045	0.368538277342766	0.91540427232076	0.368302597171145	0.915430475486518	0.000866519970477608	0.00770436959606678
7.4	-0.00544977633753418	-0.0069157953570798	0.506056027168685	0.847051882517836	0.505842956319768	0.847102935364314	0.00165058796793362	0.0071241181467719
7.5	-0.00648742621728717	-0.00605073003349683	0.631281925450034	0.758220318341738	0.631112635517052	0.75828986486771	0.00250060103702028	0.0065693040625734
7.6	-0.00702804149294361	-0.00501490098552791	0.741272704649912	0.650980487762858	0.741015513188539	0.651062750452367	0.00349622800779706	0.00557197291834484
7.7	-0.00735850678133578	-0.00387133301493491	0.833149181195561	0.528008230808217	0.832963895047367	0.528225067711758	0.0040820341627194	0.00437702560084675
7.8	-0.0071766968869922	-0.00264566409840757	0.904963404277317	0.392236732505199	0.904860442914955	0.392461823902435	0.00444140594101335	0.00301970848908273
7.9	-0.00682567711369505	-0.00145137405225641	0.954799930212667	0.247162145484583	0.954661945229988	0.247341548125309	0.00436247918564141	0.00179780172188346
8	-0.00598659513659137	-0.00035993203156189	0.981398916575799	0.0959836144639776	0.981375736388452	0.096246066707569	0.00366694166587398	0.000764927817293038
8.1	-0.00513610040909662	0.0005679059371293	0.984408408387237	-0.0574380740565665	0.984437110186359	-0.0571827116837316	0.00279526009349122	0.000162537650731491
8.2	-0.00400882676202224	0.00125788588544735	0.963453365668414	-0.209485998050003	0.963501377943991	-0.209169146607242	0.00173838912389556	-0.000134692773441948
8.3	-0.002962149622834	0.0017743360580746	0.919214737457052	-0.356381185385151	0.919265759142987	-0.35609420355545	0.000684037629462474	-3.20780742886972E-05
8.4	-0.00174123221358303	0.00205217216877251	0.852770667770603	-0.494668491393638	0.852868169500275	-0.49446653414962	-0.000226789613011051	0.000330124698205736
8.5	-0.000637956446497691	0.00213209619564184	0.765687947953681	-0.620890932506803	0.765739122448816	-0.620740224754045	-0.000902532275764	0.000941774047831943
8.6	0.000636911052146193	0.00200342384188403	0.659901567858364	-0.73216331490657	0.660069687317903	-0.731926081821822	-0.00117797760454176	0.00183970108544253
8.7	0.00179462872012482	0.00171239981282045	0.538177474766665	-0.825595435048223	0.538436313307359	-0.825379729545045	-0.000966352316478969	0.00283014477585152
8.8	0.00315838316728831	0.00121339400947229	0.403618491730273	-0.899019808490622	0.403803553300367	-0.898880527555286	-0.000373890488504759	0.00360613853860783
8.9	0.00454368452717105	0.00039984585227647	0.259227723292511	-0.950767207699684	0.259406564927992	-0.950596950853733	0.000896473250200896	0.00431297369310222
9	0.00617940826350004	-0.00105178153763923	0.108438937182046	-0.979269149259311	0.108747107520708	-0.979222208709326	0.00281137345300962	0.00447628211570617
9.1	0.00752083420366175	-0.00295147245820246	-0.0447397554196512	-0.984162193657158	-0.0444307172540412	-0.984120827337179	0.00508393412604682	0.00383972952962388
9.2	0.00844776960369643	-0.00519177775071315	-0.196980620124953	-0.965175087477372	-0.196633124216251	-0.965152358396342	0.00728389452333769	0.00234643166345159
9.3	0.00870788692441504	-0.00724376553499524	-0.34432016426597	-0.922848918583436	-0.343968320508676	-0.922822924092646	0.00908839195172923	0.000255803510954299
9.4	0.00863644404222307	-0.00917757606661757	-0.483220466780831	-0.858224359968823	-0.482897192950092	-0.858314771095784	0.0102163786517002	-0.00243443390864902
9.5	0.00796684548200407	-0.0106048188606976	-0.610398867351167	-0.772761816810016	-0.610161858786309	-0.772811755684531	0.0101095393605558	-0.00536999027845942
9.6	0.00727177504392741	-0.0117536212434642	-0.722899089768319	-0.66858072959237	-0.722587258947996	-0.668718982223624	0.00908975279192019	-0.00793028447954608
9.7	0.00633749771918184	-0.0123703334770679	-0.81777005222693	-0.548276091412269	-0.817482142226457	-0.548508644303566	0.00702790303860877	-0.0103035600129938
9.8	0.00544234206889859	-0.0127820826694389	-0.892857482122991	-0.414760296813216	-0.892603872556547	-0.414928901559788	0.0041317610344205	-0.0119278383974556
9.9	0.00452112950723622	-0.0127035438498809	-0.94635628221038	-0.27120752891495	-0.946103538830637	-0.271415992879318	0.000827673741835738	-0.0125916167005408
10	0.00374155703324829	-0.0126025734961604	-0.97688662869495	-0.121052389192149	-0.976732349941735	-0.121414625693143	-0.00266129684313483	-0.0122664433696767
10.1	0.0030152768080936	-0.0122493000288984	-0.983667894170046	0.0319842575837927	-0.983603712893019	0.0315526680204779	-0.00598458893500677	-0.0109111040176071
10.2	0.00252717023691036	-0.0119998303780314	-0.966801067796135	0.184213260504848	-0.966678524884998	0.183782057654686	-0.00883210035496194	-0.00878866093917122
10.3	0.00199872560543511	-0.0116616889449103	-0.926434673322386	0.332008265439495	-0.92645133516642	0.331466503315188	-0.011149258986457	-0.00620010676313403
10.4	0.00161726738335454	-0.0116882594620044	-0.863614384079602	0.471595360607877	-0.863750474151814	0.471083633462447	-0.0126841948155413	-0.00340558125246312
10.5	0.00114979866430496	-0.0117263637466076	-0.779967109765234	0.599809325961568	-0.780139730660697	0.599376926841281	-0.0132831225385177	-0.000673228482547026
10.6	0.000612657016976079	-0.0120176034588814	-0.677425161962408	0.713429928269546	-0.677697449814593	0.71309961809245	-0.0132949681388975	0.00200263136451881
10.7	-0.000114837819882962	-0.0119861995277629	-0.558525299343398	0.809856651025246	-0.558825799331343	0.809546987360744	-0.0125645626530557	0.00477030039676502
10.8	-0.000701828291121041	-0.0120546584073728	-0.426073065964699	0.886620897755853	-0.426423792157333	0.886322420689318	-0.011066465569949	0.00734488056342573
10.9	-0.00135307471596241	-0.0118832169907708	-0.283384330125348	0.941946618653774	-0.283774616626702	0.941823509768465	-0.00905317931393694	0.00951280485590144
11	-0.00179114940009086	-0.0119819095090818	-0.13373904414491	0.974485178525065	-0.13417612292101	0.974394424819504	-0.00633462342900709	0.0110416073072093
11.1	-0.00223784036473568	-0.0119757890462329	0.0191357539349073	0.983241035877075	0.0186469582953432	0.983254408373947	-0.00325665115436174	0.0118358577095734
11.2	-0.00268377935700418	-0.0122644157558981	0.171419816795932	0.968307318066291	0.170962672518209	0.968380317810889	0.000101204592736099	0.011774168362616
11.3	-0.00326188581726306	-0.0124764012885841	0.319496684357945	0.929973336171586	0.319037614659468	0.930109908697696	0.00353226058674114	0.0109455538020984
11.4	-0.00408656609692747	-0.012764370115131	0.459925800118575	0.86912842002958	0.459521973662718	0.86924158081224	0.0066073795799566	0.00948959190622609
11.5	-0.00506643909401929	-0.012653750867774	0.589110824779856	0.787047331118868	0.588792297179518	0.787349575744139	0.00912600170192717	0.00741979116186482
11.6	-0.00613920284738584	-0.0126184871219441	0.703914535499939	0.686084941348561	0.703699284864437	0.686412590876108	0.0109523632751149	0.00492114360832224
11.7	-0.00727921054624644	-0.0121032569094496	0.801765970261058	0.568557593997978	0.801562844304791	0.568864017064976	0.0121004823536027	0.00214093526513057
11.8	-0.00851957211090898	-0.0115364281533738	0.880272363128522	0.437119992021895	0.88009066333765	0.437570620680017	0.0123709361480066	-0.000845813302907689
11.9	-0.00949126839365528	-0.0104731918634161	0.937322953394742	0.295270741578215	0.937217211733284	0.295720442661092	0.0118049817666815	-0.00356514952098415
12	-0.0110954776941953	-0.00941385921460747	0.971747383067243	0.146436865122641	0.971718637221199	0.146801160197729	0.0103348477160582	-0.00609018763673896
12.1	-0.012126284150281	-0.00782036840441606	0.982651655096547	-0.00608723232242747	0.982580746958746	-0.00570267323104838	0.00847687465984099	-0.00812906475929561
12.2	-0.0131017848197153	-0.00608003338347347	0.969793126417503	-0.158524039748409	0.96981065045161	-0.158226072717033	0.00606575745779205	-0.00941325333980024
12.3	-0.0135709741967574	-0.00397679749328235	0.933260711901056	-0.307051811474232	0.933380255015759	-0.306745217290777	0.00371773532070317	-0.0100920844926216
12.4	-0.0137240580564307	-0.00207361413871591	0.874476256875026	-0.448127962514547	0.874539434887282	-0.447758350387884	0.00144457948956408	-0.0103397378985742
12.5	-0.0133043366845101	-0.000258253573885717	0.794220616392219	-0.578414474400221	0.794561133612351	-0.57802405305768	-0.000767634967760928	-0.0103122372557562
