# GHZ S RI R 50
0.2	-0.000271283927278583	-0.000173060728994301	0.949229951352586	-0.307940386611286	0.949007659910468	-0.307914961484112	-0.000257132571078343	-8.6543493140417E-05
0.3	-0.000390017520680407	-8.79683762676433E-05	0.889291074818384	-0.451619109098195	0.889134849864742	-0.45152372886724	-0.000442510580225967	-0.000202322705211798
0.4	-0.000264542025075247	4.03087639086266E-07	0.807853943510624	-0.583927528527132	0.807865739271662	-0.583952648688762	-0.0004495461202336	-0.000169703669741345
0.5	-0.00027935338023183	2.85313931688446E-05	0.707127522978836	-0.702299091791109	0.706972467496365	-0.702197610833299	-0.000433356052669216	-0.00014358795061985
0.6	-0.000285874291562531	0.000102504637234656	0.589163754899011	-0.803357732498107	0.589044471012001	-0.803196007228387	-0.000509947218448109	-0.000170521731794821
0.7	-0.000243604355749251	0.0003404415553679	0.457070284373926	-0.884747426590427	0.457051506461794	-0.884634914534082	-0.000495470928834196	-0.000157894234466004
0.8	-3.13651898543205E-08	0.000387380483044672	0.314021409655789	-0.944777535157873	0.313990030431748	-0.944587772028659	-0.000534226705873784	-7.98216694169224E-05
0.9	0.000175392020202442	0.000500735914280369	0.163445115195775	-0.98177382932597	0.16338006277176	-0.981681906244478	-0.000625319107273881	-7.75788633520419E-05
1	0.000471687476473038	0.000321503396213125	0.00900661055100755	-0.994917627971635	0.00895495432352789	-0.994886159705006	-0.000597638986744661	-0.000106298438783701
1.1	0.000533450023370286	6.13545626787574E-06	-0.145490381640983	-0.984179587329475	-0.145506138339498	-0.984049128428901	-0.000871437649555702	-0.000153835694229607
1.2	0.000721428070399007	-0.000880739763068006	-0.296654576313678	-0.949385297208612	-0.296578193556718	-0.949359200621893	-0.000667940322909825	0.000275964072400104
1.3	0.000784511515619661	-0.00245667889209402	-0.440378186113123	-0.891569477010327	-0.440355151121949	-0.891562863041539	0.00055000328697764	0.000863418718160932
1.4	0.00061146661461076	-0.00435547963370407	-0.573134286105228	-0.812262726976755	-0.573110108462701	-0.812241092669204	0.00227201896324444	0.000490406238557638
1.5	0.000125346846486559	-0.00533444124481063	-0.692358313934444	-0.713291931926502	-0.692256537493133	-0.71320696720222	0.00368739497585833	-0.000643800241010718
1.6	-0.000397725195751627	-0.00549238058525435	-0.794540715935864	-0.596883411644517	-0.794466633064259	-0.596823392823152	0.00360995808679356	-0.00178320520462164
1.7	-0.0007918332989381	-0.00529565827459557	-0.87699902407161	-0.466696686782953	-0.877163197633449	-0.466180501973173	0.00330964976379048	-0.00265702917998581
1.8	-0.00134523620928523	-0.00509481008360371	-0.938854680685459	-0.324430880201998	-0.938743421536664	-0.324429544572554	0.00254049649033704	-0.00348112518203124
1.9	-0.00186492336896606	-0.00476592998403676	-0.977603184688083	-0.175149720509893	-0.9776959325811	-0.174662107881745	0.00165934354389704	-0.00395847233308353
2	-0.00259443080722388	-0.00455073464445663	-0.992625390493342	-0.0206193454149213	-0.992637302698594	-0.0205734876994323	0.00074773853137305	-0.0043844153811502
2.1	-0.00333055886225058	-0.00385890376493865	-0.983561685169237	0.133626266980893	-0.983599768145096	0.133663373397912	-0.000301028268400988	-0.00426456359379666
2.2	-0.00400286936318761	-0.00325206068694225	-0.950879135564647	0.284536329749974	-0.950804024293594	0.284599090872593	-0.000888082417546846	-0.00402814069986344
2.3	-0.00463148799390805	-0.00248365115276274	-0.895269896039733	0.42804755404328	-0.894887490847674	0.428560545757598	-0.00151799996223721	-0.00397847213924615
2.4	-0.00525094775284672	-0.00165205654548716	-0.817012042468623	0.562820509251062	-0.817278962482102	0.562234901842349	-0.00224168991491408	-0.00386273083481042
2.5	-0.0056758463147604	-0.000689873565872845	-0.719912035018891	0.682536209557605	-0.720125910722677	0.682026606136628	-0.00270915680966536	-0.00404853858077384
2.6	-0.00600955939754546	0.000565899641208996	-0.60565079053963	0.785576479214703	-0.605544788177749	0.785393734207745	-0.00326495807662482	-0.00382725422337673
2.7	-0.00563189987244917	0.00180950276280001	-0.475777828788373	0.870195069792016	-0.47622707343551	0.869788502984725	-0.0035332383553082	-0.00352764489624767
2.8	-0.00473621939923995	0.00268670346939467	-0.336154182348728	0.932884944500869	-0.335486538012958	0.933043259910047	-0.00377369513032383	-0.00320123931339148
2.9	-0.00329292994037658	0.00313644346788	-0.186727020548771	0.973661321515319	-0.186758321593448	0.973574002282285	-0.00344758336546674	-0.00250729279904262
3	-0.00185895608103765	0.00309982155627727	-0.0326523725814454	0.990869357770068	-0.0333533949884	0.990711329486541	-0.00289173237174285	-0.00187203831489115
3.1	-0.000287843203018751	0.00281595465489781	0.120174352139437	0.983883071645856	0.120764894528919	0.983864735258683	-0.00190218336973465	-0.00143816566196276
3.2	0.000912636122023688	0.0019677135122919	0.271970275026948	0.953026466790685	0.271915428531095	0.952966224608257	-0.00122954881189793	-0.00139876318733905
3.3	0.00200575528943922	0.000926992096865254	0.41669880985884	0.899092397049732	0.416561663809869	0.899078341841558	-0.000408126078731975	-0.00148368536907213
3.4	0.00260777649372657	-0.000417108851226416	0.551114816610375	0.823492080711295	0.550952749364932	0.823610153348438	0.000472006317900313	-0.00211172600557441
3.5	0.00285017311563331	-0.00175760473513603	0.672255813871229	0.728026620902961	0.672176284982801	0.728065475174224	0.000877708107441643	-0.00283953163922425
3.6	0.00268456737564347	-0.002893636733575	0.776554258256927	0.615141293935205	0.776794475739873	0.614692414517421	0.00111441098075674	-0.00345755410475104
3.7	0.00237925079821873	-0.00413298657462744	0.862793911762897	0.486531001416469	0.862675885649301	0.486674234920116	0.00122368709773334	-0.00415206893314679
3.8	0.0015683596223459	-0.00523113791759299	0.927559360068485	0.347245773980751	0.927615522842717	0.346866650273608	0.00105858689699698	-0.00494423537271708
3.9	0.000749874023906987	-0.00618110312797974	0.970334110904347	0.197862722962235	0.970096922686581	0.198530304549519	0.000323836708259939	-0.00598387111722222
4	-0.000738218235869884	-0.00697412054036183	0.989076562682013	0.0455326598196566	0.989037823429747	0.0456355389486249	-0.000581530812574346	-0.00682169894623986
4.1	-0.00229164645859341	-0.00723379560040441	0.984095290677945	-0.108345193393893	0.983911142601777	-0.108217817282561	-0.00166479873810569	-0.00727076421593263
4.2	-0.00407590714192973	-0.00724995600140663	0.954988871816279	-0.260364171345094	0.955025010237042	-0.259710956745688	-0.00269928332153391	-0.00767298272712832
4.3	-0.00587133628941233	-0.00708418565748621	0.903236639189864	-0.404780333007091	0.903101082595029	-0.404669068530478	-0.00392426290417799	-0.00818454768638376
4.4	-0.0078575320399143	-0.00642019499337296	0.829328440749873	-0.539960313807006	0.829163630411402	-0.539826822443458	-0.00537967496171841	-0.00849459605729682
4.5	-0.00974145147563656	-0.00556207675232688	0.735466975941385	-0.66190920899777	0.735278639700435	-0.661735960020716	-0.006990135374567	-0.00880103005364156
4.6	-0.0118024268556731	-0.00386983636474167	0.623465603140779	-0.768428114812319	0.623808073588138	-0.767731316358387	-0.0089969626317087	-0.00864301550506973
4.7	-0.0132000773677833	-0.00188350490926579	0.497008897766853	-0.855604531191492	0.497025786145384	-0.855249038586657	-0.0108909630628087	-0.00823799827793374
4.8	-0.0141838466850721	0.000605324879281061	0.357905288917593	-0.92212468961875	0.358127007289835	-0.92180882692038	-0.0125875374367792	-0.00747663102987759
4.9	-0.0142202322450046	0.00308529481234515	0.210955559252264	-0.96581519863635	0.210735770115122	-0.965822741966122	-0.013807959390732	-0.0063576536576939
5	-0.0136052789880553	0.00550539377525613	0.0585245642403502	-0.986845819162708	0.0587018214046416	-0.986600859421791	-0.0144476107135376	-0.00476741780138259
5.1	-0.0120095530816531	0.00765982382051571	-0.0952604833292175	-0.984109466152786	-0.0949288752642909	-0.983884660396356	-0.0144312921334962	-0.0030688231711122
5.2	-0.00996108386666627	0.00945631038966589	-0.246932945272057	-0.957309872392226	-0.246441416094139	-0.957283521321606	-0.0141770735929206	-0.00147237591437589
5.3	-0.00758761420532019	0.010605917699772	-0.392384088067126	-0.907385482655356	-0.392043861171526	-0.907601787216265	-0.0135473995538117	-7.50760988148049E-05
5.4	-0.00509282057423299	0.0114447487084504	-0.528451137021108	-0.835628731856691	-0.528238663776613	-0.835829480215942	-0.0129236407263473	0.0010166816799736
5.5	-0.00289931539543289	0.0118363010280177	-0.651957055424703	-0.743439007559031	-0.651718383149146	-0.743633803263602	-0.0127493731922931	0.00198700759987924
5.6	-0.000253064775146681	0.01245968485229	-0.759179606685565	-0.63297383024715	-0.758990174175129	-0.63314569667346	-0.0122305505649975	0.00338220400641169
5.7	0.00238953228395525	0.0120969176563986	-0.848125160060786	-0.507495662406375	-0.847996067831683	-0.507715368067783	-0.0115966792258277	0.00459635180317672
5.8	0.00479432402354238	0.011413491065802	-0.916466202927203	-0.369644459863246	-0.916398530282677	-0.369929204125172	-0.0109046018593665	0.00582571546867222
5.9	0.00700960716058135	0.0100422193926962	-0.962748181380826	-0.223004440576469	-0.962762673492664	-0.223087993001076	-0.0101167323387181	0.00687776970224206
6	0.00849697462520715	0.00822629104824398	-0.985543686282346	-0.0707816571086087	-0.985424589850106	-0.0708396916579703	-0.00970659319144126	0.00780647294719959
6.1	0.00964549246249983	0.00664709343137601	-0.984336579951889	0.0827988238002263	-0.984210146260164	0.0826505147930364	-0.0088501026577776	0.00922505461306616
6.2	0.0105091952318906	0.0046041395846173	-0.959481042366556	0.234535222075036	-0.959467400928564	0.234332679125859	-0.00758018569464837	0.00994473574052093
6.3	0.0106231464822534	0.00214388543363401	-0.91141386571405	0.380563841432797	-0.911409389855806	0.380378771247815	-0.00632156764011852	0.0100444714379569
6.4	0.0101273075911498	-0.000342223332326412	-0.84115714800897	0.517361204636308	-0.841125578518446	0.517150871052839	-0.00535811715311899	0.00964159275297479
6.5	0.00893077922418388	-0.00278655735781869	-0.750567544645846	0.641267530781951	-0.750591661271781	0.641063819890992	-0.00472485356424821	0.00906685424416475
6.6	0.00757733019127032	-0.00468106907209666	-0.642168230596354	0.750021029837924	-0.642241978680653	0.74976929298129	-0.00410516103545394	0.00872026484240312
6.7	0.00586777810662725	-0.0063503386091275	-0.517882591254643	0.840572244529772	-0.517985256024537	0.840351434763851	-0.00367710418865379	0.00836206779868788
6.8	0.00409582223711206	-0.00748652005453987	-0.38110908036134	0.910672671271899	-0.381250493976392	0.910502225249929	-0.00334791257610739	0.00827092710909751
6.9	0.00213534530237807	-0.00829656716365462	-0.235219279288983	0.958551962169615	-0.235445499863782	0.958441726835997	-0.00281309463580004	0.00830063238324448
7	0.000323119528471891	-0.00848687425384779	-0.0838969691438558	0.983511280995863	-0.0841064342834678	0.98342154685071	-0.00213810729780995	0.00827526826746461
7.1	-0.00131599378490098	-0.00840444020784062	0.0699704152482165	0.984688666283954	0.0697687311034858	0.984555592282194	-0.00127260709292606	0.00822661784017959
7.2	-0.0027769718632441	-0.00807926420787052	0.221952100794162	0.961702781062676	0.221670422799843	0.961668248249553	-0.000232823218493171	0.00813491408025499
7.3	-0.00425328855029671	-0.0075991332825111	0.368346903465974	0.915521114294074	0.368111208603762	0.915547265617564	0.00081363997409775	0.00780839977434312
7.4	-0.00542401963755979	-0.00685254976430137	0.505851430182571	0.847320962217528	0.505638315882653	0.847371953857773	0.00167496488631508	0.00718984319534812
7.5	-0.00655152005193383	-0.0060598330003246	0.631421730451015	0.758521313421044	0.63125237947664	0.758590867947127	0.00244152028839506	0.0065641169705322
7.6	-0.00706863884744343	-0.00492427940171804	0.741340900913618	0.651009565991436	0.741083693021069	0.651091840589149	0.00345561203008914	0.00567952780672542
7.7	-0.00733947537940572	-0.0037658982442327	0.83312637241235	0.528090702355113	0.832941063592257	0.528307529350535	0.00410104928449913	0.00448275308977005
7.8	-0.0070770997312331	-0.00254088694419093	0.904997558348946	0.392376110339468	0.90489456184479	0.392601209607267	0.00454053619907421	0.00312501801240052
7.9	-0.00657469422020623	-0.00148138513867384	0.954985590852262	0.247210833631896	0.954847578907128	0.247390271101858	0.00461577633511433	0.0017643018971963
8	-0.00602755396962309	-0.000751169245649407	0.981342431192555	0.095757826671648	0.981319311190428	0.0960202632565988	0.00362639456735355	0.000370166936869278
8.1	-0.00539371186909133	0.000531669598319479	0.984204433443839	-0.0573852526755663	0.984233118647931	-0.0571299426432198	0.00253470784251426	0.000126607354242502
8.2	-0.00415611907099229	0.00136451848484105	0.963358037196841	-0.209365299730082	0.96340601229446	-0.209048481706787	0.00159042072630696	-2.72972758225161E-05
8.3	-0.00300803905896598	0.00195283595953972	0.919144258290674	-0.356302128284242	0.919195261056471	-0.356015171405536	0.000638117800390079	0.000146172515937653
8.4	-0.00154429410883827	0.00223658483057217	0.852553738348579	-0.494598158762016	0.85265122786517	-0.49439625193534	-3.00240529225674E-05	0.00051452596170501
8.5	-0.000438178418398412	0.00183330145253437	0.765487707764167	-0.620408394232253	0.765538820390164	-0.620257743811695	-0.000700467837074263	0.000644491467427865
8.6	0.000443016311572894	0.00185224220732232	0.660074658563206	-0.731771304056691	0.660242654008497	-0.731534046470464	-0.0013698100140486	0.00168788608013779
8.7	0.00163319543209496	0.00173984731492769	0.538368123011968	-0.825327449943476	0.538626862945849	-0.82511169040758	-0.0011270068306768	0.00285663711339936
8.8	0.00306645389304958	0.00129590929734239	0.403814035149564	-0.898737558799086	0.403999021854206	-0.898598247728116	-0.000464730934644596	0.00368638659042941
8.9	0.00453713141287445	0.000471571433582398	0.259590910603489	-0.950382178050192	0.259769624128079	-0.950211886906986	0.000890012967760738	0.00438016483457451
9	0.00608851895628535	-0.00111669486811693	0.109155829623673	-0.979249622397878	0.109463984522125	-0.97920245547238	0.00271689582412493	0.00440377890102797
9.1	0.0073284360772213	-0.00283198273929876	-0.0443368229259736	-0.984410913611818	-0.0440277299368136	-0.98436940782274	0.00488863082314706	0.0039565174461993
9.2	0.00839574668092064	-0.00494580965436423	-0.196683763650494	-0.96539495800287	-0.19633622041796	-0.965372107208058	0.00722882457160632	0.00259023062049062
9.3	0.00886161464724667	-0.00703047030232378	-0.344021562052042	-0.923104228225772	-0.343669679884618	-0.92307809836003	0.00923838140268256	0.000467632361598197
9.4	0.00892924203592206	-0.00928196067595216	-0.482947748830846	-0.858690184622476	-0.482624342901882	-0.858780467698128	0.010498373022703	-0.00254090708141664
9.5	0.00769270345213857	-0.0108185618683251	-0.610623811751936	-0.773244936636549	-0.610386672152828	-0.773294872212694	0.00983493587675925	-0.00558336248993478
9.6	0.00712667015364453	-0.0114942131065872	-0.723056610967027	-0.668693857246216	-0.722744722571209	-0.668832144452518	0.00894489151038306	-0.00767054624330383
9.7	0.00642772629582396	-0.0121258526902215	-0.817826835090813	-0.54841027349364	-0.817538870603598	-0.548642831801245	0.00711797607288892	-0.0100591857043036
9.8	0.00568791543124137	-0.0126042075219728	-0.892971798642445	-0.414935621628607	-0.892718124360569	-0.415104228188361	0.00437613273170548	-0.0117503648189035
9.9	0.00498508963376179	-0.0127934215415552	-0.946638560900476	-0.271244081860601	-0.946385754271032	-0.271452616313662	0.0012904489678689	-0.0126799019935807
10	0.00370138760257018	-0.0131704887503574	-0.976837572252547	-0.120756442281937	-0.976683412639758	-0.121118692579741	-0.00269935281028101	-0.0128316578818242
10.1	0.00271924387535962	-0.012325970548916	-0.983448731114832	0.0319119064606981	-0.983384535689634	0.0314804182192162	-0.00627838105240284	-0.0109892070370698
10.2	0.0023738194333584	-0.0119490067803736	-0.966726059811891	0.184056210707748	-0.966603468298256	0.18362507047473	-0.00898464850598761	-0.00874005307040888
10.3	0.00190290467361262	-0.0115883953183307	-0.926408469650823	0.331908324291114	-0.926425083584074	0.331366592862572	-0.0112443707915551	-0.00612902287796633
10.4	0.00160549146390057	-0.0116213619527874	-0.863422866224348	0.47152767051287	-0.863558945402594	0.471016052133428	-0.012692276550267	-0.00334193636597594
10.5	0.000999570649567234	-0.0118171810201012	-0.779817603979923	0.599274032961921	-0.779990000411248	0.598841770866935	-0.0134313674317749	-0.000775093265959562
10.6	0.000352485403309681	-0.0117846400742883	-0.677693659322385	0.713062629679947	-0.67796577435397	0.71273222297036	-0.0135617878178321	0.00222871198415553
10.7	-0.000122570472948175	-0.0116001031499389	-0.558761805120028	0.809658049991778	-0.559062199421569	0.809348301624808	-0.0125788769454835	0.00515301408361615
10.8	-0.000543745817885378	-0.0116905584262088	-0.426264081298892	0.886401614903407	-0.426614685468179	0.886103077465285	-0.0109085624578668	0.00761616425067676
10.9	-0.00103092556484309	-0.0117754883801176	-0.283742326701182	0.941569256027548	-0.284132454221526	0.941446000310618	-0.00873601127252594	0.00961065197054872
11	-0.00157211611825673	-0.0119810208067229	-0.134482754716854	0.974526379425221	-0.13491982910719	0.974435287700671	-0.00613228869931877	0.0110408272430681
11.1	-0.00197382208539872	-0.0119873270070606	0.0187761917592411	0.98352879185255	0.01828725163225	0.98354198670934	-0.0030007972519258	0.0118299372784281
11.2	-0.00240533029655452	-0.0123802425231185	0.171148390831499	0.968518148691023	0.170691149471757	0.968591019004261	0.000373647943737058	0.0116622840478417
11.3	-0.00298325386195878	-0.0127022157810599	0.319172445745537	0.930221330214715	0.318713261954924	0.930357739907176	0.00380526872470014	0.0107264084762495
11.4	-0.00386145699690914	-0.0132521844861604	0.459621961230413	0.86966017732889	0.45921794058971	0.869773163412965	0.00682745116509038	0.00901347937498936
11.5	-0.00544343240603742	-0.0131916550718773	0.589412941116484	0.787580830125479	0.589094192549437	0.787883236501039	0.00875522430515263	0.00689501403933979
11.6	-0.00651519838589388	-0.0126819469406918	0.704118703601689	0.686192808719875	0.703903426213805	0.686520546370728	0.0105825312617012	0.00486041236919989
11.7	-0.00755162845322345	-0.012069185182245	0.80186565343074	0.568695968626937	0.801662476915423	0.569002430588695	0.0118305149306106	0.00217813393023993
11.8	-0.00871954172514014	-0.011388579086691	0.880460756356672	0.437295858103177	0.880278977107787	0.437746586360961	0.0121771821489279	-0.000694144625011455
11.9	-0.00961966828428964	-0.0103434014623626	0.937736787578795	0.295240198627603	0.937631074663753	0.295690092646907	0.0116883356249719	-0.00343214974766321
12	-0.0114393474850151	-0.00952582037102098	0.971701056431196	0.145972099718611	0.971672481754882	0.146336365380364	0.0099960467868917	-0.00620996676054393
12.1	-0.0123983727190851	-0.00723661466363433	0.982364095196945	-0.00614571279839495	0.982293231363886	-0.00576126174607539	0.00820011950532498	-0.00754585367215606
12.2	-0.0128572467548367	-0.00549137174370836	0.969609607138725	-0.158466989223483	0.969627119683692	-0.158169079423178	0.0063068992899452	-0.00882386036399515
12.3	-0.0130525864047994	-0.0036234725928434	0.93308914402766	-0.307020829365126	0.933208673684444	-0.306714292003287	0.00423255151184966	-0.00973854745142871
12.4	-0.0129701599236075	-0.0020181171357778	0.87407215051856	-0.448075233276258	0.874135355536239	-0.447705774305018	0.00219057835822837	-0.010283307779076
12.5	-0.0128071023447773	-0.000798324649687427	0.793894078034688	-0.577738098997684	0.794234224901257	-0.577347817909548	-0.000298619190324963	-0.0108615990798516
