# GHZ S RI R 50
0.2	-0.000268655079036903	-0.000175794590591588	0.949232038520425	-0.307942745473772	0.949009746514691	-0.307917319921136	-0.000254536779386008	-8.92454575590701E-05
0.3	-0.000389624582458729	-9.38255187875612E-05	0.88929304351042	-0.451621304828842	0.889136818228083	-0.451525924167933	-0.000442165129459413	-0.000208107432057158
0.4	-0.000273649284580832	-7.70758878708479E-06	0.807862156249451	-0.583929684411923	0.807873952181406	-0.583954804736874	-0.000458698771031002	-0.000177697395816017
0.5	-0.000295798165096896	4.49320435216142E-05	0.707139453604476	-0.702323265570845	0.706984395045085	-0.702221780656008	-0.000449848825982076	-0.000127038512035985
0.6	-0.000272016206887599	0.000118354397994973	0.589150254680068	-0.803382375683912	0.589030973502707	-0.803220645435838	-0.000496161817841109	-0.000154459665428624
0.7	-0.000225393928792906	0.000339533438742466	0.457053742563076	-0.884763233624391	0.457034967009484	-0.884650720425177	-0.000477316018076409	-0.000158505405281233
0.8	1.71347954784722E-05	0.000371554170914464	0.314004394318581	-0.944794650630915	0.313973018858447	-0.944604884749796	-0.000517048883765978	-9.52588411797167E-05
0.9	0.000172075299212518	0.0004567379728474	0.163415385442485	-0.981801301353894	0.163350334691774	-0.981709374008953	-0.000628478366759742	-0.00012106774141505
1	0.000394019132240164	0.000322010345830483	0.00893821807149586	-0.994917482784071	0.00888656404651048	-0.994886010991514	-0.000674958646603078	-0.000105192371501603
1.1	0.000529131479184026	6.86204883626243E-05	-0.145526960544666	-0.984146255124331	-0.145542711421822	-0.984015799195787	-0.000875778943894582	-9.11852557089319E-05
1.2	0.000752097189538115	-0.000852322877096689	-0.296680558514067	-0.949359349868213	-0.296604176210358	-0.949333256226413	-0.000637581855971667	0.000304501111498215
1.3	0.000809038663023921	-0.00245561674703673	-0.44040928351441	-0.89153961520297	-0.440386248550921	-0.891533002272542	0.000573928247388632	0.000864779530422745
1.4	0.000600256730120311	-0.00434337956600756	-0.573166102803001	-0.812204152503345	-0.573141924577179	-0.812182520291541	0.00225998317369849	0.000503364430585021
1.5	0.000192140213905324	-0.00526675674472405	-0.692322543104123	-0.713219197971532	-0.692220772421103	-0.713134242396524	0.00375259776414655	-0.000575621491658924
1.6	-0.000326658006994403	-0.00555158980181662	-0.794507258258964	-0.59687285303993	-0.794433178557611	-0.596812835348013	0.00367967263250726	-0.00184149077443016
1.7	-0.000792956053562114	-0.00536591120452667	-0.876985869220983	-0.466682934118461	-0.877150036698	-0.466166757714638	0.00330788361608329	-0.00272625269198857
1.8	-0.00139349484248811	-0.00515069452563598	-0.938833204671385	-0.324409055540627	-0.938721948575428	-0.324407721473682	0.0024919252541144	-0.00353607099928676
1.9	-0.00197778873854585	-0.00475946143710038	-0.977552335959551	-0.175148239836569	-0.977645082841314	-0.17466065261356	0.00154627511644331	-0.00395109173107462
2	-0.00259258231238426	-0.00438868155236964	-0.992625564845465	-0.0206889784042073	-0.99263748028841	-0.0206431214491793	0.000749748518255745	-0.00422115679561044
2.1	-0.00321799994769924	-0.0038513735504325	-0.983612574827926	0.133627778302408	-0.98365065994663	0.133664886408659	-0.000188085283392714	-0.00425637346193701
2.2	-0.00395065088277916	-0.00330889045515512	-0.950901597110627	0.284559799802049	-0.95082648268652	0.284622561497487	-0.000835507704228596	-0.00408442172916967
2.3	-0.00462801678639613	-0.00256158682913146	-0.89528517204191	0.428061193470136	-0.894902756315614	0.428574193147961	-0.00151408026777295	-0.00405587127392598
2.4	-0.00533787338325846	-0.00172506257104894	-0.817063662234043	0.562829820322193	-0.81733058234478	0.562244178886631	-0.00232799008347153	-0.00393544937143731
2.5	-0.00577374804171873	-0.000584132180723851	-0.719973037507473	0.682656305960583	-0.720186963781901	0.682146647091153	-0.00280689498454271	-0.00394441587391089
2.6	-0.00595810388226576	0.000624923491738921	-0.605595989525332	0.785680609973006	-0.605490001637354	0.785497844507135	-0.00321441536322892	-0.0037696686608227
2.7	-0.00559792924996707	0.00180925564574267	-0.475718418461324	0.870255652612437	-0.476167707560121	0.869849112476994	-0.00350065125715145	-0.00352851168633329
2.8	-0.00472652405209689	0.00267880939912646	-0.336099298377288	0.932946402042442	-0.335431616068671	0.933104674920437	-0.00376571524598961	-0.00320928409132234
2.9	-0.00329246717275327	0.00314873679378673	-0.186633369042368	0.973754232333047	-0.186664682052198	0.973666910073189	-0.00344905334271471	-0.00249485844492496
3	-0.0018053427135222	0.00310126907281181	-0.0324464893128974	0.990867482386197	-0.0331475383894782	0.990709600939266	-0.00284093354998339	-0.00186903438648111
3.1	-0.000280550162899923	0.00276360078576975	0.120274938339165	0.983791989824158	0.120865432078141	0.983773588818793	-0.00189680003462373	-0.00148810522939969
3.2	0.000882440435295727	0.00193569433937163	0.272038874370606	0.952960584882305	0.271984025230392	0.952900350057575	-0.00126117177038685	-0.00142854851089138
3.3	0.00195445039785561	0.0009215446299732	0.41677822497104	0.899019475921942	0.416641082000074	0.899005435394087	-0.000460436203790556	-0.00148672435995158
3.4	0.00254944713069776	-0.000352273341538516	0.55119329547982	0.823349400359079	0.55103125771681	0.823467487714533	0.000413049112581077	-0.00204406250785496
3.5	0.00294743128471495	-0.00166585091311318	0.672166702154499	0.727859752289504	0.672087189828748	0.727898603214528	0.000975383014180608	-0.00274491270770814
3.6	0.00275931580872308	-0.00295918610769157	0.776479947725651	0.615121109007972	0.77672016178321	0.614672269014096	0.00118943704788015	-0.00352104947940434
3.7	0.0023770750941301	-0.00420658749332078	0.862765723708204	0.486503690854363	0.862647703556569	0.486646920052468	0.00122211341169065	-0.00422371862491356
3.8	0.00151487696125906	-0.00529172902276361	0.927514235298005	0.347201918225277	0.927570385138092	0.346822815148766	0.00100609661178684	-0.00500313603183788
3.9	0.000621310466188519	-0.00617124226476997	0.970228546592821	0.197863898209433	0.969991368098166	0.198531404899425	0.000196535672870878	-0.00597282227049944
4	-0.000730118949901539	-0.0067897800510919	0.989082411104763	0.0456755946745139	0.989043656558695	0.0457784695175096	-0.00057236651277739	-0.00663659087968051
4.1	-0.00216580667878693	-0.00722642956971317	0.98419536780718	-0.108345596515285	0.984011199862732	-0.108218209562484	-0.00153806541927402	-0.00726269597363497
4.2	-0.00401677651671651	-0.00731289667306608	0.955034577322329	-0.260404705016416	0.955070735615556	-0.259751455270262	-0.00263935221643647	-0.00773529128465416
4.3	-0.00586607905683773	-0.00717269567380947	0.903269778024683	-0.404801491738118	0.903134216750236	-0.40469022210101	-0.00391820002710583	-0.00827239080512782
4.4	-0.00795916843883901	-0.00650542309998328	0.829432403301273	-0.53997386809798	0.82926757110221	-0.539840371539751	-0.00548038754347046	-0.00857940018182114
4.5	-0.00985829429342297	-0.00543136084174544	0.73558203798782	-0.662129451265218	0.735393672610737	-0.661956145006726	-0.00710671959151806	-0.0086712009280614
4.6	-0.0117328124023803	-0.0037903196524018	0.623376717207069	-0.768612150570761	0.623719347987543	-0.767915354936568	-0.00892823852024661	-0.00856459121218832
4.7	-0.0131416346492499	-0.00188411304547076	0.49691348759509	-0.855714379451151	0.496930426240735	-0.85535887228816	-0.0108338109143496	-0.00823881401714118
4.8	-0.0141552616908252	0.000579227100924429	0.357817284082172	-0.922236405162167	0.358039057768258	-0.921920546826241	-0.01256067685196	-0.00750259322770703
4.9	-0.0142259380704251	0.00307053104151908	0.210799744895541	-0.965982714501531	0.210579925331202	-0.96599021703629	-0.0138161050902275	-0.00637228693426296
5	-0.0135518352307357	0.00551238543332506	0.0581828806455894	-0.986845853209322	0.0583602187049956	-0.986600959631123	-0.0143983387877508	-0.0047577713282166
5.1	-0.0119958564737674	0.00757746600372239	-0.09542518791459	-0.983967824939942	-0.0950935814341523	-0.9837431071912	-0.0144196470636885	-0.00314696440705362
5.2	-0.0100209927837311	0.00939238625959115	-0.247046127823922	-0.957208635624574	-0.246554629732773	-0.957182353472296	-0.0142379345557537	-0.00153283542063659
5.3	-0.00770379534304277	0.0105950693698398	-0.392514560718485	-0.907273371537123	-0.392174387352538	-0.907489721441862	-0.0136644172945576	-8.26764233024432E-05
5.4	-0.0052277743674169	0.0116038714058938	-0.528577273541485	-0.835404259204363	-0.5283648725842	-0.835605031425491	-0.0130594907216375	0.00118046935112288
5.5	-0.00266065148333115	0.0120452187791196	-0.651817476576005	-0.743189982122898	-0.651578883378114	-0.743384737117266	-0.0125084118717658	0.00220031660694878
5.6	-8.61010636990547E-05	0.0123104337453555	-0.759076060034699	-0.632945008404522	-0.758886638624314	-0.633116849327833	-0.0120625308302472	0.00323399775939569
5.7	0.00238631785163285	0.011935169777765	-0.848089194565741	-0.507453142352718	-0.847960113224902	-0.507672838653973	-0.0115995435367465	0.0044363019311188
5.8	0.00468119644604197	0.0112824996188334	-0.916402329565963	-0.369574977802297	-0.916334674440099	-0.369859700284919	-0.0110165622243064	0.00569690117664514
5.9	0.00674265777302476	0.0100650304985702	-0.962587835207711	-0.223005654763549	-0.96260232187635	-0.223089194558028	-0.0103809791180427	0.00690081044951757
6	0.00852393772819105	0.00858237377016374	-0.98555997685373	-0.0709986623874632	-0.985440863958436	-0.0710566728506551	-0.00968106112903531	0.00815892189230247
6.1	0.00986588308974233	0.00665794885388792	-0.984488960971619	0.0827986964795347	-0.98436250590723	0.0826503663382204	-0.0086339272393862	0.00923728316104028
6.2	0.010598357174034	0.00451124029651611	-0.959554277955151	0.234593830059979	-0.959540643444557	0.234391269127143	-0.00749377533038134	0.00985509362595691
6.3	0.0106291403897978	0.00204863639221574	-0.911469875476204	0.380595740102463	-0.911465400793507	0.380410657893764	-0.00631766168403137	0.00995293496128353
6.4	0.0100690034334476	-0.000385599485496592	-0.84132040453278	0.517384735080478	-0.841288816250362	0.51717437134074	-0.00542016998117969	0.00960266765674507
6.5	0.00892980665168003	-0.00277378248281847	-0.750733230918759	0.641598514391448	-0.750757385598653	0.641394736654305	-0.00472926397760286	0.00908898573458471
6.6	0.00755807766077901	-0.004711944420624	-0.642043158451691	0.750289458254308	-0.642116984424598	0.750037710289079	-0.00412130801231249	0.00869677765010137
6.7	0.00582801497701552	-0.00635522591734207	-0.517749665994226	0.840735813031306	-0.517852382494012	0.840515008404506	-0.00371320452541554	0.00836223079931398
6.8	0.0040568303537957	-0.00746078274047155	-0.380986785312246	0.91084048106577	-0.381128245002662	0.910670041907315	-0.00338346393276457	0.00830124836027227
6.9	0.00213440931003763	-0.00822644762842958	-0.234995965373005	0.958799675563081	-0.235222259710466	0.958689482543419	-0.00280900113073345	0.00837669736947159
7	0.00041186422832447	-0.00848923779991451	-0.0834192245310838	0.983511194904922	-0.0836287243109489	0.983421565478058	-0.00204122671993507	0.00827432099739981
7.1	-0.00131139632870188	-0.0084602868784158	0.0702014230842864	0.984505395992235	0.0699997401339623	0.984372394160274	-0.00126442774199486	0.00816894717284297
7.2	-0.00280457683865186	-0.0081068289502509	0.222117950506213	0.961573142913285	0.221836291246564	0.961538667654494	-0.000258128171466745	0.00810673447540657
7.3	-0.00429747011329213	-0.00760331477791952	0.36853981684645	0.915373352406443	0.368304143732617	0.915399557921829	0.000772083839518457	0.00780363206885663
7.4	-0.00547552238817198	-0.00679611648880941	0.506040124181918	0.847008988558483	0.505827063477101	0.847060040878388	0.00162688812442668	0.00724490038724542
7.5	-0.0064480209792283	-0.00596950930848942	0.631235876103676	0.758180129539725	0.631066595843071	0.758249670151075	0.00254100632435765	0.0066518786042275
7.6	-0.0069756851378205	-0.00500169321590022	0.741205705368832	0.650968282242447	0.740948526209157	0.651050530928053	0.00354593457830406	0.00560421134547582
7.7	-0.00734029384447335	-0.00387736287847462	0.833082811151141	0.528027583776494	0.832897522183797	0.528244400890117	0.00409991100889032	0.00437258968075208
7.8	-0.00717427162974431	-0.00265281361770746	0.904914163767166	0.392276667587507	0.904811192633022	0.392501746430404	0.00444392453555242	0.00301417546083883
7.9	-0.00682381831186884	-0.00146395558854607	0.954768931180865	0.247209268026553	0.954630939034648	0.247388659888067	0.00436519060574118	0.00178670559092211
8	-0.00599167911127133	-0.000375101270802901	0.98138305683393	0.0960312282183057	0.981359863886261	0.0962936763443795	0.00366191138671286	0.000750464276400209
8.1	-0.00514546515189316	0.000547322500115603	0.984402488304439	-0.0573950549958915	0.984431178826857	-0.0571396935623392	0.00278501982535372	0.00014270269414441
8.2	-0.00402915592660771	0.00123781433170293	0.963452623979149	-0.209446512906547	0.963500623462498	-0.209129662521438	0.00171753736038689	-0.000153476568391513
8.3	-0.00299201184628096	0.00176014034966601	0.919217256281552	-0.356343632360793	0.919268266929427	-0.35605665193979	0.000654118137109633	-4.47898736968975E-05
8.4	-0.00177765586074038	0.00204824950275948	0.852775997499436	-0.494631128227587	0.852873490662468	-0.494429170418775	-0.000262885368541464	0.000327496540372914
8.5	-0.000674030669005454	0.00214283357440901	0.76569551332652	-0.620853120964212	0.765746681672154	-0.620702414182013	-0.000938425845839685	0.000953215475562657
8.6	0.000611442364372655	0.00202370040187898	0.659911641926853	-0.732120114539303	0.660079748301357	-0.731882881345182	-0.0012037861298833	0.00186093757778563
8.7	0.00178610693854034	0.00173044754148077	0.538196641422013	-0.825544233338878	0.538455461812185	-0.825328523372305	-0.000975755002241252	0.00285013468623228
8.8	0.00316093725658567	0.00120414434757011	0.403656011707412	-0.898961755323991	0.403841058019945	-0.898822468809096	-0.000371708699645153	0.00359930427603774
8.9	0.00451515820412179	0.000344714625904221	0.259294657759259	-0.950713543594047	0.259473479599057	-0.950543278370298	0.000868085314380613	0.00426009827870167
9	0.00605989484695977	-0.00110675141796849	0.108534644466061	-0.979242546971909	0.108842805158002	-0.979195576511585	0.00269242905090924	0.00442255039196984
9.1	0.00733689200154711	-0.00290672980101355	-0.0446378460895892	-0.9841817732629	-0.0443288075538192	-0.984140374104799	0.00490004974188931	0.00388668373548706
9.2	0.00831543462002329	-0.00502899342812628	-0.196904311560774	-0.965231081631525	-0.196556803670608	-0.965208321312902	0.00715198573693063	0.0025108953428195
9.3	0.00868778312124331	-0.00705031775031726	-0.344276992691071	-0.922914970089005	-0.343925133905954	-0.922888951663207	0.00906872564460446	0.000450476407071813
9.4	0.00871004315626896	-0.00902744609547807	-0.483198814936868	-0.858281412371863	-0.482875523985807	-0.858371811692778	0.0102843455887276	-0.00228469253598678
9.5	0.0080664185224765	-0.0105107964510837	-0.6103890637924	-0.772813147005201	-0.610152044998941	-0.772863078083567	0.0102084543927507	-0.00527559104734471
9.6	0.00737343471014447	-0.0117144139839244	-0.722894946451828	-0.66862683209637	-0.722583101533865	-0.668765077060245	0.00919025084406728	-0.00788983384889702
9.7	0.00642618920007848	-0.0123681694057178	-0.817768797815771	-0.548318654798632	-0.817480872665415	-0.548551202475924	0.00711574648501847	-0.0102999769855652
9.8	0.00551425125981771	-0.0128050534400181	-0.892857962585842	-0.414802214331289	-0.892604341868895	-0.414970812417942	0.00420268225497462	-0.0119493813831845
9.9	0.00457365631634657	-0.0127425967905857	-0.946358726681838	-0.271252187862256	-0.946105970577976	-0.271460644070934	0.000879604205071392	-0.0126288797329608
10	0.00377966416305087	-0.0126545862083498	-0.976895584974359	-0.121102409056816	-0.976741285990779	-0.121464643481966	-0.00262456286650038	-0.0123171958711361
10.1	0.00303460425473969	-0.0123214376987229	-0.983686784209549	0.0319305756307667	-0.983622578009814	0.0314989820903647	-0.00596756873708201	-0.0109812863231054
10.2	0.00251122932215025	-0.0120955444374106	-0.966835224385222	0.184156079194432	-0.966712651213867	0.18372487411897	-0.00885049735898259	-0.0088815722586529
10.3	0.00191387070291275	-0.011772392360987	-0.926492542005463	0.331954322001602	-0.926509165760282	0.331412538711352	-0.0112363972421039	-0.00630753549130091
10.4	0.00142378207363093	-0.0117592128597727	-0.863699985860534	0.471562048386156	-0.86383604757692	0.471050280748654	-0.0128800801378896	-0.00347296316454119
10.5	0.000875025277715325	-0.0116446166499596	-0.780064471179045	0.599820079669999	-0.780237084435992	0.599387634829657	-0.0135607008706567	-0.000587122276420117
10.6	0.000412004221496022	-0.011727504386629	-0.677499171290524	0.713482893188984	-0.677771478116662	0.71315254824701	-0.0134983397062824	0.00229800582717696
10.7	-9.54956578919926E-05	-0.0116073219350331	-0.558558266897999	0.809923217280969	-0.558858792709277	0.809613533740314	-0.012547200778288	0.00515578891976192
10.8	-0.000481788326266887	-0.0117575886339055	-0.426075669398914	0.886674817550669	-0.426426419703472	0.886376332901674	-0.010846702110577	0.00764889628350963
10.9	-0.00104182505751806	-0.0117423504993587	-0.283375467888878	0.941982101601823	-0.283765769199862	0.941858996220226	-0.00873912042971646	0.00965996751495021
11	-0.00147529427216752	-0.0119846077267744	-0.133729210967202	0.974505547068597	-0.134166299266968	0.974414797190981	-0.00601588304861407	0.0110440763663952
11.1	-0.00196517887258229	-0.0120884841780644	0.0191394744343363	0.983254148427354	0.018650672292404	0.983267522827601	-0.00298123473615465	0.0117277798372157
11.2	-0.0024760188395833	-0.0124544352664815	0.171418842799042	0.968319876008693	0.170961692619201	0.968392875195341	0.000311659136583043	0.011588045765681
11.3	-0.00312931500593636	-0.0127160717040843	0.319493737313412	0.929988281540675	0.319034660401897	0.930124852328604	0.0036654462746486	0.010709408123656
11.4	-0.00403832068502437	-0.0130344069643469	0.459923804883153	0.869146906595893	0.4595199709022	0.869260064876276	0.00665568830040108	0.00922260178853883
11.5	-0.00511311492945423	-0.0129350568585405	0.589111562161263	0.787071034047315	0.588793024084296	0.787373280231687	0.00908111427530491	0.00714079801401312
11.6	-0.00629388070600136	-0.01288265378794	0.703925740319234	0.686113492644501	0.703710479354373	0.686441148724775	0.0107993145775665	0.00465947697972689
11.7	-0.00755318786039054	-0.0123031899190756	0.80179274338469	0.56858350964133	0.801589608054965	0.568889943022473	0.0118290277644701	0.00194341830152114
11.8	-0.00889975827590259	-0.0115956940848437	0.880316132805439	0.437131663603319	0.880134428940344	0.437582314282764	0.0119940333173265	-0.000904866462653651
11.9	-0.0100068128717453	-0.0102952215935871	0.937379623766418	0.295254173723041	0.937273891847977	0.295703900794986	0.0112972879569721	-0.00338235181868896
12	-0.0113455314578189	-0.00897627227643507	0.971778907355773	0.146384000118437	0.97175018194828	0.14674830549544	0.0100912220892949	-0.00565205815904001
12.1	-0.0120670301847255	-0.00722871010027287	0.982640149524439	-0.00615871193197721	0.9825692701849	-0.00577415200715175	0.00853698605534326	-0.00753772754016366
12.2	-0.0126969894725325	-0.00565454865266194	0.969738120595369	-0.158571424506435	0.96975566066806	-0.158273472610057	0.00646906909723685	-0.00898780281477394
12.3	-0.0130361840501962	-0.0038585792363867	0.933193598851115	-0.307058650119544	0.933313143041444	-0.306752078506115	0.00425037406529721	-0.00997294162043652
12.4	-0.013246059704659	-0.00221813519019209	0.874421300892752	-0.448104466968986	0.874484476633734	-0.447734877537079	0.00192006941662979	-0.0104827859550071
12.5	-0.0129521952454999	-0.000564552916980686	0.794181642861513	-0.578377803698931	0.794522139019118	-0.577987401132281	-0.000418012007054489	-0.0106151714862475
