# GHZ S RI R 50
0.2	-0.000268733339618203	-0.000175816248207172	0.949232103034551	-0.307942615936606	0.949009811020405	-0.307917190415306	-0.000254582148125148	-8.9298797432935E-05
0.3	-0.000389725684802047	-9.38009091852155E-05	0.889293179780366	-0.451621151975153	0.889136954470905	-0.451525771340256	-0.000442219233621912	-0.000208155624015212
0.4	-0.000273719434609737	-7.62600827054513E-06	0.807862348654429	-0.583929537230149	0.807874144593056	-0.583954657554112	-0.000458725572855928	-0.000177734840509702
0.5	-0.000295826220281146	4.49551385812245E-05	0.707139710820532	-0.702323065095308	0.706984652221787	-0.702221580226603	-0.000449838791494539	-0.000127159183258589
0.6	-0.000272149356549769	0.000118431472657862	0.589150685362346	-0.803382237125533	0.589031404098186	-0.803220506905647	-0.000496234987050281	-0.000154579158162845
0.7	-0.000225490170671952	0.000339731210189065	0.457054241424367	-0.88476321627754	0.457035465815773	-0.884650703062708	-0.000477371294815127	-0.000158586714294518
0.8	1.71319010747984E-05	0.00037184749191404	0.314004931645416	-0.944794737274193	0.31397355608537	-0.944604971360312	-0.000517074763176042	-9.53161761694238E-05
0.9	0.00017229250000687	0.000457145558376273	0.163415979303473	-0.98180147172926	0.163350928483881	-0.981709544396251	-0.000628403964034837	-0.000121040119233819
1	0.000394735292546298	0.00032211254520767	0.00893894489468324	-0.994917895374244	0.00888729082506722	-0.994886423605969	-0.000674523344056301	-0.000105325836920702
1.1	0.000529657517059305	6.81430528356702E-05	-0.145526417288081	-0.984146936908138	-0.145542168258206	-0.984016480911661	-0.000875411602092636	-9.16235174085436E-05
1.2	0.00075231883072716	-0.000853224315664001	-0.296680150103959	-0.949360142433251	-0.296603767767938	-0.949334048726711	-0.000637163203171582	0.000303851823669729
1.3	0.00080845876544657	-0.00245684614067295	-0.440408999496817	-0.891540548389942	-0.4403859645213	-0.891533935439315	0.000574125949357786	0.000863855479703856
1.4	0.000598860906895036	-0.00434416781993689	-0.573166000695055	-0.812205287975119	-0.573141822464165	-0.81218365572646	0.00225983360338343	0.000502616636921489
1.5	0.000190317251940913	-0.0052668292643505	-0.692322930404292	-0.713220434888686	-0.692221159652668	-0.713135479155014	0.00375214522146527	-0.000576076861067647
1.6	-0.000327978186868423	-0.00555050277829771	-0.794507864698197	-0.596873830441354	-0.79443378494214	-0.596813812653599	0.00367943877412934	-0.00184128312759143
1.7	-0.000793380437200648	-0.00536463359658139	-0.876986634812313	-0.466683866149688	-0.877150802714018	-0.46616768924373	0.00330804580195045	-0.00272603673100078
1.8	-0.00139327417229603	-0.00514955461741327	-0.938834244958649	-0.324409903819243	-0.938722988722154	-0.324408569698854	0.00249231178924453	-0.00353594874188405
1.9	-0.00197697057118861	-0.00475877320894262	-0.977553730864818	-0.175148826680401	-0.977646478047292	-0.174661238763428	0.00154696726841026	-0.00395121329711627
2	-0.00259207209709674	-0.00438890162687022	-0.992626964113507	-0.0206890066106258	-0.992638879573183	-0.0206431495909474	0.000750151255679719	-0.00422192739760189
2.1	-0.00321784453420993	-0.00385111981663618	-0.983613903466168	0.133627809682318	-0.983651988641057	0.133664917832257	-0.000187973022098638	-0.00425674113287718
2.2	-0.00395010431399427	-0.00330859038186579	-0.950903063629596	0.284560131970383	-0.950827949098416	0.284622893768397	-0.000835151808321734	-0.00408477460443134
2.3	-0.0046271456138059	-0.00256151903480959	-0.895286593765407	0.428061945064299	-0.894904177386392	0.4285749455478	-0.00151356773873587	-0.00405634387535396
2.4	-0.00533659336056394	-0.00172550507789113	-0.817064780161569	0.562830962628562	-0.817331700875271	0.562245320349525	-0.00232717403208887	-0.00393613955147274
2.5	-0.00577272629634945	-0.000585997548816436	-0.719973855881145	0.682657346031035	-0.72018778253637	0.682147686530255	-0.00280610176018312	-0.0039460503990393
2.6	-0.00595853810465447	0.00062286666622073	-0.605596918659732	0.785681993834233	-0.605490930614119	0.785499228050247	-0.00321447670536821	-0.00377138238738676
2.7	-0.005599169682693	0.00180771985917411	-0.475718944811672	0.870257385586854	-0.476168234865118	0.869850844891917	-0.00350102658848694	-0.0035298951678428
2.8	-0.00472806943685907	0.00267795008956734	-0.336099358881363	0.932948218248444	-0.335431675319319	0.933106491026263	-0.00376604489822634	-0.00321031526114183
2.9	-0.00329401110112111	0.00314836556768824	-0.186633094655442	0.973755896689343	-0.186664407766627	0.973668574308463	-0.00344916652514962	-0.00249578453978784
3	-0.00180698894052236	0.00310141128687845	-0.0324461964408259	0.990869364474933	-0.0331472468972464	0.990711482980507	-0.00284104890170297	-0.00186991342008037
3.1	-0.000281744324407684	0.00276431013168696	0.120276061113955	0.98379396589556	0.120866556086473	0.98377556433013	-0.00189663786964908	-0.00148890109041074
3.2	0.000881660246720839	0.0019365425545179	0.272040445597586	0.952962138215686	0.271985596284914	0.952901903333978	-0.00126092268348818	-0.0014295047284391
3.3	0.00195401585629064	0.000922450255229325	0.416780031385581	0.899020680169208	0.416642888142211	0.899006639771825	-0.000460194830079082	-0.00148777443647257
3.4	0.00254934151826523	-0.00035154736990972	0.551195306296738	0.823350444146052	0.551033268338882	0.823468531916504	0.000413304266360678	-0.00204529841538777
3.5	0.00294697427805891	-0.00166519272111387	0.672169509234938	0.727860423139716	0.672089996779815	0.727899274287723	0.00097512957549284	-0.0027462417566389
3.6	0.00275933699005881	-0.00295789421353092	0.776482730316234	0.615120688110542	0.776722943906945	0.614671846747828	0.00118933271879872	-0.00352186618005837
3.7	0.00237778953274362	-0.00420547240922177	0.862768273236248	0.486502757996419	0.862650253173182	0.486645987695442	0.00122227204593557	-0.0042246133170256
3.8	0.00151607895138134	-0.0052910289213219	0.927516667877077	0.347200488503998	0.927572816978918	0.346821384623019	0.00100638734296811	-0.00500417623892383
3.9	0.000622934036094849	-0.00617132296069721	0.970230886758116	0.197861762575602	0.969993709542306	0.198529271136871	0.000197020014592466	-0.00597420830177047
4	-0.000729262318272386	-0.00679110292640348	0.989083843771019	0.0456724317876035	0.989045089509785	0.0457753068903876	-0.000572495486423146	-0.00663874608016851
4.1	-0.0021658266655619	-0.00722725555330909	0.984195850416213	-0.108348525071032	0.98401168269065	-0.108221137483663	-0.00153884180143986	-0.00726430347570042
4.2	-0.00401687791978625	-0.00731346337861335	0.955034607904717	-0.260407683154157	0.955070768118426	-0.25975443297619	-0.00264018924491314	-0.0077366065501497
4.3	-0.00586618446546448	-0.00717306379515963	0.90326915319305	-0.404804581710566	0.903133592169327	-0.404693311574328	-0.00391904650161575	-0.00827340910087318
4.4	-0.00795886415899679	-0.00650576024835338	0.829430804984968	-0.539976868370743	0.829265973193139	-0.539843371208407	-0.005480817327709	-0.00858019223293543
4.5	-0.00985805048702241	-0.00543282992584426	0.735579730818045	-0.662131344415777	0.735391366042948	-0.661958037674199	-0.00710693174108205	-0.00867277558840689
4.6	-0.0117338627581721	-0.00379169139098028	0.623374646840843	-0.768613787030432	0.623717279467808	-0.767916992333214	-0.00892917529325309	-0.00856614093927022
4.7	-0.013143266310118	-0.0018848364973722	0.49691094698896	-0.855715795094231	0.496927886678433	-0.855360287999578	-0.0108349843469104	-0.0082400684720793
4.8	-0.0141571069590777	0.000579322318803829	0.3578143103274	-0.922237205340804	0.358036084917205	-0.921921347796587	-0.0125619299929371	-0.00750345001593255
4.9	-0.0142275009117524	0.00307138373132328	0.210796734559318	-0.965982571110132	0.210576915146718	-0.965990072991863	-0.0138171466191103	-0.00637274017838608
5	-0.0135531035102766	0.00551376445186406	0.0581804962364988	-0.986845551627889	0.0583578348019762	-0.986600658582851	-0.014399204322102	-0.00475795327600473
5.1	-0.0119961040276605	0.00757948571242389	-0.095428195664166	-0.983967231702275	-0.0950965885908927	-0.983742515045162	-0.0144198306079514	-0.00314669971367054
5.2	-0.0100200284964046	0.00939402186649352	-0.247049029931587	-0.957207082508041	-0.246557532142524	-0.957180801966509	-0.0142373185121081	-0.00153276677397136
5.3	-0.00770210938467745	0.010595655035837	-0.392516936323574	-0.907271163140903	-0.392176763999605	-0.907487513860511	-0.0136632651229434	-8.3190060554777E-05
5.4	-0.00522623753463405	0.0116029408855883	-0.528579070137461	-0.835401893117697	-0.528366669968667	-0.835602665725838	-0.0130582801775223	0.00117899362236675
5.5	-0.0026612541989806	0.0120438645400898	-0.651819623714479	-0.743187238757216	-0.651581031347116	-0.743381994450365	-0.0125086506559431	0.00219852671115177
5.6	-8.65590153337222E-05	0.0123107918410905	-0.75907721722469	-0.632941054694062	-0.758887796786102	-0.633112896055649	-0.012062445724067	0.00323341835396455
5.7	0.00238671906801364	0.0119355823621293	-0.848089176939968	-0.507449100222637	-0.84796009664129	-0.507668796510962	-0.0115988224233657	0.00443557927494663
5.8	0.00468221866590433	0.0112824645596137	-0.916401457528544	-0.369571123736515	-0.916333803492773	-0.369855845793036	-0.011015445915188	0.00569579766217851
5.9	0.00674415468350393	0.0100636905811256	-0.962586424574787	-0.223001873937985	-0.962600911495281	-0.223085413494651	-0.0103794314884437	0.00689876248518349
6	0.00852320380642487	0.00857904587572987	-0.985557080060583	-0.0709945672321494	-0.98543796777655	-0.0710525779756348	-0.00968104679883458	0.00815518959933258
6.1	0.0098629199821295	0.00665658625159922	-0.984484914538135	0.0828012206767472	-0.984358460391259	0.0826528907437106	-0.00863546479844875	0.00923478026657595
6.2	0.0105952347217622	0.00451184361102892	-0.959550098136042	0.234595336019355	-0.959536464180027	0.23439277581184	-0.00749544010918167	0.00985362982490198
6.3	0.0106269637536553	0.00205093000832953	-0.911465511525784	0.380596491381438	-0.911461037304988	0.380411409862249	-0.00631878276817659	0.00995230527179562
6.4	0.0100685777891133	-0.000382729265954008	-0.841315555572489	0.517384680523038	-0.841283967954209	0.517174317589323	-0.00542024662114477	0.00960213012698003
6.5	0.00893066435629713	-0.00277144804736166	-0.750728429339379	0.641596414019498	-0.750752584210839	0.641392637354337	-0.00472876073927738	0.00908784602684009
6.6	0.00755996342351973	-0.00471052126823675	-0.642039697684439	0.75028682515149	-0.64211352357347	0.750035078338429	-0.00412046018034442	0.00869504676562982
6.7	0.00582997657562653	-0.0063551838559547	-0.517746532660508	0.840732794051364	-0.517849248964579	0.840511990479635	-0.00371260545034514	0.00835979497683149
6.8	0.00405815559358512	-0.00746157978080108	-0.380984083380426	0.910836661003997	-0.381125542592383	0.910666222779729	-0.0033834037591255	0.00829863828959547
6.9	0.00213493426526582	-0.00822755062844804	-0.234994327286993	0.958794815905361	-0.235220620501617	0.958684623555481	-0.00280935777970239	0.00837422793779012
7	0.000411604220501605	-0.00848995530418625	-0.0834194944984366	0.983506735751373	-0.0836289932815213	0.983417106588688	-0.0020419215351156	0.00827235616106455
7.1	-0.00131155432998315	-0.00846064725889429	0.0702011013868616	0.984501297405182	0.0699994192804315	0.984368296121122	-0.00126473451901229	0.0081672932667764
7.2	-0.00280482778794363	-0.00810714437998478	0.222116740233041	0.961568756643822	0.221835082277477	0.96153428148901	-0.000258283919862969	0.0081050288521689
7.3	-0.00429785483891934	-0.0076034501053963	0.368537382243386	0.915369254277779	0.368301710235272	0.915395459494219	0.000771967868057209	0.00780190880049593
7.4	-0.0054759328434507	-0.00679604241772234	0.506036663252348	0.847006013173807	0.505823603407611	0.847057064957668	0.00162675392804474	0.00724317597303321
7.5	-0.00644886679014711	-0.005968941871625	0.631233052569908	0.758177983964772	0.631063772846032	0.758247524195782	0.00254045700472159	0.00665039008629465
7.6	-0.00697577035226638	-0.00499989162641601	0.741201941758877	0.650965777000847	0.740944763717292	0.651048025156106	0.00354583709929707	0.00560353098836473
7.7	-0.00733884346999998	-0.00387561527171141	0.833078162242756	0.528026155865453	0.832892873874687	0.528242971706913	0.00410073318580646	0.00437204637848614
7.8	-0.00717162689324686	-0.002651961449133	0.904909324315866	0.39227650357276	0.904806353247184	0.392501581202236	0.00444551126232585	0.00301318431125326
7.9	-0.00682040911778662	-0.00146494141730937	0.954764547165276	0.247209965451194	0.954626555265726	0.247389356324339	0.00436730884753346	0.0017844104154599
8	-0.00599055433989106	-0.000378984972433406	0.981377953185825	0.096032059503675	0.981354760003236	0.0962945062682491	0.00366265606615622	0.000746120125596409
8.1	-0.00514677199964835	0.00054486963050341	0.984397346591172	-0.0573919022601649	0.984426036221335	-0.0571365421205391	0.00278391889165699	0.000139424481928542
8.2	-0.00403108883432334	0.00123664497963347	0.963448818231689	-0.209442136638568	0.963496816374267	-0.209125287578494	0.00171602746517655	-0.000155956559782322
8.3	-0.00299406207429792	0.00176021519336091	0.919214661574811	-0.356338794691525	0.919265670967035	-0.356051815298897	0.000652447654334107	-4.63950321766779E-05
8.4	-0.00177876290389372	0.00204931452485718	0.852773976387096	-0.494626075851629	0.85287146843897	-0.494424118588357	-0.000263800995440257	0.000326770134017841
8.5	-0.000674938127375675	0.00214261140795863	0.765694610593724	-0.620846414084651	0.765745777974183	-0.620695707814542	-0.000938858537075549	0.000951497127758237
8.6	0.000609143278432685	0.00202491760420434	0.659913217502232	-0.732113971578401	0.660081322006812	-0.731876738327551	-0.00120486431024572	0.00186014120182588
8.7	0.00178449603948538	0.0017332190926663	0.538199184346433	-0.825538928718498	0.538458002833887	-0.825323218100313	-0.000975971646140086	0.00284997097746649
8.8	0.00316052797403606	0.0012079955453708	0.403659356417765	-0.898956931024414	0.403844401450547	-0.898817643993878	-0.000370990274962105	0.0035993203588802
8.9	0.00451674440949786	0.000349165956283914	0.259299224560827	-0.950708917122948	0.259478044837138	-0.950538651442368	0.000870097320787811	0.00426011859754287
9	0.00606346724233692	-0.00110337759123285	0.108541103762348	-0.979239923100971	0.10884926354131	-0.979192950632621	0.00269567830882604	0.00442149348948436
9.1	0.00734184606534817	-0.00290487142223235	-0.0446321244271597	-0.984180747487749	-0.0443230865323709	-0.984139346605242	0.00490401267640774	0.00388439164886053
9.2	0.00832056923571214	-0.00502981397596273	-0.196898368844045	-0.965230703615004	-0.196550861636322	-0.965207941305005	0.00715563098405071	0.00250674568814311
9.3	0.00869126851245228	-0.00705312017682276	-0.344270559567027	-0.922915838305801	-0.343918701461662	-0.922889817656575	0.00907075220541606	0.000445378542442521
9.4	0.00871149492892622	-0.00903112555892494	-0.483192322162815	-0.858284466350211	-0.482869030726957	-0.858374863274417	0.0102849169694634	-0.00228967420035672
9.5	0.00806461019763507	-0.0105136104426479	-0.610384836700901	-0.772817702076237	-0.610147817366484	-0.772867631725448	0.0102068963339422	-0.00527954064063199
9.6	0.00737228170931602	-0.0117143111150733	-0.7228911415923	-0.668631217409103	-0.722579295801634	-0.66876946056148	0.00918967717129452	-0.00789148248643013
9.7	0.00642621820045602	-0.0123679093767499	-0.817765652978718	-0.548324212016232	-0.817477726183883	-0.54855675794582	0.00711621766982862	-0.0103016421856901
9.8	0.00551492617981482	-0.0128050377758642	-0.892856338128926	-0.414808727619107	-0.892602715956385	-0.414977324225426	0.00420370021547469	-0.0119512230525185
9.9	0.00457508611292153	-0.0127438220278262	-0.946359288645149	-0.271258620155499	-0.946106530671503	-0.271467075305868	0.000881519482311728	-0.0126315673908491
10	0.00377851659306646	-0.0126577759808307	-0.976896471516073	-0.121107518270007	-0.976742170470562	-0.121469752472441	-0.00262417894437104	-0.0123216498177871
10.1	0.00303204888110899	-0.0123219670065181	-0.983688618107453	0.031924464530819	-0.983624409096765	0.0314928706760397	-0.005967799153356	-0.0109841916169232
10.2	0.0025094328883389	-0.0120948363592546	-0.96683896851893	0.184150598091487	-0.966716392351443	0.183719392611892	-0.00884999964108565	-0.00888433484671901
10.3	0.00191306566296722	-0.0117711086602874	-0.926497394540423	0.331950278597976	-0.926514015352914	0.331408493451938	-0.0112352696905795	-0.00631059403412373
10.4	0.00142449203675475	-0.0117583519391821	-0.863704682533208	0.471559391436605	-0.863840742260172	0.471047621683924	-0.0128780160367738	-0.00347696471680261
10.5	0.000875565087946393	-0.0116461154283854	-0.780069582271252	0.599816625480129	-0.780242193296864	0.599384178757704	-0.0135591252116584	-0.000593638355264189
10.6	0.00033296911951833	-0.0117006237862566	-0.677504013538976	0.713483835225135	-0.677776320517956	0.713153488137607	-0.0135430954355812	0.00224588696491113
10.7	-9.83721114296986E-05	-0.0116077709892846	-0.558565407398573	0.809923511887597	-0.558865932724471	0.809613825250016	-0.0125498383705129	0.0051494922637007
10.8	-0.000484538045377261	-0.0117562607893254	-0.426082391420299	0.886676556206982	-0.426433141711752	0.886378068307215	-0.0108500054398462	0.0076442880013298
10.9	-0.00104354794724496	-0.0117401941889602	-0.283382084555429	0.941984638573913	-0.283772386885111	0.941861530425565	-0.00874210904666041	0.00965656788007491
11	-0.00147642800195431	-0.0119822256991195	-0.133736343428217	0.974510847990948	-0.134173433907118	0.974420094719544	-0.00601872271675033	0.0110415160778174
11.1	-0.00196528166523277	-0.0120859818090454	0.0191351111884102	0.983261219130543	0.0186463055137418	0.9832745913891	-0.00298328030305535	0.0117259423520843
11.2	-0.00247550860358362	-0.0124523770356639	0.171416135527332	0.968327184990348	0.170958981928623	0.968400182844653	0.00031018225297411	0.0115864437650571
11.3	-0.00312836348423588	-0.0127144727906934	0.319492250555298	0.929996003448941	0.319033169916136	0.930132573356316	0.00366449168955753	0.0107080238080795
11.4	-0.00403712460645116	-0.0130338315048532	0.459923777663238	0.869155712809656	0.459519940014208	0.869268870282889	0.00665539629795827	0.00922087507594071
11.5	-0.00511391445640906	-0.0129344997059437	0.58911535767839	0.787079598291986	0.588796815999459	0.787381846605228	0.00907976737660352	0.00713914226723367
11.6	-0.00629365908174365	-0.0128800407252069	0.703930464454792	0.686119825730767	0.703715201368499	0.686447484141082	0.0107990522017758	0.00465931185902631
11.7	-0.00755121096666891	-0.0123007276221758	0.801798325466354	0.56858917445296	0.801595188084504	0.568895609987572	0.0118300347201997	0.00194307945773146
11.8	-0.00889622290326998	-0.0115941909721996	0.880323166017494	0.437136431921858	0.880141460071847	0.437587086250676	0.0119961282687768	-0.000905699178732157
11.9	-0.010001585047788	-0.0102965032371646	0.937388522847367	0.295256907410612	0.937282789957676	0.295706638749668	0.0113009377868804	-0.00338504936899344
12	-0.0113436159350239	-0.00898142040017457	0.97178693180178	0.146383401907994	0.971758206827327	0.1467477102457	0.0100925507421367	-0.00565768898258559
12.1	-0.0120677420723508	-0.00723291709752099	0.982647698446513	-0.0061596832764863	0.982576818923626	-0.00577512032841737	0.00853673599490311	-0.00754272507519349
12.2	-0.0126991069133518	-0.0056580133079331	0.969745885500767	-0.158574223476988	0.969763426175917	-0.158276269146912	0.00646784509478783	-0.00899252216857861
12.3	-0.0130394114247133	-0.00386078266430542	0.933200473323068	-0.307063630636193	0.933320019303264	-0.306757056813402	0.00424824167072995	-0.00997676019829387
12.4	-0.0132490303890024	-0.00221900041545492	0.874425831749476	-0.448111044910594	0.874489009367368	-0.447741453077024	0.00191826804577784	-0.0104853440969582
12.5	-0.0130178496105497	-0.000479885040338789	0.794190191106266	-0.578392497197594	0.794530695376259	-0.578002090820247	-0.000504231775213804	-0.0105516113177807
