# GHZ S RI R 50
0.2	-0.000334216664296554	-3.82744243269572E-05	0.9486657188806	-0.308089473837107	0.948443544791009	-0.308063990839545	-0.000320112828105043	4.81114639654761E-05
0.3	-0.000360629966271942	6.13836037118913E-05	0.888564062809181	-0.45168885087302	0.888407971868835	-0.451593468308945	-0.000413192621778093	-5.28999071895241E-05
0.4	-0.000115099875799131	9.37025117176297E-05	0.80696043648626	-0.583808299779173	0.806972212098578	-0.583833404982729	-0.00030003707270312	-7.62016744376433E-05
0.5	-0.00018718297735591	-9.32265262475425E-05	0.706260677530845	-0.701825783800553	0.70610579763758	-0.701724356644829	-0.000341126237568465	-0.000265185339837483
0.6	-0.000335473722220292	0.00012110756912281	0.588429735585817	-0.802795564511486	0.588310600074209	-0.802633952237843	-0.00055949818297892	-0.000151611299390456
0.7	-0.000202250563742138	0.000425670791866498	0.456353415520814	-0.884005686229009	0.456334689739417	-0.883893280214274	-0.000454130731743421	-7.20242919417594E-05
0.8	0.000123366219730892	0.000484222947873962	0.31343378469753	-0.943799132467843	0.3134024880517	-0.943609573785902	-0.000410490897333316	1.7711320751218E-05
0.9	0.000488945138390266	0.00058015062657772	0.163138256129748	-0.980606221681191	0.163073292534519	-0.980514402379754	-0.000311098072812786	2.44487937419699E-06
1	0.00086191109959543	-8.89961712215042E-05	0.0089732704505796	-0.993849858708375	0.00892167043244898	-0.993818422999555	-0.00020548426271933	-0.000516001442657683
1.1	0.000398554548278378	-0.000337501685164576	-0.145481547654425	-0.982998136800121	-0.145497264308129	-0.982867828738475	-0.00100127932113673	-0.000495584652325441
1.2	0.000542567229603647	-0.000965712372237123	-0.296330378702494	-0.948106182264069	-0.29625409523572	-0.948080125786115	-0.000844926176120933	0.000192834231147504
1.3	0.000567664009670459	-0.00232359145883107	-0.439724790829092	-0.890369863304364	-0.439701787818945	-0.890363257155008	0.000335901703416391	0.000995463930555215
1.4	0.000435705072539948	-0.00404334440489716	-0.572262498551445	-0.811270541228841	-0.57223835590387	-0.811248932095243	0.00210019122178845	0.000797728544151076
1.5	-0.000243522663483112	-0.00475867574256481	-0.6914242420041	-0.712305926863	-0.6913226032023	-0.712221079916326	0.00331750722200987	-7.29124844538914E-05
1.6	-0.000171727812266537	-0.00464826575006751	-0.793132149752164	-0.596014271283243	-0.793058198882957	-0.595954340748049	0.00383340624130035	-0.000954422193265302
1.7	-0.000291146881267696	-0.00483527269945783	-0.875359780945078	-0.466246814731666	-0.875523874215101	-0.465731553267111	0.00380401984666394	-0.00220511795654905
1.8	-0.000797778151580159	-0.00495401427037533	-0.937158360624256	-0.324363911680855	-0.937047284164088	-0.324362523274548	0.00308154401405343	-0.00334430303339705
1.9	-0.00140380256449214	-0.00505079562285449	-0.975902889161321	-0.175354658341995	-0.975995730388009	-0.174867896516852	0.00211397815672578	-0.00424609655620638
2	-0.00288603977488108	-0.00489225190817728	-0.99068809426465	-0.0212259336273377	-0.990700013247501	-0.0211801725662642	0.000447566623667501	-0.00472655496417308
2.1	-0.0034244288406101	-0.00358558032413343	-0.98190596358808	0.132336670857054	-0.981944016400063	0.132373668968646	-0.000401811728241451	-0.00398796306041768
2.2	-0.00380468946115201	-0.00307998756880572	-0.949609153027487	0.282950286007319	-0.949534241301199	0.283013028879058	-0.000696164118643981	-0.00385160742036815
2.3	-0.00432034246183268	-0.00247574637149308	-0.894321711436511	0.42622758947499	-0.893940575791886	0.42674020826035	-0.00121269815727971	-0.00396416526821609
2.4	-0.00486870518194402	-0.00196200947477919	-0.816384712954349	0.560712894588031	-0.81665035786515	0.560127926657405	-0.00186311641860312	-0.00416395488871099
2.5	-0.00590148097048618	-0.00136743006595708	-0.720003002908487	0.68009995109507	-0.720215591095941	0.679590780153953	-0.00293581397899429	-0.00471301192106193
2.6	-0.00653964274804999	0.000505045958832846	-0.606358427118618	0.783477754053089	-0.606252216880026	0.783295432464131	-0.00379583390567338	-0.00387823520470994
2.7	-0.00598226246945085	0.00205868228424547	-0.47682624445862	0.868282383799479	-0.477274203492476	0.867875466448999	-0.0038837693352763	-0.00326775516161488
2.8	-0.0048516154709031	0.00305660657425687	-0.337617147320515	0.931156451953867	-0.336950577243956	0.931315908126579	-0.00388595788773547	-0.00282003683183268
2.9	-0.00324990444334204	0.00347178572934925	-0.188703761425323	0.972271698002757	-0.188734837099644	0.972184396621073	-0.00339441375141336	-0.00216949805346181
3	-0.00173068421070853	0.00350682922262494	-0.0348754494618087	0.990273742265129	-0.0355757454223285	0.990114212244323	-0.00275394979013339	-0.00146799491384358
3.1	0.000129845046793043	0.00308117630594212	0.118112800651253	0.983597977859468	0.118703062739139	0.983580849923925	-0.00147503503997657	-0.00115762550402549
3.2	0.00132082329481282	0.00200498948429218	0.269772444467745	0.953112046247711	0.269717756688745	0.953051717464375	-0.000815751587883523	-0.001364566202719
3.3	0.00234658202062123	0.000803444069350357	0.414495061718072	0.899721288807652	0.414357997060166	0.899706925334051	-6.30184988642573E-05	-0.00161221510310583
3.4	0.00275720096035748	-0.000698993752036225	0.549185882452379	0.824716104897679	0.549023552162259	0.82483379737208	0.000623797522024176	-0.00239898416862667
3.5	0.00269231878028573	-0.00175330990531008	0.670836250618045	0.729366063967254	0.670756643519309	0.729404762433245	0.000720458021738134	-0.00283730959304637
3.6	0.00288797939300705	-0.00275105208671135	0.77510310280002	0.616719605299406	0.775344250948376	0.616271315719433	0.00131846870776672	-0.00331645151149446
3.7	0.00266950869228085	-0.00418619909290347	0.861707969278787	0.488552369509841	0.86158960582904	0.488695336445682	0.001513675501965	-0.00420673283256645
3.8	0.00184794974683791	-0.00544604259291428	0.927005169471162	0.349479894611545	0.9270622225179	0.349100799406981	0.00133749324092035	-0.00515906828743948
3.9	0.000905791083990308	-0.00666393628256454	0.970275093458007	0.200032420274301	0.970036374168968	0.200699743101583	0.000479512669282538	-0.00646636768682957
4	-0.00119797001899041	-0.00736660194302761	0.989110903521359	0.0477782072859867	0.989071925973127	0.0478810130055253	-0.00104136394828954	-0.00721286680850368
4.1	-0.00257054037032483	-0.0071130014460361	0.984860394627038	-0.10583214795522	0.984675824096951	-0.105705189575153	-0.00194321071296791	-0.00714701669616659
4.2	-0.00414431580040118	-0.00712761977860926	0.956413210801699	-0.258152341565053	0.956447722690589	-0.257498512465762	-0.0027658643015895	-0.00754509822021655
4.3	-0.00580635969850087	-0.00700036116862655	0.905082115805277	-0.402959134039147	0.904946158905102	-0.402848094946386	-0.00385397014489395	-0.00809453021576798
4.4	-0.00764441778160536	-0.00656054038226628	0.831449362224683	-0.538441205598279	0.83128406609213	-0.538307991023913	-0.00515736744230772	-0.00862756072097779
4.5	-0.00996112780484889	-0.00600645901097393	0.738267118081842	-0.660663927319756	0.738078054182503	-0.660490992501139	-0.00719475041841855	-0.0092382949970737
4.6	-0.0121873472937514	-0.00388301696185257	0.626558871400879	-0.768222440406648	0.62690017837066	-0.767523505869344	-0.00936414903896798	-0.0086590626401986
4.7	-0.0134707885645106	-0.00175282776494592	0.499960210242578	-0.856104315924933	0.49997630463005	-0.855748096193337	-0.0111419931758963	-0.00811538184015549
4.8	-0.0143662563239256	0.000820318836350072	0.360704680146051	-0.923209864789733	0.360926144353671	-0.922892858633634	-0.0127473119777104	-0.0072740190180421
4.9	-0.014314003287391	0.00331496410901933	0.213647819837806	-0.967528948842316	0.213427548017065	-0.96753701279939	-0.0138778244806307	-0.00614893199567789
5	-0.0136800495954326	0.00586660305865863	0.0606715583004745	-0.989559335363198	0.0608488326873232	-0.989313317442748	-0.0145021058054226	-0.00443859084820256
5.1	-0.0117429661609623	0.00800813134009109	-0.0940573904851225	-0.986994500461435	-0.0937251936554126	-0.986768573272283	-0.0141537126553964	-0.00275541033619705
5.2	-0.00957124708823843	0.00954196155126461	-0.246275853991741	-0.96031606804278	-0.245782996148887	-0.96028895411917	-0.0137828721667408	-0.00142492121146771
5.3	-0.00726825000711967	0.0103969533455733	-0.392359926228184	-0.910560991226085	-0.39201841891423	-0.910777490017936	-0.013231770741928	-0.000325203096904198
5.4	-0.00518069980488731	0.0109979823306726	-0.529291126770648	-0.8388729022502	-0.52907775988472	-0.839074078424846	-0.0130260913988922	0.000526231475665069
5.5	-0.00346434361296025	0.0120822924567282	-0.653707745378875	-0.746037948595196	-0.653468244566552	-0.746233260745654	-0.013340912629814	0.00219879162071828
5.6	-7.0750210752734E-05	0.012923470023133	-0.76106163978725	-0.635130154653385	-0.760871587196082	-0.635302426110981	-0.0120776018835558	0.00381470302257477
5.7	0.00279017828265466	0.0122306870494778	-0.850460375399483	-0.509360330271378	-0.850330807250349	-0.509580641844928	-0.0112341282358799	0.00470547692052515
5.8	0.00522162471754983	0.0112322484392	-0.919258559713957	-0.370958653387287	-0.91919062584981	-0.371244273561603	-0.0105244931760553	0.00562741043963859
5.9	0.00718935404437327	0.00937123817500102	-0.965762238396117	-0.22349366138724	-0.965776792388492	-0.223577468433608	-0.00998838595965331	0.00620369501119276
6	0.00766626394674024	0.00781192003862291	-0.98817485556691	-0.0707610974757469	-0.988055455268442	-0.070819311323332	-0.0105840013398423	0.00739753540611675
6.1	0.00913414024462947	0.00702065392405047	-0.987243331180161	0.0830841936700386	-0.987116529834879	0.0829354409585058	-0.0094135450829234	0.00961027217921879
6.2	0.010331325008666	0.00505712381318783	-0.962401319383901	0.235591486503132	-0.96238770353729	0.235388305819023	-0.00780837306778113	0.010423275933523
6.3	0.010702799773981	0.00258093550137277	-0.913997915305191	0.382308879852995	-0.913993540779568	0.382123234081077	-0.00629163313938468	0.0105159249813289
6.4	0.0103793736442231	-0.000115414248323059	-0.843202114262287	0.519495021989485	-0.843170612289324	0.519284055454506	-0.00514591382514704	0.00990922076641147
6.5	0.00915421107747435	-0.00267319976100307	-0.752564273556819	0.64363450952147	-0.752588568534571	0.643430180366413	-0.00454132032496187	0.00922669096886921
6.6	0.00784922910491348	-0.00475529617593751	-0.643589172710025	0.753257410300666	-0.643663434908334	0.753004887640692	-0.00386418054682805	0.00870721445510762
6.7	0.00596220609854119	-0.00656291651377007	-0.518379543890928	0.844055526283618	-0.518482858163733	0.843834140956076	-0.00359782055500234	0.00821542370994683
6.8	0.00401479887459258	-0.00766103200457065	-0.380836046144399	0.914112508317394	-0.380978171975925	0.913941758924117	-0.00343099097530371	0.00816347176199213
6.9	0.00192450140627293	-0.00834682454671982	-0.2344031294551	0.961911795822779	-0.234630231305957	0.961801582957307	-0.00300981583547657	0.00831062344901112
7	0.000208301640216561	-0.00827996526287083	-0.0821555790252733	0.987101370813541	-0.0823659573339905	0.987011757875713	-0.00222337174805581	0.00854637835963458
7.1	-0.00124235458850897	-0.00828014751485288	0.0727716926596532	0.987498670228807	0.0725690454629208	0.987365721806055	-0.00115299454557984	0.00840234949096857
7.2	-0.00269424899469978	-0.00802485313125456	0.225187036891144	0.963751331409959	0.224904487444892	0.963717471416539	-9.6615485871216E-05	0.0082286046770667
7.3	-0.00417742012693274	-0.00758588345455408	0.37193273950077	0.916909384856977	0.371696491787236	0.916936276556329	0.000950463067498836	0.00785043169080079
7.4	-0.00542337079704212	-0.00687203204255435	0.509881526205836	0.848017927802171	0.509667996882188	0.848069727248606	0.00174160513467778	0.00718246262275268
7.5	-0.0066343688054522	-0.00584260428649843	0.635734391487243	0.757820514738793	0.635564924681312	0.757890871436186	0.00243143233139299	0.00678132222852505
7.6	-0.00676971717228795	-0.00466116611190188	0.744951987798423	0.649392958200591	0.74469465061847	0.64947630797279	0.00381598603182103	0.00592919737145928
7.7	-0.00687507458035448	-0.00375010058809628	0.83633902028486	0.525883586730788	0.836154211541976	0.526101423777001	0.00462145633497912	0.00447502215402569
7.8	-0.00658550260886484	-0.00284560724649186	0.90775415489531	0.389483702840701	0.907651870267419	0.389709508289706	0.00508028600792822	0.00278689051668019
7.9	-0.00635363510323308	-0.00222600063272419	0.956999970403187	0.24355037604345	0.956862550379234	0.243730567778801	0.00481638179130076	0.000977965305653118
8	-0.00678354483671661	-0.00128026054763198	0.982037689070646	0.0919832971666801	0.982015579296114	0.0922459100319975	0.00290342775040125	-0.000214285855515444
8.1	-0.00589283405648609	0.00070147840936386	0.98444108229677	-0.0609366661866847	0.984470694964091	-0.0606813441966752	0.0020416147948013	0.00027906547285826
8.2	-0.00439940487945286	0.00163469729456465	0.962936034964988	-0.213055225654	0.962985215700044	-0.212738468152132	0.00135047233166311	0.000225132413363406
8.3	-0.00302578870565757	0.00224893187358013	0.917849408001764	-0.359898691099337	0.917901527955015	-0.359611904971479	0.000619031110325788	0.000429221896358534
8.4	-0.00133008794915805	0.00225953455402731	0.850377224445466	-0.497651723545476	0.850475444107713	-0.497450257764566	0.000182734656573065	0.000532991995756163
8.5	-0.000826822333030884	0.00165780195788536	0.763216880376857	-0.622781765099232	0.763268479525796	-0.622631325743067	-0.00108767474057035	0.000468676072219902
8.6	0.000208547538990166	0.00234903066284347	0.657242411446495	-0.734092325340907	0.657411257897107	-0.733855733060823	-0.0016018763536913	0.00218784503226242
8.7	0.00181258361697355	0.00225167742870093	0.534893183803163	-0.826947588263124	0.535152612615719	-0.826732943940188	-0.000942516210576636	0.00337768071195637
8.8	0.00353009645492084	0.00166796588912789	0.400068679725097	-0.899466995955644	0.400254028464594	-0.8993285053881	1.14943130988168E-05	0.00406989481218122
8.9	0.00522404504673151	0.000528560915449131	0.255983917097342	-0.950342216520517	0.256163050840759	-0.950172725588877	0.00159648000138578	0.00444703052424347
9	0.00662951885269248	-0.00139793665476558	0.105339956239521	-0.97889620106962	0.105648048748937	-0.978850245011413	0.00328715827953831	0.00413233860740152
9.1	0.00782952476618438	-0.00331568030288371	-0.0482644386984535	-0.982810140905438	-0.0479556235843144	-0.982769948350807	0.00542512557979705	0.00347180405503527
9.2	0.00855555214035026	-0.00570282582561876	-0.200000232079749	-0.962871824539199	-0.199653240371073	-0.962850339768187	0.00742204286996774	0.00182267947855701
9.3	0.00855009677874508	-0.00775896995157413	-0.34665522634888	-0.920019795977123	-0.346303954014272	-0.919994984643075	0.00895340475271434	-0.000279608769716613
9.4	0.00812457920084578	-0.00980269333953718	-0.485084948394545	-0.85524108605487	-0.484762511064556	-0.855332356204896	0.00971186061020905	-0.00308246666617138
9.5	0.00672634433494253	-0.010230763257088	-0.61211719811868	-0.768848087390927	-0.611880863818658	-0.768898832941139	0.00888907108516122	-0.00501244812298714
9.6	0.00715302163386291	-0.0107879938972213	-0.723086173130103	-0.66415715973843	-0.722775723857368	-0.664296078602852	0.00898495330301432	-0.00697926454434904
9.7	0.00671562788570841	-0.0117863092862294	-0.816922717325261	-0.544137869883326	-0.816636387474719	-0.544370579310304	0.00741694293476344	-0.00972802753232292
9.8	0.00605562461818217	-0.0125675614020864	-0.891262952826309	-0.410908097436445	-0.891010617146378	-0.41107690343924	0.00475797732659355	-0.0117147158680353
9.9	0.00515885491454235	-0.0132154785346309	-0.943998156314498	-0.267423314991884	-0.943746895258234	-0.267631845266948	0.00147443101783632	-0.0130864143464973
10	0.00309110385411286	-0.0131350258374798	-0.972924770664971	-0.117915821100751	-0.972772134760161	-0.118276880371655	-0.00328392114855648	-0.0127766984842129
10.1	0.00277567073212156	-0.0118154877843048	-0.979435218401887	0.0335894576688228	-0.979372073487785	0.0331595867794636	-0.00618578147867822	-0.01045852852707
10.2	0.00276677618814846	-0.0117050104392823	-0.962506698059632	0.18500421617491	-0.962385354540872	0.184574599878104	-0.00854000024509126	-0.00847727050976723
10.3	0.00243528312146648	-0.0116464064171085	-0.921946791166552	0.331959246418018	-0.921964189274901	0.331419843991771	-0.0106436203933407	-0.00617586805993205
10.4	0.00209301707166309	-0.0121597413690464	-0.858915063927483	0.470332754330707	-0.859051094852904	0.469823645054063	-0.0121224956453225	-0.00388688194175241
10.5	0.000824042172461671	-0.012554982889456	-0.776281211533221	0.596973310051174	-0.77645301597788	0.596542954478889	-0.0135317212013189	-0.00153495090583499
10.6	-8.60045455680462E-05	-0.0121891849086986	-0.674641888585631	0.710522835741381	-0.674913068151803	0.710193881365154	-0.0139194052582244	0.00179367663419333
10.7	-0.000660577057305216	-0.0117148596400857	-0.556177884937268	0.806468409558509	-0.556477128667844	0.806160046025341	-0.0130326451003634	0.00498631563656839
10.8	-0.000965043463819827	-0.0114931392834633	-0.424474795200246	0.882638738181772	-0.424823908648795	0.882341458885255	-0.0112910825723587	0.00772112377242407
10.9	-0.00132269319035854	-0.0114980898731351	-0.283065570864645	0.937612506091277	-0.283454056145234	0.937489553822934	-0.00901313071647863	0.00979062517357409
11	-0.00172652886445436	-0.0115393742624801	-0.134312432494231	0.971012675760091	-0.134747921279811	0.970921770088468	-0.00628358883955252	0.0113962627683021
11.1	-0.00188218480128019	-0.0116328138336237	0.0184238719654739	0.979603990302312	0.0179368818859382	0.979616994599017	-0.00291645705664548	0.0120881005647691
11.2	-0.00225200201964212	-0.0121432239395032	0.169771582876844	0.964673905754564	0.169316161941185	0.964746158526408	0.000495755383765906	0.0118023390578742
11.3	-0.00284584852089839	-0.0125931658701906	0.316941480954531	0.926883087403571	0.316483967091506	0.927018479276687	0.00390352795209665	0.0107207381144077
11.4	-0.00393025834477902	-0.0132695124174269	0.456980245498711	0.866992872748553	0.456577575352336	0.867104998773124	0.00669999572915471	0.00889951777120945
11.5	-0.00561228826120075	-0.0126287904715707	0.586319506430747	0.784921847995608	0.586001776647969	0.785222743878099	0.00851239546973595	0.00738855262505322
11.6	-0.00600688978879761	-0.0122043101121433	0.700011127091718	0.684437189450818	0.699796225596801	0.684763185640125	0.0109879283439644	0.0052855124625533
11.7	-0.00689755434328313	-0.0119851107213562	0.797536122682935	0.568073395622002	0.797333128007748	0.568378231680101	0.0123735801569743	0.00223562223667109
11.8	-0.00807200020501699	-0.0116946235862521	0.876211360611731	0.437596008946551	0.87602927050917	0.438044654259108	0.0127107886860165	-0.00101270338300523
11.9	-0.0092805200618893	-0.0112171819379666	0.933541073297285	0.296192390964519	0.933434767729406	0.29664035126661	0.0119390986928742	-0.0042670752346066
12	-0.0121214374977684	-0.00995338984762978	0.967321741899567	0.148233275271699	0.967292213262035	0.148595976046318	0.00920671247252234	-0.0065937534822481
12.1	-0.0127205846538285	-0.00722795803360508	0.979046602453983	-0.00275742978575367	0.978974661606947	-0.00237452820171307	0.00781136380245139	-0.00746074557231962
12.2	-0.0130921626241437	-0.00545715865692542	0.967169403327068	-0.154613181290743	0.967185827942441	-0.154316129436235	0.00602657973249849	-0.00870947304440154
12.3	-0.0132045413402219	-0.00352088933575577	0.931417774081669	-0.302741829774287	0.931535842419255	-0.302435774174135	0.00405326885866096	-0.00955295367276791
12.4	-0.0130260751632008	-0.00207844381303031	0.873274026728139	-0.443209058475192	0.873335551319053	-0.442840446423058	0.00212775320159191	-0.0102575890284013
12.5	-0.0133247133467859	-0.00084791764795759	0.794866918582871	-0.572719660623604	0.795204474511114	-0.57232863659886	-0.000768005735365088	-0.0108177020877994
