# GHZ S RI R 50
0.2	-0.000212112677046487	-0.000159399642111725	0.949239632481367	-0.307966787639932	0.949017337736923	-0.307941357142175	-0.00019796261080377	-7.28673338567111E-05
0.3	-0.000327890357609755	-9.08447782263435E-05	0.889280348030025	-0.451647237035456	0.889124125442181	-0.451551851812324	-0.000380382314751988	-0.000205194188391145
0.4	-0.000210553315171602	-2.57915931029528E-05	0.807829978562803	-0.583939234160309	0.807841773582024	-0.583964354284129	-0.00039556299366839	-0.000195906787366426
0.5	-0.000278846579423499	1.02053536406222E-05	0.70712882226837	-0.702312069846214	0.706973766063497	-0.702210586573981	-0.000432856472695424	-0.000161925351609278
0.6	-0.000256827297650916	0.000123155130018704	0.589127835343228	-0.803387184472328	0.589008558684656	-0.80322545324332	-0.000480927605809671	-0.00014986003067843
0.7	-0.000206829124529963	0.000346859017775614	0.457025058945969	-0.884747477390453	0.45700628596541	-0.884634966918057	-0.000458727273774437	-0.000151467668391558
0.8	3.8715837756919E-05	0.000393895422444155	0.313986817128902	-0.94476236891051	0.313955444045586	-0.944572609722789	-0.000495531852652429	-7.32976883978654E-05
0.9	0.000234587294947522	0.000484272333800934	0.163423268247655	-0.981763939246836	0.163358218533676	-0.981672016098235	-0.00056621139721155	-9.40139784296956E-05
1	0.000469476879329485	0.000273409104298358	0.00894750673808662	-0.994907426471239	0.00889585293118578	-0.994875955483922	-0.000599895513989983	-0.000154048888365723
1.1	0.000612836964710619	-2.94456762315145E-07	-0.145517510617784	-0.984115372347352	-0.145533261626179	-0.983984920684945	-0.000792572455031294	-0.000159961589771701
1.2	0.000854522673681216	-0.00104469491618116	-0.296649984963584	-0.949337758757659	-0.296573605542747	-0.949311664150699	-0.000536105338504111	0.000112674722081132
1.3	0.000863937365619335	-0.00275280100968576	-0.440372156667003	-0.891536226242585	-0.440349122369494	-0.891529612705877	0.000629091965074551	0.000568278960908822
1.4	0.000631154172087897	-0.00466642598285834	-0.573139298000995	-0.812220969953508	-0.573115120509107	-0.812199337009803	0.00229244910102783	0.000179874759411932
1.5	0.000194367812529129	-0.00552467089008049	-0.692310160022838	-0.713218049018595	-0.692208391004683	-0.713133093420933	0.00375554107453627	-0.000833723121774354
1.6	-0.000285597093828376	-0.00576284485148789	-0.794475805445705	-0.596891550064776	-0.79440172883317	-0.596831530686058	0.00372095583202184	-0.0020537244804068
1.7	-0.000776082782192124	-0.0055329182227342	-0.876975617082304	-0.46671714312503	-0.877139803920483	-0.466200968854353	0.00332487920631519	-0.00289389902540527
1.8	-0.00137523894330791	-0.00526519900178384	-0.938844390884972	-0.324439566108831	-0.938733132528969	-0.324438229186804	0.00251066339626158	-0.00365128201219007
1.9	-0.00195416385067004	-0.0048636043532142	-0.97757412343527	-0.175156657537445	-0.977666874644241	-0.174669059464763	0.00157013794634031	-0.00405594873033903
2	-0.0026201187480083	-0.00444096699982193	-0.992623971750149	-0.0206988923785795	-0.992635887638475	-0.0206530356024468	0.000722306471705201	-0.00427397300245659
2.1	-0.0031830281898999	-0.00386231890484896	-0.983636279696454	0.133616398867477	-0.983674366200244	0.133653507243248	-0.00015283176786335	-0.0042680540601443
2.2	-0.00390646588021252	-0.00333154675037544	-0.950920385673923	0.284568037528923	-0.950845269551516	0.284630800324465	-0.000791291049039668	-0.00410809966289503
2.3	-0.00457451854775954	-0.0025828894771043	-0.895290547262715	0.428075706247706	-0.894908121686294	0.428588707517721	-0.00146093480267914	-0.00407818348916391
2.4	-0.00526654027772061	-0.00177417437753781	-0.81705259533363	0.562834569616415	-0.817319519732795	0.562248934712136	-0.00225669488801052	-0.00398526502305129
2.5	-0.00575465192639198	-0.000662839455317562	-0.719984379936102	0.682647519357484	-0.720198299398959	0.682137856307352	-0.00278784320537775	-0.00402349998784479
2.6	-0.0059263418196306	0.000573940410121086	-0.605592726615068	0.785693099694754	-0.605486739768005	0.785510331682105	-0.00318273439499934	-0.00382112289157992
2.7	-0.00554304236313587	0.00172909563981893	-0.475705913229575	0.870252169696422	-0.476155202045156	0.86984563748702	-0.00344554600522439	-0.00360865202485983
2.8	-0.00466795950262685	0.00254591869253779	-0.336093301373116	0.932929636301428	-0.335425631065824	0.933087906366199	-0.00370615985126007	-0.00334203022778555
2.9	-0.00326823072824177	0.00296641276675092	-0.186648819605588	0.973733548281462	-0.186680130391305	0.973646226954263	-0.00342312100401386	-0.00267794048302005
3	-0.00182905292938748	0.00291124964882214	-0.0324584094914771	0.990874500997343	-0.0331594619470781	0.990716610110205	-0.00286297508756179	-0.00206038858358688
3.1	-0.000344375665960745	0.00257208039863482	0.12026496510687	0.983777855942742	0.120855449916212	0.983759460097156	-0.00195997209086079	-0.00168168503244982
3.2	0.000769000868742931	0.00177586188256098	0.272010530583164	0.952956021317727	0.271955683696032	0.952895785793708	-0.0013735972161098	-0.00159039407221966
3.3	0.0018200202751571	0.000808648086601087	0.416747042071174	0.899033845604134	0.416609899597321	0.899019800325586	-0.000594184180034036	-0.00160186502714259
3.4	0.00240348981252764	-0.000424710025813505	0.55117838497484	0.823384442685329	0.551016340006096	0.82350252730835	0.000267435737885467	-0.00211885142453597
3.5	0.00280024982507317	-0.00166648883526812	0.672172318335846	0.727872716599509	0.672092804756837	0.727911567672721	0.000828427304390235	-0.00274756446710856
3.6	0.0026584254984521	-0.00293374392969585	0.77647039500251	0.61514779284509	0.776710623426976	0.614698955246816	0.00108834350988127	-0.00349790568782574
3.7	0.00229150770776046	-0.00416111480895103	0.862777166895797	0.486536849669857	0.8626591402519	0.486680079892746	0.00113587931076499	-0.00418039959732556
3.8	0.00145267664672629	-0.00522470644755888	0.927542454095883	0.347224747465931	0.927598610285369	0.346845631860816	0.000942878866680009	-0.00493789656203423
3.9	0.000578154422020356	-0.00610101646042362	0.970261551549258	0.197862022378484	0.970024371083181	0.198529552636177	0.000152206225011738	-0.00590391268240584
4	-0.000787277414314507	-0.00668371232557497	0.989088539804639	0.0456773611763063	0.989049784861808	0.0457802366059038	-0.000630543849343902	-0.00653141938640198
4.1	-0.00216616816499599	-0.00708759014254632	0.984226431723836	-0.108342876043136	0.984042257306332	-0.108215486291291	-0.00153924873012931	-0.0071247032797376
4.2	-0.00398185996803849	-0.00717423732948399	0.955060250790995	-0.260422800689036	0.955096417227123	-0.259769531846926	-0.00260538364167502	-0.00759744946761066
4.3	-0.00579209509025586	-0.00703892704531769	0.903280194149379	-0.40482775167084	0.903144632317585	-0.404716477059377	-0.00384495966463254	-0.00813914172841395
4.4	-0.00784895416266761	-0.00640961330761289	0.829423705383386	-0.539990808245912	0.82925887541445	-0.539857308269184	-0.00537079763780952	-0.00848388949435697
4.5	-0.00977680452618387	-0.00537818313757283	0.735595369735653	-0.662134356300025	0.735407000925002	-0.66196104873485	-0.00702534666223626	-0.00861807283894929
4.6	-0.0116549943280795	-0.0037315284853976	0.623372013305517	-0.7686401142325	0.62371466555457	-0.767943312755105	-0.00885034186282161	-0.00850616179137676
4.7	-0.0130679265517869	-0.00183685522216503	0.496894168428789	-0.855727340791216	0.496911115440812	-0.855371833483309	-0.0107597640359775	-0.00819225163508289
4.8	-0.014084662757603	0.000621777118724636	0.357799047472837	-0.922233151231552	0.35802082405245	-0.92191729951766	-0.0124896157243856	-0.00746080830785125
4.9	-0.0141526075600865	0.00310378702487374	0.2108001837301	-0.965971491598736	0.210580366603672	-0.965978994677894	-0.0137421737698797	-0.00634011382027803
5	-0.0134745324836739	0.0055430479273154	0.0581763227336165	-0.986858372875341	0.0583536647693989	-0.986613477603085	-0.0143206124895898	-0.00472871187917015
5.1	-0.0118969470458933	0.00758644226313779	-0.0954339262026452	-0.983953264636848	-0.095102322004842	-0.983728553379228	-0.0143207109428562	-0.00313947118470104
5.2	-0.00991738374501061	0.0093751932673868	-0.247035738598982	-0.957198832576781	-0.246544246721199	-0.957172546961864	-0.0141345522916167	-0.00155149092694582
5.3	-0.00760297797318261	0.0105526197816244	-0.392499083197789	-0.90727836108339	-0.392158906830357	-0.907494705074407	-0.0135639837448079	-0.000126349632883006
5.4	-0.00514931360814566	0.0115410619893463	-0.528575244125324	-0.835425954874783	-0.52836283676201	-0.835626727736004	-0.0129813217676579	0.00111671041376232
5.5	-0.00259683868008793	0.0120237320948084	-0.651828865559226	-0.743186288627387	-0.651590273393883	-0.743381047204277	-0.0124442911662443	0.00217846309790462
5.6	1.73725266048451E-05	0.0122639106559242	-0.759067675424078	-0.632956741473242	-0.758878251320934	-0.633128579818626	-0.0119584178297637	0.00318627363052131
5.7	0.00247117905187507	0.0118669474831692	-0.848096658339153	-0.50747307555455	-0.847967571894054	-0.507692773806229	-0.011514668923516	0.00436666049280852
5.8	0.00474950301600638	0.0112060917989607	-0.916424799294408	-0.369589680719267	-0.916357140881088	-0.369874410410125	-0.0109488184179953	0.00561909660637091
5.9	0.00677897550624961	0.00996839262628962	-0.962616630760446	-0.222998979044744	-0.962631118941724	-0.223082520863711	-0.0103453376167096	0.00680384647900012
6	0.00848302828770332	0.00853267586831077	-0.985564027284037	-0.0709974966409099	-0.985444914020013	-0.0710555074795184	-0.00972140203397757	0.00810882155401473
6.1	0.00985095295922869	0.00666077465992082	-0.984519750474104	0.0828007864132969	-0.984393291404076	0.0826524517351171	-0.00864818429236863	0.009238929640939
6.2	0.010589729517337	0.00452307852673986	-0.959579624262364	0.234619093748968	-0.959565993139493	0.23441652630981	-0.00750158201489433	0.00986524287525615
6.3	0.0106178047700068	0.00205756517532704	-0.911478951767624	0.380631843802288	-0.911474482577701	0.380446757304483	-0.00632832162931657	0.00995934122828279
6.4	0.0100401286186447	-0.000387419445040966	-0.841305423232296	0.517412512643416	-0.841273841605571	0.517202147533773	-0.00544869441632	0.00959785584222136
6.5	0.00887462250049186	-0.00276358065127274	-0.750735530205547	0.641613712310474	-0.750759687243535	0.641409932437406	-0.00478524209937575	0.00909595021305718
6.6	0.00749781937336343	-0.00468369089372183	-0.642021892255694	0.750321857233151	-0.64209572852038	0.750070109315236	-0.00418269973722546	0.00872232063582509
6.7	0.00577612108926535	-0.00629954015607732	-0.517713723151863	0.840745813724396	-0.517816446588301	0.840525015150395	-0.00376634579218448	0.0084156530784714
6.8	0.00403748121948813	-0.0073859677415229	-0.380955731606063	0.910828394458132	-0.381097192117733	0.910657962740163	-0.00340399692421375	0.00837420816334271
6.9	0.00215093591550022	-0.00815579741963884	-0.234988781612563	0.958777281435546	-0.235215070752114	0.958667091420331	-0.00279341759374202	0.00844580161485864
7	0.000461886630591933	-0.00842895317204154	-0.0834077825132002	0.983512125955404	-0.0836172833255392	0.983422498974415	-0.00199157761705725	0.00833370854174032
7.1	-0.00124485739068276	-0.00843433441385862	0.0702108598957772	0.984479821990937	0.0700091805079095	0.98434682580491	-0.00119799050632901	0.0081935697794742
7.2	-0.00274161384399742	-0.00810373633689606	0.222106106799337	0.961552814676915	0.221824454196229	0.961518338217326	-0.000195230508476011	0.00810853583103897
7.3	-0.00424312652756396	-0.00761387773518677	0.368519909996348	0.915368821991948	0.368284239215669	0.915395023192836	0.000826597058898941	0.00779179175298626
7.4	-0.00543281319320988	-0.00681058937396196	0.506032502049315	0.847023761917382	0.505819438718864	0.847074811642424	0.00166933234669053	0.00722892012144661
7.5	-0.00640723152129255	-0.00596504692775073	0.631241218002512	0.75816954870137	0.631071939316894	0.758239090846686	0.0025820330628528	0.00665469445680682
7.6	-0.00690987385702393	-0.00500152469685382	0.741189050144227	0.650973862553728	0.740931872021001	0.651056106544807	0.0036115306870792	0.00560255211148127
7.7	-0.00726321185009645	-0.00388930256067983	0.833081452459131	0.528044329244951	0.832896158754323	0.528261145283693	0.00417638687035382	0.00435894771451184
7.8	-0.00709504796658059	-0.00267883191075999	0.904928020936939	0.392290129770712	0.904825046355578	0.392515212023424	0.0045223188795507	0.00298705408703226
7.9	-0.00676620503035033	-0.00151038142898169	0.95478925215436	0.247202360882257	0.954651259640828	0.247381757655996	0.00442044715157455	0.0017358592827384
8	-0.00599091740253339	-0.000389212323049737	0.981379936477133	0.0960326245492762	0.981356743148666	0.0962950718457956	0.00366315602326761	0.000736508847634664
8.1	-0.00512061610475266	0.000576571912497328	0.984426922516663	-0.0573949947252799	0.984455613364793	-0.0571396269321273	0.00281045602776652	0.000170879220839605
8.2	-0.00398988103885018	0.00127994232655317	0.963472534102117	-0.209470313816898	0.963520540893648	-0.209153456480696	0.00175748405780762	-0.000113173207383842
8.3	-0.00292919552537598	0.00181229697066612	0.91921788397112	-0.356379538838746	0.919268905000143	-0.356092556189742	0.000717284100701763	5.08194007726892E-06
8.4	-0.00168079798901031	0.00207835262210571	0.852750049029141	-0.494655746357997	0.852847548223416	-0.49445379401025	-0.000166082769716126	0.000355482995570181
8.5	-0.000601099820269154	0.00213930907722624	0.765687865967327	-0.620862215244478	0.765739036118018	-0.620711509111026	-0.00086523552668471	0.00094800956196627
8.6	0.000698665792810866	0.00201415992675131	0.65988213690224	-0.732142449264361	0.660050251610808	-0.731905223119764	-0.00111552702325273	0.00184927503597034
8.7	0.00186369101376764	0.00167931033711335	0.538155929603534	-0.825543827447527	0.538414751481135	-0.825328131320312	-0.000896478799631891	0.00279585298944235
8.8	0.0032103116213061	0.00112489845338589	0.403621158599403	-0.898939430678429	0.403806201607773	-0.89880015331296	-0.000321123631840606	0.00351607174746921
8.9	0.00453942759327938	0.000241926991562133	0.259285111571218	-0.950679616569712	0.25946392706413	-0.950509357486066	0.000892621695333559	0.0041527733674238
9	0.00604236568519355	-0.00122736849247676	0.108522371649078	-0.979229187152339	0.108830528276199	-0.979182220743836	0.00267429893927673	0.00429781036165454
9.1	0.00728401359862378	-0.00302271884487308	-0.0446414447125105	-0.984140871991653	-0.0443324187135428	-0.984099476251788	0.00484632830333448	0.0037663690730689
9.2	0.00822960675031068	-0.00511228414730222	-0.196881129006214	-0.965198319067829	-0.196533634448108	-0.965175553893997	0.00706457999668504	0.00242401189479025
9.3	0.00860970751013163	-0.0070757777130763	-0.344242357360492	-0.922903238169522	-0.343890507574684	-0.922877210225078	0.00898898801172916	0.000422444477419453
9.4	0.00867359277981169	-0.00902302036081602	-0.483176400276037	-0.858295256899716	-0.482853106558956	-0.858385647674826	0.0102464261522135	-0.0022814124652453
9.5	0.00807548003208189	-0.0104677055144409	-0.610381381751369	-0.772805473705436	-0.610144365490643	-0.77285540392604	0.0102177891573804	-0.00523373790852307
9.6	0.00744729473429062	-0.0117112397414711	-0.722871014020396	-0.668638762559241	-0.722559168592609	-0.668776998266859	0.00926458197918757	-0.00788855585552751
9.7	0.00650146935769548	-0.0123978147054947	-0.817763216899635	-0.548341669463563	-0.817475284113709	-0.548574212568147	0.00719145794831489	-0.0103316958407982
9.8	0.00559111384895636	-0.0128539758384701	-0.892870528775828	-0.414820454572756	-0.892616901227496	-0.414989053022182	0.0042797653238037	-0.0120003773557762
9.9	0.00463842399390096	-0.0128313299958304	-0.946377894809315	-0.271245878041095	-0.946125136834222	-0.271454340688246	0.000944975787613426	-0.0127189960981696
10	0.0037893853923483	-0.0127350046526058	-0.976889674788934	-0.121103419799052	-0.976735376080082	-0.121465651832958	-0.002613102105088	-0.0123990302646398
10.1	0.00305449250991067	-0.0124073859989062	-0.983704415479272	0.0319335759202121	-0.983640209194963	0.0315019744612841	-0.00594536365705639	-0.0110697449636617
10.2	0.00249795737133044	-0.0122060501872121	-0.966842277828537	0.184178540014565	-0.966719712362039	0.183747327487481	-0.00886142169722319	-0.00899557648412035
10.3	0.00185831767311832	-0.011893021998858	-0.92647852530754	0.331980118532565	-0.926495164957785	0.331438338213978	-0.0112899096433803	-0.00643242130049944
10.4	0.00131664156760394	-0.0118893845175196	-0.863663949261811	0.471566778452034	-0.86380001805558	0.471055029053482	-0.0129854887871478	-0.0036080680980064
10.5	0.000600910217754648	-0.0117350266914765	-0.78005541286938	0.599807564925906	-0.780228021591329	0.599375125825296	-0.0137859838216477	-0.000746886585054139
10.6	0.000177685019312227	-0.0117465128671959	-0.677481283858121	0.713483779191121	-0.677753592007368	0.713153441934991	-0.0137315943598937	0.00227368502479057
10.7	-0.000317989182124683	-0.0115391217316074	-0.558535024666563	0.809909581449708	-0.558835546596715	0.809599909085468	-0.0127685890244966	0.00521760040334455
10.8	-0.000650292437343684	-0.0116327156824065	-0.426059210337179	0.886645940996573	-0.426409949515933	0.886347467249522	-0.0110155744814506	0.00776644595623201
10.9	-0.00115108310676592	-0.0116006568312529	-0.283384800370409	0.941947081612062	-0.283775087048103	0.941823972551571	-0.00884877265937068	0.00979530682908172
11	-0.0015326343818227	-0.011831900899712	-0.13373248163016	0.974496288653187	-0.134169565626066	0.974405537587551	-0.00607433812886191	0.0111913507960668
11.1	-0.00197233675336665	-0.0119492932037411	0.0191307149383298	0.983220951012729	0.018641929275132	0.983234320929242	-0.00298985290956078	0.0118616969512339
11.2	-0.00244560616213321	-0.0123335847048683	0.171387832656453	0.968294750098751	0.170930694553286	0.968367734887983	0.000339973463304944	0.0117042854522437
11.3	-0.00306471151501931	-0.012618294504462	0.319452700668968	0.929984145203851	0.318993626605885	0.930120696104768	0.00372697324306538	0.0108054040929235
11.4	-0.00396134622500745	-0.0129730094688251	0.459895747219776	0.869168307099759	0.45949190685468	0.869281451750821	0.0067306336336554	0.00928261231456513
11.5	-0.00503344053453945	-0.0128732687809168	0.589095254124633	0.787071059320985	0.588776715188833	0.787373298271509	0.00915955399473695	0.00720007270090346
11.6	-0.00618401857610048	-0.0128516414393534	0.703895278372658	0.686137079038426	0.70368000586234	0.686464724979342	0.0109076462993156	0.00468786138374576
11.7	-0.00744549555991881	-0.0122962822314884	0.801783489290733	0.568620030490254	0.80158034019912	0.568926460840032	0.0119352353433786	0.00194796158098795
11.8	-0.00879146149642562	-0.0116077313881601	0.880328910060173	0.437164312961071	0.880147190593096	0.437614971188467	0.0121007470258787	-0.000918976141850736
11.9	-0.00991253928805423	-0.0103428093909285	0.937403154707061	0.295261452413171	0.937297420197224	0.295711190768661	0.0113901936337917	-0.00343155509570599
12	-0.0113130538563322	-0.00900441930005182	0.971780359730434	0.146397559466792	0.971751629331978	0.146761865739057	0.0101225002004627	-0.00568094661419838
12.1	-0.0120251384690254	-0.00723482657944582	0.982665715762454	-0.0061510576075552	0.982594831524472	-0.00576648825941136	0.00857978959769199	-0.00754430262099615
12.2	-0.012658767479645	-0.00564554258763012	0.969755547946364	-0.158582788711772	0.969773090907018	-0.158284831193028	0.00650836945291427	-0.00898013856237495
12.3	-0.0129820568541035	-0.00383169444560712	0.933194702815876	-0.307074880508828	0.933314252454909	-0.306768308817889	0.00430543899022294	-0.00994780617317947
12.4	-0.0131581341013233	-0.00220400866807578	0.874404613763097	-0.448104337634066	0.874467791365302	-0.447734754291253	0.00200878012118389	-0.0104701717874789
12.5	-0.0129314344050137	-0.000490431055361106	0.79420088116771	-0.578376413372643	0.794541377484945	-0.577986000635619	-0.000417700016658476	-0.0105623450033866
