# GHZ S RI R 50
0.2	-0.000268687991072797	-0.000175762904720974	0.949232038516002	-0.307942745489707	0.949009746510268	-0.307917319937068	-0.000254503868182702	-8.92771522453382E-05
0.3	-0.000389671561626411	-9.37527184817712E-05	0.889293043503725	-0.451621304840605	0.88913681822139	-0.451525924179695	-0.000442118147508548	-0.000208180224398849
0.4	-0.000273692583077588	-7.58860776565042E-06	0.80786215623218	-0.583929684430928	0.807873952164135	-0.58395480475588	-0.000458655448977493	-0.00017781637509399
0.5	-0.000295836162035562	4.50757310117396E-05	0.707139453549382	-0.702323265567427	0.706984394990002	-0.702221780652588	-0.000449810817735534	-0.000127182212990787
0.6	-0.00027207607099039	0.000118550781577466	0.589150254607503	-0.803382375657367	0.589030973430156	-0.803220645409298	-0.000496101983425587	-0.000154656071990927
0.7	-0.000225434704796795	0.000339812246447242	0.457053742456877	-0.884763233545004	0.457034966903292	-0.884650720345802	-0.000477275336539144	-0.000158784216165241
0.8	1.71578609439712E-05	0.000371904356750637	0.314004394182079	-0.944794650454959	0.313973018721966	-0.944604884573876	-0.000517072081870734	-9.5608929295248E-05
0.9	0.000172218030050546	0.000457116918749733	0.163415385324385	-0.981801300985639	0.163350334573703	-0.981709373640728	-0.000628621196494801	-0.000121446440457558
1	0.00039429956090026	0.000322243768993507	0.00893821809396711	-0.99491748215007	0.00888656406901471	-0.994886010357533	-0.000675238900766496	-0.000105425570036657
1.1	0.000529290028394149	6.85791801361197E-05	-0.145526960282409	-0.984146254408175	-0.145542711159572	-0.98401579847973	-0.000875937426912497	-9.11441419732E-05
1.2	0.00075189440770534	-0.000852577957982585	-0.296680558231888	-0.949359349409023	-0.296604175928221	-0.949333255767227	-0.000637379866508136	0.000304755692494019
1.3	0.000808252258142694	-0.0024559190756583	-0.440409283437861	-0.891539612725267	-0.440386248474417	-0.891532999794878	0.00057471201839868	0.000865083697670568
1.4	0.000599006208409995	-0.00434341108127951	-0.573166101286828	-0.812204147340641	-0.573141923061093	-0.81218251512899	0.00226123178875138	0.000503401549497223
1.5	0.000190771644334174	-0.00526636894810919	-0.692322539268237	-0.713219192428497	-0.692220768585807	-0.713134236854171	0.00375396754237164	-0.000576003129901967
1.6	-0.000327738564614235	-0.00555070986456295	-0.79450725388287	-0.596872849403071	-0.794433174181926	-0.596812831711515	0.0036807561029392	-0.00184236645558334
1.7	-0.000793538579244158	-0.00536484754593888	-0.87698586562476	-0.466682932776216	-0.877150033101413	-0.466166756374448	0.00330846949311179	-0.00272731497453774
1.8	-0.00139365772551086	-0.00514967293648825	-0.938833202460586	-0.324409055521326	-0.938721946364865	-0.324407721454299	0.00249209075911191	-0.00353709286505268
1.9	-0.00197765831718812	-0.00475864889040052	-0.977552334886385	-0.175148240088201	-0.977645081768268	-0.174660652865724	0.00154614610851953	-0.00395190527582334
2	-0.00259247086183314	-0.00438813127623081	-0.992625564064883	-0.0206889783626829	-0.992637479507814	-0.0206431214076866	0.000749637856317	-0.00422170788895406
2.1	-0.00321795283275735	-0.00385075158029015	-0.983612574101415	0.133627777857021	-0.983650659220098	0.13366488596323	-0.000188131604849089	-0.00425699621322842
2.2	-0.00395045462122569	-0.00330823855688635	-0.950901597014586	0.284559799027822	-0.950826482590546	0.284622560723294	-0.000835702788293171	-0.00408507476267842
2.3	-0.00462765236994345	-0.00256105109272364	-0.895285172819418	0.428061192963138	-0.894902757093345	0.428574192641518	-0.00151444366700613	-0.00405640880440288
2.4	-0.00533740199194736	-0.00172482000051424	-0.817063663367055	0.562829820694765	-0.817330583477901	0.562244179258438	-0.00232846109745513	-0.00393569434071682
2.5	-0.00577351041385136	-0.00058436854727805	-0.719973038198677	0.682656307872473	-0.720186964473964	0.682146649002305	-0.0028071330857244	-0.00394418204233838
2.6	-0.00595846945084658	0.000624566787183504	-0.605595988756545	0.785680612242268	-0.605490000868794	0.785497846775938	-0.0032140505528558	-0.00376931465575366
2.7	-0.00559879598646075	0.00180908551188465	-0.475718416697608	0.870255654354043	-0.476167705797694	0.869849114219397	-0.00349978553723009	-0.00352834456010975
2.8	-0.00472774849290493	0.0026789684445164	-0.336099296319355	0.932946403011859	-0.335431614010238	0.93310467588836	-0.00376449239418463	-0.00320944636450976
2.9	-0.00329390372789677	0.00314928290234841	-0.186633366900788	0.973754232612978	-0.186664679910813	0.973666910353199	-0.00344761904066284	-0.00249540788915551
3	-0.00180687791877003	0.00310228108002066	-0.0324464878724314	0.990867481338019	-0.0331475369484711	0.990709599892258	-0.00283940107920429	-0.00187004993203403
3.1	-0.000281904605924005	0.00276508862120372	0.120274939788606	0.983791991001367	0.120865433528353	0.983773589995207	-0.00189544754191568	-0.00148959727795315
3.2	0.000881401326508001	0.00193749316158132	0.272038873903949	0.952960584515651	0.27198402476378	0.952900349690933	-0.00126013742368359	-0.0014303512108795
3.3	0.00195376386000222	0.000923497735586512	0.416778224226963	0.899019476209147	0.416641081256015	0.899005435681183	-0.000459755251183903	-0.00148867992981446
3.4	0.00254907695045232	-0.000350313270008035	0.551193294936527	0.823349401476826	0.551031257173287	0.82346748883218	0.000413414392667044	-0.00204602386621077
3.5	0.00294721932590555	-0.00166386639339827	0.672166703635162	0.727859753004938	0.672087191309312	0.727898603930069	0.00097559093270661	-0.00274689698906703
3.6	0.00275943391544504	-0.0029570736301677	0.776479948237584	0.615121110052522	0.776720162295625	0.614672270058291	0.00118931584146138	-0.00352316143088254
3.7	0.00237762612350876	-0.00420457316380947	0.862765724400932	0.486503692246574	0.862647704249018	0.486646921444762	0.00122156055532747	-0.00422573186153497
3.8	0.00151578596332904	-0.00528998485845458	0.92751423688247	0.347201919973006	0.927570386723092	0.346822816895754	0.00100518732137922	-0.00500487948858025
3.9	0.000622447744541292	-0.00616993271546799	0.970228549110411	0.19786389952911	0.96999137061457	0.198531406220754	0.000195398238792984	-0.00597413119335894
4	-0.000729132895454413	-0.00678894569694769	0.989082414525674	0.0456755951154676	0.989043659979441	0.0457784699588098	-0.000573352305738116	-0.00663742528667187
4.1	-0.00216504933192493	-0.00722564839747887	0.984195371214548	-0.108345597038271	0.98401120326948	-0.108218210085001	-0.0015388221784246	-0.00726347759978485
4.2	-0.00401603901419308	-0.00731215225752376	0.955034580507568	-0.260404706107844	0.955070738801059	-0.259751456359482	-0.0026400887671915	-0.00773603727829153
4.3	-0.00586534178356245	-0.00717206053285108	0.903269781184335	-0.404801494205197	0.903134219909462	-0.404690224567521	-0.00391893632724462	-0.00827302840221486
4.4	-0.00795844408152447	-0.00650498394908325	0.829432405494056	-0.539973871074393	0.82926757329459	-0.539840374515482	-0.00548111163130535	-0.00857984293931688
4.5	-0.00985785182841464	-0.00543126510213374	0.73558203898483	-0.662129454657759	0.735393673607495	-0.661956148398388	-0.00710716261290084	-0.0086713001302086
4.6	-0.0117329436858378	-0.00379014909907381	0.623376716438694	-0.768612154169051	0.623719347221983	-0.767915358534223	-0.00892810664100049	-0.00856476469832462
4.7	-0.0131421139794036	-0.00188358756026213	0.496913485188021	-0.855714381519003	0.496930423834796	-0.855358874355859	-0.0108333302236476	-0.00823934268393742
4.8	-0.0141558743168085	0.000580174406239436	0.357817280535886	-0.922236405282996	0.358039054222778	-0.921920546948195	-0.0125600607391007	-0.00750354390591828
4.9	-0.014226482374783	0.00307184016394838	0.210799741590468	-0.965982711919848	0.210579922026826	-0.965990214453986	-0.0138155552527676	-0.00637359983915815
5	-0.0135522551827179	0.00551394899729383	0.0581828794889437	-0.986845848141891	0.0583602175476424	-0.986600954565114	-0.0143979091102925	-0.00475933971218849
5.1	-0.0119959436902327	0.0075792255185803	-0.0954251853764182	-0.983967819704836	-0.0950935788982698	-0.983743101956655	-0.0144195473624652	-0.00314873456197109
5.2	-0.010020668614559	0.00939396570108706	-0.247046121895184	-0.957208632755921	-0.246554623806283	-0.957182350601256	-0.0142382470540728	-0.00153443099628642
5.3	-0.00770328331576322	0.0105961858543516	-0.392514553255603	-0.907273373276221	-0.392174379888471	-0.907489723178063	-0.013664919193062	-8.38139413366347E-05
5.4	-0.00522746660393782	0.0116044333889867	-0.528577268132063	-0.835404266508798	-0.528364867172345	-0.835605038728765	-0.0130597909715727	0.00117988117283798
5.5	-0.00266104237546739	0.0120456783385971	-0.65181747658871	-0.743189991009276	-0.651578883388042	-0.743384746003539	-0.0125080152936432	0.00219982566604477
5.6	-8.66591409598391E-05	0.0123114136980896	-0.759076061484166	-0.632945017067375	-0.7588866400715	-0.633116857990728	-0.0120619706038069	0.00323297576297946
5.7	0.00238599594756817	0.0119363476117335	-0.848089197582917	-0.507453152620497	-0.847960116239423	-0.50767284892252	-0.0115992311018896	0.0044350765670548
5.8	0.00468110736456985	0.0112836082843198	-0.916402335759865	-0.369574989924755	-0.916334680630702	-0.369859712409685	-0.0110164921116747	0.00569574371592273
5.9	0.00674261597310159	0.0100657867371023	-0.962587847045025	-0.22300566799332	-0.962602333712974	-0.223089207789127	-0.0103809707571488	0.00690000796457105
6	0.00852322774724373	0.00858283774269152	-0.985559998823485	-0.0709986710819437	-0.985440885925004	-0.0710566815455609	-0.00968038848949746	0.00815842109803223
6.1	0.00986451727959349	0.00665912454034272	-0.984488985733912	0.0827987020923031	-0.984362530666774	0.0826503719467908	-0.00863260349387835	0.00923607534418314
6.2	0.0105969658925483	0.00451332743112772	-0.959554296476115	0.234593848567235	-0.959540661967947	0.234391287629633	-0.00749243281241942	0.00985298356306452
6.3	0.0106281516576243	0.00205156713790261	-0.911469883204248	0.380595767652235	-0.911465408525639	0.380410685440108	-0.00631672310944028	0.0099499894382843
6.4	0.0100687279861176	-0.000382198763404199	-0.841320398790351	0.517384766137609	-0.841288810513818	0.517174402394504	-0.00541994814289227	0.00959926316906117
6.5	0.00893023418209433	-0.00277034564734265	-0.750733209742224	0.641598541362086	-0.750757364429195	0.641394763625484	-0.00472974141635266	0.00908555330180986
6.6	0.0075591608743342	-0.00470882939790371	-0.64204313013864	0.750289471544482	-0.642116956118583	0.750037723583621	-0.0041224385431175	0.00869367391271884
6.7	0.00582941818473392	-0.00635278770459835	-0.517749640586166	0.840735814201561	-0.517852357089612	0.840515009579823	-0.00371464887376329	0.0083598114207039
6.8	0.00405813617587146	-0.00745901694108957	-0.38098676745224	0.910840475002596	-0.381128227143279	0.910670035848308	-0.00338480161585158	0.00829950389099457
6.9	0.00213531625776329	-0.00822515415688432	-0.234995957830631	0.958799666820965	-0.235222252166299	0.958689473803637	-0.00280992979029988	0.00837542310793047
7	0.000412296206929992	-0.00848806002713573	-0.0834192194383909	0.983511190021086	-0.0836287192175456	0.983421560595676	-0.00204167860778992	0.00827315543003024
7.1	-0.0013112506318711	-0.00845905538691138	0.070201425950726	0.984505387023201	0.069999743001716	0.98437238519312	-0.00126459438341998	0.00816772858166028
7.2	-0.00280468598105002	-0.00810550511219354	0.222117945003199	0.961573133085242	0.221836285746742	0.961538657825925	-0.000258036694647342	0.00810542589538787
7.3	-0.00429776470395345	-0.00760179179730378	0.368539802799722	0.915373347674497	0.368304129687887	0.915399553186938	0.000772367753294603	0.00780212444063769
7.4	-0.00547587153348513	-0.00679436221217282	0.506040106015492	0.84700899657113	0.505827045310179	0.847060048886656	0.00162723503729012	0.00724315573217199
7.5	-0.00644836561737156	-0.00596749009849723	0.631235867467633	0.758180154543598	0.631066587203081	0.758249695152031	0.00254134524464355	0.00664985133667294
7.6	-0.00697571029036646	-0.00499932888364739	0.741205701282795	0.650968312262728	0.740948522116651	0.651050560943148	0.0035459374019938	0.00560182768949415
7.7	-0.0073397453220982	-0.00387509831398092	0.833082824695513	0.528027619028616	0.832897535717523	0.528244436144678	0.00409932472177302	0.00437030867976133
7.8	-0.00717329234995074	-0.00265096609251349	0.90491419434148	0.392276699646988	0.904811223199139	0.392501778497408	0.00444289477693221	0.00301231985823916
7.9	-0.00682272092590033	-0.00146280556385316	0.954768973145621	0.2472092871468	0.954630980991599	0.247388679015475	0.00436403509950878	0.00178556278257253
8	-0.00599125849002328	-0.000374594298595015	0.981383098624937	0.0960312304445067	0.981359905676785	0.0962936785817684	0.0036614382104564	0.000749979803787273
8.1	-0.00514578238444576	0.000548187954380718	0.984402516123254	-0.0573950616476869	0.984431206647799	-0.057139700206976	0.00278530407991764	0.000141869335409172
8.2	-0.0040296328545106	0.00123917535392101	0.963452641496862	-0.20944651915709	0.963500640981882	-0.209129668766162	0.00171799731847914	-0.00015480787430222
8.3	-0.00299241698202138	0.00176185958254809	0.919217268226673	-0.356343636424831	0.919268278875052	-0.35605665600013	0.00065452102351232	-4.64872596331194E-05
8.4	-0.00177785710931783	0.00205006646788331	0.852776007045757	-0.494631130637173	0.852873500209177	-0.494429172826157	-0.00026268143239306	0.000325688804925517
8.5	-0.000674499668054118	0.00214434865368978	0.765695520887877	-0.62085312359174	0.765746689233491	-0.620702416808254	-0.000937953406283331	0.000951702305713588
8.6	0.000610226705568693	0.00202571079181853	0.659911647865513	-0.732120115683712	0.660079754239967	-0.731882882487814	-0.0012025643476153	0.00185892017411218
8.7	0.00178470779776947	0.00173335866849202	0.53819664999055	-0.825544234553109	0.538455470380798	-0.825328524583585	-0.000974356211814268	0.00284720723830898
8.8	0.00315979877016334	0.00120794554625415	0.403656021950499	-0.898961759723839	0.403841068263512	-0.898822473206375	-0.000370578137841295	0.00359548018755407
8.9	0.00451470725778895	0.000349106058069683	0.259294667987346	-0.950713552799689	0.259473489827959	-0.9505432875726	0.000868517743526952	0.00425568418656056
9	0.00606016954353025	-0.00110236180371323	0.10853465190982	-0.979242559804228	0.10884281260572	-0.979195589341399	0.00269212736698258	0.00441814314015478
9.1	0.00733782351929201	-0.00290261445235579	-0.0446378427299763	-0.984181787473634	-0.044328804189975	-0.984140388313702	0.00489908759185311	0.00388255760165552
9.2	0.00831685813225584	-0.00502568565706058	-0.196904311799223	-0.965231093245166	-0.196556803905086	-0.965208332925555	0.007150534116554	0.00250758483035992
9.3	0.00868917832295352	-0.00704803241536052	-0.344276995488026	-0.922914977581125	-0.343925136700066	-0.92288895915512	0.0090673102489769	0.000448192806826535
9.4	0.00871087956361193	-0.00902613691042008	-0.483198816474064	-0.858281412236705	-0.482875525522929	-0.858371811558132	0.0102834974731584	-0.00228600051787229
9.5	0.00806612773262772	-0.0105096535783426	-0.61038906250016	-0.772813144345561	-0.610152043707416	-0.772863075423925	0.0102087389235682	-0.00527673837053641
9.6	0.00737282687335543	-0.0117126547024095	-0.722894943441672	-0.668626831159047	-0.722583098524397	-0.668765076122106	0.00919085126605386	-0.0078915983531671
9.7	0.00642572962591788	-0.0123662404780073	-0.817768795438852	-0.548318656904543	-0.817480870287997	-0.548551204580787	0.0071162006047246	-0.0103019090901348
9.8	0.00551389521046746	-0.0128032122565039	-0.892857963133625	-0.41480222063318	-0.89260434241496	-0.414970818719014	0.00420304015798922	-0.0119512232465003
9.9	0.00457316936882046	-0.0127411595333655	-0.946358733463145	-0.271252194800556	-0.946105977356174	-0.27146065100982	0.000880095566693853	-0.01263031997645
10	0.00377813675372593	-0.0126533587060355	-0.976895601877144	-0.121102414091512	-0.976741302889848	-0.121464648522609	-0.00262303156973069	-0.0123184246941331
10.1	0.00303227290759185	-0.0123191285027683	-0.983686808354501	0.0319305801646308	-0.983622602154904	0.0314989866133502	-0.00596522550930216	-0.0109835884850135
10.2	0.00250890391652666	-0.0120921527266473	-0.966835251832756	0.184156096642945	-0.96671267866297	0.183724891552779	-0.00884814729367011	-0.00888495447012684
10.3	0.00191188201517053	-0.0117681299680655	-0.926492568473649	0.331954355215193	-0.926509192241441	0.331412571905496	-0.01123437220591	-0.00631179062412526
10.4	0.00142235880186231	-0.0117544253393913	-0.863700004445875	0.471562098160088	-0.863836066185948	0.471050330506603	-0.012878609481216	-0.0034777442948175
10.5	0.00087389216649803	-0.0116396895330222	-0.780064475021392	0.599820138755811	-0.780237088304744	0.599387693906243	-0.0135594968994941	-0.000592046327259807
10.6	0.000411046843038587	-0.0117220964355661	-0.677499163443305	0.713482955941868	-0.677771470296894	0.713152611000116	-0.013497305429998	0.00229257467304096
10.7	-9.58827871824598E-05	-0.0116014653975716	-0.558558248026837	0.809923282049458	-0.558858773867458	0.809613598511516	-0.0125467411410952	0.00514989496705273
10.8	-0.000481363474596588	-0.0117516253820621	-0.426075636600907	0.886674880431334	-0.426426386937659	0.886376395789816	-0.0108470687581444	0.00764287151493497
10.9	-0.00104071758364102	-0.0117367734010541	-0.283375424666258	0.941982154415052	-0.283765725999243	0.941859049051201	-0.00874019470637681	0.0096543383216696
11	-0.00147376650192381	-0.0119795774399621	-0.13372915299168	0.974505587398304	-0.13416624131134	0.97441483754568	-0.00601738108171996	0.0110389874562831
11.1	-0.0019633560292405	-0.0120840152076142	0.0191395368149442	0.983254157879191	0.0186507346686435	0.983267532310454	-0.00298304289768743	0.0117232349361905
11.2	-0.00247412311039185	-0.0124506411517434	0.171418891783927	0.968319856199184	0.170961741613054	0.968392855409013	0.000309754664132133	0.0115841638014904
11.3	-0.00312749239057528	-0.0127129434582869	0.319493763654874	0.929988251987507	0.319034686757209	0.930124822788841	0.00366358064293313	0.0107061778431532
11.4	-0.00403687097506546	-0.0130319207109282	0.459923808488495	0.869146871394092	0.459519974521888	0.869260029679151	0.00665417286761012	0.00922001324820582
11.5	-0.00511254094368702	-0.0129326598558598	0.589111543247348	0.787071000449499	0.588793005184295	0.787373246623726	0.00908046275416651	0.00713831394830118
11.6	-0.00629334563260748	-0.0128797274419052	0.7039257125862	0.686113470814252	0.703710451627773	0.686441126882005	0.0107986786066542	0.00465648871362557
11.7	-0.00755215396457133	-0.0123002385458569	0.801792714036865	0.568583500669713	0.801589578710139	0.568889934039774	0.0118278936740569	0.00194044360881072
11.8	-0.00889822068195992	-0.0115931969499375	0.880316110252866	0.437131667409149	0.880134406385021	0.437582318077619	0.0119924108041549	-0.000907356099792613
11.9	-0.0100050733877819	-0.0102937883322503	0.937379614826349	0.295254183923148	0.937273882902809	0.295703910991253	0.0112954994186694	-0.00338375580673339
12	-0.0113448212392387	-0.00897580960187987	0.971778907142444	0.146384006079054	0.971750181732732	0.146748311456132	0.0100904971828204	-0.00565250547500944
12.1	-0.0120673401419391	-0.00722794675141407	0.982640154303007	-0.00615870983491265	0.98256927496229	-0.0057741499083715	0.00853728290729582	-0.00753850164763358
12.2	-0.0126977379380235	-0.00565335689390651	0.96973812889144	-0.158571424215203	0.969755668963785	-0.158273472316317	0.006469794620671	-0.00898901010165393
12.3	-0.0130371665119021	-0.00385706252533333	0.933193608737006	-0.307058652129062	0.933313152928193	-0.306752080512351	0.00425132595983259	-0.00997447353949507
12.4	-0.0132471665569101	-0.00221656036264062	0.874421312984174	-0.448104471246394	0.874484488725343	-0.447734881809584	0.00192114026045496	-0.0104843710714444
12.5	-0.0130162703359103	-0.000477004302966092	0.79418710690831	-0.57838727583422	0.794527608293282	-0.577996870835486	-0.000500913726907278	-0.0105499625603055
