# GHZ S RI R 50
0.2	-0.000283590527826194	-0.000181919711706058	0.949236087947509	-0.30793566531154	0.949013795367034	-0.307910241494933	-0.000269441093220817	-9.54044987851027E-05
0.3	-0.000406807524849193	-9.18987500654336E-05	0.889301103035027	-0.451616432440639	0.889144876208301	-0.451521052555576	-0.000459301923477497	-0.000206254598335209
0.4	-0.000280617127897343	3.47515047305851E-06	0.807866054083542	-0.583928867352919	0.807877850121514	-0.583953987710551	-0.000465621920373274	-0.00016663345155963
0.5	-0.00029004819612074	3.57611151317783E-05	0.707139626891775	-0.702303192211475	0.706984569051455	-0.702201710959368	-0.000444051906657263	-0.000136359347129516
0.6	-0.000290870637213465	0.000114929965436017	0.589176756603808	-0.803366698166704	0.589057470089362	-0.803204971095687	-0.000514945960571573	-0.000158098975806421
0.7	-0.00023690128225652	0.000355706728301551	0.457080659826924	-0.884760454395983	0.457061881240972	-0.884647940555069	-0.000488771968417738	-0.0001426324536701
0.8	2.08138838038404E-05	0.000402328383569009	0.314028768063545	-0.94479317735013	0.313997387908057	-0.94460341101406	-0.000513393768266391	-6.48739724886648E-05
0.9	0.000216685496427897	0.000514173611514422	0.163449433271047	-0.98179016912475	0.163384379601668	-0.981698244592401	-0.000584053763501621	-6.41381353099235E-05
1	0.000552657819637255	0.000316933835819307	0.00901175184151717	-0.994936522152319	0.00896009447346012	-0.994905053544946	-0.000516724791823947	-0.000110850073631881
1.1	0.000650160327971867	-5.52246380018329E-05	-0.145490174713267	-0.984201818329855	-0.145505932212929	-0.984071356604321	-0.000754755341583529	-0.000215048577918837
1.2	0.000840121881527206	-0.00106389224333994	-0.29665656340579	-0.949410050384928	-0.296580178932969	-0.949383952741519	-0.000550504184398831	9.29619006503175E-05
1.3	0.000760738144658585	-0.00276281805350476	-0.440384889374318	-0.891598713921875	-0.440361853753141	-0.891592099598529	0.000525057323592912	0.000558733433693087
1.4	0.000390126900109604	-0.00459039645932417	-0.573148029101564	-0.812296168312343	-0.573123850777253	-0.812274533042951	0.00205091475785548	0.000257702438170002
1.5	-0.000129791393270384	-0.00539355950662376	-0.692387316585354	-0.713326397230945	-0.692285535818514	-0.713241428340421	0.00343231610151865	-0.000703231193848999
1.6	-0.000566009168472053	-0.00543273878030457	-0.794576026852165	-0.596909144180302	-0.79450194068806	-0.596849122767433	0.00344326564103029	-0.00172544602047982
1.7	-0.00086840048684036	-0.00521372209754324	-0.877040683223983	-0.466720691131797	-0.877204865571046	-0.466204481620427	0.00323358875161456	-0.00257611100907464
1.8	-0.00135943467936541	-0.00501977560643267	-0.938907305718882	-0.324452707647135	-0.938796040207007	-0.324451371553192	0.00252620763336874	-0.00340610629236644
1.9	-0.00182709161908018	-0.00471113855284618	-0.97767347508656	-0.175163534623969	-0.977766230259396	-0.174675886939338	0.00169722189728807	-0.00390350422427796
2	-0.00252841048538597	-0.00453979641697515	-0.992707480385814	-0.0206081781663368	-0.992719392977936	-0.0205623165126121	0.000813977988230208	-0.00437336473288832
2.1	-0.0032466081622454	-0.00386955212057784	-0.983647688271442	0.1336577829439	-0.983685773943139	0.133694893461938	-0.000216671477926977	-0.00427522413373579
2.2	-0.00389880510389937	-0.00330315986668867	-0.95096235542625	0.284597020906674	-0.950887234634668	0.284659785577592	-0.000783531241137395	-0.00407962065908211
2.3	-0.00451817266220481	-0.00258349652526067	-0.895339333934734	0.428134069211864	-0.894956865352762	0.428647094067412	-0.00140431061384476	-0.00407916898103548
2.4	-0.00513864855042405	-0.00181865734945445	-0.817059575758633	0.562929973414223	-0.817326560301846	0.562344323242891	-0.0021284046871549	-0.00402987372460558
2.5	-0.00561681606156394	-0.000963845712240816	-0.719930799216247	0.682654355494295	-0.720144732789377	0.682144719022405	-0.00264886216976216	-0.00432406056503373
2.6	-0.00610834919116182	0.000252465158232104	-0.605645332739453	0.785708054764873	-0.605539335191775	0.785525282124767	-0.00336340186466726	-0.00414368817887484
2.7	-0.00587478950786829	0.00159163827948688	-0.475735314688476	0.870327419335741	-0.476184644017469	0.869920858936211	-0.0037779381817419	-0.00374854664830414
2.8	-0.00499847034033306	0.00261985122240594	-0.336078262473311	0.933007760962052	-0.33541053962143	0.933166014581441	-0.00403910923531715	-0.00326936457149233
2.9	-0.00349364409157864	0.00316460326758771	-0.186619354096595	0.973761417602633	-0.186650668581031	0.973674095428084	-0.00364922255796361	-0.00247975998012752
3	-0.00198637641801643	0.00316639614534079	-0.0325292377484777	0.990944441378379	-0.03323033036324	0.990786490548405	-0.00302021186277483	-0.00180574318557904
3.1	-0.000343001544693217	0.00288021100303119	0.120318972883394	0.983926787850267	0.120909549014614	0.983908367965961	-0.00195805361000973	-0.0013733720870558
3.2	0.00089207237551243	0.00200482516010297	0.272112186021926	0.953037420255092	0.272057328675711	0.952977182450833	-0.00125124519645996	-0.00136157840367507
3.3	0.00199974072295983	0.000949403638368741	0.416835117735495	0.899079245030096	0.416697963572883	0.899065207059301	-0.000415242229896987	-0.00146101820039871
3.4	0.00262145217964046	-0.000400383803313604	0.551242967106469	0.823462360965236	0.551080906903279	0.823580459274754	0.000484663260555826	-0.00209454401694036
3.5	0.00287816897106274	-0.00174971398396482	0.672392203707999	0.727982627624858	0.672312675086825	0.728021494694091	0.000905434148088517	-0.00283168488397682
3.6	0.0027513685648167	-0.00289043232320667	0.776683320041971	0.615067425047889	0.776923488386435	0.614618487101476	0.00118046074984435	-0.00345381057518624
3.7	0.00247929124708953	-0.00416566329622067	0.86291783495175	0.486436111897397	0.862799822283888	0.486579371372063	0.00132309908389406	-0.00418417274918602
3.8	0.00168727166523211	-0.00531273239713707	0.927675226956413	0.347121334317336	0.927731333249415	0.346742176861538	0.00117701999838603	-0.00502521506090324
3.9	0.000870369328375925	-0.00632586940103014	0.970433897973333	0.19770484200988	0.970196811617532	0.198372510071339	0.000443995417903199	-0.0061279222941801
4	-0.00066957614472475	-0.00719413757597803	0.989134863478504	0.0453338987466763	0.989096143214311	0.045436790850552	-0.000512888673723106	-0.00704113760027417
4.1	-0.0023037613965247	-0.00746048542754395	0.984106143719412	-0.108547019598467	0.983922015186143	-0.10841960216425	-0.00167689928652416	-0.00749712088471713
4.2	-0.00415430060162335	-0.00744455313739603	0.954957152212442	-0.26057058936312	0.954993428425824	-0.25991736670415	-0.00277768153391714	-0.00786749275853568
4.3	-0.00597440291454937	-0.00721304277294615	0.903158574430018	-0.404979470174243	0.903023040454883	-0.404868175291231	-0.00402826042077642	-0.00831482619992448
4.4	-0.00791502694596264	-0.00649825011314256	0.82920466502902	-0.540142189452978	0.829039885108399	-0.540008662065374	-0.00543871608769642	-0.00857354360666165
4.5	-0.00974976183067115	-0.00568876643301191	0.735306632534665	-0.662043890253275	0.735118338139848	-0.661870606898806	-0.00700019052008376	-0.00892760595677604
4.6	-0.0118622134035107	-0.00405232050264284	0.623300514918072	-0.768538614991179	0.623643118362591	-0.76784189782215	-0.00905849917598719	-0.00882615358006667
4.7	-0.0133577508678125	-0.0020536816282481	0.496823469724558	-0.855691824980824	0.496840431159994	-0.855336342205487	-0.011050469571298	-0.0084081377388355
4.8	-0.0144116494497789	0.000529115748849067	0.357697109856994	-0.922182818895121	0.357918892181255	-0.921867011163127	-0.0128164436057051	-0.00755299966044303
4.9	-0.0144436061711948	0.00313440949697023	0.210727179797623	-0.965827072594604	0.21050739719408	-0.965834565472706	-0.0140329905199249	-0.00630829145389048
5	-0.0137577467053606	0.00565857561579591	0.0583034509299124	-0.986815622623797	0.0584807545921256	-0.986570712852161	-0.0146019499792652	-0.00461349691904288
5.1	-0.0120257818840394	0.00786928059760027	-0.0954904140383537	-0.984029074771391	-0.0951587715830278	-0.983804361527577	-0.014449543967184	-0.00285798852305368
5.2	-0.00982105981735755	0.00962081300824214	-0.247136266813852	-0.957175004602603	-0.246644771169571	-0.957148770288343	-0.014038898541663	-0.00130618607021658
5.3	-0.00735487502674413	0.0106245545877792	-0.392551819865583	-0.90721464512491	-0.392211672542624	-0.907431006262086	-0.0133166059835897	-5.44292693400552E-05
5.4	-0.00489377225590581	0.0113150256355711	-0.528580998135531	-0.835435103190243	-0.528368588438916	-0.835635878241972	-0.0127263055845163	0.000889615647199815
5.5	-0.00280532236647242	0.0116649192494184	-0.652070082263642	-0.743222057926581	-0.651831476289786	-0.743416891219293	-0.0126568615820628	0.00181888107402354
5.6	-0.000154767745614858	0.0123257107187301	-0.759235075181083	-0.632716249043609	-0.759045706696575	-0.632888138922397	-0.0121330993872519	0.00325230339451025
5.7	0.00253149111733627	0.0119336014284901	-0.848118641665236	-0.507229973352836	-0.847989617929788	-0.50744967678417	-0.0114549882024841	0.00443796738921875
5.8	0.00497159084615142	0.0111576005019589	-0.91639488178677	-0.369388604832934	-0.916327280920489	-0.369673316871516	-0.0107268384324672	0.00557457965104929
5.9	0.0071590802517818	0.00962150459119253	-0.962624586273412	-0.222780846480567	-0.962639091946913	-0.222864381654483	-0.00996575473182831	0.00646246971448096
6	0.00842069996135805	0.00762688206649442	-0.985367153564798	-0.0705883444672228	-0.985248090605309	-0.0706463895522393	-0.0097798943451876	0.00721219580243283
6.1	0.0092368329549024	0.00613366728158364	-0.98413634068424	0.0829183487151081	-0.984009951640218	0.0827700507862448	-0.00925464408315743	0.00871647773715182
6.2	0.00991105906882973	0.00439065382562708	-0.959286861778786	0.234607997290962	-0.959273246646042	0.234405487870453	-0.00817220157139959	0.00973520466382476
6.3	0.0101018193405395	0.00227133957743304	-0.911234597272704	0.380601876614028	-0.911230141612496	0.380416834206284	-0.00683811168111036	0.0101730999868829
6.4	0.0098699729343222	-5.46011844301935E-05	-0.840989373744804	0.517386039400475	-0.840957831634365	0.517175729995936	-0.00561120205967165	0.00992925737857673
6.5	0.0089342023316148	-0.00255519062660658	-0.750403355592768	0.641262778544877	-0.750427490358309	0.641059096569635	-0.00471775595839197	0.00929762502253763
6.6	0.00772335059050438	-0.00463979285380909	-0.642017374078422	0.750026595492353	-0.642091145286587	0.749774891407723	-0.0039563718001732	0.00876133900412812
6.7	0.00596910985227035	-0.00650357476795924	-0.517701960588107	0.840569083393395	-0.517804649239187	0.840348311241512	-0.00357319407709604	0.00820906735672842
6.8	0.00406413212807425	-0.00768782776157082	-0.380901500975926	0.910629076550721	-0.381042927496115	0.910458676321153	-0.00337631664319493	0.00807049452584588
6.9	0.00202987441865516	-0.00843714501200595	-0.23500789104869	0.958440065137939	-0.235234095114949	0.958329888500328	-0.00291318912995448	0.00815884109372541
7	0.000218488261530888	-0.00855589770659359	-0.0837317487832551	0.983353087533349	-0.0839411912401464	0.983263401065575	-0.00223829162521093	0.00820384058420636
7.1	-0.00137370255731387	-0.00843725270130094	0.0701125275228812	0.984487419407254	0.0699108612968836	0.984354402981122	-0.00132636539702114	0.00819070069179864
7.2	-0.0027984252879908	-0.00810748982776034	0.222031626571937	0.96146525452756	0.221750004943694	0.961430766545879	-0.00025082672928728	0.0081032819624837
7.3	-0.00425738694557967	-0.00762595613507634	0.368358925809558	0.915277486649659	0.368123286562422	0.915303656486501	0.000813053037588511	0.00777770219608977
7.4	-0.00541666705599709	-0.00685489834570825	0.50580046731023	0.847099333269076	0.505587403357211	0.847150328811976	0.00167873095399693	0.00718468194985941
7.5	-0.00651448978150837	-0.00599084955615701	0.631358514495375	0.75832885837723	0.631189201095665	0.758398412421121	0.00247579765175929	0.00663151623787938
7.6	-0.00689120469053998	-0.00478249373766441	0.741228261461266	0.650813151066363	0.740971115531218	0.650895426897312	0.00363722665223798	0.00580582121549009
7.7	-0.00695891032243749	-0.00369395550982828	0.832965128543125	0.527925961578226	0.832779873487541	0.528142749170808	0.00448059500737043	0.00455557859205674
7.8	-0.00654926200957106	-0.00267122459797387	0.904793540629019	0.392260873999015	0.904690574062703	0.392485922654983	0.00507006818382036	0.00299902161620516
7.9	-0.00602545074005279	-0.0018940372438492	0.954763585895142	0.247162081200789	0.954625604192043	0.247341476173134	0.0051322582161651	0.00130916175389774
8	-0.00572764063006329	-0.00151527311360428	0.981114252603654	0.0957599161319332	0.981091131469515	0.096022291757089	0.00395615130503756	-0.000383976847207957
8.1	-0.00545002009626583	-0.000248034597591339	0.984001339840453	-0.0572744829398902	0.984029993381847	-0.0570192242090914	0.00246521219206908	-0.000650316829995054
8.2	-0.00448620627105678	0.000726232668716336	0.963241566701562	-0.209205943078022	0.963289492518939	-0.208889166132169	0.0012553389355226	-0.000661320347073376
8.3	-0.00349549241811511	0.00154432388146577	0.919115830930067	-0.356149903623137	0.919166791152862	-0.355862963664152	0.000148360049764179	-0.000259003665199738
8.4	-0.00205278499927561	0.00209459777249171	0.852573524535828	-0.494500315876973	0.852670991518338	-0.494298406249024	-0.000539317091446514	0.000374653844921235
8.5	-0.000857759848962496	0.00187739379897498	0.765517444922934	-0.620331942497774	0.765568544306675	-0.620181291852789	-0.00112047798925474	0.000689871382378167
8.6	0.000148734617680608	0.00207047368737787	0.660117921510741	-0.731752225207999	0.660285908670162	-0.731514956401432	-0.00166517820489543	0.00190677353528244
8.7	0.00152226666214868	0.00204507245532246	0.538378814187707	-0.825338283385617	0.53863755737306	-0.825122519786828	-0.0012401666375492	0.00316101874903094
8.8	0.00314505716753491	0.00164461162174255	0.403788080643268	-0.898756780288272	0.403973073103509	-0.898617474166054	-0.000387741003589209	0.00403553143470082
8.9	0.00486524972156025	0.000820994865398833	0.259524479180607	-0.950374201601259	0.259703198846771	-0.950203926056538	0.00121738774043944	0.00473152729780359
9	0.00673258184937759	-0.000945926088311819	0.109088834098151	-0.979211963874847	0.10939697795836	-0.979164818610787	0.00336151287987122	0.00457831492084327
9.1	0.0081633558799071	-0.00309205343514227	-0.0444182255180224	-0.984308120445208	-0.0441091599645308	-0.984266645781823	0.00572362766711686	0.00369595896179652
9.2	0.00902333320096974	-0.00575226204925272	-0.196693791181516	-0.965232203225093	-0.196346302504498	-0.965209371011714	0.00785642586424144	0.00178330144183482
9.3	0.00890896879826947	-0.0080588100746573	-0.343934907650867	-0.922943663532962	-0.343583090683362	-0.922917529502295	0.00928584549500413	-0.000562178903522214
9.4	0.00849475674815023	-0.0100311474340989	-0.482773617094108	-0.858597852599623	-0.482450255833693	-0.858688085553176	0.0100669357411944	-0.00329033373665746
9.5	0.00716152131122801	-0.0111561095945615	-0.610451948297398	-0.773243950772821	-0.61021482773003	-0.77329384863616	0.00930223186242157	-0.00592090584636758
9.6	0.00678264091820756	-0.0115809914786725	-0.722875122014589	-0.668752255044797	-0.722563239958903	-0.668890476542589	0.00859990472056773	-0.00775680790317091
9.7	0.00623880141564409	-0.0121747323662086	-0.817676868222123	-0.548552260439003	-0.817388869486523	-0.54878474911972	0.00692887155277151	-0.010107499574053
9.8	0.00558730455554508	-0.0126503433105572	-0.892885640983775	-0.415143749644204	-0.892631925734888	-0.415312299878953	0.00427588708869618	-0.0117970409391481
9.9	0.0049684629772158	-0.0128506335458932	-0.946657701025462	-0.271491607478212	-0.946404822930003	-0.271700100533267	0.00127293559475823	-0.0127388162916785
10	0.00370515268108019	-0.0132748264404226	-0.976945539460242	-0.120970281128709	-0.976791285748115	-0.121332549334148	-0.00269656945454381	-0.0129378034144766
10.1	0.00277545502734323	-0.0123825938258927	-0.983660051845395	0.0317250446463303	-0.983595758135045	0.031293479092812	-0.00622434208540818	-0.0110486198119521
10.2	0.00254035474556441	-0.0120073289415296	-0.967013589985034	0.183984431770088	-0.966890910501739	0.183553189167488	-0.00882216631697065	-0.00880095496932383
10.3	0.00222934985412493	-0.0117117749325804	-0.92669219123623	0.331968057032015	-0.926708788289015	0.331426166819641	-0.0109238859291986	-0.00625389205141417
10.4	0.00210062015128825	-0.0119729517126209	-0.863626471508262	0.471687045648628	-0.863762607950069	0.471175300472905	-0.0122047999063449	-0.00369353051408424
10.5	0.00144132993375215	-0.012610386123706	-0.779938237052641	0.59941341797012	-0.780110681372423	0.598981083002704	-0.0130005381431146	-0.00156631153002908
10.6	0.000220822133564678	-0.012881299284173	-0.677811298364462	0.713214233006154	-0.678083472588996	0.712883767430549	-0.0136553211837653	0.00105601480895374
10.7	-0.000829551252861331	-0.0124823275813679	-0.558870689804304	0.809838231623323	-0.559171152252605	0.809528420882249	-0.0132625330094074	0.00418646548871016
10.8	-0.00126374316680541	-0.0122029703872229	-0.426336233465664	0.886617899558572	-0.4266869269859	0.886319303637303	-0.0116301988766937	0.0072083972940399
10.9	-0.00171271007527393	-0.0118614908735121	-0.28374923552961	0.941804378212881	-0.284139460853317	0.941681118277354	-0.00942329161388791	0.00952758628188407
11	-0.00208105082624964	-0.0119122961829777	-0.134456818991271	0.974780609743623	-0.13489400932481	0.97468952186792	-0.00664455783765428	0.011115326464421
11.1	-0.0023336765593895	-0.0118535573068861	0.0188892360821103	0.983761449984007	0.0184001807099294	0.983774701960761	-0.00336089818847897	0.0119698621489065
11.2	-0.00266186034211928	-0.0122130712060976	0.171293307478093	0.968707836817811	0.170835975678532	0.9687807738388	0.000118562330761098	0.0118350918861846
11.3	-0.00314727541254678	-0.0125004610270349	0.319339018835987	0.930379765254795	0.318879754555227	0.930516252789024	0.00364540247191271	0.0109309164300765
11.4	-0.00389663677901784	-0.0130252392072627	0.459786621071561	0.86980601926627	0.459382524762111	0.869919060803172	0.00679793862858022	0.00924515899238917
11.5	-0.00536748963477007	-0.0129618315750806	0.589632605386749	0.78771626891886	0.589313808154197	0.788018779780336	0.00883444414116731	0.00712977347141024
11.6	-0.00624963576635436	-0.0124588122828227	0.704334149043601	0.686290250703492	0.704118849843236	0.686618080101011	0.0108516860403921	0.00508699094127788
11.7	-0.00709353270784572	-0.0119552775924601	0.802105624474801	0.568795548529042	0.801902413555709	0.569102101371848	0.0122920673189956	0.0022945347833586
11.8	-0.00808281768688547	-0.0114713629608576	0.880748176461676	0.437386941477689	0.880566363342943	0.437837814887432	0.0128144410638645	-0.000775323832950511
11.9	-0.00873150578931478	-0.0108069730652289	0.938112694556169	0.29529887833686	0.938006967244776	0.295748950617337	0.0125823828799751	-0.00390280869168833
12	-0.0108479414323043	-0.0104178415531096	0.972146359762396	0.145904412930911	0.972117821920579	0.146268841972342	0.0105840201703154	-0.00711135108806049
12.1	-0.0121567817885425	-0.00847705575092683	0.982837008174944	-0.00632933530632534	0.982766180847902	-0.00594468571662325	0.00845079026574327	-0.00878949932866233
12.2	-0.0131441737932197	-0.00676330736234426	0.970046275959387	-0.15882944375727	0.970063884334791	-0.158531390681287	0.00602864582020546	-0.0101012203964599
12.3	-0.013797988894971	-0.00464797187721867	0.93340211238737	-0.307519669669746	0.933521814533516	-0.307213036639148	0.00349334564873307	-0.0107707042544032
12.4	-0.0139620710475637	-0.00260476156307092	0.874216633538484	-0.4486482759485	0.874280030670497	-0.448278698859921	0.00120202150397568	-0.0108783741853509
12.5	-0.0137797153977639	-0.000962603779478054	0.793892525239665	-0.578265927721761	0.794232949270146	-0.577875671846448	-0.00127675725849159	-0.0110235272439534
