# GHZ S RI R 50
0.2	-0.00649724934868779	0.0118483895759102	0	0	0.957702842776281	0.0584053233999122	0	0
0	0	0.0191366479190398	0.00549068793229008	0	0	-0.370713569308583	0.910959388641278
0.957702842776281	0.0584053233999122	0	0	0.0208385694436808	0.0404628382701591	0	0
0	0	0.569846129384687	-0.753819134182278	0	0	0.00137522143863433	-0.0332950814100329
0.3	0.00663522223662229	-0.0104866059572464	0	0	0.0340998837287096	-0.965042188097488	0	0
0	0	-0.00584549125726529	0.0018632171354396	0	0	-0.133640661678848	-0.974233348054035
0.0340998837287096	-0.965042188097488	0	0	-0.0147784047831298	0.00342689126475502	0	0
0	0	-0.921868064020044	-0.202711633065085	0	0	-0.0332634176703973	-0.0184596016680171
0.4	-0.00887977846093618	0.00786757105055406	0	0	0.948516569837444	0.0629463424868247	0	0
0	0	-0.0393754318651873	0.000723384905688646	0	0	-0.666439926820894	-0.726467181392004
0.948516569837444	0.0629463424868247	0	0	-0.0349848764328442	-0.0145423755258447	0	0
0	0	-0.234303925940032	-0.896077738650124	0	0	0.0207451070456933	0.0193042100728563
0.5	0.0116717839669795	-0.00429779041014554	0	0	0.129033107359379	-0.948932277208337	0	0
0	0	-0.032529968196624	0.00447693627509682	0	0	0.963984455195152	0.208519827829649
0.129033107359379	-0.948932277208337	0	0	0.0360474287982516	0.0165915984367874	0	0
0	0	-0.679715087107199	0.635904606488566	0	0	0.00446047796177371	0.00750412319518198
0.6	-0.0127463015584324	0.0015757841545304	0	0	0.955440350300662	0.132983663591503	0	0
0	0	-0.00762307888029301	0.00575866555954498	0	0	0.913865339760602	-0.328137355114566
0.955440350300662	0.132983663591503	0	0	0.00469005009267463	-0.0197197443087807	0	0
0	0	-0.861921433508676	-0.346553727093242	0	0	-0.00564503014634522	-0.00723839251034275
0.7	0.0124292199770992	0.000697187642754304	0	0	0.110925066908113	-0.958600058580079	0	0
0	0	0.0234845819132203	-0.0111164904115607	0	0	-0.613409582998673	0.74807628125326
0.110925066908113	-0.958600058580079	0	0	0.00798597776190423	0.00977524634800741	0	0
0	0	0.0441104180838519	0.921593127880812	0	0	0.00230162005868859	-0.0130730887893617
0.8	-0.0109337005002321	-0.00365288370678082	0	0	0.956672762781451	0.1156999305231	0	0
0	0	0.04503983401958	-0.0417696212320764	0	0	-0.122638940827521	0.9623918758323
0.956672762781451	0.1156999305231	0	0	-0.0227066544801189	0.0123371305534055	0	0
0	0	-0.813970964561278	0.447814685368897	0	0	0.00636494164146787	0.0833737042644987
0.9	0.00788378779027509	0.00654031323932599	0	0	0.147156763529558	-0.94217839789845	0	0
0	0	0.0138889126651049	-0.0275482361954897	0	0	-0.434023330414913	-0.869301440974066
0.147156763529558	-0.94217839789845	0	0	-0.00207974973077476	-0.0627418183396233	0	0
0	0	0.765196183835371	0.528045492253436	0	0	0.0363023391196521	0.0134651390888255
1	-0.00441508566274881	-0.0084647684748441	0	0	0.945657903655925	0.183702399424776	0	0
0	0	-0.0140629863353669	0.0120256234538373	0	0	-0.840656697925658	-0.484367654852037
0.945657903655925	0.183702399424776	0	0	0.00196774199598019	0.0418154538950578	0	0
0	0	-0.128114424482453	0.905669443837114	0	0	0.00279790070484456	0.00158684223996931
1.1	0.00113336756298867	0.00865856080506497	0	0	0.203269304099622	-0.953331757940322	0	0
0	0	-0.0117055665977641	0.0351111249966674	0	0	0.960579260976949	-0.0504568874499301
0.203269304099622	-0.953331757940322	0	0	0.00250232043630222	0.00167513450271357	0	0
0	0	0.872983990107924	-0.260692575025283	0	0	0.00795883392830649	0.0432160705200986
1.2	0.00131394517904197	-0.00709904395466142	0	0	0.963656337338644	0.203755972643087	0	0
0	0	0.00826704908223658	0.0644012518460991	0	0	0.774821704454775	-0.557393472710538
0.963656337338644	0.203755972643087	0	0	0.0529754025196659	-0.000204994054349605	0	0
0	0	0.616886219754866	0.674724631763899	0	0	0.00615119228807581	0.10096894004485
1.3	-0.00305936864442587	0.00378565176513624	0	0	0.205610662455788	-0.947833349550265	0	0
0	0	0.0155840466025615	0.0185399254984092	0	0	-0.356121649075361	0.887951453720224
0.205610662455788	-0.947833349550265	0	0	-0.0558064543005749	0.00122979506325513	0	0
0	0	0.323022017576222	-0.863840628646854	0	0	0.039810169907522	0.0152090255432586
1.4	0.00373567790797086	7.32314713529034E-06	0	0	0.929755018476899	0.233150660740595	0	0
0	0	-0.0137338789593113	-0.0444374662882502	0	0	0.182055793355515	0.941723076162452
0.929755018476899	0.233150660740595	0	0	0.0164807008496827	0.00883569160829599	0	0
0	0	0.903128199710193	-0.0859571882063968	0	0	0.0441745274631736	-0.0059468939536425
1.5	-0.00281683087553617	-0.00309198158753661	0	0	0.2699025243439	-0.927831796543561	0	0
0	0	-0.0385178109598912	-0.0572478921467117	0	0	-0.679574585548977	-0.676755894133903
0.2699025243439	-0.927831796543561	0	0	0.0324685194874026	-0.0324807600634653	0	0
0	0	-0.465586499904372	-0.769789653713936	0	0	0.0331847662478938	0.0531896917451193
1.6	0.000712087049957677	0.00493646134505043	0	0	0.942598511383778	0.292953400256661	0	0
0	0	-0.0363963133581022	-0.0206669892756159	0	0	-0.94129305255418	-0.181326172371697
0.942598511383778	0.292953400256661	0	0	-0.0525518726396351	-0.0259087647623285	0	0
0	0	0.496914452397373	-0.758686742517957	0	0	0.000950511303133787	0.0536779142251483
1.7	0.00192749669191333	-0.00511037903528117	0	0	0.287025988164321	-0.947540900165039	0	0
0	0	0.0156048994415542	0.00529638653107081	0	0	0.886414194867104	-0.34804094071426
0.287025988164321	-0.947540900165039	0	0	-0.00117350264470552	0.00607075430561611	0	0
0	0	-0.903777833267939	-0.108147115873356	0	0	0.0398698994780106	-0.0303374456540655
1.8	-0.00443407257099468	0.00340115013152057	0	0	0.920888738358099	0.287749164634362	0	0
0	0	0.0456746939890694	0.0372120347547621	0	0	0.571762307475738	-0.749852664528774
0.920888738358099	0.287749164634362	0	0	0.00707943648471038	0.0660317029241784	0	0
0	0	-0.31423318116668	-0.850011429553116	0	0	0.0274304240101151	-0.0338815875770792
1.9	0.00629231399743016	-0.000183784843732097	0	0	0.316889727109348	-0.896730485821345	0	0
0	0	0.0531566911114324	-0.00425926418842744	0	0	-0.0798561917536251	0.94309586903984
0.316889727109348	-0.896730485821345	0	0	0.00986115346279815	0.00926365607490067	0	0
0	0	-0.613410048607466	0.648872330347606	0	0	0.0412757533477704	0.0236449697144413
2	-0.00673503437832261	-0.00393563339931256	0	0	0.892924058477207	0.34732630968367	0	0
0	0	0.015573111824799	-0.00510013497200797	0	0	0.460427361701454	0.831944126065218
0.892924058477207	0.34732630968367	0	0	-0.0500982531472917	-0.0327440433894543	0	0
0	0	-0.845716422698948	-0.261192732410634	0	0	-0.0531559622512017	-0.0206946193144611
2.1	0.00544870503400079	0.00813580365467719	0	0	0.362425030564605	-0.899036645468524	0	0
0	0	-0.0287026017037106	0.00810466454866596	0	0	-0.83126944165163	-0.4498691539284
0.362425030564605	-0.899036645468524	0	0	0.0706737925075795	0.0162463312545678	0	0
0	0	0.137655310888069	0.878867524197981	0	0	-0.00497849399914948	0.00987014566458374
2.2	-0.00200026182495872	-0.0117151486904918	0	0	0.898989451781506	0.374811517446693	0	0
0	0	-0.0477947211151775	0.0176930588419777	0	0	-0.93168110061936	0.0702708430912097
0.898989451781506	0.374811517446693	0	0	0.0146133415927687	-0.0106802488442413	0	0
0	0	-0.735904976550056	0.507205781208795	0	0	0.0424978937225471	-0.0112385930882342
2.3	-0.00323857833378198	0.0136361621861493	0	0	0.385214563126766	-0.889609994907294	0	0
0	0	-0.030264516078019	0.0198451150316959	0	0	0.735851491415369	-0.555923768238173
0.385214563126766	-0.889609994907294	0	0	0.0580128132488124	-0.0286460510770024	0	0
0	0	0.77615942785783	0.431351605792375	0	0	0.0667886799540554	0.0465693507877972
2.4	0.00948774085404856	-0.0133974282407695	0	0	0.877996187223602	0.39769665278078	0	0
0	0	-0.00048496657378256	0.00144590011620215	0	0	0.323963268941974	-0.867862880513523
0.877996187223602	0.39769665278078	0	0	-0.0966292643753166	0.0142444220730665	0	0
0	0	-0.0389242771332871	0.882409954186164	0	0	0.0471616637975115	-0.0490291832570009
2.5	-0.01600223072922	0.0106507362144748	0	0	0.415252354308497	-0.866672501459012	0	0
0	0	0.0192538881074858	-0.0358637844810088	0	0	0.189387392453201	0.917798729395052
0.415252354308497	-0.866672501459012	0	0	-0.0098255099621459	-0.0268928805042116	0	0
0	0	0.805192253358906	-0.332158694067261	0	0	0.0127288432169332	-0.000636754905060119
2.6	0.0215061890110165	-0.00574152988108766	0	0	0.860088411212471	0.429852191793769	0	0
0	0	0.018050011470572	-0.0388796368923142	0	0	0.667474869432076	0.654213910163556
0.860088411212471	0.429852191793769	0	0	0.00597592983125555	-0.0334931233099968	0	0
0	0	0.630866752616102	0.597835637864654	0	0	0.0628138467099321	0.0102192862637914
2.7	-0.0251056431485251	-0.000996333778931403	0	0	0.444814451598367	-0.854774031113925	0	0
0	0	0.0213320033395707	-0.00985608440026596	0	0	-0.898699473387071	-0.174670224059039
0.444814451598367	-0.854774031113925	0	0	0.00368690351589203	-0.013087737697899	0	0
0	0	0.276467754653476	-0.836559698145919	0	0	-0.0272703411504443	-0.000933294861721628
2.8	0.0257010621487777	0.00869266191574485	0	0	0.84507968395353	0.458506518965212	0	0
0	0	0.00978462156064198	0.012196397675021	0	0	-0.844060813512119	0.313066966346842
0.84507968395353	0.458506518965212	0	0	0.00452594609980313	0.0639310485614846	0	0
0	0	0.873418593994828	-0.150321431520875	0	0	0.0264361051098711	-0.064080305201738
2.9	-0.0226756729005442	-0.0164211199354302	0	0	0.474678685930257	-0.8267846495569	0	0
0	0	-1.90238180084456E-05	0.036155796921501	0	0	0.568737780822361	-0.702797679075665
0.474678685930257	-0.8267846495569	0	0	-0.0534797907300081	0.0340899736792561	0	0
0	0	-0.516780527223359	-0.704492264472123	0	0	-0.0402676922489261	-0.0464047844945435
3	0.0168551143178305	0.0233177034105062	0	0	0.818736936930769	0.498827926266082	0	0
0	0	-0.0107271805908347	0.0291390678641594	0	0	0.091098456980439	-0.923252343426501
0.818736936930769	0.498827926266082	0	0	-0.00670631488380128	-0.0180464224481274	0	0
0	0	0.407178041282312	-0.763487370641481	0	0	0.0139811808949632	0.0863586361195586
3.1	-0.00843554340957381	-0.0275632576897924	0	0	0.519329086140633	-0.809352829117158	0	0
0	0	-0.0198124931190849	0.012302589025579	0	0	0.4512042391078	0.808732014935657
0.519329086140633	-0.809352829117158	0	0	0.0388469528314368	-0.065281092678613	0	0
0	0	-0.872486702516342	-0.0487979727281175	0	0	-0.0758430293927713	0.0065851151621368
3.2	-0.00106715445478381	0.0292693581713395	0	0	0.808498703866254	0.542634215937244	0	0
0	0	-0.0173692495699743	-0.00566988133130387	0	0	0.802093344792489	0.43674135771149
0.808498703866254	0.542634215937244	0	0	0.000827940961359002	0.0253240326830774	0	0
0	0	-0.340732651060613	-0.816123435978057	0	0	-0.0595711588032396	0.00727291465931049
3.3	0.0102743352601408	-0.0270617977087859	0	0	0.553266137379021	-0.804816867179844	0	0
0	0	-0.000947852443825513	-0.0232973553459043	0	0	-0.907905681447278	0.0535268102464057
0.553266137379021	-0.804816867179844	0	0	0.0626170510726195	0.0240294207644773	0	0
0	0	-0.574457345008156	0.679819275664809	0	0	-0.0282611660439663	-0.107411362784144
3.4	-0.01791324348943	0.0211697498496697	0	0	0.788331928909821	0.557220221456524	0	0
0	0	-0.00430655835061535	-0.0398726954551094	0	0	-0.732627976625081	0.547812161796927
0.788331928909821	0.557220221456524	0	0	-0.115677906852483	0.0098446135592125	0	0
0	0	-0.860223944690593	-0.219228345779236	0	0	-0.0199938680453419	-0.0398003576154168
3.5	0.0231887116877714	-0.0134009811357639	0	0	0.570876226587238	-0.779075024647333	0	0
0	0	0.00772998624935862	-0.0297660339300832	0	0	0.293319521394158	-0.872409608983445
0.570876226587238	-0.779075024647333	0	0	-0.0127445182255717	-0.0537188723977157	0	0
0	0	0.172422956969966	0.844135456945265	0	0	0.0845866262172793	-0.0737352088586214
3.6	-0.0251018371971068	0.004641315467774	0	0	0.771681677177109	0.579757499359411	0	0
0	0	0.0191002682525784	0.00280705249124575	0	0	-0.215389440322122	-0.894040011462336
0.771681677177109	0.579757499359411	0	0	-0.0336176947664577	0.0610846555314656	0	0
0	0	-0.690345616998109	0.525214692112064	0	0	0.044473951122351	-0.032195769666511
3.7	0.0230929417817006	0.00473986406066234	0	0	0.597939387817475	-0.750921810209364	0	0
0	0	0.0132956054973638	0.0363823803660186	0	0	0.643523969125152	0.644518430209085
0.597939387817475	-0.750921810209364	0	0	0.118586108891464	0.00585073283981293	0	0
0	0	0.77317464505248	0.404320574783906	0	0	0.0552067133768315	-0.0197923952971672
3.8	-0.0180676351369011	-0.0124916759889134	0	0	0.74388654968501	0.615912614793824	0	0
0	0	0.0146048399253631	0.0504463363857181	0	0	0.870953608067826	0.18035253271159
0.74388654968501	0.615912614793824	0	0	-0.0249758532741685	0.0211368745953693	0	0
0	0	-0.0100122241950141	0.870054803144579	0	0	-0.0584688532738596	-0.0244219908544214
3.9	0.0108785375744925	0.0172477662603307	0	0	0.620119183485501	-0.742036517793089	0	0
0	0	0.0105918642702989	0.0154422841225393	0	0	-0.819661375912104	0.33191590808431
0.620119183485501	-0.742036517793089	0	0	-0.0123085142993418	0.0830848208329148	0	0
0	0	0.778194770276086	-0.389368930446999	0	0	0.0246134720914053	-0.00596872413605198
4	-0.00210650973235397	-0.018707491484535	0	0	0.723156015305392	0.628326271039233	0	0
0	0	-0.017055481277255	-0.0125227097221712	0	0	-0.50974719249372	0.72485150333778
0.723156015305392	0.628326271039233	0	0	0.0497752410502077	-0.0743901659387717	0	0
0	0	0.684446489551085	0.509931581670963	0	0	-0.00462068571189119	0.00955336220494146
4.1	-0.00597275612249684	0.0167241585129201	0	0	0.634099912561208	-0.709126095909407	0	0
0	0	-0.0416293339334077	-0.0356130526030492	0	0	0.0502096678696734	-0.88780158343156
0.634099912561208	-0.709126095909407	0	0	0.0236876980790236	-0.111233318870294	0	0
0	0	0.178773935314505	-0.825189347881368	0	0	0.0268496848338173	0.0808830435773154
4.2	0.0124363392045518	-0.0120137394606965	0	0	0.703233079014005	0.645882820521079	0	0
0	0	-0.0487888478672672	-0.01552318572704	0	0	-0.434225067646877	-0.774737298798057
0.703233079014005	0.645882820521079	0	0	-0.0396907384564479	0.0165403768801592	0	0
0	0	0.826254468587878	-0.187033003511938	0	0	-0.0120132355696698	-0.0408467871327964
4.3	-0.0161681021906868	0.00502966198598444	0	0	0.655325921045171	-0.695784524791128	0	0
0	0	-0.00720929338483249	0.00675498374591019	0	0	0.775151995564273	0.419258382363377
0.655325921045171	-0.695784524791128	0	0	-0.0105923202455192	0.0667323814650485	0	0
0	0	-0.533428271580836	-0.668168900456218	0	0	-0.014260061856578	0.00243097011601795
4.4	0.0163135846001963	0.00320520948564348	0	0	0.678371780994425	0.665765422223282	0	0
0	0	0.0381841143550521	0.004463769295733	0	0	0.883237755261577	-0.0549968641526952
0.678371780994425	0.665765422223282	0	0	0.00119623338413099	-0.0496727233053428	0	0
0	0	0.342650347329315	-0.768634270302606	0	0	-0.0332437959681155	0.00337790775324766
4.5	-0.0128312063857016	-0.0106486743016531	0	0	0.673349695884466	-0.65998193357011	0	0
0	0	0.0646239902657103	-0.00432849889852298	0	0	-0.718354628430885	0.521143511602486
0.673349695884466	-0.65998193357011	0	0	-0.0492624780583231	0.0263641466278532	0	0
0	0	-0.831117465019068	0.01188858147793	0	0	-0.0851718540395704	0.0615823973900425
4.6	0.00640577463027018	0.0162708937028788	0	0	0.642115419786864	0.689068020660826	0	0
0	0	0.0464272939059295	-0.0247348568865698	0	0	-0.311892106742711	0.840911087879084
0.642115419786864	0.689068020660826	0	0	-0.00369215418096517	0.0137074632167348	0	0
0	0	-0.370164801490207	-0.741735823358654	0	0	-0.0795706311169847	-0.00952056298910094
4.7	0.00164692448333412	-0.0188710614189184	0	0	0.707317119504817	-0.635610563155549	0	0
0	0	-0.0249280724846707	-0.00520780495894694	0	0	-0.190009661589185	-0.871368603360135
0.707317119504817	-0.635610563155549	0	0	0.0655136701433613	-0.0176761375988656	0	0
0	0	-0.523081225301372	0.653412646044736	0	0	-0.0728352969958532	0.0718215697523415
4.8	-0.0102314855358086	0.0179907094667194	0	0	0.636321852735217	0.724074816195446	0	0
0	0	-0.0591027617023193	0.0342989195465169	0	0	-0.60553546151189	-0.633977531358315
0.636321852735217	0.724074816195446	0	0	0.0530598781451139	-0.0185089995456082	0	0
0	0	-0.825924826605233	-0.197254551634559	0	0	-0.00921732916284197	0.0716085300282844
4.9	0.0177538233258383	-0.0128304954028034	0	0	0.730539091288589	-0.629014082284888	0	0
0	0	-0.0402440948663257	0.0583992355118108	0	0	0.853550888824796	0.206960625727441
0.730539091288589	-0.629014082284888	0	0	-0.080503320269205	-0.0292753818752381	0	0
0	0	0.198776013751724	0.820558474621621	0	0	-0.0834205092153772	0.00384646109624454
5	-0.0224111295890585	0.00470782512267637	0	0	0.618785172406618	0.726198701209937	0	0
0	0	-0.000773600038473521	0.0198710320492009	0	0	0.830713204206391	-0.298588671028827
0.618785172406618	0.726198701209937	0	0	-0.0475067877415419	0.0404287937132604	0	0
0	0	-0.644805242544161	0.534017456728868	0	0	0.041406391792925	-0.00908772949419516
5.1	0.0238772607534517	0.00520699362573544	0	0	0.727425614928145	-0.606978331462955	0	0
0	0	0.0381244873102456	-0.0341650382408924	0	0	-0.532580868734824	0.696242120733915
0.727425614928145	-0.606978331462955	0	0	-0.0217876083371234	-0.0416972085759247	0	0
0	0	0.750438368314895	0.344047234928331	0	0	0.07244216023891	-0.0197946411903186
5.2	-0.0214551325029099	-0.0163016613022194	0	0	0.585392778623651	0.744838498278256	0	0
0	0	0.0159007526062556	-0.0750855972972378	0	0	-0.077043279674406	0.872018496749661
0.585392778623651	0.744838498278256	0	0	0.0382131877808331	0.0220746077334255	0	0
0	0	0.0168174566483327	0.832446763877435	0	0	0.0269122774849864	0.0664418262410253
5.3	0.0151731678001997	0.0259313254566408	0	0	0.762858448178286	-0.573945996261813	0	0
0	0	-0.0141932025615547	-0.0420057607141675	0	0	-0.414197950957877	-0.769854022394782
0.762858448178286	-0.573945996261813	0	0	-0.0321992038926202	0.0247233492054963	0	0
0	0	0.741951929787194	-0.376172477851335	0	0	-0.0433966941887719	0.0122535001437009
5.4	-0.00607810208893326	-0.0319678212046819	0	0	0.566066411526889	0.767214053121156	0	0
0	0	-0.031133936328493	0.0142088155982179	0	0	-0.768160146713967	-0.425642411706826
0.566066411526889	0.767214053121156	0	0	0.0707470334041081	0.0870922901257127	0	0
0	0	0.658608691257204	0.507549583199975	0	0	-0.00933728958948545	0.0219499546922044
5.5	-0.00475886058271776	0.0343701709334847	0	0	0.777273136100874	-0.563397417279179	0	0
0	0	0.0235473188809013	0.0600183839590584	0	0	0.876056056969223	-0.0474794993266531
0.777273136100874	-0.563397417279179	0	0	-0.00683369633955519	-0.027619706197675	0	0
0	0	0.154629844557394	-0.816254234825704	0	0	0.0217957250494592	0.0382941655302463
5.6	0.0163407052619299	-0.0317730106378357	0	0	0.549081456161534	0.782161684822982	0	0
0	0	0.0427168829246299	0.0569891140384223	0	0	0.694710820492921	-0.5098779630967
0.549081456161534	0.782161684822982	0	0	0.00114921643054808	-0.109169031677386	0	0
0	0	0.797271078471651	-0.204637902264386	0	0	0.0118556633586079	0.11698860375009
5.7	-0.0271452908648919	0.0251404358068446	0	0	0.794604925794699	-0.540319525304289	0	0
0	0	0.020968217831745	-0.00641007442093589	0	0	-0.314028222292411	0.806047589759693
0.794604925794699	-0.540319525304289	0	0	-0.0115321791599054	0.0511895969421338	0	0
0	0	-0.536719957766685	-0.644968507864887	0	0	0.0585609783235086	0.0339935653396515
5.8	0.0340379004359342	-0.0146362757671944	0	0	0.522238126282661	0.79403645678695	0	0
0	0	-0.021823593322092	-0.0307361328304424	0	0	0.157627221716726	0.8496873695795
0.522238126282661	0.79403645678695	0	0	0.0583574373671855	-0.027738735077194	0	0
0	0	0.320220228158967	-0.768908012940306	0	0	0.0341212544056883	0.055004527082174
5.9	-0.0371412553895825	0.00159834130269448	0	0	0.807524602120361	-0.498238374050477	0	0
0	0	-0.0560691969413677	-0.0262746252444634	0	0	-0.584260458135509	-0.633045213081881
0.807524602120361	-0.498238374050477	0	0	-0.0728139954979874	0.043185118953938	0	0
0	0	-0.822870344081063	0.0617293677396991	0	0	0.0375171197392551	0.0717073946874619
6	0.0357343620418426	0.0113204287049864	0	0	0.481348223407134	0.820726772234889	0	0
0	0	-0.0340248331154857	0.00614163096267466	0	0	-0.843652961202155	-0.192002723340502
0.481348223407134	0.820726772234889	0	0	-0.00339030662202555	0.0234871209558895	0	0
