# GHZ S RI R 50
0.2	-0.00768142110232719	0.0131020161919635	0	0	0.957631116832023	0.0584568656130684	0	0
0	0	0.0174173395331237	0.00526851936695038	0	0	-0.370778825678574	0.91094689971704
0.957631116832023	0.0584568656130684	0	0	0.0222992016777591	0.0385466790322859	0	0
0	0	0.569903614353523	-0.753791372218036	0	0	0.00279252450030747	-0.0352629131960565
0.3	0.00695842421123082	-0.0113025765657145	0	0	0.0341781662102219	-0.965064744509925	0	0
0	0	-0.00663380276547762	0.00149790977114029	0	0	-0.133593656849483	-0.9742269980245
0.0341781662102219	-0.965064744509925	0	0	-0.0141931296669296	0.00149604498968521	0	0
0	0	-0.921846755754023	-0.202751867138004	0	0	-0.0327614233520237	-0.0204273029584712
0.4	-0.00898043633612128	0.00780216951742107	0	0	0.948537444982941	0.0630654617095798	0	0
0	0	-0.0392689969253043	0.000666084071111907	0	0	-0.666337833219923	-0.726532112833967
0.948537444982941	0.0630654617095798	0	0	-0.0350828870737168	-0.0161129903530754	0	0
0	0	-0.234190616079361	-0.896086810410459	0	0	0.0205392086753105	0.0177463259273535
0.5	0.012069325279856	-0.00343220063140578	0	0	0.129152553497862	-0.94893314147056	0	0
0	0	-0.0316623943919241	0.00485500460725955	0	0	0.96398366156477	0.208684014286038
0.129152553497862	-0.94893314147056	0	0	0.0356226776665432	0.0156233577109201	0	0
0	0	-0.679842049970788	0.635815776827897	0	0	0.00395510732284285	0.0065566410307803
0.6	-0.0139133241779608	0.000400361372743715	0	0	0.955432535265977	0.133226825597021	0	0
0	0	-0.00635273647984344	0.00671899212982686	0	0	0.914026382547875	-0.327982553273851
0.955432535265977	0.133226825597021	0	0	0.00436296855809103	-0.0201495773782899	0	0
0	0	-0.861938115514074	-0.346766790208916	0	0	-0.0060237427325739	-0.00764124904976541
0.7	0.0143410169315626	0.00140212887338486	0	0	0.111188326490823	-0.958663163358705	0	0
0	0	0.0247231511326592	-0.00962894319602522	0	0	-0.613658320797175	0.748066837078658
0.111188326490823	-0.958663163358705	0	0	0.00802614919742576	0.00963397499045521	0	0
0	0	0.0439283393248985	0.921745461401958	0	0	0.00233451753873413	-0.0132299515190008
0.8	-0.0129577080268653	-0.00358807414179841	0	0	0.956881296514528	0.11600076616875	0	0
0	0	0.0460020720347941	-0.0400777171208349	0	0	-0.122640496352881	0.962561926096855
0.956881296514528	0.11600076616875	0	0	-0.0222392040127755	0.0120699103346099	0	0
0	0	-0.814103446423549	0.447909378900236	0	0	0.00680825505841486	0.0830820971185908
0.9	0.00937166763950042	0.0060034996182149	0	0	0.147580986158513	-0.94250239035847	0	0
0	0	0.0144445580718517	-0.0260963685758254	0	0	-0.433968677431522	-0.869524553482519
0.147580986158513	-0.94250239035847	0	0	-0.00132761951590641	-0.0635147917021886	0	0
0	0	0.765253425006635	0.528257706110013	0	0	0.0369157443852676	0.0126489505894176
1	-0.00514627001503006	-0.0080032948121913	0	0	0.946005414982274	0.183959629484727	0	0
0	0	-0.0139691382076262	0.0128374336870858	0	0	-0.840826042181913	-0.484630802570331
0.946005414982274	0.183959629484727	0	0	0.00246506884975103	0.0405192822799367	0	0
0	0	-0.128285068461014	0.905910102523455	0	0	0.00308871432160561	0.000172658435229905
1.1	0.00133108023211764	0.00888595700304189	0	0	0.203446865335975	-0.953770707730997	0	0
0	0	-0.0119708512842445	0.0350344037971936	0	0	0.960943494859347	-0.050342045808146
0.203446865335975	-0.953770707730997	0	0	0.00238352187122569	-8.65665097654304E-05	0	0
0	0	0.873344890773929	-0.260668098372669	0	0	0.00750835837531822	0.0415175190372181
1.2	0.000923299982271446	-0.00819610329003079	0	0	0.964070760352414	0.203760356773531	0	0
0	0	0.00791576351205556	0.0634266139066792	0	0	0.775292408599743	-0.557672737238872
0.964070760352414	0.203760356773531	0	0	0.0521005101804594	-0.00199330025014931	0	0
0	0	0.617204518458807	0.675141164831016	0	0	0.00486920846174918	0.0994986174297458
1.3	-0.00210378607450213	0.00517895165920551	0	0	0.205640251538751	-0.948323768702052	0	0
0	0	0.0154832968248636	0.0169776177420611	0	0	-0.356275919167947	0.888431640048842
0.205640251538751	-0.948323768702052	0	0	-0.0573198720731243	-0.000240348473860355	0	0
0	0	0.323159777660167	-0.864306905456534	0	0	0.0380829832657417	0.0140907627267456
1.4	0.00254388216715365	-0.00137449119754024	0	0	0.93013700193951	0.233009236855251	0	0
0	0	-0.0131938274380072	-0.046057896018052	0	0	0.18225718669596	0.942180501882423
0.93013700193951	0.233009236855251	0	0	0.0148556381987103	0.00762499695280414	0	0
0	0	0.903577127942854	-0.0861052923033444	0	0	0.0423164700207523	-0.0067546761431008
1.5	-0.00137902172517909	-0.00162487637534588	0	0	0.269748388731724	-0.928100488586372	0	0
0	0	-0.0372813755029854	-0.0586555420737094	0	0	-0.680184970738944	-0.676926543915723
0.269748388731724	-0.928100488586372	0	0	0.0307226105168956	-0.0334299378406864	0	0
0	0	-0.466103568640475	-0.770083059521489	0	0	0.0312988165544085	0.0527777917700349
1.6	-0.00122467951124752	0.00366635154252305	0	0	0.942996311159019	0.292817225582636	0	0
0	0	-0.0346583869559975	-0.0217371685516391	0	0	-0.941929121264053	-0.181020885768904
0.942996311159019	0.292817225582636	0	0	-0.054363454140719	-0.026320399812356	0	0
0	0	0.496875803984651	-0.759353134626242	0	0	-0.000853553064493407	0.0538051888712733
1.7	0.00407071505334398	-0.00454150976230557	0	0	0.286766168082108	-0.947769330300385	0	0
0	0	0.0174548948471582	0.00473356078440591	0	0	0.886636619027051	-0.348499106274086
0.286766168082108	-0.947769330300385	0	0	-0.0027014401397306	0.00618991735698006	0	0
0	0	-0.904172440750519	-0.107862050717028	0	0	0.0384197942061775	-0.0298358908541286
1.8	-0.0061531454852363	0.0033693635979737	0	0	0.921016564443124	0.287392061535192	0	0
0	0	0.0472316358606675	0.0372384745490771	0	0	0.571628167367039	-0.750340128801123
0.921016564443124	0.287392061535192	0	0	0.00602135240177829	0.0664925452984037	0	0
0	0	-0.314697837766843	-0.850153491892611	0	0	0.0264846525119568	-0.0331464876411304
1.9	0.00746698294048007	-0.000174751482380089	0	0	0.316622356583121	-0.896845656652553	0	0
0	0	0.0541107600149969	-0.00374291419510455	0	0	-0.0793881565527809	0.943299296853449
0.316622356583121	-0.896845656652553	0	0	0.00921057709378	0.00978025838980752	0	0
0	0	-0.613184333500091	0.649297601477589	0	0	0.0408495137454917	0.0243303556931969
2	-0.0076116721808774	-0.00424498806248485	0	0	0.893040046724123	0.347072932604164	0	0
0	0	0.0157965301139096	-0.00428416363092037	0	0	0.460882891496926	0.831907010442894
0.893040046724123	0.347072932604164	0	0	-0.0504923385784485	-0.0323328750351837	0	0
0	0	-0.845998147417735	-0.260873925416267	0	0	-0.053425315701999	-0.020159515171197
2.1	0.00641393573653019	0.00875721886657408	0	0	0.362108106202557	-0.898929498779207	0	0
0	0	-0.0291916107359379	0.0089978936527418	0	0	-0.831538856951112	-0.449575370593947
0.362108106202557	-0.898929498779207	0	0	0.0703271209713291	0.0164126943860492	0	0
0	0	0.138028928765087	0.878901520820291	0	0	-0.00521279838994608	0.0101937494610029
2.2	-0.0032644684629845	-0.0123361337450993	0	0	0.898844139461804	0.374595343549607	0	0
0	0	-0.0487786280981897	0.0184247977776206	0	0	-0.931664491864195	0.0705846747622261
0.898844139461804	0.374595343549607	0	0	0.014152760665503	-0.0105067387942987	0	0
0	0	-0.735739961537592	0.507457071026713	0	0	0.0421286909640374	-0.0109357095575443
2.3	-0.0018800733322299	0.0138966737346907	0	0	0.385135281926519	-0.889357639709979	0	0
0	0	-0.0313730799287417	0.0202819216928758	0	0	0.735610699207182	-0.556146542855672
0.385135281926519	-0.889357639709979	0	0	0.0573970239361966	-0.0282907806563238	0	0
0	0	0.776261777256855	0.431052800577327	0	0	0.0663974225009562	0.0470763584868264
2.4	0.00845621297847129	-0.013281980258198	0	0	0.877888576599674	0.397591935704854	0	0
0	0	-0.00138153596185439	0.00157276463251013	0	0	0.323816134188543	-0.867928985365406
0.877888576599674	0.397591935704854	0	0	-0.0971823560403098	0.0148899920962271	0	0
0	0	-0.0387713915328559	0.882426695735568	0	0	0.046859424658207	-0.0481976356724513
2.5	-0.0155392246456459	0.0105362442806284	0	0	0.415297426484949	-0.866525158076793	0	0
0	0	0.0188484918116578	-0.035988569898339	0	0	0.189537216847294	0.917802999500334
0.415297426484949	-0.866525158076793	0	0	-0.0102293331987926	-0.0259434864098146	0	0
0	0	0.805170159585688	-0.332296240650035	0	0	0.0127481875904128	0.00042062949121471
2.6	0.0214263681547109	-0.00600347373865071	0	0	0.859959174274541	0.429947816075421	0	0
0	0	0.0182117166509294	-0.0390724314363022	0	0	0.667602989362765	0.654213432337276
0.859959174274541	0.429947816075421	0	0	0.00583232261669622	-0.0323900043983445	0	0
0	0	0.630985871418114	0.597833186877295	0	0	0.0631725119289788	0.0113008585033013
2.7	-0.0250514786134516	-0.000329389050203743	0	0	0.444953724575636	-0.854689329297992	0	0
0	0	0.0219092652554576	-0.00991618256131748	0	0	-0.898903788865522	-0.174684356197052
0.444953724575636	-0.854689329297992	0	0	0.00375858648817341	-0.0119871697582985	0	0
0	0	0.276506191604331	-0.836753009480543	0	0	-0.0267166232557896	5.77935076667702E-05
2.8	0.0255676996749904	0.0078316572952137	0	0	0.845122866180791	0.458641703570233	0	0
0	0	0.0104868162069061	0.0124510212096599	0	0	-0.84426282682425	0.313165931196271
0.845122866180791	0.458641703570233	0	0	0.00472693552345414	0.0649700302681981	0	0
0	0	0.873631980366291	-0.150380669483283	0	0	0.0271296084417801	-0.0632740532100975
2.9	-0.0225794720661864	-0.0154118895114645	0	0	0.474873287015993	-0.826950398457382	0	0
0	0	0.000483741343722623	0.0368655001364248	0	0	0.568964028092667	-0.703067977614936
0.474873287015993	-0.826950398457382	0	0	-0.0531787836582257	0.0350081699540294	0	0
0	0	-0.516977434601494	-0.704770231715448	0	0	-0.0395625515882605	-0.0457680090269906
3	0.0167630626846945	0.0219816344477558	0	0	0.818927645603964	0.498963550458631	0	0
0	0	-0.0106336955096676	0.030285922218351	0	0	0.0909794073826262	-0.923813630664873
0.818927645603964	0.498963550458631	0	0	-0.00627330583166187	-0.0173378035879729	0	0
0	0	0.407275209045522	-0.764013621054537	0	0	0.0147688405509602	0.0868801025133046
3.1	-0.00809311668951385	-0.0258936306507687	0	0	0.519387177990537	-0.809502077432111	0	0
0	0	-0.0202296696021958	0.0137085639760968	0	0	0.451604160237014	0.809275832575748
0.519387177990537	-0.809502077432111	0	0	0.0393201792154873	-0.06487458737145	0	0
0	0	-0.873122135173065	-0.0487538558146756	0	0	-0.0752969842905427	0.00676896126354728
3.2	-0.00184521415056972	0.0274922786025356	0	0	0.808852306014671	0.542518775183529	0	0
0	0	-0.0183033960983699	-0.00434004867479566	0	0	0.802845574726173	0.436875939546884
0.808852306014671	0.542518775183529	0	0	0.00121427410497319	0.0255046104109074	0	0
0	0	-0.34121896648731	-0.81668119505346	0	0	-0.0592344633956861	0.00727239753952408
3.3	0.0113709566552034	-0.0255286536147496	0	0	0.553007433318988	-0.805086664056991	0	0
0	0	-0.0022208001210564	-0.0223705229628214	0	0	-0.908508816331456	0.0537907531868458
0.553007433318988	-0.805086664056991	0	0	0.0628357801367905	0.0239851682250591	0	0
0	0	-0.5746770386533	0.680424941201228	0	0	-0.0282181304671732	-0.107641680478299
3.4	-0.0189828462424621	0.0199431676987388	0	0	0.788919760586071	0.556954857478014	0	0
0	0	-0.00567849345186084	-0.0395984082497597	0	0	-0.732815123682337	0.54856128980618
0.788919760586071	0.556954857478014	0	0	-0.115734132565666	0.00992524752576354	0	0
0	0	-0.860903653095797	-0.218912991480345	0	0	-0.0200997960099277	-0.0398645739179162
3.5	0.0241287137604595	-0.0122126541420302	0	0	0.570516793066588	-0.779464600432007	0	0
0	0	0.00653485438146218	-0.0302005354358071	0	0	0.29288105332296	-0.872936033061096
0.570516793066588	-0.779464600432007	0	0	-0.012925138474243	-0.0537063025325376	0	0
0	0	0.173025288691493	0.844355646651423	0	0	0.084468077522131	-0.0738460698226088
3.6	-0.0260815592499361	0.00335766694217313	0	0	0.77209012456227	0.579082502538435	0	0
0	0	0.0182723577154539	0.0017223161918142	0	0	-0.216160380931632	-0.894191250761171
0.77209012456227	0.579082502538435	0	0	-0.0336439230596395	0.0612048962632844	0	0
0	0	-0.690183717865372	0.525937836409661	0	0	0.0443975118250957	-0.0321510645125455
3.7	0.0242535412484457	0.00599591305451888	0	0	0.597212471924585	-0.750944526248762	0	0
0	0	0.0130084538350375	0.0349578535104006	0	0	0.64421247366207	0.644082166859565
0.597212471924585	-0.750944526248762	0	0	0.118453931039591	0.00580373731747259	0	0
0	0	0.773678665896047	0.403724199277021	0	0	0.0552173623411396	-0.0197728297448257
3.8	-0.0193731847163696	-0.0134550890368901	0	0	0.744061843357108	0.615138987256407	0	0
0	0	0.0147563687503418	0.0491288335256881	0	0	0.871293914282117	0.179594444599786
0.744061843357108	0.615138987256407	0	0	-0.0248954306382569	0.021250030324715	0	0
0	0	-0.00922057561681644	0.870239542465534	0	0	-0.0584499058626492	-0.0242648313450448
3.9	0.0120093806648751	0.0178251541819946	0	0	0.619239415885764	-0.742086855966298	0	0
0	0	0.0110621810295526	0.0145227165377169	0	0	-0.819236279596275	0.332584615371035
0.619239415885764	-0.742086855966298	0	0	-0.0120738868562323	0.0830600823427674	0	0
0	0	0.777725745697092	-0.389991799778778	0	0	0.0247085473585621	-0.00604794668953106
4	-0.00282817602329255	-0.0191997407583815	0	0	0.723113064279225	0.627586264498615	0	0
0	0	-0.0164074763904762	-0.012841524928797	0	0	-0.50903021281027	0.725011194901511
0.723113064279225	0.627586264498615	0	0	0.0497875697722733	-0.0743936080147384	0	0
0	0	0.684619171858252	0.509245473171069	0	0	-0.00449464615479399	0.00942827509084152
4.1	-0.00549721536073322	0.0173868762631926	0	0	0.633332470147767	-0.708971302463785	0	0
0	0	-0.041012818417339	-0.035312122879919	0	0	0.049608417468407	-0.887447875498053
0.633332470147767	-0.708971302463785	0	0	0.0236940631171602	-0.111204464674607	0	0
0	0	0.178157580370874	-0.824946799208607	0	0	0.0269904145419816	0.0805949594327605
4.2	0.0119467655105159	-0.0128283045198356	0	0	0.703012423042541	0.645023330462401	0	0
0	0	-0.0484201217812171	-0.0148222093619638	0	0	-0.434313188902469	-0.774217552744926
0.703012423042541	0.645023330462401	0	0	-0.0395104434429542	0.0164195510160622	0	0
0	0	0.825803045445624	-0.18725452396869	0	0	-0.0120439096995492	-0.0409771942750166
4.3	-0.0156379167276538	0.00578229780009254	0	0	0.654488665507552	-0.695406299161508	0	0
0	0	-0.00720412482646069	0.00752309430884582	0	0	0.774909614970607	0.418839430319723
0.654488665507552	-0.695406299161508	0	0	-0.0105340423307816	0.0665044782114825	0	0
0	0	-0.533370550732537	-0.667702885930592	0	0	-0.0143266933799096	0.00235048176497373
4.4	0.0159693114344239	0.00259325388309133	0	0	0.677890937056469	0.665159073257613	0	0
0	0	0.0378468146578799	0.00495578774086723	0	0	0.882802030605909	-0.0551020437858262
0.677890937056469	0.665159073257613	0	0	0.00108007217450745	-0.0495722530949156	0	0
0	0	0.34236979416344	-0.768313356122769	0	0	-0.0332728854994193	0.00347524834067359
4.5	-0.012822333282643	-0.00999303752986368	0	0	0.672853891742249	-0.659548809150348	0	0
0	0	0.0640626076993809	-0.00435176750273062	0	0	-0.718055194291275	0.520907635522753
0.672853891742249	-0.659548809150348	0	0	-0.0493106557802683	0.0265574218323145	0	0
0	0	-0.830760975858045	0.0118693450691935	0	0	-0.0850217498695524	0.0617870936932666
4.6	0.00663474312565972	0.0153183301577084	0	0	0.641693991391978	0.68865763840783	0	0
0	0	0.0458458387799762	-0.0253194218640952	0	0	-0.31198837195813	0.840499022139856
0.641693991391978	0.68865763840783	0	0	-0.0037137219068656	0.0141242618505953	0	0
0	0	-0.369826013413875	-0.741540387005818	0	0	-0.079205077555134	-0.00919751844721876
4.7	0.00146669886756287	-0.0175784073494729	0	0	0.706944250527142	-0.635133943231139	0	0
0	0	-0.0252689105624752	-0.00622523315734733	0	0	-0.189713329468244	-0.871284817660612
0.706944250527142	-0.635133943231139	0	0	0.0655853140991995	-0.0170882879369044	0	0
0	0	-0.523195228198792	0.65314707065695	0	0	-0.0723282083687015	0.0720567819286295
4.8	-0.0102532637344077	0.0165572629690834	0	0	0.635903537991785	0.723822180224301	0	0
0	0	-0.0589826391143304	0.03316364739272	0	0	-0.60530300442505	-0.634084699466987
0.635903537991785	0.723822180224301	0	0	0.0533394043994078	-0.0179087508678794	0	0
0	0	-0.825792100412555	-0.197463961359842	0	0	-0.00859878526170937	0.0717615553556969
4.9	0.0178336615812291	-0.011456363566214	0	0	0.730508918765813	-0.628862542130375	0	0
0	0	-0.0396376301216565	0.0574886141880395	0	0	0.8535055309229	0.207341105511505
0.730508918765813	-0.628862542130375	0	0	-0.0800121532203191	-0.0287572660005521	0	0
0	0	0.198430880332171	0.820687161123145	0	0	-0.0826971231495903	0.00381232188738576
5	-0.0224210969308494	0.00329436128588604	0	0	0.61883258061555	0.726081490396935	0	0
0	0	0.000280043397880348	0.0194318173867415	0	0	0.830820845266492	-0.298298444459328
0.61883258061555	0.726081490396935	0	0	-0.0469312357518616	0.0408654388597818	0	0
0	0	-0.644994776637172	0.533793251626979	0	0	0.0421522451418597	-0.00917676368118624
5.1	0.0239666463114804	0.00681986881861804	0	0	0.727311829123993	-0.607067869373713	0	0
0	0	0.0394074642216099	-0.0340316415206834	0	0	-0.532839124121962	0.696137144691227
0.727311829123993	-0.607067869373713	0	0	-0.0211541913966434	-0.0413891040774254	0	0
0	0	0.750395773704924	0.34430630157593	0	0	0.0731609791855215	-0.0200484014537766
5.2	-0.0217976273553214	-0.0179785592084322	0	0	0.585534426528901	0.744472539005424	0	0
0	0	0.0171228628179287	-0.0744530764282092	0	0	-0.0771544895761424	0.872320538560334
0.585534426528901	0.744472539005424	0	0	0.0388830904710845	0.0221224621330503	0	0
0	0	0.0167433609080108	0.832743790352239	0	0	0.0274369560103156	0.0660259349152897
5.3	0.0157318608426273	0.0273705750688416	0	0	0.762449600101655	-0.574241527076516	0	0
0	0	-0.0133675130857567	-0.0411012424019781	0	0	-0.414368818140826	-0.770235688830622
0.762449600101655	-0.574241527076516	0	0	-0.0315956438477466	0.0246057096154656	0	0
0	0	0.742318964080816	-0.376326172968089	0	0	-0.0431588673820264	0.0117056304785317
5.4	-0.00652231460420955	-0.0330586224509388	0	0	0.566304330098031	0.766629992258838	0	0
0	0	-0.0309439917530576	0.0151427780145708	0	0	-0.768496068651911	-0.425660745035699
0.566304330098031	0.766629992258838	0	0	0.0711838369255598	0.0867082722594646	0	0
0	0	0.658920540439735	0.507614459395326	0	0	-0.00929165847318438	0.0214813696691517
5.5	-0.00463998514994749	0.0354298331116901	0	0	0.776723418693257	-0.56376477545448	0	0
0	0	0.0230632136515062	0.0607275714119168	0	0	0.876198515172999	-0.0477430279305396
0.776723418693257	-0.56376477545448	0	0	-0.00665226446384059	-0.0278181974612492	0	0
0	0	0.154419781618333	-0.816444867846468	0	0	0.0217840815696388	0.0379712664465798
5.6	0.0163868217064847	-0.0330955367541728	0	0	0.549405468237835	0.781525652265295	0	0
0	0	0.0417280320066929	0.0572892990758817	0	0	0.694582955879321	-0.510221827311495
0.549405468237835	0.781525652265295	0	0	0.00117824381752045	-0.109183188486047	0	0
0	0	0.797280150990407	-0.204988208039487	0	0	0.0119822679982576	0.116777627785536
5.7	-0.0269891955721026	0.0267114509919523	0	0	0.793582934227744	-0.54075473706658	0	0
0	0	0.0197401791578427	-0.00656901008242927	0	0	-0.313702968941716	0.806038270094203
0.793582934227744	-0.54075473706658	0	0	-0.0110775175418582	0.051128678963833	0	0
0	0	-0.536864750002663	-0.644688065757759	0	0	0.0587776729105825	0.0336541249868968
5.8	0.0335516055149049	-0.0160817938158065	0	0	0.522387887162629	0.792949894326253	0	0
0	0	-0.0229235264078486	-0.0312457890856162	0	0	0.157875050926109	0.849428694804738
0.522387887162629	0.792949894326253	0	0	0.0587734723526296	-0.0278937909313101	0	0
0	0	0.319883948047452	-0.768829713286643	0	0	0.0344026427100678	0.0544214771160112
5.9	-0.0365689298551564	0.00265766203728003	0	0	0.806283276147799	-0.49844519724292	0	0
0	0	-0.0567530807297903	-0.026947450307939	0	0	-0.584204613721013	-0.632620925040367
0.806283276147799	-0.49844519724292	0	0	-0.0718913627747472	0.0428448664471539	0	0
0	0	-0.822518661300316	0.061939985677839	0	0	0.0376401844301945	0.0707998172215109
6	0.0354111679571171	0.0106371133492945	0	0	0.481325090545103	0.819471085849344	0	0
0	0	-0.0341589873256893	0.00553784777211796	0	0	-0.84330357871451	-0.191815958252309
0.481325090545103	0.819471085849344	0	0	-0.00267047857519184	0.0227215288774139	0	0
