# GHZ S RI R 50
0.2	-0.00510597792062897	0.00546518633787457	0	0	0.958368804526728	0.057590088492139	0	0
0	0	0.0251013051495307	0.00260679865739998	0	0	-0.369965685315452	0.911326267311992
0.958368804526728	0.057590088492139	0	0	0.0202592538139675	0.0497040237172922	0	0
0	0	0.569242747443888	-0.754345016119507	0	0	0.000601252034576096	-0.0241253813524848
0.3	0.00709160873923715	-0.00771106791013768	0	0	0.0327057707629779	-0.965398200117193	0	0
0	0	-0.00305904628865563	0.00139947503986346	0	0	-0.135040187046382	-0.974242182521717
0.0327057707629779	-0.965398200117193	0	0	-0.012742520665196	0.00978812499277603	0	0
0	0	-0.922340152773372	-0.201453929617699	0	0	-0.0313854911804318	-0.0120908176898915
0.4	-0.00848544338536925	0.00791318266145249	0	0	0.948641754170517	0.0607543264610805	0	0
0	0	-0.0395852279437536	0.00107049821649949	0	0	-0.66807421349879	-0.724910273436213
0.948641754170517	0.0607543264610805	0	0	-0.0321276083652876	-0.0108390411480268	0	0
0	0	-0.236345105799554	-0.895502755216834	0	0	0.0236542086577037	0.0227492151419315
0.5	0.00954249996153238	-0.00574938816703818	0	0	0.126112481935665	-0.948806021067914	0	0
0	0	-0.0350882348322134	0.00508481206233557	0	0	0.964027972999775	0.205455052364379
0.126112481935665	-0.948806021067914	0	0	0.0385605564121447	0.0177770973163568	0	0
0	0	-0.677360565148703	0.637585009909276	0	0	0.00687500144628886	0.00892416541520698
0.6	-0.00879352523534599	0.00263062403992654	0	0	0.954482897707289	0.129172705163922	0	0
0	0	-0.0116876649530932	0.00579150664410984	0	0	0.91124236182436	-0.331066796299586
0.954482897707289	0.129172705163922	0	0	0.00579903448625623	-0.0193270683709301	0	0
0	0	-0.861909240436533	-0.342791737472263	0	0	-0.00445368437717133	-0.00677330176433241
0.7	0.007819855652774	0.0014142700361012	0	0	0.106816255264387	-0.956509739257214	0	0
0	0	0.0189829382749412	-0.0121041877024338	0	0	-0.608651674320746	0.748652364570963
0.106816255264387	-0.956509739257214	0	0	0.0081246127196929	0.0100667517139844	0	0
0	0	0.0478460580277987	0.918959123418199	0	0	0.00226775615241264	-0.0126167920441804
0.8	-0.00714073609360728	-0.00576955802911299	0	0	0.953298708001695	0.111528609999363	0	0
0	0	0.0410097790903568	-0.0434620064389426	0	0	-0.118444871356499	0.959360151892496
0.953298708001695	0.111528609999363	0	0	-0.0228800234634114	0.0136171913523096	0	0
0	0	-0.809259480155807	0.449350846305016	0	0	0.00649883259342293	0.0838310001543923
0.9	0.00557864202912001	0.00880170448896844	0	0	0.14285679157413	-0.9376072270596	0	0
0	0	0.0110732750768461	-0.0293430451161774	0	0	-0.435123999130299	-0.86308108643942
0.14285679157413	-0.9376072270596	0	0	-0.0026383068231514	-0.0598980091050871	0	0
0	0	0.76324578027837	0.522324371730553	0	0	0.0357885023512813	0.015109786513089
1	-0.0033158728713558	-0.00985526464943536	0	0	0.940180025973988	0.179822026734459	0	0
0	0	-0.0151943209997014	0.0106827327754121	0	0	-0.836555467850308	-0.478688910392832
0.940180025973988	0.179822026734459	0	0	0.00314796493323506	0.043969650907166	0	0
0	0	-0.12458900564831	0.900085204091989	0	0	0.00350867948671676	0.00416147608007979
1.1	0.00038655105863218	0.00852225697184344	0	0	0.200038200702972	-0.946617560142716	0	0
0	0	-0.0111495393304862	0.0347262378620047	0	0	0.953204789725741	-0.0517287655112052
0.200038200702972	-0.946617560142716	0	0	0.0048479566651239	0.00409324808744776	0	0
0	0	0.865911923377868	-0.260218583689958	0	0	0.0100213359011185	0.0449680362437142
1.2	0.00287380017260028	-0.0056565626444589	0	0	0.955999296958465	0.201751945325398	0	0
0	0	0.00998585228182361	0.065351007544497	0	0	0.768356211124781	-0.552843500996385
0.955999296958465	0.201751945325398	0	0	0.0556123433271578	0.00125261390546749	0	0
0	0	0.611834879948753	0.669083080211621	0	0	0.00922462045499751	0.10087976698521
1.3	-0.00564484683404447	0.00210554824507672	0	0	0.204918374018828	-0.93943760319865	0	0
0	0	0.0175591954381855	0.0207764848324831	0	0	-0.354341273989979	0.880083368839341
0.204918374018828	-0.93943760319865	0	0	-0.0509216500813291	0.0015370875416417	0	0
0	0	0.321485058658445	-0.856217446821456	0	0	0.0427372313477494	0.0156371058084629
1.4	0.00667216274202882	0.00156401326045205	0	0	0.921423105754565	0.233849015887004	0	0
0	0	-0.0125737936152127	-0.0413385698419776	0	0	0.177913640317533	0.934665276308094
0.921423105754565	0.233849015887004	0	0	0.0199679616484266	0.0085771667140204	0	0
0	0	0.896107624047672	-0.0826978145607268	0	0	0.0470768372320766	-0.00558979386505167
1.5	-0.00604194137390473	-0.00448851128167302	0	0	0.271715582290832	-0.919608375924281	0	0
0	0	-0.0384406965758738	-0.0537813761371898	0	0	-0.671502453703761	-0.674887110293296
0.271715582290832	-0.919608375924281	0	0	0.0357010998113378	-0.0324984297220759	0	0
0	0	-0.458660689452069	-0.766262680926566	0	0	0.0355000755584613	0.0522858332915251
1.6	0.00436228738324574	0.00573138042428174	0	0	0.934366344660279	0.296196393997675	0	0
0	0	-0.0373460422975342	-0.017130821271033	0	0	-0.934278180222465	-0.185663273613744
0.934366344660279	0.296196393997675	0	0	-0.0488149679086117	-0.0276113874276196	0	0
0	0	0.498189871228273	-0.750988829411228	0	0	0.00296544071650196	0.0519666946591202
1.7	-0.00152585650069667	-0.00488520481331723	0	0	0.291764653478304	-0.940508467120299	0	0
0	0	0.0139202079327544	0.00821724293927932	0	0	0.884105537258725	-0.340693056628153
0.291764653478304	-0.940508467120299	0	0	0.000508672654805452	0.00414714354427258	0	0
0	0	-0.898508789517002	-0.113288433780917	0	0	0.0416641704003092	-0.0309732677922485
1.8	-0.00191676661018021	0.00266129961095939	0	0	0.915413871517119	0.29333960368779	0	0
0	0	0.0437084184986752	0.0389974646128033	0	0	0.574787832322753	-0.743216609727161
0.915413871517119	0.29333960368779	0	0	0.0069058853699148	0.063861054202265	0	0
0	0	-0.307290208576377	-0.849050878018704	0	0	0.0286578623126083	-0.034738876523631
1.9	0.00454906678936613	0.000287372674328854	0	0	0.322555705701264	-0.892498476362961	0	0
0	0	0.0513471892734825	-0.00379866980845667	0	0	-0.0861840819854474	0.940691880051594
0.322555705701264	-0.892498476362961	0	0	0.00990811778884048	0.0080168342553548	0	0
0	0	-0.616665395393328	0.643378176455642	0	0	0.0411681427649948	0.0229412887996524
2	-0.00529408458866422	-0.00385193675078205	0	0	0.889856558629314	0.35290264922519	0	0
0	0	0.014286891084143	-0.00585556773610379	0	0	0.454712346065317	0.834358579907071
0.889856558629314	0.35290264922519	0	0	-0.0495275181683697	-0.034220805284133	0	0
0	0	-0.843439284865963	-0.266500136764068	0	0	-0.0526395748293962	-0.022132390430954
2.1	0.0038076931768971	0.00765464040906702	0	0	0.367627783205727	-0.897447437997005	0	0
0	0	-0.029245740096904	0.00643033514504513	0	0	-0.829282966958486	-0.45473529141074
0.367627783205727	-0.897447437997005	0	0	0.0707397627424848	0.0164070335691118	0	0
0	0	0.132879742996815	0.880157577989104	0	0	-0.00483093327812251	0.00928373657493372
2.2	-1.88919154394266E-05	-0.0113246354616712	0	0	0.898333772880085	0.379118940741566	0	0
0	0	-0.0475887451911584	0.0156361727665557	0	0	-0.933294395941112	0.0665307730010457
0.898333772880085	0.379118940741566	0	0	0.0150816851527689	-0.0113495451228544	0	0
0	0	-0.739040944569537	0.504893369204772	0	0	0.0431198958262316	-0.011519328670832
2.3	-0.00516423512057975	0.0137113090898343	0	0	0.388268908725172	-0.889675234061789	0	0
0	0	-0.0295739129165266	0.0179944492639548	0	0	0.738632060021653	-0.55493544327593
0.388268908725172	-0.889675234061789	0	0	0.0585824106324374	-0.0295089898284894	0	0
0	0	0.776372424011065	0.434184935752253	0	0	0.0671448770633739	0.0461941798205458
2.4	0.0108549549518905	-0.0138004132680681	0	0	0.878117025939077	0.399636717633934	0	0
0	0	0.000350632794220568	0.00023466753366112	0	0	0.325425884146589	-0.868444465318328
0.878117025939077	0.399636717633934	0	0	-0.0970376572905879	0.0125423542614279	0	0
0	0	-0.040080174853857	0.883367171527301	0	0	0.0474921556082759	-0.0502350066555216
2.5	-0.0166679057865651	0.010861705415701	0	0	0.415714986915583	-0.866606107831662	0	0
0	0	0.0199019569226997	-0.0361943478906825	0	0	0.189263067584689	0.918147504831849
0.415714986915583	-0.866606107831662	0	0	-0.0105054498137661	-0.0283449204284081	0	0
0	0	0.805532291762665	-0.332105680685125	0	0	0.0124042832982712	-0.00197391869008684
2.6	0.0218039564919987	-0.00541320442861755	0	0	0.85930181771143	0.42909169462777	0	0
0	0	0.0182164852377472	-0.0384467132111346	0	0	0.667233492250498	0.653278409512194
0.85930181771143	0.42909169462777	0	0	0.0048160678968493	-0.0346359969088858	0	0
0	0	0.630627667074166	0.596969587249833	0	0	0.0620120799855853	0.00888083187835048
2.7	-0.0254185014804158	-0.00178529867472365	0	0	0.443144927667203	-0.852811671925099	0	0
0	0	0.0209177659057115	-0.00906585741695654	0	0	-0.896634357078455	-0.173546144362752
0.443144927667203	-0.852811671925099	0	0	0.00231879196423998	-0.0139282870156874	0	0
0	0	0.275142575413444	-0.834725613845653	0	0	-0.0280378776814164	-0.00194127762790531
2.8	0.0260662316971856	0.00970326147032248	0	0	0.841604240403823	0.456408971618771	0	0
0	0	0.0088473167595949	0.0128100363603048	0	0	-0.840540478483054	0.312285854722607
0.841604240403823	0.456408971618771	0	0	0.00312056757262133	0.0627570514370688	0	0
0	0	0.86987068261107	-0.150202144709143	0	0	0.0251837679383395	-0.0644473495021576
2.9	-0.0229492921726113	-0.0176641531136647	0	0	0.472460349691047	-0.821708423922461	0	0
0	0	-0.00133429744702252	0.0360960423316298	0	0	0.565857037876364	-0.698705373705291
0.472460349691047	-0.821708423922461	0	0	-0.0542518792449674	0.0332542788390871	0	0
0	0	-0.513665297687426	-0.700792820602012	0	0	-0.0407320783061035	-0.04654783719788
3	0.0171512250804194	0.024960076763536	0	0	0.812122131974544	0.496979957444606	0	0
0	0	-0.0121838348692812	0.0282161739693287	0	0	0.0924004828937699	-0.916991925564523
0.812122131974544	0.496979957444606	0	0	-0.00773316665459241	-0.0179384315624676	0	0
0	0	0.406072008483017	-0.757626931478192	0	0	0.0125777780192933	0.0849071536125997
3.1	-0.00906249889594208	-0.0295231250380326	0	0	0.51833763957508	-0.801346142174326	0	0
0	0	-0.021129427638126	0.010581542524503	0	0	0.444753467336951	0.804350706303168
0.51833763957508	-0.801346142174326	0	0	0.0379053254542257	-0.0639028065917772	0	0
0	0	-0.865736646701881	-0.0517269526107651	0	0	-0.0754639172547437	0.00575057283081556
3.2	-5.29528691535778E-06	0.0312842754161187	0	0	0.79891815505981	0.54312878266959	0	0
0	0	-0.0181385897801898	-0.00790585878856253	0	0	0.793414725148657	0.438123360365239
0.79891815505981	0.54312878266959	0	0	3.87838091916518E-05	0.0251708740624884	0	0
0	0	-0.333342340210791	-0.811904130232173	0	0	-0.0591988524172063	0.00649939429562602
3.3	0.00893270126759497	-0.0288198985445035	0	0	0.555678822427912	-0.794472377092975	0	0
0	0	-0.000937066929506904	-0.0255887006022017	0	0	-0.901716098751862	0.0461296411883412
0.555678822427912	-0.794472377092975	0	0	0.0611477819871881	0.0248680877430343	0	0
0	0	-0.575526958712347	0.670441199389025	0	0	-0.0263608085589232	-0.106223293234926
3.4	-0.0166265119971173	0.022620928804155	0	0	0.777410721851547	0.561560910302134	0	0
0	0	-0.00343621842354667	-0.0417544897538453	0	0	-0.733616543755517	0.537207180625611
0.777410721851547	0.561560910302134	0	0	-0.114344337734762	0.00744839386796577	0	0
0	0	-0.852819316337109	-0.226439420671486	0	0	-0.0189483667604848	-0.0396535574706573
3.5	0.0220684792007854	-0.0148329640225765	0	0	0.577296160165068	-0.768567915103459	0	0
0	0	0.00927705149928267	-0.0308460173716304	0	0	0.302098880723574	-0.865313583051191
0.577296160165068	-0.768567915103459	0	0	-0.0113369427178365	-0.0535926013278521	0	0
0	0	0.161980961392019	0.842515343139812	0	0	0.0856274620098657	-0.0711571854247154
3.6	-0.0239626196896349	0.00610915041077807	0	0	0.761877136017068	0.588505618191614	0	0
0	0	0.0211013398669372	0.00263597606827177	0	0	-0.203365490839863	-0.894960947950599
0.761877136017068	0.588505618191614	0	0	-0.0351074361312341	0.059734239906541	0	0
0	0	-0.695702956268054	0.515180570996964	0	0	0.0451594920034862	-0.0309503043900402
3.7	0.0218400035578434	0.00329805019723141	0	0	0.60839028880824	-0.742680575240979	0	0
0	0	0.0152527476757175	0.0371144638614441	0	0	0.635041747167846	0.653581418692602
0.60839028880824	-0.742680575240979	0	0	0.118258684695344	0.00904405635469782	0	0
0	0	0.768024040675145	0.415038738870195	0	0	0.0557556877245386	-0.0183481856205251
3.8	-0.0167076447213664	-0.0113170002754402	0	0	0.737111240454503	0.627957997773119	0	0
0	0	0.0160842130530998	0.0516191992707066	0	0	0.87101481983276	0.192946504191353
0.737111240454503	0.627957997773119	0	0	-0.0258413713496403	0.0205052232027419	0	0
0	0	-0.0220931885324976	0.872472838296573	0	0	-0.0582230489535278	-0.0262092114605888
3.9	0.00968755136425688	0.0164531728616341	0	0	0.63336226333304	-0.737701156668697	0	0
0	0	0.0113592165194555	0.0167118726115725	0	0	-0.828578167542932	0.323132013478391
0.63336226333304	-0.737701156668697	0	0	-0.0147727851828232	0.0836943295589477	0	0
0	0	0.78762500381093	-0.381446507916837	0	0	0.0249267000396868	-0.00535914400928173
4	-0.00132547341470563	-0.0180325615942348	0	0	0.721356081101745	0.641569403953897	0	0
0	0	-0.0171399866161124	-0.0114523401621262	0	0	-0.522249329197317	0.724645956193446
0.721356081101745	0.641569403953897	0	0	0.0522479949141205	-0.0741690729217747	0	0
0	0	0.683918538110148	0.521963494859992	0	0	-0.00502524422740613	0.00969874360270604
4.1	-0.00648449033781301	0.0159184395424235	0	0	0.646856845878245	-0.709776369198607	0	0
0	0	-0.0424548283174574	-0.034993781519856	0	0	0.0593393122278456	-0.896080224720001
0.646856845878245	-0.709776369198607	0	0	0.0263316000856233	-0.112641927625001	0	0
0	0	0.188564234346504	-0.83159941959592	0	0	0.0257233571791384	0.0831636926717579
4.2	0.0129264983477276	-0.0110755090919424	0	0	0.705969913532661	0.657775087658849	0	0
0	0	-0.0499511148624502	-0.015464608482296	0	0	-0.433358513216998	-0.786312323197881
0.705969913532661	0.657775087658849	0	0	-0.0406669242903923	0.0164905987895426	0	0
0	0	0.83660507854053	-0.183101893954082	0	0	-0.0116824107853792	-0.0417513754469961
4.3	-0.016654847367226	0.00419496649701634	0	0	0.665758483148197	-0.70034241997319	0	0
0	0	-0.00818491593330562	0.00633233374113862	0	0	0.781962750736713	0.427567629967909
0.665758483148197	-0.70034241997319	0	0	-0.0114461201306027	0.068166590232063	0	0
0	0	-0.536362438057797	-0.678170743361726	0	0	-0.0146343973464118	0.00241115640971368
4.4	0.0165875313558702	0.00388854864903861	0	0	0.684119627479449	0.674162805114713	0	0
0	0	0.0377762929328809	0.00378011802374651	0	0	0.892878994595617	-0.0537298921767129
0.684119627479449	0.674162805114713	0	0	0.00130054350590217	-0.0508497107467916	0	0
0	0	0.347964453708162	-0.776202107320425	0	0	-0.0340349679491584	0.00320929783861023
4.5	-0.0127618360838882	-0.0113451459794227	0	0	0.679611124321954	-0.666196320491243	0	0
0	0	0.0649964057150286	-0.00500507789590857	0	0	-0.725234926577776	0.526068264872566
0.679611124321954	-0.666196320491243	0	0	-0.0505626707242699	0.0266157651395352	0	0
0	0	-0.839041841090394	0.011951375337046	0	0	-0.0869755781967234	0.0624974917752609
4.6	0.00609612348969969	0.0171982747431591	0	0	0.648208931547777	0.693258544332313	0	0
0	0	0.0474676271808544	-0.0251823069846492	0	0	-0.313026866965952	0.847908270793903
0.648208931547777	0.693258544332313	0	0	-0.00426975451554005	0.0136889651511029	0	0
0	0	-0.374167761193118	-0.746922599984249	0	0	-0.0811287905593164	-0.00978395002204811
4.7	0.00199608734259693	-0.020088295440076	0	0	0.709686149303155	-0.64109607968409	0	0
0	0	-0.0234790427164534	-0.00512100500164302	0	0	-0.19301598019983	-0.875977446545486
0.709686149303155	-0.64109607968409	0	0	0.0653828227153528	-0.018274289897872	0	0
0	0	-0.524665380807096	0.658327925710355	0	0	-0.0738048955896079	0.0726548648478382
4.8	-0.0104471360461887	0.0192985141190088	0	0	0.640569374934076	0.724907451902109	0	0
0	0	-0.057789589098434	0.0349803193438438	0	0	-0.609331103048304	-0.634951852709792
0.640569374934076	0.724907451902109	0	0	0.05249728344581	-0.0189141247708405	0	0
0	0	-0.829524563416168	-0.1960511068473	0	0	-0.00944457588876684	0.0718395572673097
4.9	0.0179772811415747	-0.0141075237287347	0	0	0.730227247569239	-0.631488913670381	0	0
0	0	-0.0394530229636902	0.0595874121386773	0	0	0.855300797989295	0.205806105404352
0.730227247569239	-0.631488913670381	0	0	-0.0817309289163838	-0.0288322973164559	0	0
0	0	0.20053284996917	0.821545897788483	0	0	-0.0842868390156815	0.00389737137003188
5	-0.0227401330209481	0.00602425823441111	0	0	0.619335163197087	0.725585770188958	0	0
0	0	-0.000771664320312872	0.021380261266887	0	0	0.830740225255488	-0.29913540499601
0.619335163197087	0.725585770188958	0	0	-0.0482471418095339	0.0408258563614015	0	0
0	0	-0.644653179277454	0.534513862712733	0	0	0.0407653683643801	-0.00931568767008651
5.1	0.0242156775192532	0.00371559703592748	0	0	0.727020444141739	-0.605763036683162	0	0
0	0	0.0373363856775187	-0.0326798930649185	0	0	-0.533032564213939	0.695145629502176
0.727020444141739	-0.605763036683162	0	0	-0.0223553828803414	-0.0411770395153228	0	0
0	0	0.749525445145112	0.344690589077057	0	0	0.0717390014105786	-0.0196552373089441
5.2	-0.0216652960593081	-0.0147121948863348	0	0	0.582408641974872	0.745418542591638	0	0
0	0	0.014558068505349	-0.073953689739934	0	0	-0.0799573045750313	0.870965390287808
0.582408641974872	0.745418542591638	0	0	0.0375507943413206	0.022813134599187	0	0
0	0	0.0139538564291223	0.831750646272782	0	0	0.0258526576815956	0.0665800562170573
5.3	0.0151964454934243	0.0244509177854608	0	0	0.764823455635573	-0.569402478806632	0	0
0	0	-0.0156791109364078	-0.0414994988993172	0	0	-0.409669916143481	-0.771623985517709
0.764823455635573	-0.569402478806632	0	0	-0.0324982592750176	0.0249784442107017	0	0
0	0	0.743530694778195	-0.371823998936218	0	0	-0.0438686034533196	0.0120082516563231
5.4	-0.00607388480528057	-0.0307552645955373	0	0	0.560697769711561	0.771303093991397	0	0
0	0	-0.0323962307469325	0.01393654633482	0	0	-0.76538445890831	-0.431541824596847
0.560697769711561	0.771303093991397	0	0	0.0695910725276261	0.0886558062790607	0	0
0	0	0.655172441213918	0.512677705490056	0	0	-0.00989347120537907	0.0221629847942131
5.5	-0.00458569179049438	0.0332978187490805	0	0	0.783503204647887	-0.557783779697761	0	0
0	0	0.0228124778967337	0.0590468587594097	0	0	0.878510074264526	-0.039686567796413
0.783503204647887	-0.557783779697761	0	0	-0.00630244100706849	-0.0274013839354344	0	0
0	0	0.162350656133774	-0.816746785431952	0	0	0.0210768207988783	0.0391729758147717
5.6	0.0159795309259032	-0.0306363301910618	0	0	0.544030810509109	0.790608947484053	0	0
0	0	0.0426727629313801	0.0555961976419304	0	0	0.70325858551737	-0.50519374846067
0.544030810509109	0.790608947484053	0	0	0.00319239572722058	-0.109675449443726	0	0
0	0	0.803180050455503	-0.197443186673748	0	0	0.00942568497439557	0.11856831916742
5.7	-0.0267652764187222	0.0238495887185338	0	0	0.805407123525899	-0.536181736367868	0	0
0	0	0.0215665978678187	-0.00787676260533386	0	0	-0.32475989572302	0.808873019896987
0.805407123525899	-0.536181736367868	0	0	-0.0129729763758389	0.0521791333202241	0	0
0	0	-0.534079720595048	-0.655403779752243	0	0	0.058358750990238	0.0359845538417801
5.8	0.0338751592096742	-0.0133187356405023	0	0	0.52004981509621	0.806602102902294	0	0
0	0	-0.020826878825781	-0.0319169036841257	0	0	0.150910652400874	0.860139884182276
0.52004981509621	0.806602102902294	0	0	0.0597813308991338	-0.0264412173008103	0	0
0	0	0.331146591729133	-0.773808578328883	0	0	0.0332387755282304	0.0571741543088964
5.9	-0.0371399015492177	0.000512312105698915	0	0	0.821463082365266	-0.498010083503741	0	0
0	0	-0.0550125799284164	-0.0268922455181545	0	0	-0.58669780810559	-0.646300960457423
0.821463082365266	-0.498010083503741	0	0	-0.0752553858023533	0.0440929966300374	0	0
0	0	-0.834269986490194	0.0556690289882228	0	0	0.0367736115171355	0.0747943831111214
6	0.0356782212365094	0.0120437737267266	0	0	0.483879431029867	0.835529640446015	0	0
0	0	-0.0332370202465483	0.00616495280511312	0	0	-0.855469344515506	-0.2002040029267
0.483879431029867	0.835529640446015	0	0	-0.00322512148874015	0.0252275807431555	0	0
