# GHZ S RI R 50
0.2	-0.00565753966961587	0.00950224369870866	0	0	0.95794355516448	0.0581702263319259	0	0
0	0	0.0215410283532403	0.00465919773978313	0	0	-0.370435803169697	0.911051793948282
0.95794355516448	0.0581702263319259	0	0	0.0201945241481829	0.0439481536795388	0	0
0	0	0.569611166167975	-0.753973736897557	0	0	0.000632251964823435	-0.0298688052076766
0.3	0.00663812843523154	-0.00937007181934417	0	0	0.0336727023132581	-0.965171618365104	0	0
0	0	-0.00471364426131255	0.00183471433793723	0	0	-0.134079161923113	-0.974202415486014
0.0336727023132581	-0.965171618365104	0	0	-0.01432931381954	0.00603465755370959	0	0
0	0	-0.921985623125247	-0.202306392280353	0	0	-0.032922844918252	-0.0158730356687379
0.4	-0.0087269917840179	0.00789628903331038	0	0	0.948569921838599	0.0622509782994776	0	0
0	0	-0.0394647031497034	0.000857185358436203	0	0	-0.666944437554154	-0.725963830010353
0.948569921838599	0.0622509782994776	0	0	-0.0340479827299627	-0.0128707179550525	0	0
0	0	-0.234944030827223	-0.895881364520428	0	0	0.02162927713552	0.0208932170917361
0.5	0.0109334916725586	-0.00504214502807673	0	0	0.128116112037485	-0.94889155836061	0	0
0	0	-0.0336142660399372	0.00456626737983919	0	0	0.963997507296822	0.207552878785193
0.128116112037485	-0.94889155836061	0	0	0.036994428748177	0.0172837326771234	0	0
0	0	-0.678971861669441	0.636434254558716	0	0	0.00532002945487696	0.00829114129915113
0.6	-0.0112155187192799	0.00235769553653001	0	0	0.955130841371104	0.131776107394817	0	0
0	0	-0.00934395291446679	0.00549484635019056	0	0	0.91304357994677	-0.329091081120746
0.955130841371104	0.131776107394817	0	0	0.00516788461191118	-0.0194621694427433	0	0
0	0	-0.861940475965516	-0.345349422448117	0	0	-0.00517164002702215	-0.006936578706208
0.7	0.0104179159889683	0.000557593034628591	0	0	0.109655597811217	-0.957917708122268	0	0
0	0	0.0215927651445887	-0.0118658866998465	0	0	-0.611873082422555	0.748309479223323
0.109655597811217	-0.957917708122268	0	0	0.00802156734327707	0.00991054064457411	0	0
0	0	0.0453469403517546	0.920775889497176	0	0	0.0022704944359156	-0.0128903588846877
0.8	-0.00908249408337743	-0.00418673717161878	0	0	0.955575644931965	0.114425432250945	0	0
0	0	0.0433509598236262	-0.0428098040267225	0	0	-0.121296713357565	0.961449038553091
0.955575644931965	0.114425432250945	0	0	-0.0229191899635467	0.0128418109042115	0	0
0	0	-0.812484357958958	0.448321757338344	0	0	0.00623496411751109	0.0835755050581958
0.9	0.00663916743459137	0.00730987084798333	0	0	0.145799846754403	-0.940728527279848	0	0
0	0	0.0127085618836545	-0.0285530195197053	0	0	-0.43443018280225	-0.867273944893184
0.145799846754403	-0.940728527279848	0	0	-0.0024623156317672	-0.0615561456828064	0	0
0	0	0.76460076291622	0.526158507429776	0	0	0.0358561564836442	0.0141912531081273
1	-0.00380579337549753	-0.00899089000896371	0	0	0.943950573754241	0.182495626872528	0	0
0	0	-0.0145259772233832	0.0113508730472555	0	0	-0.839310773997759	-0.482498596595773
0.943950573754241	0.182495626872528	0	0	0.00225500634807822	0.0429925419668476	0	0
0	0	-0.126952715752742	0.903834922093978	0	0	0.00278232730526221	0.0028365751113723
1.1	0.000868870139142311	0.00852259309557525	0	0	0.20221724871407	-0.951212292931303	0	0
0	0	-0.0114451557296449	0.0350009462407245	0	0	0.95816610231012	-0.0508370281050887
0.20221724871407	-0.951212292931303	0	0	0.00342951713616813	0.0030312535014775	0	0
0	0	0.87067782996281	-0.260504278037425	0	0	0.00856873373526236	0.0443728073966589
1.2	0.00180995422644395	-0.00626380040986876	0	0	0.961196108142966	0.203085995510226	0	0
0	0	0.00901467583482687	0.0649823693272889	0	0	0.772768991063305	-0.555840346801396
0.961196108142966	0.203085995510226	0	0	0.0542708755284657	0.000765100450850979	0	0
0	0	0.615179206398664	0.672945651631918	0	0	0.00732934559135712	0.101574598765533
1.3	-0.00400230568729554	0.00273228459469566	0	0	0.205317817048499	-0.945075885044693	0	0
0	0	0.016401393059085	0.0197237804427843	0	0	-0.355649572823684	0.885433874648398
0.205317817048499	-0.945075885044693	0	0	-0.0536290731394312	0.00168060919962049	0	0
0	0	0.322624288278967	-0.861403630464573	0	0	0.041135682798164	0.0159289640070252
1.4	0.00483391256172259	0.00106067131293382	0	0	0.92701348630949	0.233355797680472	0	0
0	0	-0.0133673138615358	-0.04289946365412	0	0	0.180663201744285	0.939555901199516
0.92701348630949	0.233355797680472	0	0	0.0182385292147427	0.00898851950743567	0	0
0	0	0.900961503718305	-0.0848427273952064	0	0	0.0455712127675126	-0.00531385484838069
1.5	-0.00406399508023734	-0.00418408460534684	0	0	0.270472175709692	-0.92513871996288	0	0
0	0	-0.038736674840124	-0.0555630386529913	0	0	-0.676983882748972	-0.676314103897318
0.270472175709692	-0.92513871996288	0	0	0.0341653601706199	-0.0323623300296183	0	0
0	0	-0.463327969799177	-0.768801514604646	0	0	0.0344463019194433	0.0533482889239396
1.6	0.00227602838059876	0.00586127103422253	0	0	0.939835739377932	0.293962328460837	0	0
0	0	-0.0371258467046135	-0.0189837758892082	0	0	-0.939159529029804	-0.182821407308539
0.939835739377932	0.293962328460837	0	0	-0.0507146927637657	-0.0265186604983625	0	0
0	0	0.497456520131977	-0.756282189763673	0	0	0.00215895720072735	0.053409224664177
1.7	0.00026308350400209	-0.00553684767993312	0	0	0.288599429110526	-0.945182101276667	0	0
0	0	0.014552252421452	0.00666089936331692	0	0	0.88580111988141	-0.345779642520014
0.288599429110526	-0.945182101276667	0	0	-0.000156849390543519	0.00522167418645757	0	0
0	0	-0.902238303550082	-0.10977343180797	0	0	0.0409821114372553	-0.0304835806940099
1.8	-0.0031100445400048	0.00344539995070373	0	0	0.919054797602646	0.289648985612675	0	0
0	0	0.0445423009217362	0.0380078095478744	0	0	0.572747378768462	-0.747860005250046
0.919054797602646	0.289648985612675	0	0	0.00730163085788949	0.0650362285778505	0	0
0	0	-0.312108944554166	-0.849785141550612	0	0	0.0282364855185457	-0.0342419618801254
1.9	0.00537787104399119	-0.000223680290995217	0	0	0.318768347789904	-0.895322314178688	0	0
0	0	0.0521892615259734	-0.00411666447481435	0	0	-0.0818345806666036	0.942443150694524
0.318768347789904	-0.895322314178688	0	0	0.010008273199077	0.00860698726045572	0	0
0	0	-0.61448595512269	0.64722755934916	0	0	0.0415162811053783	0.0232950153935179
2	-0.00606347049677974	-0.00367755350954702	0	0	0.891875435208307	0.349133076639912	0	0
0	0	0.0149474461453401	-0.00554855750385158	0	0	0.458663318684519	0.832753872761151
0.891875435208307	0.349133076639912	0	0	-0.0498480293188124	-0.0333935356538369	0	0
0	0	-0.845055145663551	-0.262874227646347	0	0	-0.0528442553609325	-0.0212506702522369
2.1	0.00475528660632992	0.00763609615615801	0	0	0.364139144425744	-0.898465050513331	0	0
0	0	-0.0288894493288611	0.00721719768283874	0	0	-0.830726256743495	-0.451439207340405
0.364139144425744	-0.898465050513331	0	0	0.0707526274431036	0.0161926594216277	0	0
0	0	0.136170258920774	0.879356917494938	0	0	-0.00480480118829775	0.0096463827496711
2.2	-0.00111917167390658	-0.0111726476154916	0	0	0.898680335480776	0.376226954659128	0	0
0	0	-0.0475644270314538	0.0166346119900363	0	0	-0.932304797897309	0.069139513207544
0.898680335480776	0.376226954659128	0	0	0.0148720267688523	-0.0110093319501473	0	0
0	0	-0.736965685846315	0.506571717301734	0	0	0.0428733649010743	-0.0113456255904093
2.3	-0.00420376601636104	0.0133124388074192	0	0	0.386257148660316	-0.889545071869539	0	0
0	0	-0.0297851243474871	0.0189023228822019	0	0	0.736812347675673	-0.555738529189771
0.386257148660316	-0.889545071869539	0	0	0.058318765355965	-0.0291016228578662	0	0
0	0	0.776370643304284	0.432269809556228	0	0	0.0671633397524323	0.0463997968983905
2.4	0.0102676982932379	-0.0133522947754201	0	0	0.877894581584461	0.398417117469831	0	0
0	0	3.9706920480639E-05	0.000820352927840107	0	0	0.324379871261162	-0.868153435920976
0.877894581584461	0.398417117469831	0	0	-0.0966767983663269	0.0133691141634782	0	0
0	0	-0.0392168250819098	0.882795899757392	0	0	0.0475467085218552	-0.0495960685548171
2.5	-0.0163982444288755	0.0106700915082093	0	0	0.415494517483347	-0.86657672161122	0	0
0	0	0.0196290879599318	-0.036043319916182	0	0	0.189420470962684	0.917987525096589
0.415494517483347	-0.86657672161122	0	0	-0.0100771706801157	-0.0277279520095502	0	0
0	0	0.805358905371514	-0.332221652207552	0	0	0.012878159441705	-0.00135971149615773
2.6	0.0215887495837859	-0.00557197235369872	0	0	0.859787834646461	0.429688657285649	0	0
0	0	0.018124211089936	-0.0386730487987045	0	0	0.667510837523425	0.653956508775321
0.859787834646461	0.429688657285649	0	0	0.00544993288393221	-0.0342290102304246	0	0
0	0	0.630896164284174	0.597595741963892	0	0	0.0627483049432577	0.00940553313192621
2.7	-0.0250889158269016	-0.00141773413134413	0	0	0.444337119201338	-0.854101786135537	0	0
0	0	0.0210754137101988	-0.00946757588813677	0	0	-0.898162045742758	-0.174271165655408
0.444337119201338	-0.854101786135537	0	0	0.00301059210601943	-0.013684736990926	0	0
0	0	0.276021199670036	-0.836095401249604	0	0	-0.0274248875838029	-0.00166209277930079
2.8	0.025673649497842	0.00925133609221656	0	0	0.843902743356111	0.457868264733469	0	0
0	0	0.00925574126875973	0.0124880024983607	0	0	-0.843017814175955	0.312948616352108
0.843902743356111	0.457868264733469	0	0	0.00378881862122675	0.0632793362455763	0	0
0	0	0.872387872641666	-0.150395514540681	0	0	0.0260675976604914	-0.0646209027972298
2.9	-0.0225644603693307	-0.0170761564650521	0	0	0.473949168281288	-0.825104247520628	0	0
0	0	-0.000724287929009823	0.0360783918441588	0	0	0.56779754005929	-0.701616525637119
0.473949168281288	-0.825104247520628	0	0	-0.054023999795868	0.0336092784349363	0	0
0	0	-0.515908161230254	-0.703322846748386	0	0	-0.0404541499001386	-0.046825890400055
3	0.0166516372231764	0.0241803369021003	0	0	0.816565796359588	0.498192146542714	0	0
0	0	-0.0114802937436901	0.0285751685452615	0	0	0.0915060401179468	-0.921343543802465
0.816565796359588	0.498192146542714	0	0	-0.00733046123783532	-0.0181262465489503	0	0
0	0	0.406849946609482	-0.761696752690303	0	0	0.0134592387156079	0.085597151196487
3.1	-0.00829916937102813	-0.0286810791926471	0	0	0.518961837122358	-0.806726521338476	0	0
0	0	-0.0204644362581634	0.0112841323227509	0	0	0.449192767909418	0.807364472936779
0.518961837122358	-0.806726521338476	0	0	0.0382940093496898	-0.0648404055228574	0	0
0	0	-0.870380818509248	-0.0497105924689893	0	0	-0.075856329738132	0.00611133543415162
3.2	-0.000996452550129384	0.0305510064862605	0	0	0.805261824710955	0.542720124311674	0	0
0	0	-0.0177074894364876	-0.00697404366489294	0	0	0.799387803131378	0.437219926439761
0.805261824710955	0.542720124311674	0	0	0.000425240167169567	0.0253083273665931	0	0
0	0	-0.338399792208924	-0.814844113531401	0	0	-0.05958021140653	0.00692305468920539
3.3	0.00998164197850097	-0.0282910442352695	0	0	0.554035272446788	-0.801325634769992	0	0
0	0	-0.000860414989327229	-0.0246148525981943	0	0	-0.90600190111576	0.0512254790380041
0.554035272446788	-0.801325634769992	0	0	0.0620730493856776	0.0243497682879271	0	0
0	0	-0.574804856764766	0.676917163219694	0	0	-0.027730485050569	-0.107074630477398
3.4	-0.0175720451912012	0.0222219913510063	0	0	0.784618555961824	0.558529594380974	0	0
0	0	-0.00375374481664228	-0.0409296558238725	0	0	-0.733040839310744	0.544497813960885
0.784618555961824	0.558529594380974	0	0	-0.115191386703449	0.0090626371817725	0	0
0	0	-0.85797313617682	-0.221560460235591	0	0	-0.0196641169452434	-0.0397498383748059
3.5	0.0229341822408664	-0.0144021549373262	0	0	0.572901902831209	-0.775572581477355	0	0
0	0	0.00864586540935214	-0.0303477748789715	0	0	0.29614939521777	-0.870336155753441
0.572901902831209	-0.775572581477355	0	0	-0.0122487296789143	-0.0537035681423114	0	0
0	0	0.169157627669074	0.843786360206332	0	0	0.0850019720048373	-0.0729330181835126
3.6	-0.0248724207147504	0.00569554083785958	0	0	0.76834996495855	0.58254521964302	0	0
0	0	0.020265286895786	0.00277862952947662	0	0	-0.211621890903933	-0.894553920069066
0.76834996495855	0.58254521964302	0	0	-0.0340872649330306	0.0605700260365662	0	0
0	0	-0.692218871618898	0.522156128617951	0	0	0.0447719877766802	-0.031832009791101
3.7	0.0227898044468232	0.00363718907501794	0	0	0.60135117746695	-0.748180635175935	0	0
0	0	0.0144263925826801	0.036885121418789	0	0	0.641045220277728	0.647549139696419
0.60135117746695	-0.748180635175935	0	0	0.118449181868736	0.00684841796965345	0	0
0	0	0.771779222692733	0.407802083025479	0	0	0.0554460597122863	-0.0193858916773639
3.8	-0.0176146795020078	-0.0114858619176285	0	0	0.741582361603427	0.619772478465133	0	0
0	0	0.0154593656035059	0.0512000991880927	0	0	0.871165545496053	0.184353938440979
0.741582361603427	0.619772478465133	0	0	-0.0252873402661327	0.0209106018104132	0	0
0	0	-0.0138145758374452	0.871007894041094	0	0	-0.0584250187864066	-0.0250352540506879
3.9	0.0103977839259104	0.0164983777437685	0	0	0.624390706756524	-0.740548453675968	0	0
0	0	0.0110329765045401	0.0162369690011402	0	0	-0.822616400455023	0.329274678057399
0.624390706756524	-0.740548453675968	0	0	-0.0131447358548909	0.0832922557864922	0	0
0	0	0.781298957594127	-0.387008045991974	0	0	0.0246841779290221	-0.00581475729209431
4	-0.00182101273047786	-0.018148283651194	0	0	0.722582567804991	0.632521480607286	0	0
0	0	-0.0171135289631262	-0.0118702057209177	0	0	-0.513747332744214	0.724917126202289
0.722582567804991	0.632521480607286	0	0	0.0505260999190736	-0.0742661304806013	0	0
0	0	0.684404072351082	0.513784739399211	0	0	-0.00481522904139596	0.00959010931079791
4.1	-0.00605390540538187	0.016170946081833	0	0	0.638085468606505	-0.709341888315245	0	0
0	0	-0.0421245502166967	-0.035253070234915	0	0	0.0531148355895464	-0.890566730896034
0.638085468606505	-0.709341888315245	0	0	0.0245004550266984	-0.111599127473496	0	0
0	0	0.181908729693459	-0.82735176681308	0	0	0.0264256342976823	0.0816420121549037
4.2	0.0124516578891729	-0.0113777580213662	0	0	0.704035129889273	0.649562935232256	0	0
0	0	-0.0494840710864344	-0.015515016003353	0	0	-0.433997302951691	-0.778510044503252
0.704035129889273	0.649562935232256	0	0	-0.0399724610380035	0.0165911443925834	0	0
0	0	0.829642956951227	-0.185801708430453	0	0	-0.0119734897298209	-0.0411041974434765
4.3	-0.0162118807890551	0.00441614350980072	0	0	0.658579504042904	-0.69712404200029	0	0
0	0	-0.00780960389190554	0.00646452503345712	0	0	0.777418059243985	0.421978321125362
0.658579504042904	-0.69712404200029	0	0	-0.0108148915121274	0.0671971611100715	0	0
0	0	-0.534421461144976	-0.671456774927709	0	0	-0.0143876997318412	0.00247109679350075
4.4	0.0163059789596666	0.00367646326489981	0	0	0.680140125255258	0.668401815171256	0	0
0	0	0.0379166515100629	0.00402348813894793	0	0	0.886424058167385	-0.0545750507591467
0.680140125255258	0.668401815171256	0	0	0.00126006139630569	-0.0500795517489072	0	0
0	0	0.344409198865714	-0.771133977508851	0	0	-0.0334470106316573	0.00332922500290653
4.5	-0.0126327210821798	-0.0110036411868146	0	0	0.675324172163758	-0.661934146696271	0	0
0	0	0.0648259187274128	-0.0047482693505311	0	0	-0.720664137323263	0.52272852641156
0.675324172163758	-0.661934146696271	0	0	-0.049709506770288	0.0263404906524447	0	0
0	0	-0.833740740807409	0.0118575203812368	0	0	-0.0856751885862033	0.0618013512731223
4.6	0.00596964936584506	0.0166609482535429	0	0	0.644093161488492	0.690376114028832	0	0
0	0	0.0470509311824435	-0.0249841840209405	0	0	-0.312332556108557	0.843215166211973
0.644093161488492	0.690376114028832	0	0	-0.00400968222194456	0.0135861989956889	0	0
0	0	-0.371440720884139	-0.743488811417253	0	0	-0.0799993859615351	-0.00979150725942259
4.7	0.00221921878312729	-0.019427318602512	0	0	0.708042094217514	-0.63743526781129	0	0
0	0	-0.024048278109795	-0.00512573667497069	0	0	-0.190912689725738	-0.872970996100731
0.708042094217514	-0.63743526781129	0	0	0.0652501066786389	-0.017964904928698	0	0
0	0	-0.523716024608162	0.655017894076096	0	0	-0.0731406013858651	0.0718420831472354
4.8	-0.0107816663250801	0.0186723758864618	0	0	0.637781877185303	0.72426369304349	0	0
0	0	-0.0582851639453404	0.0347563933807331	0	0	-0.606811307209094	-0.6344269541589
0.637781877185303	0.72426369304349	0	0	0.052611271696137	-0.0186681642253699	0	0
0	0	-0.827198934256277	-0.196949202369669	0	0	-0.00932919488104799	0.0714207377432814
4.9	0.018278849444103	-0.0135040933837823	0	0	0.730251598553183	-0.629946348031427	0	0
0	0	-0.0397460857782708	0.059155000295168	0	0	0.854154843584105	0.206634374566019
0.730251598553183	-0.629946348031427	0	0	-0.0811791614790668	-0.0290496334210515	0	0
0	0	0.199320642592708	0.820931050604706	0	0	-0.0838043425099586	0.00357246465632597
5	-0.0230085194572471	0.00536216201620195	0	0	0.619075800028919	0.725766757727516	0	0
0	0	-0.000773563012502175	0.0208177966218504	0	0	0.830793639201007	-0.298762886739054
0.619075800028919	0.725766757727516	0	0	-0.047985156136334	0.0406792619096768	0	0
0	0	-0.644820857256395	0.534198778651662	0	0	0.0410573117351688	-0.00943001519006111
5.1	0.0245568592787469	0.00443968296214508	0	0	0.727013008309605	-0.606727693403375	0	0
0	0	0.0376152317841626	-0.0332241057779082	0	0	-0.532824090365314	0.695919519177142
0.727013008309605	-0.606727693403375	0	0	-0.0222223665456029	-0.0413330434711464	0	0
0	0	0.750192766296751	0.344337845907591	0	0	0.0720222395058227	-0.0199693669807272
5.2	-0.0220918460712382	-0.0153944957074985	0	0	0.584466076242557	0.744733681289994	0	0
0	0	0.0150252747275264	-0.0743450247101105	0	0	-0.0781385345173909	0.871798165289072
0.584466076242557	0.744733681289994	0	0	0.0378360277549773	0.0225130839434716	0	0
0	0	0.0157591983882988	0.832351051313266	0	0	0.026303349448315	0.066362662769912
5.3	0.015632496867001	0.0250100374530548	0	0	0.763167137243089	-0.572451532705396	0	0
0	0	-0.0151674014155477	-0.0416451234735467	0	0	-0.412655389056333	-0.770588263922501
0.763167137243089	-0.572451532705396	0	0	-0.0323207497653864	0.0250424179798027	0	0
0	0	0.742614641048097	-0.374688041914657	0	0	-0.043815996264735	0.0121191947180092
5.4	-0.00641324194232837	-0.0312308056381136	0	0	0.564269362246175	0.768325340405248	0	0
0	0	-0.0319605642245822	0.0140749613664058	0	0	-0.767309984376204	-0.427718119225272
0.564269362246175	0.768325340405248	0	0	0.0703931675448019	0.0877340350205008	0	0
0	0	0.657518027966017	0.509371875114282	0	0	-0.00972165671584187	0.0220553686596598
5.5	-0.00432913476557393	0.0338181719117545	0	0	0.77907068575197	-0.56161239673247	0	0
0	0	0.0230731403303901	0.0594231689415751	0	0	0.876988392228551	-0.0448318921296875
0.77907068575197	-0.56161239673247	0	0	-0.00662008646216501	-0.0274206174776044	0	0
0	0	0.157275265503102	-0.816512232292688	0	0	0.0214341154786723	0.0386402475694354
5.6	0.0157134020536759	-0.0312400958793762	0	0	0.547587009242562	0.78468662618855	0	0
0	0	0.0427016180249342	0.0561010527496754	0	0	0.697729760669089	-0.508310252535925
0.547587009242562	0.78468662618855	0	0	0.00176190001598685	-0.109225354227522	0	0
0	0	0.799388894061026	-0.202173670861338	0	0	0.0109352089875	0.117542490813852
5.7	-0.0264224172106505	0.0244540328596865	0	0	0.797807691031175	-0.539067180812491	0	0
0	0	0.0213809030395224	-0.00737468585445521	0	0	-0.317696422750734	0.807102247487738
0.797807691031175	-0.539067180812491	0	0	-0.0120201573340677	0.0516284601161886	0	0
0	0	-0.535892948783797	-0.64857713049082	0	0	0.0583663593646329	0.0346115249657052
5.8	0.0334585047074468	-0.0138151923792998	0	0	0.521672854721379	0.797809809027743	0	0
0	0	-0.0211419098860051	-0.0315277538049976	0	0	0.155386540782318	0.853303203168319
0.521672854721379	0.797809809027743	0	0	0.0587258709549355	-0.0271142852513425	0	0
0	0	0.323933158061775	-0.770646856267121	0	0	0.0335868151447251	0.0556756585673695
5.9	-0.0367780498805464	0.000847595914064653	0	0	0.81163168204336	-0.498238082712247	0	0
0	0	-0.0553366906446487	-0.0267047623841444	0	0	-0.58513025471377	-0.637520946090942
0.81163168204336	-0.498238082712247	0	0	-0.0734982941934078	0.0438315790053831	0	0
0	0	-0.8267472506264	0.0597182803415672	0	0	0.0369122568724261	0.0727563776526416
6	0.0354913636760486	0.0118147599620755	0	0	0.482248993980181	0.825119746900421	0	0
0	0	-0.0334596567879917	0.00613547546698466	0	0	-0.847558856829052	-0.194789135830198
0.482248993980181	0.825119746900421	0	0	-0.00314164270795456	0.0244150445002474	0	0
