# GHZ S RI R 50
0.2	-0.00640661093169388	0.00841954279170444	0	0	0.95808014440858	0.0578611313939454	0	0
0	0	0.0219457831051866	0.00337890795559842	0	0	-0.370225091150212	0.911189838396344
0.95808014440858	0.0578611313939454	0	0	0.021492083543244	0.0453579353532162	0	0
0	0	0.569449758840168	-0.754154094101721	0	0	0.00186926899451382	-0.0284752003734013
0.3	0.00716906141176171	-0.00919830472230832	0	0	0.0331890069037179	-0.965280333128587	0	0
0	0	-0.00453231853296217	0.00129818889847534	0	0	-0.134573122230951	-0.974219054024337
0.0331890069037179	-0.965280333128587	0	0	-0.0130029687113428	0.00636532865229281	0	0
0	0	-0.922164424746808	-0.201866971641188	0	0	-0.0316451482691867	-0.0155371309939637
0.4	-0.00868191625748153	0.00786611612730749	0	0	0.948604596721741	0.0615189863511392	0	0
0	0	-0.0394562404782921	0.000913110766012987	0	0	-0.667487970995813	-0.72543395124024
0.948604596721741	0.0615189863511392	0	0	-0.0331431815256678	-0.0131249572833269	0	0
0	0	-0.235628196332264	-0.895680103700834	0	0	0.0225567729153675	0.0205521440580119
0.5	0.0105171219540324	-0.00469708431421657	0	0	0.127104631356348	-0.948840296288677	0	0
0	0	-0.0336617303570124	0.00512467101342866	0	0	0.964009426976432	0.206521972393491
0.127104631356348	-0.948840296288677	0	0	0.037444833807795	0.0167381982393882	0	0
0	0	-0.678178404475189	0.636997386925286	0	0	0.00574298026321553	0.00782371469626829
0.6	-0.0108856351381794	0.00151054261318107	0	0	0.954784448561571	0.130527283014379	0	0
0	0	-0.00948717635535491	0.00640086878403246	0	0	0.912174269265162	-0.330048230158072
0.954784448561571	0.130527283014379	0	0	0.00522442904798024	-0.0197401450684163	0	0
0	0	-0.861927704106058	-0.344112433802668	0	0	-0.00508496228838758	-0.00719327194899008
0.7	0.0106117411981363	0.00163767072387673	0	0	0.108264362240849	-0.957225310674457	0	0
0	0	0.0213054819191848	-0.0108051840870874	0	0	-0.610311035375277	0.74848118894911
0.108264362240849	-0.957225310674457	0	0	0.00812002641435555	0.00986205971074346	0	0
0	0	0.0465622335219488	0.919898801774748	0	0	0.00231255397531797	-0.0128839652832811
0.8	-0.00973857291693428	-0.00504376602738279	0	0	0.954519599516992	0.113001794487738	0	0
0	0	0.0429811927179447	-0.0417761629750129	0	0	-0.119735866429176	0.96044081943179
0.954519599516992	0.113001794487738	0	0	-0.0225144404184632	0.0130045707029173	0	0
0	0	-0.810823864037059	0.448961151279547	0	0	0.00675884897515738	0.0834650532948601
0.9	0.00736546297595072	0.00773125126547696	0	0	0.144443464420394	-0.939277332565762	0	0
0	0	0.0123594427568718	-0.0277494320787429	0	0	-0.434784154136915	-0.865178327572922
0.144443464420394	-0.939277332565762	0	0	-0.0019919126266862	-0.0613292081855634	0	0
0	0	0.763929565656501	0.524238857946485	0	0	0.0363458253049257	0.0140334912351465
1	-0.00425283895373104	-0.00909207128028837	0	0	0.942145505844513	0.181147644596257	0	0
0	0	-0.014776397114674	0.011743174594745	0	0	-0.837998516256993	-0.480605650585709
0.942145505844513	0.181147644596257	0	0	0.00309600932733181	0.0424403547355439	0	0
0	0	-0.125758273924648	0.90202145050721	0	0	0.00347853267694921	0.00242953224771309
1.1	0.000847868996273396	0.00864440060571041	0	0	0.201097715616991	-0.949033339611513	0	0
0	0	-0.0115197723591787	0.0349069057842239	0	0	0.955762650944539	-0.0513343706431367
0.201097715616991	-0.949033339611513	0	0	0.00404966007498455	0.00218188761164045	0	0
0	0	0.868354465160632	-0.2604260334839	0	0	0.0091244407163107	0.0433052791976829
1.2	0.00210709446736763	-0.00677042296706935	0	0	0.958689711773045	0.202296837293112	0	0
0	0	0.00919530585018453	0.0644754340494143	0	0	0.770626176556766	-0.554526449673382
0.958689711773045	0.202296837293112	0	0	0.0542291081841108	-0.000423481453195509	0	0
0	0	0.613689686900022	0.671054205982179	0	0	0.0074820644595546	0.099888270558478
1.3	-0.00420589240799227	0.00357606831548634	0	0	0.205052598327293	-0.942397267557575	0	0
0	0	0.0168592307030637	0.0190290173402419	0	0	-0.35489041767733	0.882881379296377
0.205052598327293	-0.942397267557575	0	0	-0.0534685172955669	0.000418379803091493	0	0
0	0	0.321950685942991	-0.858926457046388	0	0	0.0406795051754764	0.014667398553681
1.4	0.00490633165289604	0.000107669876114882	0	0	0.924283642147606	0.23342316444854	0	0
0	0	-0.0126080056481904	-0.0434612274359694	0	0	0.179448739992881	0.937111253218876
0.924283642147606	0.23342316444854	0	0	0.0177532283810664	0.00780981216374726	0	0
0	0	0.898549735458547	-0.0839211471968796	0	0	0.044900623215024	-0.00631859231825203
1.5	-0.00399931716378936	-0.00307823172607309	0	0	0.270920797587457	-0.922354263825284	0	0
0	0	-0.037693493531831	-0.0558893876073623	0	0	-0.674478645504822	-0.675449164126243
0.270920797587457	-0.922354263825284	0	0	0.03349427796636	-0.0331493433078299	0	0
0	0	-0.461242949656612	-0.767447490574856	0	0	0.0335220278764844	0.0522253669893401
1.6	0.00187692608474326	0.0046507944663398	0	0	0.937196724051415	0.294940642518299	0	0
0	0	-0.035921235234281	-0.0190371469376647	0	0	-0.936836800436224	-0.183951408614577
0.937196724051415	0.294940642518299	0	0	-0.0511901421906833	-0.027359894680399	0	0
0	0	0.49761094513254	-0.753843272288173	0	0	0.00115501341914602	0.0525103548507375
1.7	0.00103804349375628	-0.00456493996103295	0	0	0.289932443426522	-0.942827081117683	0	0
0	0	0.0157031294269859	0.00685565516919546	0	0	0.884826054131128	-0.343387844191616
0.289932443426522	-0.942827081117683	0	0	-0.00104661733908328	0.00478939918211698	0	0
0	0	-0.900334956258467	-0.111345790407007	0	0	0.0401000992845688	-0.0305204379313862
1.8	-0.00391818678179939	0.00286818133144304	0	0	0.917146774427311	0.291151513580173	0	0
0	0	0.0454172680926939	0.0384015969723782	0	0	0.573553370215458	-0.745597914203135
0.917146774427311	0.291151513580173	0	0	0.00626185966600839	0.0648050227149723	0	0
0	0	-0.309858230040181	-0.849274827634664	0	0	0.0275970375483054	-0.0340307963893264
1.9	0.00596084414531186	0.000140834654286367	0	0	0.32039065855628	-0.893797138066685	0	0
0	0	0.0526360957035383	-0.00361715871710116	0	0	-0.0837275426840168	0.941409225712018
0.32039065855628	-0.893797138066685	0	0	0.00943619718216742	0.00873364047479373	0	0
0	0	-0.615274703238286	0.645351757688806	0	0	0.0408704843563683	0.0235701435929995
2	-0.00641253782695657	-0.00407086010052931	0	0	0.890749649077014	0.350767382142083	0	0
0	0	0.0149269638718918	-0.00505023240484193	0	0	0.456820280206063	0.833310580829734
0.890749649077014	0.350767382142083	0	0	-0.0499812393258451	-0.0334567723854529	0	0
0	0	-0.844177603827153	-0.264436894747371	0	0	-0.0529978185247188	-0.0213115881567442
2.1	0.0050477066998809	0.00820982840138638	0	0	0.365577477296288	-0.897662276494259	0	0
0	0	-0.0293380238188589	0.00762276864416137	0	0	-0.829889546850273	-0.452788531388987
0.365577477296288	-0.897662276494259	0	0	0.0704251918375085	0.0164423059768027	0	0
0	0	0.134682912609093	0.879500668369059	0	0	-0.00506318174369967	0.00967144901952383
2.2	-0.00157614979075174	-0.011855855019812	0	0	0.898186492282257	0.37744632717839	0	0
0	0	-0.0482889359158437	0.0168757754464326	0	0	-0.932461605834448	0.0679363756545661
0.898186492282257	0.37744632717839	0	0	0.0145827686989239	-0.01100914800058	0	0
0	0	-0.737675255075019	0.505653245263573	0	0	0.0426089861766497	-0.0112287214805145
2.3	-0.00354915556250168	0.0138503843987756	0	0	0.387129151767565	-0.88919589106617	0	0
0	0	-0.0305570292760655	0.0189786425767078	0	0	0.737343724807225	-0.555184860444781
0.387129151767565	-0.88919589106617	0	0	0.0579227418725423	-0.0289582060264933	0	0
0	0	0.776090142220397	0.432953382772463	0	0	0.0666818938518983	0.046625840356331
2.4	0.00963425546358607	-0.0135872767632316	0	0	0.877718489004144	0.398862606135989	0	0
0	0	-0.000577053595077649	0.000778738268140943	0	0	0.324824634190502	-0.86799265619853
0.877718489004144	0.398862606135989	0	0	-0.0972359503154165	0.0135187918235017	0	0
0	0	-0.0396675022718885	0.882780709742969	0	0	0.047123575386466	-0.0492543517614779
2.5	-0.0160319081878044	0.0106999988264367	0	0	0.415552814489134	-0.866236637085445	0	0
0	0	0.0193238098689574	-0.0361463498901804	0	0	0.189242464428223	0.917773320839979
0.415552814489134	-0.866236637085445	0	0	-0.0105560947439411	-0.027223110667574	0	0
0	0	0.805194195991159	-0.332021951121884	0	0	0.0124742568990439	-0.000843014607270403
2.6	0.0215338241017948	-0.00564837337650462	0	0	0.859184234129625	0.429380507742838	0	0
0	0	0.018157478013219	-0.0387412264277095	0	0	0.667110798505189	0.65347610460147
0.859184234129625	0.429380507742838	0	0	0.00508776189250419	-0.0335176080545544	0	0
0	0	0.630516682488211	0.597155326384515	0	0	0.062423804251982	0.0100306764006375
2.7	-0.0251787337803996	-0.00115783049815102	0	0	0.44376093921027	-0.853111905156115	0	0
0	0	0.0213379755625699	-0.00942710334157048	0	0	-0.897162898513254	-0.173983799581538
0.44376093921027	-0.853111905156115	0	0	0.00279443095112069	-0.0129264379067709	0	0
0	0	0.275624889392721	-0.835176715442542	0	0	-0.0274577850144674	-0.000973050910202231
2.8	0.0257863030085113	0.00887624082880388	0	0	0.842472405915893	0.45715123931717	0	0
0	0	0.00956065422458873	0.0126950197896517	0	0	-0.841622551728086	0.312406452489402
0.842472405915893	0.45715123931717	0	0	0.00367192151123924	0.0637843553017577	0	0
0	0	0.870939622568694	-0.150123170916527	0	0	0.0259968070481669	-0.0637541074419026
2.9	-0.0227437253051505	-0.016646519271395	0	0	0.47326602371127	-0.823167474883702	0	0
0	0	-0.000574329339358041	0.0365036925881518	0	0	0.566861770431259	-0.699928729887039
0.47326602371127	-0.823167474883702	0	0	-0.0538078132580319	0.0340807968969267	0	0
0	0	-0.514561228012866	-0.702032895452256	0	0	-0.0401387086561229	-0.0460688060824425
3	0.0169396312672956	0.0235889313264428	0	0	0.814069435732065	0.497628791616848	0	0
0	0	-0.0115978938995655	0.0292089820866648	0	0	0.0920080916593799	-0.9190705118046
0.814069435732065	0.497628791616848	0	0	-0.00714564950514411	-0.0175065924495808	0	0
0	0	0.406473637587705	-0.759558510879525	0	0	0.0134509385409074	0.0856772033431737
3.1	-0.00858610626807747	-0.0278372740118866	0	0	0.518672751783157	-0.803688103655759	0	0
0	0	-0.0208918191760993	0.0120264695032536	0	0	0.446811939279175	0.805924102392454
0.518672751783157	-0.803688103655759	0	0	0.0384778776731908	-0.0640129670315435	0	0
0	0	-0.868030347044168	-0.0508808336028525	0	0	-0.0752335489174673	0.00614476399073209
3.2	-0.00088366675964947	0.0294881668475387	0	0	0.80186497690678	0.542888507407289	0	0
0	0	-0.018429870243128	-0.00629720044957293	0	0	0.796336144997894	0.437781210417201
0.80186497690678	0.542888507407289	0	0	0.000515693567599389	0.0253478975011036	0	0
0	0	-0.335755460652155	-0.813417355661496	0	0	-0.0590824648689215	0.00675762751061983
3.3	0.0101109660665689	-0.0272248452174902	0	0	0.554759930370725	-0.797588707496733	0	0
0	0	-0.00173953224036251	-0.0241813861856874	0	0	-0.903816200680857	0.0484311518690175
0.554759930370725	-0.797588707496733	0	0	0.0617137544574631	0.0246060096280837	0	0
0	0	-0.575311744246084	0.673482626805343	0	0	-0.0268642144662586	-0.106674309123783
3.4	-0.0177974487615526	0.0213010371357488	0	0	0.780928270913699	0.560057694331779	0	0
0	0	-0.00463389003035125	-0.0408789391256952	0	0	-0.733355039147216	0.540719820456886
0.780928270913699	0.560057694331779	0	0	-0.114737248293145	0.00819722498921464	0	0
0	0	-0.855312110341435	-0.224100712218016	0	0	-0.019301455439158	-0.0397333370209128
3.5	0.023123755670769	-0.0135402438383104	0	0	0.575096512537634	-0.771823159152482	0	0
0	0	0.00792380217428551	-0.0307023092806082	0	0	0.299195231162962	-0.867593527916907
0.575096512537634	-0.771823159152482	0	0	-0.0118568030331667	-0.0536215213774148	0	0
0	0	0.165403040702387	0.842996956120513	0	0	0.0852261251564609	-0.071982658047627
3.6	-0.0250513863534655	0.00475585366710017	0	0	0.764939423844299	0.585359453567365	0	0
0	0	0.0198106071479453	0.00202695392522243	0	0	-0.207381179157731	-0.894604544467025
0.764939423844299	0.585359453567365	0	0	-0.0346654786700418	0.0601712223286276	0	0
0	0	-0.693871571364925	0.518513179621289	0	0	0.0448866034178378	-0.0313112781091441
3.7	0.0230778001030019	0.00464400118900993	0	0	0.604658570794619	-0.744989038879104	0	0
0	0	0.0143208206933961	0.0359225863568136	0	0	0.637846624266969	0.650437177394141
0.604658570794619	-0.744989038879104	0	0	0.118227031616723	0.00803303926444577	0	0
0	0	0.769684936822605	0.411359845122197	0	0	0.0555646585894599	-0.0187818578680704
3.8	-0.0180934051356223	-0.0124108270737876	0	0	0.739061244277587	0.623666839027482	0	0
0	0	0.0156147019951073	0.0502923787714235	0	0	0.870955293382916	0.188632511833173
0.739061244277587	0.623666839027482	0	0	-0.0255123643901253	0.0207465359168432	0	0
0	0	-0.0179621471175516	0.871607531132161	0	0	-0.0582553853224512	-0.0255687763918373
3.9	0.01093903227207	0.0171714488916579	0	0	0.628590021554411	-0.73875973812974	0	0
0	0	0.0113678926604481	0.015569804256457	0	0	-0.825324853471444	0.326037883756557
0.628590021554411	-0.73875973812974	0	0	-0.0138609704605476	0.0834338661897643	0	0
0	0	0.784207623605879	-0.384043771310643	0	0	0.0248832895404461	-0.00558783525474652
4	-0.00219074755173588	-0.0186396145387161	0	0	0.721489087310724	0.636908054221548	0	0
0	0	-0.0166781933572794	-0.0121486254982177	0	0	-0.517860507887243	0.724428516078728
0.721489087310724	0.636908054221548	0	0	0.0514926993110372	-0.0741687613998279	0	0
0	0	0.683825043090382	0.517732098384079	0	0	-0.00480415797906413	0.00956958565809474
4.1	-0.00586653388608386	0.0166689085058292	0	0	0.642356036613214	-0.709001521034989	0	0
0	0	-0.0416994864425393	-0.0351124106879534	0	0	0.0563440267658797	-0.892870424997185
0.642356036613214	-0.709001521034989	0	0	0.0255656709392757	-0.112083050007824	0	0
0	0	0.185278968301988	-0.829033344327203	0	0	0.0261138611552599	0.082217187801989
4.2	0.0122974965141497	-0.0119667452504127	0	0	0.704429476337456	0.653515694142357	0	0
0	0	-0.0491920920603402	-0.0150838422552442	0	0	-0.433192863774678	-0.782211772151222
0.704429476337456	0.653515694142357	0	0	-0.0402203586957405	0.0163831002028858	0	0
0	0	0.832810129616992	-0.184062290447607	0	0	-0.0117564697737249	-0.0415218763225633
4.3	-0.0159927128151344	0.00498842359647747	0	0	0.662053831929126	-0.698068460292316	0	0
0	0	-0.00770529003728631	0.00697305792141802	0	0	0.779152525315435	0.42492329782677
0.662053831929126	-0.698068460292316	0	0	-0.0111726387085147	0.0675374062159397	0	0
0	0	-0.534854602874389	-0.674744197052842	0	0	-0.0145133446660752	0.00237369298591434
4.4	0.016120862937909	0.00324741758334052	0	0	0.681400978166323	0.671357535073649	0	0
0	0	0.0378244469691394	0.00438878877516464	0	0	0.889320382341716	-0.0536464058245308
0.681400978166323	0.671357535073649	0	0	0.00128091682699462	-0.0503525282780653	0	0
0	0	0.346467504272679	-0.773166061347099	0	0	-0.0337541015956751	0.00330133556393133
4.5	-0.0126338542389854	-0.0106774117710977	0	0	0.67761897957083	-0.663382643049606	0	0
0	0	0.0645848693942786	-0.00468372295347503	0	0	-0.723052139754257	0.523778984461278
0.67761897957083	-0.663382643049606	0	0	-0.0501669754275919	0.0266093192555131	0	0
0	0	-0.836135965822519	0.011374733789024	0	0	-0.0863268454135888	0.0622107796685569
4.6	0.00619186130944697	0.0162684745705393	0	0	0.645475017722942	0.692044691675497	0	0
0	0	0.0467582987725901	-0.0252677089138647	0	0	-0.313264470917224	0.845136266289152
0.645475017722942	0.692044691675497	0	0	-0.00410618917977518	0.0139755548524084	0	0
0	0	-0.372147757629456	-0.745331326823063	0	0	-0.0803763258937231	-0.00958408532658831
4.7	0.00189999865686054	-0.0188525434568422	0	0	0.709129261457265	-0.63856496650358	0	0
0	0	-0.0242372221484283	-0.00568511547504109	0	0	-0.191296783883547	-0.874563727592494
0.709129261457265	-0.63856496650358	0	0	0.0655035003568974	-0.0175995120916343	0	0
0	0	-0.524650403650112	0.656239056161766	0	0	-0.0732800348221643	0.0724612674165259
4.8	-0.0104986156005434	0.0179509131435675	0	0	0.638518195971232	0.724937764612358	0	0
0	0	-0.0582428465095188	0.0340901539217287	0	0	-0.607596173712148	-0.635115211997074
0.638518195971232	0.724937764612358	0	0	0.0528799578737187	-0.01828122996619	0	0
0	0	-0.828199271019685	-0.19709630638752	0	0	-0.00909205319697006	0.0719271640267989
4.9	0.0180426079692136	-0.0127866674101604	0	0	0.730754248208456	-0.630222239304484	0	0
0	0	-0.0394246306406995	0.0586051735579222	0	0	0.854661884646602	0.206936633655473
0.730754248208456	-0.630222239304484	0	0	-0.0810069717847505	-0.0286840118131586	0	0
0	0	0.199285472649946	0.821497411088502	0	0	-0.0835832734684145	0.00384237910714758
5	-0.0227257817650517	0.00464804907526985	0	0	0.618823304892096	0.726140804445266	0	0
0	0	-0.000170910695438389	0.0205305617612786	0	0	0.831053752899525	-0.298315774465733
0.618823304892096	0.726140804445266	0	0	-0.0476974048432256	0.0409982538518016	0	0
0	0	-0.645196951624558	0.533883757057726	0	0	0.0414580483040255	-0.00916021575001243
5.1	0.0242458883564504	0.00527847365729021	0	0	0.727526400941623	-0.605841936108246	0	0
0	0	0.0383951106745888	-0.03318809541304	0	0	-0.533518015818927	0.695186158396276
0.727526400941623	-0.605841936108246	0	0	-0.0217128520660909	-0.0411087924780778	0	0
0	0	0.749663833383298	0.345127997885478	0	0	0.0724699366339421	-0.0196802094676045
5.2	-0.0218777396559994	-0.0163644991404413	0	0	0.583068262702296	0.745461576312241	0	0
0	0	0.0158249478644442	-0.0740191640080009	0	0	-0.0796202424979669	0.871541829790988
0.583068262702296	0.745461576312241	0	0	0.038201609770094	0.0227345556974367	0	0
0	0	0.0143318327065978	0.832261032397068	0	0	0.0264904763468274	0.0664171384540574
5.3	0.0156013571870986	0.0259595729392049	0	0	0.764433211821106	-0.570666803650292	0	0
0	0	-0.0145580956921059	-0.0411398947641396	0	0	-0.410822498901997	-0.771671380415426
0.764433211821106	-0.570666803650292	0	0	-0.0320082480796268	0.0248511480925597	0	0
0	0	0.74360250081749	-0.372919333535345	0	0	-0.0435250276800169	0.0117663562005653
5.4	-0.00645005623593219	-0.0319883418238307	0	0	0.562196456176941	0.770147765954421	0	0
0	0	-0.0317157676974701	0.0146387027111638	0	0	-0.766378745571834	-0.430235383002275
0.562196456176941	0.770147765954421	0	0	0.070228774018007	0.0880736761627864	0	0
0	0	0.656288750908713	0.511595987361947	0	0	-0.00963204838608943	0.0218309462006877
5.5	-0.00442999691307573	0.0344542683235846	0	0	0.781748382429777	-0.559493823318923	0	0
0	0	0.0228859712687339	0.0599003941269566	0	0	0.878080843159112	-0.0418183992732218
0.781748382429777	-0.559493823318923	0	0	-0.00626147783829675	-0.0276224875409546	0	0
0	0	0.160293347988631	-0.816834637155213	0	0	0.0213374039511515	0.038732052797459
5.6	0.0159932306664989	-0.0319463505804921	0	0	0.545585870770255	0.788119661746803	0	0
0	0	0.0421428509175906	0.0563706706977628	0	0	0.700950844169232	-0.506675736436086
0.545585870770255	0.788119661746803	0	0	0.00273390246895042	-0.109615036573218	0	0
0	0	0.801662101248552	-0.199578267385697	0	0	0.0102045404954461	0.118006562562504
5.7	-0.0266969585593751	0.0253827123519011	0	0	0.801893050750981	-0.537564718390404	0	0
0	0	0.0205767528807539	-0.00735167327216043	0	0	-0.321655376701482	0.808088357875357
0.801893050750981	-0.537564718390404	0	0	-0.0122649244984246	0.0518673589206303	0	0
0	0	-0.534871253435022	-0.652400355049337	0	0	0.0585918903504561	0.035244235362429
5.8	0.0335280652325254	-0.0148233180521729	0	0	0.520653951905905	0.802459962852751	0	0
0	0	-0.021962041774679	-0.0317230531875937	0	0	0.152883562486249	0.857006886296879
0.520653951905905	0.802459962852751	0	0	0.0597044243243974	-0.0268923296603613	0	0
0	0	0.327904087210373	-0.772318483869337	0	0	0.0337275674039674	0.0562278139394648
5.9	-0.0366506122737741	0.00172788306451015	0	0	0.816723985477214	-0.498058775509142	0	0
0	0	-0.0559747617123045	-0.0270341840650665	0	0	-0.585804279004273	-0.642241031263281
0.816723985477214	-0.498058775509142	0	0	-0.0738959255944443	0.0435757720755772	0	0
0	0	-0.830691031783684	0.0574148226319473	0	0	0.0371555380547434	0.0733445718318289
6	0.0353245293884709	0.0111913756605322	0	0	0.482853558200186	0.830473636665768	0	0
0	0	-0.0337881308425626	0.00578489666418278	0	0	-0.851643654540254	-0.197845684141432
0.482853558200186	0.830473636665768	0	0	-0.00273973121388377	0.0241776918302215	0	0
