# GHZ S RI R 50
0.2	-0.00712452899091884	0.0125618115832846	0	0	0.95763802936279	0.0584023490849832	0	0
0	0	0.0181776136546735	0.00543832650533874	0	0	-0.370749309886452	0.910959304509019
0.95763802936279	0.0584023490849832	0	0	0.0215692251473913	0.0393499906775642	0	0
0	0	0.569879287494054	-0.753810200864814	0	0	0.00211732664507078	-0.0343970050097295
0.3	0.00680596186995599	-0.0109390004632362	0	0	0.0341163854197979	-0.965013704818145	0	0
0	0	-0.00629707874356868	0.00169418867863115	0	0	-0.133624830581857	-0.974229524304744
0.0341163854197979	-0.965013704818145	0	0	-0.0145327651705706	0.00235777367474517	0	0
0	0	-0.921859369608792	-0.202724624960216	0	0	-0.0330040448493579	-0.0195237822036054
0.4	-0.00893618700956512	0.00784554028921221	0	0	0.948487199910425	0.0629966236287299	0	0
0	0	-0.039331424592136	0.000680400793355038	0	0	-0.666387082463247	-0.726483967283241
0.948487199910425	0.0629966236287299	0	0	-0.0350957853653911	-0.0153813057100794	0	0
0	0	-0.234252666580904	-0.896068463379841	0	0	0.0206421195360697	0.0184695356353067
0.5	0.0118775159290215	-0.00384991703760726	0	0	0.129090653803915	-0.948903788823817	0	0
0	0	-0.0320583697335891	0.0046275022307353	0	0	0.963954088802471	0.208592344941043
0.129090653803915	-0.948903788823817	0	0	0.0357783760687051	0.0160898053299563	0	0
0	0	-0.679755036588209	0.635842083856018	0	0	0.00420559090003417	0.00699374381414729
0.6	-0.0133437433381362	0.000950944478216177	0	0	0.955423472275209	0.133101906139303	0	0
0	0	-0.0069026737304338	0.00619283034030054	0	0	0.913911955987115	-0.328026804930937
0.955423472275209	0.133101906139303	0	0	0.00449740772542137	-0.019933790227103	0	0
0	0	-0.861884458661128	-0.346662394934807	0	0	-0.00583434330760289	-0.00745944654884242
0.7	0.0134183727875219	0.00110025747190075	0	0	0.111038450652013	-0.958629639825212	0	0
0	0	0.0242264555666293	-0.01040501005935	0	0	-0.613549574720102	0.748009665179067
0.111038450652013	-0.958629639825212	0	0	0.00800158003823936	0.00969685202831885	0	0
0	0	0.0439687531586458	0.921635477571868	0	0	0.0023253090808068	-0.0131542719222419
0.8	-0.0120015015872692	-0.0036689951270133	0	0	0.956772550756047	0.115818098469747	0	0
0	0	0.0456593402984726	-0.0409332980968025	0	0	-0.122706034001262	0.962444882969431
0.956772550756047	0.115818098469747	0	0	-0.0224703006504266	0.0121720957541157	0	0
0	0	-0.814049823864957	0.447792653491801	0	0	0.00659699111065264	0.0832349223901226
0.9	0.00869369327212158	0.00630060117092195	0	0	0.147340168133002	-0.942319752141332	0	0
0	0	0.0142902058096496	-0.0268077013083751	0	0	-0.433942593991635	-0.869472105404494
0.147340168133002	-0.942319752141332	0	0	-0.00172659329324154	-0.063183070436605	0	0
0	0	0.765207344066504	0.528225799771994	0	0	0.036659990495984	0.0130738616914003
1	-0.00483485138351168	-0.00823268154926683	0	0	0.94580449846454	0.183814501133617	0	0
0	0	-0.0139408712139721	0.0124688590111869	0	0	-0.840780885853793	-0.484560027991004
0.94580449846454	0.183814501133617	0	0	0.00215480944232289	0.0411016321315957	0	0
0	0	-0.128239036180888	0.905845717124554	0	0	0.00302584835851324	0.000870831709762512
1.1	0.00124134235707336	0.0087502347570118	0	0	0.20337411495382	-0.953542634249661	0	0
0	0	-0.0118366798206231	0.0351229054303899	0	0	0.960825612491045	-0.0504278510991763
0.20337411495382	-0.953542634249661	0	0	0.00233452615630832	0.000759170459837469	0	0
0	0	0.873217239192938	-0.260720792083616	0	0	0.00783889275750525	0.0423190199190281
1.2	0.00116771364375715	-0.00764580416642038	0	0	0.963903750348475	0.203787753403697	0	0
0	0	0.00801303591905946	0.0639546163030387	0	0	0.77503483775199	-0.557618369843322
0.963903750348475	0.203787753403697	0	0	0.0524081134741427	-0.00107936389876571	0	0
0	0	0.617123993922898	0.674902226314408	0	0	0.0056219461383566	0.100132121467435
1.3	-0.00265528550551018	0.00452707819229517	0	0	0.205638497670511	-0.948155974093651	0	0
0	0	0.0153980639643949	0.01776433938656	0	0	-0.35610262544855	0.888225422300872
0.205638497670511	-0.948155974093651	0	0	-0.0567051166812781	0.00055992541433043	0	0
0	0	0.322997456575513	-0.864104228121711	0	0	0.0390185896756416	0.014493980042642
1.4	0.00321834479267311	-0.000753661960970192	0	0	0.930049188397921	0.233056256216239	0	0
0	0	-0.0136105307790285	-0.0453064145720031	0	0	0.182270955290928	0.941895762693323
0.930049188397921	0.233056256216239	0	0	0.0155505356295213	0.00831946278075885	0	0
0	0	0.903310301979282	-0.0861440899510172	0	0	0.0432903660916236	-0.00652872704005026
1.5	-0.00219028261874855	-0.0022618253969363	0	0	0.269759176583969	-0.928082982225543	0	0
0	0	-0.038028048821732	-0.0580826005773675	0	0	-0.679925174921633	-0.676673865333269
0.269759176583969	-0.928082982225543	0	0	0.0314923749907923	-0.0328577270918411	0	0
0	0	-0.465924212693617	-0.769794273445291	0	0	0.032282218555411	0.0527832366929546
1.6	-0.000175036433020648	0.0041537079700482	0	0	0.942920853097869	0.292771924021994	0	0
0	0	-0.0356194843806164	-0.0213945894994189	0	0	-0.941504858728911	-0.180997949465456
0.942920853097869	0.292771924021994	0	0	-0.0535402779250044	-0.0259736323730536	0	0
0	0	0.496703288740159	-0.758990052680243	0	0	5.2220385220101E-05	0.05354262031632
1.7	0.00297948100155803	-0.00464976505414764	0	0	0.286700698813716	-0.94775848634356	0	0
0	0	0.0164987135821118	0.00479879544734844	0	0	0.886335509264258	-0.348323585643541
0.286700698813716	-0.94775848634356	0	0	-0.00195097457801175	0.00625736939524943	0	0
0	0	-0.903839503742393	-0.107873548504286	0	0	0.0390633107015489	-0.0302437465423185
1.8	-0.00532669266185706	0.003241701542583	0	0	0.921002938693482	0.287322253483761	0	0
0	0	0.0464947570999727	0.0370351152538346	0	0	0.571495929543895	-0.750019532049675
0.921002938693482	0.287322253483761	0	0	0.0066069615605045	0.0663549416031651	0	0
0	0	-0.314505724083937	-0.849881143638444	0	0	0.0268523402375522	-0.0336157548701928
1.9	0.00691875769293393	-8.70650652809112E-05	0	0	0.316495923494429	-0.896766703814527	0	0
0	0	0.053738412272027	-0.00412151569213341	0	0	-0.0794945015760152	0.942980118266757
0.316495923494429	-0.896766703814527	0	0	0.00957586231967971	0.00957967473975675	0	0
0	0	-0.613075135247894	0.648999583605757	0	0	0.0409644713384698	0.0239063160512002
2	-0.00718016591804225	-0.00414965198145413	0	0	0.892903337079236	0.346948251078121	0	0
0	0	0.0158277271741425	-0.00471770945920206	0	0	0.460629424757943	0.8316262474626
0.892903337079236	0.346948251078121	0	0	-0.0502619175257428	-0.0324663815684099	0	0
0	0	-0.845646920893178	-0.260849060088009	0	0	-0.0533264778327757	-0.020435076049171
2.1	0.00589569157160721	0.0085165225868949	0	0	0.362020585512645	-0.898859414191561	0	0
0	0	-0.0287995593273243	0.00862938451026038	0	0	-0.83114406968262	-0.449480273111059
0.362020585512645	-0.898859414191561	0	0	0.0704926251405941	0.0163309407052009	0	0
0	0	0.137874822328942	0.878551780254659	0	0	-0.00513041066922084	0.00999088318475533
2.2	-0.00258921204496381	-0.0121408377010834	0	0	0.898751293014753	0.374475619881577	0	0
0	0	-0.0481744269428235	0.0182187776072225	0	0	-0.931276920060908	0.0704202813232164
0.898751293014753	0.374475619881577	0	0	0.0143860570942033	-0.0105447464427329	0	0
0	0	-0.735498989774725	0.507134403411939	0	0	0.0422353715727243	-0.0111349097825596
2.3	-0.00255593396320609	0.0139090620134309	0	0	0.384958043869097	-0.889270075612252	0	0
0	0	-0.0307681691543387	0.0202547097364162	0	0	0.735420514573225	-0.555727894401457
0.384958043869097	-0.889270075612252	0	0	0.0576968486331238	-0.0284004987212044	0	0
0	0	0.775819064474493	0.431048434124888	0	0	0.0664533308707588	0.046716062519657
2.4	0.00890638530037133	-0.0134478435691058	0	0	0.877697394688442	0.397466654619578	0	0
0	0	-0.000951277429449646	0.00168038249593693	0	0	0.323854902921066	-0.8674622267713
0.877697394688442	0.397466654619578	0	0	-0.0967777146671656	0.0146372104453307	0	0
0	0	-0.0389436742626953	0.882014685723595	0	0	0.0468551913681789	-0.048619579250944
2.5	-0.015688501290148	0.0106192338080482	0	0	0.415145409075268	-0.866298215250137	0	0
0	0	0.0189704810084553	-0.0358316891093181	0	0	0.18920788656005	0.917418762631909
0.415145409075268	-0.866298215250137	0	0	-0.00991829902696694	-0.0263506321142623	0	0
0	0	0.804876445126219	-0.33192886598826	0	0	0.0125575949289125	-0.000127604262256589
2.6	0.0214317386268096	-0.00582733065028791	0	0	0.859701644022959	0.429838855249161	0	0
0	0	0.018024675280154	-0.0389859390409305	0	0	0.667081898417457	0.654081143451261
0.859701644022959	0.429838855249161	0	0	0.00602950777730083	-0.0328987789977621	0	0
0	0	0.630499287552584	0.597718345913015	0	0	0.0627413605355272	0.0108054433119784
2.7	-0.0251107223697467	-0.00072510655500242	0	0	0.444888126512966	-0.854412166793671	0	0
0	0	0.0215353665046431	-0.00999060718346061	0	0	-0.898366353573468	-0.174857263874616
0.444888126512966	-0.854412166793671	0	0	0.00385227212915174	-0.0125367739676493	0	0
0	0	0.276605626954574	-0.836218869074982	0	0	-0.0271584031367611	-0.000388409489168597
2.8	0.0257051925393974	0.008316431722038	0	0	0.844794953594886	0.458640090830329	0	0
0	0	0.010116429164502	0.0121663718277815	0	0	-0.843944956557392	0.312703982120668
0.844794953594886	0.458640090830329	0	0	0.00472024297284034	0.0643917063311866	0	0
0	0	0.873240837758968	-0.149991119598133	0	0	0.0266309264169975	-0.0635197692305006
2.9	-0.0227263040524407	-0.0159783331266266	0	0	0.474892005939042	-0.826573711698181	0	0
0	0	0.00031776839562221	0.0363571280819392	0	0	0.568911054654581	-0.702497646401174
0.474892005939042	-0.826573711698181	0	0	-0.0532110286945731	0.0344615355970134	0	0
0	0	-0.516457489127568	-0.704580337907582	0	0	-0.0400073305129478	-0.0459738369697018
3	0.0169690644488272	0.0227238144446303	0	0	0.818571454263945	0.499063010188514	0	0
0	0	-0.0104881297567548	0.0296151193920611	0	0	0.0913254578883313	-0.923199357182329
0.818571454263945	0.499063010188514	0	0	-0.00638671344450816	-0.0177526486769284	0	0
0	0	0.40735487249052	-0.763360888356622	0	0	0.0141919508646897	0.0866972143661707
3.1	-0.00850276757132058	-0.0267748742204586	0	0	0.519557275402008	-0.809224609011609	0	0
0	0	-0.0197442328672487	0.0129996455638082	0	0	0.451028869038691	0.808919547815231
0.519557275402008	-0.809224609011609	0	0	0.0391716162959475	-0.0651142416691856	0	0
0	0	-0.872547610687629	-0.0490324648704627	0	0	-0.0755924834291976	0.00674428006184597
3.2	-0.0011679249158552	0.0283445384579602	0	0	0.808537761833287	0.542817597556657	0	0
0	0	-0.0175498160857634	-0.00488955334873948	0	0	0.802123096087351	0.436931143294862
0.808537761833287	0.542817597556657	0	0	0.00102524501354882	0.0253667592414936	0	0
0	0	-0.340640027254495	-0.816284763235694	0	0	-0.0593867262825011	0.00732076785698543
3.3	0.0105598933157565	-0.0261782371155622	0	0	0.553344583854907	-0.804877724590599	0	0
0	0	-0.00135683946971076	-0.0226138010161603	0	0	-0.908029872827949	0.0533743523360134
0.553344583854907	-0.804877724590599	0	0	0.0627194208491314	0.0240147677970541	0	0
0	0	-0.574649209782051	0.679804491330239	0	0	-0.0281476353591222	-0.1074534083154
3.4	-0.0182425147709385	0.0204233740001674	0	0	0.78855675762777	0.557303955759145	0	0
0	0	-0.00488966091883135	-0.0394507950409881	0	0	-0.732699819999849	0.547864683751443
0.78855675762777	0.557303955759145	0	0	-0.115730982192672	0.00983953552667124	0	0
0	0	-0.860307395977082	-0.219250574101405	0	0	-0.0200054661938187	-0.0398298471258518
3.5	0.023466507487328	-0.0126952630179514	0	0	0.570854114248232	-0.779209409846202	0	0
0	0	0.00707772581518101	-0.0296978109540576	0	0	0.293262421251199	-0.872391259990939
0.570854114248232	-0.779209409846202	0	0	-0.0128134171515427	-0.0537073476993699	0	0
0	0	0.172460565114034	0.844093772840673	0	0	0.0845117753641238	-0.0737407277435646
3.6	-0.0253676739975909	0.00388367088992309	0	0	0.771858580047041	0.579559628986188	0	0
0	0	0.0184748243459101	0.00249615240517894	0	0	-0.215512995572267	-0.893903807039355
0.771858580047041	0.579559628986188	0	0	-0.0336330578638612	0.0611577389279213	0	0
0	0	-0.690181116288504	0.525269713113958	0	0	0.0443962054218362	-0.0321612083674001
3.7	0.0234347000939692	0.00553382066687356	0	0	0.597610831001087	-0.750900825820459	0	0
0	0	0.0128351689409993	0.035782513273745	0	0	0.643498414733181	0.644229842467408
0.597610831001087	-0.750900825820459	0	0	0.118541203360979	0.00584756567428791	0	0
0	0	0.773068443628682	0.404064155250016	0	0	0.0551529180656987	-0.0197521664730148
3.8	-0.018533527484971	-0.0132008154792029	0	0	0.743891084457815	0.615533883802939	0	0
0	0	0.0143601448759364	0.0497763317059656	0	0	0.870761038570175	0.180086696416217
0.743891084457815	0.615533883802939	0	0	-0.02491897377985	0.0211795776529065	0	0
0	0	-0.0097930490584916	0.869820102704918	0	0	-0.0584229849262715	-0.0243376670450387
3.9	0.0113573320334835	0.0177561668915874	0	0	0.619630135879426	-0.741898202066882	0	0
0	0	0.0105771902560972	0.0148594930834807	0	0	-0.819216045974717	0.331913744128684
0.619630135879426	-0.741898202066882	0	0	-0.0121953097535944	0.0830239175342559	0	0
0	0	0.777758104603234	-0.389332152653169	0	0	0.0246452710885342	-0.00596196770076063
4	-0.0024291869833234	-0.0190881958943182	0	0	0.722826012819842	0.627910804658198	0	0
0	0	-0.0168453648556519	-0.0128877323423973	0	0	-0.509351620799847	0.724501401583687
0.722826012819842	0.627910804658198	0	0	0.0497712548981885	-0.0743598242208866	0	0
0	0	0.684119846441792	0.509541473918563	0	0	-0.00453707467837524	0.00951799276463898
4.1	-0.00579847126133508	0.0171184697334614	0	0	0.63371510847431	-0.708650370398501	0	0
0	0	-0.041266623877234	-0.0356914758229709	0	0	0.050126388117241	-0.887168616227174
0.63371510847431	-0.708650370398501	0	0	0.0237163532139653	-0.111161445182926	0	0
0	0	0.178601944733538	-0.824608063565844	0	0	0.0268902556668594	0.0807078268050162
4.2	0.0122966167624927	-0.012476780076037	0	0	0.702668986708028	0.645515205141523	0	0
0	0	-0.0484139595169334	-0.0153468853294844	0	0	-0.43379199897438	-0.774216883082471
0.702668986708028	0.645515205141523	0	0	-0.0396143024699357	0.0164271093061146	0	0
0	0	0.825661109624387	-0.186778067413643	0	0	-0.0119440800230208	-0.0408625982474243
4.3	-0.0159995187808004	0.00548135962424535	0	0	0.655015320526756	-0.695093829201641	0	0
0	0	-0.0069539339859239	0.00707983638125363	0	0	0.774418110979496	0.419148105696239
0.655015320526756	-0.695093829201641	0	0	-0.0106352370139581	0.0665746875268788	0	0
0	0	-0.532814618534494	-0.667792323519136	0	0	-0.0142492339646473	0.00236377714218974
4.4	0.0161874135086049	0.00285220078337871	0	0	0.677552996002712	0.665609934545088	0	0
0	0	0.0382353784830686	0.00478477432709615	0	0	0.882583317700871	-0.0545478788487221
0.677552996002712	0.665609934545088	0	0	0.00119871930184633	-0.0495700821055393	0	0
0	0	0.342740529137005	-0.767884950179723	0	0	-0.0332432353063667	0.00336110620963121
4.5	-0.012852885525316	-0.0103626775427265	0	0	0.673318784104676	-0.65911560467507	0	0
0	0	0.0644463045405361	-0.00414439639719925	0	0	-0.718176909564806	0.520345593149589
0.673318784104676	-0.65911560467507	0	0	-0.0492440938358119	0.0263937339169752	0	0
0	0	-0.830551211230651	0.0113732687274715	0	0	-0.0851696982142106	0.0615123249802115
4.6	0.00659970903288194	0.0159290831046144	0	0	0.641196425784582	0.689181492943732	0	0
0	0	0.0460837630146254	-0.024766260116583	0	0	-0.312379587874053	0.840180551598617
0.641196425784582	0.689181492943732	0	0	-0.00364219416737184	0.013893215312213	0	0
0	0	-0.369363989538507	-0.741603051123892	0	0	-0.0794392773029427	-0.00941638766794441
4.7	0.00137955901732863	-0.0183834603313939	0	0	0.707564119863766	-0.63465560336832	0	0
0	0	-0.0253169013124096	-0.00548056067086688	0	0	-0.189183486383998	-0.871168312072812
0.707564119863766	-0.63465560336832	0	0	0.0656534129761875	-0.017308396810458	0	0
0	0	-0.523423348949854	0.652691898942403	0	0	-0.0727832645875083	0.0718944910826097
4.8	-0.0100005582017947	0.0173954744066256	0	0	0.635397619719551	0.724496684036083	0	0
0	0	-0.0593677384680556	0.033842406089937	0	0	-0.604773901636279	-0.634348372275945
0.635397619719551	0.724496684036083	0	0	0.053316208074246	-0.0181901822913869	0	0
0	0	-0.825500380768444	-0.197956665257716	0	0	-0.00914712283186018	0.0718038118938402
4.9	0.0175570674425083	-0.0122422416376881	0	0	0.731183027395594	-0.628215540963041	0	0
0	0	-0.0402779590478914	0.0578890076426791	0	0	0.853298235191592	0.207792819347165
0.731183027395594	-0.628215540963041	0	0	-0.08012907483767	-0.0292871040711406	0	0
0	0	0.197953598232625	0.820708800378951	0	0	-0.0831508379041641	0.00390156006015951
5	-0.0221699081972934	0.00412799757610752	0	0	0.618145117992951	0.72691430094733	0	0
0	0	-0.000510217977028923	0.0194157016673023	0	0	0.831035153288339	-0.297798986981072
0.618145117992951	0.72691430094733	0	0	-0.0472634608900801	0.040437967103679	0	0
0	0	-0.645346877762165	0.533416777553458	0	0	0.0417375235225332	-0.0088372634643015
5.1	0.0236003962779068	0.00588139239614426	0	0	0.728224949260961	-0.606430020409787	0	0
0	0	0.038646643132297	-0.0344668804048356	0	0	-0.533286848664942	0.695883790578787
0.728224949260961	-0.606430020409787	0	0	-0.0213716216922426	-0.0417464069482196	0	0
0	0	0.75025638799128	0.344770304035454	0	0	0.0728457572447142	-0.0195778048347766
5.2	-0.0212425062170498	-0.0170786188682116	0	0	0.585008022877068	0.745588832212963	0	0
0	0	0.0165625457729085	-0.0751833760561358	0	0	-0.0776704773963891	0.872227057069908
0.585008022877068	0.745588832212963	0	0	0.0385206232112582	0.0220694876592634	0	0
0	0	0.0162458637059565	0.83270845629898	0	0	0.027168154792902	0.0665158517982455
5.3	0.0151030691604086	0.0266919248656048	0	0	0.763622323974869	-0.57374618451734	0	0
0	0	-0.0135795563466304	-0.0418935622641835	0	0	-0.413932649153978	-0.770432038968393
0.763622323974869	-0.57374618451734	0	0	-0.0320389026168342	0.0245381568220955	0	0
0	0	0.742495637186783	-0.375906700524236	0	0	-0.0431792258633382	0.0121042892856913
5.4	-0.00606751216547003	-0.032571137096768	0	0	0.565964410535167	0.767822504537338	0	0
0	0	-0.0307342846653193	0.0145115016741499	0	0	-0.768308555678276	-0.426161799788276
0.565964410535167	0.767822504537338	0	0	0.0708474756134609	0.0870590176428277	0	0
0	0	0.658673841270859	0.508056857384142	0	0	-0.0091988819265559	0.0218078316778694
5.5	-0.00487382899768802	0.0348638702649786	0	0	0.777854473037626	-0.56337661009954	0	0
0	0	0.0236308217262253	0.060433985771877	0	0	0.876413220012648	-0.0472530523867357
0.777854473037626	-0.56337661009954	0	0	-0.00676768967457611	-0.0277905914592898	0	0
0	0	0.154918895853328	-0.816531381925607	0	0	0.0218789387155384	0.0382129810068819
5.6	0.0165990835466383	-0.0323052242843836	0	0	0.549048000124616	0.782632098816302	0	0
0	0	0.0424749165778073	0.0574078006203316	0	0	0.694969708864863	-0.509977928754583
0.549048000124616	0.782632098816302	0	0	0.00127830445472384	-0.109334813638389	0	0
0	0	0.797536133292744	-0.204634350438521	0	0	0.0119203894048081	0.117002984467315
5.7	-0.0274110958741932	0.0258165183944763	0	0	0.794901132365849	-0.540382535527575	0	0
0	0	0.0204783707135993	-0.00607702500448192	0	0	-0.31412251865688	0.806154903192724
0.794901132365849	-0.540382535527575	0	0	-0.0114001594048574	0.0511418975334031	0	0
0	0	-0.536766771675541	-0.645098926530635	0	0	0.0587454477938828	0.0339767178133134
5.8	0.03416718437114	-0.015372808523314	0	0	0.522171187793347	0.79420464782511	0	0
0	0	-0.0224127349141801	-0.0305621631925662	0	0	0.157623644305091	0.849700169654194
0.522171187793347	0.79420464782511	0	0	0.0586028007576596	-0.0278861899441375	0	0
0	0	0.320229856744094	-0.768916461721839	0	0	0.0343830512934289	0.0549139368662485
5.9	-0.0371324729554641	0.00224284356940022	0	0	0.807599979793838	-0.498191315707485	0	0
0	0	-0.0565953181888116	-0.0262850372545867	0	0	-0.584157494856441	-0.632975435172813
0.807599979793838	-0.498191315707485	0	0	-0.0726027309587836	0.0428712549520635	0	0
0	0	-0.822756690503862	0.0616936207750614	0	0	0.037809839881733	0.0714595554706458
6	0.035693676306439	0.0108695944247622	0	0	0.481128726307209	0.820712087833224	0	0
0	0	-0.0343584320473061	0.00598019121147057	0	0	-0.843463507359156	-0.192021614108573
0.481128726307209	0.820712087833224	0	0	-0.00326223242709184	0.0230391825395695	0	0
