# GHZ S RI R 50
0.2	-0.00644696577925427	0.0118044170919083	0	0	0.95769887069736	0.0583928903058991	0	0
0	0	0.0191986097924163	0.00551995898187378	0	0	-0.370714527720413	0.91096471824347
0.95769887069736	0.0583928903058991	0	0	0.0207610659276679	0.0405327607153592	0	0
0	0	0.569848339586121	-0.753823844337918	0	0	0.00131357022569035	-0.033208014850712
0.3	0.00662687554904555	-0.010464633636785	0	0	0.0340871754176703	-0.965031564519378	0	0
0	0	-0.00583024962611272	0.0018830835214989	0	0	-0.133646721493916	-0.974240539634251
0.0340871754176703	-0.965031564519378	0	0	-0.014816513780372	0.00351045358961643	0	0
0	0	-0.921876551535713	-0.202708559616799	0	0	-0.0332747888773616	-0.018364797519931
0.4	-0.00887759133987943	0.00789289656814131	0	0	0.94850901634576	0.0629336113762	0	0
0	0	-0.0394005446415654	0.000712419545158489	0	0	-0.666452640951926	-0.726462765952954
0.94850901634576	0.0629336113762	0	0	-0.0349878779337973	-0.0144684844006735	0	0
0	0	-0.234316424271065	-0.896079657304368	0	0	0.0207743883164045	0.0193769487440212
0.5	0.0116453317722954	-0.00436280634219666	0	0	0.129021398149708	-0.948932675420911	0	0
0	0	-0.0325845259532023	0.00442966098763295	0	0	0.96398511417758	0.208502682552857
0.129021398149708	-0.948932675420911	0	0	0.0360636973354429	0.0166383713803177	0	0
0	0	-0.679702138458177	0.635914329574098	0	0	0.00450236663599175	0.00754225762569345
0.6	-0.0126704634427981	0.00164437275243355	0	0	0.955449438607512	0.132957770617332	0	0
0	0	-0.00767908638883176	0.00567324999196477	0	0	0.913849660364953	-0.328148586332346
0.955449438607512	0.132957770617332	0	0	0.00470374676871678	-0.0196986684614935	0	0
0	0	-0.861917367154887	-0.34653572826733	0	0	-0.00561666782237721	-0.00722648268444956
0.7	0.0123199082492247	0.000672200207841587	0	0	0.110885983628521	-0.95860815236544	0	0
0	0	0.0234531003734927	-0.0112240722964099	0	0	-0.61339414756087	0.748071819279418
0.110885983628521	-0.95860815236544	0	0	0.00798435239889743	0.00978152202427848	0	0
0	0	0.044118489794917	0.921580102132728	0	0	0.00230412565948346	-0.0130640994535616
0.8	-0.0108397944111824	-0.00367600557362519	0	0	0.956668584806896	0.115647037936227	0	0
0	0	0.0450400947594642	-0.0418708175104983	0	0	-0.122642665800131	0.962379191280806
0.956668584806896	0.115647037936227	0	0	-0.02272889695982	0.0123509788871747	0	0
0	0	-0.813963248427085	0.447804649283703	0	0	0.00635114240764305	0.0834040422916198
0.9	0.0078397356238919	0.00657548304875986	0	0	0.147094329762254	-0.94215780387864	0	0
0	0	0.0139160820367279	-0.0276123587046613	0	0	-0.434030641891084	-0.869300369115289
0.147094329762254	-0.94215780387864	0	0	-0.00212273888765274	-0.0627033731839243	0	0
0	0	0.765201815985938	0.528041217305136	0	0	0.036301362929618	0.0135328466401918
1	-0.00441735292583982	-0.00846627904638799	0	0	0.945625828550172	0.183648431805665	0	0
0	0	-0.0140214704615067	0.0120212921807637	0	0	-0.840672943856282	-0.484346760442122
0.945625828550172	0.183648431805665	0	0	0.00194570102634136	0.0418764920015141	0	0
0	0	-0.128090434950265	0.905676308190258	0	0	0.00284258270537865	0.00167815058839411
1.1	0.00113992661214601	0.00859350098123815	0	0	0.203231473878152	-0.953294856024815	0	0
0	0	-0.0116713493668952	0.0351739118173279	0	0	0.960565551225044	-0.0505041195457625
0.203231473878152	-0.953294856024815	0	0	0.00250803033029589	0.00176138169035941	0	0
0	0	0.872960835376271	-0.260732995581945	0	0	0.00807123631589389	0.0432921773928179
1.2	0.00136257897432027	-0.00698670824294797	0	0	0.963631778608834	0.203737348197728	0	0
0	0	0.00827111977416386	0.0645157549951586	0	0	0.774749576217101	-0.557414901751241
0.963631778608834	0.203737348197728	0	0	0.0530184447409136	-0.000119566576444241	0	0
0	0	0.616898537739857	0.67465362186094	0	0	0.00632121968810747	0.100984923673691
1.3	-0.00316251510911509	0.00368521611677022	0	0	0.205585399245293	-0.947809191952192	0	0
0	0	0.0155406634365643	0.0186723092182008	0	0	-0.356046061071659	0.8879167428426
0.205585399245293	-0.947809191952192	0	0	-0.0557295141537205	0.00130313944435219	0	0
0	0	0.322949960093558	-0.863805458586166	0	0	0.0399785842063876	0.0151680868289193
1.4	0.00385445712909185	9.06344300278074E-05	0	0	0.929743666045024	0.233130688602351	0	0
0	0	-0.0138339611163494	-0.0443336749371946	0	0	0.182093611651573	0.941639165601883
0.929743666045024	0.233130688602351	0	0	0.0165640195994943	0.00889164262096622	0	0
0	0	0.903052631217145	-0.0860004065756469	0	0	0.0443331677861255	-0.00602158218006396
1.5	-0.00295550053553654	-0.00316300796827921	0	0	0.269874663500215	-0.927829754551625	0	0
0	0	-0.0386579633255153	-0.0571953179256237	0	0	-0.679530324460309	-0.676655285100184
0.269874663500215	-0.927829754551625	0	0	0.0325551041531064	-0.0324399198153667	0	0
0	0	-0.465568962048657	-0.769688053255728	0	0	0.0333358922672435	0.05307299669574
1.6	0.000869060303012129	0.00496091942201778	0	0	0.942587888103529	0.292916748232098	0	0
0	0	-0.0365447585853319	-0.0206722352738628	0	0	-0.941178959532599	-0.181280087397907
0.942587888103529	0.292916748232098	0	0	-0.0524626270978724	-0.0258882144661602	0	0
0	0	0.496833123362127	-0.758603444700482	0	0	0.00106749360154944	0.0535274566726564
1.7	0.00180439714912299	-0.00507235869087823	0	0	0.28697769653905	-0.947536263095631	0	0
0	0	0.0154906784405	0.0052373305197379	0	0	0.8863097885378	-0.348004863909269
0.28697769653905	-0.947536263095631	0	0	-0.0010970317437645	0.00605984966183877	0	0
0	0	-0.903673607121088	-0.108130237994329	0	0	0.0399139504070402	-0.030479639982256
1.8	-0.00437911897312187	0.00335135076624371	0	0	0.920876181912477	0.287694771264578	0	0
0	0	0.0456269386554806	0.037120732013501	0	0	0.571707534570552	-0.749762252885288
0.920876181912477	0.287694771264578	0	0	0.00713889926650906	0.065999815125578	0	0
0	0	-0.31418800127006	-0.849920438033771	0	0	0.0274245469262352	-0.0340021419385979
1.9	0.00628222906789652	-0.00016847670678231	0	0	0.31683596802446	-0.896701467184158	0	0
0	0	0.0531855948358166	-0.00435041726922916	0	0	-0.0798701825405968	0.94299111880967
0.31683596802446	-0.896701467184158	0	0	0.00989146229791943	0.00923313147247457	0	0
0	0	-0.613358783414695	0.648786818935884	0	0	0.0412365650621587	0.0235515654084127
2	-0.00672736792547603	-0.0039070585202492	0	0	0.892889272101866	0.347280374969807	0	0
0	0	0.0156660432192283	-0.00516172642991309	0	0	0.460367788821436	0.831858444002545
0.892889272101866	0.347280374969807	0	0	-0.0500782957037796	-0.0327583460050766	0	0
0	0	-0.845621167015566	-0.261173673329025	0	0	-0.0531718584535112	-0.0207480017331254
2.1	0.00541010368358874	0.00809201256795849	0	0	0.362392669773807	-0.899008794986205	0	0
0	0	-0.0285740681305163	0.00809666723337726	0	0	-0.831161234089666	-0.449834160223718
0.362392669773807	-0.899008794986205	0	0	0.0706839539610775	0.016230002342858	0	0
0	0	0.137619754062549	0.87876656865156	0	0	-0.00499011663686009	0.00982141269659791
2.2	-0.00194191720486718	-0.0117016849691388	0	0	0.898967059496805	0.37477628652847	0	0
0	0	-0.0476746219244191	0.0177448539363906	0	0	-0.931572803199622	0.0702266493172632
0.898967059496805	0.37477628652847	0	0	0.0146333261814814	-0.0106912859228856	0	0
0	0	-0.735836803156656	0.507117058906249	0	0	0.0424829296402563	-0.0112943494494524
2.3	-0.00326579645936805	0.0136646308280619	0	0	0.385170715906157	-0.889589949786361	0	0
0	0	-0.0301951272483282	0.0199386660231621	0	0	0.735793378813401	-0.555810901597369
0.385170715906157	-0.889589949786361	0	0	0.058033916034805	-0.0286682577673661	0	0
0	0	0.776037409164279	0.431344406582206	0	0	0.0667425738289662	0.046478257706546
2.4	0.00944614253627525	-0.013426487553812	0	0	0.877976499397569	0.397649275730245	0	0
0	0	-0.000491649488278045	0.00155174101350793	0	0	0.323981388517391	-0.867751311797409
0.877976499397569	0.397649275730245	0	0	-0.0965954807478422	0.0142138786449968	0	0
0	0	-0.0389734880095897	0.882314072541785	0	0	0.0470877969264698	-0.0491124811418185
2.5	-0.015908025975363	0.0106225197668084	0	0	0.415207224586046	-0.866641886478909	0	0
0	0	0.0191642827659031	-0.0357859399698533	0	0	0.189315307236139	0.917711607889921
0.415207224586046	-0.866641886478909	0	0	-0.00981242450085211	-0.0269394499992213	0	0
0	0	0.805125208035206	-0.332077757929327	0	0	0.0126057860509365	-0.000720807179913445
2.6	0.0214163094275144	-0.0056400725872869	0	0	0.860055989389158	0.429814158693023	0	0
0	0	0.0179056405817991	-0.0388640360081938	0	0	0.667361700730061	0.65418172239105
0.860055989389158	0.429814158693023	0	0	0.00597312232909799	-0.0335455269298499	0	0
0	0	0.630761023883884	0.597807482093558	0	0	0.0626433132311093	0.0101716736590244
2.7	-0.0250551302844448	-0.00113513057127484	0	0	0.444778243169434	-0.854740305478384	0	0
0	0	0.0211802306174826	-0.00991827817415775	0	0	-0.898585455764352	-0.174687574979887
0.444778243169434	-0.854740305478384	0	0	0.00367388846251177	-0.0131404549431706	0	0
0	0	0.276470396233839	-0.836448739907717	0	0	-0.0274316250074314	-0.000953224446653671
2.8	0.0256769711545965	0.00883782198530599	0	0	0.84503198410397	0.458473926056862	0	0
0	0	0.00967520808030889	0.0120636120653684	0	0	-0.843984895932959	0.312987822325903
0.84503198410397	0.458473926056862	0	0	0.0045073222652249	0.0638748797337543	0	0
0	0	0.873330815848149	-0.150258571763141	0	0	0.0262711315533905	-0.0640527450621492
2.9	-0.0226643488143091	-0.0165805314015493	0	0	0.474641129961271	-0.826728314836491	0	0
0	0	-4.25667786106155E-05	0.0359763051066753	0	0	0.568694334174678	-0.70269271331229
0.474641129961271	-0.826728314836491	0	0	-0.0534969919041022	0.0340441143468926	0	0
0	0	-0.516693129329612	-0.704425825062158	0	0	-0.0404072480787117	-0.04636159466933
3	0.0168799277941726	0.0235049841874487	0	0	0.818683354430956	0.498805004858372	0	0
0	0	-0.0106548656435003	0.0289537046355269	0	0	0.0911278839206034	-0.923098132318628
0.818683354430956	0.498805004858372	0	0	-0.00673344177021165	-0.0180756049875027	0	0
0	0	0.407148516064744	-0.763343953797836	0	0	0.0138425270055476	0.0863929242706676
3.1	-0.00852573729337181	-0.027746284676191	0	0	0.51931626618974	-0.809310200622128	0	0
0	0	-0.0196583433223853	0.0121588769902415	0	0	0.451108815473114	0.808603102247594
0.51931626618974	-0.809310200622128	0	0	0.0388190947897209	-0.0652897673970875	0	0
0	0	-0.872335758335156	-0.0488089263182883	0	0	-0.0759000279010277	0.00665139590986063
3.2	-0.000924753420027523	0.029401207007185	0	0	0.808443243026819	0.54264262946736	0	0
0	0	-0.0171697537051554	-0.0057261084160507	0	0	0.801921736895631	0.436689796503934
0.808443243026819	0.54264262946736	0	0	0.000806063639350672	0.0253175275187551	0	0
0	0	-0.340634355554893	-0.815980445014424	0	0	-0.0595842629522932	0.00732760445330246
3.3	0.0101342942122579	-0.0271227496080003	0	0	0.553275330245242	-0.804769125671832	0	0
0	0	-0.000756921120350214	-0.0232507444138188	0	0	-0.907750536164514	0.0534656162518078
0.553275330245242	-0.804769125671832	0	0	0.0626012628270775	0.0240344161736614	0	0
0	0	-0.574396082207821	0.679667999057802	0	0	-0.028237859297005	-0.107342188526039
3.4	-0.0178155003925917	0.0211978507958225	0	0	0.788253309388989	0.557239913179166	0	0
0	0	-0.00417520720412624	-0.0397342383908128	0	0	-0.732533470780617	0.547646072139541
0.788253309388989	0.557239913179166	0	0	-0.115666315404139	0.00983228546549775	0	0
0	0	-0.8600409298365	-0.219258235679882	0	0	-0.0199704136114552	-0.0397896887420067
3.5	0.0231116061551193	-0.0134384643005789	0	0	0.570902158247995	-0.778996244698703	0	0
0	0	0.00776871438279903	-0.029578677336155	0	0	0.293372048832606	-0.87221927282088
0.570902158247995	-0.778996244698703	0	0	-0.0127299128425559	-0.0537177637396041	0	0
0	0	0.172291000617292	0.844006037012331	0	0	0.0845703094706049	-0.0737111522474656
3.6	-0.0250049085673872	0.00467880366853186	0	0	0.771602287002174	0.579812610772282	0	0
0	0	0.019033239692361	0.00299404888919014	0	0	-0.215228240551171	-0.893895214174877
0.771602287002174	0.579812610772282	0	0	-0.0336217048012697	0.0610691771805174	0	0
0	0	-0.690281735549233	0.525020546630482	0	0	0.0444494376742466	-0.0321959946880712
3.7	0.0229788764285825	0.0047458934699468	0	0	0.597986022647149	-0.750857953734309	0	0
0	0	0.0131426634699306	0.0365031140249079	0	0	0.643294164822007	0.644501580661624
0.597986022647149	-0.750857953734309	0	0	0.118580769912012	0.00586494612411064	0	0
0	0	0.772959777745459	0.404371145842912	0	0	0.0551695418534971	-0.0197780875669605
3.8	-0.0179870568770821	-0.0125627827336193	0	0	0.743807721552384	0.615971908924865	0	0
0	0	0.0144263256876695	0.0504683912902653	0	0	0.870769466987793	0.180466877724131
0.743807721552384	0.615971908924865	0	0	-0.0249815074642928	0.0211267557955376	0	0
0	0	-0.0101565111733801	0.86989941581303	0	0	-0.0584575162583069	-0.0244266717361575
3.9	0.0108828409867083	0.0173383869979183	0	0	0.620177841899926	-0.741944388056563	0	0
0	0	0.0104347937819661	0.0153607285566973	0	0	-0.819613747996695	0.331707137373141
0.620177841899926	-0.741944388056563	0	0	-0.0123317976941542	0.083075496294536	0	0
0	0	0.778164297315229	-0.389160436243584	0	0	0.0246023522658398	-0.00593375077331534
4	-0.00217217786138203	-0.0187496528257292	0	0	0.723035221902494	0.628417200596638	0	0
0	0	-0.0171423699105586	-0.0126883684423426	0	0	-0.509822645406944	0.724675916882755
0.723035221902494	0.628417200596638	0	0	0.0497874351398087	-0.07436690430508	0	0
0	0	0.684275439054034	0.509999594102859	0	0	-0.00461434408615096	0.00958378889955018
4.1	-0.00590715673564117	0.0167098555804306	0	0	0.634222292168261	-0.709010226551019	0	0
0	0	-0.0416069916458713	-0.0358136329047097	0	0	0.0503647905197577	-0.887688169612104
0.634222292168261	-0.709010226551019	0	0	0.0237207122385484	-0.111216209428983	0	0
0	0	0.178902596968974	-0.825059972460665	0	0	0.026840140797977	0.0809097403526775
4.2	0.0123954312196079	-0.0119885797132096	0	0	0.703124395627729	0.646023357344291	0	0
0	0	-0.0486605318824489	-0.0156891996699128	0	0	-0.434063025514649	-0.774745070719564
0.703124395627729	0.646023357344291	0	0	-0.0397006396428089	0.0165339751766625	0	0
0	0	0.826217637578709	-0.186882705491226	0	0	-0.0119643256388139	-0.0408227237376481
4.3	-0.0161185354221402	0.00502564418250046	0	0	0.65547555458147	-0.695691338641193	0	0
0	0	-0.00701023345978387	0.00668267612618206	0	0	0.775016899578838	0.419358220010376
0.65547555458147	-0.695691338641193	0	0	-0.0106157902021956	0.0667392338561728	0	0
0	0	-0.533269784945049	-0.668206875122121	0	0	-0.0142334674244726	0.0024221136173408
4.4	0.0162143508982555	0.00321456363739136	0	0	0.678291191171379	0.665917519502212	0	0
0	0	0.0383944869726658	0.00451259016683186	0	0	0.883198432460943	-0.054843755866482
0.678291191171379	0.665917519502212	0	0	0.00121738344410988	-0.0496795901397518	0	0
0	0	0.342762071466943	-0.768533694963146	0	0	-0.0332503310641332	0.00334220110334786
4.5	-0.0126964907346781	-0.0107173127399199	0	0	0.673488717272433	-0.659891407145235	0	0
0	0	0.0647806170377105	-0.00415987779320784	0	0	-0.718395435671223	0.521017526340324
0.673488717272433	-0.659891407145235	0	0	-0.0492746974301557	0.0263364725182037	0	0
0	0	-0.831080802880174	0.0117700924016963	0	0	-0.0852443090321252	0.0615289879095705
4.6	0.00629296387353537	0.016413830760726	0	0	0.642017083204253	0.689223876774685	0	0
0	0	0.046486614535632	-0.0244929619673843	0	0	-0.311986542743214	0.840867952898
0.642017083204253	0.689223876774685	0	0	-0.00370402559718071	0.013686840108529	0	0
0	0	-0.370076033192074	-0.741772269843695	0	0	-0.079673779220633	-0.00953429005866111
4.7	0.00169492541593528	-0.0190452252859654	0	0	0.707493989866347	-0.635525949215459	0	0
0	0	-0.02499938570991	-0.00495995771102253	0	0	-0.189913593715364	-0.871358660396926
0.707493989866347	-0.635525949215459	0	0	0.065513533752429	-0.017677142993246	0	0
0	0	-0.523130739381801	0.653336723738307	0	0	-0.0729817496870415	0.0718562548187059
4.8	-0.0102315091090168	0.0181422696566398	0	0	0.63623955771006	0.724251129504592	0	0
0	0	-0.0592925365566813	0.0344700732242376	0	0	-0.60544669122733	-0.634029540757532
0.63623955771006	0.724251129504592	0	0	0.0530519361711025	-0.0185133912769659	0	0
0	0	-0.825879970079507	-0.197343536581557	0	0	-0.00936324562895543	0.071706453616679
4.9	0.0177573329978752	-0.0129592637584339	0	0	0.730699720726727	-0.628912935155255	0	0
0	0	-0.0404943106729891	0.0584496108789214	0	0	0.853535278073691	0.207021961021648
0.730699720726727	-0.628912935155255	0	0	-0.0805306393195317	-0.029326300284473	0	0
0	0	0.198716724120561	0.820572127082585	0	0	-0.083535114816122	0.00396940206705569
5	-0.0224118405860971	0.00485727114540488	0	0	0.618665980884812	0.726377455598316	0	0
0	0	-0.00102107659598708	0.0197844813386976	0	0	0.830752169850994	-0.298518208594391
0.618665980884812	0.726377455598316	0	0	-0.0475616801950821	0.0404031390074779	0	0
0	0	-0.644862704956417	0.533967157975692	0	0	0.0413218164862555	-0.00891720304219333
5.1	0.0238215398444467	0.00504570014014018	0	0	0.727619779000812	-0.606861091606091	0	0
0	0	0.0379528727026848	-0.0343630250069368	0	0	-0.532637270262572	0.69620283324334
0.727619779000812	-0.606861091606091	0	0	-0.021805216450092	-0.04171659497615	0	0
0	0	0.750414039120985	0.344107223228578	0	0	0.0723990240303345	-0.0196018464729295
5.2	-0.0213431931659019	-0.0161959538211391	0	0	0.585289265486103	0.745065054602122	0	0
0	0	0.0158538814651308	-0.0753399586674218	0	0	-0.0771002334219261	0.87196250074837
0.585289265486103	0.745065054602122	0	0	0.0381811702034092	0.0221052496912244	0	0
0	0	0.0167578470840308	0.832399673871117	0	0	0.0269148244993448	0.0666206690831736
5.3	0.0150766696583208	0.025919115988696	0	0	0.763093196390682	-0.573846517320607	0	0
0	0	-0.0140999242736697	-0.0422374367064079	0	0	-0.414124135911818	-0.769836303227225
0.763093196390682	-0.573846517320607	0	0	-0.0322414976232913	0.024730801250001	0	0
0	0	0.741933362595148	-0.37610266956933	0	0	-0.0433241276790331	0.0123927396335971
5.4	-0.00607029274759538	-0.0319921057302882	0	0	0.565967592191118	0.767436721090856	0	0
0	0	-0.0309208058763312	0.0140703630754187	0	0	-0.768082821201439	-0.42569847679562
0.565967592191118	0.767436721090856	0	0	0.0707142270302671	0.0871636934431287	0	0
0	0	0.658528344086334	0.507591081823732	0	0	-0.00924790267076966	0.0220362732831962
5.5	-0.00470296909740976	0.0343370060779167	0	0	0.777504831898891	-0.563281375797175	0	0
0	0	0.0238162530597169	0.0600157265261212	0	0	0.876037139942304	-0.0473779146156597
0.777504831898891	-0.563281375797175	0	0	-0.00682741660787022	-0.027616824770206	0	0
0	0	0.154718967048908	-0.816213848573351	0	0	0.0218607892821958	0.0383441497974241
5.6	0.0163172244965833	-0.0316673254802063	0	0	0.548953965097511	0.782408275973303	0	0
0	0	0.0429549321665477	0.0571250903411296	0	0	0.694734812206242	-0.509780722842245
0.548953965097511	0.782408275973303	0	0	0.00120056896545524	-0.109190924239014	0	0
0	0	0.79725772875289	-0.204543171478228	0	0	0.0118701263756924	0.117033784067846
5.7	-0.0272099808032584	0.0250440645042176	0	0	0.794902314846103	-0.540176727438031	0	0
0	0	0.0211075955919241	-0.00616736662503805	0	0	-0.314120564707209	0.80600680939927
0.794902314846103	-0.540176727438031	0	0	-0.0115827342741183	0.0512063362834351	0	0
0	0	-0.536641990814632	-0.645027739848181	0	0	0.0585800778217499	0.0340987932112497
5.8	0.0341435668457075	-0.0146387895372207	0	0	0.522111193526053	0.794346882269896	0	0
0	0	-0.0218272117230692	-0.0304668702524477	0	0	0.157528055421757	0.849698024270233
0.522111193526053	0.794346882269896	0	0	0.0583734969550171	-0.0277016136627693	0	0
0	0	0.320305889760225	-0.768864390808434	0	0	0.0341789300947153	0.0551614251382717
5.9	-0.0371870438252131	0.00170591313969843	0	0	0.807861823213614	-0.498131745371204	0	0
0	0	-0.0562178948371818	-0.026058648934868	0	0	-0.584183347347566	-0.633121854137599
0.807861823213614	-0.498131745371204	0	0	-0.0728981736677942	0.0431927075900905	0	0
0	0	-0.822881970779547	0.0616258771863772	0	0	0.0376632066705599	0.0718921765797362
6	0.0356557916220934	0.011184068495821	0	0	0.481240109694235	0.821068871317202	0	0
0	0	-0.0342760902490313	0.00624111665178534	0	0	-0.843667215939376	-0.192074750449989
0.481240109694235	0.821068871317202	0	0	-0.00342177155373074	0.023540223836803	0	0
