# GHZ S RI R 50
0.2	-0.00670111175297991	0.0085061345925892	0	0	0.958081421446521	0.0578605999855489	0	0
0	0	0.0216946859888482	0.00319787492692739	0	0	-0.370249570190321	0.911198392453698
0.958081421446521	0.0578605999855489	0	0	0.0218855594715324	0.0451838807621323	0	0
0	0	0.569474602785721	-0.754155970050953	0	0	0.00226423165582739	-0.0286505313463019
0.3	0.0072888332487141	-0.00931640391075436	0	0	0.0331926723676168	-0.96530069536181	0	0
0	0	-0.00464893499310033	0.00117817956691587	0	0	-0.134573422983882	-0.974245757710637
0.0331926723676168	-0.96530069536181	0	0	-0.0127623505909304	0.00606237055492935	0	0
0	0	-0.922188578038052	-0.201875556602139	0	0	-0.0314045374718256	-0.0158409180938785
0.4	-0.00869296334613454	0.0078481783760151	0	0	0.948625674813708	0.0615178070984695	0	0
0	0	-0.0394351594317568	0.00091064861988842	0	0	-0.667505850957308	-0.725447325117766
0.948625674813708	0.0615178070984695	0	0	-0.0330717944038101	-0.0134306443295233	0	0
0	0	-0.235637169577985	-0.895699065078024	0	0	0.0226317702410326	0.0202476326847586
0.5	0.0105319288308244	-0.00450278380721359	0	0	0.12708639923309	-0.948858979042392	0	0
0	0	-0.0335104679855689	0.00524744531098465	0	0	0.964029077255746	0.206511571551992
0.12708639923309	-0.948858979042392	0	0	0.0374102163349236	0.016521490270625	0	0
0	0	-0.678180892330975	0.637018221368218	0	0	0.0057077164095142	0.00760762058786289
0.6	-0.0110389134013284	0.00120086418509916	0	0	0.954784234352422	0.130512127510729	0	0
0	0	-0.00927086473538187	0.00665616089766304	0	0	0.912172162782078	-0.330063368235763
0.954784234352422	0.130512127510729	0	0	0.00517288703046546	-0.0198408590431269	0	0
0	0	-0.861935824467778	-0.344100273095435	0	0	-0.00513571972012695	-0.00729386739833896
0.7	0.0109514823571844	0.00190076999705035	0	0	0.108238219289302	-0.957215074535065	0	0
0	0	0.0215058304081909	-0.0104458292126337	0	0	-0.610290789828676	0.748477705502564
0.108238219289302	-0.957215074535065	0	0	0.0081368177992729	0.00983375922988309	0	0
0	0	0.046574335097994	0.919883393476592	0	0	0.00232872383370488	-0.0129111890474016
0.8	-0.0101530989445256	-0.00515785264562052	0	0	0.954501547157001	0.112981158141976	0	0
0	0	0.0431259683292701	-0.0413851156076179	0	0	-0.119683211720372	0.960414281091009
0.954501547157001	0.112981158141976	0	0	-0.0223998051966283	0.0129642463020967	0	0
0	0	-0.810773631731474	0.448986935691308	0	0	0.00687681826865712	0.0834195435650769
0.9	0.00770361045818526	0.00771813763778036	0	0	0.144460125472149	-0.939233641414126	0	0
0	0	0.012431026481352	-0.0274213161051641	0	0	-0.434752103706316	-0.865123930173244
0.144460125472149	-0.939233641414126	0	0	-0.00181894625934222	-0.0614607013343883	0	0
0	0	0.763877583991648	0.524208073815951	0	0	0.0365133929351713	0.0138962287974494
1	-0.00443764130218235	-0.00904910417771085	0	0	0.942074294271804	0.181155138804686	0	0
0	0	-0.0147843484221484	0.0119244669834583	0	0	-0.837929385111974	-0.480598633518659
0.942074294271804	0.181155138804686	0	0	0.00323314519790129	0.042161112674661	0	0
0	0	-0.125776443032804	0.901958511082714	0	0	0.00361937536173156	0.00215674671991618
1.1	0.000883897436285478	0.0087057310880842	0	0	0.201140867631423	-0.948951635145184	0	0
0	0	-0.0115837151343137	0.0348904105287623	0	0	0.9556970540669	-0.0512758220881445
0.201140867631423	-0.948951635145184	0	0	0.00405892798497917	0.00180127954576227	0	0
0	0	0.868307140111768	-0.260357507442011	0	0	0.00913070519970206	0.0429183136510419
1.2	0.00209376817609656	-0.00702154237317107	0	0	0.958598934513535	0.202364738076737	0	0
0	0	0.00913116486956456	0.0642596596678091	0	0	0.770632495003134	-0.55443375138033
0.958598934513535	0.202364738076737	0	0	0.0540539197764209	-0.000815628024736982	0	0
0	0	0.613602212621611	0.671070583839126	0	0	0.0072978048679626	0.0994692799498826
1.3	-0.00410122860198852	0.003934080361372	0	0	0.205191828862835	-0.9423257124305	0	0
0	0	0.016859963568971	0.0186801668464644	0	0	-0.354973552688815	0.882777420304319
0.205191828862835	-0.9423257124305	0	0	-0.0537645194751271	5.49343380521553E-05	0	0
0	0	0.322033168697473	-0.858828158265102	0	0	0.0403715524949722	0.0143192822980636
1.4	0.00474261937323341	-0.000271953734109806	0	0	0.924211425066836	0.233574716126803	0	0
0	0	-0.0124683325602643	-0.0438262643688023	0	0	0.179281791549364	0.93709084434616
0.924211425066836	0.233574716126803	0	0	0.0173925060687437	0.00753224966173228	0	0
0	0	0.89851537349092	-0.0837658209174189	0	0	0.0445449254809317	-0.00659507579716919
1.5	-0.00378003100130144	-0.00267084521532752	0	0	0.271119985273321	-0.922279699287714	0	0
0	0	-0.0374062615970593	-0.0562053355481488	0	0	-0.674356520361993	-0.675572895741067
0.271119985273321	-0.922279699287714	0	0	0.0331210438225745	-0.033348624650709	0	0
0	0	-0.461103787647082	-0.767532508188124	0	0	0.0331171439473492	0.0520191908741014
1.6	0.00154110874920198	0.00425500840032665	0	0	0.937194174841048	0.295208923369111	0	0
0	0	-0.0355270055431236	-0.019279114088574	0	0	-0.93685221119603	-0.184161519527803
0.937194174841048	0.295208923369111	0	0	-0.0515772637535185	-0.027486112942813	0	0
0	0	0.497800375657994	-0.753781265565767	0	0	0.000737432944315213	0.0524133741645921
1.7	0.00145896799989869	-0.00429985685193646	0	0	0.290203292317433	-0.942862670772702	0	0
0	0	0.0161231740953374	0.00672736284050805	0	0	0.884999956032334	-0.343177845823036
0.290203292317433	-0.942862670772702	0	0	-0.00139357837675211	0.0048164591862008	0	0
0	0	-0.900386325130741	-0.11160128871736	0	0	0.039778172742707	-0.0304846206839529
1.8	-0.00428388958943534	0.00274476361186469	0	0	0.917233678348941	0.291410531106866	0	0
0	0	0.0457703966390383	0.0384027565145121	0	0	0.57385407861453	-0.745566839496057
0.917233678348941	0.291410531106866	0	0	0.00598592406323679	0.064937120450228	0	0
0	0	-0.309678219509257	-0.849502875026202	0	0	0.0273759164803981	-0.0339245477249361
1.9	0.00621259577100385	0.000226294337801176	0	0	0.320678790825561	-0.893934980051841	0	0
0	0	0.0528558780004793	-0.00350416053814335	0	0	-0.0839708631882149	0.941603346618618
0.320678790825561	-0.893934980051841	0	0	0.00929096273222826	0.00886421421574263	0	0
0	0	-0.615568360076394	0.645351921796095	0	0	0.0407307409272075	0.0237205321633239
2	-0.00658009382819244	-0.00420282156966171	0	0	0.890956222598961	0.351067131994468	0	0
0	0	0.0149829679070041	-0.00486439003874132	0	0	0.456788308736853	0.833669321156626
0.890956222598961	0.351067131994468	0	0	-0.0500807171078059	-0.0334095260211611	0	0
0	0	-0.844387604511786	-0.264698245488204	0	0	-0.0531055178219528	-0.0212591509199299
2.1	0.00521379822534232	0.00841798877597042	0	0	0.365836035763615	-0.89790832608261	0	0
0	0	-0.0294436655302619	0.00783506277243853	0	0	-0.830113342994017	-0.453080137430047
0.365836035763615	-0.89790832608261	0	0	0.0703936553055508	0.0165248042298404	0	0
0	0	0.134592370122155	0.879834567990714	0	0	-0.00514573396817705	0.00972546252507292
2.2	-0.00180913346225332	-0.0120860013297354	0	0	0.898496645040984	0.377686302664508	0	0
0	0	-0.0485087598590636	0.017060694921877	0	0	-0.932821420659519	0.0678633000777224
0.898496645040984	0.377686302664508	0	0	0.0144904750477948	-0.0109699233535605	0	0
0	0	-0.738007772606188	0.505766328151819	0	0	0.0425373431806236	-0.0111840389555624
2.3	-0.0032697845776626	0.0140078524010064	0	0	0.387328522222115	-0.88953334864855	0	0
0	0	-0.0308072798656541	0.0191006581893892	0	0	0.737646888011138	-0.555380056570714
0.387328522222115	-0.88953334864855	0	0	0.0578383877393111	-0.0288864832973129	0	0
0	0	0.776380116656298	0.433144277680694	0	0	0.0665965446239665	0.0467581885786864
2.4	0.00940238873962239	-0.0136441446715785	0	0	0.878126119703998	0.398993749269012	0	0
0	0	-0.000779224971527096	0.000824755103217281	0	0	0.324950226292688	-0.868360547212338
0.878126119703998	0.398993749269012	0	0	-0.0974408210703003	0.0137061187001198	0	0
0	0	-0.0396733554046071	0.883151319336576	0	0	0.0470329308431863	-0.0491315351253305
2.5	-0.0159223725920909	0.0107192543931659	0	0	0.415643227127131	-0.866635389602916	0	0
0	0	0.0192312756727155	-0.0361696098331664	0	0	0.189403542515426	0.918132442041285
0.415643227127131	-0.866635389602916	0	0	-0.0106377400309995	-0.0270126183802134	0	0
0	0	0.805494166997825	-0.332231336170656	0	0	0.0124086638290286	-0.000615364957616749
2.6	0.0215312984668863	-0.00572110879263743	0	0	0.859579231916077	0.429419517570338	0	0
0	0	0.0181933814647328	-0.038794692323401	0	0	0.667464109294204	0.653626871682788
0.859579231916077	0.429419517570338	0	0	0.00508334405275053	-0.0332883863027116	0	0
0	0	0.630847553293	0.597289976298375	0	0	0.0624680155741024	0.0102772374366965
2.7	-0.0252110931148872	-0.00100440190786701	0	0	0.443755776021495	-0.853496789544431	0	0
0	0	0.0214706520038569	-0.00946092591090774	0	0	-0.897514222046552	-0.17388063816636
0.443755776021495	-0.853496789544431	0	0	0.00284636109357483	-0.012687711507885	0	0
0	0	0.275569308936795	-0.83552468010504	0	0	-0.0274303696300934	-0.000713177454558723
2.8	0.0258204076581518	0.00867925776189241	0	0	0.84285014178082	0.457107063000436	0	0
0	0	0.00972959075970037	0.0127305796758622	0	0	-0.84181009656164	0.312675569242012
0.84285014178082	0.457107063000436	0	0	0.00379004214705886	0.064049162623901	0	0
0	0	0.871169777191634	-0.150349682760948	0	0	0.0260667553588875	-0.0635764332124374
2.9	-0.0228042525171897	-0.0164220723075264	0	0	0.473219385762994	-0.823514580517024	0	0
0	0	-0.000434762885450107	0.0366516507782238	0	0	0.566867900758317	-0.700240580492927
0.473219385762994	-0.823514580517024	0	0	-0.05371331520144	0.0343129703786675	0	0
0	0	-0.514851149176631	-0.702115387541758	0	0	-0.0400745385406076	-0.0458858156972533
3	0.0170268356530135	0.0232949998242076	0	0	0.814375222150216	0.497569193080914	0	0
0	0	-0.0115320367627785	0.0294701206271561	0	0	0.0917994769885265	-0.919328870115447
0.814375222150216	0.497569193080914	0	0	-0.0070337468148661	-0.0173723791414341	0	0
0	0	0.40638576168847	-0.759855494972046	0	0	0.0136207484671406	0.0858550204135691
3.1	-0.00864606463764402	-0.0274508799553847	0	0	0.518609253708559	-0.803944881066953	0	0
0	0	-0.0209304130637399	0.0123669675387541	0	0	0.447082466195064	0.806031970853517
0.518609253708559	-0.803944881066953	0	0	0.0385844802628959	-0.0639782971505214	0	0
0	0	-0.868252950793087	-0.0507196830407239	0	0	-0.0751499144330515	0.00625929951375749
3.2	-0.000903294795437147	0.0290493388937048	0	0	0.802145665061946	0.542835170850592	0	0
0	0	-0.0185841721899366	-0.00595538572963753	0	0	0.796601693683633	0.437729529803689
0.802145665061946	0.542835170850592	0	0	0.00061322302243913	0.0253796897845015	0	0
0	0	-0.335987286163568	-0.813539365705499	0	0	-0.0590198070874761	0.0068078560690634
3.3	0.0102102695306091	-0.0268094042630623	0	0	0.554708972909462	-0.79783771636835	0	0
0	0	-0.00198686393988181	-0.0239158724407271	0	0	-0.903999529564764	0.0485540294168083
0.554708972909462	-0.79783771636835	0	0	0.0617865861492588	0.0245851670754617	0	0
0	0	-0.575348283456107	0.673695493180631	0	0	-0.0268675684085875	-0.106716684962095
3.4	-0.0179135021988946	0.0209476055675976	0	0	0.781226731533963	0.560084571276759	0	0
0	0	-0.00493321669495767	-0.0407544700860195	0	0	-0.733445732306206	0.540943387981426
0.781226731533963	0.560084571276759	0	0	-0.114793464754764	0.00822806509095838	0	0
0	0	-0.855536199452112	-0.224032905789527	0	0	-0.0193239465244113	-0.0397544776767563
3.5	0.0232116485387836	-0.013202599538558	0	0	0.57514841804198	-0.772091105913338	0	0
0	0	0.00763231214596911	-0.0307449675955289	0	0	0.299158786117431	-0.867814004313215
0.57514841804198	-0.772091105913338	0	0	-0.0119028936433167	-0.053635916606277	0	0
0	0	0.165536137773633	0.843158334457458	0	0	0.0852233744746711	-0.0720293985542037
3.6	-0.02514216799964	0.00439660802456599	0	0	0.765269598833761	0.58541124584943	0	0
0	0	0.0195666354085817	0.00182378003325527	0	0	-0.207551787447494	-0.894817728848882
0.765269598833761	0.58541124584943	0	0	-0.0346903956202576	0.0602380801186859	0	0
0	0	-0.693990940223367	0.51874139699448	0	0	0.0448802807627784	-0.0313204012779219
3.7	0.0232049227670361	0.0050134570291199	0	0	0.604718083797011	-0.745295487173423	0	0
0	0	0.0141790931734875	0.0356163804998803	0	0	0.638137952853386	0.650547660713485
0.604718083797011	-0.745295487173423	0	0	0.118296577091235	0.00802461153626858	0	0
0	0	0.769982914193431	0.411377188898036	0	0	0.0555879821227062	-0.0187865275225245
3.8	-0.0182728798596494	-0.0127341755281692	0	0	0.739476028873125	0.623764770974199	0	0
0	0	0.0155752206040054	0.0499876916209263	0	0	0.87134518080493	0.188548335762005
0.739476028873125	0.623764770974199	0	0	-0.0255117818470694	0.0207869833685171	0	0
0	0	-0.0178082846462703	0.871966122823652	0	0	-0.0582985595685254	-0.0255514397827211
3.9	0.0111142769180107	0.0174012683116215	0	0	0.628661127061693	-0.7392383242666	0	0
0	0	0.011420428779223	0.0153376929265426	0	0	-0.825598473638715	0.326367483986999
0.628661127061693	-0.7392383242666	0	0	-0.0138027859492059	0.0835113776173723	0	0
0	0	0.784450374577804	-0.38438837637135	0	0	0.0249300716165026	-0.00560318344132257
4	-0.00228662674124983	-0.0188170002385014	0	0	0.722007098356102	0.636993716831639	0	0
0	0	-0.0165513453395886	-0.012255691787724	0	0	-0.517876741645314	0.724926187444487
0.722007098356102	0.636993716831639	0	0	0.0515314862457227	-0.0742867984640535	0	0
0	0	0.684303783758872	0.517760866722924	0	0	-0.00476658547443827	0.00956500393725832
4.1	-0.0058372099620729	0.0168619638951074	0	0	0.642404474427033	-0.709580157529571	0	0
0	0	-0.0415412526921618	-0.0350797995226534	0	0	0.0560045727187367	-0.893319640235983
0.642404474427033	-0.709580157529571	0	0	0.0255348896063304	-0.112244866689255	0	0
0	0	0.185027237051914	-0.829504996812571	0	0	0.026236605154486	0.0822430492429704
4.2	0.0122763562403556	-0.012193313427566	0	0	0.705099085995134	0.65349317633566	0	0
0	0	-0.0490619173895552	-0.0149495356860985	0	0	-0.433776866574385	-0.78238434942416
0.705099085995134	0.65349317633566	0	0	-0.0402332390624479	0.0164003582541869	0	0
0	0	0.833126310270521	-0.18454957691713	0	0	-0.011794965348906	-0.0415877434362144
4.3	-0.01595580137675	0.00519782470815265	0	0	0.661938193191077	-0.698787948651211	0	0
0	0	-0.00765121935547726	0.00713793794385082	0	0	0.779759299573496	0.424662586209239
0.661938193191077	-0.698787948651211	0	0	-0.0111058182206427	0.0675963027551683	0	0
0	0	-0.535495309407306	-0.674741275247882	0	0	-0.0145282608132029	0.00237621753377301
4.4	0.0161134270060191	0.00308837093900603	0	0	0.682129153315007	0.671174394653982	0	0
0	0	0.0377848173594256	0.00451210475700896	0	0	0.889650361791267	-0.0542714328172288
0.682129153315007	0.671174394653982	0	0	0.0012012993874869	-0.0503749652798425	0	0
0	0	0.346086050144944	-0.773719454822536	0	0	-0.0337926123800985	0.00336985689442011
4.5	-0.012703245617747	-0.0105400471397785	0	0	0.677347769293605	-0.664125531943555	0	0
0	0	0.064459900432269	-0.0046577406169206	0	0	-0.722907643481307	0.524513522256247
0.677347769293605	-0.664125531943555	0	0	-0.0501576123644193	0.0267687059468371	0	0
0	0	-0.836421271328582	0.0120152032777115	0	0	-0.0862931564868312	0.0624497050039945
4.6	0.00633546438532503	0.0160911946868427	0	0	0.646202846395446	0.691685723642713	0	0
0	0	0.0465866966582478	-0.0253555356848332	0	0	-0.312663104571285	0.8456085678253
0.646202846395446	0.691685723642713	0	0	-0.00405256183584581	0.0140843587589885	0	0
0	0	-0.372846336934782	-0.745224106147408	0	0	-0.0804027325789331	-0.00936155729151389
4.7	0.00173365953601193	-0.0186062960004426	0	0	0.708664761625166	-0.639255269177586	0	0
0	0	-0.0243876351534302	-0.00588059834105595	0	0	-0.192092910660783	-0.874549369622759
0.708664761625166	-0.639255269177586	0	0	0.065570728075852	-0.0176122161192491	0	0
0	0	-0.524169524686548	0.656811063162795	0	0	-0.0731011753669464	0.0727184612974661
4.8	-0.0103583072535217	0.0176647645635494	0	0	0.639165483546041	0.724394799164653	0	0
0	0	-0.0583023225471142	0.0338427236687003	0	0	-0.608195817720622	-0.634598402226941
0.639165483546041	0.724394799164653	0	0	0.0529644909104058	-0.0182763610708115	0	0
0	0	-0.828415255521361	-0.196360605742188	0	0	-0.00885421388176674	0.0720505310633503
4.9	0.01791280588936	-0.012507841966095	0	0	0.730189993550288	-0.63081924706392	0	0
0	0	-0.0393633150507224	0.0583687836238093	0	0	0.854808532563349	0.206190176962258
0.730189993550288	-0.63081924706392	0	0	-0.0809124101256148	-0.0284659510530268	0	0
0	0	0.199987960813284	0.82129422240191	0	0	-0.0834338225034816	0.00406696176569113
5	-0.0225776325227434	0.00436575145957278	0	0	0.619355077055351	0.725519273164656	0	0
0	0	1.90368651759648E-05	0.0203551753607273	0	0	0.83065938525806	-0.298965902635016
0.619355077055351	0.725519273164656	0	0	-0.0474655177404525	0.0411138672853902	0	0
0	0	-0.644635684574244	0.534336614708554	0	0	0.0415769329468446	-0.00917502693564772
5.1	0.024096289813146	0.00560460617775586	0	0	0.726890658279839	-0.60626740871309	0	0
0	0	0.0386737773443559	-0.0332666560207249	0	0	-0.53282161906953	0.695426833217337
0.726890658279839	-0.60626740871309	0	0	-0.0216130387548326	-0.0410475696935076	0	0
0	0	0.749739752241462	0.344438248945799	0	0	0.0725560763168477	-0.0197719006226354
5.2	-0.021767424261728	-0.0167212928707144	0	0	0.58344558355998	0.744796080419858	0	0
0	0	0.0161270410039123	-0.0739923089391066	0	0	-0.0789236347482047	0.87133397222915
0.58344558355998	0.744796080419858	0	0	0.0383542692038623	0.0226259199271727	0	0
0	0	0.0149691275862017	0.831992867429151	0	0	0.0267182128649409	0.0663041898894779
5.3	0.015546968484934	0.0262912039096875	0	0	0.763794635306252	-0.57100663475321	0	0
0	0	-0.0143172912751225	-0.0410241526974192	0	0	-0.41121884454977	-0.771137858420432
0.763794635306252	-0.57100663475321	0	0	-0.0318473831052815	0.0248035604174673	0	0
0	0	0.743104158355811	-0.373308739249374	0	0	-0.0433707775065727	0.0117471840947289
5.4	-0.00640437366123353	-0.0322482989481288	0	0	0.562473101248846	0.76949788320662	0	0
0	0	-0.0316016531218316	0.0148153947070617	0	0	-0.766370776794518	-0.429602297082119
0.562473101248846	0.76949788320662	0	0	0.0703469264134655	0.0878377187123832	0	0
0	0	0.656371215296284	0.511002229954344	0	0	-0.00953430927026581	0.0217452076372991
5.5	-0.00453097508935609	0.0346792012743009	0	0	0.781160647804377	-0.559722666335833	0	0
0	0	0.0228466337594646	0.0600901415102883	0	0	0.877732201827027	-0.0423045603174502
0.781160647804377	-0.559722666335833	0	0	-0.00625867249481066	-0.0276598674892325	0	0
0	0	0.159767426006688	-0.816624109029928	0	0	0.0213979686556583	0.0386154532965401
5.6	0.0161488416931185	-0.0321998279383042	0	0	0.545767403323168	0.787580493793621	0	0
0	0	0.0419689578925285	0.0565218832581948	0	0	0.700425098550053	-0.506886914601704
0.545767403323168	0.787580493793621	0	0	0.00265557832778882	-0.109579380110357	0	0
0	0	0.801271273136732	-0.199952600711925	0	0	0.010358105336354	0.117874685239826
5.7	-0.026846327820999	0.0257019460759127	0	0	0.801370770824088	-0.537795965600056	0	0
0	0	0.0203120012149409	-0.00727019415320574	0	0	-0.321138534837209	0.807967200704898
0.801370770824088	-0.537795965600056	0	0	-0.0121423010040531	0.0518147772067626	0	0
0	0	-0.53501106929504	-0.651904791231637	0	0	0.0586532646902051	0.035132835214309
5.8	0.0336027853032442	-0.0151524492269361	0	0	0.520858971226715	0.801973062697168	0	0
0	0	-0.022230644240499	-0.0317197351309454	0	0	0.153258905244442	0.85666188121047
0.520858971226715	0.801973062697168	0	0	0.0597445180469946	-0.027001460277374	0	0
0	0	0.327419410305671	-0.772237646439156	0	0	0.0338661599524401	0.0560941896312993
5.9	-0.0366677389770012	0.00199154494689474	0	0	0.816271895989222	-0.498346222098581	0	0
0	0	-0.0561733853043726	-0.0270972133706817	0	0	-0.585958256776074	-0.641762096666723
0.816271895989222	-0.498346222098581	0	0	-0.0737073364763152	0.0434854096566441	0	0
0	0	-0.8304232183008	0.0578154452936905	0	0	0.0373218394109593	0.0731294828680501
6	0.0353491181943475	0.0110276172848521	0	0	0.483166723358953	0.830020803429096	0	0
0	0	-0.0338699558262287	0.00568661199873986	0	0	-0.851545161250123	-0.197342656925879
0.483166723358953	0.830020803429096	0	0	-0.00264376738133665	0.023956337971157	0	0
