# GHZ S RI R 50
0.2	-0.00571022185052936	0.00588998683017831	0	0	0.958316278975055	0.0575500420722028	0	0
0	0	0.0243770741204335	0.00243312202007813	0	0	-0.37001176607142	0.911346252937313
0.958316278975055	0.0575500420722028	0	0	0.0209764345683985	0.0489493562777089	0	0
0	0	0.569290477178802	-0.754352152185891	0	0	0.00136517155383206	-0.0248292988270944
0.3	0.00729941998203163	-0.00804023086936977	0	0	0.032687092833023	-0.965374285607811	0	0
0	0	-0.00340319735121892	0.00122167747161845	0	0	-0.135045709740826	-0.974284816457538
0.032687092833023	-0.965374285607811	0	0	-0.0124379737123793	0.00894475131951153	0	0
0	0	-0.922380387135982	-0.201463093896934	0	0	-0.0310046975430388	-0.0129026091738882
0.4	-0.00851934130432915	0.00787719853346162	0	0	0.948628166897743	0.0607526831319124	0	0
0	0	-0.039540116971978	0.00104904401902171	0	0	-0.668098150774625	-0.724923683881464
0.948628166897743	0.0607526831319124	0	0	-0.0321714676903385	-0.0115441997395371	0	0
0	0	-0.236359093332082	-0.895524408026304	0	0	0.0237013342592246	0.0220443338790907
0.5	0.00963435479447439	-0.00532746104575648	0	0	0.12608954914029	-0.948813315716831	0	0
0	0	-0.0346881963369521	0.00524797771309302	0	0	0.964035832527942	0.205439469264327
0.12608954914029	-0.948813315716831	0	0	0.0383518657539629	0.0173410476727289	0	0
0	0	-0.677352697266248	0.63759948044381	0	0	0.00673747730492229	0.00846106504616983
0.6	-0.00919348941518228	0.0019916339986002	0	0	0.954494817467381	0.129156680995028	0	0
0	0	-0.0110771135532299	0.00619258169891151	0	0	0.911227876727857	-0.331049835250133
0.954494817467381	0.129156680995028	0	0	0.00563531844181766	-0.0195095132047744	0	0
0	0	-0.86188810063858	-0.342794650886744	0	0	-0.00457897637077858	-0.00698234172125695
0.7	0.00858765812966478	0.00193243676506486	0	0	0.106747485768644	-0.95653592653484	0	0
0	0	0.019614501394841	-0.0114806233307739	0	0	-0.608669012841853	0.74860256711134
0.106747485768644	-0.95653592653484	0	0	0.00814709577840902	0.00999323047334983	0	0
0	0	0.0478019515006318	0.918934964357841	0	0	0.00230507524464827	-0.0126823767624839
0.8	-0.00803426160402023	-0.00598507359740198	0	0	0.953325702868189	0.111433432674103	0	0
0	0	0.0415388993589217	-0.0427432844998765	0	0	-0.118419553054283	0.959331569877583
0.953325702868189	0.111433432674103	0	0	-0.0226719345646916	0.013464558637052	0	0
0	0	-0.80922308218683	0.449354322133194	0	0	0.00673445823883294	0.0837277287467224
0.9	0.00630041395179319	0.00877559587238624	0	0	0.142817042567045	-0.937582722539029	0	0
0	0	0.0114116531279827	-0.0287101518915489	0	0	-0.435068965259117	-0.863104420439328
0.142817042567045	-0.937582722539029	0	0	-0.00238628359616562	-0.0602771063502261	0	0
0	0	0.763210437202801	0.522369342785199	0	0	0.0361445473559365	0.0148184442286242
1	-0.0037219764708772	-0.00977845905260087	0	0	0.940107079122578	0.179753544973904	0	0
0	0	-0.015106307836516	0.0110679982803059	0	0	-0.836584262281681	-0.478727615372021
0.940107079122578	0.179753544973904	0	0	0.00326215827087638	0.0433295715521626	0	0
0	0	-0.124612738219076	0.900124000975905	0	0	0.00381111393361952	0.0035950565846264
1.1	0.0004775382865917	0.00865142784189959	0	0	0.200040359544456	-0.946553292568587	0	0
0	0	-0.0112935378446503	0.0347488032386784	0	0	0.953235176649726	-0.0517705162479357
0.200040359544456	-0.946553292568587	0	0	0.00463390967958336	0.0033289630551733	0	0
0	0	0.865930583318147	-0.260263793752156	0	0	0.0100853073073074	0.0441790118883262
1.2	0.002868132037333	-0.00617325785043277	0	0	0.955966528081126	0.201775750622948	0	0
0	0	0.0097233167076934	0.0649678373009963	0	0	0.768302997179276	-0.552941495570954
0.955966528081126	0.201775750622948	0	0	0.0550233185970116	0.000554575512220219	0	0
0	0	0.611922147647802	0.669021499829211	0	0	0.00895864374270426	0.100007077545091
1.3	-0.0054882958028039	0.00287345087826416	0	0	0.205027786176769	-0.939476008049832	0	0
0	0	0.0173420237522461	0.020074027789038	0	0	-0.354211557515866	0.880029694099199
0.205027786176769	-0.939476008049832	0	0	-0.0517600692892714	0.00101752527614646	0	0
0	0	0.321361266969016	-0.85616277035874	0	0	0.0421715259286372	0.0148253258127177
1.4	0.00640655420213829	0.000722693554351194	0	0	0.921471755087826	0.23390372533703	0	0
0	0	-0.0125348522897734	-0.0421730179467531	0	0	0.177950281035323	0.934502907896778
0.921471755087826	0.23390372533703	0	0	0.0190581902689345	0.00824478711481574	0	0
0	0	0.895958082503407	-0.0827470428730309	0	0	0.0463813893559155	-0.00628720058275308
1.5	-0.00567351696419779	-0.00357636844647633	0	0	0.271777063532401	-0.919643276424301	0	0
0	0	-0.0380950836551341	-0.0546221638795419	0	0	-0.671449799764392	-0.674704235021025
0.271777063532401	-0.919643276424301	0	0	0.0347901130820802	-0.0326562144538981	0	0
0	0	-0.458654117779751	-0.766084290948114	0	0	0.0347465243026967	0.0517079466540196
1.6	0.00377062932828302	0.00481399979382025	0	0	0.934508041386864	0.296296003852066	0	0
0	0	-0.036744843204974	-0.0178976385427744	0	0	-0.934118794587377	-0.185587831745893
0.934508041386864	0.296296003852066	0	0	-0.0496734634296997	-0.0275393442968684	0	0
0	0	0.498066574451001	-0.750876438754433	0	0	0.00218411039282317	0.0516153205214685
1.7	-0.000736134005937095	-0.00419768948724053	0	0	0.29175538086247	-0.940640972358873	0	0
0	0	0.0146529023521116	0.00765101256062402	0	0	0.883977653635592	-0.340523734445349
0.29175538086247	-0.940640972358873	0	0	-0.000150670589977935	0.0044440463658302	0	0
0	0	-0.898324495718324	-0.113373109323012	0	0	0.0409361027870786	-0.0310332897392253
1.8	-0.002632369549131	0.00226950788090306	0	0	0.915529732311825	0.293248700024969	0	0
0	0	0.0444069457632248	0.0387281334138216	0	0	0.574820735135496	-0.743038221698692
0.915529732311825	0.293248700024969	0	0	0.00651442623384033	0.0642637469011147	0	0
0	0	-0.307128498842375	-0.848985754335966	0	0	0.028106899866041	-0.0346060617305339
1.9	0.00504150471731286	0.000569880298808953	0	0	0.322513968264765	-0.892583715014563	0	0
0	0	0.0518754703879477	-0.00374915484214363	0	0	-0.086277377450018	0.940565420267089
0.322513968264765	-0.892583715014563	0	0	0.00971581692690952	0.00836824129617481	0	0
0	0	-0.61665987773634	0.643230020539417	0	0	0.0407964118660394	0.0231290007967272
2	-0.00559055023920717	-0.00420246337591837	0	0	0.889957636298899	0.352910775744893	0	0
0	0	0.0145574660586254	-0.00553304879793031	0	0	0.45461772322332	0.834345331211798
0.889957636298899	0.352910775744893	0	0	-0.0496344591643546	-0.0339803164549936	0	0
0	0	-0.843367242864303	-0.266552295904556	0	0	-0.0528465613015602	-0.0219954136198166
2.1	0.00406144113494896	0.00816751592742187	0	0	0.36758882244979	-0.89753233691743	0	0
0	0	-0.0292650321076432	0.00694190239056638	0	0	-0.829163830097068	-0.454744635373817
0.36758882244979	-0.89753233691743	0	0	0.0706427993251148	0.0165656392346505	0	0
0	0	0.132804765477244	0.880073743324508	0	0	-0.00501892596452436	0.00934499985159197
2.2	-0.000393191545965101	-0.0119210488686544	0	0	0.898460301205219	0.379105506217462	0	0
0	0	-0.047850530034539	0.0161980216195632	0	0	-0.933161488896607	0.0664133269847372
0.898460301205219	0.379105506217462	0	0	0.0149120780709721	-0.0111666922465164	0	0
0	0	-0.738987751514761	0.504732259988061	0	0	0.0428586563187238	-0.0114683545755641
2.3	-0.00466379069412447	0.0141882572294762	0	0	0.388230529516194	-0.889781430300002	0	0
0	0	-0.0299485194085851	0.0184663250883903	0	0	0.738572365681071	-0.554737987549641
0.388230529516194	-0.889781430300002	0	0	0.0584090421117611	-0.0292186689441336	0	0
0	0	0.776175307849244	0.434209297077201	0	0	0.0667759879624895	0.0463148320213965
2.4	0.0104077722567238	-0.0140477913034914	0	0	0.878306962194209	0.399565848866315	0	0
0	0	-4.40576720548555E-07	0.00051634127368715	0	0	0.325545279605578	-0.868317111240655
0.878306962194209	0.399565848866315	0	0	-0.0971403768423521	0.013016507708279	0	0
0	0	-0.0402258906477149	0.883286721806152	0	0	0.0471400858760042	-0.0499356447918567
2.5	-0.0164524295123562	0.0109689801096926	0	0	0.415654190510244	-0.866723821508012	0	0
0	0	0.0196937475254946	-0.0361490833717323	0	0	0.189137458608873	0.918099709269585
0.415654190510244	-0.866723821508012	0	0	-0.0104238319833646	-0.0278325002217017	0	0
0	0	0.805510441009162	-0.331982694216434	0	0	0.0121128275062503	-0.00153556598797313
2.6	0.0218406892138727	-0.00556694592179938	0	0	0.859404079995367	0.429041004462713	0	0
0	0	0.0182236091411981	-0.0385857844520547	0	0	0.667110990844601	0.653281421228256
0.859404079995367	0.429041004462713	0	0	0.00506386873597048	-0.0341494428411561	0	0
0	0	0.630513812088431	0.596974306223391	0	0	0.0618293232670619	0.00941896979184384
2.7	-0.0255833620709398	-0.00149218427694824	0	0	0.443103127153313	-0.852921966456981	0	0
0	0	0.0211310982452574	-0.00926572371532538	0	0	-0.89654041028884	-0.173613748868987
0.443103127153313	-0.852921966456981	0	0	0.0026707290468097	-0.0135109953634979	0	0
0	0	0.275195638995811	-0.83462767905655	0	0	-0.0280951157463117	-0.00139961503785696
2.8	0.0262765368438181	0.00932432095769367	0	0	0.84174562888212	0.456370695714134	0	0
0	0	0.00920632692497967	0.0127044625899066	0	0	-0.840471970883256	0.312154863018864
0.84174562888212	0.456370695714134	0	0	0.00353241684382927	0.0631066267267603	0	0
0	0	0.869780699231491	-0.150087771514252	0	0	0.0252045573505253	-0.0639046314289236
2.9	-0.0232448632976619	-0.0172418531795138	0	0	0.472475817556464	-0.821820416153136	0	0
0	0	-0.000908432969997719	0.0362356969166514	0	0	0.565868048323223	-0.698585753698584
0.472475817556464	-0.821820416153136	0	0	-0.0538528232688038	0.0335071891348624	0	0
0	0	-0.513550800302602	-0.700773665143635	0	0	-0.0406374653630688	-0.0460785427162816
3	0.0175620434514479	0.024408532171012	0	0	0.812203997026672	0.497010074242353	0	0
0	0	-0.0117695776207396	0.0286512285742366	0	0	0.0923597823296537	-0.916871650549111
0.812203997026672	0.497010074242353	0	0	-0.00735564566286291	-0.0178117106257249	0	0
0	0	0.405994107925319	-0.757537732995882	0	0	0.012711088682953	0.0852621247252826
3.1	-0.00949212129141181	-0.0287726641212311	0	0	0.518370270457297	-0.80140438260696	0	0
0	0	-0.0208186823910799	0.0112708854728959	0	0	0.444685958751032	0.804271960552876
0.518370270457297	-0.80140438260696	0	0	0.0382178696896425	-0.0638948014540117	0	0
0	0	-0.865639786949872	-0.0517409920990662	0	0	-0.0752740088209621	0.00600183799686613
3.2	0.000324943058948713	0.0303620768351473	0	0	0.799090233354475	0.543202845305524	0	0
0	0	-0.0180466434343413	-0.00707644538392243	0	0	0.793276974285364	0.4380696056503
0.799090233354475	0.543202845305524	0	0	0.000230608945745952	0.0251312686433315	0	0
0	0	-0.333270936545636	-0.811780014052402	0	0	-0.0590256208439756	0.00661905354794972
3.3	0.00876854384425756	-0.0278724977266314	0	0	0.555695480251909	-0.794633286928404	0	0
0	0	-0.00110635561307492	-0.0247904770631122	0	0	-0.901576544625964	0.0459836271817398
0.555695480251909	-0.794633286928404	0	0	0.0612404770160648	0.0248137882549606	0	0
0	0	-0.575536350802936	0.67024376353676	0	0	-0.0262414506732841	-0.106161228642714
3.4	-0.0165402110771303	0.021776941063297	0	0	0.777630126074863	0.561731702866963	0	0
0	0	-0.00386868977219713	-0.0411540658557473	0	0	-0.733527179184477	0.537028187537827
0.777630126074863	0.561731702866963	0	0	-0.114411234069619	0.00743750107447159	0	0
0	0	-0.852629692857077	-0.226481058235721	0	0	-0.0189261930166184	-0.0396591313111855
3.5	0.0219376363064142	-0.0140371056796215	0	0	0.577430841474529	-0.768699937989427	0	0
0	0	0.00865318237209692	-0.030561076075817	0	0	0.30216596382545	-0.865035008392513
0.577430841474529	-0.768699937989427	0	0	-0.0113768982278411	-0.0535773953831374	0	0
0	0	0.161795761786293	0.842321322557357	0	0	0.0855522928975104	-0.07111250047234
3.6	-0.0238063195053287	0.00526860979187396	0	0	0.762122974499433	0.58862968793213	0	0
0	0	0.0203729671145244	0.00255898515371151	0	0	-0.20319203356625	-0.894751584019544
0.762122974499433	0.58862968793213	0	0	-0.0351391477523646	0.0598239555460763	0	0
0	0	-0.69558796758294	0.514951342852579	0	0	0.0450850850753554	-0.0309114511533352
3.7	0.0217373715956503	0.00419616466993544	0	0	0.608403713456044	-0.742833156372231	0	0
0	0	0.014583797213176	0.0367136285036849	0	0	0.634757089671026	0.65351118252158
0.608403713456044	-0.742833156372231	0	0	0.118319605559706	0.00907591128874583	0	0
0	0	0.767743714257588	0.415056263987714	0	0	0.0557006981794769	-0.0182869529224905
3.8	-0.0167473214086521	-0.0121770988646574	0	0	0.73734307902847	0.62803917095726	0	0
0	0	0.0156056798885188	0.0510882052928513	0	0	0.870858936647812	0.193022505982265
0.73734307902847	0.62803917095726	0	0	-0.0258072753392704	0.0205262632568684	0	0
0	0	-0.022195365639006	0.872337400588015	0	0	-0.0581825422920095	-0.0261746322979009
3.9	0.00980789562111247	0.0171227093519525	0	0	0.633374569106839	-0.737903101109527	0	0
0	0	0.0111457916345832	0.0161939083685774	0	0	-0.82851605249072	0.32295802804923
0.633374569106839	-0.737903101109527	0	0	-0.0147083253174046	0.0836855147297908	0	0
0	0	0.787577613138967	-0.3812710079981	0	0	0.0249797615811309	-0.00531944912536383
4	-0.00133297416829747	-0.0185135111274592	0	0	0.721410064723798	0.641649178952949	0	0
0	0	-0.0170449175784415	-0.0118380569775523	0	0	-0.522253900354166	0.724541663332922
0.721410064723798	0.641649178952949	0	0	0.0523047517252645	-0.0742658694888947	0	0
0	0	0.683818001913715	0.521965142828509	0	0	-0.00493381436654627	0.0097021539473101
4.1	-0.00663591278846099	0.0163619297637582	0	0	0.646993079267684	-0.709800895462522	0	0
0	0	-0.0421036851169365	-0.0351628828483164	0	0	0.0593241811778943	-0.895956464022612
0.646993079267684	-0.709800895462522	0	0	0.0263652532761447	-0.112771494179207	0	0
0	0	0.188531686551032	-0.831485593277678	0	0	0.0258161117788126	0.0831139238471676
4.2	0.0131357565428407	-0.0115806353089024	0	0	0.70609277492698	0.657951758257461	0	0
0	0	-0.0495030745449664	-0.0154045607544294	0	0	-0.433300210542392	-0.78622760225439
0.70609277492698	0.657951758257461	0	0	-0.0407154544266909	0.0164095938667883	0	0
0	0	0.836511790546201	-0.183071547575866	0	0	-0.0116127864908087	-0.0418009580246312
4.3	-0.0168132384257938	0.00468025336081016	0	0	0.665882942224455	-0.700504740168454	0	0
0	0	-0.00782863697814489	0.00655839558052455	0	0	0.781859151418912	0.427523124004924
0.665882942224455	-0.700504740168454	0	0	-0.0114725249495612	0.0681757491936358	0	0
0	0	-0.536286776919539	-0.678091738196911	0	0	-0.0146217786449936	0.00238253255807993
4.4	0.0167555889550621	0.00354659924752585	0	0	0.684208502039571	0.674269418839915	0	0
0	0	0.0378969323658268	0.00407171102932228	0	0	0.892803254110623	-0.0537193529489966
0.684208502039571	0.674269418839915	0	0	0.00131647791950905	-0.050801991127787	0	0
0	0	0.347939978149419	-0.776133629813151	0	0	-0.0340831340694591	0.00324360834920342
4.5	-0.0130723808306583	-0.0111423602601878	0	0	0.679723608376298	-0.666260515779049	0	0
0	0	0.0648092054019855	-0.00475945321929245	0	0	-0.725181010746366	0.526093249618985
0.679723608376298	-0.666260515779049	0	0	-0.0504656074631837	0.0267381816823085	0	0
0	0	-0.839014016283114	0.0119995757595459	0	0	-0.0870402575500729	0.0626422541430155
4.6	0.00661123297478978	0.0170021181091006	0	0	0.648236286176652	0.69338234994396	0	0
0	0	0.0470184213172684	-0.0250719684269709	0	0	-0.312958392567959	0.847919950152403
0.648236286176652	0.69338234994396	0	0	-0.00405577828205135	0.0138181349207117	0	0
0	0	-0.374218906568603	-0.746883790121352	0	0	-0.0811803260462527	-0.00952567580092706
4.7	0.00134096286400135	-0.0197844351417966	0	0	0.709781731433622	-0.641102329749312	0	0
0	0	-0.0240635720622272	-0.00524014121999282	0	0	-0.193166363256181	-0.875904710297771
0.709781731433622	-0.641102329749312	0	0	0.0657154517912844	-0.0182002453269562	0	0
0	0	-0.52452348832844	0.658394598664025	0	0	-0.0737498949993541	0.0729911667175686
4.8	-0.00978202067825911	0.0188944505370832	0	0	0.640561257834192	0.725010798310408	0	0
0	0	-0.0582938634116256	0.0346127091400231	0	0	-0.609373411294177	-0.634777884629874
0.640561257834192	0.725010798310408	0	0	0.0528867312095357	-0.0189024782858425	0	0
0	0	-0.829467494924367	-0.195887352738398	0	0	-0.00933018948241469	0.072193484210358
4.9	0.017323734769955	-0.0137116927244131	0	0	0.730436974019978	-0.631419251555269	0	0
0	0	-0.0397192986335489	0.0590382133417955	0	0	0.855317712926048	0.205653418601774
0.730436974019978	-0.631419251555269	0	0	-0.0813500351652476	-0.0289403215258473	0	0
0	0	0.200670785740988	0.821493155705633	0	0	-0.084109807874306	0.00428345691089161
5	-0.0220265032319088	0.00564384968925846	0	0	0.619278714592155	0.725819081582547	0	0
0	0	-0.000701567921139869	0.020726474116428	0	0	0.830587573955724	-0.299242716902426
0.619278714592155	0.725819081582547	0	0	-0.0479015725083004	0.0406646586329434	0	0
0	0	-0.644482433122625	0.534560400663063	0	0	0.0409844815229071	-0.00899780747786246
5.1	0.023429512812622	0.00418662052547132	0	0	0.727288695907675	-0.605627443973931	0	0
0	0	0.0377332708917584	-0.0333042850282466	0	0	-0.532794833012189	0.695106215021574
0.727288695907675	-0.605627443973931	0	0	-0.0220154959618056	-0.0414330725141081	0	0
0	0	0.749439703849804	0.344480462627961	0	0	0.0719994732678554	-0.019409113228264
5.2	-0.0209077256691153	-0.0152972538835775	0	0	0.582366927584145	0.745684148796025	0	0
0	0	0.0151808965255181	-0.0744206358069811	0	0	-0.0796971517999488	0.870738852545096
0.582366927584145	0.745684148796025	0	0	0.0377804844041056	0.0225389316372856	0	0
0	0	0.0141765466613616	0.831509696676906	0	0	0.0262108893187041	0.0666994795428718
5.3	0.0145774337290255	0.0250616178177866	0	0	0.765160018310748	-0.569399044517184	0	0
0	0	-0.0150120726043654	-0.0416949413326115	0	0	-0.409755461135863	-0.771350028311482
0.765160018310748	-0.569399044517184	0	0	-0.0324314821029871	0.024661046645514	0	0
0	0	0.743272066886106	-0.37191172758796	0	0	-0.0435142678623379	0.0120621089642623
5.4	-0.00556802748641017	-0.0312356610078167	0	0	0.560727275435908	0.771532735421845	0	0
0	0	-0.0318522246629808	0.0140760140620142	0	0	-0.765281855043958	-0.431301341706685
0.560727275435908	0.771532735421845	0	0	0.0695813326681727	0.088450440345102	0	0
0	0	0.655110553070327	0.512438017904486	0	0	-0.00961882184594778	0.0221048354823017
5.5	-0.00515507404996079	0.0336269914233463	0	0	0.783792758828278	-0.557700499954281	0	0
0	0	0.0230976654463284	0.0594835171906759	0	0	0.878304989550681	-0.0398472246904437
0.783792758828278	-0.557700499954281	0	0	-0.00633749567674239	-0.0276048089881652	0	0
0	0	0.162156518130772	-0.816594579035073	0	0	0.021265169896768	0.039079106477599
5.6	0.0167056349379821	-0.0309357015340671	0	0	0.543840525513818	0.79090823295042	0	0
0	0	0.0426358668911336	0.0562067031841496	0	0	0.702921865794222	-0.5052742233903
0.543840525513818	0.79090823295042	0	0	0.00325743448791226	-0.109866358215254	0	0
0	0	0.802910241091179	-0.197634380720394	0	0	0.00963657826239943	0.118488711965397
5.7	-0.0275963538560036	0.024285010994978	0	0	0.805802628475324	-0.536125910879349	0	0
0	0	0.021222988763728	-0.0072226607789829	0	0	-0.32447205019936	0.808711317992671
0.805802628475324	-0.536125910879349	0	0	-0.0129578978370061	0.0520104488138302	0	0
0	0	-0.534077612156799	-0.655083546856799	0	0	0.058541262919881	0.0359719625334321
5.8	0.0345794749163723	-0.0138969773431143	0	0	0.519943025045413	0.806956004445117	0	0
0	0	-0.0213309889909908	-0.031392708985459	0	0	0.151070757303089	0.859821642669208
0.519943025045413	0.806956004445117	0	0	0.0598828429610083	-0.0267517910513443	0	0
0	0	0.330849756837297	-0.773635996801072	0	0	0.0335815931173257	0.0571514501212271
5.9	-0.0376247735918476	0.00105354136250561	0	0	0.821911209528054	-0.498004072700554	0	0
0	0	-0.0555197413402771	-0.0266199781318069	0	0	-0.586642944269289	-0.645967642618427
0.821911209528054	-0.498004072700554	0	0	-0.075401491043221	0.0436053890861114	0	0
0	0	-0.833987164041884	0.0558262384056981	0	0	0.0372615287945423	0.0746373964969417
6	0.0360146257871344	0.0117216854104961	0	0	0.483831412394755	0.835918397991463	0	0
0	0	-0.0336006519482011	0.00614412098006864	0	0	-0.855311417763079	-0.199920163150408
0.483831412394755	0.835918397991463	0	0	-0.00352459241516124	0.024697222204531	0	0
