# GHZ S RI R 50
0.2	-0.00674018626211356	0.0122596743743729	0	0	0.957654299803171	0.0584021108036086	0	0
0	0	0.0186541625782461	0.00556692421456654	0	0	-0.370732559163686	0.910955273964709
0.957654299803171	0.0584021108036086	0	0	0.0210822507678376	0.0398414182349225	0	0
0	0	0.569862738718483	-0.753810609420308	0	0	0.00163786620026366	-0.0338969381188902
0.3	0.00668474624882279	-0.0107194221702543	0	0	0.0341134369108915	-0.965004318631095	0	0
0	0	-0.00608309250347274	0.00182283509935398	0	0	-0.133620818002322	-0.974223413896279
0.0341134369108915	-0.965004318631095	0	0	-0.0147599994287261	0.00290812975788558	0	0
0	0	-0.92185253490109	-0.202726212899235	0	0	-0.0332168418450369	-0.0189673847617957
0.4	-0.00891069574903679	0.00787795470086745	0	0	0.948480237224763	0.0629905649607928	0	0
0	0	-0.0393725652573857	0.000688669879581953	0	0	-0.666390301634919	-0.726482038859793
0.948480237224763	0.0629905649607928	0	0	-0.0351002443955341	-0.0149103524846312	0	0
0	0	-0.234256187155166	-0.896068276130249	0	0	0.0206541242051634	0.0189399415983792
0.5	0.011786982417145	-0.00413413246167589	0	0	0.129097386244921	-0.948902604587042	0	0
0	0	-0.0323211768239818	0.00448554593152718	0	0	0.963951291718458	0.208587245804584
0.129097386244921	-0.948902604587042	0	0	0.0358899192986103	0.0163944459705538	0	0
0	0	-0.67974957744771	0.635842653308078	0	0	0.00433076410282135	0.00729332290721954
0.6	-0.0130257154553698	0.00135406140830612	0	0	0.955435530099988	0.133085242943734	0	0
0	0	-0.00727844938379666	0.00586618608604836	0	0	0.913902292563266	-0.328034629467522
0.955435530099988	0.133085242943734	0	0	0.00459506862008434	-0.0197982385225284	0	0
0	0	-0.861882526457673	-0.346650656814759	0	0	-0.00572899233885009	-0.00732854886882014
0.7	0.0128564522670129	0.00081883011105784	0	0	0.111027290902023	-0.95863545618826	0	0
0	0	0.0238681594236042	-0.0108895343171243	0	0	-0.613539486119154	0.748012691014854
0.111027290902023	-0.95863545618826	0	0	0.00798727514731614	0.00974138220166287	0	0
0	0	0.0439778276546573	0.92163116944847	0	0	0.00231322393176464	-0.0131085028557374
0.8	-0.0113834504853827	-0.00362017610707451	0	0	0.956756521396582	0.115800395159319	0	0
0	0	0.0453881319935797	-0.0414707451109165	0	0	-0.122760212327678	0.962441928679727
0.956756521396582	0.115800395159319	0	0	-0.0226213348342311	0.0122504752350712	0	0
0	0	-0.814078090568293	0.44774905798692	0	0	0.00644564862520708	0.0833236000288817
0.9	0.00822968644441986	0.00641031078754758	0	0	0.147283008927117	-0.942297382588378	0	0
0	0	0.0141413275771502	-0.0272577285543041	0	0	-0.433954680043981	-0.869488142571743
0.147283008927117	-0.942297382588378	0	0	-0.00195448697538736	-0.0629549222188408	0	0
0	0	0.765224878985788	0.528233657480355	0	0	0.0364558955819364	0.0133166829342352
1	-0.00460868868875573	-0.00833546236092222	0	0	0.945794709692423	0.183798547527696	0	0
0	0	-0.013952952766861	0.0122306642388607	0	0	-0.840789323034693	-0.4845530080024
0.945794709692423	0.183798547527696	0	0	0.00199827168305802	0.0415181383357817	0	0
0	0	-0.128229928877061	0.905850629202996	0	0	0.00290480275986346	0.00130286688859458
1.1	0.00119831403053643	0.00864864563216927	0	0	0.203358765086917	-0.953525311351709	0	0
0	0	-0.0117448247679548	0.0351710737699875	0	0	0.960820346586263	-0.0504456458714677
0.203358765086917	-0.953525311351709	0	0	0.00238163753471384	0.00131199847799192	0	0
0	0	0.873208422881583	-0.260735998128181	0	0	0.00794157684152103	0.0428669354178478
1.2	0.00125105200932486	-0.00726563409877929	0	0	0.963901071243847	0.203797672576912	0	0
0	0	0.00812644279146273	0.0642863267078502	0	0	0.774992517314699	-0.557598837928231
0.963901071243847	0.203797672576912	0	0	0.052712969465403	-0.000527686700745492	0	0
0	0	0.617100680742924	0.674864152669603	0	0	0.0059897751711534	0.100644687007641
1.3	-0.00290874470531976	0.00404080641834609	0	0	0.205605848884067	-0.948130676939643	0	0
0	0	0.0154286643022545	0.01827821856706	0	0	-0.356086492647703	0.888213497771104
0.205605848884067	-0.948130676939643	0	0	-0.0562239949661999	0.00100886671187637	0	0
0	0	0.322982179948498	-0.864092369386895	0	0	0.0395474255573526	0.0148834007355221
1.4	0.00354550589400207	-0.000265745986280258	0	0	0.930050738784505	0.233056790134813	0	0
0	0	-0.013786752066436	-0.0447780182391727	0	0	0.182286294351579	0.941880173739795
0.930050738784505	0.233056790134813	0	0	0.0160871133535318	0.0086722698654209	0	0
0	0	0.90329701708417	-0.0861599457251511	0	0	0.0438677147432334	-0.00624428179503597
1.5	-0.00259035788516094	-0.0027820929718001	0	0	0.269742821777765	-0.928114140255856	0	0
0	0	-0.0384270204307231	-0.0576250619354957	0	0	-0.679883285371503	-0.676654425975862
0.269742821777765	-0.928114140255856	0	0	0.0320600363261005	-0.0326041713215417	0	0
0	0	-0.465890475155672	-0.769767102374802	0	0	0.0328812474329698	0.0529578962160668
1.6	0.000383334573744507	0.00462630683284887	0	0	0.942896192829551	0.29272128722746	0	0
0	0	-0.0361724836812352	-0.0210466269733094	0	0	-0.94143799020925	-0.181006264390251
0.942896192829551	0.29272128722746	0	0	-0.0529710224457239	-0.0258748054157446	0	0
0	0	0.496686539733101	-0.758928540379317	0	0	0.000633577200123161	0.0535500514788442
1.7	0.00234257347253479	-0.00490874634484083	0	0	0.286677991512585	-0.947759014225799	0	0
0	0	0.0159179578497497	0.00498199850011464	0	0	0.886295908129442	-0.348336511692038
0.286677991512585	-0.947759014225799	0	0	-0.00146810906143603	0.00618094293294713	0	0
0	0	-0.903812013676229	-0.107844744036942	0	0	0.0395294437881928	-0.0303909607244821
1.8	-0.00481338655055431	0.00332270731173233	0	0	0.921006431533021	0.287325359855149	0	0
0	0	0.0460159245050021	0.0370286493273617	0	0	0.571453864010687	-0.749993889547837
0.921006431533021	0.287325359855149	0	0	0.00694504493565036	0.0661774771786119	0	0
0	0	-0.314506567106136	-0.849833805243439	0	0	0.0271570324317804	-0.0338424552980882
1.9	0.00657994493559333	-0.000149393648188045	0	0	0.316468361285807	-0.896757904644001	0	0
0	0	0.0534564858319339	-0.0042844781243355	0	0	-0.0795013188528775	0.942944034235901
0.316468361285807	-0.896757904644001	0	0	0.00976689537428934	0.00939295046457304	0	0
0	0	-0.613058949556321	0.648968952308371	0	0	0.0411199974216713	0.0236870159030025
2	-0.00694522059039444	-0.00399748694485369	0	0	0.892874512532009	0.346910780688048	0	0
0	0	0.0157776862086759	-0.00497571330552594	0	0	0.46059560343055	0.831566057336303
0.892874512532009	0.346910780688048	0	0	-0.0501547384484504	-0.0325951081821548	0	0
0	0	-0.845585392152783	-0.26083049215708	0	0	-0.0532378165042353	-0.0205845249216954
2.1	0.00564147057660805	0.00826203632255453	0	0	0.362016006845303	-0.898866126719377	0	0
0	0	-0.028630203399718	0.00834867140873253	0	0	-0.831086042298838	-0.449462332552665
0.362016006845303	-0.898866126719377	0	0	0.0705875175793536	0.0162512755934801	0	0
0	0	0.137855137038193	0.878498112712239	0	0	-0.00504869888249183	0.0098939007350402
2.2	-0.00224296073971487	-0.0118798184376142	0	0	0.898747382039943	0.374452678443842	0	0
0	0	-0.0478609636818704	0.0179920291501274	0	0	-0.93123605357716	0.0704067549549995
0.898747382039943	0.374452678443842	0	0	0.0145201848315722	-0.0106171563996339	0	0
0	0	-0.73547174554581	0.507103526577819	0	0	0.0423519569222431	-0.011231000052928
2.3	-0.00293635648189798	0.0137604757501035	0	0	0.384922066009762	-0.889283945629318	0	0
0	0	-0.0304317716369956	0.020124768270817	0	0	0.735418071730379	-0.555683416053331
0.384922066009762	-0.889283945629318	0	0	0.0578637732931701	-0.0285355953627133	0	0
0	0	0.775778949337367	0.431063610566381	0	0	0.0665870008877283	0.0465487923337717
2.4	0.00918758075605843	-0.0134238975179751	0	0	0.877659524950392	0.397454400026335	0	0
0	0	-0.000699428840044075	0.00165093526658031	0	0	0.323844569307136	-0.867412435090873
0.877659524950392	0.397454400026335	0	0	-0.0966158702156611	0.0144062881843345	0	0
0	0	-0.0389489274475813	0.881966483863319	0	0	0.0469581848844411	-0.0488766403850969
2.5	-0.0157863800523637	0.0106059092751952	0	0	0.415118101253266	-0.866279410891017	0	0
0	0	0.0190534239464678	-0.0357815395307242	0	0	0.18917279556479	0.917373981895011
0.415118101253266	-0.866279410891017	0	0	-0.00983430827364404	-0.0266657352794757	0	0
0	0	0.804841643395075	-0.331889055189591	0	0	0.0125707327873633	-0.000462423516300229
2.6	0.0213981823175331	-0.00570168963222613	0	0	0.859687217841519	0.429817395740397	0	0
0	0	0.017922689532821	-0.0389186705850208	0	0	0.667024028990747	0.654068644109892
0.859687217841519	0.429817395740397	0	0	0.00602089761572584	-0.0332494097421664	0	0
0	0	0.630445284618436	0.59770763037809	0	0	0.0626456018156316	0.0104574518677937
2.7	-0.0250582568207789	-0.000978477556326672	0	0	0.444869228063211	-0.854397424189795	0	0
0	0	0.0213047787940369	-0.00997542415145079	0	0	-0.898304365966789	-0.174862246293651
0.444869228063211	-0.854397424189795	0	0	0.00377273414919798	-0.0128776307838078	0	0
0	0	0.276602814518008	-0.83615908818205	0	0	-0.0273153317378362	-0.000712105952300927
2.8	0.0256712802619275	0.00863184684342046	0	0	0.844756675590274	0.458631155354117	0	0
0	0	0.00985375705963996	0.0120679227904891	0	0	-0.84391667817428	0.312675162515931
0.844756675590274	0.458631155354117	0	0	0.00459586463636463	0.0640783516207007	0	0
0	0	0.873208260922173	-0.149968344351928	0	0	0.0264308428853661	-0.0637904854078479
2.9	-0.0226749832669863	-0.0163376400736975	0	0	0.474862187857351	-0.826531231531327	0	0
0	0	0.000125657771757977	0.0360995406574474	0	0	0.56887612091764	-0.702454595050895
0.474862187857351	-0.826531231531327	0	0	-0.0533621064091188	0.0341938754808624	0	0
0	0	-0.516425855915181	-0.704537094438425	0	0	-0.0402246061652256	-0.0461941275474319
3	0.0169062468642677	0.023184191474622	0	0	0.818551847439171	0.499047479769709	0	0
0	0	-0.010546189688123	0.0292092202446786	0	0	0.0913676327158323	-0.923102649383306
0.818551847439171	0.499047479769709	0	0	-0.00656451183781061	-0.0179481377861476	0	0
0	0	0.407356806020093	-0.763262506041698	0	0	0.0139529350144424	0.0865344635543365
3.1	-0.00850926076401062	-0.0273441748548924	0	0	0.51955308511549	-0.809243093029034	0	0
0	0	-0.0196376605495759	0.01250935191843	0	0	0.450978527795305	0.808818063766067
0.51955308511549	-0.809243093029034	0	0	0.0389982277688896	-0.0652202672920938	0	0
0	0	-0.872441297114857	-0.0490213372219696	0	0	-0.0757792510571207	0.00668239765119822
3.2	-0.00103132960643282	0.0289531856661996	0	0	0.808503110299783	0.542832184063454	0	0
0	0	-0.0172749454876884	-0.00534940761416174	0	0	0.80201288868844	0.43688541007547
0.808503110299783	0.542832184063454	0	0	0.000898504617548776	0.0253378603101456	0	0
0	0	-0.34058455439264	-0.816183405521	0	0	-0.0595070296650217	0.0073242143134392
3.3	0.0103216212352516	-0.0267146014955056	0	0	0.55337970662983	-0.804877275069198	0	0
0	0	-0.000968959360080831	-0.0229362669654912	0	0	-0.907937586142643	0.053400140516878
0.55337970662983	-0.804877275069198	0	0	0.0626623514440362	0.0240318491583156	0	0
0	0	-0.574568675701696	0.679756454043893	0	0	-0.0281937551717485	-0.107401809037084
3.4	-0.0180090239044959	0.0208599050243322	0	0	0.788471431462213	0.557287542362944	0	0
0	0	-0.00446184986431923	-0.0395565437434269	0	0	-0.732631717481689	0.547790800825562
0.788471431462213	0.557287542362944	0	0	-0.11571327472799	0.00984537024930162	0	0
0	0	-0.860210096557873	-0.219244191673278	0	0	-0.0199882991590793	-0.0398109259322163
3.5	0.0232777231929998	-0.0131152698879411	0	0	0.570841964652145	-0.779180898684728	0	0
0	0	0.00746002637797147	-0.0295731648315261	0	0	0.29326599870157	-0.872337645521683
0.570841964652145	-0.779180898684728	0	0	-0.0127744837571775	-0.0537164833827727	0	0
0	0	0.172432478074797	0.844052046382489	0	0	0.0845363606624529	-0.0737452562326751
3.6	-0.0251706270942662	0.00433367119270773	0	0	0.771792062976944	0.579599471449743	0	0
0	0	0.0187525894178066	0.00282583958754943	0	0	-0.215453450402615	-0.893843146255767
0.771792062976944	0.579599471449743	0	0	-0.0336059690333918	0.0611170812711412	0	0
0	0	-0.690151323605236	0.525195276118432	0	0	0.044413214688478	-0.0321945727676583
3.7	0.0231821823524298	0.00509413798716614	0	0	0.597661205325045	-0.750922584596185	0	0
0	0	0.0129506258000403	0.0362138080339178	0	0	0.643409312982616	0.644224499399834
0.597661205325045	-0.750922584596185	0	0	0.118554002286785	0.0058179677345294	0	0
0	0	0.772985474995916	0.404084850699142	0	0	0.0551422535556989	-0.0197816973060317
3.8	-0.0182343909714243	-0.0128546867792865	0	0	0.743838602659652	0.615565806512531	0	0
0	0	0.0143381563744171	0.0501643358078404	0	0	0.870637592581341	0.180135623297878
0.743838602659652	0.615565806512531	0	0	-0.0249372334079673	0.0211515466305638	0	0
0	0	-0.00986315293901685	0.869710738406815	0	0	-0.0584311793591951	-0.0243611135143347
3.9	0.011110630868122	0.0175363132953459	0	0	0.619685525489361	-0.741843388296262	0	0
0	0	0.0104498236784713	0.0151141709572262	0	0	-0.819190590229477	0.331816559089289
0.619685525489361	-0.741843388296262	0	0	-0.01224244244908	0.0830178165448066	0	0
0	0	0.777740697335706	-0.389234840740015	0	0	0.024605864134594	-0.00594588851145696
4	-0.00231321523229866	-0.0189058334885548	0	0	0.722780869351615	0.62793627147313	0	0
0	0	-0.0170349109389088	-0.0128225501626627	0	0	-0.509388079512578	0.724408358049515
0.722780869351615	0.62793627147313	0	0	0.0497331072063397	-0.0743279790560719	0	0
0	0	0.684029299547223	0.509574120918401	0	0	-0.0045755401184142	0.00955498451688026
4.1	-0.00583148445903189	0.0168881066985912	0	0	0.633753228273571	-0.708608931530355	0	0
0	0	-0.0414476005673557	-0.0358133064412935	0	0	0.0502211318174465	-0.887114566526721
0.633753228273571	-0.708608931530355	0	0	0.0236923647383066	-0.111112199890298	0	0
0	0	0.178682784417441	-0.82454331936134	0	0	0.0268475359608699	0.0807628134457157
4.2	0.0123282536351506	-0.0121997602710667	0	0	0.702599413081406	0.645580259824236	0	0
0	0	-0.0485134775529049	-0.0155807586522752	0	0	-0.433714925791959	-0.774207122548109
0.702599413081406	0.645580259824236	0	0	-0.0396357984790196	0.0164696326783068	0	0
0	0	0.82563128462913	-0.186710229137575	0	0	-0.0119363104009478	-0.0408028891707711
4.3	-0.0160423258691028	0.00522629970565928	0	0	0.655102598093808	-0.695030757684673	0	0
0	0	-0.00693071783562366	0.00684142538588252	0	0	0.77434062264286	0.41919589528357
0.655102598093808	-0.695030757684673	0	0	-0.0106371221173071	0.0666076063674547	0	0
0	0	-0.532727304217615	-0.667805642557994	0	0	-0.0142236583827018	0.00238930787649111
4.4	0.0161719807662635	0.00305445545476321	0	0	0.677514167780268	0.665677089627744	0	0
0	0	0.0383772050945481	0.00464770486772501	0	0	0.882551950915685	-0.0544661327068812
0.677514167780268	0.665677089627744	0	0	0.00123567059057492	-0.0495885463223294	0	0
0	0	0.342795611752927	-0.767822510252194	0	0	-0.0332192536711498	0.00332685865474286
4.5	-0.0127292196936442	-0.010568576429697	0	0	0.673382733188874	-0.659056506199008	0	0
0	0	0.0646667366428507	-0.0041084834208509	0	0	-0.718184665565006	0.52026176014716
0.673382733188874	-0.659056506199008	0	0	-0.0492363507980671	0.0263055445840644	0	0
0	0	-0.830511958884397	0.0113048808346483	0	0	-0.0851921419569711	0.0614085934811684
4.6	0.00639310307510292	0.0162200925419805	0	0	0.641138458259115	0.689260622152045	0	0
0	0	0.0463150234323583	-0.0245503362120902	0	0	-0.312410290141487	0.840143414046195
0.641138458259115	0.689260622152045	0	0	-0.00367922789268028	0.0137637196342759	0	0
0	0	-0.369319538349972	-0.74160029532614	0	0	-0.0795218241411605	-0.00954131179276971
4.7	0.00158069972059586	-0.0187786544480053	0	0	0.707676344307006	-0.634622608351998	0	0
0	0	-0.025169127619611	-0.00512787078716306	0	0	-0.189112601553673	-0.871131189387259
0.707676344307006	-0.634622608351998	0	0	0.0655671157058059	-0.0174444607567387	0	0
0	0	-0.523438165122766	0.652618278923095	0	0	-0.0729457841277553	0.0717721194155031
4.8	-0.010145099160572	0.0178350419061306	0	0	0.635369188138648	0.724604090671076	0	0
0	0	-0.0593825896236835	0.0342311298700942	0	0	-0.604701440456356	-0.634384851675713
0.635369188138648	0.724604090671076	0	0	0.0531742045257885	-0.0183140877735547	0	0
0	0	-0.825460623566953	-0.198024441824204	0	0	-0.00936451007551978	0.0717321131906109
4.9	0.017684079132962	-0.012660328566873	0	0	0.731234138230803	-0.628156159685747	0	0
0	0	-0.0404662424197388	0.0582070181351966	0	0	0.853261899510202	0.207814205701341
0.731234138230803	-0.628156159685747	0	0	-0.0803112558467447	-0.0294065283285987	0	0
0	0	0.197919329210696	0.820687158880121	0	0	-0.083378188484344	0.00387077441131832
5	-0.0223192138049498	0.00455558216370388	0	0	0.618059516251007	0.726997920481738	0	0
0	0	-0.000856066168761262	0.019590320283331	0	0	0.831070295512308	-0.297766575145638
0.618059516251007	0.726997920481738	0	0	-0.0474807665540572	0.0403619873999246	0	0
0	0	-0.645388669064891	0.533399188846732	0	0	0.0415043358835984	-0.00880908257757507
5.1	0.0237277765525387	0.00539228678188145	0	0	0.728308634233037	-0.606380829935204	0	0
0	0	0.0382226467505837	-0.0344674796507464	0	0	-0.533333693918563	0.695890409614523
0.728308634233037	-0.606380829935204	0	0	-0.0215796086523848	-0.0417693417954261	0	0
0	0	0.750272229397059	0.344811948895839	0	0	0.0726276251124259	-0.0194911479318355
5.2	-0.0212910589882648	-0.0165732730242421	0	0	0.584958207884785	0.745728517652715	0	0
0	0	0.0161631624248832	-0.0753404629252956	0	0	-0.0777298926083641	0.872207910075744
0.584958207884785	0.745728517652715	0	0	0.0383217257435642	0.0221325096419254	0	0
0	0	0.0161877157111202	0.832696461450059	0	0	0.0269851022161888	0.0666578177069186
5.3	0.0150822444522485	0.0262656851989678	0	0	0.763742923818263	-0.573678141593122	0	0
0	0	-0.0138404354464076	-0.0421453914833606	0	0	-0.413880853835155	-0.770411449810347
0.763742923818263	-0.573678141593122	0	0	-0.0321956926200705	0.0246366277871591	0	0
0	0	0.742474850292342	-0.375857905785601	0	0	-0.0432750120099681	0.0122723153126117
5.4	-0.00607945880336963	-0.0322609940773332	0	0	0.565914459687846	0.767974836451719	0	0
0	0	-0.0307818164137288	0.014233211397453	0	0	-0.768264072781521	-0.426194326033174
0.565914459687846	0.767974836451719	0	0	0.0707583539382247	0.0872068374469497	0	0
0	0	0.658627581213648	0.508080986506955	0	0	-0.00922420126170924	0.0219596267381997
5.5	-0.00475429558048324	0.0345724426030786	0	0	0.77796611653274	-0.563323122766315	0	0
0	0	0.023802059083535	0.0602061224353121	0	0	0.876408170280896	-0.0471923894800832
0.77796611653274	-0.563323122766315	0	0	-0.00679727418793479	-0.0277096828498669	0	0
0	0	0.154973530665796	-0.816513008441332	0	0	0.0218807012459586	0.0383183368462261
5.6	0.0164224886786435	-0.0319369592676038	0	0	0.549018940007722	0.78273926732791	0	0
0	0	0.0428008774861074	0.0572921156954847	0	0	0.695000870091278	-0.50989569742847
0.549018940007722	0.78273926732791	0	0	0.00126114021877848	-0.109302915773776	0	0
0	0	0.797534481175329	-0.204550370856831	0	0	0.0118845869136562	0.117069641952432
5.7	-0.0272932336183896	0.0253708184119178	0	0	0.795060304718848	-0.540286291171051	0	0
0	0	0.0208662382416211	-0.00605854940654806	0	0	-0.314187868101782	0.806147687067992
0.795060304718848	-0.540286291171051	0	0	-0.0115106236460149	0.0511889697510237	0	0
0	0	-0.536729966032205	-0.645151005570084	0	0	0.0586728336874252	0.0340723791118892
5.8	0.0341591307423223	-0.0149659334204209	0	0	0.522130853529612	0.794369504271805	0	0
0	0	-0.0220855819265097	-0.0304347809083249	0	0	0.157559043846977	0.849721998293827
0.522130853529612	0.794369504271805	0	0	0.0584837059078201	-0.0277822228025278	0	0
0	0	0.320293499984803	-0.768900062654439	0	0	0.0342849451235902	0.0550835791819549
5.9	-0.0371600654809992	0.00196661512987014	0	0	0.807770086573676	-0.498104019718799	0	0
0	0	-0.0564200210819372	-0.0261004112256514	0	0	-0.584117646773727	-0.633036051777582
0.807770086573676	-0.498104019718799	0	0	-0.072779767231211	0.0430430248033018	0	0
0	0	-0.822778468528359	0.0616276348975753	0	0	0.0377511680731997	0.0717287806269122
6	0.0356482946935109	0.0110141169661806	0	0	0.481065562745496	0.820889383281988	0	0
0	0	-0.0343720689194165	0.00615258229622763	0	0	-0.843451783109063	-0.192073885679789
0.481065562745496	0.820889383281988	0	0	-0.00336692139270377	0.0233218067643286	0	0
