# GHZ S RI R 50
0.2	-0.0073039669461188	0.0108735629392031	0	0	0.95781326371803	0.0581066586409213	0	0
0	0	0.0194136779566297	0.00425293833985357	0	0	-0.370534934000762	0.911088894275329
0.95781326371803	0.0581066586409213	0	0	0.0221700842470546	0.0416792883609683	0	0
0	0	0.569712384136626	-0.753983617129854	0	0	0.00267295875323614	-0.0320699372639063
0.3	0.00716940655651385	-0.0103614465210232	0	0	0.0336449677375484	-0.965131392508493	0	0
0	0	-0.00571958261114757	0.00133868067768973	0	0	-0.134097118098791	-0.974265128363122
0.0336449677375484	-0.965131392508493	0	0	-0.0135005231653859	0.00361364910121418	0	0
0	0	-0.92204806712155	-0.202311015877194	0	0	-0.0319946634842248	-0.0182534216728752
0.4	-0.00884109284747002	0.00782305874552406	0	0	0.948539534282632	0.0622650016611002	0	0
0	0	-0.0393521866881686	0.000776714232520008	0	0	-0.666954588142315	-0.725979434821728
0.948539534282632	0.0622650016611002	0	0	-0.0341574559588722	-0.0148745545518842	0	0
0	0	-0.234945605062326	-0.89589878297518	0	0	0.0216358661866425	0.0188910868997875
0.5	0.0112835857894453	-0.00390265727228875	0	0	0.12808881129434	-0.948884560980932	0	0
0	0	-0.0325065627757096	0.00501940740695212	0	0	0.96399441255734	0.207556107219826
0.12808881129434	-0.948884560980932	0	0	0.0364321593259665	0.0160303412541815	0	0
0	0	-0.678972703817744	0.636430118836274	0	0	0.00485302115076053	0.00700248243232871
0.6	-0.012470872213204	0.000671006416049042	0	0	0.955124665574597	0.13181359951176	0	0
0	0	-0.0076592045799817	0.0066532746021973	0	0	0.913046985739436	-0.329018509637392
0.955124665574597	0.13181359951176	0	0	0.00471964468355747	-0.0200016510715087	0	0
0	0	-0.861896763085745	-0.345403464745363	0	0	-0.0055695219079867	-0.0075128314623552
0.7	0.0126946388097674	0.00182408348337973	0	0	0.109603108861692	-0.957965189735206	0	0
0	0	0.0233169663559212	-0.0100480040295664	0	0	-0.611960714963043	0.748212075443708
0.109603108861692	-0.957965189735206	0	0	0.00807886612652385	0.00971375184532701	0	0
0	0	0.045222649481012	0.920762976465757	0	0	0.0023489763347839	-0.0130795786085699
0.8	-0.0116653981975542	-0.00454527301679994	0	0	0.955688975746583	0.114336352009676	0	0
0	0	0.0447809534528171	-0.0407100488442262	0	0	-0.121201306535576	0.961437873309515
0.955688975746583	0.114336352009676	0	0	-0.0223109918595722	0.0124595956121063	0	0
0	0	-0.812421913715325	0.4483892977329	0	0	0.00688226115988893	0.0832650347597934
0.9	0.00867749726872812	0.00698550299278506	0	0	0.145863295613441	-0.940799744371508	0	0
0	0	0.0136214252768135	-0.02670831780673	0	0	-0.4343271351534	-0.867361248245545
0.145863295613441	-0.940799744371508	0	0	-0.00162862408848794	-0.0625839590403956	0	0
0	0	0.764554726659458	0.526279260711068	0	0	0.0368207559085425	0.0133028640670482
1	-0.00490770422561677	-0.00857830179291536	0	0	0.943931644215766	0.182419356064074	0	0
0	0	-0.0142755211319405	0.0124532576057297	0	0	-0.839433427107364	-0.482617645645309
0.943931644215766	0.182419356064074	0	0	0.00274678586591788	0.0412102530065661	0	0
0	0	-0.127013727202497	0.903984071272575	0	0	0.00352916185343633	0.00115106928457152
1.1	0.00111772357864012	0.00879831646031987	0	0	0.202231998897532	-0.951246428519091	0	0
0	0	-0.0117939589044826	0.0350336026997713	0	0	0.958329507739938	-0.0509256004320477
0.202231998897532	-0.951246428519091	0	0	0.00302499022310956	0.000783246380191009	0	0
0	0	0.870808493847441	-0.260622256764423	0	0	0.0085474030573682	0.0421054408511603
1.2	0.00163518082619343	-0.00766917671519037	0	0	0.961276710529226	0.203058712697438	0	0
0	0	0.00837976934699759	0.0638688778869512	0	0	0.772788648251062	-0.556161005668062
0.961276710529226	0.203058712697438	0	0	0.0528106336839023	-0.00138668466403773	0	0
0	0	0.615486437401289	0.672928488596066	0	0	0.00631092196731443	0.0992285399359519
1.3	-0.00327523711223615	0.00473477844337847	0	0	0.20544336734937	-0.945316442495243	0	0
0	0	0.0159385153483012	0.0177685230432967	0	0	-0.355393598003068	0.885510202823783
0.20544336734937	-0.945316442495243	0	0	-0.0558230486406651	1.6779119183654E-05	0	0
0	0	0.322375862580736	-0.86147137190702	0	0	0.0393361289523436	0.0138654409899532
1.4	0.00380832662185646	-0.00105472404300725	0	0	0.927212966803522	0.233296039308514	0	0
0	0	-0.0130738316012475	-0.0451189077619974	0	0	0.180881057593515	0.93937839320931
0.927212966803522	0.233296039308514	0	0	0.0158545941696439	0.00775903027564371	0	0
0	0	0.900814150560086	-0.0850639391000116	0	0	0.0434752751646184	-0.00703129627626503
1.5	-0.00276625943513537	-0.00187818215342448	0	0	0.270410223374427	-0.925255951039297	0	0
0	0	-0.037545098341592	-0.0577128212415235	0	0	-0.677162855912443	-0.675930967609593
0.270410223374427	-0.925255951039297	0	0	0.0316950952556596	-0.0331665701339065	0	0
0	0	-0.463577554602481	-0.768493204997535	0	0	0.0322342078524097	0.0519981904232319
1.6	0.000323251524305927	0.00359497843362914	0	0	0.940200543283115	0.293966452748671	0	0
0	0	-0.0352242971084644	-0.0208798009044329	0	0	-0.939062455293516	-0.182428663467688
0.940200543283115	0.293966452748671	0	0	-0.0531322143817586	-0.0266269948039184	0	0
0	0	0.497077903433073	-0.756338344884447	0	0	-9.80295331091049E-05	0.0527179323507738
1.7	0.00271905378892237	-0.00400437715737487	0	0	0.288330245790992	-0.945435271380464	0	0
0	0	0.0167632620973129	0.00533978713370793	0	0	0.885509720800369	-0.345714573357368
0.288330245790992	-0.945435271380464	0	0	-0.00209518997140041	0.00577320114126445	0	0
0	0	-0.901963528477085	-0.109696335920533	0	0	0.038932119708969	-0.030432786988089
1.8	-0.00526580019407009	0.00271567780074234	0	0	0.919208456874809	0.289174328637914	0	0
0	0	0.0465822804156498	0.0374943270665664	0	0	0.572581626263781	-0.747688777230884
0.919208456874809	0.289174328637914	0	0	0.0060748290225055	0.0659323719206147	0	0
0	0	-0.312055304688177	-0.849562482577916	0	0	0.0267359714116902	-0.033704737083831
1.9	0.00688496716170643	0.000267454255906049	0	0	0.318420504422561	-0.895392906384796	0	0
0	0	0.0536558721998154	-0.00381658583235564	0	0	-0.081689607832666	0.942132035400455
0.318420504422561	-0.895392906384796	0	0	0.00932806692080498	0.00946479979066742	0	0
0	0	-0.614196073320095	0.647083252567075	0	0	0.0405936925266309	0.0239117184699863
2	-0.00706858544018645	-0.00441076604976211	0	0	0.891953913219365	0.348874372962771	0	0
0	0	0.0156126859940619	-0.00459587896264416	0	0	0.458674917316006	0.832494152394612
0.891953913219365	0.348874372962771	0	0	-0.0502249061495221	-0.032752473263247	0	0
0	0	-0.844895360648273	-0.262692465848079	0	0	-0.0533487433406607	-0.0207482859176495
2.1	0.00570689702383035	0.00880479995860201	0	0	0.363773593675428	-0.898371512906346	0	0
0	0	-0.0290931514812896	0.00857427911915106	0	0	-0.830461758713757	-0.451154896236247
0.363773593675428	-0.898371512906346	0	0	0.0703790164219129	0.0165254552101822	0	0
0	0	0.136232115539695	0.878996717736127	0	0	-0.00525834918744405	0.00989216208569629
2.2	-0.002422182906145	-0.0125120666038955	0	0	0.898617393816508	0.375959842884841	0	0
0	0	-0.0484722286402277	0.0180337150684487	0	0	-0.931803021905179	0.0690936351092499
0.898617393816508	0.375959842884841	0	0	0.0143376194377317	-0.0106220297681264	0	0
0	0	-0.736573221290768	0.506291914705477	0	0	0.0422046168007879	-0.0111341404788194
2.3	-0.00260426081343494	0.0142906951095427	0	0	0.38602565427026	-0.889367842150432	0	0
0	0	-0.0310034306037684	0.0200215089673158	0	0	0.736363547652985	-0.555330350047991
0.38602565427026	-0.889367842150432	0	0	0.0576598448609953	-0.0284363365501189	0	0
0	0	0.775836400305062	0.432033651981279	0	0	0.0662634584485968	0.0467821978904787
2.4	0.0088605433066784	-0.0137303252324913	0	0	0.877927618413925	0.398118194252996	0	0
0	0	-0.00108533873379212	0.00147408711714998	0	0	0.324450739759718	-0.867678380304363
0.877927618413925	0.398118194252996	0	0	-0.0971218209310377	0.0144892182895792	0	0
0	0	-0.0394206629880117	0.882385793125159	0	0	0.0466872025141081	-0.048686191855474
2.5	-0.0156515094323212	0.0107455315696212	0	0	0.415312715167014	-0.866437060597568	0	0
0	0	0.0189544762830524	-0.035946301624908	0	0	0.189151937887054	0.917620338366422
0.415312715167014	-0.866437060597568	0	0	-0.0101901644036199	-0.0263404529136626	0	0
0	0	0.805070211882734	-0.331912749945334	0	0	0.0122582201876221	-0.000105639061272872
2.6	0.02149850810689	-0.00586113744332584	0	0	0.85961427096454	0.429574169126963	0	0
0	0	0.0180916840990367	-0.0389771226635019	0	0	0.667072740284209	0.653813141072821
0.85961427096454	0.429574169126963	0	0	0.00574942763122274	-0.0327764879100351	0	0
0	0	0.630486574693571	0.59746929995584	0	0	0.0624250733786987	0.0108854253342931
2.7	-0.0252768430634905	-0.000692464712116636	0	0	0.444281491937851	-0.853951698391313	0	0
0	0	0.0216214327293787	-0.0098739576759476	0	0	-0.897773218069236	-0.174442238493882
0.444281491937851	-0.853951698391313	0	0	0.00360734862712079	-0.0123505935576555	0	0
0	0	0.27613702823308	-0.835703343721266	0	0	-0.0273738260680196	-0.000201586630874063
2.8	0.0259154109380255	0.00826627800557393	0	0	0.843854882782355	0.457835462121952	0	0
0	0	0.0101499763009436	0.0123464439783665	0	0	-0.842769354603548	0.312533939256636
0.843854882782355	0.457835462121952	0	0	0.00454673995957317	0.0644238960576806	0	0
0	0	0.872072447768568	-0.150039158253372	0	0	0.0263163999235775	-0.0631733939233429
2.9	-0.0229756806685282	-0.0159415106483142	0	0	0.474046157228492	-0.825064538992767	0	0
0	0	0.00023879216335657	0.0365571566440193	0	0	0.567869869889457	-0.701211783329856
0.474046157228492	-0.825064538992767	0	0	-0.0531726419889787	0.0345308628181473	0	0
0	0	-0.515512117778037	-0.703290811458307	0	0	-0.0400092575023121	-0.0456002767155416
3	0.0172948326240897	0.0226771623138778	0	0	0.816477069188818	0.498309141314725	0	0
0	0	-0.0106950527509481	0.0297950695184403	0	0	0.0915410437158573	-0.921090455766581
0.816477069188818	0.498309141314725	0	0	-0.00644346296636509	-0.0174945292579798	0	0
0	0	0.40679003231589	-0.761466111168637	0	0	0.0139577283252233	0.0865157700460376
3.1	-0.00890573581458312	-0.0266512544617274	0	0	0.519070444765889	-0.806574480602831	0	0
0	0	-0.0200679745236272	0.0131188694633855	0	0	0.448960005917063	0.807335949123025
0.519070444765889	-0.806574480602831	0	0	0.0390911588047985	-0.0645544915383658	0	0
0	0	-0.870240530278653	-0.0498817136736594	0	0	-0.0752455931902717	0.00668835120620553
3.2	-0.000754046686641778	0.0281070290575657	0	0	0.805402436598981	0.542843691553091	0	0
0	0	-0.0179350066103726	-0.00486828097450695	0	0	0.79916737171327	0.43724349023053
0.805402436598981	0.542843691553091	0	0	0.000948108011227505	0.0253282715700924	0	0
0	0	-0.338219079760457	-0.814728234628389	0	0	-0.0590798622487987	0.00715648234945032
3.3	0.0102157341058083	-0.0258689350212172	0	0	0.554000423320753	-0.801411088559921	0	0
0	0	-0.00171808087951989	-0.0227039771633351	0	0	-0.905808146637871	0.0508484753027004
0.554000423320753	-0.801411088559921	0	0	0.0623039794023048	0.0242523560706709	0	0
0	0	-0.574941463117749	0.676525489608863	0	0	-0.0274160575376073	-0.107011559848879
3.4	-0.0179712622830123	0.0201243818068238	0	0	0.784971817361819	0.558773398369296	0	0
0	0	-0.00515282537202727	-0.0396505497773124	0	0	-0.732923400457702	0.544195494027695
0.784971817361819	0.558773398369296	0	0	-0.115292918647891	0.00902059297975087	0	0
0	0	-0.85767328155823	-0.221656078905842	0	0	-0.0196430002838733	-0.0397893470680272
3.5	0.0232068322671894	-0.0124262385961877	0	0	0.573050255404049	-0.775670201745533	0	0
0	0	0.00695416725820344	-0.0299667042991981	0	0	0.296238984003045	-0.869788951228612
0.573050255404049	-0.775670201745533	0	0	-0.0123817694489188	-0.0536488187070046	0	0
0	0	0.168827991746496	0.843385425916542	0	0	0.084795667894955	-0.0728365215032258
3.6	-0.0250946172535253	0.00358701198632769	0	0	0.768660928472152	0.582527313681317	0	0
0	0	0.018513101953714	0.00217340946275382	0	0	-0.211361490588643	-0.894090005160357
0.768660928472152	0.582527313681317	0	0	-0.0341756244011237	0.060754026632117	0	0
0	0	-0.691917047375805	0.521755238967871	0	0	0.0445689088521234	-0.0317070494770733
3.7	0.0231890501960178	0.00587473843827177	0	0	0.60110974923194	-0.748134477717598	0	0
0	0	0.0130074898599879	0.0354820074273752	0	0	0.640501339648519	0.647252307025674
0.60110974923194	-0.748134477717598	0	0	0.118444040256529	0.00695774350059568	0	0
0	0	0.771196928740673	0.407686925792768	0	0	0.0553086019630679	-0.0192193493144928
3.8	-0.0183734928522914	-0.0135596570521148	0	0	0.741749165332476	0.619625075206016	0	0
0	0	0.014584064737131	0.0495537639530923	0	0	0.870778271363866	0.184357502737333
0.741749165332476	0.619625075206016	0	0	-0.0251841773147847	0.0209920060898941	0	0
0	0	-0.0138905472492128	0.870636710357191	0	0	-0.0583180274205919	-0.0249125263210178
3.9	0.011280150653846	0.0180502370615182	0	0	0.62406098996434	-0.740579372328244	0	0
0	0	0.0107979016453357	0.0147512622254759	0	0	-0.822211840340858	0.328917886346955
0.62406098996434	-0.740579372328244	0	0	-0.0129539463978508	0.0832312834594574	0	0
0	0	0.780929880720411	-0.386626578589145	0	0	0.0248101079284848	-0.00574682783922179
4	-0.00234437649736212	-0.0192854405981718	0	0	0.722278079467987	0.632412352228674	0	0
0	0	-0.0166734282869636	-0.0128584431297962	0	0	-0.513547029048827	0.724443295740768
0.722278079467987	0.632412352228674	0	0	0.0506686906770599	-0.074361681540602	0	0
0	0	0.683953145536041	0.5135793737485	0	0	-0.00458960623333341	0.00954574719482782
4.1	-0.00593694802652851	0.0172792037954902	0	0	0.638080541930584	-0.70891233995548	0	0
0	0	-0.0411788427149246	-0.0355458302430172	0	0	0.0531352359376684	-0.88992935755689
0.638080541930584	-0.70891233995548	0	0	0.0246496186663093	-0.111741652740442	0	0
0	0	0.18183332335593	-0.826750971682155	0	0	0.0266021161012943	0.08141309481498
4.2	0.0124562593951686	-0.0126584126957967	0	0	0.703708665901408	0.649593652431467	0	0
0	0	-0.0484206484696942	-0.0151546928123296	0	0	-0.433517094538729	-0.778108723640643
0.703708665901408	0.649593652431467	0	0	-0.0399478761078697	0.0163372424022086	0	0
0	0	0.829145730315535	-0.185471368940989	0	0	-0.0117947060439238	-0.0412353844737857
4.3	-0.0161222843936816	0.00566089163534686	0	0	0.6585825645047	-0.696772919819242	0	0
0	0	-0.00702979020816876	0.00723536510124948	0	0	0.77673901678941	0.421933229029957
0.6585825645047	-0.696772919819242	0	0	-0.0109185919365432	0.0670538933627375	0	0
0	0	-0.533832088048226	-0.671159196083003	0	0	-0.0143659546279993	0.00233121978186254
4.4	0.0162863874531769	0.00273962800831548	0	0	0.679615657624773	0.668530467249933	0	0
0	0	0.0381284442116672	0.00484678590589974	0	0	0.885896073775744	-0.0541607266648938
0.679615657624773	0.668530467249933	0	0	0.00123373688872202	-0.0499279895727584	0	0
0	0	0.344525861005435	-0.770506500662737	0	0	-0.033540808862022	0.00334990189190487
4.5	-0.0129921185452042	-0.0103300750038016	0	0	0.675523409120441	-0.661386581841971	0	0
0	0	0.0643535451852648	-0.00420441946840175	0	0	-0.720546306513162	0.522159034506376
0.675523409120441	-0.661386581841971	0	0	-0.0496378099002514	0.0266200522033285	0	0
0	0	-0.833343494523419	0.0114848727015228	0	0	-0.085805921420028	0.0619886918506077
4.6	0.00682187057146235	0.0159233141069567	0	0	0.643460584832874	0.690671859268822	0	0
0	0	0.0460384513736047	-0.0249353285040945	0	0	-0.31269240735779	0.84273659055198
0.643460584832874	0.690671859268822	0	0	-0.00370137177841907	0.0140615428601381	0	0
0	0	-0.370890515791731	-0.743429152542606	0	0	-0.0799685497436998	-0.00926712050982757
4.7	0.00108817152156091	-0.0183475856716577	0	0	0.708364381552641	-0.636737285512308	0	0
0	0	-0.0252720783975962	-0.00570409103714182	0	0	-0.19048841221065	-0.872821050127639
0.708364381552641	-0.636737285512308	0	0	0.0658543886329868	-0.0173845469248349	0	0
0	0	-0.523857386669439	0.654619935801212	0	0	-0.0729840088510485	0.0724944176372264
4.8	-0.00968434332570749	0.0173066680178811	0	0	0.637085127620647	0.724715266841641	0	0
0	0	-0.0592283570311557	0.0336320395841897	0	0	-0.606341951208887	-0.634505439832817
0.637085127620647	0.724715266841641	0	0	0.0534267218242733	-0.0182246700645835	0	0
0	0	-0.826858431078039	-0.197259856401728	0	0	-0.0089967460649366	0.0721782751513249
4.9	0.0172538756620217	-0.0121498166834972	0	0	0.731025553437887	-0.629297808838603	0	0
0	0	-0.0400685862742261	0.0577681092715064	0	0	0.854033042456537	0.207084132505406
0.731025553437887	-0.629297808838603	0	0	-0.0802488530839668	-0.0290278885687569	0	0
0	0	0.198882658645308	0.821024895719307	0	0	-0.0832095221571873	0.00423497629640152
5	-0.0218560800206862	0.00404363773842142	0	0	0.618555695939798	0.726569673850883	0	0
0	0	-0.000265579383187974	0.0194192240579719	0	0	0.830831993737801	-0.298292933540089
0.618555695939798	0.726569673850883	0	0	-0.0471566446267783	0.0406115354031063	0	0
0	0	-0.645006497039483	0.533791927978311	0	0	0.0417870103241547	-0.00873988442111461
5.1	0.0232629698825349	0.00599845937829017	0	0	0.727929703211273	-0.606108413414783	0	0
0	0	0.0388797627792346	-0.034345714031129	0	0	-0.533038297396304	0.695549442920964
0.727929703211273	-0.606108413414783	0	0	-0.0212516995739664	-0.0416220138834919	0	0
0	0	0.749897515488564	0.344611702361213	0	0	0.0728749648996514	-0.0194437284524983
5.2	-0.0209208354869516	-0.0172469361862741	0	0	0.58406036915262	0.745572129143607	0	0
0	0	0.0167467907957151	-0.0749817140599415	0	0	-0.07827720322684	0.871620571951061
0.58406036915262	0.745572129143607	0	0	0.038570988034676	0.0221505320032687	0	0
0	0	0.0156098212362644	0.832197388938614	0	0	0.0271645847214529	0.0665392494405122
5.3	0.0148404588075014	0.0268811602388157	0	0	0.764143248778515	-0.572239929897353	0	0
0	0	-0.0134835606651191	-0.0416685548579528	0	0	-0.412501951758027	-0.770681203046134
0.764143248778515	-0.572239929897353	0	0	-0.0319407011891196	0.0244200251388235	0	0
0	0	0.742699495444693	-0.37453992491716	0	0	-0.0430267198460525	0.0119744900031045
5.4	-0.00585432158418756	-0.0327160048498016	0	0	0.564120480602848	0.7690218842483	0	0
0	0	-0.0307575626622902	0.0147030856603683	0	0	-0.767212178248097	-0.4278734754589
0.564120480602848	0.7690218842483	0	0	0.0705366327394503	0.0873482896647599	0	0
0	0	0.657404405744944	0.509503410130071	0	0	-0.00917403690701745	0.0217496697850901
5.5	-0.00511397067582895	0.034953582839617	0	0	0.779908523271959	-0.561376138712959	0	0
0	0	0.023490137263636	0.0605416197670801	0	0	0.876984456491949	-0.0447335720385317
0.779908523271959	-0.561376138712959	0	0	-0.00654903299572445	-0.0278714286115867	0	0
0	0	0.157364777110371	-0.816486359841483	0	0	0.0217615599933875	0.0383711402231054
5.6	0.0169048940209791	-0.0323927763656879	0	0	0.547169638023548	0.785506836420394	0	0
0	0	0.0422552338035314	0.057405247223625	0	0	0.697584313246246	-0.508404458012708
0.547169638023548	0.785506836420394	0	0	0.00204268912733779	-0.109608029282259	0	0
0	0	0.799293509464809	-0.202308946991759	0	0	0.0112457338173305	0.117416398026389
5.7	-0.0277436538154043	0.0259894588625196	0	0	0.798609826792544	-0.538950085082466	0	0
0	0	0.0202187053139349	-0.00616657620806235	0	0	-0.317563595567462	0.806951724301156
0.798609826792544	-0.538950085082466	0	0	-0.0117886991896365	0.0513700139981467	0	0
0	0	-0.535827549391072	-0.648393721443632	0	0	0.0588258708711249	0.0345981604301746
5.8	0.0344308472496555	-0.0156079368951212	0	0	0.521350022976171	0.798509974865657	0	0
0	0	-0.0226327769234563	-0.0307090546734747	0	0	0.155450625127339	0.853012047457748
0.521350022976171	0.798509974865657	0	0	0.0592462474747263	-0.027648541613244	0	0
0	0	0.323728098350611	-0.770445573071771	0	0	0.0343583741266485	0.0555464946451801
5.9	-0.0372911733161728	0.00246276863398348	0	0	0.812409272743839	-0.498152801913095	0	0
0	0	-0.0567289922918737	-0.0264396608873787	0	0	-0.58494523562041	-0.637220852977148
0.812409272743839	-0.498152801913095	0	0	-0.0733205440909842	0.0428227297457881	0	0
0	0	-0.826411897814636	0.0597580282076662	0	0	0.037908480323317	0.07225281104254
6	0.0357839205011699	0.0107382698034702	0	0	0.481974733629306	0.825781421832886	0	0
0	0	-0.0343888229857049	0.00585981274649936	0	0	-0.847354200327519	-0.194601711393948
0.481974733629306	0.825781421832886	0	0	-0.00321972073556136	0.023147726596071	0	0
