# GHZ S RI R 50
0.2	-0.0057311908326486	0.00594708176325443	0	0	0.958330267698024	0.0575728084090578	0	0
0	0	0.0243307259076608	0.00240699225943512	0	0	-0.369988988483637	0.911334173215073
0.958330267698024	0.0575728084090578	0	0	0.0210387860582778	0.0489128628804312	0	0
0	0	0.569266339206385	-0.754346581707662	0	0	0.00138281711472596	-0.0249133408597653
0.3	0.00729222097883456	-0.00807269961704016	0	0	0.0327017552537174	-0.96540023407457	0	0
0	0	-0.00341756694080215	0.001197312411995	0	0	-0.135049087539235	-0.9742567411458
0.0327017552537174	-0.96540023407457	0	0	-0.0123877954828733	0.00890037236543231	0	0
0	0	-0.922356218277394	-0.201450740574174	0	0	-0.0310291277485628	-0.0129777863672765
0.4	-0.00852411424250839	0.00787535348663153	0	0	0.948647729408511	0.0607572727539417	0	0
0	0	-0.0395340689683071	0.0010512671276858	0	0	-0.668079148683724	-0.724914109802159
0.948647729408511	0.0607572727539417	0	0	-0.0321372829056677	-0.0115916018217674	0	0
0	0	-0.236347518898747	-0.895508109259406	0	0	0.023647829653421	0.021997211429731
0.5	0.00967864089849574	-0.00530908363573759	0	0	0.126091978005814	-0.948811550981494	0	0
0	0	-0.0346743217566733	0.00528838778224126	0	0	0.964036581795987	0.205450470330525
0.126091978005814	-0.948811550981494	0	0	0.0383701939652106	0.017300539926639	0	0
0	0	-0.677361635357883	0.637594151148098	0	0	0.00668615892559276	0.00844757509030334
0.6	-0.00928414064903125	0.00199791990773094	0	0	0.954474391536672	0.12917939263497	0	0
0	0	-0.0110778925615827	0.00627162582539405	0	0	0.911248325415248	-0.331063172096538
0.954474391536672	0.12917939263497	0	0	0.00564294772582128	-0.0195330042952554	0	0
0	0	-0.861911198824601	-0.34279812036136	0	0	-0.00460880778667272	-0.00698020278519991
0.7	0.00868972121728059	0.00186574777739281	0	0	0.106799507518133	-0.956512152828787	0	0
0	0	0.0195807969781701	-0.0113796752167478	0	0	-0.608658691536413	0.748645657069977
0.106799507518133	-0.956512152828787	0	0	0.00815436125588342	0.00999198197942624	0	0
0	0	0.0478368035909778	0.918958862357198	0	0	0.00229777886392435	-0.0126913035122387
0.8	-0.00810384218756101	-0.00587331329857888	0	0	0.953325608021979	0.111507757679974	0	0
0	0	0.0414745119668238	-0.0426439568011916	0	0	-0.118356825828084	0.959356247169933
0.953325608021979	0.111507757679974	0	0	-0.022645925692196	0.0134780408282657	0	0
0	0	-0.809206806230575	0.449416784140845	0	0	0.00674180902452109	0.0836907416148406
0.9	0.00632402077452823	0.00866646730426841	0	0	0.142895429894519	-0.937625175614516	0	0
0	0	0.0113360309346666	-0.0286375275585909	0	0	-0.435109974344586	-0.863054685770169
0.142895429894519	-0.937625175614516	0	0	-0.00231455191969513	-0.0602657461411716	0	0
0	0	0.763221834408766	0.522308724560272	0	0	0.0361122148212428	0.0147456861435353
1	-0.00372127376292993	-0.00971121907586282	0	0	0.940168886000427	0.179802789644175	0	0
0	0	-0.0151651646684395	0.0110930006066546	0	0	-0.836556689467068	-0.478687889825996
0.940168886000427	0.179802789644175	0	0	0.00335839237216482	0.0433285087769561	0	0
0	0	-0.124587683379629	0.900085913854159	0	0	0.0037238153876252	0.00352307458557469
1.1	0.000502332860094541	0.00864372829586597	0	0	0.200035056897127	-0.946619301927158	0	0
0	0	-0.0113041696815785	0.0347204928545138	0	0	0.953209756767808	-0.0517406324597176
0.200035056897127	-0.946619301927158	0	0	0.00475354628228035	0.00326866562459718	0	0
0	0	0.86591384888788	-0.260230615359544	0	0	0.00993572035808175	0.0441431347070089
1.2	0.00276589634878508	-0.00619025418378059	0	0	0.955990511003771	0.201720169251716	0	0
0	0	0.00978626018548562	0.0649038484355359	0	0	0.76836611524313	-0.552903748229305
0.955990511003771	0.201720169251716	0	0	0.0551351323661668	0.000422965689469593	0	0
0	0	0.6118932988912	0.669085763669985	0	0	0.00876279359612418	0.100051571123338
1.3	-0.00532149636043344	0.00285886219453656	0	0	0.204950367029109	-0.939465810939884	0	0
0	0	0.0174786593982908	0.0200112782740637	0	0	-0.354296061580229	0.880079776895179
0.204950367029109	-0.939465810939884	0	0	-0.0516757251410543	0.000852152932756707	0	0
0	0	0.321441567725128	-0.856212957469896	0	0	0.0419930002381032	0.0149422795163746
1.4	0.00621209791623355	0.000769322908802309	0	0	0.921417811838036	0.233827726154697	0	0
0	0	-0.0123531600433646	-0.0421800247258878	0	0	0.177928960769668	0.934616159470022
0.921417811838036	0.233827726154697	0	0	0.0191122399575557	0.00804609802206651	0	0
0	0	0.896062771757781	-0.082716694852128	0	0	0.0462251950346795	-0.0061321518923409
1.5	-0.00545250045527796	-0.00365801567005922	0	0	0.271716604963091	-0.919560518854234	0	0
0	0	-0.037897967199662	-0.0545507555480812	0	0	-0.671538546874943	-0.674823322596674
0.271716604963091	-0.919560518854234	0	0	0.0348070732626504	-0.0328580527766213	0	0
0	0	-0.458707974190257	-0.766212775052622	0	0	0.0346155631144025	0.0519082777003225
1.6	0.0035406414290061	0.00496519052456072	0	0	0.93440583272646	0.296244926551233	0	0
0	0	-0.0365575128774776	-0.0177512552553767	0	0	-0.934286940555662	-0.185602040956705
0.93440583272646	0.296244926551233	0	0	-0.049682625876918	-0.0277303075940059	0	0
0	0	0.498139426831213	-0.751018498018579	0	0	0.00210474467267551	0.0518378414481691
1.7	-0.000564274993193858	-0.00441451844113484	0	0	0.291756160784685	-0.940509687882253	0	0
0	0	0.0147912843121789	0.00784532138612769	0	0	0.884076513346788	-0.340640853874291
0.291756160784685	-0.940509687882253	0	0	-0.000220262458800105	0.00427698950211521	0	0
0	0	-0.898460729306248	-0.113319247724528	0	0	0.0409320373429868	-0.0308508271592617
1.8	-0.00272340430687386	0.00247483868564443	0	0	0.915403294424661	0.293282498958626	0	0
0	0	0.0444646944538511	0.0389233994407888	0	0	0.574807706680898	-0.743179062793212
0.915403294424661	0.293282498958626	0	0	0.0064071252105242	0.0641394113715424	0	0
0	0	-0.307249506495847	-0.849047679772426	0	0	0.02815208020496	-0.0344640902453534
1.9	0.00510486474839151	0.000421895920023317	0	0	0.322549891792606	-0.892492425026243	0	0
0	0	0.05184293608363	-0.00359911323003533	0	0	-0.0861831324403864	0.940658753072954
0.322549891792606	-0.892492425026243	0	0	0.00962121967537313	0.00830708141280101	0	0
0	0	-0.61664521787273	0.643354293411646	0	0	0.0408746968461243	0.0232262176477389
2	-0.00568113143575782	-0.00410432854630585	0	0	0.889877786353926	0.352922452546619	0	0
0	0	0.0144470474236307	-0.00546341572461938	0	0	0.454716399418557	0.834382385737154
0.889877786353926	0.352922452546619	0	0	-0.049690384696344	-0.034014343907784	0	0
0	0	-0.843457363980715	-0.266513495845714	0	0	-0.0528057309860706	-0.021928351463302
2.1	0.0042075114204879	0.0080688637930453	0	0	0.367601118673245	-0.89741449939162	0	0
0	0	-0.0294265550854704	0.00691264063189467	0	0	-0.829282892430016	-0.454731614905374
0.367601118673245	-0.89741449939162	0	0	0.0705816659159518	0.0165301203519643	0	0
0	0	0.132882452145447	0.88015542423381	0	0	-0.0049886783593354	0.00940552520607349
2.2	-0.000563242253400041	-0.0117694583645177	0	0	0.898323176540801	0.379123457981358	0	0
0	0	-0.0480184683517376	0.0160816354849863	0	0	-0.933262079528474	0.0665130706506574
0.898323176540801	0.379123457981358	0	0	0.0148601232663044	-0.0112237511396936	0	0
0	0	-0.739022777778565	0.504863163881605	0	0	0.0428943835587627	-0.0113966212358487
2.3	-0.00454126773450156	0.0139910554187155	0	0	0.388289135458331	-0.889637136194616	0	0
0	0	-0.03007963094449	0.0183084122877693	0	0	0.738583284035545	-0.554905050188157
0.388289135458331	-0.889637136194616	0	0	0.0583135745245113	-0.0292740693968282	0	0
0	0	0.776326661074956	0.434153828363192	0	0	0.0668674324200221	0.046417926684783
2.4	0.0103636686652571	-0.0138773433045233	0	0	0.87816761983441	0.399615762447604	0	0
0	0	-6.55316669968132E-05	0.000370811719160089	0	0	0.325460641392407	-0.868427900323398
0.87816761983441	0.399615762447604	0	0	-0.0972646077046638	0.012935325126737	0	0
0	0	-0.0401165694509005	0.883362355664219	0	0	0.0472627056721781	-0.0498492208917263
2.5	-0.0164421728648074	0.0108890806293626	0	0	0.415718887077851	-0.866614112170147	0	0
0	0	0.0197043451038463	-0.0362302597523373	0	0	0.189256682322782	0.918145302268047
0.415718887077851	-0.866614112170147	0	0	-0.0105981432609982	-0.0278389939325261	0	0
0	0	0.805531388351702	-0.332099468140683	0	0	0.0123006938210154	-0.00146987589258877
2.6	0.0217897949164661	-0.00557482381549551	0	0	0.859299856123428	0.429093357706383	0	0
0	0	0.0182844838137721	-0.0385717863334578	0	0	0.667228913575931	0.653269441004174
0.859299856123428	0.429093357706383	0	0	0.00487543087123607	-0.0340965177515539	0	0
0	0	0.630623269347745	0.596961320001054	0	0	0.0620582809722864	0.00942131413377705
2.7	-0.0254631787029105	-0.00145084329625632	0	0	0.443145358312647	-0.852811681409744	0	0
0	0	0.0211941650135367	-0.00916333932641009	0	0	-0.896638203631955	-0.173556053213878
0.443145358312647	-0.852811681409744	0	0	0.00248793372785111	-0.0134207688958697	0	0
0	0	0.275152503901877	-0.83472807584228	0	0	-0.0278809860817575	-0.00143030427658623
2.8	0.0261129099055613	0.00927671257705953	0	0	0.841635188491328	0.456395113971925	0	0
0	0	0.00921423144967204	0.0128599004247367	0	0	-0.84052123262708	0.312262236056576
0.841635188491328	0.456395113971925	0	0	0.00335506266454208	0.063208247909508	0	0
0	0	0.869847787102729	-0.150182769058366	0	0	0.0254053329409476	-0.0639897419376081
2.9	-0.0230474040418652	-0.0171675668905829	0	0	0.472479098174783	-0.821737750241309	0	0
0	0	-0.00101105982730947	0.0363945152180165	0	0	0.565878999493997	-0.698683730574953
0.472479098174783	-0.821737750241309	0	0	-0.0539856243367093	0.0336219718267195	0	0
0	0	-0.513639665834092	-0.700808016586951	0	0	-0.0404713809379344	-0.0461758034383808
3	0.01728866557231	0.024306744448494	0	0	0.812113901523066	0.49698755972423	0	0
0	0	-0.0119978032250037	0.0287689545371258	0	0	0.0923515192190187	-0.917019522696776
0.812113901523066	0.49698755972423	0	0	-0.00745073361569309	-0.0176781654813496	0	0
0	0	0.406039621566319	-0.75766815161347	0	0	0.0128581293363677	0.0851757346830544
3.1	-0.00912323569654866	-0.0286961152862919	0	0	0.518336118306856	-0.801284301571886	0	0
0	0	-0.0211463586029211	0.0113066496912252	0	0	0.444757343106823	0.804408469909312
0.518336118306856	-0.801284301571886	0	0	0.0381608066983783	-0.0637587331782542	0	0
0	0	-0.86578464551157	-0.0517530359864599	0	0	-0.0752162064128291	0.00589527426292936
3.2	-0.000111629235951595	0.0303614787503003	0	0	0.798938313198163	0.543112593316177	0	0
0	0	-0.0184090507403265	-0.00716192912490287	0	0	0.793449861911865	0.438150926288804
0.798938313198163	0.543112593316177	0	0	0.000221809840296086	0.0252060514790019	0	0
0	0	-0.333352152154993	-0.81194624909928	0	0	-0.0590200815422386	0.00653928571910714
3.3	0.00919722502963314	-0.027957132728691	0	0	0.55562681387084	-0.794443051469748	0	0
0	0	-0.00141953291816367	-0.0249939721620535	0	0	-0.901732028276853	0.0460348246761875
0.55562681387084	-0.794443051469748	0	0	0.0612268672249026	0.0248464502436143	0	0
0	0	-0.575604929457692	0.670388537124702	0	0	-0.026267217993332	-0.106242660818041
3.4	-0.0169166921444927	0.0218870485914435	0	0	0.777495065772502	0.561609690324123	0	0
0	0	-0.00405299374867066	-0.0414493089620025	0	0	-0.733644221155921	0.537185219046673
0.777495065772502	0.561609690324123	0	0	-0.114359369907582	0.00743152184668924	0	0
0	0	-0.852819606130389	-0.226473705874666	0	0	-0.0189495240680363	-0.0396731255937666
3.5	0.0223068382079691	-0.0141266829887349	0	0	0.577338630752664	-0.768556068597582	0	0
0	0	0.00864511596838756	-0.0308917765997802	0	0	0.302133717546363	-0.865231814588256
0.577338630752664	-0.768556068597582	0	0	-0.0113800612085136	-0.0535792557123768	0	0
0	0	0.161914338051814	0.84246550982271	0	0	0.0855799193868428	-0.0711324411564987
3.6	-0.0242072792220426	0.00536408761331953	0	0	0.761932724913892	0.588485710160623	0	0
0	0	0.0205532166245408	0.00224764884705376	0	0	-0.203326739804088	-0.894929416907558
0.761932724913892	0.588485710160623	0	0	-0.0351447023931829	0.0597767494836968	0	0
0	0	-0.695690429621204	0.515135143424441	0	0	0.0451182180166716	-0.0309099975577381
3.7	0.022159610499499	0.00405383679822547	0	0	0.608340329980156	-0.742599817238092	0	0
0	0	0.0149070560920714	0.0364967744812544	0	0	0.634987699089182	0.653568045654835
0.608340329980156	-0.742599817238092	0	0	0.118241178014503	0.00908741090847294	0	0
0	0	0.767970804245496	0.41504203232336	0	0	0.0557450688993615	-0.018302660617402
3.8	-0.0171243983153019	-0.0119663053054262	0	0	0.737140806261852	0.627951822404178	0	0
0	0	0.0159561686358864	0.0509917724513161	0	0	0.871054758142984	0.192959848912482
0.737140806261852	0.627951822404178	0	0	-0.0258113468390748	0.0205310735835746	0	0
0	0	-0.0220985200693088	0.872513686011165	0	0	-0.0581958812463181	-0.0261852683450326
3.9	0.0100780827712317	0.0169093280106019	0	0	0.633315585547047	-0.737722615168792	0	0
0	0	0.011436472317119	0.0162238952267662	0	0	-0.828572043059708	0.32311342862421
0.633315585547047	-0.737722615168792	0	0	-0.0147095544508303	0.0836879447319645	0	0
0	0	0.787620442422902	-0.381427801017686	0	0	0.0249853806362498	-0.00536283989797809
4	-0.00154216233133709	-0.0183932150170694	0	0	0.721328180690204	0.641596830438737	0	0
0	0	-0.0168875069503809	-0.0116897429681688	0	0	-0.522247180736615	0.724646171808077
0.721328180690204	0.641596830438737	0	0	0.0523214498851212	-0.07420967392107	0	0
0	0	0.683918802425549	0.52196143196572	0	0	-0.00495349633057416	0.00965872372041609
4.1	-0.00640153403982289	0.01632311955672	0	0	0.646893771533031	-0.709741737186304	0	0
0	0	-0.0421158153657463	-0.0349449216086907	0	0	0.0593072457689618	-0.896065603808264
0.646893771533031	-0.709741737186304	0	0	0.0263939609775627	-0.112714030693003	0	0
0	0	0.188531991722872	-0.831590463467785	0	0	0.0257843980240256	0.0830903728434987
4.2	0.0128524284658845	-0.0115488669258531	0	0	0.705994642173849	0.657786317699463	0	0
0	0	-0.0496565468236898	-0.0152011601113087	0	0	-0.433344820456853	-0.786325521052539
0.705994642173849	0.657786317699463	0	0	-0.0406523800690305	0.0164144380126908	0	0
0	0	0.836613435369521	-0.183085792995376	0	0	-0.0116628489280491	-0.0418279675370689
4.3	-0.01655059032906	0.00462375981803587	0	0	0.665740009003537	-0.70036839260274	0	0
0	0	-0.00804499985466258	0.00666799110693559	0	0	0.781966790248783	0.42756781175923
0.665740009003537	-0.70036839260274	0	0	-0.011452078436704	0.0681438775959464	0	0
0	0	-0.536365976903248	-0.678172436399283	0	0	-0.0146415195394578	0.00238687588755081
4.4	0.0165586194248115	0.00356148485282822	0	0	0.684112741900623	0.674178769813808	0	0
0	0	0.0377098403890112	0.00404218350931609	0	0	0.892887910186525	-0.0537331751043273
0.684112741900623	0.674178769813808	0	0	0.00128326020514041	-0.0507971550312068	0	0
0	0	0.347965613466014	-0.776211067473475	0	0	-0.034055394888624	0.00326163722273356
4.5	-0.0128992650917176	-0.0110468390155823	0	0	0.679625737123921	-0.666213686518092	0	0
0	0	0.064734188834253	-0.00493266898074595	0	0	-0.725254481520516	0.526095334860222
0.679625737123921	-0.666213686518092	0	0	-0.0505397305909763	0.0267548085112651	0	0
0	0	-0.839071410871038	0.011961566297328	0	0	-0.0869591102249685	0.0626395016435789
4.6	0.00637330098980813	0.0168030373417915	0	0	0.64821625600338	0.693262452015351	0	0
0	0	0.0470942462563731	-0.0253375163822903	0	0	-0.313057312145838	0.847928846586185
0.64821625600338	0.693262452015351	0	0	-0.00417555982583975	0.0138822257800295	0	0
0	0	-0.374162403259983	-0.746956138180549	0	0	-0.081045009166925	-0.00958946071300068
4.7	0.00168454781431777	-0.019550351414045	0	0	0.709653504951677	-0.641071594510745	0	0
0	0	-0.0238221394843814	-0.00550234543920784	0	0	-0.193054551782962	-0.876025958998515
0.709653504951677	-0.641071594510745	0	0	0.065570628457298	-0.018075227394938	0	0
0	0	-0.524677962439419	0.658384714647626	0	0	-0.073624863224922	0.0728677392673406
4.8	-0.010186850879409	0.0186909070296289	0	0	0.640541677592206	0.724884936252113	0	0
0	0	-0.0579429245853162	0.0344736914332438	0	0	-0.609372481275428	-0.634930808371971
0.640541677592206	0.724884936252113	0	0	0.0527528379566029	-0.0187281471012953	0	0
0	0	-0.829547154284902	-0.19601223034581	0	0	-0.00919207205319878	0.0720367029426807
4.9	0.0177277639989326	-0.013514193186407	0	0	0.730288514041228	-0.631494090825059	0	0
0	0	-0.0393476174455318	0.0590851009001038	0	0	0.855345861015089	0.205821962528636
0.730288514041228	-0.631494090825059	0	0	-0.0814329166997746	-0.0287007559199469	0	0
0	0	0.200539130371946	0.82159138900536	0	0	-0.0839961883939367	0.00404680784583632
5	-0.022451641356784	0.00541250114980247	0	0	0.6193720195438	0.725610079323507	0	0
0	0	-0.000388635498633887	0.0209866562628063	0	0	0.830709470863185	-0.299129566494144
0.6193720195438	0.725610079323507	0	0	-0.0479245546428313	0.0409071844814632	0	0
0	0	-0.644627626908277	0.53449874506487	0	0	0.0410840817278277	-0.00922249021674842
5.1	0.02393624856044	0.00441962862661775	0	0	0.727059178754855	-0.605738692641722	0	0
0	0	0.0379134340038917	-0.0328804445126885	0	0	-0.532997167341977	0.695097945477907
0.727059178754855	-0.605738692641722	0	0	-0.0220256754418674	-0.0411754849775576	0	0
0	0	0.74947427407099	0.344668016480421	0	0	0.0720605745526782	-0.0196357533734393
5.2	-0.021471628377672	-0.0154675275076219	0	0	0.582401522577809	0.745391433436772	0	0
0	0	0.0151912032672397	-0.0739314732758968	0	0	-0.0798998423267972	0.870942438779929
0.582401522577809	0.745391433436772	0	0	0.0378439028605459	0.0227262551123823	0	0
0	0	0.0140058290814345	0.831723036283966	0	0	0.0261535769482451	0.0665032564344898
5.3	0.0151090355804024	0.0251436018182259	0	0	0.764836384925986	-0.569429988520112	0	0
0	0	-0.0151672937168829	-0.0412793909078082	0	0	-0.4096948938412	-0.771633444511786
0.764836384925986	-0.569429988520112	0	0	-0.0322831363483918	0.0248223413599076	0	0
0	0	0.743540272017106	-0.371847540532528	0	0	-0.0436458545443699	0.011862708149027
5.4	-0.00599299479254722	-0.0313041117597584	0	0	0.560703046946433	0.771247756213772	0	0
0	0	-0.0321413856790745	0.0143016669475644	0	0	-0.765389393045445	-0.431527000214062
0.560703046946433	0.771247756213772	0	0	0.0697147997058379	0.0884752623793811	0	0
0	0	0.655179165677642	0.512664529376786	0	0	-0.0097612705267783	0.0219940502911896
5.5	-0.00477926089351987	0.0337854049798469	0	0	0.783524187792768	-0.557770851013987	0	0
0	0	0.0227518401953452	0.0594571024832829	0	0	0.87849433908111	-0.0397089312932383
0.783524187792768	-0.557770851013987	0	0	-0.00623649922373896	-0.0275430981192849	0	0
0	0	0.162326532063943	-0.816737379135242	0	0	0.0211494505382453	0.0390339179638433
5.6	0.0162748972570332	-0.0311856414556825	0	0	0.543963069004603	0.790650416387949	0	0
0	0	0.042330097588116	0.0559391398293739	0	0	0.70321162798091	-0.505252006626652
0.543963069004603	0.790650416387949	0	0	0.00327619036150804	-0.109772150619235	0	0
0	0	0.803159167429871	-0.197511540383855	0	0	0.00951482771491695	0.118473614371035
5.7	-0.0270427729395818	0.0245292307598619	0	0	0.805406141228518	-0.536218519991793	0	0
0	0	0.0210264939965646	-0.00767273022302203	0	0	-0.324716526473047	0.808842047749889
0.805406141228518	-0.536218519991793	0	0	-0.01284492381659	0.0520912335854694	0	0
0	0	-0.534073793582529	-0.655352428016952	0	0	0.0584881508184538	0.0358968418955888
5.8	0.0339969890464314	-0.0140080863712939	0	0	0.520004245744354	0.806600842145742	0	0
0	0	-0.02138327501398	-0.0318768511136011	0	0	0.150939625887272	0.86009758708039
0.520004245744354	0.806600842145742	0	0	0.0599775345966104	-0.0266101966350331	0	0
0	0	0.331100928773223	-0.773789692628731	0	0	0.0334443228806165	0.0570080878527081
5.9	-0.0371520554377584	0.00105813915740093	0	0	0.821479428191226	-0.498060599836896	0	0
0	0	-0.055429998031058	-0.0270009294327395	0	0	-0.586694257095709	-0.646251289581528
0.821479428191226	-0.498060599836896	0	0	-0.075059807874229	0.0437794697606841	0	0
0	0	-0.834230593047235	0.0556959273524625	0	0	0.036989976801318	0.0744818328141781
6	0.0357206686691646	0.0117030841064042	0	0	0.483887906288576	0.835536603270474	0	0
0	0	-0.033414126325943	0.00596578321793538	0	0	-0.855490859847922	-0.200170753381906
0.483887906288576	0.835536603270474	0	0	-0.0031199971971973	0.0247693482598877	0	0
