# GHZ S RI R 50
0.2	-0.0062080275271801	0.00989003606054645	0	0	0.957889407031395	0.0581218100105579	0	0
0	0	0.0208748286525441	0.00452314740332322	0	0	-0.3704883918841	0.91107981412473
0.957889407031395	0.0581218100105579	0	0	0.0208259634233336	0.0432544613839784	0	0
0	0	0.569666928087916	-0.753986719221782	0	0	0.00132869245150752	-0.0304947808379
0.3	0.00683745434882395	-0.00967747974363703	0	0	0.0336415970708135	-0.965137873192198	0	0
0	0	-0.00504328173237074	0.00167775923333348	0	0	-0.134090492637319	-0.974254445662426
0.0336415970708135	-0.965137873192198	0	0	-0.0140670014726568	0.00527539908071401	0	0
0	0	-0.922036247364411	-0.202313441059215	0	0	-0.0325558001110831	-0.0165892903593693
0.4	-0.00876118852296909	0.00788700492135749	0	0	0.948547028461811	0.0622378748726872	0	0
0	0	-0.0394452535449795	0.000821812058030705	0	0	-0.666979288961759	-0.72597328025661
0.948547028461811	0.0622378748726872	0	0	-0.034092214063573	-0.0135017208581005	0	0
0	0	-0.23496882187189	-0.89590452327636	0	0	0.0217101065402349	0.0202618304239766
0.5	0.0109982084304644	-0.00468751231831041	0	0	0.128085497309246	-0.948897489098075	0	0
0	0	-0.0332702366345887	0.00467988396273738	0	0	0.964004161511627	0.207523995178303
0.128085497309246	-0.948897489098075	0	0	0.0368041754789755	0.0168900129272611	0	0
0	0	-0.678953026577497	0.636454935990101	0	0	0.00522921529090242	0.00786138780312332
0.6	-0.0115357243921112	0.00178352352961912	0	0	0.955151931485038	0.13173941257924	0	0
0	0	-0.0087893291697905	0.00581252574209471	0	0	0.913014873731281	-0.329079911370684
0.955151931485038	0.13173941257924	0	0	0.00501493027675391	-0.0196282941294008	0	0
0	0	-0.861912853050957	-0.34533915298334	0	0	-0.00526975522598927	-0.00713957448560512
0.7	0.0110796514250585	0.00106107262213156	0	0	0.10955321760359	-0.957954353906194	0	0
0	0	0.0221974061258563	-0.0113427775713399	0	0	-0.611881371773615	0.748250144030801
0.10955321760359	-0.957954353906194	0	0	0.00803790841991858	0.00984567025461389	0	0
0	0	0.0453031408104174	0.920739195112459	0	0	0.00230614421702009	-0.0129453155184448
0.8	-0.0098962466673533	-0.0044296578043069	0	0	0.95560334232417	0.114282407563674	0	0
0	0	0.0438923420738493	-0.042183389543515	0	0	-0.121284864985275	0.961409838614315
0.95560334232417	0.114282407563674	0	0	-0.0227293590144151	0.0127097583677018	0	0
0	0	-0.812447338781842	0.448308820748588	0	0	0.00645871440503525	0.0835124724475368
0.9	0.00732914822002167	0.00730820774977342	0	0	0.145701798557365	-0.940689397265529	0	0
0	0	0.0130933743685264	-0.0279796457309082	0	0	-0.434377478668891	-0.867308947575082
0.145701798557365	-0.940689397265529	0	0	-0.00223704893085944	-0.061899560382457	0	0
0	0	0.764572761238152	0.52621218113407	0	0	0.0362298768018634	0.0139729235704103
1	-0.00420780484172553	-0.00889764209826556	0	0	0.94384826439815	0.182376386320862	0	0
0	0	-0.0143758595085355	0.0117254305406487	0	0	-0.839364353115416	-0.482526141859414
0.94384826439815	0.182376386320862	0	0	0.00236143318945761	0.0423918633984883	0	0
0	0	-0.126957971850129	0.903891475393063	0	0	0.00315355299585702	0.00234634451238943
1.1	0.000942796795020971	0.0085848588231203	0	0	0.202187986474384	-0.951113893809973	0	0
0	0	-0.0115421900690004	0.0350692166579643	0	0	0.958193677666559	-0.0509260609107341
0.202187986474384	-0.951113893809973	0	0	0.00321530905585132	0.00231902636153574	0	0
0	0	0.870683356082515	-0.260592385368663	0	0	0.00875597468586241	0.043627180829578
1.2	0.00186232640507261	-0.00668580200663092	0	0	0.96114622412221	0.203098921648878	0	0
0	0	0.00875198074297708	0.0646975734967182	0	0	0.772650575724391	-0.555966211980904
0.96114622412221	0.203098921648878	0	0	0.0537019323400202	0.000131720268403888	0	0
0	0	0.615285694431194	0.672818930211822	0	0	0.0072260183352457	0.100689971621171
1.3	-0.00393872344565778	0.00340496575256668	0	0	0.205408414790736	-0.945102210505748	0	0
0	0	0.0161241380159463	0.0191507076459405	0	0	-0.355448037233984	0.885352188421576
0.205408414790736	-0.945102210505748	0	0	-0.0544115465337384	0.00123104344379078	0	0
0	0	0.322431919021527	-0.861320326016234	0	0	0.0407305150534016	0.0150623737139536
1.4	0.00469042622972467	0.000313070222882647	0	0	0.927061867345668	0.23339489089418	0	0
0	0	-0.0134386598748145	-0.0436208646206257	0	0	0.18074065022542	0.939319844532347
0.927061867345668	0.23339489089418	0	0	0.0174019298734978	0.0087078923294965	0	0
0	0	0.900746288978604	-0.0849370611031226	0	0	0.0450355576119836	-0.00610115445670024
1.5	-0.00385468073300557	-0.00333469056590657	0	0	0.270509783484537	-0.925184845133562	0	0
0	0	-0.038522858498125	-0.0563466819337117	0	0	-0.676897388480971	-0.676032366881921
0.270509783484537	-0.925184845133562	0	0	0.0333236262832957	-0.0324896266063726	0	0
0	0	-0.463312951639575	-0.768525471742615	0	0	0.0338391543996747	0.0526297710246055
1.6	0.00184899756310358	0.00494259260750624	0	0	0.939983986902639	0.29402885104493	0	0
0	0	-0.0366581391402813	-0.0197626604803072	0	0	-0.938892373509708	-0.182693229083619
0.939983986902639	0.29402885104493	0	0	-0.0515148945816781	-0.0264253539950744	0	0
0	0	0.497248344848636	-0.756094425322331	0	0	0.00147352871946985	0.0528877267837749
1.7	0.000940402193283548	-0.0047923261244609	0	0	0.288537120141864	-0.945327599428577	0	0
0	0	0.0151830947017395	0.00602122364094389	0	0	0.885570141307083	-0.345578880885463
0.288537120141864	-0.945327599428577	0	0	-0.00075967475743747	0.00552307950927537	0	0
0	0	-0.901952986353472	-0.109837918795414	0	0	0.040275277397097	-0.0306910523259108
1.8	-0.00378570399385327	0.00299259059526759	0	0	0.919172581475558	0.289494104954135	0	0
0	0	0.045207403075125	0.0376348695874917	0	0	0.572724027326459	-0.747595814034961
0.919172581475558	0.289494104954135	0	0	0.00695910153699938	0.0654236344539296	0	0
0	0	-0.311906557506691	-0.849630196370258	0	0	0.0276601382644193	-0.0342300984260646
1.9	0.00586959010646027	7.59581637634223E-05	0	0	0.318663660126532	-0.895388928923047	0	0
0	0	0.0527565288460124	-0.00416733874559113	0	0	-0.0819375307793847	0.942214032278096
0.318663660126532	-0.895388928923047	0	0	0.0098446097989332	0.0089390712011074	0	0
0	0	-0.614427202776899	0.646997984638298	0	0	0.041095999198314	0.0233925857056341
2	-0.00635517017971918	-0.00399838547204478	0	0	0.891949860103138	0.349086490053624	0	0
0	0	0.0153188685199889	-0.00529237812256736	0	0	0.458515078499643	0.832652655055258
0.891949860103138	0.349086490053624	0	0	-0.0499335457275542	-0.0331602705003537	0	0
0	0	-0.844890368761154	-0.262901950686475	0	0	-0.0530704159838014	-0.0211632257909702
2.1	0.00496703011250495	0.0081044749273805	0	0	0.364060222636237	-0.89852822862914	0	0
0	0	-0.0287741835594259	0.00771931033803397	0	0	-0.830500690425283	-0.451408678165546
0.364060222636237	-0.89852822862914	0	0	0.0706720742073201	0.0163354637346072	0	0
0	0	0.13606439117351	0.879170673699618	0	0	-0.00500154552015897	0.00966031820655344
2.2	-0.00142781039940515	-0.0117605906160965	0	0	0.898789477529425	0.376171484073542	0	0
0	0	-0.0477039002849537	0.0172492964357945	0	0	-0.932061336075866	0.0689818495409517
0.898789477529425	0.376171484073542	0	0	0.0147286231639948	-0.0108413866093213	0	0
0	0	-0.7368405375034	0.506324082744088	0	0	0.0426034065474865	-0.011354621601645
2.3	-0.00373311398555173	0.013830131253027	0	0	0.386168739495478	-0.889634991681123	0	0
0	0	-0.0300931163915192	0.0194722759537955	0	0	0.73668982559258	-0.555427480910323
0.386168739495478	-0.889634991681123	0	0	0.058167588956817	-0.0288422788966315	0	0
0	0	0.776049032411669	0.432283102749658	0	0	0.066751374059744	0.0464171291487993
2.4	0.00976446394114131	-0.0136359862036688	0	0	0.878070165519445	0.398293914256081	0	0
0	0	-0.000325348692178457	0.0012228850530102	0	0	0.324518502115251	-0.867910590410085
0.878070165519445	0.398293914256081	0	0	-0.096754662848499	0.0138109026719025	0	0
0	0	-0.0394139162577702	0.882616337863252	0	0	0.0471103362331981	-0.0493931901181697
2.5	-0.0160733999120906	0.0107407453509371	0	0	0.41538608673716	-0.866668263415567	0	0
0	0	0.0193244493462375	-0.0359021379543552	0	0	0.1892188338194	0.9178515351078
0.41538608673716	-0.866668263415567	0	0	-0.00999537852014433	-0.0272532765665366	0	0
0	0	0.805269713660225	-0.332013943122472	0	0	0.0124404158820896	-0.00101072200325451
2.6	0.0215332707097874	-0.00560706386020741	0	0	0.85986353485899	0.429599676950861	0	0
0	0	0.0179831623959583	-0.0387805933056766	0	0	0.667272899191014	0.6539299524049
0.85986353485899	0.429599676950861	0	0	0.0056851415599003	-0.0337747766113331	0	0
0	0	0.630674512592957	0.597574776490778	0	0	0.0623652794730373	0.00990367136355569
2.7	-0.0252111383255264	-0.0012738886920262	0	0	0.444260976301974	-0.85418659521142	0	0
0	0	0.0211357113403257	-0.00972197816643875	0	0	-0.897951834003993	-0.174359013085378
0.444260976301974	-0.85418659521142	0	0	0.00334564283829494	-0.0132947476403998	0	0
0	0	0.276079391114389	-0.835884009854028	0	0	-0.0276724518612587	-0.00112434924465195
2.8	0.0258643618204308	0.00902079548957242	0	0	0.844007961292787	0.457799934511416	0	0
0	0	0.00950368783289459	0.0122478901782979	0	0	-0.842874942827642	0.312733807690683
0.844007961292787	0.457799934511416	0	0	0.00418424580841727	0.063600141575977	0	0
0	0	0.872210769749358	-0.150213478563595	0	0	0.0258988098634894	-0.0640294423919037
2.9	-0.022847353475934	-0.0168195542158743	0	0	0.473926732905268	-0.825173687777486	0	0
0	0	-0.000324742045413271	0.0360300743727735	0	0	0.567771707393698	-0.701391121462361
0.473926732905268	-0.825173687777486	0	0	-0.0536305884302234	0.0338469738043616	0	0
0	0	-0.515703875659599	-0.703243221554481	0	0	-0.0405175081098152	-0.0462835133561621
3	0.0170951951129092	0.0238297727664247	0	0	0.81660730702413	0.498198719624695	0	0
0	0	-0.0109983989231822	0.0288197081733891	0	0	0.0914982538850732	-0.921075395159689
0.81660730702413	0.498198719624695	0	0	-0.00695878064434837	-0.0180085546714379	0	0
0	0	0.40674778314545	-0.7614683593842	0	0	0.0134480523989691	0.0860192452368909
3.1	-0.00884246656313255	-0.0281193561629016	0	0	0.518982379099312	-0.806755636644329	0	0
0	0	-0.020003220570493	0.0118357891084062	0	0	0.449036118461085	0.807161943200937
0.518982379099312	-0.806755636644329	0	0	0.0386020508721452	-0.0648407663495006	0	0
0	0	-0.870140275509764	-0.0497331679309277	0	0	-0.0757154840704071	0.006450099850059
3.2	-0.00050091569546362	0.0297513499397135	0	0	0.805397480704279	0.542806570697872	0	0
0	0	-0.0174150216741573	-0.00618751396747629	0	0	0.79908634917501	0.437111701892367
0.805397480704279	0.542806570697872	0	0	0.000608563381857661	0.0252572927979993	0	0
0	0	-0.338237824868886	-0.81457960386745	0	0	-0.0594106537205348	0.00710613872183261
3.3	0.00966645514696578	-0.027390247498197	0	0	0.554060286020188	-0.801461064527945	0	0
0	0	-0.000833392080056247	-0.0237540762859816	0	0	-0.905712792892176	0.0510247758587585
0.554060286020188	-0.801461064527945	0	0	0.062154702773268	0.0242924964989909	0	0
0	0	-0.574752145487328	0.676576802652766	0	0	-0.0275840614328823	-0.106945767952621
3.4	-0.0173836444046634	0.0213992729867605	0	0	0.784783166242158	0.558717539609174	0	0
0	0	-0.00404861250715889	-0.0401776964258103	0	0	-0.732854094473234	0.544162279915001
0.784783166242158	0.558717539609174	0	0	-0.115256712469955	0.00904472426336341	0	0
0	0	-0.857605955336705	-0.221623996614865	0	0	-0.0196231605047047	-0.0397482116979929
3.5	0.0227201526481957	-0.013645364194771	0	0	0.573056269133918	-0.775648056119436	0	0
0	0	0.00806581660349006	-0.0298659473448971	0	0	0.296260461894443	-0.869873827577296
0.573056269133918	-0.775648056119436	0	0	-0.0122824369107766	-0.0536809626118669	0	0
0	0	0.168850481833256	0.84346423480903	0	0	0.0849009976103942	-0.07286704113029
3.6	-0.0246025723452584	0.00488799166114877	0	0	0.768540516660677	0.582716603686324	0	0
0	0	0.0194643714224572	0.00289048928382369	0	0	-0.211298658236385	-0.894194163456372
0.768540516660677	0.582716603686324	0	0	-0.0341216898208857	0.0606626952155428	0	0
0	0	-0.692030834904371	0.521740497788801	0	0	0.0446607044827278	-0.031787140376859
3.7	0.0225566716835858	0.00455396487138196	0	0	0.601397348532799	-0.748292997535339	0	0
0	0	0.0135921716564051	0.0366019776926073	0	0	0.640534298831604	0.647449395539257
0.601397348532799	-0.748292997535339	0	0	0.118510845664386	0.00690136422033217	0	0
0	0	0.771283630780451	0.407857593646624	0	0	0.0553443701596975	-0.0193019932405058
3.8	-0.0175654499328737	-0.0124357740704633	0	0	0.741757662010501	0.619896138445271	0	0
0	0	0.0147859550151822	0.0506845256696981	0	0	0.870819957960401	0.184530402350932
0.741757662010501	0.619896138445271	0	0	-0.025254292183779	0.0209317053669339	0	0
0	0	-0.0140487520806544	0.870709126562996	0	0	-0.0583777092642418	-0.0249958245571859
3.9	0.0105254618696217	0.0172753578559332	0	0	0.624439389914049	-0.740675306061068	0	0
0	0	0.0106449803757415	0.0156277150462767	0	0	-0.822494622528643	0.328897317123778
0.624439389914049	-0.740675306061068	0	0	-0.0130970655464371	0.0832781432323448	0	0
0	0	0.781208868752565	-0.3866284076003	0	0	0.0247230239912406	-0.00573583588231208
4	-0.00190380230342286	-0.0186778477070838	0	0	0.722524783012146	0.632670933146856	0	0
0	0	-0.0171213302027969	-0.0124330757344761	0	0	-0.513813746211523	0.724634572040191
0.722524783012146	0.632670933146856	0	0	0.0505908792725794	-0.0743403776066803	0	0
0	0	0.684130269564372	0.513841224590124	0	0	-0.00471706851099105	0.00962665106056174
4.1	-0.00613429370560533	0.0165941147200838	0	0	0.638323568645338	-0.70925340728002	0	0
0	0	-0.0417629061070804	-0.0356334094610066	0	0	0.0532460915516627	-0.890319958240115
0.638323568645338	-0.70925340728002	0	0	0.0245637038335073	-0.111712308926774	0	0
0	0	0.18199522705995	-0.82710085905166	0	0	0.0265138912232299	0.0816186769979902
4.2	0.0126270970750393	-0.0118486511612312	0	0	0.704044402977283	0.64986357412325	0	0
0	0	-0.0489135864751557	-0.0156266855836613	0	0	-0.433781449945101	-0.778417557111413
0.704044402977283	0.64986357412325	0	0	-0.0400262132789606	0.0164965656899419	0	0
0	0	0.829499845784668	-0.185629385179504	0	0	-0.0118463744497894	-0.0411282792112506
4.3	-0.0163368646818637	0.00490447626520408	0	0	0.65884906559768	-0.697190746110616	0	0
0	0	-0.00724841453201535	0.00662366330994195	0	0	0.777167537277905	0.422013508833157
0.65884906559768	-0.697190746110616	0	0	-0.0108855199571421	0.0671998143469911	0	0
0	0	-0.534184383928251	-0.671393272212885	0	0	-0.014347565727441	0.00241150249879679
4.4	0.0163783179424418	0.0033293529105267	0	0	0.68014867653708	0.6686576859345	0	0
0	0	0.0382610833697406	0.00437192857544525	0	0	0.88628614985747	-0.054415044335192
0.68014867653708	0.6686576859345	0	0	0.00126987562941696	-0.0500425984485814	0	0
0	0	0.344483317058624	-0.770947274013118	0	0	-0.0335104216552964	0.00330324450736119
4.5	-0.0127992588128337	-0.0108665487696193	0	0	0.675569685594751	-0.661911139780551	0	0
0	0	0.0648108423978944	-0.0043281980361705	0	0	-0.720635128843235	0.522613237908967
0.675569685594751	-0.661911139780551	0	0	-0.0496529036032256	0.0264465519779237	0	0
0	0	-0.833656373955013	0.0117848600010522	0	0	-0.0858344829865945	0.0618694880791873
4.6	0.00637277632796982	0.0166258076831743	0	0	0.644018965758729	0.690647876756294	0	0
0	0	0.0466684833415733	-0.0246364227347464	0	0	-0.312357824037745	0.843171897664342
0.644018965758729	0.690647876756294	0	0	-0.00381822551678856	0.013713612153037	0	0
0	0	-0.371395567805683	-0.743478515870644	0	0	-0.0801786296424186	-0.00954883488493847
4.7	0.00159654348853608	-0.0193159330855334	0	0	0.708308834600848	-0.637354983934176	0	0
0	0	-0.0247048249834262	-0.00500290481633209	0	0	-0.190962064715893	-0.872882073921571
0.708308834600848	-0.637354983934176	0	0	0.065582576487454	-0.0178643487327395	0	0
0	0	-0.523622013220746	0.655001353808992	0	0	-0.0732618130884906	0.0722249240475658
4.8	-0.0100922341770675	0.018419977927698	0	0	0.637687868697378	0.724544140107637	0	0
0	0	-0.0589937653382711	0.0345525516125927	0	0	-0.606760319615908	-0.634296674908591
0.637687868697378	0.724544140107637	0	0	0.0529985771331856	-0.018653621601478	0	0
0	0	-0.827088952723973	-0.196870045027663	0	0	-0.0093729855083004	0.0718813756736927
4.9	0.0176193774782953	-0.0132317735238354	0	0	0.73062331084365	-0.629774452265226	0	0
0	0	-0.040280064570629	0.0586541006639563	0	0	0.854151109816353	0.206541343919603
0.73062331084365	-0.629774452265226	0	0	-0.0808154748957413	-0.0292067864360679	0	0
0	0	0.199398506556128	0.820886916378769	0	0	-0.0837479851650872	0.00409514808569469
5	-0.0222910001359811	0.00514042356252336	0	0	0.618896580262356	0.726177808001372	0	0
0	0	-0.000960490753665188	0.020078346783437	0	0	0.830680513045334	-0.298801559930042
0.618896580262356	0.726177808001372	0	0	-0.047682419847839	0.0404874375102022	0	0
0	0	-0.644707484969204	0.534196824928822	0	0	0.0411917581008954	-0.00892729288965971
5.1	0.0236939682471707	0.00473506958000169	0	0	0.727478169465173	-0.606467381158495	0	0
0	0	0.0378443848071495	-0.0340503806073373	0	0	-0.532635658517902	0.695847872511812
0.727478169465173	-0.606467381158495	0	0	-0.0218879289359776	-0.0416218706989819	0	0
0	0	0.750087695584886	0.344179714606354	0	0	0.0722475699479329	-0.019519598174469
5.2	-0.0211918471160061	-0.0158761995125656	0	0	0.584319651007343	0.745236487006903	0	0
0	0	0.0156155649608476	-0.0750807264058808	0	0	-0.0779189738012353	0.871510657833556
0.584319651007343	0.745236487006903	0	0	0.0380386705596375	0.0222491450996543	0	0
0	0	0.0159372382036856	0.83205662651199	0	0	0.02668127370418	0.0666646661599885
5.3	0.0149011961970957	0.0256266776688401	0	0	0.763750781034818	-0.572357777135937	0	0
0	0	-0.014391052735744	-0.0420954988161818	0	0	-0.412674416366455	-0.770280250440072
0.763750781034818	-0.572357777135937	0	0	-0.0323051622004528	0.0247123144495277	0	0
0	0	0.742322073911058	-0.374713282890659	0	0	-0.0433736044325766	0.0123086568640499
5.4	-0.0059044835594908	-0.0317439484301747	0	0	0.564214156979581	0.768779178359415	0	0
0	0	-0.0311933314966848	0.0140525095414992	0	0	-0.76712499188448	-0.427522091233372
0.564214156979581	0.768779178359415	0	0	0.0703374703827677	0.0875920360938018	0	0
0	0	0.657372702240973	0.50916209879813	0	0	-0.00935378590031723	0.0220736033571813
5.5	-0.00483877436598215	0.034099959711169	0	0	0.779584732215852	-0.561426397061928	0	0
0	0	0.0236282546115504	0.0598427832706602	0	0	0.876759761595591	-0.0448987957234561
0.779584732215852	-0.561426397061928	0	0	-0.00666280420463827	-0.0276128940547787	0	0
0	0	0.157162001536429	-0.816317156071165	0	0	0.0216793662840803	0.0385919029680621
5.6	0.0164313527578292	-0.0314107040321944	0	0	0.54727664152682	0.785218984107377	0	0
0	0	0.0428968158601894	0.056846673118778	0	0	0.697405861418241	-0.508303149538991
0.54727664152682	0.785218984107377	0	0	0.00187519378855311	-0.109420959261694	0	0
0	0	0.799099272735114	-0.202282675158404	0	0	0.011151269058497	0.1175147509147
5.7	-0.0273387324802878	0.0247770677352663	0	0	0.798489008165547	-0.53887042597967	0	0
0	0	0.0211740609298393	-0.00647279138059582	0	0	-0.317480792662359	0.806900798180596
0.798489008165547	-0.53887042597967	0	0	-0.0120400088107407	0.0514744630034552	0	0
0	0	-0.53582319951655	-0.648299531275775	0	0	0.058572613817595	0.0347173097846472
5.8	0.0342964359766511	-0.0143895347889144	0	0	0.521438057002243	0.798460490687616	0	0
0	0	-0.0216577330778735	-0.0307256387404357	0	0	0.155466323838162	0.852979087680566
0.521438057002243	0.798460490687616	0	0	0.0588543789913212	-0.0273949794181955	0	0
0	0	0.32369806851364	-0.770427233943917	0	0	0.0339973117349755	0.055824219452598
5.9	-0.037334826953216	0.00150202326528297	0	0	0.812406616613803	-0.498121918443888	0	0
0	0	-0.0560058225330194	-0.0262073223009064	0	0	-0.584999566302462	-0.637235966438425
0.812406616613803	-0.498121918443888	0	0	-0.0737169456392849	0.0433431230368743	0	0
0	0	-0.826455577994534	0.0597898101054144	0	0	0.0375596260196489	0.0727976911134217
6	0.0357614763298932	0.0113429237931857	0	0	0.48208726260902	0.825837448180595	0	0
0	0	-0.0340897514282	0.00622398339553879	0	0	-0.847393917611019	-0.194554514513136
0.48208726260902	0.825837448180595	0	0	-0.00346399051178931	0.0239274306279523	0	0
