# GHZ S RI R 50
0.2	-0.00614115122753702	0.00936486378710974	0	0	0.957939949951822	0.0580252120255082	0	0
0	0	0.0213349156712844	0.00425262998450633	0	0	-0.370406162951573	0.911117928782476
0.957939949951822	0.0580252120255082	0	0	0.0208421982886954	0.0440005505426709	0	0
0	0	0.569600036150545	-0.75404247543772	0	0	0.00132992104329621	-0.0297478990368651
0.3	0.00689678850905946	-0.00946281269379423	0	0	0.0334867356943096	-0.965159731035001	0	0
0	0	-0.00482938739854154	0.0016211136343856	0	0	-0.134243184408177	-0.974247600981946
0.0334867356943096	-0.965159731035001	0	0	-0.0138602689892423	0.00576167553082778	0	0
0	0	-0.92208071984041	-0.20217363283687	0	0	-0.0323556191220989	-0.0160973433662376
0.4	-0.00872954092771729	0.00788882559845615	0	0	0.948546219130946	0.0620057547823043	0	0
0	0	-0.0394606549717501	0.000849827235557056	0	0	-0.667145831787004	-0.725801143038566
0.948546219130946	0.0620057547823043	0	0	-0.0338450702722259	-0.0132339112600708	0	0
0	0	-0.235182751182467	-0.895834734944011	0	0	0.0219730326161631	0.0205015395593928
0.5	0.0108181829222297	-0.00477961972217198	0	0	0.127777933169153	-0.948874343472608	0	0
0	0	-0.0334610528965433	0.00474581278749133	0	0	0.963999460838591	0.207201854416808
0.127777933169153	-0.948874343472608	0	0	0.0370077261905166	0.0169528844957272	0	0
0	0	-0.678700557889184	0.636624368212432	0	0	0.00543226547724556	0.00794531634105223
0.6	-0.0112206462171651	0.00182131289250159	0	0	0.955050518551294	0.131345098198765	0	0
0	0	-0.00909388189022644	0.00584766294792798	0	0	0.9127389520877	-0.329377928243243
0.955050518551294	0.131345098198765	0	0	0.00509677870272327	-0.0196090637504533	0	0
0	0	-0.861905120660999	-0.344950664576592	0	0	-0.00517455026103628	-0.00711639126148407
0.7	0.0107381613570303	0.00117096263131896	0	0	0.109120384201296	-0.957746007281708	0	0
0	0	0.021856816848999	-0.0113779012954241	0	0	-0.611395687346516	0.748307159665877
0.109120384201296	-0.957746007281708	0	0	0.0080531764363587	0.00986244201785186	0	0
0	0	0.0456833279397769	0.920469050262122	0	0	0.00230530865085595	-0.0129107574998684
0.8	-0.00963938704614391	-0.00463871093971509	0	0	0.955273679355222	0.113834405206975	0	0
0	0	0.0435847742120988	-0.0422707110165682	0	0	-0.120843475221155	0.961105089092887
0.955273679355222	0.113834405206975	0	0	-0.0227234414508067	0.0128108652304827	0	0
0	0	-0.811962572886535	0.44847856029889	0	0	0.00650155284607416	0.0835363312963294
0.9	0.0071916330674242	0.00750876834174867	0	0	0.145240732451803	-0.940242753674418	0	0
0	0	0.0128763604389104	-0.0280808953990283	0	0	-0.434508454664314	-0.866684564444418
0.145240732451803	-0.940242753674418	0	0	-0.00227442391495995	-0.0616735467644972	0	0
0	0	0.764394158936287	0.52562844507797	0	0	0.0362147119568495	0.0140889682486231
1	-0.00415117888479585	-0.00901384292229024	0	0	0.943310014174284	0.181941928474197	0	0
0	0	-0.0144662744386166	0.0116450958490981	0	0	-0.838988209748513	-0.481933469272227
0.943310014174284	0.181941928474197	0	0	0.00248225305293539	0.0425224651069231	0	0
0	0	-0.126571790299962	0.903354055658947	0	0	0.00324693978806826	0.00252733431857091
1.1	0.000887827292592128	0.0085802184155666	0	0	0.201811198955399	-0.950458011983737	0	0
0	0	-0.0115047217805387	0.0350432427957836	0	0	0.957468670034499	-0.0511152767802472
0.201811198955399	-0.950458011983737	0	0	0.00340593356039686	0.00246700792735335	0	0
0	0	0.869973765663624	-0.260604859135351	0	0	0.00895731017132005	0.0437067002114879
1.2	0.00200156396510137	-0.00660199353737597	0	0	0.960400690228235	0.202828742116762	0	0
0	0	0.00887690335288778	0.0647528232209514	0	0	0.771958340065195	-0.555587200002401
0.960400690228235	0.202828742116762	0	0	0.0538762357320026	0.000194422462243351	0	0
0	0	0.614847733210611	0.672202816974021	0	0	0.00749569318701141	0.10058367594791
1.3	-0.00415614265470133	0.00332640788133797	0	0	0.205259869644904	-0.944288824763389	0	0
0	0	0.0162725898552524	0.0192870684227018	0	0	-0.355167687255418	0.884590611890021
0.205259869644904	-0.944288824763389	0	0	-0.054042686076033	0.00122564345676229	0	0
0	0	0.322179047952446	-0.860579999060741	0	0	0.0409368865919396	0.0150134160876998
1.4	0.00492703405695566	0.000373576555672026	0	0	0.926248363728552	0.233359695547945	0	0
0	0	-0.0133416167210778	-0.0434245560635445	0	0	0.18043606145087	0.938557064610003
0.926248363728552	0.233359695547945	0	0	0.0176269799737261	0.00865689805410634	0	0
0	0	0.900000513910386	-0.0847195062161301	0	0	0.0452213806270762	-0.00614296419646519
1.5	-0.00411139147397279	-0.00337880487165436	0	0	0.270564955015882	-0.924370052137758	0	0
0	0	-0.0384940693745102	-0.0561145731871442	0	0	-0.676148829145201	-0.675707961718884
0.270564955015882	-0.924370052137758	0	0	0.0335178268336858	-0.0325047726374711	0	0
0	0	-0.462704871495037	-0.768060842720634	0	0	0.0339831100474853	0.0524695522252091
1.6	0.00212142741207652	0.00492766157228872	0	0	0.939166323871032	0.294206275382517	0	0
0	0	-0.0366940257988542	-0.0195253063541087	0	0	-0.938137864236849	-0.182966120510765
0.939166323871032	0.294206275382517	0	0	-0.0512497015239109	-0.0265512565326721	0	0
0	0	0.497216083717938	-0.755336011496821	0	0	0.00159114812810706	0.052681362094545
1.7	0.000705266392790795	-0.00470529053587943	0	0	0.28883292094729	-0.944599187071505	0	0
0	0	0.0150985554556148	0.00622140531787785	0	0	0.885186738863646	-0.344929980597663
0.28883292094729	-0.944599187071505	0	0	-0.000667518596808027	0.00537886766050935	0	0
0	0	-0.901336532324587	-0.110210709068023	0	0	0.0403492903530606	-0.0307577333202453
1.8	-0.00362875416579868	0.00288870025579179	0	0	0.918566119060441	0.289856744650457	0	0
0	0	0.0450969075096704	0.037763401293939	0	0	0.57283748288406	-0.746907355970502
0.918566119060441	0.289856744650457	0	0	0.00691829732309285	0.0652425632091116	0	0
0	0	-0.311289429666831	-0.849367884458144	0	0	0.0277032191790802	-0.0342933594508378
1.9	0.00576283364610012	0.000144129955496395	0	0	0.319033231519048	-0.894876735303424	0	0
0	0	0.0526483614092711	-0.00412608142460281	0	0	-0.0824221437971445	0.941814655107129
0.319033231519048	-0.894876735303424	0	0	0.00982990701530926	0.00885419896427425	0	0
0	0	-0.614549941032311	0.646418393632954	0	0	0.0410384600022067	0.0233279473006238
2	-0.00625698701107996	-0.0040214901422529	0	0	0.891524286915927	0.349448241071748	0	0
0	0	0.0152360633518603	-0.00533142871066608	0	0	0.457957390248006	0.832658999711243
0.891524286915927	0.349448241071748	0	0	-0.0498757916300907	-0.033249501562053	0	0
0	0	-0.844520240304664	-0.263266020839433	0	0	-0.0530254005720689	-0.021264857878823
2.1	0.00484548395757722	0.00810676683236368	0	0	0.36438551761697	-0.898209272500399	0	0
0	0	-0.0288169440947466	0.00761958494035577	0	0	-0.830144210322127	-0.451692086193602
0.36438551761697	-0.898209272500399	0	0	0.0706390402675931	0.0163487904069208	0	0
0	0	0.135648855994845	0.879065593807911	0	0	-0.00500307920436051	0.00960796723714255
2.2	-0.00128627691806366	-0.0117803041449728	0	0	0.89853508609024	0.376424534027107	0	0
0	0	-0.0477040955429015	0.0171233750035461	0	0	-0.931955101348841	0.0686550178564561
0.89853508609024	0.376424534027107	0	0	0.0147473010142814	-0.0108794420819155	0	0
0	0	-0.73691032281412	0.506002831405263	0	0	0.0426117783684469	-0.011374662676238
2.3	-0.00385658007484093	0.0138823238643204	0	0	0.386317121174431	-0.889423097110881	0	0
0	0	-0.0300642471880288	0.019357691552054	0	0	0.73672503445058	-0.555183320682582
0.386317121174431	-0.889423097110881	0	0	0.058171831574592	-0.0288790154609179	0	0
0	0	0.775847763965968	0.432409221602511	0	0	0.0667131772014199	0.0463646591111256
2.4	0.00983786210913566	-0.013697420112689	0	0	0.87785587029083	0.398349893332532	0	0
0	0	-0.000285460813839239	0.0011495596415835	0	0	0.324576042256256	-0.86770332017625
0.87785587029083	0.398349893332532	0	0	-0.096744600111859	0.0136960340835477	0	0
0	0	-0.0395269990685581	0.882445225177848	0	0	0.0470740906196935	-0.0494490067608202
2.5	-0.0161024583303509	0.0107691666906817	0	0	0.415323437007769	-0.866414272423314	0	0
0	0	0.0193553919761218	-0.0359220608600238	0	0	0.189111672704265	0.917616838186643
0.415323437007769	-0.866414272423314	0	0	-0.0100398498558632	-0.0273209500866275	0	0
0	0	0.805074001401833	-0.331875376262471	0	0	0.0123669298769715	-0.00109245096695811
2.6	0.0215522843846072	-0.00558735811954575	0	0	0.859528954128964	0.429442688865684	0	0
0	0	0.0179879752830566	-0.038754660595781	0	0	0.667004577612934	0.653689189330624
0.859528954128964	0.429442688865684	0	0	0.00560445597615104	-0.0338130589645292	0	0
0	0	0.630421255439242	0.597355116886759	0	0	0.062225818579402	0.00983198034340931
2.7	-0.0252451900770888	-0.00132470363937152	0	0	0.444037371018279	-0.853734010994056	0	0
0	0	0.0211084086391983	-0.00967530692526944	0	0	-0.897473640868315	-0.174282129364029
0.444037371018279	-0.853734010994056	0	0	0.00325453910487742	-0.0133249966434714	0	0
0	0	0.275947612261842	-0.835436920381216	0	0	-0.0277430565312423	-0.00116940626750701
2.8	0.0259092151902842	0.00908444116015484	0	0	0.843410836046458	0.457552235875989	0	0
0	0	0.00944745202210412	0.0122832880486737	0	0	-0.842329499504851	0.312471081781844
0.843410836046458	0.457552235875989	0	0	0.00407966196159972	0.0634872807016709	0	0
0	0	0.871635429343906	-0.150057871959747	0	0	0.0257724314876379	-0.0639680945530055
2.9	-0.0228958300193703	-0.0169016801201415	0	0	0.473687452026352	-0.824421932710471	0	0
0	0	-0.000400476035718615	0.0360260404161509	0	0	0.567426595836761	-0.70073057903332
0.473687452026352	-0.824421932710471	0	0	-0.0536391601801631	0.0337605584965824	0	0
0	0	-0.515171537019841	-0.702758113427925	0	0	-0.0405189463898967	-0.046233192200549
3	0.0171588177552282	0.0239382473034482	0	0	0.815704071054451	0.498006515096531	0	0
0	0	-0.011081530533029	0.0287661445976404	0	0	0.0917158595022847	-0.920206334133932
0.815704071054451	0.498006515096531	0	0	-0.0070071950860918	-0.0179767546417867	0	0
0	0	0.406626022077136	-0.760641701758069	0	0	0.0132990711683179	0.085876824214766
3.1	-0.00894056078055795	-0.0282366107993013	0	0	0.518877510865669	-0.805716988786325	0	0
0	0	-0.0200778810504559	0.0117367301434415	0	0	0.448178570456496	0.8065915889616
0.518877510865669	-0.805716988786325	0	0	0.0385432784915802	-0.0646712623426887	0	0
0	0	-0.869252574029152	-0.0501286418610224	0	0	-0.0756279445321453	0.00637080365523118
3.2	-0.000370997453330876	0.029853175728672	0	0	0.804214085741075	0.542853185279466	0	0
0	0	-0.0174627431470396	-0.00631147847190011	0	0	0.797970992323698	0.437252502998753
0.804214085741075	0.542853185279466	0	0	0.000543750478934126	0.0252258259690794	0	0
0	0	-0.337310360607262	-0.814009556336743	0	0	-0.0593324798770693	0.00702489184687775
3.3	0.00952669644115875	-0.0274625668724806	0	0	0.554290467145571	-0.800199808577689	0	0
0	0	-0.000837850389217532	-0.0238793646376604	0	0	-0.904889679497498	0.0501381141199787
0.554290467145571	-0.800199808577689	0	0	0.0619843187853568	0.0243758995846306	0	0
0	0	-0.574825583689766	0.675395128570568	0	0	-0.0273423378312375	-0.10677948568464
3.4	-0.0172578415677311	0.0214515191501517	0	0	0.783472258224324	0.559150741850163	0	0
0	0	-0.00400556183543289	-0.0402798270498704	0	0	-0.732852337676272	0.542864536550375
0.783472258224324	0.559150741850163	0	0	-0.11508389466367	0.00876937732630283	0	0
0	0	-0.856625028764048	-0.222413757979098	0	0	-0.0194984575105021	-0.0397207034635611
3.5	0.0226042686899637	-0.0137014655283466	0	0	0.573687146780782	-0.77436004008165	0	0
0	0	0.00814688105717078	-0.0299227520371402	0	0	0.29719496574697	-0.86889138216959
0.573687146780782	-0.77436004008165	0	0	-0.0121287598327885	-0.0536430547288419	0	0
0	0	0.167632289062951	0.84310790291852	0	0	0.084977108040135	-0.0725450652128261
3.6	-0.0244830865110117	0.00494139912897727	0	0	0.767320309988253	0.583569291254517	0	0
0	0	0.0195685767290992	0.00287820727666116	0	0	-0.209898978210365	-0.894070976017982
0.767320309988253	0.583569291254517	0	0	-0.0342742699895087	0.0604984419957613	0	0
0	0	-0.692455510843842	0.52048503548037	0	0	0.0447072364757888	-0.0316298354388055
3.7	0.0224310720999186	0.00451116639320065	0	0	0.602398529934449	-0.747198428937131	0	0
0	0	0.0136936743029829	0.0366347978908978	0	0	0.639383664757425	0.648271790267603
0.602398529934449	-0.747198428937131	0	0	0.118421627585675	0.00725546173093189	0	0
0	0	0.770468093554277	0.408939540129011	0	0	0.0553695068878405	-0.0191233590722087
3.8	-0.0174455452818864	-0.0124174151361243	0	0	0.740789426303985	0.621057446774936	0	0
0	0	0.0148623043077965	0.0507380253046077	0	0	0.870524061245083	0.185892752845303
0.740789426303985	0.621057446774936	0	0	-0.0253291349508287	0.0208500027667625	0	0
0	0	-0.0154122796527733	0.870680226210897	0	0	-0.0583055999460684	-0.0251752762166527
3.9	0.0104331918453135	0.0172746964489258	0	0	0.625718001247971	-0.739910007830009	0	0
0	0	0.0106850862695969	0.0156847189025744	0	0	-0.823187771107834	0.327729826726361
0.625718001247971	-0.739910007830009	0	0	-0.0133606240465276	0.083280865774845	0	0
0	0	0.781979646567715	-0.385537130341855	0	0	0.0247484893284399	-0.00565595629493935
4	-0.0018415009625267	-0.0186679793774997	0	0	0.721959126521031	0.633971550239957	0	0
0	0	-0.0171230257379995	-0.0123860235473427	0	0	-0.515069235448031	0.724236169956908
0.721959126521031	0.633971550239957	0	0	0.0508469092512202	-0.074256575378901	0	0
0	0	0.683713535172698	0.515039520486996	0	0	-0.00474695100182352	0.00963396172545275
4.1	-0.00618663317452883	0.0165660759812183	0	0	0.639607675809637	-0.708891610945777	0	0
0	0	-0.0417993142122487	-0.0356074394486624	0	0	0.0544015529413935	-0.890809826457781
0.639607675809637	-0.708891610945777	0	0	0.0248805880227315	-0.111777720876093	0	0
0	0	0.183151552414691	-0.827388903556304	0	0	0.0263477604724757	0.0818010102034918
4.2	0.0126831770147865	-0.0118136427942836	0	0	0.703862488550512	0.651100960976347	0	0
0	0	-0.0489644491673571	-0.0156259965223928	0	0	-0.433263957002509	-0.77945253019794
0.703862488550512	0.651100960976347	0	0	-0.0401131908288005	0.0164428454342475	0	0
0	0	0.83030602748459	-0.184875489587359	0	0	-0.0117659830703182	-0.0412038100332088
4.3	-0.0163881383486064	0.00487554652579462	0	0	0.659983204733776	-0.697163381752585	0	0
0	0	-0.00728907923258396	0.00660337191395508	0	0	0.777406218026732	0.423025997437953
0.659983204733776	-0.697163381752585	0	0	-0.011020507226256	0.067295078275275	0	0
0	0	-0.534013894146636	-0.67238797825038	0	0	-0.014374557666467	0.00239574731950253
4.4	0.0164095922633675	0.00335954672061748	0	0	0.680215211109665	0.669640083762656	0	0
0	0	0.0382489509842678	0.00434163478556573	0	0	0.887006174256003	-0.0538471933306892
0.680215211109665	0.669640083762656	0	0	0.00133177897247889	-0.0501201351292032	0	0
0	0	0.345279033428127	-0.771304028666158	0	0	-0.0335769314442985	0.00325939040026146
4.5	-0.0128127234914109	-0.0109143698546768	0	0	0.676393506218628	-0.662016559222954	0	0
0	0	0.0648358025370463	-0.00435556497097147	0	0	-0.721414037476972	0.522595621421763
0.676393506218628	-0.662016559222954	0	0	-0.0497733779243439	0.0264231757726767	0	0
0	0	-0.834243435063594	0.0113514746964127	0	0	-0.0860447158929495	0.0618583924518285
4.6	0.00638122219996954	0.0166975344520463	0	0	0.644110820282405	0.691320379030516	0	0
0	0	0.0467235219879493	-0.0246468155444074	0	0	-0.312885777340686	0.843531633754128
0.644110820282405	0.691320379030516	0	0	-0.00386307307960517	0.0137202388419654	0	0
0	0	-0.371304630922512	-0.744061956114163	0	0	-0.080298063631789	-0.00963018252974221
4.7	0.00157491378330095	-0.0194052452454878	0	0	0.708854293094373	-0.637392853011741	0	0
0	0	-0.0246355078288052	-0.00498727323656288	0	0	-0.190728574549736	-0.873333635812725
0.708854293094373	-0.637392853011741	0	0	0.0656138231824013	-0.0178290285634237	0	0
0	0	-0.524089229752475	0.65509792175035	0	0	-0.0734216026965439	0.0722431685003169
4.8	-0.0100526595248895	0.0185078441135514	0	0	0.637619116402733	0.724992484819212	0	0
0	0	-0.058934542889901	0.0345901586347944	0	0	-0.606709653046328	-0.634709316029555
0.637619116402733	0.724992484819212	0	0	0.0530020560960308	-0.0186270481756163	0	0
0	0	-0.827264730146303	-0.197232331652635	0	0	-0.00947441196604496	0.071924611616311
4.9	0.0175807349850283	-0.0133167739172653	0	0	0.731012991876878	-0.629555451245586	0	0
0	0	-0.0402486454960768	0.0587123364713494	0	0	0.854198291579984	0.206942513904443
0.731012991876878	-0.629555451245586	0	0	-0.0808595383378587	-0.0292794175517288	0	0
0	0	0.199076417713448	0.821103796329546	0	0	-0.083822566687998	0.00404085094966238
5	-0.022254707591786	0.00523083912641011	0	0	0.618529665314021	0.726575188532897	0	0
0	0	-0.000967668942235099	0.0201473169753661	0	0	0.83090282464125	-0.298369511122057
0.618529665314021	0.726575188532897	0	0	-0.0477748854673775	0.0404522590179224	0	0
0	0	-0.645045005288263	0.533883059834264	0	0	0.0411666437345017	-0.00886112457849765
5.1	0.0236482956192533	0.00463835220161868	0	0	0.727926765407527	-0.605958478802371	0	0
0	0	0.0378021666479439	-0.0339868655583145	0	0	-0.533140139736433	0.695491261250152
0.727926765407527	-0.605958478802371	0	0	-0.0218616487808015	-0.0416363857855445	0	0
0	0	0.749865302842539	0.344717362434303	0	0	0.0722466596287285	-0.0193905241191073
5.2	-0.0211350234984114	-0.0157853502373296	0	0	0.583675675805956	0.745797393691251	0	0
0	0	0.0155528454003795	-0.075036414106294	0	0	-0.0787048236766245	0.871478048533224
0.583675675805956	0.745797393691251	0	0	0.0379835769987342	0.0223449809215136	0	0
0	0	0.0151908358602284	0.832106597670078	0	0	0.0265471305608949	0.0667500604086353
5.3	0.0148418949310701	0.02555290336827	0	0	0.764471359082486	-0.57159521766987	0	0
0	0	-0.0144539350404791	-0.0420794355351032	0	0	-0.411887979716938	-0.77081769983399
0.764471359082486	-0.57159521766987	0	0	-0.032370960355688	0.0246768481068166	0	0
0	0	0.742815109062649	-0.373952698867843	0	0	-0.0434109084024948	0.0122511286880691
5.4	-0.00585752941927571	-0.0316836572794935	0	0	0.563409791132867	0.769705394040939	0	0
0	0	-0.0312410893855399	0.0140364230474587	0	0	-0.76679724927288	-0.42859379541011
0.563409791132867	0.769705394040939	0	0	0.0701604205869436	0.0878439452912875	0	0
0	0	0.656913680135801	0.510118757821081	0	0	-0.00940397456868783	0.0220918666892792
5.5	-0.0048732431327283	0.0340357941548024	0	0	0.780736069139377	-0.560619079804986	0	0
0	0	0.0236056492075338	0.0598000507140391	0	0	0.877239898380631	-0.0437151661132729
0.780736069139377	-0.560619079804986	0	0	-0.00659125579988311	-0.0276368607120925	0	0
0	0	0.158358987916452	-0.816490725908307	0	0	0.0216041902199199	0.0387122918118802
5.6	0.0164654738469067	-0.0313354977905194	0	0	0.54654046672398	0.786584751376396	0	0
0	0	0.042902538049612	0.0567901075016005	0	0	0.698655377048402	-0.507664012493852
0.54654046672398	0.786584751376396	0	0	0.00218929178504767	-0.109557450114852	0	0
0	0	0.79997928221076	-0.201271369960139	0	0	0.0108307926443056	0.117740775124459
5.7	-0.0273772993738966	0.0246982281022513	0	0	0.800091068285632	-0.538257527222609	0	0
0	0	0.0212088048536622	-0.0065237470707116	0	0	-0.318969464438677	0.807260422619637
0.800091068285632	-0.538257527222609	0	0	-0.0122320020654529	0.0515821981944391	0	0
0	0	-0.535429526281744	-0.649731916674281	0	0	0.0585802171658838	0.0349939657093432
5.8	0.0343451103434662	-0.0143259775266629	0	0	0.521024993572851	0.800218985059963	0	0
0	0	-0.0216128914155126	-0.0307612019291832	0	0	0.154498912016355	0.854302328389543
0.521024993572851	0.800218985059963	0	0	0.0590674192660364	-0.0272592791664575	0	0
0	0	0.325175843674821	-0.770985942916109	0	0	0.0339237687579438	0.0561092825150858
5.9	-0.0373745655526241	0.00146024881808474	0	0	0.814298591667845	-0.497909587217735	0	0
0	0	-0.0559664860428543	-0.0262193497298522	0	0	-0.58514274580674	-0.638949325279798
0.814298591667845	-0.497909587217735	0	0	-0.0740583380104108	0.043351330436566	0	0
0	0	-0.827826740021694	0.0588775008133239	0	0	0.0375066749040445	0.0731723215227687
6	0.0357767591600834	0.0113727366335095	0	0	0.482130976460267	0.827808275263713	0	0
0	0	-0.0340688511166582	0.00623433409366288	0	0	-0.848720961000731	-0.195748280260016
0.482130976460267	0.827808275263713	0	0	-0.00350553177241571	0.0240606246841691	0	0
