# GHZ S RI R 50
0.2	-0.00632885612901284	0.0103910705977814	0	0	0.957870593703346	0.0581953884527198	0	0
0	0	0.0204195440599166	0.00466319064355252	0	0	-0.370480747777748	0.911039789858894
0.957870593703346	0.0581953884527198	0	0	0.0209672992540579	0.042601844031714	0	0
0	0	0.569649915298065	-0.753951457534523	0	0	0.00140225439438506	-0.0312214215549825
0.3	0.0067953489388201	-0.00990480958729468	0	0	0.0337295494900958	-0.965152835363383	0	0
0	0	-0.00524051498535069	0.00166659286878956	0	0	-0.13403131383668	-0.97419512954767
0.0337295494900958	-0.965152835363383	0	0	-0.014112245423243	0.00479502012667274	0	0
0	0	-0.921963192178899	-0.202347075543931	0	0	-0.0327186165113368	-0.0171202340377516
0.4	-0.00879402413891076	0.00787567891564657	0	0	0.94856070533307	0.0623538998115628	0	0
0	0	-0.039416348933199	0.000805984910085543	0	0	-0.666857344696129	-0.726023725622721
0.94856070533307	0.0623538998115628	0	0	-0.034216848184104	-0.0138165521666695	0	0
0	0	-0.234845390781344	-0.895892844267166	0	0	0.0214338257051213	0.0199585505225491
0.5	0.0112084021578432	-0.00455636973851282	0	0	0.12823741073561	-0.948887610563254	0	0
0	0	-0.0330786065652487	0.00471506671024118	0	0	0.963989605088882	0.207697491364366
0.12823741073561	-0.948887610563254	0	0	0.03667361157315	0.0167408176846772	0	0
0	0	-0.679079818234081	0.636350426112776	0	0	0.00498558362346957	0.00774481689200094
0.6	-0.0119441264337485	0.00171766502254198	0	0	0.955155934486738	0.131978154860049	0	0
0	0	-0.00852876453735996	0.00595265946848942	0	0	0.913178012985814	-0.328942994051548
0.955155934486738	0.131978154860049	0	0	0.00495330903450371	-0.0196934113791416	0	0
0	0	-0.861942406269937	-0.345540764748222	0	0	-0.00540071048898673	-0.00716486000735649
0.7	0.0115535013522977	0.000907661653959847	0	0	0.109859964867613	-0.958016455482	0	0
0	0	0.0224266635599055	-0.0111000207946547	0	0	-0.612115030062221	0.748287251728158
0.109859964867613	-0.958016455482	0	0	0.00803987655372021	0.00982371162125158	0	0
0	0	0.0451614949064725	0.920914834847206	0	0	0.0022934484590322	-0.0129871605696804
0.8	-0.0102596902538273	-0.00410330604344199	0	0	0.955783094776901	0.114632613104971	0	0
0	0	0.0440370773150975	-0.0419013734784515	0	0	-0.121397417925715	0.961613235630659
0.955783094776901	0.114632613104971	0	0	-0.0226713377839999	0.0126519089399464	0	0
0	0	-0.812668223594054	0.448336417018333	0	0	0.00647256159644061	0.0834115972090941
0.9	0.00750833507656031	0.00697615471460632	0	0	0.146066466547612	-0.941019185468037	0	0
0	0	0.0131407985708021	-0.0277424109847689	0	0	-0.434397095524363	-0.867560467960384
0.146066466547612	-0.941019185468037	0	0	-0.00208264120841451	-0.0620584868117126	0	0
0	0	0.764705361919561	0.526413900863315	0	0	0.0362068320565277	0.0137292137256624
1	-0.0042586972800282	-0.00870394038800512	0	0	0.944271452773432	0.182659829803357	0	0
0	0	-0.0144063234127322	0.0118447624012798	0	0	-0.839555642503427	-0.482757996198682
0.944271452773432	0.182659829803357	0	0	0.00245287433769105	0.0422426045707562	0	0
0	0	-0.127093525953473	0.904140327383505	0	0	0.00294922793081426	0.00204272689416756
1.1	0.0010205490105786	0.00860727072107244	0	0	0.202327334870915	-0.951620276283345	0	0
0	0	-0.0115959255952648	0.0350284975295979	0	0	0.958567500676231	-0.0508303650682175
0.202327334870915	-0.951620276283345	0	0	0.00326279007297496	0.00205315651132505	0	0
0	0	0.871048813544168	-0.260587671649542	0	0	0.00834654434759311	0.0434388458218442
1.2	0.00158182677857232	-0.0068335892884224	0	0	0.961632874987814	0.203067917517019	0	0
0	0	0.00874994251034708	0.0645062986879645	0	0	0.773107105286641	-0.556200187721008
0.961632874987814	0.203067917517019	0	0	0.0537056609859232	-0.000194115149902713	0	0
0	0	0.615559326077973	0.673227044520955	0	0	0.00667494051551152	0.100767171435609
1.3	-0.00347994545413766	0.00349773907802232	0	0	0.205257773773661	-0.945576368941766	0	0
0	0	0.0162310060877606	0.0188804212417788	0	0	-0.355634882408835	0.885910570596371
0.205257773773661	-0.945576368941766	0	0	-0.0545870422535816	0.000942485556314415	0	0
0	0	0.322599295299102	-0.861862702987063	0	0	0.0402153302932486	0.0152452272782338
1.4	0.00417276012038347	0.000282439615071107	0	0	0.927459174675833	0.233148720046824	0	0
0	0	-0.01319973106886	-0.0438434946953449	0	0	0.181015647654732	0.939888433840698
0.927459174675833	0.233148720046824	0	0	0.0172610723042434	0.00839371582655111	0	0
0	0	0.901306553310341	-0.0851443756620345	0	0	0.0445587088070162	-0.00584788720127471
1.5	-0.00326667448430664	-0.00336349485609228	0	0	0.270202538944138	-0.925519583537368	0	0
0	0	-0.0381834050204972	-0.0564491058525603	0	0	-0.677558027963312	-0.676260200907789
0.270202538944138	-0.925519583537368	0	0	0.0331285128465484	-0.032822384193853	0	0
0	0	-0.463862835795442	-0.768882301659343	0	0	0.0334470819427644	0.0530358647931654
1.6	0.00121006625700916	0.00513844798803984	0	0	0.940272519413627	0.293634252159352	0	0
0	0	-0.0362665281311828	-0.0197327893369058	0	0	-0.939564759384507	-0.182357888702466
0.940272519413627	0.293634252159352	0	0	-0.0517693392548984	-0.0266219568033403	0	0
0	0	0.497196441800606	-0.756803401501447	0	0	0.00120170135127328	0.053399183155998
1.7	0.00145882236972983	-0.00517906089115549	0	0	0.288131237246362	-0.945474061407156	0	0
0	0	0.0155321755098771	0.00617631893101398	0	0	0.885771652774547	-0.346285949492275
0.288131237246362	-0.945474061407156	0	0	-0.000987311538934025	0.00536987137228954	0	0
0	0	-0.902442632507984	-0.10933383938557	0	0	0.0401406732821745	-0.030308359229789
1.8	-0.00409617892427906	0.00339459444611472	0	0	0.919215906959997	0.289087934388754	0	0
0	0	0.0454273720894373	0.0378667401801181	0	0	0.572379185023364	-0.748221247349332
0.919215906959997	0.289087934388754	0	0	0.00679621667343086	0.0653412595955584	0	0
0	0	-0.312591644662574	-0.849672281386911	0	0	0.0276536544531376	-0.0339048482067232
1.9	0.0060735701604743	-0.000203942733285884	0	0	0.318250103752682	-0.895404121987449	0	0
0	0	0.0528039295231986	-0.00393085074244882	0	0	-0.08128286381209	0.942404894983826
0.318250103752682	-0.895404121987449	0	0	0.00968270410330523	0.00891729845117773	0	0
0	0	-0.614056401659329	0.647523714927685	0	0	0.0412400470290735	0.0236041541521659
2	-0.0065843669685483	-0.00384662183323496	0	0	0.89189431017243	0.348630196704945	0	0
0	0	0.0151954872925303	-0.00512078287571341	0	0	0.459039852002291	0.832394621202033
0.89189431017243	0.348630196704945	0	0	-0.0500501817507499	-0.0331009945648859	0	0
0	0	-0.845076024262647	-0.262390227295815	0	0	-0.0530107988810038	-0.0209353596096088
2.1	0.00530586161847055	0.00798106102482535	0	0	0.363623081094977	-0.898296457245323	0	0
0	0	-0.0290304883793026	0.0077725070307927	0	0	-0.830713585114213	-0.450936556447715
0.363623081094977	-0.898296457245323	0	0	0.0705451969504888	0.0162556475572432	0	0
0	0	0.136539231581215	0.879060601217969	0	0	-0.00494993974769545	0.00980110374915904
2.2	-0.00183149313145674	-0.0115395620169043	0	0	0.898443154133886	0.375799970274814	0	0
0	0	-0.0480109212715539	0.0171688084377451	0	0	-0.931938967689287	0.0694321018779979
0.898443154133886	0.375799970274814	0	0	0.0146100848538385	-0.0108848923273814	0	0
0	0	-0.736522375055122	0.506637102427136	0	0	0.0426092853904337	-0.0112125152956729
2.3	-0.00341607352969513	0.0134957806571798	0	0	0.385947652870763	-0.889207972767155	0	0
0	0	-0.0303570033374472	0.0193002766492142	0	0	0.736345795025793	-0.55568685947069
0.385947652870763	-0.889207972767155	0	0	0.0579529609993559	-0.0288669795075364	0	0
0	0	0.776143393384781	0.431879135717533	0	0	0.0668607418950239	0.0465965579610949
2.4	0.00962788583135457	-0.013317866603828	0	0	0.877621176072431	0.398140044305766	0	0
0	0	-0.000477847542936044	0.00102754793481934	0	0	0.324179375878499	-0.867863597365817
0.877621176072431	0.398140044305766	0	0	-0.0968759519464427	0.0137799339358518	0	0
0	0	-0.0391200980923972	0.882474088224436	0	0	0.0472783286440527	-0.0491327591461803
2.5	-0.0160550070504888	0.0105969442582559	0	0	0.415360733834877	-0.866261608346147	0	0
0	0	0.0193223786110826	-0.0360386412797486	0	0	0.189384376521761	0.917672716284084
0.415360733834877	-0.866261608346147	0	0	-0.0102287072480896	-0.0271635839914571	0	0
0	0	0.805077713085986	-0.332134078353949	0	0	0.0127907178556998	-0.00079230109143053
2.6	0.0214727774778641	-0.00566468262089036	0	0	0.859490971414973	0.429644777859333	0	0
0	0	0.0181025632329291	-0.0387920458299782	0	0	0.667295711426185	0.653811964380967
0.859490971414973	0.429644777859333	0	0	0.00544696389597357	-0.0336037028754907	0	0
0	0	0.630693875479998	0.597464713577793	0	0	0.0628002817926332	0.0100116276117172
2.7	-0.0250208037308209	-0.00111985024169472	0	0	0.444365535498507	-0.853858806431733	0	0
0	0	0.0212971280051526	-0.00959157302417329	0	0	-0.897999707975251	-0.174338189660669
0.444365535498507	-0.853858806431733	0	0	0.00312706520623145	-0.013091969851673	0	0
0	0	0.276065358682669	-0.835932252217438	0	0	-0.0272095657706754	-0.0010987348622815
2.8	0.0255875324800992	0.00884577409258783	0	0	0.843765205201006	0.457926416664155	0	0
0	0	0.00960167900414485	0.0124912744023472	0	0	-0.842984152995102	0.312811637480221
0.843765205201006	0.457926416664155	0	0	0.00396100664368668	0.0638017138750922	0	0
0	0	0.87233052775566	-0.150269046044699	0	0	0.0263543197524395	-0.06410176338942
2.9	-0.0225184938390145	-0.0165904010631139	0	0	0.474054364676341	-0.825074171826938	0	0
0	0	-0.000398714536933209	0.0363298436255331	0	0	0.567901138755443	-0.701574575097224
0.474054364676341	-0.825074171826938	0	0	-0.0537907866795997	0.0340560995450022	0	0
0	0	-0.51584345646183	-0.703409335351576	0	0	-0.0401315951377269	-0.0464251230960911
3	0.0166372266695329	0.0235215834437318	0	0	0.816595038766053	0.498275581838767	0	0
0	0	-0.0112891822243189	0.0291026473340651	0	0	0.091495991456864	-0.921480905085494
0.816595038766053	0.498275581838767	0	0	-0.00704991076532196	-0.017781435001021	0	0
0	0	0.406890179476835	-0.761818745713091	0	0	0.0137989912124898	0.0859130450587189
3.1	-0.00818858895019466	-0.0278265076783932	0	0	0.518991062158294	-0.806785257746028	0	0
0	0	-0.0204868985059302	0.0120202441650373	0	0	0.449332505956707	0.807550760118995
0.518991062158294	-0.806785257746028	0	0	0.0385678429230691	-0.0646583003017921	0	0
0	0	-0.870599874266258	-0.0496932934595682	0	0	-0.0755866369926562	0.00626903989430059
3.2	-0.00131368575743952	0.0295911819504085	0	0	0.80547328272563	0.542633302096871	0	0
0	0	-0.0180042088737446	-0.00618297411649465	0	0	0.799681505556583	0.437201979307182
0.80547328272563	0.542633302096871	0	0	0.000641254362637492	0.0253851129722142	0	0
0	0	-0.338632417558148	-0.815008664385433	0	0	-0.0593916500578321	0.00697790844235598
3.3	0.0104826398642832	-0.027412738912635	0	0	0.553812150971419	-0.801519543467925	0	0
0	0	-0.00138853333454292	-0.0239588913013901	0	0	-0.9061879496097	0.0514121550216907
0.553812150971419	-0.801519543467925	0	0	0.0621936884547906	0.0243077058656232	0	0
0	0	-0.574797996721599	0.677174991695347	0	0	-0.0277024965348145	-0.107131787900388
3.4	-0.0180929597875796	0.0214936148588055	0	0	0.784975790182788	0.558262401006739	0	0
0	0	-0.00443070222979004	-0.0405736395372062	0	0	-0.732936893858203	0.544862281338297
0.784975790182788	0.558262401006739	0	0	-0.115207082910591	0.00913930683416265	0	0
0	0	-0.85818496190821	-0.221259801989083	0	0	-0.0197105896832179	-0.0397651698070748
3.5	0.0233937860098293	-0.0137054590362617	0	0	0.572519898600618	-0.775798921606915	0	0
0	0	0.00795486439501328	-0.0303740900962224	0	0	0.295742976480219	-0.870427082474029
0.572519898600618	-0.775798921606915	0	0	-0.0123586885479552	-0.0536739562063062	0	0
0	0	0.169529393945879	0.843669021106661	0	0	0.0848724103775555	-0.0729905981977062
3.6	-0.0253413131781383	0.00494692416995806	0	0	0.768560061287399	0.581945266891601	0	0
0	0	0.0196581310182414	0.00235850360447967	0	0	-0.212081823029721	-0.89429602678701
0.768560061287399	0.581945266891601	0	0	-0.0340552920249027	0.0606294436922125	0	0
0	0	-0.691821658090824	0.522455464645934	0	0	0.0446781677618916	-0.0318200458554136
3.7	0.023345543501918	0.00440357054117642	0	0	0.600652306163164	-0.74812997921723	0	0
0	0	0.0140419139397236	0.0361856046237853	0	0	0.641207673420622	0.646961373066101
0.600652306163164	-0.74812997921723	0	0	0.118334163731662	0.00676793159273289	0	0
0	0	0.771758964890751	0.407218256161296	0	0	0.0553824130535051	-0.0193822318161751
3.8	-0.0182794628497239	-0.0121350380039315	0	0	0.74153602840562	0.619014145968299	0	0
0	0	0.0153151409479849	0.0504596098380473	0	0	0.870924900490375	0.183766993253519
0.74153602840562	0.619014145968299	0	0	-0.0252119069404105	0.0209594915113312	0	0
0	0	-0.0132960857035891	0.870666878489486	0	0	-0.0583705051002724	-0.0249102642574521
3.9	0.0110301377361234	0.0169368952787078	0	0	0.623545047652671	-0.740321667849753	0	0
0	0	0.0111151082692572	0.0156246433634193	0	0	-0.821916267302356	0.32946324477676
0.623545047652671	-0.740321667849753	0	0	-0.0129846571186748	0.0831980951356916	0	0
0	0	0.780597507297187	-0.387138531645447	0	0	0.0247084197197313	-0.00583496949596465
4	-0.00226233572962166	-0.0184932237225587	0	0	0.722169437442903	0.631789141994774	0	0
0	0	-0.0168337220468815	-0.0122163751544651	0	0	-0.513069811670999	0.724533726737752
0.722169437442903	0.631789141994774	0	0	0.0504745457754392	-0.074200455852327	0	0
0	0	0.684052812683804	0.513122285387532	0	0	-0.00472782798561543	0.00953341782693706
4.1	-0.00575860501889984	0.0165685849530139	0	0	0.637403756675594	-0.708768318729827	0	0
0	0	-0.0417343292405848	-0.0352731403796953	0	0	0.052868202913532	-0.889756798539202
0.637403756675594	-0.708768318729827	0	0	0.024494059832354	-0.111460931487012	0	0
0	0	0.181557287813766	-0.826628742827426	0	0	0.0264703892100513	0.0814030437612452
4.2	0.012167660558535	-0.0118549390070771	0	0	0.703347563852353	0.648907091250628	0	0
0	0	-0.049123435540126	-0.0152681483780953	0	0	-0.433565633079416	-0.777796316720836
0.703347563852353	0.648907091250628	0	0	-0.0398528680044445	0.0164814594788274	0	0
0	0	0.828873189705648	-0.18560046914901	0	0	-0.011927837484957	-0.0411138522607444
4.3	-0.0158967194080588	0.00486495012056793	0	0	0.658022573435308	-0.696289952409032	0	0
0	0	-0.00759766929929753	0.00683859056326061	0	0	0.776597607872425	0.421746524039557
0.658022573435308	-0.696289952409032	0	0	-0.0108194376553849	0.0670075611202839	0	0
0	0	-0.533776541640811	-0.670938864501994	0	0	-0.0143781575291481	0.00241756187877619
4.4	0.0160648471568242	0.00332112343756399	0	0	0.679206086489963	0.668067120457966	0	0
0	0	0.0379197797717371	0.0043541636346267	0	0	0.885659140473031	-0.0541656948519635
0.679206086489963	0.668067120457966	0	0	0.00126258031250632	-0.0499515972167237	0	0
0	0	0.34441732157487	-0.770308996222624	0	0	-0.0334215608859764	0.00333928172667741
4.5	-0.0125649118621264	-0.0106721904242004	0	0	0.675145877090079	-0.660995769480076	0	0
0	0	0.0646194566742571	-0.00460115330569835	0	0	-0.720406488083748	0.521907197398875
0.675145877090079	-0.660995769480076	0	0	-0.0496840644772185	0.0263766868749246	0	0
0	0	-0.83310064907136	0.0113673664913742	0	0	-0.0856046688026528	0.0617467707398003
4.6	0.0060542895541567	0.0162177402834185	0	0	0.643151656388019	0.690360347776066	0	0
0	0	0.0467177516243611	-0.0250853911033971	0	0	-0.312785517107685	0.84244393204021
0.643151656388019	0.690360347776066	0	0	-0.0039905093691632	0.0137952688872689	0	0
0	0	-0.370634268263368	-0.743307037643369	0	0	-0.0797905554306011	-0.00968320148828701
4.7	0.00210549437674522	-0.0188152214416578	0	0	0.708164536139923	-0.636493220338572	0	0
0	0	-0.0243782142063281	-0.00548060100823026	0	0	-0.19011159369955	-0.872762279956396
0.708164536139923	-0.636493220338572	0	0	0.0653386131118057	-0.0175632665216029	0	0
0	0	-0.524037186713266	0.654310455279624	0	0	-0.0729985241738945	0.0718860663219938
4.8	-0.0107381457781854	0.0179668141707697	0	0	0.636918756436825	0.724550033107057	0	0
0	0	-0.0584507704349267	0.0342450417116219	0	0	-0.606110231476141	-0.634768220829602
0.636918756436825	0.724550033107057	0	0	0.0528153363815301	-0.0182923182357442	0	0
0	0	-0.826808134584044	-0.197595454284754	0	0	-0.00917550043401856	0.0715626588127448
4.9	0.0182633789861377	-0.0128129195807072	0	0	0.730727712190709	-0.629283030193222	0	0
0	0	-0.0396637551823209	0.0586387646058741	0	0	0.853932528107046	0.207384844535786
0.730727712190709	-0.629283030193222	0	0	-0.0808382621335452	-0.0289424962567778	0	0
0	0	0.198581422900264	0.821071337440097	0	0	-0.0834727038964879	0.00356781650955659
5	-0.0229483932469054	0.00465993792527511	0	0	0.618597855801733	0.726256372323556	0	0
0	0	-0.000401870147206384	0.0204217837440739	0	0	0.831067456105255	-0.298085720202539
0.618597855801733	0.726256372323556	0	0	-0.0477268671775226	0.0407991323181286	0	0
0	0	-0.645283302464788	0.533682958724877	0	0	0.0414318892755131	-0.00928168825530764
5.1	0.0244976908756881	0.00524725095313422	0	0	0.727540979948573	-0.606355372729478	0	0
0	0	0.0382124192826741	-0.0334062367864633	0	0	-0.533409773184708	0.695627250538055
0.727540979948573	-0.606355372729478	0	0	-0.0218227550053485	-0.0412656832703733	0	0
0	0	0.750046389865817	0.344936663355965	0	0	0.0724379016052091	-0.0198725883108757
5.2	-0.0221284912036938	-0.0162792980147075	0	0	0.584219436761391	0.745142246949625	0	0
0	0	0.0157145175941567	-0.0742866140462287	0	0	-0.0786194133499999	0.872004109470863
0.584219436761391	0.745142246949625	0	0	0.0381767167789094	0.022559322581157	0	0
0	0	0.0153256862180641	0.832595224950364	0	0	0.0265676202777963	0.0663289065603574
5.3	0.0158001721122141	0.0258352067385138	0	0	0.763539402995415	-0.57236759979542	0	0
0	0	-0.0145766463514338	-0.0413840245964908	0	0	-0.412498541040841	-0.771053544661457
0.763539402995415	-0.57236759979542	0	0	-0.0320705741434476	0.0249290240481224	0	0
0	0	0.743053618922907	-0.374528048450657	0	0	-0.0436281536538018	0.0119088049793841
5.4	-0.00659056727911304	-0.0318907435587879	0	0	0.564219792145757	0.768533148183204	0	0
0	0	-0.0316290921012243	0.0144770239997169	0	0	-0.76745011175133	-0.428052722362227
0.564219792145757	0.768533148183204	0	0	0.0705684591696501	0.0876359233582857	0	0
0	0	0.657601672616914	0.509704997597522	0	0	-0.00961949408070455	0.0218655426086664
5.5	-0.00427954779190638	0.0344108921764621	0	0	0.779250095222392	-0.561643488257071	0	0
0	0	0.0230611195367998	0.0598596882425099	0	0	0.877193175818534	-0.0447302836441231
0.779250095222392	-0.561643488257071	0	0	-0.00651525320656959	-0.0275643715797407	0	0
0	0	0.157415042067857	-0.81667752680018	0	0	0.0214877394643959	0.0385113597049442
5.6	0.0157830943044879	-0.0319143164734973	0	0	0.54758460206832	0.784763315552819	0	0
0	0	0.042361179057474	0.0564572811388145	0	0	0.697812005677334	-0.508381589389326
0.54758460206832	0.784763315552819	0	0	0.00186229616860407	-0.109311344549769	0	0
0	0	0.799487187296247	-0.202207624146374	0	0	0.0109996514662755	0.117476041895632
5.7	-0.0264544854596848	0.0252705955614535	0	0	0.797656807735331	-0.53910953752189	0	0
0	0	0.020805818949846	-0.00717138976358359	0	0	-0.317687709954106	0.807055383156073
0.797656807735331	-0.53910953752189	0	0	-0.011828754892384	0.0515824274947758	0	0
0	0	-0.535857262122788	-0.648547733069947	0	0	0.0585135556852707	0.0345228836935794
5.8	0.0333341150233277	-0.0146451140268943	0	0	0.521528429682717	0.797572548039747	0	0
0	0	-0.0217809892475676	-0.0315045086899725	0	0	0.155345180617201	0.853145853764521
0.521528429682717	0.797572548039747	0	0	0.0589704445608643	-0.0271999156814797	0	0
0	0	0.32388368208497	-0.770498057074182	0	0	0.0337966070373128	0.0554828110210865
5.9	-0.0365478411685964	0.00153961421777507	0	0	0.811296238205939	-0.49808467074402	0	0
0	0	-0.0558692412672714	-0.0268424345862573	0	0	-0.584877798291397	-0.637358420016179
0.811296238205939	-0.49808467074402	0	0	-0.0731071861961506	0.0435568805160804	0	0
0	0	-0.826475009325545	0.0596255355004802	0	0	0.0370992120896515	0.0723902524755977
6	0.0352967351571927	0.0113254262946962	0	0	0.48188581582866	0.82475604999304	0	0
0	0	-0.0337627141703888	0.00590332129187347	0	0	-0.847196627476188	-0.194880224512665
0.48188581582866	0.82475604999304	0	0	-0.0028544728219086	0.0239717450356918	0	0
