# GHZ S RI R 50
0.2	-0.0064633177769908	0.0121586835954715	0	0	0.957696920068153	0.0584783164806219	0	0
0	0	0.0189256652290224	0.00564879446980995	0	0	-0.370711171162554	0.91092271458745
0.957696920068153	0.0584783164806219	0	0	0.0207886945197134	0.0401042417915231	0	0
0	0	0.569834816623699	-0.753785682830155	0	0	0.00126964293592831	-0.0337155997978324
0.3	0.00656117277393836	-0.0106044724771909	0	0	0.0341871892115453	-0.96505675261393	0	0
0	0	-0.00593905747609342	0.00189354592005703	0	0	-0.133576459528428	-0.974186609615676
0.0341871892115453	-0.96505675261393	0	0	-0.0148837892678038	0.00322720294783949	0	0
0	0	-0.921804672356877	-0.202753963563468	0	0	-0.0334656544994168	-0.0187015244475046
0.4	-0.00889925207413473	0.00788049550496036	0	0	0.948531293318328	0.0630592626732991	0	0
0	0	-0.0393749658983852	0.00070772220590721	0	0	-0.666328199031816	-0.726524820433233
0.948531293318328	0.0630592626732991	0	0	-0.0350758566834719	-0.0146405962248882	0	0
0	0	-0.234185818933874	-0.896076521935689	0	0	0.020527722466086	0.0192175852833251
0.5	0.0118128374899536	-0.00430021014370183	0	0	0.129185856748767	-0.94892823229997	0	0
0	0	-0.0324744953193211	0.00445331514142571	0	0	0.963973994327936	0.208687329902118
0.129185856748767	-0.94892823229997	0	0	0.0359878410729112	0.0165711262621536	0	0
0	0	-0.679839428495497	0.635806494787586	0	0	0.00430657753357388	0.00750854569698399
0.6	-0.0129714121644198	0.00167054321626005	0	0	0.955452726224175	0.133205296070827	0	0
0	0	-0.00754883805238535	0.00576017265880646	0	0	0.914017463305046	-0.328005066862871
0.955452726224175	0.133205296070827	0	0	0.00467813695853167	-0.0197310807547605	0	0
0	0	-0.861946055896437	-0.346745025065278	0	0	-0.00571594397486348	-0.00721668385428674
0.7	0.0126279805969227	0.000464955488501094	0	0	0.111212300159582	-0.95866028666066	0	0
0	0	0.0235423026428559	-0.0110811942290999	0	0	-0.613632141345887	0.748101312289781
0.111212300159582	-0.95866028666066	0	0	0.00798304255562884	0.00977483572755706	0	0
0	0	0.0439689074444743	0.921753124339869	0	0	0.00228803631062732	-0.013090408529955
0.8	-0.011026996779017	-0.00335421720270745	0	0	0.95682763567623	0.116028588251736	0	0
0	0	0.0450628536582805	-0.0417149786897438	0	0	-0.122784381736318	0.962573682274487
0.95682763567623	0.116028588251736	0	0	-0.0227080629389711	0.0123233835899693	0	0
0	0	-0.814193686773404	0.447804653421292	0	0	0.00632281685942592	0.0833285051065776
0.9	0.00787942766181816	0.00628599617684697	0	0	0.147490157115963	-0.942463176831759	0	0
0	0	0.0138801262178913	-0.0274949877059692	0	0	-0.434019950232366	-0.869548572420777
0.147490157115963	-0.942463176831759	0	0	-0.00200965241250545	-0.0627871270152333	0	0
0	0	0.765307485528926	0.528254154831727	0	0	0.0362218304502848	0.0133521705968138
1	-0.00438522551507254	-0.00831911443296708	0	0	0.946029335642094	0.183984976206949	0	0
0	0	-0.01408285126383	0.0120581377139024	0	0	-0.840816060846535	-0.484606226546542
0.946029335642094	0.183984976206949	0	0	0.00201169852887188	0.0418440158452378	0	0
0	0	-0.12826708025111	0.905892730191298	0	0	0.00259668840503126	0.00148095235980818
1.1	0.00118866141218046	0.00862076788910632	0	0	0.203432283620344	-0.953775475985109	0	0
0	0	-0.0117051486498043	0.0351121172142434	0	0	0.960919578001291	-0.0503333957162314
0.203432283620344	-0.953775475985109	0	0	0.00259150685940835	0.00163745466005306	0	0
0	0	0.873324803993504	-0.260654801366845	0	0	0.00765844012889114	0.0432446181891548
1.2	0.00110361059663739	-0.00706271509147788	0	0	0.964089847388341	0.203788313966367	0	0
0	0	0.00832083561520505	0.0643763080794797	0	0	0.775253889652124	-0.557559268255817
0.964089847388341	0.203788313966367	0	0	0.0531221253346393	-0.000306181587538409	0	0
0	0	0.617092271097683	0.67511721328645	0	0	0.0058195686501585	0.101210231912162
1.3	-0.00276541381022105	0.00366197507040758	0	0	0.205528264094792	-0.948251248161219	0	0
0	0	0.015696459878963	0.0185153370677549	0	0	-0.356342283934404	0.888442388368141
0.205528264094792	-0.948251248161219	0	0	-0.0557599113098999	0.0011019262361745	0	0
0	0	0.32322349109744	-0.864318772422113	0	0	0.0395818339613611	0.0154878978208294
1.4	0.0034243519509463	0.000179031254253489	0	0	0.930122918975273	0.233004736318382	0	0
0	0	-0.0135901400704919	-0.0444135850179877	0	0	0.182249207669209	0.942261735465593
0.930122918975273	0.233004736318382	0	0	0.0165788434080665	0.00865319304927686	0	0
0	0	0.903652883483879	-0.08609040978998	0	0	0.0439975834885374	-0.00565410074448814
1.5	-0.00246625325837373	-0.00331224154268151	0	0	0.26970262681042	-0.928162122713625	0	0
0	0	-0.0383700213563516	-0.0571528683135751	0	0	-0.680120178474737	-0.677026754762503
0.26970262681042	-0.928162122713625	0	0	0.0325303112450106	-0.0327175955523047	0	0
0	0	-0.466021919580108	-0.770159632249302	0	0	0.0330685439454983	0.0535789536244966
1.6	0.000364475739397425	0.0052786429733912	0	0	0.94287157161325	0.292672844473695	0	0
0	0	-0.0362560838723349	-0.0205001859661589	0	0	-0.941899585058645	-0.181116710180664
0.94287157161325	0.292672844473695	0	0	-0.0525640556144666	-0.0261010810375814	0	0
0	0	0.496949058839555	-0.75929285345527	0	0	0.000919375943086252	0.0540976347915817
1.7	0.0021555960542456	-0.00554104672902474	0	0	0.286754306927344	-0.947710506012887	0	0
0	0	0.0157053646622251	0.00550166018931216	0	0	0.886665068567683	-0.348622545746443
0.286754306927344	-0.947710506012887	0	0	-0.00120635396794111	0.00587087408631646	0	0
0	0	-0.904252256672332	-0.107771003099107	0	0	0.039926202026127	-0.0300850968017883
1.8	-0.00453949486373688	0.00378471436033014	0	0	0.920981295560154	0.287489226254911	0	0
0	0	0.0457114654611418	0.0374085272797189	0	0	0.571551355366838	-0.750409481489481
0.920981295560154	0.287489226254911	0	0	0.00703407780240874	0.0658802629613208	0	0
0	0	-0.314793661139285	-0.850126853969405	0	0	0.0275299477368518	-0.033702666531828
1.9	0.00637183747652241	-0.000463816344119949	0	0	0.316617945283856	-0.896806235283549	0	0
0	0	0.0531219247918163	-0.00411696496815293	0	0	-0.0793648075234601	0.943336496714022
0.316617945283856	-0.896806235283549	0	0	0.00977262151988972	0.00916477092563649	0	0
0	0	-0.613188978018756	0.649338775831433	0	0	0.0414478500020966	0.0237475246364306
2	-0.00687145150854736	-0.00372743560741082	0	0	0.892947698273989	0.347016132543128	0	0
0	0	0.0154758841928138	-0.00504535317590001	0	0	0.460872051558478	0.83182513609852
0.892947698273989	0.347016132543128	0	0	-0.0501806431120402	-0.0327621653717719	0	0
0	0	-0.845938049379152	-0.260825979605253	0	0	-0.0530920148189107	-0.0205704524466337
2.1	0.00566758193662644	0.0079159535407948	0	0	0.362145237064742	-0.898935024580866	0	0
0	0	-0.0288414190649315	0.00805613138149398	0	0	-0.831517377898109	-0.449558276824584
0.362145237064742	-0.898935024580866	0	0	0.070607569824341	0.0161525413373497	0	0
0	0	0.138029465611076	0.878875690696506	0	0	-0.00491271802829786	0.00994993577158031
2.2	-0.00224386572752227	-0.0114171330265082	0	0	0.898801720472946	0.374574978470641	0	0
0	0	-0.0479395032649862	0.0175566827303662	0	0	-0.931698299083337	0.0706257720473828
0.898801720472946	0.374574978470641	0	0	0.014558269980135	-0.0107590904584304	0	0
0	0	-0.735748081797308	0.507507324591871	0	0	0.0425512306008935	-0.0111643546275299
2.3	-0.00306882249786106	0.0132855747319676	0	0	0.385095929941134	-0.889369801130656	0	0
0	0	-0.0303835308854563	0.0196708107224111	0	0	0.735680448546899	-0.556196460095624
0.385095929941134	-0.889369801130656	0	0	0.0578944892442696	-0.0287403113348915	0	0
0	0	0.776332901898365	0.431094769146228	0	0	0.0669341449023828	0.0466642840943289
2.4	0.00942615691767774	-0.0130942220374553	0	0	0.877729176842175	0.397630755722081	0	0
0	0	-0.000560989937857219	0.00128809972412575	0	0	0.323728834303438	-0.867940788548839
0.877729176842175	0.397630755722081	0	0	-0.0967319756985462	0.0141156162339375	0	0
0	0	-0.038688734113925	0.882411757164272	0	0	0.0473373984954238	-0.0489246794722379
2.5	-0.0159743106413959	0.0104870060163649	0	0	0.415287460136481	-0.866454464539896	0	0
0	0	0.0192305458729118	-0.0359468312630099	0	0	0.189553726594356	0.917776171276802
0.415287460136481	-0.866454464539896	0	0	-0.0100381371807828	-0.0269511076997262	0	0
0	0	0.805142798287724	-0.332306661425816	0	0	0.0130106481146826	-0.000570820469381143
2.6	0.021402590315249	-0.00570222161634524	0	0	0.859906223620205	0.429941358028817	0	0
0	0	0.0180594377602146	-0.0388598131462186	0	0	0.667591258783669	0.654204688533792
0.859906223620205	0.429941358028817	0	0	0.00572293315808212	-0.0334845519886326	0	0
0	0	0.630974827340581	0.597825240609153	0	0	0.0631457759208957	0.0101989258079655
2.7	-0.0248891460800529	-0.000998086105364558	0	0	0.444947584727906	-0.854631357457643	0	0
0	0	0.0213377603300207	-0.00974929572028067	0	0	-0.898870644616776	-0.174655819140385
0.444947584727906	-0.854631357457643	0	0	0.00342412801930831	-0.0130314865094425	0	0
0	0	0.276474903657564	-0.836724854762235	0	0	-0.0269629085653912	-0.00100783245021319
2.8	0.0254169374918792	0.00869829378721537	0	0	0.844999100426927	0.458657403704783	0	0
0	0	0.009738090938353	0.0123418926970848	0	0	-0.844275796566297	0.313208467044219
0.844999100426927	0.458657403704783	0	0	0.00425047774837156	0.0640272908451894	0	0
0	0	0.873652223309248	-0.150419486396811	0	0	0.0267387399772223	-0.0642406069054117
2.9	-0.0223420136731599	-0.0163989401280371	0	0	0.474818448269147	-0.826830973417141	0	0
0	0	-0.000172085513795089	0.0362786594257072	0	0	0.568896936006536	-0.703086738050821
0.474818448269147	-0.826830973417141	0	0	-0.0537275956582402	0.0342119832936276	0	0
0	0	-0.51701148154723	-0.704712150883479	0	0	-0.0400497577198353	-0.0465920701630072
3	0.0164156095049046	0.0232607865283148	0	0	0.818878255184816	0.498929818341008	0	0
0	0	-0.0110054428668053	0.0291908208706495	0	0	0.0910804082677709	-0.923723406301351
0.818878255184816	0.498929818341008	0	0	-0.00688383009022446	-0.017899673839413	0	0
0	0	0.407330163068338	-0.763899888038197	0	0	0.0142000956160889	0.086257507121899
3.1	-0.0078590238320612	-0.0275470543567418	0	0	0.51937398606579	-0.809553923044312	0	0
0	0	-0.0201903731645566	0.0122486240809255	0	0	0.451569116375481	0.809136967824464
0.51937398606579	-0.809553923044312	0	0	0.0387461177184244	-0.0651547133264299	0	0
0	0	-0.872993752414148	-0.0487116565956408	0	0	-0.0758242143858882	0.00643665150346032
3.2	-0.00173561481538974	0.0293697295353364	0	0	0.808725645504837	0.542520901404496	0	0
0	0	-0.0177714406913303	-0.00585085622507073	0	0	0.802738917358284	0.43681900719989
0.808725645504837	0.542520901404496	0	0	0.000812202363313114	0.0254524532192881	0	0
0	0	-0.341172964995625	-0.816573534850558	0	0	-0.0596169063155573	0.00718525539678194
3.3	0.0109174206865519	-0.0272847754653201	0	0	0.553089550148466	-0.805046879295026	0	0
0	0	-0.00128134953189676	-0.023588375966644	0	0	-0.908438709258577	0.053960521244596
0.553089550148466	-0.805046879295026	0	0	0.0626586937476214	0.0240542410673005	0	0
0	0	-0.574509382232202	0.680489748021825	0	0	-0.0284079880467259	-0.107581998098811
3.4	-0.0184729255833945	0.0214162156293752	0	0	0.788654699829391	0.556833870291929	0	0
0	0	-0.00448133502456741	-0.0402345947520057	0	0	-0.732747943182051	0.54856104810345
0.788654699829391	0.556833870291929	0	0	-0.115662904536674	0.00995208683636404	0	0
0	0	-0.86086251822148	-0.218862414467669	0	0	-0.0200775460442281	-0.0398167587545704
3.5	0.023737873495112	-0.0136113469217006	0	0	0.570418609920792	-0.779387257235681	0	0
0	0	0.00776353775192923	-0.0301381049698486	0	0	0.292829192277375	-0.873052106144878
0.570418609920792	-0.779387257235681	0	0	-0.0128129522584754	-0.0537407245320784	0	0
0	0	0.173121813139718	0.844425254855441	0	0	0.0845821612990672	-0.0738917282158095
3.6	-0.0257028992721099	0.00485626739605918	0	0	0.771867181156059	0.579105320569803	0	0
0	0	0.0193547204641816	0.00247869938977406	0	0	-0.216191331582	-0.894234309398504
0.771867181156059	0.579105320569803	0	0	-0.0335560817524598	0.0610633748851663	0	0
0	0	-0.690209158980001	0.525980901515067	0	0	0.0445027055269554	-0.0322574183632572
3.7	0.0237209738659918	0.00446131992873016	0	0	0.597316942508302	-0.75098160374907	0	0
0	0	0.0137088663237938	0.0361688358063696	0	0	0.64427057054491	0.644119797928894
0.597316942508302	-0.75098160374907	0	0	0.118467027622652	0.00569743246744632	0	0
0	0	0.773742566581122	0.403741914210932	0	0	0.0552496653012757	-0.0198916358402515
3.8	-0.0186287852505745	-0.0121265036250347	0	0	0.743883574391451	0.61515990120248	0	0
0	0	0.0150386811755201	0.0503585583854828	0	0	0.871180875041758	0.179613231531246
0.743883574391451	0.61515990120248	0	0	-0.0249550927175109	0.0211685739062697	0	0
0	0	-0.00925979031269714	0.870134524285197	0	0	-0.0584918948688706	-0.0243433795000427
3.9	0.0112967310128057	0.0168907380790417	0	0	0.619353921628854	-0.741928740149702	0	0
0	0	0.0109427096210089	0.0154787275223067	0	0	-0.819242805284082	0.3325597883866
0.619353921628854	-0.741928740149702	0	0	-0.0122098758726709	0.0830520714490246	0	0
0	0	0.777734078901815	-0.389967954259084	0	0	0.0245954806250017	-0.00605222122793179
4	-0.00245183134156332	-0.0184830026162702	0	0	0.723067729869095	0.627567194976064	0	0
0	0	-0.016871807188765	-0.0123724988142381	0	0	-0.509075746984034	0.724951466910395
0.723067729869095	0.627567194976064	0	0	0.0496571819142166	-0.0742916469582362	0	0
0	0	0.684560462338679	0.50928773773122	0	0	-0.0046373525399044	0.00949801989447063
4.1	-0.00559047474203025	0.0166110483796615	0	0	0.633298797363493	-0.708947999409932	0	0
0	0	-0.0416462962713194	-0.0353988456714949	0	0	0.0497460223361574	-0.887455159360327
0.633298797363493	-0.708947999409932	0	0	0.0235922518900459	-0.111039357570072	0	0
0	0	0.178287715345281	-0.824933220088803	0	0	0.0268458660279278	0.0807381472670493
4.2	0.0119871893380009	-0.0119172223828809	0	0	0.702876241505104	0.645029366126857	0	0
0	0	-0.0489643784366399	-0.0153294423958793	0	0	-0.434262723555379	-0.774230784057618
0.702876241505104	0.645029366126857	0	0	-0.0395453623769425	0.0165725686197032	0	0
0	0	0.82580146178735	-0.187204784705875	0	0	-0.0120956503692254	-0.0408226672017983
4.3	-0.0157267211336182	0.00491211012212272	0	0	0.65455735458142	-0.695258946412189	0	0
0	0	-0.00744972944154582	0.00685456320296026	0	0	0.774865755818251	0.418916829092066
0.65455735458142	-0.695258946412189	0	0	-0.0104961679777512	0.0665938302183474	0	0
0	0	-0.533302051297171	-0.667755392192363	0	0	-0.0142870855256886	0.00245259809041455
4.4	0.015946409600592	0.00326916576856437	0	0	0.677824754763109	0.665176074165582	0	0
0	0	0.0379954625930383	0.00443009340609274	0	0	0.882799819513293	-0.0550135767916986
0.677824754763109	0.665176074165582	0	0	0.00117331217417482	-0.0496314810826234	0	0
0	0	0.342443382251937	-0.768272529196323	0	0	-0.0331811127952006	0.00341764741311432
4.5	-0.0124942177550161	-0.0105706738568977	0	0	0.672872077469197	-0.659443778205263	0	0
0	0	0.0645837611153357	-0.00449547909078771	0	0	-0.718075363369073	0.52079304446945
0.672872077469197	-0.659443778205263	0	0	-0.0492981689826982	0.0262913330408617	0	0
0	0	-0.830714649544633	0.0117707082908715	0	0	-0.0849843938742152	0.0615178631427107
4.6	0.00598528045386498	0.0160443124518074	0	0	0.641617225541743	0.68869807756216	0	0
0	0	0.0465831574603282	-0.0249856395760812	0	0	-0.31201688387095	0.840443319363399
0.641617225541743	0.68869807756216	0	0	-0.00387808541453533	0.0137329727132292	0	0
0	0	-0.369770422991786	-0.741524422859125	0	0	-0.0793074581411417	-0.0096144647051122
4.7	0.00221837431047001	-0.018595865205145	0	0	0.707063639943623	-0.635119762890768	0	0
0	0	-0.0245883560921843	-0.00544095366421787	0	0	-0.189553701500893	-0.871227983319924
0.707063639943623	-0.635119762890768	0	0	0.065227609778041	-0.0174983371488806	0	0
0	0	-0.52324810767651	0.652997097060469	0	0	-0.0726426909649978	0.0715697994709295
4.8	-0.0109065068338257	0.0177604752292727	0	0	0.635905510224149	0.723921118783936	0	0
0	0	-0.0586614778619636	0.0342051047626044	0	0	-0.605174218881078	-0.634209527847491
0.635905510224149	0.723921118783936	0	0	0.0528120422028625	-0.0182466887793982	0	0
0	0	-0.825752987655598	-0.197633219696003	0	0	-0.00909512448466103	0.0713493375389459
4.9	0.018425093047675	-0.0126240767160851	0	0	0.730428725062493	-0.62881762736152	0	0
0	0	-0.0398202639189122	0.0585084977573944	0	0	0.853419847878962	0.207402200304574
0.730428725062493	-0.62881762736152	0	0	-0.0806304222291471	-0.0289938194065208	0	0
0	0	0.198340957100305	0.820640821524304	0	0	-0.0832738623885941	0.00347372901461647
5	-0.0230925657482933	0.00445636719647291	0	0	0.618727908245981	0.726066258879139	0	0
0	0	-0.000460656657688743	0.0202208709751126	0	0	0.830937962396134	-0.298231827684224
0.618727908245981	0.726066258879139	0	0	-0.0476074260496785	0.0407487277874768	0	0
0	0	-0.645120712844751	0.533771564982549	0	0	0.0415156388371389	-0.00937330257699423
5.1	0.0246644189822785	0.00547388052941529	0	0	0.727268125538206	-0.607091470488888	0	0
0	0	0.0382604621773725	-0.0336269236836025	0	0	-0.533009826403312	0.696198159365321
0.727268125538206	-0.607091470488888	0	0	-0.0218340837712099	-0.0413273539235225	0	0
0	0	0.750487384910358	0.344450365097591	0	0	0.072509330584175	-0.0200786056555727
5.2	-0.02232985488254	-0.0164894283154614	0	0	0.585504981114683	0.744547138875681	0	0
0	0	0.0158440547262403	-0.0744745096314484	0	0	-0.0773750448961853	0.872404356453812
0.585504981114683	0.744547138875681	0	0	0.0382872166508766	0.0223833795271253	0	0
0	0	0.0165434364358704	0.832845721612469	0	0	0.0267975880781962	0.0662069636387383
5.3	0.0160055371885064	0.0259913845020478	0	0	0.762437944033828	-0.574137046457963	0	0
0	0	-0.0144107735349503	-0.0414944322641254	0	0	-0.414254253302598	-0.770309507295064
0.762437944033828	-0.574137046457963	0	0	-0.0319986286600518	0.0249968123863817	0	0
0	0	0.742386530448861	-0.376215477967555	0	0	-0.0436217235289064	0.0120195168977935
5.4	-0.00675046848365833	-0.0320118403204922	0	0	0.566230938817146	0.766763372674175	0	0
0	0	-0.0314654373560594	0.0144725083789399	0	0	-0.768483682206504	-0.425799875876459
0.566230938817146	0.766763372674175	0	0	0.0709851366838141	0.0871271315367627	0	0
0	0	0.658889183357823	0.507742939025866	0	0	-0.00954226273894331	0.0218439992358429
5.5	-0.00415659496404008	0.0345544586417462	0	0	0.776723623050053	-0.56373978209175	0	0
0	0	0.0231857749281218	0.059959596907237	0	0	0.876281795833187	-0.0475990590757595
0.776723623050053	-0.56373978209175	0	0	-0.00671374659769791	-0.027532233734551	0	0
0	0	0.154571006445115	-0.816488856126472	0	0	0.0216678929325519	0.0382510253918399
5.6	0.0156518439112143	-0.0320960534747533	0	0	0.549500286362574	0.78150212507809	0	0
0	0	0.0424189072260842	0.0566315015604071	0	0	0.694782528860988	-0.510045550061906
0.549500286362574	0.78150212507809	0	0	0.00106771998178066	-0.109018014876941	0	0
0	0	0.797394295054012	-0.204760919017942	0	0	0.0118013815652333	0.116945189801707
5.7	-0.0262913510968335	0.0254392705346366	0	0	0.793619885410458	-0.540635199626468	0	0
0	0	0.0207967261700677	-0.00697604829247864	0	0	-0.313924157465787	0.806114253143525
0.793619885410458	-0.540635199626468	0	0	-0.0113476674176141	0.0513068256246235	0	0
0	0	-0.536825397085097	-0.64491147796828	0	0	0.0584962192849052	0.0338186065837983
5.8	0.0331564064874127	-0.0147704597259607	0	0	0.522426699283631	0.793008758699419	0	0
0	0	-0.0218447230518348	-0.0313352151965927	0	0	0.157711066127627	0.849611387223955
0.522426699283631	0.793008758699419	0	0	0.0583955223416472	-0.0275229983056491	0	0
0	0	0.320112532068902	-0.768890831406228	0	0	0.0339557395987354	0.0547436067468555
5.9	-0.0364031016112213	0.00161464100671549	0	0	0.806296613477853	-0.498304576670871	0	0
0	0	-0.0559551649303486	-0.0267422860895646	0	0	-0.584182900312297	-0.632866662458989
0.806296613477853	-0.498304576670871	0	0	-0.0722480649528474	0.0434894697137992	0	0
0	0	-0.822690173295418	0.0617774287858645	0	0	0.0371676043059161	0.0714172383561995
6	0.0352180271905215	0.0112746341568849	0	0	0.481268539554798	0.81952469017266	0	0
0	0	-0.0338353512536442	0.005920051482978	0	0	-0.843336678173664	-0.192020153787214
0.481268539554798	0.81952469017266	0	0	-0.00281676326828049	0.0236425548774882	0	0
