# GHZ S RI R 50
0.2	-0.00620853923125844	0.00697144504234342	0	0	0.958239392769546	0.0577020558986454	0	0
0	0	0.0232220967622591	0.00264730956977278	0	0	-0.370111124638314	0.911281052662302
0.958239392769546	0.0577020558986454	0	0	0.0215058264962738	0.0474162587599996	0	0
0	0	0.56936656019274	-0.754267007551529	0	0	0.00186042564070407	-0.0264206944442319
0.3	0.00733137433880828	-0.00860074904223894	0	0	0.0329171802981597	-0.96538210230975	0	0
0	0	-0.00393806287080559	0.001145438485892	0	0	-0.134844925293459	-0.974272353470626
0.0329171802981597	-0.96538210230975	0	0	-0.0124441105589782	0.0077008509909391	0	0
0	0	-0.922302573934154	-0.201639818878158	0	0	-0.0310944093217649	-0.0141924959122225
0.4	-0.00859398748071405	0.00786596698110777	0	0	0.948666292457166	0.0610777205522939	0	0
0	0	-0.0394946100159866	0.0009929132681922	0	0	-0.667855071294939	-0.725155994726369
0.948666292457166	0.0610777205522939	0	0	-0.0324679468540707	-0.0124090210276068	0	0
0	0	-0.23605516833659	-0.895610544474283	0	0	0.023276483994141	0.0212191157943489
0.5	0.0100179238435291	-0.00494062932528624	0	0	0.126500489520196	-0.948859510576413	0	0
0	0	-0.0341804098945388	0.00531209849813587	0	0	0.964062246815625	0.205890733617497
0.126500489520196	-0.948859510576413	0	0	0.0379949129662824	0.0169275131715141	0	0
0	0	-0.677717016848643	0.637377520055943	0	0	0.00629361217764176	0.00805228426417916
0.6	-0.0100200600696679	0.00159848214266949	0	0	0.954623031916488	0.129721279396144	0	0
0	0	-0.010314359592255	0.00650576699767783	0	0	0.911648645922139	-0.330672253005852
0.954623031916488	0.129721279396144	0	0	0.00544982700642263	-0.0196889560387021	0	0
0	0	-0.86194878022325	-0.343332122412607	0	0	-0.00482961124889283	-0.00713483094217934
0.7	0.00968209699739685	0.00195131309491431	0	0	0.107378804398495	-0.956815463849356	0	0
0	0	0.0203835330545167	-0.0108959675757746	0	0	-0.609323416763545	0.748603354901824
0.107378804398495	-0.956815463849356	0	0	0.00815561309702061	0.00992257584320245	0	0
0	0	0.047339308830489	0.919353880862658	0	0	0.00231628479117508	-0.0127873591623174
0.8	-0.00903783834312885	-0.00561874464923618	0	0	0.953815241181958	0.112100860550321	0	0
0	0	0.0421522099931454	-0.0420198327313576	0	0	-0.118866438700699	0.959800741913471
0.953815241181958	0.112100860550321	0	0	-0.0225128739357813	0.0132709283548868	0	0
0	0	-0.80983819662729	0.449273052921454	0	0	0.00683101235669856	0.0835767596398962
0.9	0.00697667138005201	0.00828073249935373	0	0	0.143534557966821	-0.938278702715441	0	0
0	0	0.0117757392632516	-0.0280457053326815	0	0	-0.434974453992917	-0.863875503835911
0.143534557966821	-0.938278702715441	0	0	-0.00205499687626399	-0.0607672185983828	0	0
0	0	0.763487349293783	0.523059176083606	0	0	0.036322281373103	0.0143733306858823
1	-0.00407249765197087	-0.00942400780278147	0	0	0.940928817365003	0.180352580503203	0	0
0	0	-0.0150233763518687	0.0114917360640561	0	0	-0.837092906294141	-0.479450324944189
0.940928817365003	0.180352580503203	0	0	0.00337433458941673	0.0428009629247507	0	0
0	0	-0.125066080369242	0.900823047442562	0	0	0.00372744162979429	0.00290857195234466
1.1	0.000677423461557658	0.00866464982024867	0	0	0.200496290161893	-0.947540413106222	0	0
0	0	-0.0114290905620021	0.0348001765123389	0	0	0.954186961705487	-0.0515286724204712
0.200496290161893	-0.947540413106222	0	0	0.00452197494684983	0.00257832428287789	0	0
0	0	0.866860666198171	-0.260253454596712	0	0	0.00962686086199194	0.0435507257290905
1.2	0.0024895940268595	-0.00656745935123878	0	0	0.957008702801044	0.202009218205868	0	0
0	0	0.00952529557591675	0.0646011085694976	0	0	0.769290868010852	-0.553468729317099
0.957008702801044	0.202009218205868	0	0	0.0547022266749107	-0.000202271152861568	0	0
0	0	0.612534171166281	0.669902264346249	0	0	0.00813413410543283	0.0996992957885839
1.3	-0.00480467836001259	0.00337024012102928	0	0	0.205107666694459	-0.940579782358028	0	0
0	0	0.0172586600499085	0.0193956144616435	0	0	-0.354630156869958	0.88112256907961
0.205107666694459	-0.940579782358028	0	0	-0.0525520460377408	0.000387969389366367	0	0
0	0	0.321739842712245	-0.85722552217515	0	0	0.0412680297855447	0.014589702460785
1.4	0.00557241810941554	0.000262395836401008	0	0	0.922500320944948	0.233809497520336	0	0
0	0	-0.0123362197434355	-0.0429225592993925	0	0	0.17837265458362	0.935626973650593
0.922500320944948	0.233809497520336	0	0	0.0183547413638675	0.00771637510542583	0	0
0	0	0.897054686432319	-0.0830427092980938	0	0	0.045462610920943	-0.00639878569949272
1.5	-0.00471123827419016	-0.00316958386025088	0	0	0.271596519415174	-0.920612981554081	0	0
0	0	-0.0376021736387701	-0.055276338561734	0	0	-0.672603642193811	-0.675231379832481
0.271596519415174	-0.920612981554081	0	0	0.0340584747363897	-0.033156914840088	0	0
0	0	-0.459585293533755	-0.766825149722332	0	0	0.03390346820895	0.0518976033471059
1.6	0.00263467817738478	0.00459186693677163	0	0	0.935512908423344	0.295993245977784	0	0
0	0	-0.0360193310963201	-0.0184008492429401	0	0	-0.935352110564791	-0.18517732977594
0.935512908423344	0.295993245977784	0	0	-0.0505350467372451	-0.027732290991756	0	0
0	0	0.498150435138419	-0.752103358447957	0	0	0.00143564426037189	0.0520385786631619
1.7	0.000377591930540598	-0.00431496188752124	0	0	0.291326517507193	-0.941471063685649	0	0
0	0	0.0154577462012087	0.00739143991205168	0	0	0.884594087626888	-0.341539289170647
0.291326517507193	-0.941471063685649	0	0	-0.000795513701584998	0.00445053897231802	0	0
0	0	-0.899303072717981	-0.112797097072983	0	0	0.0403922026752582	-0.0306994076552136
1.8	-0.00346729098204915	0.0025681583484571	0	0	0.916195818797705	0.292739807466847	0	0
0	0	0.0450998963106213	0.0387396982072863	0	0	0.574645025211446	-0.744144354328978
0.916195818797705	0.292739807466847	0	0	0.00612814467042298	0.0644712693947781	0	0
0	0	-0.308116641002202	-0.8494125435921	0	0	0.0277903981270845	-0.0342255508315157
1.9	0.00564003588857699	0.000346695585338404	0	0	0.322028915871389	-0.893174028407449	0	0
0	0	0.0523198481615636	-0.00351331709265216	0	0	-0.0854734501864737	0.941210542631464
0.322028915871389	-0.893174028407449	0	0	0.00942736849876185	0.00854987045779758	0	0
0	0	-0.616446032333527	0.644178664557181	0	0	0.0407814134869875	0.0234780574983412
2	-0.00611219890991717	-0.00415831029494591	0	0	0.890468130245288	0.352417778596919	0	0
0	0	0.0146807268416296	-0.00516448062788002	0	0	0.455535201410784	0.834387541971272
0.890468130245288	0.352417778596919	0	0	-0.0498986125425393	-0.0337926459911497	0	0
0	0	-0.844010126128266	-0.265988676072397	0	0	-0.0529724634992843	-0.0216651247926467
2.1	0.00468376299082991	0.00824367970432246	0	0	0.367123943079937	-0.897815530333994	0	0
0	0	-0.0294685268294719	0.00734127149476857	0	0	-0.829818853012243	-0.454316589810655
0.367123943079937	-0.897815530333994	0	0	0.0705106291674907	0.0165593478694997	0	0
0	0	0.133498913300503	0.880319728451206	0	0	-0.00508048142218164	0.00955093566169464
2.2	-0.00115797962052739	-0.0119368817961276	0	0	0.89865242546519	0.378763821572102	0	0
0	0	-0.0482915742708332	0.0165213370290577	0	0	-0.933423470161321	0.0670015864701334
0.89865242546519	0.378763821572102	0	0	0.0146827367733846	-0.0111308146076481	0	0
0	0	-0.738920618924234	0.505344592844338	0	0	0.0427512601206448	-0.0113007414735942
2.3	-0.00391975204781763	0.0140167441135817	0	0	0.388096003616216	-0.88989821156555	0	0
0	0	-0.0304647913832574	0.0186559095323797	0	0	0.738505206151403	-0.555295609833911
0.388096003616216	-0.88989821156555	0	0	0.0581106182289325	-0.0291290713020601	0	0
0	0	0.776640134748477	0.433932930390481	0	0	0.0667680346406568	0.0466196572248532
2.4	0.00987895009755359	-0.0137738539566314	0	0	0.878508558867234	0.399508744237931	0	0
0	0	-0.000437072544999876	0.000564528717798976	0	0	0.325363454524843	-0.868770686514815
0.878508558867234	0.399508744237931	0	0	-0.097480611226845	0.0132858699653691	0	0
0	0	-0.0399277136263992	0.88364474880236	0	0	0.0471685403562798	-0.0495593261088881
2.5	-0.0161654995739261	0.0108005785683323	0	0	0.41579151088607	-0.867005008278973	0	0
0	0	0.0194569511723414	-0.0362101739851538	0	0	0.189487374453197	0.918506287179524
0.41579151088607	-0.867005008278973	0	0	-0.0106903556802397	-0.0274726110642635	0	0
0	0	0.805820983877092	-0.332372741621356	0	0	0.0123321271558158	-0.00106687931695057
2.6	0.0216448582669978	-0.0056270895254107	0	0	0.859811158934233	0.429274298153193	0	0
0	0	0.018226761191001	-0.0386716042980396	0	0	0.667701587792259	0.653574127170229
0.859811158934233	0.429274298153193	0	0	0.00490517214441728	-0.0337254123744842	0	0
0	0	0.631067535383873	0.59723721478558	0	0	0.062274811769179	0.00982257059643368
2.7	-0.0253288978847258	-0.00125711344197331	0	0	0.443387275288603	-0.853489139737158	0	0
0	0	0.0213132720775231	-0.00928931088914193	0	0	-0.897377340269781	-0.17356001209057
0.443387275288603	-0.853489139737158	0	0	0.00259637639003961	-0.0130546830541736	0	0
0	0	0.275246530457381	-0.835433162545692	0	0	-0.0277091157418861	-0.00106411795230674
2.8	0.0259626249193678	0.00901016562121244	0	0	0.842516227807716	0.4566273806501	0	0
0	0	0.00944068172281709	0.0128148138086437	0	0	-0.841255065747938	0.31275809565499
0.842516227807716	0.4566273806501	0	0	0.00354290770320597	0.0636690084151571	0	0
0	0	0.870647592786289	-0.150529913584086	0	0	0.0256779334058968	-0.0638217987611643
2.9	-0.0229241172753614	-0.0168311038870798	0	0	0.472687428856547	-0.822826309200359	0	0
0	0	-0.000769204180716018	0.0365266371010325	0	0	0.566252607658845	-0.699690964941157
0.472687428856547	-0.822826309200359	0	0	-0.0538975298982015	0.034025046358616	0	0
0	0	-0.514488979960029	-0.70140509482698	0	0	-0.0403368451249715	-0.0460134092196194
3	0.0171612368971178	0.0238415332290875	0	0	0.813370597978522	0.497104908311054	0	0
0	0	-0.0118237964089858	0.0291032330149345	0	0	0.09187588121315	-0.918231930371134
0.813370597978522	0.497104908311054	0	0	-0.00729349336918208	-0.0174962614616702	0	0
0	0	0.406061157574713	-0.758882650767093	0	0	0.0132529824944349	0.0855252525785821
3.1	-0.00889705384219878	-0.0281126013456472	0	0	0.518314896218083	-0.802664914852296	0	0
0	0	-0.0211021320114792	0.011801910983378	0	0	0.446039137351198	0.805125659386391
0.518314896218083	-0.802664914852296	0	0	0.0383205889229338	-0.0638471373879735	0	0
0	0	-0.867003643413395	-0.0510935665855065	0	0	-0.0751945873584516	0.00611314799546587
3.2	-0.000488800362346791	0.0297371440559262	0	0	0.800518958219243	0.542859930249101	0	0
0	0	-0.0185517203764202	-0.00660998311922911	0	0	0.795016287342736	0.437847530520161
0.800518958219243	0.542859930249101	0	0	0.00040988872319488	0.02530728811452	0	0
0	0	-0.334718765619575	-0.812667066748652	0	0	-0.059021275263211	0.00669045744086835
3.3	0.00968665077671097	-0.0274028625758725	0	0	0.555123026757679	-0.796065360127797	0	0
0	0	-0.00174054349133067	-0.0245130590372107	0	0	-0.90280327674297	0.0472924031152704
0.555123026757679	-0.796065360127797	0	0	0.0614942071623523	0.0247201894919876	0	0
0	0	-0.575435881935722	0.67199633530446	0	0	-0.0265658793503398	-0.106463212494035
3.4	-0.0174058074902631	0.0214301917975487	0	0	0.779255220973224	0.560888421587946	0	0
0	0	-0.00450443218968188	-0.0411593843493069	0	0	-0.733569971009802	0.538979097111253
0.779255220973224	0.560888421587946	0	0	-0.114562018711106	0.00780356148835636	0	0
0	0	-0.854128804250313	-0.225324118394718	0	0	-0.019127194160157	-0.0397167233148184
3.5	0.0227560909729685	-0.0136753027342203	0	0	0.576381730365309	-0.770220423605077	0	0
0	0	0.00815323671739293	-0.0308691644738756	0	0	0.300799627268468	-0.866499202260236
0.576381730365309	-0.770220423605077	0	0	-0.011622516968104	-0.0536191777600161	0	0
0	0	0.163589923393773	0.842864791521188	0	0	0.0854333421974411	-0.0715607700531026
3.6	-0.0246712608326407	0.00489079403265302	0	0	0.763529512080794	0.587188514424911	0	0
0	0	0.0201012111102603	0.00199571375482507	0	0	-0.205259362307143	-0.895035726477965
0.763529512080794	0.587188514424911	0	0	-0.0349597382725336	0.0599945161299258	0	0
0	0	-0.69504897303539	0.516844435825171	0	0	0.0450235330452992	-0.0311061784937454
3.7	0.022680754851555	0.00453081847424494	0	0	0.606862745641045	-0.743937402641463	0	0
0	0	0.0145987167284693	0.0360293735189314	0	0	0.636551050939485	0.652383926967255
0.606862745641045	-0.743937402641463	0	0	0.11830706635814	0.00862139194746708	0	0
0	0	0.769059704570947	0.413511006902493	0	0	0.0557007874415268	-0.0185266269033614
3.8	-0.0177057240519221	-0.0123559570008477	0	0	0.738394289294803	0.62627694233834	0	0
0	0	0.0158185433987158	0.0504719403430119	0	0	0.871482054664223	0.191053150160503
0.738394289294803	0.62627694233834	0	0	-0.0256955261425594	0.0206608285763748	0	0
0	0	-0.0201877068086833	0.872566779166191	0	0	-0.0582811537344522	-0.0259179396098246
3.9	0.0106159757844939	0.0171621824768233	0	0	0.631459868563004	-0.738699842898071	0	0
0	0	0.0114678038438467	0.0157719215635102	0	0	-0.827574777964719	0.324734225306442
0.631459868563004	-0.738699842898071	0	0	-0.0143057835659696	0.0836812798343814	0	0
0	0	0.786516074100843	-0.382940070485564	0	0	0.0249855008922107	-0.00547642976480004
4	-0.00194127694702626	-0.0186070508790877	0	0	0.722031968604616	0.639783989516479	0	0
0	0	-0.0166996554077833	-0.0119702840475296	0	0	-0.520479972493926	0.725183261703348
0.722031968604616	0.639783989516479	0	0	0.0520172236392558	-0.074318098990577	0	0
0	0	0.684482577529682	0.520274102700442	0	0	-0.00486587297331218	0.00962596648962109
4.1	-0.00609189079036497	0.0165908518450752	0	0	0.645107226235503	-0.710176669030295	0	0
0	0	-0.0418271248595518	-0.0350000468306055	0	0	0.057692726628905	-0.895353263976696
0.645107226235503	-0.710176669030295	0	0	0.0260113507936037	-0.112633204543015	0	0
0	0	0.186912134494423	-0.83116186117555	0	0	0.0260542221051135	0.0827914140682428
4.2	0.012535706843365	-0.0118707625754601	0	0	0.706206964537467	0.656026169102265	0	0
0	0	-0.0493687793379713	-0.0150591840111743	0	0	-0.434039026968842	-0.784912507694819
0.706206964537467	0.656026169102265	0	0	-0.0404884777730919	0.0164494250735581	0	0
0	0	0.835509445443654	-0.18410380413632	0	0	-0.0117590639069911	-0.0417690219494494
4.3	-0.0162194123384441	0.0049110771092397	0	0	0.664120149059927	-0.700362384138676	0	0
0	0	-0.0078560164526129	0.0069155103810768	0	0	0.781651870660408	0.426190676668518
0.664120149059927	-0.700362384138676	0	0	-0.0112498523369459	0.0679858516348358	0	0
0	0	-0.536606550938366	-0.67682317205883	0	0	-0.0146064946986229	0.00239678264837567
4.4	0.016296295926446	0.0033266857559004	0	0	0.683998956802674	0.672828402413665	0	0
0	0	0.0377500126042868	0.00428151403920103	0	0	0.891936358091557	-0.0545196677203436
0.683998956802674	0.672828402413665	0	0	0.00117811638553971	-0.0506669470657371	0	0
0	0	0.346883649815086	-0.775755472170565	0	0	-0.0339770938666816	0.00335600508121772
4.5	-0.0127594238772607	-0.0108003856998972	0	0	0.678479256095756	-0.666098010975134	0	0
0	0	0.0646147951353002	-0.00479960097187675	0	0	-0.724214870289762	0.526171611728096
0.678479256095756	-0.666098010975134	0	0	-0.0504034321324137	0.0268712104482352	0	0
0	0	-0.83831630299726	0.0125804181664332	0	0	-0.0866661411954427	0.0627502728211146
4.6	0.00631383074656724	0.0164575160375952	0	0	0.648150294052906	0.692309963023708	0	0
0	0	0.0468708954296072	-0.0253568012062676	0	0	-0.312332824234996	0.847505499745593
0.648150294052906	0.692309963023708	0	0	-0.00412613194097462	0.0140159276274993	0	0
0	0	-0.374334615791302	-0.746199930804952	0	0	-0.080841254043541	-0.0093523876978778
4.7	0.00174609256874845	-0.0190896698624517	0	0	0.708836576155643	-0.641083306932918	0	0
0	0	-0.024064924575638	-0.00569898273628478	0	0	-0.193458092145965	-0.875468181139484
0.708836576155643	-0.641083306932918	0	0	0.0655564525205732	-0.0179549202529058	0	0
0	0	-0.524032821119993	0.658349377555989	0	0	-0.0732998310988204	0.0729921845604565
4.8	-0.0103085299405164	0.018187676852048	0	0	0.640712506641041	0.724164845116394	0	0
0	0	-0.0580840152525636	0.0341645304748377	0	0	-0.609546488081129	-0.634323383550544
0.640712506641041	0.724164845116394	0	0	0.0528150185320329	-0.018574861378408	0	0
0	0	-0.829369273976043	-0.195426646992979	0	0	-0.00889740085911127	0.0721076788323277
4.9	0.0178567530311453	-0.0130192248415484	0	0	0.729640604255089	-0.631913967403312	0	0
0	0	-0.0393258917976732	0.0587507376241427	0	0	0.855324863294925	0.205187815659608
0.729640604255089	-0.631913967403312	0	0	-0.0812629841812538	-0.0283753192251568	0	0
0	0	0.201071853045304	0.821294352631624	0	0	-0.0837271502420809	0.00423590841624434
5	-0.0225515579247369	0.00489775393312569	0	0	0.619980945731708	0.724884526301933	0	0
0	0	-0.000169091204191903	0.0207120473606375	0	0	0.830322657243693	-0.299786154320128
0.619980945731708	0.724884526301933	0	0	-0.0476253573308877	0.041143199853903	0	0
0	0	-0.644071016812748	0.534959798909594	0	0	0.0412945747921161	-0.00925682223308723
5.1	0.0240516285273042	0.00500398659797691	0	0	0.726257329785563	-0.606480392138038	0	0
0	0	0.0382951787869847	-0.0330236115449145	0	0	-0.532200367707952	0.695546822239587
0.726257329785563	-0.606480392138038	0	0	-0.0218886251978918	-0.0410012868356767	0	0
0	0	0.749720489116749	0.343842666197707	0	0	0.0722335545202756	-0.0198002825698405
5.2	-0.0216535518088087	-0.0160924705714966	0	0	0.58327187876803	0.744380755647603	0	0
0	0	0.0156507523872435	-0.0739138841129138	0	0	-0.0787569453177516	0.870910177252795
0.58327187876803	0.744380755647603	0	0	0.0381129876399328	0.0226474458364844	0	0
0	0	0.0150831620355243	0.831575014322621	0	0	0.026512422605669	0.066334830516628
5.3	0.015364198752029	0.0257239160148134	0	0	0.763633530723044	-0.570449320828291	0	0
0	0	-0.0147552264182713	-0.041116505246317	0	0	-0.41075070402066	-0.770844094630878
0.763633530723044	-0.570449320828291	0	0	-0.0319845400911686	0.0248673483021303	0	0
0	0	0.742813852826369	-0.372870214985724	0	0	-0.0434556479552955	0.0118572328464849
5.4	-0.00624048313674242	-0.0317872779362205	0	0	0.561707125385967	0.769762201238161	0	0
0	0	-0.03188686002862	0.014573675183972	0	0	-0.765764258343922	-0.430042992162657
0.561707125385967	0.769762201238161	0	0	0.0700818913533044	0.0880355138367288	0	0
0	0	0.655740862743679	0.511328610075107	0	0	-0.00961174194794068	0.0218678051654072
5.5	-0.00460879268606192	0.0342426170216622	0	0	0.781826124291159	-0.558797060881741	0	0
0	0	0.022783079321929	0.0597658541584713	0	0	0.877768917838779	-0.0412736113149328
0.781826124291159	-0.558797060881741	0	0	-0.00623877520815154	-0.0275580746422539	0	0
0	0	0.160723663550878	-0.816424524118066	0	0	0.0212899322778858	0.0387871656154654
5.6	0.01616788332117	-0.0317018005924775	0	0	0.544881708839053	0.788716518543368	0	0
0	0	0.0421338989184746	0.0562027692073426	0	0	0.701501333134147	-0.506063296980889
0.544881708839053	0.788716518543368	0	0	0.00292358678279574	-0.109585063443371	0	0
0	0	0.801932021880819	-0.198839462218487	0	0	0.00998398264841235	0.118105077066242
5.7	-0.0269070924899043	0.0251332020654635	0	0	0.803099980040272	-0.537021769407741	0	0
0	0	0.0206501596904451	-0.00751376170635166	0	0	-0.32275259790191	0.808290213250137
0.803099980040272	-0.537021769407741	0	0	-0.0124602907290941	0.0519606507530611	0	0
0	0	-0.534527451139992	-0.653426416674325	0	0	0.0585554819747382	0.0354950941625102
5.8	0.0337610615430179	-0.0146071334965604	0	0	0.520487227474634	0.804120082682029	0	0
0	0	-0.0218271428508916	-0.0318411571129645	0	0	0.152182452459075	0.858304781381893
0.520487227474634	0.804120082682029	0	0	0.0598635174303763	-0.0267777635889571	0	0
0	0	0.329153546434499	-0.772996972861268	0	0	0.0336651208231652	0.0565484724254511
5.9	-0.0368636717657511	0.00155936552521367	0	0	0.818802509057944	-0.498350037653393	0	0
0	0	-0.0558226302358891	-0.0270810189905291	0	0	-0.586447505572421	-0.64396925834921
0.818802509057944	-0.498350037653393	0	0	-0.0743176441727895	0.0436979517977074	0	0
0	0	-0.832370975173346	0.0568689689312228	0	0	0.0371896528047359	0.0738149397256737
6	0.0354804806337999	0.011329436195947	0	0	0.48379195376778	0.832777730759649	0	0
0	0	-0.033662771683023	0.00581114025997874	0	0	-0.85371537699144	-0.198619342808267
0.48379195376778	0.832777730759649	0	0	-0.00278935466595858	0.0243913595422819	0	0
