# GHZ S RI R 50
0.2	-0.00595248659860928	0.00787673140746493	0	0	0.958090360507645	0.0578306523462191	0	0
0	0	0.0226353435492472	0.00349555196127029	0	0	-0.370263798814833	0.911212169299197
0.958090360507645	0.0578306523462191	0	0	0.0208724823240538	0.0461192123558633	0	0
0	0	0.569491225007516	-0.754165234137235	0	0	0.001339934083575	-0.0276223966015701
0.3	0.00707289672644137	-0.00886119862740843	0	0	0.0331680777832487	-0.965241417430547	0	0
0	0	-0.00423381695065769	0.00145959671593995	0	0	-0.134555984954535	-0.974281946974564
0.0331680777832487	-0.965241417430547	0	0	-0.0132770532700402	0.00713837309900628	0	0
0	0	-0.922215392742643	-0.201903265653277	0	0	-0.0317699767658637	-0.014703865435833
0.4	-0.00864143439190393	0.00790863651021544	0	0	0.948578584372182	0.0615072886587127	0	0
0	0	-0.0395175446141752	0.000920275096250369	0	0	-0.667535484923621	-0.72546386622764
0.948578584372182	0.0615072886587127	0	0	-0.0331419078053502	-0.0124894977443579	0	0
0	0	-0.235654512636257	-0.895725820410771	0	0	0.0227349791850899	0.0211882787924789
0.5	0.0102979448296802	-0.00505403165515691	0	0	0.12710814943272	-0.94885748079352	0	0
0	0	-0.0340118228775638	0.00491760106181667	0	0	0.964019626696015	0.206497791702282
0.12710814943272	-0.94885748079352	0	0	0.0375819606168275	0.0171447709947087	0	0
0	0	-0.678165123211284	0.637018292472214	0	0	0.00601948483365602	0.00817668349384278
0.6	-0.0103104396400411	0.0019280116701592	0	0	0.954841256222839	0.130462107334528	0	0
0	0	-0.00995441660496637	0.00592830703675076	0	0	0.912130126859045	-0.330040727322151
0.954841256222839	0.130462107334528	0	0	0.0053347960818628	-0.0195575981273621	0	0
0	0	-0.861891378623607	-0.344089727385182	0	0	-0.00489819231131808	-0.00706166929190382
0.7	0.00976188650204205	0.00149756543924974	0	0	0.108153048181574	-0.957271195875402	0	0
0	0	0.0209113071401456	-0.0114939447820885	0	0	-0.610310004481967	0.748405451493179
0.108153048181574	-0.957271195875402	0	0	0.00809194847025978	0.00991977842140361	0	0
0	0	0.0465145443383111	0.919844540475532	0	0	0.0023125069422791	-0.0128112629375316
0.8	-0.00891954166038756	-0.00524690382306111	0	0	0.954485466410935	0.112849185719847	0	0
0	0	0.0427475471135828	-0.0425267894197249	0	0	-0.119908876351042	0.96037966689392
0.954485466410935	0.112849185719847	0	0	-0.0227188509356886	0.0130911647268506	0	0
0	0	-0.810874103540004	0.44879277003837	0	0	0.00658476410189256	0.0836522830662047
0.9	0.00681982725865302	0.00808049264694564	0	0	0.144248452733881	-0.939143087801284	0	0
0	0	0.0123018740937499	-0.0283652869112068	0	0	-0.434698151126055	-0.865265521517513
0.144248452733881	-0.939143087801284	0	0	-0.00233914844577456	-0.0610673879086088	0	0
0	0	0.763897762634827	0.52435164769554	0	0	0.0362068260773609	0.014462107974193
1	-0.00400664270862896	-0.0093300653846189	0	0	0.941976742066217	0.18106463050298	0	0
0	0	-0.0146890006676523	0.0114326624641002	0	0	-0.838007768576492	-0.480678022216036
0.941976742066217	0.18106463050298	0	0	0.0027972605610644	0.0429044295614247	0	0
0	0	-0.125818327458707	0.902054990573149	0	0	0.00355406454042681	0.00304544405947426
1.1	0.000733774653036459	0.00854113810205494	0	0	0.201139571068721	-0.948836326257391	0	0
0	0	-0.0113851553267544	0.0349972028776065	0	0	0.955760705877355	-0.0513483318755623
0.201139571068721	-0.948836326257391	0	0	0.00393531948336397	0.00287807152020393	0	0
0	0	0.868349560789604	-0.260438451330439	0	0	0.00955563246871289	0.0439493195285756
1.2	0.00241655939122664	-0.00632691242103231	0	0	0.95858502057078	0.202489477504953	0	0
0	0	0.00922957219131732	0.06494529848733	0	0	0.77048367747754	-0.554475310038251
0.95858502057078	0.202489477504953	0	0	0.0543983216061074	0.00039543165274639	0	0
0	0	0.613625102385751	0.670924370578278	0	0	0.00826259486572065	0.100324230147905
1.3	-0.00481547244226983	0.00307301131986783	0	0	0.205270454276414	-0.942333661407043	0	0
0	0	0.016671597842075	0.0197143807088604	0	0	-0.354821617363034	0.882705210864724
0.205270454276414	-0.942333661407043	0	0	-0.0530530114432855	0.00115737526409645	0	0
0	0	0.321888385317486	-0.858755114307564	0	0	0.0416120417210339	0.0148499930514399
1.4	0.00565562356680411	0.000560727150723539	0	0	0.924339691552481	0.233705879117645	0	0
0	0	-0.0131015600540295	-0.0428392999809291	0	0	0.179355625703334	0.936913957478326
0.924339691552481	0.233705879117645	0	0	0.0182750031754061	0.00851422251746387	0	0
0	0	0.898355537779007	-0.0838513832539801	0	0	0.0458529522096038	-0.006320248597131
1.5	-0.004889380062015	-0.00348579650409023	0	0	0.271190081408073	-0.922511474430185	0	0
0	0	-0.0384517682982942	-0.0554766735796194	0	0	-0.674169483613194	-0.675359515216557
0.271190081408073	-0.922511474430185	0	0	0.0341168435692003	-0.0325550045682013	0	0
0	0	-0.460981779818108	-0.767295953532877	0	0	0.0344204797156508	0.0520121668328904
1.6	0.00294131800450667	0.00485280548836048	0	0	0.937358050261449	0.295195652643283	0	0
0	0	-0.03683021231814	-0.0188836163344976	0	0	-0.936490833618382	-0.184140359381793
0.937358050261449	0.295195652643283	0	0	-0.0505551613600159	-0.0269815697672066	0	0
0	0	0.497652010010873	-0.753472583616717	0	0	0.00190823404221427	0.0520700972937775
1.7	2.25702051836333E-05	-0.00441209599888782	0	0	0.290145309366955	-0.94311728579417	0	0
0	0	0.0148426121326549	0.0067353558424859	0	0	0.884782846119223	-0.343040343636861
0.290145309366955	-0.94311728579417	0	0	-0.000413943600328063	0.00497586370528431	0	0
0	0	-0.900141312902934	-0.111618794456708	0	0	0.0406207103794709	-0.031038731456887
1.8	-0.00320227370064358	0.00255487813468359	0	0	0.917478827855509	0.291339726794137	0	0
0	0	0.0448055232917691	0.0380648753739473	0	0	0.573791065089018	-0.745321880680624
0.917478827855509	0.291339726794137	0	0	0.00677624226235518	0.0648406007119449	0	0
0	0	-0.309511857012563	-0.849325641613223	0	0	0.0278488234778023	-0.03455946979143
1.9	0.00548673008475729	0.00035248231453159	0	0	0.320547088800816	-0.894093625069484	0	0
0	0	0.052391695750712	-0.00405433791607159	0	0	-0.0841121500119558	0.941401827823569
0.320547088800816	-0.894093625069484	0	0	0.00979936222458214	0.00863769669621663	0	0
0	0	-0.615554120014814	0.645120170265769	0	0	0.0408905733845694	0.0231704705524752
2	-0.00599482853690594	-0.00408401341670885	0	0	0.89105302207989	0.350956319640251	0	0
0	0	0.0150685763998922	-0.00545699093964241	0	0	0.456592166169966	0.833492835492177
0.89105302207989	0.350956319640251	0	0	-0.0497890005772957	-0.0335783489330461	0	0
0	0	-0.844142122118936	-0.264706367953725	0	0	-0.0530069282904113	-0.0216323839474386
2.1	0.00449866521147528	0.00811262287925953	0	0	0.365786029407478	-0.898127337403231	0	0
0	0	-0.0288708903090724	0.00736042035668165	0	0	-0.829826187365848	-0.453049837575984
0.365786029407478	-0.898127337403231	0	0	0.0706782463045897	0.0164384033514952	0	0
0	0	0.134451185426888	0.879602359237043	0	0	-0.00503641796985378	0.00945406544059236
2.2	-0.000881185513743576	-0.0118576835099408	0	0	0.898722356841553	0.377596167113697	0	0
0	0	-0.0476586302103529	0.0168247376976429	0	0	-0.932580370972133	0.0676944249214479
0.898722356841553	0.377596167113697	0	0	0.0148322543810959	-0.0110094873116997	0	0
0	0	-0.737890022121612	0.505510593192488	0	0	0.0427046079804079	-0.0114785396948794
2.3	-0.0041830262519509	0.0140660280254051	0	0	0.387151691716153	-0.88979977071428	0	0
0	0	-0.0299727184636669	0.0191105484421492	0	0	0.737614694585126	-0.555034655075734
0.387151691716153	-0.88979977071428	0	0	0.058308710005511	-0.0290499984292787	0	0
0	0	0.776063446774307	0.433250488816871	0	0	0.0667047823294776	0.0462743095635005
2.4	0.00999461505070144	-0.0138834571874863	0	0	0.878286941262457	0.398882040702338	0	0
0	0	-0.000205880391218374	0.00101041991394619	0	0	0.325062922455295	-0.868087231484004
0.878286941262457	0.398882040702338	0	0	-0.0969391105314424	0.0134139875334251	0	0
0	0	-0.0398558720697645	0.882936499184874	0	0	0.0470225361726954	-0.0497536890843173
2.5	-0.0161264945926691	0.0108216612840551	0	0	0.415485664934324	-0.866783820517836	0	0
0	0	0.0193767851134242	-0.0359348472638684	0	0	0.189144326601793	0.917976524842937
0.415485664934324	-0.866783820517836	0	0	-0.0102021696259869	-0.0275745753025839	0	0
0	0	0.805396768874453	-0.331967594331425	0	0	0.0121184033439054	-0.00133999932899349
2.6	0.0215717824095417	-0.00547350924325711	0	0	0.859730239302922	0.429298175996892	0	0
0	0	0.0179221939058313	-0.0386780346974542	0	0	0.667168709195849	0.653629922664145
0.859730239302922	0.429298175996892	0	0	0.00537321953665618	-0.0340038206198384	0	0
0	0	0.630572937202227	0.597297439853134	0	0	0.0619071788138211	0.00964207046348666
2.7	-0.0253342196537442	-0.0015300308548955	0	0	0.443660649103007	-0.853662153344844	0	0
0	0	0.0209608707101854	-0.00958407440482444	0	0	-0.897249500310232	-0.173991071912657
0.443660649103007	-0.853662153344844	0	0	0.00300065822862021	-0.0134416407910951	0	0
0	0	0.275642405429535	-0.835258496453366	0	0	-0.0280799170099399	-0.00124433385149719
2.8	0.0260396906511184	0.00932231080840912	0	0	0.842980656527532	0.457062781975247	0	0
0	0	0.00924604358132353	0.0123087120656257	0	0	-0.841693433101213	0.312447778727693
0.842980656527532	0.457062781975247	0	0	0.0038571622518922	0.0633307186951015	0	0
0	0	0.871015688364093	-0.150150344808582	0	0	0.0253650316944457	-0.0639205541500908
2.9	-0.023037905782468	-0.0171955011391125	0	0	0.473172077824026	-0.823598723862874	0	0
0	0	-0.000617089039645827	0.0359264423526871	0	0	0.566803767664898	-0.70001748817749
0.473172077824026	-0.823598723862874	0	0	-0.0537615983540537	0.0336628904131244	0	0
0	0	-0.514658451889991	-0.702000538988031	0	0	-0.0407467912267143	-0.0461089231932321
3	0.0173710025437281	0.0243062497490967	0	0	0.814519226543557	0.497588447823421	0	0
0	0	-0.0112734476008848	0.0285403534871981	0	0	0.0918900113188593	-0.918942216465374
0.814519226543557	0.497588447823421	0	0	-0.00718034029724337	-0.0179311505985569	0	0
0	0	0.406326174727975	-0.759489942649756	0	0	0.0129548000609979	0.0857258659828125
3.1	-0.00928343398272004	-0.0286118890459037	0	0	0.518665140019953	-0.804212940552245	0	0
0	0	-0.0202130150103602	0.0114229072394801	0	0	0.446900381967896	0.805649191815689
0.518665140019953	-0.804212940552245	0	0	0.0383877496115755	-0.0644009760611768	0	0
0	0	-0.867855891733257	-0.0506714995758972	0	0	-0.0755735680410151	0.00633126243467495
3.2	7.59637116815367E-05	0.0301506841513698	0	0	0.802378692618782	0.543015592492233	0	0
0	0	-0.0174982864487652	-0.00664588578778998	0	0	0.796159370978788	0.437512751322934
0.802378692618782	0.543015592492233	0	0	0.000411748526420933	0.0251979629649315	0	0
0	0	-0.335784791364682	-0.813107476351146	0	0	-0.0592407315488707	0.00694491678532214
3.3	0.00906784308142016	-0.0276444739557923	0	0	0.554882593173078	-0.798202369221427	0	0
0	0	-0.000766500850135422	-0.0241663174226103	0	0	-0.903611020342509	0.0485480600551617
0.554882593173078	-0.798202369221427	0	0	0.0617141208455255	0.0245512818104518	0	0
0	0	-0.575090455199277	0.673416009879188	0	0	-0.0269151350814267	-0.106503142024176
3.4	-0.0168637799029169	0.0215703046858895	0	0	0.781349084354469	0.560241550403832	0	0
0	0	-0.00384186700254759	-0.0404651934906217	0	0	-0.733131977991033	0.540602578040599
0.781349084354469	0.560241550403832	0	0	-0.114861638275859	0.00825980125854211	0	0
0	0	-0.855087611709822	-0.224003760316931	0	0	-0.0192653482970871	-0.0397005380149115
3.5	0.0222481019840523	-0.0138350665971783	0	0	0.575253548723075	-0.772332492836041	0	0
0	0	0.0083591451662558	-0.0299790527222704	0	0	0.299180715646573	-0.867436503343246
0.575253548723075	-0.772332492836041	0	0	-0.0118399974527763	-0.0536433554995714	0	0
0	0	0.165341015022298	0.84286300588133	0	0	0.0852132645295836	-0.0720139267140301
3.6	-0.02410342762193	0.0050668720326501	0	0	0.765516310562925	0.585687218408728	0	0
0	0	0.0197909861057333	0.00293190080945186	0	0	-0.207281189900771	-0.894419740070854
0.765516310562925	0.585687218408728	0	0	-0.0346276137985629	0.060266056105144	0	0
0	0	-0.693749916852431	0.518356714552342	0	0	0.0448481349998749	-0.0313770419991162
3.7	0.0220318535316729	0.00444144550907503	0	0	0.604869762173604	-0.745771941494091	0	0
0	0	0.0138686275641432	0.0367622881288459	0	0	0.637644883227175	0.650407400018897
0.604869762173604	-0.745771941494091	0	0	0.118455427187703	0.00795044017912138	0	0
0	0	0.769492006770848	0.411390544537139	0	0	0.0554914235786011	-0.0188091236555489
3.8	-0.0170909878794167	-0.012444581060346	0	0	0.739757568146248	0.623912370248006	0	0
0	0	0.0149624330205403	0.0508645101845872	0	0	0.870805239151267	0.188680221530003
0.739757568146248	0.623912370248006	0	0	-0.0255324660100578	0.0207415059132303	0	0
0	0	-0.0180360668767411	0.871472390214943	0	0	-0.058295211302046	-0.0255600432923442
3.9	0.0102046295548715	0.0173451284827459	0	0	0.628797465203241	-0.739468673123915	0	0
0	0	0.0107061858831084	0.015768369776222	0	0	-0.825424200646412	0.325983220484268
0.628797465203241	-0.739468673123915	0	0	-0.0138741701225454	0.0834997132558674	0	0
0	0	0.784309329305942	-0.383997881983161	0	0	0.0248457042384486	-0.00550214288636759
4	-0.00171756513332878	-0.0186729156199283	0	0	0.722081028178226	0.637058251123039	0	0
0	0	-0.0171694854356326	-0.0123650897090955	0	0	-0.517896289055049	0.724594413979065
0.722081028178226	0.637058251123039	0	0	0.0514193743590336	-0.0743224953433326	0	0
0	0	0.683983828740728	0.517770928866949	0	0	-0.0048049415350344	0.00970452754590087
4.1	-0.00629907099625444	0.0164896504898451	0	0	0.642568421910629	-0.709609177377087	0	0
0	0	-0.0418751442557448	-0.0356493887389662	0	0	0.0561585923697614	-0.893013355309239
0.642568421910629	-0.709609177377087	0	0	0.025428327978666	-0.112244137931025	0	0
0	0	0.185126256431535	-0.829194898212627	0	0	0.0262175102667197	0.0823732156911961
4.2	0.0128269719287562	-0.0117222766883517	0	0	0.705125509626168	0.653822679325226	0	0
0	0	-0.049020941354419	-0.0157059407087396	0	0	-0.433577704905197	-0.782151208733589
0.705125509626168	0.653822679325226	0	0	-0.0403676505750655	0.016466881824897	0	0
0	0	0.832859094920741	-0.184430657097058	0	0	-0.0116952316611614	-0.0414312781242681
4.3	-0.0165010306793305	0.00482395341603707	0	0	0.662284321647674	-0.698883660987188	0	0
0	0	-0.00727774798844337	0.00652591786064236	0	0	0.779414974823289	0.424627532254461
0.662284321647674	-0.698883660987188	0	0	-0.0111581535384144	0.0676884427409802	0	0
0	0	-0.535201072349673	-0.674579494708995	0	0	-0.0144546119675958	0.00239662639781857
4.4	0.0164342616564411	0.00342619461790588	0	0	0.682197419583686	0.671403380578388	0	0
0	0	0.0383367178339217	0.00430524246964765	0	0	0.889405118360092	-0.0541135618646852
0.682197419583686	0.671403380578388	0	0	0.00129711639680717	-0.0504208731701921	0	0
0	0	0.346111095088208	-0.773443227457786	0	0	-0.0338042348887213	0.0032583578349697
4.5	-0.0127765888881978	-0.0110734910915051	0	0	0.677591038886898	-0.664076015564295	0	0
0	0	0.0649845111640865	-0.00432317310097143	0	0	-0.722763964856819	0.52433406842409
0.677591038886898	-0.664076015564295	0	0	-0.0500444505121781	0.0265822707066419	0	0
0	0	-0.836214489673562	0.0119552155889129	0	0	-0.0864818731488704	0.0622447414233881
4.6	0.00637347472822498	0.0169624351283186	0	0	0.646108324304496	0.691998226779811	0	0
0	0	0.0468896019584516	-0.0245543135537379	0	0	-0.312547935260357	0.845491703804083
0.646108324304496	0.691998226779811	0	0	-0.0039341814500087	0.0137523847872885	0	0
0	0	-0.372840277943939	-0.745072575134838	0	0	-0.0807864769748708	-0.00948737021577726
4.7	0.00150549285302234	-0.0197221099342069	0	0	0.709057367951788	-0.639226643280966	0	0
0	0	-0.0245020169554123	-0.00483287747558169	0	0	-0.192133803823558	-0.874261090668579
0.709057367951788	-0.639226643280966	0	0	0.0656439489442463	-0.0180457065250788	0	0
0	0	-0.523935165260938	0.656670543849228	0	0	-0.0736177155237795	0.0727008305113939
4.8	-0.00992743067552024	0.0187960989577175	0	0	0.639127875263941	0.724784522480204	0	0
0	0	-0.0588969311055782	0.0347616324541545	0	0	-0.608050048458136	-0.634404115664808
0.639127875263941	0.724784522480204	0	0	0.0529277624309148	-0.0187903092609664	0	0
0	0	-0.828194519717396	-0.196279226186496	0	0	-0.00948111455350769	0.0721705188732612
4.9	0.017466563869934	-0.0135926091056943	0	0	0.730521271642591	-0.630576014070258	0	0
0	0	-0.0403110156418631	0.0588707932859558	0	0	0.854684087917056	0.205955991737319
0.730521271642591	-0.630576014070258	0	0	-0.0810992443980195	-0.0290844104748767	0	0
0	0	0.200133334942192	0.821084801687699	0	0	-0.0840329230140459	0.00439443518797541
5	-0.0221385651084216	0.00553817279424447	0	0	0.619040300854029	0.726011208315289	0	0
0	0	-0.00111898609519926	0.0202613722616355	0	0	0.83052208412037	-0.299091631594866
0.619040300854029	0.726011208315289	0	0	-0.0478153414203267	0.0405640302572126	0	0
0	0	-0.644472696841903	0.534404527168413	0	0	0.0409919865629465	-0.00876053086441718
5.1	0.0234706473483382	0.00431576387074225	0	0	0.72741680904006	-0.605995005563715	0	0
0	0	0.0376122980714102	-0.0339440865838165	0	0	-0.532569280931296	0.695460530465131
0.72741680904006	-0.605995005563715	0	0	-0.0219677938390296	-0.0415315566728074	0	0
0	0	0.749718115172563	0.344199470965824	0	0	0.0720657979493457	-0.0192540001564489
5.2	-0.0209039931408893	-0.0155176178675478	0	0	0.583309617937075	0.74553027780733	0	0
0	0	0.0153863121973606	-0.0750704447116583	0	0	-0.0786826836828338	0.870970316099503
0.583309617937075	0.74553027780733	0	0	0.0378902642369476	0.0224060663361567	0	0
0	0	0.015159562812906	0.831624241868084	0	0	0.0264881535827559	0.0668665995848829
5.3	0.0146251758744437	0.0253780414225879	0	0	0.764541470846425	-0.570854796893259	0	0
0	0	-0.0145426985056066	-0.0421698760094001	0	0	-0.41124431225889	-0.770624940048168
0.764541470846425	-0.570854796893259	0	0	-0.0323876510763504	0.0246940005706876	0	0
0	0	0.742616817813806	-0.373344857125452	0	0	-0.043330910643698	0.0123606918752293
5.4	-0.00572426757854681	-0.0315516124521936	0	0	0.562454250816138	0.770229129371464	0	0
0	0	-0.0312304699203436	0.013918997572945	0	0	-0.766125756710162	-0.429266065104878
0.562454250816138	0.770229129371464	0	0	0.0699507129135979	0.0880495440403463	0	0
0	0	0.656189612970323	0.510652683710121	0	0	-0.00935970453387116	0.0221875433079441
5.5	-0.00494794142492729	0.0338551943009487	0	0	0.781773362777967	-0.55954456165042	0	0
0	0	0.023701643436642	0.0596926329623546	0	0	0.877407630060803	-0.0424564626159895
0.781773362777967	-0.55954456165042	0	0	-0.00650075216362889	-0.027606981423861	0	0
0	0	0.159554293000983	-0.816360056280413	0	0	0.0215741110719396	0.0388765962621213
5.6	0.0165661965444529	-0.0310898683136409	0	0	0.545545000524892	0.788151309475588	0	0
0	0	0.0430432907873109	0.056725795260348	0	0	0.699975065275932	-0.506803520104352
0.545545000524892	0.788151309475588	0	0	0.00257501191644974	-0.109656583281809	0	0
0	0	0.80084269316076	-0.200038883492893	0	0	0.0104884555874572	0.118024921509946
5.7	-0.0275650125923252	0.0244641511754273	0	0	0.802256478466702	-0.537495805992539	0	0
0	0	0.0213416761241223	-0.00652198974317747	0	0	-0.320803074201524	0.807738512865922
0.802256478466702	-0.537495805992539	0	0	-0.0125109308236617	0.0517636538236192	0	0
0	0	-0.534974459596018	-0.651512694772241	0	0	0.0586095909745006	0.0354275646113505
5.8	0.0345716623664065	-0.0142019811866011	0	0	0.520705218308465	0.802788879730368	0	0
0	0	-0.0215354997588924	-0.0307121351162608	0	0	0.153399334328721	0.856206533769531
0.520705218308465	0.802788879730368	0	0	0.059369868216204	-0.0270580971424321	0	0
0	0	0.327066255692418	-0.771944026311984	0	0	0.03391332684033	0.0566317927962442
5.9	-0.0375263113391594	0.00145514254045622	0	0	0.81721916873296	-0.498099788741111	0	0
0	0	-0.0559790732310353	-0.0261455185824311	0	0	-0.585802998078821	-0.641340645343281
0.81721916873296	-0.498099788741111	0	0	-0.07458087396436	0.0435044001216826	0	0
0	0	-0.830014494300943	0.0579497603822437	0	0	0.0376529496995818	0.0738673496195198
6	0.035779901755855	0.0113419650707236	0	0	0.482954654615077	0.830891972111266	0	0
0	0	-0.0341754678665866	0.00629768300904615	0	0	-0.851174883502188	-0.196979683966217
0.482954654615077	0.830891972111266	0	0	-0.00350516448819723	0.0243441593896972	0	0
