# GHZ S RI R 50
0.2	-0.0068742686755697	0.0068124183811921	0	0	0.958261163025683	0.0575424829851652	0	0
0	0	0.0229337755573782	0.00203343061703945	0	0	-0.370035148343291	0.911349090289537
0.958261163025683	0.0575424829851652	0	0	0.0224654298044812	0.0474850455355312	0	0
0	0	0.569312886572899	-0.754348992900826	0	0	0.00281512380767737	-0.0263338846761497
0.3	0.00766158893364459	-0.00872684608531991	0	0	0.0326933139395457	-0.965405792747725	0	0
0	0	-0.00406672318399681	0.00082632658807373	0	0	-0.135066111818671	-0.97428704288123
0.0326933139395457	-0.965405792747725	0	0	-0.011734112055975	0.00728758795306124	0	0
0	0	-0.922389158639034	-0.201445454928013	0	0	-0.0303698296891134	-0.0145881286841785
0.4	-0.00859363984000843	0.00780377086004656	0	0	0.948659040561724	0.0607593714053996	0	0
0	0	-0.0394389168637275	0.00101800886849651	0	0	-0.668092120313686	-0.724919929175775
0.948659040561724	0.0607593714053996	0	0	-0.0321503552671754	-0.0129627192052941	0	0
0	0	-0.236355734774197	-0.895518640632334	0	0	0.0236443354324544	0.0206267786811547
0.5	0.00992169151206091	-0.00450215427548939	0	0	0.126050304817742	-0.948821169454689	0	0
0	0	-0.0339191263647649	0.00566400316747101	0	0	0.96405188187326	0.205437495837417
0.126050304817742	-0.948821169454689	0	0	0.0380249768537206	0.0164305206641697	0	0
0	0	-0.677359789095163	0.637612993119446	0	0	0.00634627702861433	0.00757679806137395
0.6	-0.0101723736836747	0.000836030878307296	0	0	0.954456863176851	0.129186091398872	0	0
0	0	-0.00996696961761764	0.0071524003453488	0	0	0.911253923338072	-0.331058865486957
0.954456863176851	0.129186091398872	0	0	0.00535830991459476	-0.0199088334404037	0	0
0	0	-0.861912461885566	-0.342804758534433	0	0	-0.00489011892829205	-0.00735872260907288
0.7	0.0102723356534273	0.00270056992085045	0	0	0.106762551348356	-0.956511946038787	0	0
0	0	0.0206688272686555	-0.010054100679648	0	0	-0.608665058188226	0.748629412162213
0.106762551348356	-0.956511946038787	0	0	0.00820870211480392	0.00985551453523938	0	0
0	0	0.0478219123394457	0.918951435411334	0	0	0.0023530507155431	-0.0128266713594376
0.8	-0.00985972568827991	-0.00607438859095198	0	0	0.95336675045141	0.111464868184384	0	0
0	0	0.0423196056144656	-0.0411501004646953	0	0	-0.118195978890787	0.959340685353927
0.95336675045141	0.111464868184384	0	0	-0.022218187598841	0.01322378065787	0	0
0	0	-0.809104055397144	0.449532490306125	0	0	0.00718616183772281	0.083435109595453
0.9	0.00768392606095981	0.00843000563006447	0	0	0.142962853203152	-0.937647623257216	0	0
0	0	0.0118122855502361	-0.0273513537600895	0	0	-0.435078424719022	-0.86300110202997
0.142962853203152	-0.937647623257216	0	0	-0.00172459299790879	-0.0609366972403673	0	0
0	0	0.76317064820701	0.522278391005535	0	0	0.0367051330469916	0.0140831988574435
1	-0.00445982509808601	-0.00945656653439372	0	0	0.940137246732676	0.1797653685909	0	0
0	0	-0.0151147974021589	0.0118381395694567	0	0	-0.836551249766727	-0.478683917183735
0.940137246732676	0.1797653685909	0	0	0.00373987706521748	0.0421557981838123	0	0
0	0	-0.124586120989189	0.900079758681856	0	0	0.00412074807370341	0.00235867646817176
1.1	0.000709893596552672	0.00887272807121365	0	0	0.20003006067558	-0.946606832674286	0	0
0	0	-0.0115886843585356	0.0347046910079565	0	0	0.95320744329	-0.0517596109950673
0.20003006067558	-0.946606832674286	0	0	0.00457631269952647	0.00176318873433576	0	0
0	0	0.865907486340666	-0.260247569595726	0	0	0.0097839767955061	0.0426349485489099
1.2	0.00257535897926295	-0.00717256734157041	0	0	0.955956923663984	0.201669963773005	0	0
0	0	0.00941985893819114	0.0640817438719928	0	0	0.768375684400333	-0.552999712753229
0.955956923663984	0.201669963773005	0	0	0.0542559895673847	-0.00108767271177718	0	0
0	0	0.611985657092303	0.669084133890537	0	0	0.00792259674443675	0.0985328554619001
1.3	-0.00473901450756652	0.00424412642847477	0	0	0.205024588707672	-0.93950209777544	0	0
0	0	0.0173301962830337	0.0186088923797701	0	0	-0.354219278193842	0.88005404182826
0.205024588707672	-0.93950209777544	0	0	-0.0530574822201595	-0.000394649350364717	0	0
0	0	0.321368154195517	-0.856186410501443	0	0	0.0406360293276974	0.01366921610041
1.4	0.0053803963821444	-0.000692319628027866	0	0	0.921396349639163	0.233807791508773	0	0
0	0	-0.0119504718286301	-0.0437212579730901	0	0	0.177937468849719	0.934516188808264
0.921396349639163	0.233807791508773	0	0	0.0175432580222166	0.0070848641330524	0	0
0	0	0.895969423700506	-0.0827337755035391	0	0	0.0446716134744647	-0.0071259331152628
1.5	-0.00438534938978922	-0.00212981740511641	0	0	0.27174105541875	-0.919463737863056	0	0
0	0	-0.0369065194936396	-0.0559604520690436	0	0	-0.671581326446193	-0.674714378218118
0.27174105541875	-0.919463737863056	0	0	0.0331710319716848	-0.033503420021866	0	0
0	0	-0.458771559257794	-0.766123272992406	0	0	0.0329984487674075	0.0512142834785178
1.6	0.00204915067090831	0.00355207579437322	0	0	0.934473593264954	0.296360933648379	0	0
0	0	-0.0351176235611461	-0.0188882051669084	0	0	-0.934292052186057	-0.185514521953614
0.934473593264954	0.296360933648379	0	0	-0.0512686988025095	-0.0279400874937299	0	0
0	0	0.498064665089404	-0.751054418105302	0	0	0.000529822678052672	0.0515974153779464
1.7	0.00118433375109257	-0.00354046433386913	0	0	0.29176780617754	-0.940514483591615	0	0
0	0	0.016380468729562	0.00716376035539053	0	0	0.88403399512923	-0.340519354828102
0.29176780617754	-0.940514483591615	0	0	-0.00155115952625013	0.00452417996198792	0	0
0	0	-0.898369947217411	-0.113402294718268	0	0	0.0395954100197215	-0.0306283419569276
1.8	-0.00419006969033742	0.00212124856080939	0	0	0.91539198616074	0.293204450216804	0	0
0	0	0.0458426733224555	0.0387869166727801	0	0	0.574870398092396	-0.743098671582387
0.91539198616074	0.293204450216804	0	0	0.00549666811149627	0.0646578918636468	0	0
0	0	-0.307151993332466	-0.849057175841927	0	0	0.027228870452247	-0.0339631501009455
1.9	0.00611267265071694	0.000679284956744857	0	0	0.322565344133149	-0.89249193753591	0	0
0	0	0.05274398777492	-0.00323521586005058	0	0	-0.0862091724836458	0.940608744291332
0.322565344133149	-0.89249193753591	0	0	0.00910133559322797	0.00884296946721246	0	0
0	0	-0.616635027845641	0.643302086382909	0	0	0.0403368401962257	0.0237484381053982
2	-0.00637894297197659	-0.00457655669128179	0	0	0.889930821123327	0.352985651068809	0	0
0	0	0.014735246412989	-0.00474720823373271	0	0	0.454711368499429	0.834452749237041
0.889930821123327	0.352985651068809	0	0	-0.0499856312605718	-0.0336378640174402	0	0
0	0	-0.843499385689948	-0.266563957237534	0	0	-0.0531112777340983	-0.0215597015622136
2.1	0.00492714758957314	0.00883719746832387	0	0	0.367576889590745	-0.897375955779665	0	0
0	0	-0.0297595614893424	0.00779343102135507	0	0	-0.829292143050798	-0.454752094063558
0.367576889590745	-0.897375955779665	0	0	0.0702986158567677	0.0167610454376469	0	0
0	0	0.132872403544747	0.880174033932367	0	0	-0.00527813803333204	0.00962751533924295
2.2	-0.00154642513681727	-0.0125949083336199	0	0	0.898330844600077	0.379153073701299	0	0
0	0	-0.0488032074398923	0.0168944691182876	0	0	-0.933227679589653	0.0664680204904712
0.898330844600077	0.379153073701299	0	0	0.014458563168057	-0.0109901291343313	0	0
0	0	-0.739016073384559	0.504809358588187	0	0	0.0424839792623368	-0.0111727737989776
2.3	-0.00341416419129796	0.0145151164687127	0	0	0.388339911789612	-0.889597823824254	0	0
0	0	-0.0309993416110904	0.0188801854370021	0	0	0.738519343120637	-0.554857018689594
0.388339911789612	-0.889597823824254	0	0	0.0578306579940032	-0.0288410477697596	0	0
0	0	0.776259459612745	0.434116239527471	0	0	0.0663615925887598	0.0468295425906143
2.4	0.00947686481571329	-0.0140296940271377	0	0	0.878289358865996	0.399587945165529	0	0
0	0	-0.000818256091114689	0.000616629299118679	0	0	0.325535771098571	-0.868417785697857
0.878289358865996	0.399587945165529	0	0	-0.0976775056198282	0.013660361063782	0	0
0	0	-0.0401876912160016	0.883375250808716	0	0	0.0468441375782935	-0.0491469119674033
2.5	-0.0160416058421648	0.010949698929388	0	0	0.415731768566411	-0.866656474470151	0	0
0	0	0.0193537147652815	-0.0362988664677689	0	0	0.189248639309845	0.918163145186438
0.415731768566411	-0.866656474470151	0	0	-0.0107571594514197	-0.0269129680063895	0	0
0	0	0.805549076215718	-0.332095219556874	0	0	0.0121095871279357	-0.000548761869484465
2.6	0.0217774278929065	-0.00588001515261601	0	0	0.859323274335636	0.429098850307248	0	0
0	0	0.0184200487817742	-0.0388023691144496	0	0	0.667237389453353	0.653264235128391
0.859323274335636	0.429098850307248	0	0	0.00499657001472461	-0.0331129990309738	0	0
0	0	0.630631068708966	0.596956346780257	0	0	0.0621431624862194	0.0104097852463818
2.7	-0.0255598855423047	-0.000829874156940179	0	0	0.443145679855982	-0.852836748461567	0	0
0	0	0.0217098879506084	-0.0093411075096725	0	0	-0.896661262169807	-0.173572111188069
0.443145679855982	-0.852836748461567	0	0	0.00280995909868824	-0.012497200590474	0	0
0	0	0.275170648017058	-0.834748126532375	0	0	-0.0275970945320579	-0.000495002016942126
2.8	0.0262142259365083	0.00848755095120889	0	0	0.84171418130955	0.456369137382996	0	0
0	0	0.00989373482028057	0.0129546831950399	0	0	-0.840494124490838	0.312227101416879
0.84171418130955	0.456369137382996	0	0	0.00379752033098957	0.0640300343100493	0	0
0	0	0.869815200694303	-0.150153671072594	0	0	0.0258086495748788	-0.0631538747443698
2.9	-0.0232439379174379	-0.0162511173001775	0	0	0.472515558720075	-0.821809695681436	0	0
0	0	-0.000412863524496445	0.036946931830425	0	0	0.565922567553428	-0.698653495924784
0.472515558720075	-0.821809695681436	0	0	-0.0534898216656464	0.0342893965465864	0	0
0	0	-0.513600686536127	-0.700841289355718	0	0	-0.0399973064197266	-0.0454951969749937
3	0.0175587936367435	0.0231043144197073	0	0	0.812115318707642	0.497004483590642	0	0
0	0	-0.0116508119875497	0.0297880799805452	0	0	0.0922577748530839	-0.917078321462117
0.812115318707642	0.497004483590642	0	0	-0.00692707011567504	-0.0172105526674147	0	0
0	0	0.405979736863301	-0.757752210263964	0	0	0.0133707820943449	0.0856691722361206
3.1	-0.00925482326647639	-0.0271763074851466	0	0	0.518337378963237	-0.801186185521214	0	0
0	0	-0.0211712497203101	0.0126410968448377	0	0	0.444769730365513	0.804517935939996
0.518337378963237	-0.801186185521214	0	0	0.0386332051481117	-0.0635050583571889	0	0
0	0	-0.865878153172701	-0.0517984466527306	0	0	-0.0747645377193725	0.0061612589281983
3.2	-0.000284246311062542	0.0286660794786292	0	0	0.798990883995696	0.543093248931034	0	0
0	0	-0.0188980349951853	-0.00579465365779861	0	0	0.793517750671898	0.438204495750732
0.798990883995696	0.543093248931034	0	0	0.000557677329936102	0.0252655850817317	0	0
0	0	-0.333370923002	-0.812027861129001	0	0	-0.0586940108791156	0.00661267915445831
3.3	0.00965847869443367	-0.0263713769683185	0	0	0.55554403437209	-0.794407700739607	0	0
0	0	-0.00229737369588855	-0.0239017867882608	0	0	-0.901768561087903	0.0458577701872042
0.55554403437209	-0.794407700739607	0	0	0.0613735505611603	0.0248053325982205	0	0
0	0	-0.575755105229832	0.670295010919764	0	0	-0.02609554338764	-0.106279646094077
3.4	-0.0174249511594778	0.0205366549816822	0	0	0.777666250408969	0.561716935682343	0	0
0	0	-0.00517797684586854	-0.0408879033225484	0	0	-0.733705235324087	0.537146534896971
0.777666250408969	0.561716935682343	0	0	-0.114393459037724	0.00740034538946917	0	0
0	0	-0.852827591286218	-0.226543355729946	0	0	-0.0189515042216977	-0.039709879786197
3.5	0.0227193728935879	-0.012827693437253	0	0	0.577435162152544	-0.76855269747301	0	0
0	0	0.00749028141553254	-0.0309723922020349	0	0	0.302207750325747	-0.865091484001258
0.577435162152544	-0.76855269747301	0	0	-0.0114587159541322	-0.0535563334768018	0	0
0	0	0.161788465589928	0.842386679623742	0	0	0.0854962289026352	-0.0710878142600211
3.6	-0.0246308709079854	0.00399442890783344	0	0	0.762058984740317	0.588473429620149	0	0
0	0	0.0195492606271815	0.00154181484459281	0	0	-0.203253038290715	-0.894888663321363
0.762058984740317	0.588473429620149	0	0	-0.0352146095272913	0.0598598497085774	0	0
0	0	-0.695683199324118	0.515056034471356	0	0	0.0450445787456379	-0.03083674954276
3.7	0.0227192511601025	0.00544174064181966	0	0	0.608271312211042	-0.742483381098628	0	0
0	0	0.0142710300113883	0.0353737289824228	0	0	0.634899178313806	0.653562860077762
0.608271312211042	-0.742483381098628	0	0	0.118220017619309	0.00916747238035907	0	0
0	0	0.767888411807932	0.415062704928805	0	0	0.0557283003239293	-0.0182194473155415
3.8	-0.0178614308730292	-0.0131595393290679	0	0	0.737230015116564	0.627965949217178	0	0
0	0	0.0157172274278791	0.0498528204951297	0	0	0.871152170569987	0.192992560178641
0.737230015116564	0.627965949217178	0	0	-0.0257576597466901	0.0205791966857832	0	0
0	0	-0.0221116801271193	0.872613346987871	0	0	-0.058149391296668	-0.0261433238970464
3.9	0.010766952477824	0.0177488534431495	0	0	0.633254361596243	-0.737803659299914	0	0
0	0	0.0115736113886587	0.0153415642934452	0	0	-0.828590256576377	0.323093261178693
0.633254361596243	-0.737803659299914	0	0	-0.0145939099311611	0.0836821458498622	0	0
0	0	0.787639877877859	-0.381409435677787	0	0	0.0250945228042176	-0.00536999800995183
4	-0.00191289361127617	-0.0190569223717806	0	0	0.721320770504629	0.641665163536389	0	0
0	0	-0.0164292190811002	-0.0121147936814493	0	0	-0.522256315954081	0.724682050872459
0.721320770504629	0.641665163536389	0	0	0.0524569157995479	-0.0742954688492503	0	0
0	0	0.683953106436736	0.521971174736846	0	0	-0.00482227025101943	0.00958662826252205
4.1	-0.00627594541074772	0.0170663120471514	0	0	0.646976708133493	-0.709725653601844	0	0
0	0	-0.0414995223568336	-0.0348495584233603	0	0	0.0592317075711945	-0.896078068460295
0.646976708133493	-0.709725653601844	0	0	0.0265029470946692	-0.11286044937971	0	0
0	0	0.188462996032655	-0.831613357895028	0	0	0.0259020715466474	0.0829622044003867
4.2	0.012744054855286	-0.0124171894237973	0	0	0.706094859984852	0.657821412423263	0	0
0	0	-0.0491225710238177	-0.0147175001026474	0	0	-0.433361046366417	-0.786367428916753
0.706094859984852	0.657821412423263	0	0	-0.04063237581084	0.0162783166339351	0	0
0	0	0.836656160653271	-0.183089268362078	0	0	-0.0116304819304001	-0.0419706668442562
4.3	-0.0163873559662019	0.00540992730836367	0	0	0.665712193976404	-0.700477647781926	0	0
0	0	-0.00779593670610708	0.00727952855578249	0	0	0.782020091201404	0.427553192107949
0.665712193976404	-0.700477647781926	0	0	-0.011459889518723	0.0681102031831016	0	0
0	0	-0.536419120284505	-0.678179576543663	0	0	-0.0146554969559219	0.0023437156440202
4.4	0.0165333650590227	0.0029626149578522	0	0	0.684159490659079	0.674202023428167	0	0
0	0	0.0375794697558677	0.00451638583174695	0	0	0.892930673709872	-0.0537823583115697
0.684159490659079	0.674202023428167	0	0	0.0012491178941764	-0.0507044130959446	0	0
0	0	0.347942995050374	-0.776268771186121	0	0	-0.0340950318429788	0.00336077415490827
4.5	-0.0131784348496204	-0.010502172412015	0	0	0.679641716152603	-0.666302290828268	0	0
0	0	0.0642446756628473	-0.00480677643635616	0	0	-0.725283118646422	0.526198092951176
0.679641716152603	-0.666302290828268	0	0	-0.050492062142827	0.0270152924521342	0	0
0	0	-0.839148738438953	0.0120248299550909	0	0	-0.0869275376255868	0.0629121985508216
4.6	0.00690896485873887	0.0160826914329008	0	0	0.648284319757448	0.693251446555027	0	0
0	0	0.0464015592100872	-0.0256276073805711	0	0	-0.313068693147406	0.848001985127711
0.648284319757448	0.693251446555027	0	0	-0.00399291660159847	0.0142328319179635	0	0
0	0	-0.374204547877449	-0.747010029437773	0	0	-0.0808966665295075	-0.00922416901427092
4.7	0.00108473952605372	-0.0185702542409285	0	0	0.709567355199129	-0.641078008903517	0	0
0	0	-0.0244575007189377	-0.00620536166949407	0	0	-0.193183374300543	-0.876110974817573
0.709567355199129	-0.641078008903517	0	0	0.0659239615244994	-0.0177277782470862	0	0
0	0	-0.524663833415247	0.658528878332987	0	0	-0.0732883043074297	0.0732683579617157
4.8	-0.009679437331715	0.0175840361040808	0	0	0.640536764318458	0.724811749713988	0	0
0	0	-0.0582273343743048	0.0335420211574522	0	0	-0.609488571524968	-0.634853325220999
0.640536764318458	0.724811749713988	0	0	0.0532285670850708	-0.0184062056489998	0	0
0	0	-0.829600837421684	-0.195888158624051	0	0	-0.00872152970666219	0.0723990179091416
4.9	0.0172392747061012	-0.0124338722099199	0	0	0.730368845103508	-0.631538084295385	0	0
0	0	-0.0391551406929974	0.0581606941038344	0	0	0.855435781136967	0.205797497313943
0.730368845103508	-0.631538084295385	0	0	-0.0808830452710035	-0.0284665876289359	0	0
0	0	0.200599613458315	0.821657470601995	0	0	-0.0834635284274987	0.00433121620541951
5	-0.0218922222340847	0.00429875358571338	0	0	0.619468872347293	0.72562387767414	0	0
0	0	0.000313557689573049	0.0202597192230189	0	0	0.830624865985908	-0.299164672098656
0.619468872347293	0.72562387767414	0	0	-0.0473255802005349	0.0410434924785945	0	0
0	0	-0.644540845796816	0.534502798997384	0	0	0.041664641419113	-0.00905584227595896
5.1	0.023393044640301	0.00570130563690047	0	0	0.727098658617287	-0.605716290128711	0	0
0	0	0.0389703779659878	-0.033255550108871	0	0	-0.532882628728027	0.695027313763558
0.727098658617287	-0.605716290128711	0	0	-0.0214244950896199	-0.0411872737685993	0	0
0	0	0.749385534423938	0.3445775396549	0	0	0.0726435953961894	-0.0196069398525751
5.2	-0.0210853089195627	-0.0168412110482653	0	0	0.582410115848666	0.745314506039892	0	0
0	0	0.0163491782568576	-0.0738996200866427	0	0	-0.0797478398550012	0.87088241162278
0.582410115848666	0.745314506039892	0	0	0.0383771126595188	0.0225482649014189	0	0
0	0	0.0141433806384181	0.831650648910621	0	0	0.026709566088985	0.0663573883150522
5.3	0.0149165046634855	0.0264015688700737	0	0	0.764837101828649	-0.569498460694492	0	0
0	0	-0.0142333358681742	-0.0408836866834421	0	0	-0.409764997783646	-0.771611338584259
0.764837101828649	-0.569498460694492	0	0	-0.0318955349570001	0.0245261024797553	0	0
0	0	0.743520868211725	-0.371914741759748	0	0	-0.0432346006869961	0.0116003924450375
5.4	-0.0058123174237236	-0.0322980829443742	0	0	0.560733238917841	0.771124870777005	0	0
0	0	-0.0316789713486121	0.0149656469839634	0	0	-0.765396715123945	-0.431457608705194
0.560733238917841	0.771124870777005	0	0	0.0699359278040385	0.0881323127732524	0	0
0	0	0.65519587622372	0.512600612700297	0	0	-0.00951671382881045	0.0216849209496194
5.5	-0.00516687455969607	0.034666226757503	0	0	0.783541496305573	-0.557760405372219	0	0
0	0	0.0226375283040626	0.0602071998767866	0	0	0.878443974845417	-0.0397830621789636
0.783541496305573	-0.557760405372219	0	0	-0.00612495907261736	-0.0278054259014847	0	0
0	0	0.162246971486884	-0.816707849449335	0	0	0.0212846012493252	0.0387765161613831
5.6	0.016849088135114	-0.0321779285825115	0	0	0.543849748808685	0.79070696786469	0	0
0	0	0.0417023634164828	0.0565694088547955	0	0	0.703091431013739	-0.505375409168497
0.543849748808685	0.79070696786469	0	0	0.00341944122840217	-0.109951632246783	0	0
0	0	0.803096557365023	-0.197663707208727	0	0	0.00968698093366532	0.118295178082949
5.7	-0.0275849726734324	0.025759197206474	0	0	0.805394709583333	-0.536301180686728	0	0
0	0	0.0200411486972637	-0.00729401549471699	0	0	-0.324599821467853	0.808782425118299
0.805394709583333	-0.536301180686728	0	0	-0.0126135382999847	0.0519232707833723	0	0
0	0	-0.534077979042053	-0.655225379749001	0	0	0.058725537883537	0.0357308438440713
5.8	0.0342539779759676	-0.0152551339310777	0	0	0.519941034860366	0.806587598215547	0	0
0	0	-0.0223933689203959	-0.0317973452985734	0	0	0.15102421560689	0.859999361248506
0.519941034860366	0.806587598215547	0	0	0.0603261086719896	-0.0269344083203024	0	0
0	0	0.330980917179984	-0.773754947912996	0	0	0.033824270385656	0.056700187834923
5.9	-0.0372074708397174	0.0020408511873687	0	0	0.82150362607158	-0.498175706722979	0	0
0	0	-0.0561814595482494	-0.0271943408178911	0	0	-0.586706728472008	-0.646126101906198
0.82150362607158	-0.498175706722979	0	0	-0.07471909036131	0.043196821997607	0	0
0	0	-0.834144057645107	0.0557797978952004	0	0	0.0373920932085742	0.0739048908479551
6	0.0358310030041012	0.0110976156659416	0	0	0.48393250042994	0.835538773208022	0	0
0	0	-0.0337234865408375	0.00560498983250463	0	0	-0.855527035787335	-0.200067213398459
0.48393250042994	0.835538773208022	0	0	-0.00295377365804183	0.0239229852171919	0	0
