# GHZ S RI R 50
0.2	-0.00601511087064658	0.00798207643344438	0	0	0.958119265076275	0.0578773841584212	0	0
0	0	0.0225359390924849	0.00342338817514415	0	0	-0.370224192111405	0.911188233601682
0.958119265076275	0.0578773841584212	0	0	0.0210259343199563	0.0460376992788738	0	0
0	0	0.569448526628135	-0.75415282707617	0	0	0.00140579743666307	-0.0277962517031285
0.3	0.00706580871112605	-0.0089190801221172	0	0	0.0332007106316572	-0.965294039112289	0	0
0	0	-0.00425634703928549	0.00140518866278748	0	0	-0.134558377096703	-0.974230106946962
0.0332007106316572	-0.965294039112289	0	0	-0.0131633656782142	0.00702588954555351	0	0
0	0	-0.922169490755368	-0.201883918965893	0	0	-0.0318015237906457	-0.0148761046224603
0.4	-0.00864913291060334	0.00788400302139919	0	0	0.948617670852462	0.0615218207373791	0	0
0	0	-0.0394868733514132	0.0009350549008732	0	0	-0.667496818138366	-0.725449434758458
0.948617670852462	0.0615218207373791	0	0	-0.0330763577054198	-0.0126077518885748	0	0
0	0	-0.235628741396624	-0.895696848803902	0	0	0.0226295949173022	0.0210707857954087
0.5	0.010385035195032	-0.00497869645738293	0	0	0.127117058140287	-0.948854390105218	0	0
0	0	-0.0339554962382984	0.00502281034024064	0	0	0.964020441530462	0.206524782507887
0.127117058140287	-0.948854390105218	0	0	0.0376075129474189	0.0170504294753442	0	0
0	0	-0.678186502676432	0.63700442310092	0	0	0.00590847411692841	0.00813401896768866
0.6	-0.0105053813543686	0.00189246992440034	0	0	0.954798231448346	0.130513892256257	0	0
0	0	-0.00992861294694691	0.00612294818605327	0	0	0.912171960028728	-0.330058442554054
0.954798231448346	0.130513892256257	0	0	0.00534136983419552	-0.0196092439283918	0	0
0	0	-0.861932547341026	-0.344103665211871	0	0	-0.00496587219730331	-0.00706318794713701
0.7	0.00999584358414243	0.00140382514803275	0	0	0.108264353042876	-0.957220348285793	0	0
0	0	0.020860440263124	-0.0112516223877775	0	0	-0.610297128201336	0.748480913163644
0.108264353042876	-0.957220348285793	0	0	0.0081049785814703	0.00991415833475695	0	0
0	0	0.0465718998435366	0.919889715764939	0	0	0.00229807529018144	-0.0128310194230054
0.8	-0.00908653438454423	-0.00504752818881536	0	0	0.954480413962195	0.113009857864913	0	0
0	0	0.042621910018174	-0.042296078839451	0	0	-0.119796594363468	0.960424855350148
0.954480413962195	0.113009857864913	0	0	-0.0226628227295523	0.0131066724010695	0	0
0	0	-0.810845755814246	0.448905150244257	0	0	0.00660440182390789	0.0835689615760395
0.9	0.00687548779765794	0.0078805695788621	0	0	0.144423446831769	-0.939219859185467	0	0
0	0	0.0121410518535804	-0.028207973747273	0	0	-0.434760358428986	-0.865171984547644
0.144423446831769	-0.939219859185467	0	0	-0.00219270596793164	-0.0610673625639107	0	0
0	0	0.763906694897049	0.524244532083386	0	0	0.0361466993564598	0.0142944747456186
1	-0.00399212037184857	-0.00922706776401105	0	0	0.942094899159432	0.181186869504044	0	0
0	0	-0.014825534832334	0.011467655985507	0	0	-0.837937260626924	-0.480620380912329
0.942094899159432	0.181186869504044	0	0	0.00297259286970822	0.0428699325032521	0	0
0	0	-0.12579269734847	0.901973046767399	0	0	0.00336834229307107	0.002866605430944
1.1	0.00076489266713768	0.00858463818915775	0	0	0.201158891082734	-0.948962632600603	0	0
0	0	-0.0114272753393137	0.0348971064956043	0	0	0.955714386117245	-0.0512567457548212
0.201158891082734	-0.948962632600603	0	0	0.00413609770887371	0.00272823957983502	0	0
0	0	0.868327349454022	-0.260343812893717	0	0	0.00921769266847695	0.043845777760191
1.2	0.00221260646918217	-0.00643956286540222	0	0	0.958628863330623	0.202413667114771	0	0
0	0	0.00933866517353817	0.0647519602822435	0	0	0.770638551537507	-0.554380618602272
0.958628863330623	0.202413667114771	0	0	0.0545622720256653	0.000125832305412882	0	0
0	0	0.613552346462789	0.671082287564514	0	0	0.00780883032910832	0.100400905766878
1.3	-0.00446649273465954	0.00311889396954408	0	0	0.205168446737185	-0.942318908917157	0	0
0	0	0.016940063019617	0.0195143684205869	0	0	-0.355026062177397	0.882799704447864
0.205168446737185	-0.942318908917157	0	0	-0.0529552056714622	0.000836671257873532	0	0
0	0	0.322083267171213	-0.858850827723767	0	0	0.0411943653187569	0.0150925168086699
1.4	0.00525114998480006	0.000581134542649582	0	0	0.924244726150091	0.233606324245879	0	0
0	0	-0.0127200119422935	-0.0429199700655712	0	0	0.179273991412216	0.937158582582891
0.924244726150091	0.233606324245879	0	0	0.0183166790334831	0.00815206273294908	0	0
0	0	0.89857843971669	-0.0837523312761676	0	0	0.0454815720883952	-0.00598921400229498
1.5	-0.00442541514720812	-0.00357475148061657	0	0	0.271124132655173	-0.922362175948071	0	0
0	0	-0.0380198951919364	-0.0553820376011031	0	0	-0.674331139968444	-0.675644979764278
0.271124132655173	-0.922362175948071	0	0	0.034097445036419	-0.0329128256017995	0	0
0	0	-0.46106437888306	-0.767592389612722	0	0	0.0340954910613751	0.0524492972149226
1.6	0.00245266009393377	0.00509515744360487	0	0	0.937182298670154	0.295155850171033	0	0
0	0	-0.0364137922319939	-0.018616943240136	0	0	-0.936852044002076	-0.184222248143326
0.937182298670154	0.295155850171033	0	0	-0.0506191359198813	-0.0273158915354054	0	0
0	0	0.497853466489869	-0.753759298952609	0	0	0.00169737115992951	0.0525663405519274
1.7	0.000383024194388299	-0.00480841566284521	0	0	0.290206818215775	-0.94289301306018	0	0
0	0	0.0151470657472945	0.00712144860542119	0	0	0.885037932948256	-0.343244432934925
0.290206818215775	-0.94289301306018	0	0	-0.000575455985358492	0.00470253081250609	0	0
0	0	-0.900448432680581	-0.111562416496565	0	0	0.0405958086993245	-0.0306187751706034
1.8	-0.00337566061117398	0.00293595915363307	0	0	0.917274579200415	0.291464214431031	0	0
0	0	0.0449212474983179	0.0384724353724269	0	0	0.57383215749194	-0.745618591746985
0.917274579200415	0.291464214431031	0	0	0.00655787291316347	0.0646529691185604	0	0
0	0	-0.309731503651501	-0.849511724472639	0	0	0.0279423992812133	-0.0342286852002739
1.9	0.00558215728561794	9.64271788289279E-05	0	0	0.320673854178538	-0.893965708594437	0	0
0	0	0.0522985919695053	-0.00373031029003195	0	0	-0.083965811017715	0.941647949538444
0.320673854178538	-0.893965708594437	0	0	0.00962379549930746	0.00855487020646258	0	0
0	0	-0.615590856755738	0.645387800577016	0	0	0.0410593502262415	0.0234048095417615
2	-0.00613670675381865	-0.00394466670652572	0	0	0.890952471415824	0.351035946820502	0	0
0	0	0.0148001745118362	-0.00529762311874285	0	0	0.456792530968971	0.833642834185161
0.890952471415824	0.351035946820502	0	0	-0.0498942435633948	-0.0336302502811618	0	0
0	0	-0.844373348692851	-0.264677748006776	0	0	-0.0529222740352443	-0.0214843443873481
2.1	0.00475783437860531	0.00798206812773978	0	0	0.365854272500488	-0.897965264165187	0	0
0	0	-0.0292450336568284	0.00730677216047133	0	0	-0.830117138752538	-0.453077713641262
0.365854272500488	-0.897965264165187	0	0	0.0705741802039357	0.0163945904500787	0	0
0	0	0.13459635017098	0.879836025793263	0	0	-0.00497367917834912	0.00959165295608183
2.2	-0.00119375547333537	-0.011613604736518	0	0	0.898527091205715	0.377672444803829	0	0
0	0	-0.0480284219739995	0.0165753575530334	0	0	-0.932853597642639	0.0678859220101617
0.898527091205715	0.377672444803829	0	0	0.014736886512264	-0.0110951773464779	0	0
0	0	-0.738023452545357	0.505800530956334	0	0	0.0427820895736101	-0.0113159268674676
2.3	-0.00397658407171364	0.0137141159116917	0	0	0.387297159571632	-0.889593562925949	0	0
0	0	-0.0302348792126432	0.0187584865654364	0	0	0.737700125792405	-0.555409777092252
0.387297159571632	-0.889593562925949	0	0	0.0581456013890866	-0.0291268753253053	0	0
0	0	0.776427025564818	0.433179575720339	0	0	0.0669009108939359	0.0465189496498505
2.4	0.00997425431250553	-0.0135783936097535	0	0	0.878086257219796	0.399014158986458	0	0
0	0	-0.000296551543380873	0.000670340673317932	0	0	0.324914843552207	-0.868377817404866
0.878086257219796	0.399014158986458	0	0	-0.0971663099064909	0.0132948921185071	0	0
0	0	-0.0396361862591605	0.883156591140733	0	0	0.0472933275033854	-0.0495492244812994
2.5	-0.0162021185029755	0.0107161078294838	0	0	0.415635387011174	-0.866641712759357	0	0
0	0	0.019476531923626	-0.0361402526844613	0	0	0.189405921303369	0.918138543188806
0.415635387011174	-0.866641712759357	0	0	-0.0104963471494487	-0.0275637679177709	0	0
0	0	0.805499325312196	-0.332234566735376	0	0	0.0125358303619508	-0.0011697536836344
2.6	0.0215722268461605	-0.00557316202129778	0	0	0.85959725436012	0.429417824564581	0	0
0	0	0.0181451055782342	-0.0386691340282212	0	0	0.667469242006633	0.653642574638363
0.85959725436012	0.429417824564581	0	0	0.00506267486680865	-0.0338928784769582	0	0
0	0	0.630852571649429	0.597304496575532	0	0	0.0624321367097162	0.00967576058399803
2.7	-0.02518490767348	-0.00134720971222888	0	0	0.443759290493875	-0.853517135992716	0	0
0	0	0.0211893887200024	-0.00936076639586782	0	0	-0.89751636350716	-0.173877981093243
0.443759290493875	-0.853517135992716	0	0	0.00270302837546629	-0.0132677719927029	0	0
0	0	0.275567034016236	-0.835527048754208	0	0	-0.0275907729022776	-0.00128806419869886
2.8	0.0257963623832604	0.00912672946660672	0	0	0.842843076171073	0.457128752248546	0	0
0	0	0.00934654633392105	0.0126783867260297	0	0	-0.841842010074763	0.312699534704122
0.842843076171073	0.457128752248546	0	0	0.00357092474990187	0.0635288857473383	0	0
0	0	0.871204994003314	-0.150367103248241	0	0	0.0258340915871944	-0.0640951190669175
2.9	-0.0227274140352973	-0.0169457810564158	0	0	0.473208244656207	-0.823510066925808	0	0
0	0	-0.000770143257130292	0.0363369188524354	0	0	0.566854504246457	-0.700273377095233
0.473208244656207	-0.823510066925808	0	0	-0.0539799156507256	0.0338772706736248	0	0
0	0	-0.514885095818305	-0.702110941271061	0	0	-0.0403573090568938	-0.0463145984554394
3	0.0169038025206417	0.0239899886848197	0	0	0.814415061054996	0.497570471285526	0	0
0	0	-0.0117129527621538	0.0288806199454543	0	0	0.0918483473894758	-0.919313964277064
0.814415061054996	0.497570471285526	0	0	-0.00732893234888622	-0.0176938173364055	0	0
0	0	0.406422585832862	-0.759825248913433	0	0	0.013312114657566	0.0855458664984622
3.1	-0.00860327237162138	-0.0283442479019123	0	0	0.518619741726901	-0.804049444012617	0	0
0	0	-0.0208845278677038	0.0115857113666269	0	0	0.447095470851715	0.805978368967681
0.518619741726901	-0.804049444012617	0	0	0.0383065229685131	-0.0641686883301775	0	0
0	0	-0.868216794346608	-0.0506822466627717	0	0	-0.0754331796102903	0.00609299235767357
3.2	-0.000756639958579956	0.0300553547071096	0	0	0.802168728908293	0.54286202302231	0	0
0	0	-0.0182615744122117	-0.00675947032124434	0	0	0.796582492930043	0.437692689273238
0.802168728908293	0.54286202302231	0	0	0.000409839278898873	0.0253283018346825	0	0
0	0	-0.335995129845683	-0.813499908183702	0	0	-0.0592239953724003	0.00676384656185987
3.3	0.00988116846029425	-0.0277499447948591	0	0	0.55476877830603	-0.797921569890452	0	0
0	0	-0.0014372032111664	-0.024558591768886	0	0	-0.903995210488999	0.0486774673070998
0.55476877830603	-0.797921569890452	0	0	0.0617031458596868	0.0246035685651619	0	0
0	0	-0.575257851457805	0.673775693304834	0	0	-0.0269776536652604	-0.106695692520827
3.4	-0.0175535299532213	0.0217430269044985	0	0	0.781181245310023	0.560034183574892	0	0
0	0	-0.00424506855702104	-0.041079281306477	0	0	-0.733410821933821	0.540992239800559
0.781181245310023	0.560034183574892	0	0	-0.114784761959171	0.00825505609614115	0	0
0	0	-0.855551803893656	-0.223976767413424	0	0	-0.0193224950798959	-0.0397320153758967
3.5	0.0229086828765301	-0.0139649279569177	0	0	0.575094697683531	-0.77215397352671	0	0
0	0	0.008326634622252	-0.0306835552101632	0	0	0.299097117241744	-0.867920963939443
0.575094697683531	-0.77215397352671	0	0	-0.0118549720454093	-0.0536513181819956	0	0
0	0	0.165636320890296	0.84321595603644	0	0	0.0852770237810064	-0.0720643068837205
3.6	-0.0248344548446531	0.00520717026328923	0	0	0.765262503025443	0.585424842538366	0	0
0	0	0.0201613437039387	0.00226822461127468	0	0	-0.207626134497829	-0.894848131362343
0.765262503025443	0.585424842538366	0	0	-0.0346396141219071	0.0601964962752764	0	0
0	0	-0.693988986706949	0.51881713608113	0	0	0.0449279355990339	-0.0313736800338069
3.7	0.022811519328502	0.00418537263140013	0	0	0.604751568699355	-0.745441101367511	0	0
0	0	0.0145451100519619	0.0363174659242027	0	0	0.638219238647435	0.65053745545066
0.604751568699355	-0.745441101367511	0	0	0.118330154954364	0.00795992424349224	0	0
0	0	0.770054275897076	0.411344526766175	0	0	0.0556002291700609	-0.0188466019867759
3.8	-0.0177650846333242	-0.0120207119333537	0	0	0.739492313606237	0.623747304730212	0	0
0	0	0.0157015623674086	0.0507034964665682	0	0	0.871299377257054	0.188498454209136
0.739492313606237	0.623747304730212	0	0	-0.0255403252366121	0.0207555098589964	0	0
0	0	-0.0177689700643173	0.871912798908887	0	0	-0.0583281959066872	-0.0255772708175692
3.9	0.0106291081864129	0.0169034314665591	0	0	0.628683432041173	-0.73925815636995	0	0
0	0	0.0113241835403488	0.0159014747145687	0	0	-0.825583849207573	0.326416340937657
0.628683432041173	-0.73925815636995	0	0	-0.0138636703332348	0.0835147615500698	0	0
0	0	0.784432227149016	-0.384435163185838	0	0	0.0248650978056168	-0.00560317136000805
4	-0.00199104444508475	-0.0184281225603357	0	0	0.722066264917177	0.636924094013145	0	0
0	0	-0.0168356874196796	-0.0119713213718125	0	0	-0.51784174489222	0.724935701956548
0.722066264917177	0.636924094013145	0	0	0.0514395201347472	-0.0742537975638835	0	0
0	0	0.684313868431177	0.517727422234101	0	0	-0.00484480504479809	0.00960823849344129
4.1	-0.00598216011685019	0.0164281481929761	0	0	0.642327147793662	-0.709635675407822	0	0
0	0	-0.0419181950207779	-0.03511883116212	0	0	0.0560006053131341	-0.893319033194125
0.642327147793662	-0.709635675407822	0	0	0.025448626230436	-0.112170739588602	0	0
0	0	0.185023426126521	-0.829505015959618	0	0	0.026173373235675	0.0823180254439949
4.2	0.0124071616913344	-0.0116817821327323	0	0	0.70508860124476	0.653453703370352	0	0
0	0	-0.0493899943944833	-0.0152356711920182	0	0	-0.433808043629598	-0.78232880190706
0.70508860124476	0.653453703370352	0	0	-0.0402583990402807	0.0164866384368867	0	0
0	0	0.833083964828315	-0.184593150931367	0	0	-0.0118226510010134	-0.0414981405399327
4.3	-0.0161202341625296	0.00472465225170207	0	0	0.661932817480705	-0.698773625246748	0	0
0	0	-0.0078144286049068	0.00675883108140661	0	0	0.779740461416071	0.424624477147847
0.661932817480705	-0.698773625246748	0	0	-0.0110927176136607	0.06763240398116	0	0
0	0	-0.53549292536116	-0.674700101398638	0	0	-0.0145144369968078	0.00241464411654178
4.4	0.0162029504520721	0.00345301482060681	0	0	0.68214145013361	0.671127468929457	0	0
0	0	0.0378406189692886	0.00420820531996545	0	0	0.889609771827686	-0.0542860008226825
0.68214145013361	0.671127468929457	0	0	0.00123267697676123	-0.0504193200081432	0	0
0	0	0.346055894941779	-0.77369166087358	0	0	-0.0337574793542025	0.00332318131343074
4.5	-0.0126138701805109	-0.0108677571667479	0	0	0.67731215499915	-0.664105626931355	0	0
0	0	0.0647241682292957	-0.00475318773219188	0	0	-0.722857740809081	0.524483017816981
0.67731215499915	-0.664105626931355	0	0	-0.0501510619247301	0.026619361579317	0	0
0	0	-0.836366607110693	0.012018741720686	0	0	-0.0862882259120069	0.0622973872564674
4.6	0.00608415015048745	0.016520995200354	0	0	0.646191471000642	0.691666133414476	0	0
0	0	0.046970287320651	-0.0251922070723171	0	0	-0.312607462692422	0.845570651356224
0.646191471000642	0.691666133414476	0	0	-0.00412369663683758	0.0138592948983617	0	0
0	0	-0.372855918708321	-0.745162614328532	0	0	-0.0804787489744292	-0.00957620234126977
4.7	0.00202651514164073	-0.0191982098282162	0	0	0.708688541149861	-0.639279470476163	0	0
0	0	-0.0240342177490155	-0.00546571475373455	0	0	-0.19206440646642	-0.874472329049712
0.708688541149861	-0.639279470476163	0	0	0.0653947159256204	-0.0178608091407483	0	0
0	0	-0.524130193406544	0.656744758301558	0	0	-0.0732822258840865	0.0724723708113959
4.8	-0.0105920778903723	0.0183446256655992	0	0	0.639195302452354	0.724412444468264	0	0
0	0	-0.0581469806530434	0.0343970957947944	0	0	-0.608148957403949	-0.634597443762776
0.639195302452354	0.724412444468264	0	0	0.0527052026234997	-0.0185124857418588	0	0
0	0	-0.828376635205645	-0.196384467895182	0	0	-0.00912706751761681	0.0718251128271651
4.9	0.0181260584172769	-0.0131729682525508	0	0	0.730122399275458	-0.630807068719252	0	0
0	0	-0.0394822365239366	0.0589127195430055	0	0	0.854751131088285	0.206152704701696
0.730122399275458	-0.630807068719252	0	0	-0.0812245369765287	-0.0286477235832801	0	0
0	0	0.199994723246324	0.821228673395464	0	0	-0.0837519910268961	0.00389980594438929
5	-0.0228343630906277	0.00504485981799174	0	0	0.619313479612411	0.725498504599817	0	0
0	0	-0.000399977084223062	0.0207694810314274	0	0	0.830675105209848	-0.298989354864348
0.619313479612411	0.725498504599817	0	0	-0.0478143243655443	0.0409854261494524	0	0
0	0	-0.644642150440591	0.534362599865846	0	0	0.0412210643591874	-0.00928382571429762
5.1	0.0243503369633475	0.00482155797934251	0	0	0.726853987057169	-0.606294716145408	0	0
0	0	0.0380394403293993	-0.0330715160665836	0	0	-0.532832270622745	0.695486208449007
0.726853987057169	-0.606294716145408	0	0	-0.0219798990592378	-0.0410874333009574	0	0
0	0	0.749796504132358	0.344435658246612	0	0	0.072192899941915	-0.0197988346815579
5.2	-0.0219266048999611	-0.0158695241331204	0	0	0.583466299209294	0.744834674446795	0	0
0	0	0.0154248481178361	-0.0740419649490602	0	0	-0.0789535658466357	0.871345898848214
0.583466299209294	0.744834674446795	0	0	0.0380180246836814	0.0226913503670675	0	0
0	0	0.0149420530011223	0.832007222117335	0	0	0.0263842774549248	0.0663872710493259
5.3	0.0155785349111553	0.0255020833927147	0	0	0.763788625315156	-0.570992213107682	0	0
0	0	-0.0148915416047741	-0.0412835727751388	0	0	-0.411213941363563	-0.771094266583111
0.763788625315156	-0.570992213107682	0	0	-0.0321051033152745	0.0249575588302493	0	0
0	0	0.743062576474155	-0.373305085503658	0	0	-0.0436166979469816	0.011916766088785
5.4	-0.00642235949293606	-0.0316242824367109	0	0	0.562495778422347	0.769559470442239	0	0
0	0	-0.0318932744742714	0.0144081530197385	0	0	-0.766367679647671	-0.429576278603059
0.562495778422347	0.769559470442239	0	0	0.0701989772680841	0.0880261900096564	0	0
0	0	0.656372011759787	0.510977434389289	0	0	-0.00967519510718902	0.0219364199144438
5.5	-0.00438524430741363	0.0341290821172107	0	0	0.781128541900006	-0.559754157529723	0	0
0	0	0.0229073911814513	0.0596447545974468	0	0	0.877726814483043	-0.0423232228370277
0.781128541900006	-0.559754157529723	0	0	-0.00634277245554407	-0.0275124895029903	0	0
0	0	0.159749047005882	-0.816623379573557	0	0	0.0213267199691501	0.0387640627344398
5.6	0.0158816175324689	-0.0315782872581792	0	0	0.545853557252038	0.787516846348286	0	0
0	0	0.0423486500831104	0.0561584620141008	0	0	0.70042503485823	-0.506847797655492
0.545853557252038	0.787516846348286	0	0	0.00255257435950316	-0.109487741029978	0	0
0	0	0.801257292002677	-0.199917951493515	0	0	0.0102774092085744	0.117963945169079
5.7	-0.0266015936116891	0.0249298783831813	0	0	0.801359347051212	-0.537770788192353	0	0
0	0	0.0209143921507063	-0.0074763642832712	0	0	-0.321124462792291	0.807987065046904
0.801359347051212	-0.537770788192353	0	0	-0.0122951428035412	0.0518887344922121	0	0
0	0	-0.535034536264358	-0.651902173297335	0	0	0.0585059880578964	0.0352128258443243
5.8	0.0335272794480965	-0.0143634841229808	0	0	0.520923186433148	0.801950359583485	0	0
0	0	-0.0215998171978759	-0.0317436128965379	0	0	0.153269111436484	0.856654661689452
0.520923186433148	0.801950359583485	0	0	0.0594997224976665	-0.0268490402148197	0	0
0	0	0.327407369553817	-0.772237193333347	0	0	0.0336367704574463	0.056261471040814
5.9	-0.0367148378053058	0.00135230870475857	0	0	0.816233262765237	-0.498294942208328	0	0
0	0	-0.0556861701931395	-0.0269600013371322	0	0	-0.585961875073003	-0.641747378670013
0.816233262765237	-0.498294942208328	0	0	-0.0739645431319681	0.0437990308614281	0	0
0	0	-0.830414325397024	0.0578269209214284	0	0	0.0370797765747625	0.0734557346726606
6	0.0353692877068812	0.0114452560513668	0	0	0.483158039110797	0.829983474007414	0	0
0	0	-0.033641321386432	0.00591672885887653	0	0	-0.851472853462681	-0.197326524697911
0.483158039110797	0.829983474007414	0	0	-0.00282678171157507	0.0244382975723067	0	0
