# GHZ S RI R 50
0.2	-0.00567744441102056	0.00965999622746453	0	0	0.957926469414927	0.0581751885742662	0	0
0	0	0.0214046508619142	0.00473398302975045	0	0	-0.370429017252643	0.911042857171242
0.957926469414927	0.0581751885742662	0	0	0.0201984024401424	0.0437366697044815	0	0
0	0	0.569602652407619	-0.753967121946842	0	0	0.000629948505044621	-0.0300853359026395
0.3	0.00662148562616521	-0.00944015788573049	0	0	0.0336821579236447	-0.965156802199244	0	0
0	0	-0.00478080628963097	0.00184588407107826	0	0	-0.134070974445991	-0.974181480631598
0.0336821579236447	-0.965156802199244	0	0	-0.0143771667385224	0.00589898208438317	0	0
0	0	-0.921964050643077	-0.202306824491388	0	0	-0.0329809417990255	-0.0160127454130855
0.4	-0.00873762071185032	0.00790565844497747	0	0	0.948553946681388	0.0622721918730707	0	0
0	0	-0.0394682412414327	0.000844300490652879	0	0	-0.666911851733004	-0.725963690100962
0.948553946681388	0.0622721918730707	0	0	-0.0341064780912153	-0.0129446433893742	0	0
0	0	-0.234917031097366	-0.895866932923224	0	0	0.0215538891134565	0.0208204982516042
0.5	0.0109893763140323	-0.0050275855891872	0	0	0.12815074098615	-0.948872832015729	0	0
0	0	-0.0335695717048139	0.0045448308484177	0	0	0.96397743485487	0.207588932295456
0.12815074098615	-0.948872832015729	0	0	0.0369454117571711	0.017256642407933	0	0
0	0	-0.678989050431131	0.636399309933518	0	0	0.00526186468217176	0.00826577198645925
0.6	-0.0113115267385269	0.00236172725495375	0	0	0.955122761199105	0.131832249463831	0	0
0	0	-0.00926732649646005	0.0054849990648961	0	0	0.913066896430179	-0.329045162020811
0.955122761199105	0.131832249463831	0	0	0.00514769902068558	-0.0194703491382277	0	0
0	0	-0.86192794390474	-0.345397073706358	0	0	-0.00519911410645002	-0.00694197739660792
0.7	0.0105212040072809	0.000507733311347289	0	0	0.109725410550095	-0.957928945833266	0	0
0	0	0.0216797833782084	-0.011852031994625	0	0	-0.611934083696964	0.748295689496401
0.109725410550095	-0.957928945833266	0	0	0.00802029635277591	0.00990438686789131	0	0
0	0	0.0452949517110354	0.920805127965775	0	0	0.00226964604814803	-0.0128994939453386
0.8	-0.00916144829824084	-0.00410591313786458	0	0	0.955617447745412	0.114501219358512	0	0
0	0	0.0434297472535559	-0.0427760609384531	0	0	-0.121349492632636	0.961487611377371
0.955617447745412	0.114501219358512	0	0	-0.0229116833284212	0.0128210768068732	0	0
0	0	-0.81254397419264	0.448302663195144	0	0	0.0062342539803881	0.0835569698651474
0.9	0.0066853834068273	0.00723068368444425	0	0	0.14587789320185	-0.940807323549496	0	0
0	0	0.012765152277447	-0.0285099749219591	0	0	-0.434420668132971	-0.867359244046311
0.14587789320185	-0.940807323549496	0	0	-0.00244303065394837	-0.0616003874006161	0	0
0	0	0.764632183693119	0.526234384184281	0	0	0.035857387001556	0.0141499835336441
1	-0.00383213870334185	-0.00893455501134811	0	0	0.944054515059041	0.182556404564071	0	0
0	0	-0.0144993065567629	0.0113917819966169	0	0	-0.83938050175257	-0.482575087189533
0.944054515059041	0.182556404564071	0	0	0.00225311357958744	0.0429602293774599	0	0
0	0	-0.126995108517005	0.903922811041564	0	0	0.00275509895460824	0.00278370082019273
1.1	0.000898295114156123	0.00849787366615325	0	0	0.202248010238681	-0.951347309095763	0	0
0	0	-0.0114472959255086	0.035028220683211	0	0	0.958288750207303	-0.0508339152944204
0.202248010238681	-0.951347309095763	0	0	0.00341655842507364	0.00298597831865995	0	0
0	0	0.870791424766535	-0.260528767762628	0	0	0.0085149865159632	0.0443428416119778
1.2	0.00175425906659177	-0.00625838856134325	0	0	0.961346302427247	0.203074962556313	0	0
0	0	0.00899249264311152	0.0649860170779005	0	0	0.772870922141024	-0.555944601276739
0.961346302427247	0.203074962556313	0	0	0.0542571713663993	0.000717929975759809	0	0
0	0	0.61528978026561	0.673030955658612	0	0	0.00726105148289528	0.101589096660955
1.3	-0.00392326959837049	0.00272462307409836	0	0	0.205259654759682	-0.94523528176311	0	0
0	0	0.0163762689587601	0.0197013332598894	0	0	-0.355644621374665	0.885603273425582
0.205259654759682	-0.94523528176311	0	0	-0.0536856391275432	0.00165277803297504	0	0
0	0	0.322615665953484	-0.861566772690308	0	0	0.0410701044014456	0.015937213996451
1.4	0.00474540667750407	0.00107236208019953	0	0	0.927164197869526	0.233256356200018	0	0
0	0	-0.013380032198873	-0.0429381757271437	0	0	0.180805239220187	0.939680418364116
0.927164197869526	0.233256356200018	0	0	0.0182022536868542	0.00895059165540422	0	0
0	0	0.901091620968036	-0.0849651546766843	0	0	0.0455059086581485	-0.00530564166685278
1.5	-0.00396729284890851	-0.00420428551595367	0	0	0.270332125309622	-0.925278772687717	0	0
0	0	-0.0387317671889698	-0.0556028743736787	0	0	-0.677193320612282	-0.676287524218044
0.270332125309622	-0.925278772687717	0	0	0.0341202287783354	-0.0324157162744083	0	0
0	0	-0.463524643730117	-0.768824687511654	0	0	0.0344076306085025	0.0533784769137911
1.6	0.00216882617009308	0.00590005413161631	0	0	0.939959525268072	0.293770887728107	0	0
0	0	-0.03710075385083	-0.019027297800214	0	0	-0.939292969486706	-0.18262959167958
0.939959525268072	0.293770887728107	0	0	-0.0507718590965779	-0.0265232994711277	0	0
0	0	0.497336585444212	-0.756467900436571	0	0	0.00213269357291021	0.0534578693904412
1.7	0.000359301432225367	-0.00560007624327579	0	0	0.288370626138446	-0.945255380255711	0	0
0	0	0.0145950856687597	0.00662674577663199	0	0	0.885752193865181	-0.346022159765842
0.288370626138446	-0.945255380255711	0	0	-0.000191412428006448	0.00520666488472079	0	0
0	0	-0.902306868011219	-0.10954711584825	0	0	0.0409412198410033	-0.0304653444162958
1.8	-0.00318216099490194	0.00351344083665633	0	0	0.91907276267844	0.289397594682767	0	0
0	0	0.0445922321619458	0.037991471097343	0	0	0.572528657119391	-0.748004789696718
0.91907276267844	0.289397594682767	0	0	0.00730281656100685	0.0650188114103536	0	0
0	0	-0.312339034322819	-0.849682164225496	0	0	0.028208017653778	-0.0342198784574129
1.9	0.00543923039398413	-0.000279664298428861	0	0	0.318505381471508	-0.89529912026076	0	0
0	0	0.0522372174194607	-0.00411490605250533	0	0	-0.0815644673687038	0.942379693203698
0.318505381471508	-0.89529912026076	0	0	0.00998653549569213	0.00860003273627576	0	0
0	0	-0.614249353665417	0.647339552534693	0	0	0.041523081307886	0.0232937259184578
2	-0.00612716777892699	-0.00363426045889817	0	0	0.8918033315876	0.348857187046583	0	0
0	0	0.0149828505077394	-0.00553070908521634	0	0	0.458809752241826	0.832508425396708
0.8918033315876	0.348857187046583	0	0	-0.0498628253535574	-0.0333564349922083	0	0
0	0	-0.844995046787695	-0.262615049784418	0	0	-0.0528366156718457	-0.021200097576563
2.1	0.00482945849394265	0.00759692450483323	0	0	0.36387366206475	-0.89831854753927	0	0
0	0	-0.0288753825881413	0.00724751557228599	0	0	-0.830652484242311	-0.451160430640849
0.36387366206475	-0.89831854753927	0	0	0.070712235027886	0.0161551520495398	0	0
0	0	0.136336808812624	0.879142622347647	0	0	-0.00479944500238191	0.00965746994536675
2.2	-0.00120240224972	-0.0111272030209684	0	0	0.898476870766745	0.375985826721372	0	0
0	0	-0.0475757781415866	0.0166701354107886	0	0	-0.932056152596429	0.0692826798410072
0.898476870766745	0.375985826721372	0	0	0.0148450907032375	-0.0110122804717943	0	0
0	0	-0.736691230121027	0.506570138370257	0	0	0.0428444981060751	-0.0113389177725667
2.3	-0.00412311204338157	0.0132574255790359	0	0	0.386065722509909	-0.889293115412626	0	0
0	0	-0.0298188766541391	0.0189354655129462	0	0	0.736534526417144	-0.555665094690757
0.386065722509909	-0.889293115412626	0	0	0.0582541354270353	-0.0290970691928578	0	0
0	0	0.776197753228081	0.432053793862894	0	0	0.0671358279452575	0.0463794277116832
2.4	0.0101972801416007	-0.013293673414717	0	0	0.877616695246638	0.398262719258332	0	0
0	0	-9.05995123521163E-06	0.000848979661027448	0	0	0.324240219033831	-0.867910232036354
0.877616695246638	0.398262719258332	0	0	-0.0966452756485592	0.0133639062218085	0	0
0	0	-0.0391615897397514	0.882534264084343	0	0	0.0475194538018052	-0.0495463675082918
2.5	-0.016336778945247	0.0106218089803306	0	0	0.415402639821478	-0.866284740065016	0	0
0	0	0.0195731241388268	-0.0360282222304922	0	0	0.189352568117319	0.917718516294109
0.415402639821478	-0.866284740065016	0	0	-0.0101078709925048	-0.0277013367832276	0	0
0	0	0.805125051814716	-0.332112979642501	0	0	0.0128868153351482	-0.00133497817498594
2.6	0.0215256168237629	-0.0055373197982145	0	0	0.859494055645814	0.429650767118682	0	0
0	0	0.0180729887934054	-0.0386732116195335	0	0	0.667280097637165	0.65383016555432
0.859494055645814	0.429650767118682	0	0	0.00541218259518029	-0.0341875349881108	0	0
0	0	0.63067964280482	0.597481881645591	0	0	0.0627358528878497	0.00942759770286505
2.7	-0.0250171302640309	-0.00144469564062314	0	0	0.444347549306806	-0.853818897628921	0	0
0	0	0.02103726618775	-0.00948182532070495	0	0	-0.897936290223599	-0.174336110655383
0.444347549306806	-0.853818897628921	0	0	0.00297383204219876	-0.0136500713409959	0	0
0	0	0.276055630898836	-0.835871968319239	0	0	-0.0273867529394289	-0.00165681499742262
2.8	0.0255964654654747	0.00927524531378537	0	0	0.843643982475196	0.457915521068086	0	0
0	0	0.00923253233744988	0.0124646765172471	0	0	-0.842915573808326	0.312769727799897
0.843643982475196	0.457915521068086	0	0	0.00373078941030186	0.0632837510614448	0	0
0	0	0.872256584344755	-0.150240891230158	0	0	0.0261025511387634	-0.0645854250470436
2.9	-0.0224866539952046	-0.0170923394916438	0	0	0.474019107359031	-0.824893537547095	0	0
0	0	-0.000735114525494029	0.0360530544710774	0	0	0.567836296782437	-0.701439793465486
0.474019107359031	-0.824893537547095	0	0	-0.0540459591470545	0.0336135556046115	0	0
0	0	-0.515733461628966	-0.703315562340032	0	0	-0.0404035368228752	-0.0468252928350367
3	0.0165656271542007	0.0241872132168898	0	0	0.816398611858164	0.498274336744156	0	0
0	0	-0.0114881927345785	0.0285550003294278	0	0	0.0916425830418422	-0.921261163525377
0.816398611858164	0.498274336744156	0	0	-0.00734035905773187	-0.0180896109320713	0	0
0	0	0.406938332825213	-0.761577130211383	0	0	0.0134532465967704	0.0855857250340006
3.1	-0.00819728148632511	-0.0286897122295702	0	0	0.519040289921808	-0.806601547920876	0	0
0	0	-0.020468384184572	0.0112674248207014	0	0	0.449076815184731	0.807401079746462
0.519040289921808	-0.806601547920876	0	0	0.0382921007413866	-0.0647989748155824	0	0
0	0	-0.870351436425486	-0.0498215021725371	0	0	-0.0758467000534292	0.00608311198101954
3.2	-0.00111147635073836	0.030557726944756	0	0	0.805169705579374	0.542765533003288	0	0
0	0	-0.0177233024829554	-0.00697475782859495	0	0	0.799357262699748	0.437292577323871
0.805169705579374	0.542765533003288	0	0	0.000419895436707106	0.0253266491304567	0	0
0	0	-0.338332679107366	-0.814880444506394	0	0	-0.0595767916636973	0.00690653125933719
3.3	0.0101013496810549	-0.0283047958760573	0	0	0.554049821607762	-0.801258290724467	0	0
0	0	-0.0008835581450714	-0.0246082137559806	0	0	-0.906020201255531	0.0511953370433618
0.554049821607762	-0.801258290724467	0	0	0.0620688336031862	0.0243610945769158	0	0
0	0	-0.574838571698669	0.676909806557523	0	0	-0.0277243475384001	-0.107085179106925
3.4	-0.0176880790376066	0.0222377675249633	0	0	0.78458841696541	0.558481934323537	0	0
0	0	-0.00378090289023705	-0.0409233251004773	0	0	-0.733034452466001	0.54451747286366
0.78458841696541	0.558481934323537	0	0	-0.115175808019792	0.00906119672370763	0	0
0	0	-0.857984086209201	-0.221543654058687	0	0	-0.0196682077109746	-0.0397517206846677
3.5	0.0230518891134364	-0.0144131611883287	0	0	0.572809854236957	-0.775539972242509	0	0
0	0	0.00861923738365635	-0.0303509806123208	0	0	0.296080871199922	-0.870331180157492
0.572809854236957	-0.775539972242509	0	0	-0.0122548732497178	-0.0536992506936772	0	0
0	0	0.1692107682715	0.843750135975787	0	0	0.0849872729320527	-0.0729396458643793
3.6	-0.0249940145242184	0.0057051945347971	0	0	0.768289127393164	0.58237888795328	0	0
0	0	0.0202475429655819	0.00275796070792656	0	0	-0.211701218441686	-0.894460549862467
0.768289127393164	0.58237888795328	0	0	-0.0340699718303163	0.0605504218621827	0	0
0	0	-0.692108141882702	0.522189207707493	0	0	0.0447587102133847	-0.0318372129261351
3.7	0.0229161962785396	0.00362941840780081	0	0	0.601149829624176	-0.74807045511993	0	0
0	0	0.0144214816984603	0.0368443744901172	0	0	0.641034962304032	0.64736867836578
0.601149829624176	-0.74807045511993	0	0	0.118393963773875	0.00681975333146425	0	0
0	0	0.77171804170798	0.407640094711398	0	0	0.0554267301067907	-0.0193958710837323
3.8	-0.0177437408690199	-0.0114745957220183	0	0	0.741428366059082	0.61951482222723	0	0
0	0	0.0154654592021348	0.0511453848760543	0	0	0.870993438158989	0.18419771436573
0.741428366059082	0.61951482222723	0	0	-0.0252703878813518	0.0209078210800154	0	0
0	0	-0.0136968145134633	0.87081337481956	0	0	-0.0584026984287899	-0.0250099845416114
3.9	0.0105223315972278	0.016483484383679	0	0	0.624104011022082	-0.740317909893463	0	0
0	0	0.0110470475512368	0.0161768200680266	0	0	-0.822318833193468	0.329251914758233
0.624104011022082	-0.740317909893463	0	0	-0.0131211450272721	0.0832420583557723	0	0
0	0	0.781008838646227	-0.386962560583274	0	0	0.0246685385499573	-0.00581823175311762
4	-0.00193922420691554	-0.0181404598205177	0	0	0.722288521383534	0.632242973363771	0	0
0	0	-0.0170917607574537	-0.011922222526371	0	0	-0.513513015745245	0.724646776621811
0.722288521383534	0.632242973363771	0	0	0.0504868470858014	-0.0741942598760703	0	0
0	0	0.684149959445586	0.513551996698671	0	0	-0.00481100936565504	0.00957998713357805
4.1	-0.00593596170424801	0.0161714858714834	0	0	0.637816157382878	-0.708969793524975	0	0
0	0	-0.0420934743576291	-0.0352849352789057	0	0	0.053133235395873	-0.890150965976983
0.637816157382878	-0.708969793524975	0	0	0.024498684045961	-0.111479822474217	0	0
0	0	0.181864317425738	-0.82695910687656	0	0	0.0263910447159855	0.0815660822431454
4.2	0.0123275673273234	-0.0113829233239853	0	0	0.703567890155391	0.649307980424366	0	0
0	0	-0.0494467071688681	-0.0155214393966474	0	0	-0.433667650975611	-0.778193089217938
0.703567890155391	0.649307980424366	0	0	-0.0399215266861454	0.0165655363669109	0	0
0	0	0.829263708418376	-0.185586179505039	0	0	-0.0119529998169122	-0.0410695051045193
4.3	-0.0160866437248586	0.00441997263889268	0	0	0.65838533141477	-0.6965674021048	0	0
0	0	-0.00777155175900626	0.00648245530007864	0	0	0.776919369375066	0.421963819502376
0.65838533141477	-0.6965674021048	0	0	-0.0108294447619141	0.0671148759212838	0	0
0	0	-0.533981571240313	-0.671254856970733	0	0	-0.0143767683798243	0.00246157043629917
4.4	0.0161852646275953	0.00366889753356226	0	0	0.679536947720176	0.668302471255968	0	0
0	0	0.037953319397137	0.00405529172608197	0	0	0.886008791504175	-0.0542256093518555
0.679536947720176	0.668302471255968	0	0	0.00129079062285047	-0.0500292084716197	0	0
0	0	0.344520820532999	-0.77063007779736	0	0	-0.0334158678850408	0.00330488417716421
4.5	-0.012517496220915	-0.0109870015868335	0	0	0.675307065099103	-0.661301490906739	0	0
0	0	0.0648563478406564	-0.00471217680135578	0	0	-0.720582559340555	0.522150704494902
0.675307065099103	-0.661301490906739	0	0	-0.0497065600587229	0.0262719523335401	0	0
0	0	-0.83336676963719	0.0114589497126538	0	0	-0.085650785690611	0.0616690300041561
4.6	0.00584434763898869	0.0166305142827766	0	0	0.643448889877307	0.690453811514224	0	0
0	0	0.047079913439839	-0.0249452697425303	0	0	-0.312696942220011	0.84271376121632
0.643448889877307	0.690453811514224	0	0	-0.00404645761775766	0.0135926317978222	0	0
0	0	-0.370872250708154	-0.743417786340997	0	0	-0.0799135038430918	-0.0098656775651993
4.7	0.00235328809946806	-0.0193884710000455	0	0	0.708226044350345	-0.636789476029919	0	0
0	0	-0.0240342768325833	-0.00509669792138322	0	0	-0.190286093134042	-0.872845256564855
0.708226044350345	-0.636789476029919	0	0	0.0652028480683298	-0.017833580449552	0	0
0	0	-0.523994581538643	0.654486719068917	0	0	-0.0731766881322558	0.0717117022964305
4.8	-0.0109212273631474	0.0186343714347113	0	0	0.637165214145516	0.72454782743285	0	0
0	0	-0.0582810274745853	0.0347712383637405	0	0	-0.606261436639725	-0.634742168650684
0.637165214145516	0.72454782743285	0	0	0.0525801475560397	-0.0185379105705145	0	0
0	0	-0.826917425544277	-0.197494751262317	0	0	-0.00941638868284237	0.0713817902251605
4.9	0.0184183936999647	-0.0134659975556258	0	0	0.730611654041834	-0.629410673365605	0	0
0	0	-0.0397503615315335	0.0591651654371099	0	0	0.853954155593117	0.207233147633684
0.730611654041834	-0.629410673365605	0	0	-0.0811522788719662	-0.0290914327147222	0	0
0	0	0.198720586679583	0.821023058521524	0	0	-0.0837895199399745	0.00344798936259171
5	-0.0231446872483519	0.00532071969762893	0	0	0.618621633264426	0.726179352032573	0	0
0	0	-0.000778997255684177	0.0208312000551694	0	0	0.83104731006388	-0.298189885091307
0.618621633264426	0.726179352032573	0	0	-0.0480539010043503	0.0406883296541952	0	0
0	0	-0.645231768089329	0.533769384830687	0	0	0.0410840014248038	-0.00937838029737008
5.1	0.0246950332548891	0.00448729345809336	0	0	0.727463843882281	-0.606369689264135	0	0
0	0	0.0376173196191415	-0.0332028201924476	0	0	-0.533373680739152	0.695670701916286
0.727463843882281	-0.606369689264135	0	0	-0.02217668800756	-0.0412964118867422	0	0
0	0	0.750078775598143	0.344894459859368	0	0	0.0720787463091404	-0.0198852896287734
5.2	-0.0222341495649911	-0.0154492826990739	0	0	0.584170403908567	0.745179151220349	0	0
0	0	0.0150399462945336	-0.074315802244672	0	0	-0.0786845983811765	0.871966089992869
0.584170403908567	0.745179151220349	0	0	0.0378461003063072	0.022629355015713	0	0
0	0	0.0152601421003801	0.83256597876683	0	0	0.0262390131464784	0.0664204845480031
5.3	0.0157779202241813	0.0250669028122617	0	0	0.763594947044016	-0.57223647530093	0	0
0	0	-0.0151410267913909	-0.0416140161287424	0	0	-0.41238185268724	-0.771037267944023
0.763594947044016	-0.57223647530093	0	0	-0.0323218894322453	0.0250746703192893	0	0
0	0	0.743035429987158	-0.374417422041787	0	0	-0.0438566242205595	0.012075230296433
5.4	-0.00655591332522268	-0.0312880753188303	0	0	0.564108013566126	0.768723366567697	0	0
0	0	-0.0319304037752644	0.0141017668924318	0	0	-0.76737561067222	-0.428181309152106
0.564108013566126	0.768723366567697	0	0	0.0704012622951571	0.0878569859969942	0	0
0	0	0.657513668341861	0.509814784256959	0	0	-0.00975054675025278	0.0220567233932618
5.5	-0.00418612211334643	0.033881487512556	0	0	0.779429381568456	-0.561533061126069	0	0
0	0	0.0230960157074579	0.0594398578414065	0	0	0.877273476237952	-0.0445440229290751
0.779429381568456	-0.561533061126069	0	0	-0.00657598526977008	-0.0274272523516639	0	0
0	0	0.157604478454342	-0.816709202558896	0	0	0.0214175118543426	0.0386748275372751
5.6	0.01556961347843	-0.0313113231864993	0	0	0.547551165920526	0.784985312429895	0	0
0	0	0.0427062166965661	0.0561051718763315	0	0	0.698063028723802	-0.508253655113708
0.547551165920526	0.784985312429895	0	0	0.00182894706993501	-0.109261638721219	0	0
0	0	0.799664143799619	-0.202004869707972	0	0	0.0108743606502479	0.117607786978586
5.7	-0.0262631182345646	0.0245213119245454	0	0	0.798004944414098	-0.539026249596018	0	0
0	0	0.0213726910161882	-0.00737915895020545	0	0	-0.317955629676656	0.807207301760694
0.798004944414098	-0.539026249596018	0	0	-0.0120088357967456	0.0516806450668106	0	0
0	0	-0.53586042166046	-0.648846460325101	0	0	0.0583889413309336	0.0346548818568254
5.8	0.0333026028178674	-0.0138818755904808	0	0	0.521604572488776	0.797950901390467	0	0
0	0	-0.0211774661412425	-0.0315384656287512	0	0	0.155233700864963	0.853469392158746
0.521604572488776	0.797950901390467	0	0	0.0587885865801763	-0.0270444962689011	0	0
0	0	0.324144054456006	-0.770700521419751	0	0	0.0335821273475246	0.0557058193083756
5.9	-0.0366285342076427	0.000917436928322903	0	0	0.811691956608079	-0.498131845695935	0	0
0	0	-0.0553929279042998	-0.0267182536784401	0	0	-0.585042715117785	-0.637695784889328
0.811691956608079	-0.498131845695935	0	0	-0.0734332555172476	0.0438721919016091	0	0
0	0	-0.82682637148653	0.0595485164213827	0	0	0.0368880902966702	0.0727810040723182
6	0.0353503350637741	0.0117408782099929	0	0	0.482068585132243	0.825152383551741	0	0
0	0	-0.0335254712953703	0.0061220931641882	0	0	-0.847524107094395	-0.19499792148129
0.482068585132243	0.825152383551741	0	0	-0.00304126029869519	0.0244504940731006	0	0
