# GHZ S RI R 50
0.2	-0.00742157206665423	0.0109307718141058	0	0	0.957838877373979	0.0581435207009682	0	0
0	0	0.0193097806361771	0.0041394125868057	0	0	-0.370526223728692	0.911077262319289
0.957838877373979	0.0581435207009682	0	0	0.0223775610789477	0.041619536549424	0	0
0	0	0.569701416177641	-0.753974976956062	0	0	0.00282572948361953	-0.032188959130713
0.3	0.00719989563543244	-0.0104120855948905	0	0	0.0336748154763724	-0.96518001127952	0	0
0	0	-0.00574759713007044	0.00126953446356771	0	0	-0.134091399539501	-0.974250853297513
0.0336748154763724	-0.96518001127952	0	0	-0.0133532793404717	0.00348130938921686	0	0
0	0	-0.922033312274041	-0.202311432807858	0	0	-0.0319390474501404	-0.0184238657435141
0.4	-0.00884593109922973	0.00779204759977364	0	0	0.948582201211896	0.0622807669618535	0	0
0	0	-0.0393185192921576	0.000792654594806332	0	0	-0.666940237819248	-0.725987857882941
0.948582201211896	0.0622807669618535	0	0	-0.0340877561253835	-0.015023207081175	0	0
0	0	-0.234929987335974	-0.895899473685404	0	0	0.0216000521479053	0.0187446891631179
0.5	0.0113329015389679	-0.00379260049620814	0	0	0.128093520448449	-0.948902606457681	0	0
0	0	-0.0324294370323394	0.00513261921246047	0	0	0.96401466222919	0.20757589878855
0.128093520448449	-0.948902606457681	0	0	0.0364459747688966	0.0159160671434068	0	0
0	0	-0.678998939452024	0.636435196596139	0	0	0.00477911468079011	0.00692010961919255
0.6	-0.0126233447189248	0.000551113381013474	0	0	0.955111683590876	0.131841685353681	0	0
0	0	-0.00759299383908684	0.00686045461077599	0	0	0.913085945037935	-0.32904035826157
0.955111683590876	0.131841685353681	0	0	0.00471179305386441	-0.0200613932321635	0	0
0	0	-0.861938505842642	-0.34541262041677	0	0	-0.00562495873559321	-0.00754024005841283
0.7	0.0129240359473324	0.00185302624500352	0	0	0.10966153790036	-0.957941867783245	0	0
0	0	0.0233224719829589	-0.00978687548323031	0	0	-0.611949711693259	0.748271861462584
0.10966153790036	-0.957941867783245	0	0	0.00809091671570287	0.0097032392610952	0	0
0	0	0.0452686579762622	0.920798254917757	0	0	0.00234336752613011	-0.0130984981668469
0.8	-0.0118731157909362	-0.00446725324240753	0	0	0.955687187617717	0.114425892167441	0	0
0	0	0.0447202099933968	-0.0404559678074189	0	0	-0.121108107529514	0.961468594710006
0.955687187617717	0.114425892167441	0	0	-0.0222469328573942	0.0124600250915104	0	0
0	0	-0.812393131274583	0.448478750826625	0	0	0.00692723148153982	0.083201795602819
0.9	0.0087907688718621	0.0068727547031297	0	0	0.145970215845961	-0.940835674532899	0	0
0	0	0.0135191764116794	-0.0265279993348372	0	0	-0.434366765824823	-0.867281217792849
0.145970215845961	-0.940835674532899	0	0	-0.00149311564208335	-0.0626186341692042	0	0
0	0	0.764550977022806	0.526193890568579	0	0	0.0368255000257705	0.0131570269295715
1	-0.0049308089006361	-0.00852383246055237	0	0	0.943981222194758	0.182491621674719	0	0
0	0	-0.0143787768535752	0.0125060952051814	0	0	-0.839362878488645	-0.482568105283425
0.943981222194758	0.182491621674719	0	0	0.00289046730241366	0.041111753288607	0	0
0	0	-0.126995197652857	0.90390494027085	0	0	0.00344175656353326	0.000960654232140839
1.1	0.00113181239223397	0.0088730652405455	0	0	0.202251607311835	-0.951286906736954	0	0
0	0	-0.011844080638394	0.0349396191730607	0	0	0.958263660352913	-0.0508478082198713
0.202251607311835	-0.951286906736954	0	0	0.00314549451294037	0.00058578486400939	0	0
0	0	0.870765230265056	-0.260535960570232	0	0	0.00831948039458713	0.0419332097012309
1.2	0.00150952928788844	-0.00783943598572407	0	0	0.961250723372111	0.203033457788653	0	0
0	0	0.00843624412017762	0.0636601980029563	0	0	0.772879719207454	-0.556052125926377
0.961250723372111	0.203033457788653	0	0	0.0528522292482843	-0.00165789097967567	0	0
0	0	0.615393048895545	0.673027298536105	0	0	0.0059545203732054	0.0991666525068289
1.3	-0.00303102717756561	0.00488381778904067	0	0	0.205439825777016	-0.945253416311955	0	0
0	0	0.0161203720434487	0.0175265507456552	0	0	-0.355559875619429	0.885506798827261
0.205439825777016	-0.945253416311955	0	0	-0.0558484097994468	-0.00027621383774435	0	0
0	0	0.322536186769345	-0.861471870890168	0	0	0.0389730973139706	0.0139395575076634
1.4	0.00351791486538703	-0.00116535553348364	0	0	0.927098210386157	0.233311275678254	0	0
0	0	-0.0127779239131594	-0.0452774708028404	0	0	0.180735832882718	0.939508689460327
0.927098210386157	0.233311275678254	0	0	0.0157747564963797	0.00747235591652078	0	0
0	0	0.900923644928264	-0.0849153914855253	0	0	0.0431321794365875	-0.00687647694526908
1.5	-0.00241977686957532	-0.00180014990901458	0	0	0.270475947457757	-0.925105441052114	0	0
0	0	-0.0371763999315179	-0.0577387197235658	0	0	-0.677173724517767	-0.676176197600691
0.270475947457757	-0.925105441052114	0	0	0.0315788679701397	-0.0334191971857191	0	0
0	0	-0.463531983769206	-0.768718908911994	0	0	0.0318983412411119	0.0522432744363774
1.6	-7.04040819176957E-05	0.00362457692516533	0	0	0.940055959348198	0.294089294848097	0	0
0	0	-0.0348420776559448	-0.0207625065412814	0	0	-0.93927698919815	-0.182616143866778
0.940055959348198	0.294089294848097	0	0	-0.0532740149085502	-0.0268610725646196	0	0
0	0	0.497319073813556	-0.75645874608427	0	0	-0.000359285320036505	0.0530330958276657
1.7	0.00304639097146182	-0.00417389489181255	0	0	0.288538741387999	-0.945284885464219	0	0
0	0	0.0170677755299946	0.00556971745196739	0	0	0.885764305057031	-0.345706827913142
0.288538741387999	-0.945284885464219	0	0	-0.0022894488861791	0.00562766457209725	0	0
0	0	-0.902174356026441	-0.109818072835706	0	0	0.0388402580408639	-0.0301228236516185
1.8	-0.00545117980549766	0.00291174628929752	0	0	0.919106023136504	0.289434583295866	0	0
0	0	0.0467348051900954	0.0377727315441262	0	0	0.572789530546909	-0.74783528911056
0.919106023136504	0.289434583295866	0	0	0.00585481511712698	0.0658720587243777	0	0
0	0	-0.312067188042663	-0.849806627533486	0	0	0.0267527153762155	-0.0334416843126698
1.9	0.00698272056653151	0.000146466988329365	0	0	0.318699909057686	-0.895372164380627	0	0
0	0	0.0536271164591923	-0.00356697973455538	0	0	-0.0817715506984115	0.942393360702365
0.318699909057686	-0.895372164380627	0	0	0.00918541493592033	0.00946205598103749	0	0
0	0	-0.61441017715194	0.647227882295303	0	0	0.0406733449452553	0.0241257463744998
2	-0.00717186168199397	-0.0043831099629011	0	0	0.891990642510075	0.349137040677072	0	0
0	0	0.0154231837454864	-0.00444168741933139	0	0	0.45874385298874	0.832813495890375
0.891990642510075	0.349137040677072	0	0	-0.0503136625634603	-0.0327827270127606	0	0
0	0	-0.845147654103235	-0.26286227650498	0	0	-0.0533213900232861	-0.0206490099700608
2.1	0.00588714249814315	0.00880558834671479	0	0	0.364017080776457	-0.898413680305333	0	0
0	0	-0.0293884338264556	0.00858609845248831	0	0	-0.830764035580387	-0.45138756231806
0.364017080776457	-0.898413680305333	0	0	0.0703237691116619	0.0165446625052386	0	0
0	0	0.13623047019389	0.879355721947646	0	0	-0.00523927481107617	0.0100002362307083
2.2	-0.00265490487993901	-0.0124424224622214	0	0	0.898683763461957	0.376198983685737	0	0
0	0	-0.048779816933417	0.0179003398801268	0	0	-0.932216531078525	0.0691326966676309
0.898683763461957	0.376198983685737	0	0	0.0142639635294385	-0.01065679029635	0	0
0	0	-0.736896043399279	0.506523533501914	0	0	0.042251905097599	-0.0110089823805752
2.3	-0.00243293087408849	0.0141270115722798	0	0	0.386281541812676	-0.889461199555025	0	0
0	0	-0.0312288707712853	0.0197980296780146	0	0	0.7366560863138	-0.555677405571839
0.386281541812676	-0.889461199555025	0	0	0.0575677261247497	-0.0284580086462244	0	0
0	0	0.776255948972439	0.432156032219911	0	0	0.0663880156871969	0.0470062382918113
2.4	0.0088352536347366	-0.0135688944655216	0	0	0.878059157232286	0.398336465027438	0	0
0	0	-0.00116757660480784	0.00123381732605669	0	0	0.32446747984316	-0.868113854428716
0.878059157232286	0.398336465027438	0	0	-0.0973375356585033	0.0144745882936424	0	0
0	0	-0.0393079227028296	0.882785731182272	0	0	0.046870257984346	-0.0485247181141171
2.5	-0.0157317399788835	0.0107119566505686	0	0	0.415504026829114	-0.866621168828722	0	0
0	0	0.0190427219416015	-0.0361091458939545	0	0	0.18940637816768	0.917993321844631
0.415504026829114	-0.866621168828722	0	0	-0.010376587447796	-0.0262830184010129	0	0
0	0	0.805366643356298	-0.332209789650559	0	0	0.0125363811764716	7.64827440832691E-05
2.6	0.0215597325750624	-0.00598793918137768	0	0	0.859813684361403	0.429704856200784	0	0
0	0	0.0183013424283691	-0.0389925282945564	0	0	0.667514447397471	0.653955025916708
0.859813684361403	0.429704856200784	0	0	0.00557977331380968	-0.0326609455965188	0	0
0	0	0.630899497537368	0.597594306629112	0	0	0.0628289516400388	0.0109797942211388
2.7	-0.0252433745173017	-0.000483744966311667	0	0	0.444360169492105	-0.854144239802608	0	0
0	0	0.0218564701757572	-0.00972416457829647	0	0	-0.898209781392225	-0.174312624721528
0.444360169492105	-0.854144239802608	0	0	0.0034605645520997	-0.012190143966413	0	0
0	0	0.276066604362056	-0.836135906957635	0	0	-0.0270281035408745	-0.00015368608698248
2.8	0.0258162437576577	0.008039852941579	0	0	0.844049152914524	0.457859734981749	0	0
0	0	0.010298889871201	0.0126284514293239	0	0	-0.843016177431441	0.312895787087712
0.844049152914524	0.457859734981749	0	0	0.00443666750875069	0.0646284072423712	0	0
0	0	0.872376735297542	-0.150344687195978	0	0	0.0266667745294438	-0.0632643836602294
2.9	-0.0228381471631933	-0.0156773052242761	0	0	0.47403593086125	-0.82526587631567	0	0
0	0	0.000195667096313525	0.0369075039014598	0	0	0.567903785869018	-0.701616002939205
0.47403593086125	-0.82526587631567	0	0	-0.0532735592661337	0.0347371341532105	0	0
0	0	-0.515881519944734	-0.703422006731887	0	0	-0.0397322206064532	-0.0456931059606047
3	0.0170618565493012	0.0223478718337878	0	0	0.816642080565398	0.498243229386803	0	0
0	0	-0.0109599689441564	0.0301306215937052	0	0	0.0913544322263361	-0.921513098179989
0.816642080565398	0.498243229386803	0	0	-0.00649879082487251	-0.0173249947820827	0	0
0	0	0.406779604005286	-0.761896888564714	0	0	0.014282677788546	0.0864502792268242
3.1	-0.00851928039478053	-0.0263260994722608	0	0	0.518974773389538	-0.806668058246863	0	0
0	0	-0.0205304165404221	0.0133528779723194	0	0	0.449288622590403	0.807593736187595
0.518974773389538	-0.806668058246863	0	0	0.0390729073934342	-0.0644239226155735	0	0
0	0	-0.870611966416846	-0.0497499758066325	0	0	-0.0751232589003722	0.00656638552866673
3.2	-0.00126816610355115	0.0278931724192026	0	0	0.805458672837578	0.542681222128276	0	0
0	0	-0.0184885822863271	-0.00483495532522615	0	0	0.799608100575628	0.437290011084454
0.805458672837578	0.542681222128276	0	0	0.000983348889155891	0.0254114838019627	0	0
0	0	-0.338523615221504	-0.815030614766279	0	0	-0.059051630453278	0.0070509257371088
3.3	0.0107345617365753	-0.0258080549482757	0	0	0.553869762961361	-0.80139424504605	0	0
0	0	-0.00223376271888189	-0.0228924805464333	0	0	-0.906143190676661	0.0510478337503584
0.553869762961361	-0.80139424504605	0	0	0.0623274156583792	0.0242655613308352	0	0
0	0	-0.575026112844579	0.676897512052845	0	0	-0.0274803290061343	-0.107160027696209
3.4	-0.0184030860208011	0.0201309576005742	0	0	0.785019990720284	0.558624580941676	0	0
0	0	-0.00549969446179771	-0.040035460475428	0	0	-0.733120349023862	0.5445816041293
0.785019990720284	0.558624580941676	0	0	-0.115271741191617	0.00904248722034124	0	0
0	0	-0.858084869698617	-0.221569416288957	0	0	-0.0196951318763591	-0.0398136246886387
3.5	0.0236043665995325	-0.0124079515058191	0	0	0.57295464370635	-0.775696949942889	0	0
0	0	0.00686165356193516	-0.0304566624590059	0	0	0.296143822689716	-0.870215251394986
0.57295464370635	-0.775696949942889	0	0	-0.0124097745332061	-0.0536610440282988	0	0
0	0	0.169105332592748	0.843685855443582	0	0	0.0848376508584549	-0.072890884482488
3.6	-0.0255414022112269	0.0035678578752063	0	0	0.768658952372436	0.582394094909214	0	0
0	0	0.0187063760942469	0.00167456534128664	0	0	-0.21167159921781	-0.89447202008734
0.768658952372436	0.582394094909214	0	0	-0.0341931594976943	0.0607428386982676	0	0
0	0	-0.692129285162853	0.522167981353266	0	0	0.0446287455795223	-0.0317057494861989
3.7	0.0236794786465086	0.00581048563998681	0	0	0.601090709602857	-0.748088506823478	0	0
0	0	0.0134329256999779	0.0351191336683595	0	0	0.641018072177967	0.647409725761998
0.601090709602857	-0.748088506823478	0	0	0.118403912535207	0.00696093047655127	0	0
0	0	0.77171438855646	0.407682458796232	0	0	0.055401482529034	-0.0192455772728231
3.8	-0.0188011379387054	-0.013359867198319	0	0	0.741787699895671	0.619614995125931	0	0
0	0	0.0150767367518458	0.0493990593221129	0	0	0.871303811879922	0.184229170001866
0.741787699895671	0.619614995125931	0	0	-0.0251959964952209	0.0210158630531091	0	0
0	0	-0.0136688743579879	0.871117280935219	0	0	-0.0583594846865848	-0.0249228854100681
3.9	0.0115275818974751	0.0178097535701394	0	0	0.624099049087524	-0.740701329484407	0	0
0	0	0.0112306188149327	0.0148265374358701	0	0	-0.822507184656563	0.329353324379335
0.624099049087524	-0.740701329484407	0	0	-0.0129356108646577	0.0832833014289195	0	0
0	0	0.781185705203919	-0.387076692861286	0	0	0.0248442367545818	-0.0058220696694836
4	-0.00246048090673618	-0.019163925558297	0	0	0.722568495285932	0.632439395770356	0	0
0	0	-0.0164190144242558	-0.0125726985141115	0	0	-0.513584842142863	0.724952384883429
0.722568495285932	0.632439395770356	0	0	0.0507013902553361	-0.0743883147113624	0	0
0	0	0.684442309820323	0.513629220579785	0	0	-0.00460775668717138	0.00948082596640693
4.1	-0.00581364440316131	0.0172900404808364	0	0	0.638030026750516	-0.70928172787048	0	0
0	0	-0.0411831414344665	-0.0351412853716305	0	0	0.0528914650340155	-0.890448403228451
0.638030026750516	-0.70928172787048	0	0	0.0246440358045061	-0.111796198933443	0	0
0	0	0.18168168751398	-0.827273923281409	0	0	0.0266250355230356	0.0814096058484094
4.2	0.0122668585237611	-0.0126960762160321	0	0	0.704112110847568	0.649444737110723	0	0
0	0	-0.0486664696547724	-0.0147835927942065	0	0	-0.434007753122164	-0.778407282937579
0.704112110847568	0.649444737110723	0	0	-0.039905196001058	0.0163706886245149	0	0
0	0	0.829551813158094	-0.185839129651263	0	0	-0.0119079873862391	-0.0413188350804574
4.3	-0.0159487444684168	0.00565387113180285	0	0	0.658391021317963	-0.697188475429761	0	0
0	0	-0.00742134625035438	0.00743128792472099	0	0	0.777378216527421	0.421853172992639
0.658391021317963	-0.697188475429761	0	0	-0.0108447980856186	0.0670689777415566	0	0
0	0	-0.534433299059653	-0.671329906443187	0	0	-0.0144288360434517	0.00235171267459732
4.4	0.0162227349464114	0.00271977027910883	0	0	0.6800927083113	0.668328976558787	0	0
0	0	0.0377340723829328	0.00479142668652457	0	0	0.886341329774769	-0.0546391842809731
0.6800927083113	0.668328976558787	0	0	0.00115571811447222	-0.0499631243912885	0	0
0	0	0.344318709808308	-0.771092498432137	0	0	-0.0335451814468378	0.00343532723462835
4.5	-0.0130028204421175	-0.0101625110623679	0	0	0.675267860528491	-0.661947160237498	0	0
0	0	0.0641002293673939	-0.00452209496291529	0	0	-0.720615600101326	0.522781788757406
0.675267860528491	-0.661947160237498	0	0	-0.0497011986898355	0.0267163689692218	0	0
0	0	-0.833732279270101	0.0119244788187794	0	0	-0.0856786994368544	0.0621782218565895
4.6	0.00677725892101628	0.0155787820507283	0	0	0.644075738554903	0.690312513887953	0	0
0	0	0.0460131549413042	-0.0254320783217992	0	0	-0.31236488814653	0.843202956412833
0.644075738554903	0.690312513887953	0	0	-0.00378524086764493	0.0141505357168328	0	0
0	0	-0.371412055022036	-0.743502906134323	0	0	-0.0798015073169256	-0.00921391489017349
4.7	0.00128696328944888	-0.0179254816580939	0	0	0.707892289289006	-0.637335065767034	0	0
0	0	-0.0250089395105379	-0.0062231659039027	0	0	-0.19102161805299	-0.873042175601601
0.707892289289006	-0.637335065767034	0	0	0.0657400828193698	-0.0173530272225445	0	0
0	0	-0.523703561872352	0.655139376532799	0	0	-0.0726634150312123	0.0724909226498074
4.8	-0.00999826168769708	0.0169255332993977	0	0	0.637679693474589	0.724158949463237	0	0
0	0	-0.0587297861267733	0.0332897991268379	0	0	-0.606907819074878	-0.63432352736526
0.637679693474589	0.724158949463237	0	0	0.0533306478031561	-0.0181276877162193	0	0
0	0	-0.827223049678047	-0.196814323435666	0	0	-0.00862147278945368	0.0719958137855517
4.9	0.0175652713629899	-0.0118039625979045	0	0	0.730402572990693	-0.629954048075936	0	0
0	0	-0.0394708144460122	0.0577115521370545	0	0	0.854262815422586	0.206655034549323
0.730402572990693	-0.629954048075936	0	0	-0.0803186990151532	-0.0286651461465992	0	0
0	0	0.199350504768299	0.821032419638223	0	0	-0.0829723079368853	0.00402259720125016
5	-0.022180501050461	0.00364701036627681	0	0	0.619191982825607	0.725817891206647	0	0
0	0	0.000294657625607197	0.0197010774670266	0	0	0.830687273625897	-0.298771789336784
0.619191982825607	0.725817891206647	0	0	-0.0470458174978859	0.0409107183221912	0	0
0	0	-0.644723108140564	0.534172447242752	0	0	0.0419757025548365	-0.00915218352542589
5.1	0.023716079938901	0.00642146940685614	0	0	0.727102115201282	-0.606689472268802	0	0
0	0	0.039256953909742	-0.0337852635138801	0	0	-0.532681723097862	0.695813295351145
0.727102115201282	-0.606689472268802	0	0	-0.0212606487700119	-0.0413431086703354	0	0
0	0	0.750065538359843	0.344229227509093	0	0	0.0729602444789177	-0.0199197324447481
5.2	-0.0214945445762691	-0.0175634119583391	0	0	0.584501409512039	0.74462875854362	0	0
0	0	0.0168512357702917	-0.074283214202587	0	0	-0.0779029280204446	0.871736807965201
0.584501409512039	0.74462875854362	0	0	0.0386977003321971	0.0222261998037775	0	0
0	0	0.0159756637848325	0.832268809703273	0	0	0.0271988267750348	0.0661217754784579
5.3	0.015383163367073	0.0270134020493973	0	0	0.763161579611275	-0.572606529321645	0	0
0	0	-0.0136748757542891	-0.0410403778792145	0	0	-0.412806416669306	-0.770566177390151
0.763161579611275	-0.572606529321645	0	0	-0.0317036654710786	0.0245579260630764	0	0
0	0	0.74259713173297	-0.374832224078062	0	0	-0.0431675986384714	0.0116804236977938
5.4	-0.00620939182101838	-0.0327813836032791	0	0	0.564368754621027	0.768101073384092	0	0
0	0	-0.0312063123057931	0.0150771740490882	0	0	-0.767362223191909	-0.427568801913729
0.564368754621027	0.768101073384092	0	0	0.070736803261465	0.0871704420519669	0	0
0	0	0.657588137350771	0.509239520676434	0	0	-0.00935672942192409	0.0215493519761178
5.5	-0.00488341328641512	0.0351526569747566	0	0	0.779030249970023	-0.561667140987808	0	0
0	0	0.0229112948057131	0.0605525570212547	0	0	0.876901607719411	-0.0450220294921402
0.779030249970023	-0.561667140987808	0	0	-0.00647912638104543	-0.0278197430605928	0	0
0	0	0.157080797033765	-0.816475472070157	0	0	0.0216180543085524	0.0382381889485882
5.6	0.0166030178545521	-0.0327571754845029	0	0	0.547478372243576	0.784671181715987	0	0
0	0	0.0417206995481971	0.0570514772818229	0	0	0.697466324366435	-0.508553910380809
0.547478372243576	0.784671181715987	0	0	0.00194131283993618	-0.109458416318575	0	0
0	0	0.799242129640354	-0.202483417427691	0	0	0.0112025391286508	0.117285326252988
5.7	-0.0272569043164746	0.0263578921234567	0	0	0.79765259086711	-0.539243507970087	0	0
0	0	0.0198499105253606	-0.00680436371572579	0	0	-0.317402851032959	0.80698361300173
0.79765259086711	-0.539243507970087	0	0	-0.011617776728587	0.0513875637013732	0	0
0	0	-0.53593008329503	-0.648272256979801	0	0	0.058756392221618	0.0343588454649855
5.8	0.0338563987317355	-0.0157670642384074	0	0	0.52159614533857	0.797626243167776	0	0
0	0	-0.0227245169161474	-0.0314205389119765	0	0	0.155587530948523	0.853034220107447
0.52159614533857	0.797626243167776	0	0	0.0592807730212092	-0.0275998500131828	0	0
0	0	0.323629259576319	-0.770535569022249	0	0	0.0342076175705376	0.055195916318554
5.9	-0.0368540117754978	0.00241033677911813	0	0	0.811483575667794	-0.498407955993148	0	0
0	0	-0.0565306400068347	-0.0270200180702766	0	0	-0.585109228020733	-0.637176316995734
0.811483575667794	-0.498407955993148	0	0	-0.0728964100503867	0.0429503865020823	0	0
0	0	-0.826476078152919	0.0599076182780411	0	0	0.0375631772080893	0.0718502104671434
6	0.0356244331127669	0.010831786710603	0	0	0.482267225799202	0.824927170498664	0	0
0	0	-0.0339777885210022	0.00556821657617102	0	0	-0.847461879200076	-0.194546726425781
0.482267225799202	0.824927170498664	0	0	-0.00282626805373727	0.0231135494760962	0	0
