# GHZ S RI R 50
0.2	-0.00701189885296958	0.0109181775908218	0	0	0.957835005356541	0.0581812079010366	0	0
0	0	0.0195773202116394	0.00444193258550979	0	0	-0.370509197947333	0.911051515043
0.957835005356541	0.0581812079010366	0	0	0.0218220766458212	0.0417449478854364	0	0
0	0	0.569679231441413	-0.75395529342585	0	0	0.00225610322014778	-0.0320792130098577
0.3	0.00701816669764924	-0.0103017503637429	0	0	0.0337213019025117	-0.965160542288728	0	0
0	0	-0.0056327562923407	0.00143982050928625	0	0	-0.134046731414726	-0.974211815725466
0.0337213019025117	-0.965160542288728	0	0	-0.0137127018071598	0.00383364464846575	0	0
0	0	-0.921983335384423	-0.202338721755763	0	0	-0.0323231129806117	-0.0180829205381599
0.4	-0.0088393100166971	0.00784097702785556	0	0	0.948567910817308	0.0623500153519992	0	0
0	0	-0.0393650283948421	0.000779758344605177	0	0	-0.666865597167411	-0.726021073661673
0.948567910817308	0.0623500153519992	0	0	-0.0342091044338319	-0.0146381996344646	0	0
0	0	-0.234853409164988	-0.895894267348224	0	0	0.0214391092437028	0.0191365941160622
0.5	0.0113545984059438	-0.00408253097334191	0	0	0.128208347880516	-0.94889106078425	0	0
0	0	-0.0326355235512788	0.00493876905531007	0	0	0.963996904276735	0.207685747487318
0.128208347880516	-0.94889106078425	0	0	0.0364792626200721	0.0162091833172232	0	0
0	0	-0.679074628074437	0.636362399153885	0	0	0.00478787699639022	0.00721560319231842
0.6	-0.0124749866088111	0.00102437792222779	0	0	0.955141230380603	0.131978557382325	0	0
0	0	-0.00787308927892806	0.00648800128282592	0	0	0.913178639383559	-0.328945570396059
0.955141230380603	0.131978557382325	0	0	0.00478378694276313	-0.0199284411072555	0	0
0	0	-0.861944492311473	-0.3455393214109	0	0	-0.00557165467456318	-0.00739901614768131
0.7	0.0125112756564027	0.00141001824312674	0	0	0.109836743416506	-0.958011026920097	0	0
0	0	0.0230718773804737	-0.0102886144827639	0	0	-0.612111117414221	0.748282139156777
0.109836743416506	-0.958011026920097	0	0	0.00806862981863597	0.00974468941019497	0	0
0	0	0.0451609955769167	0.920908715143284	0	0	0.00232116598627885	-0.0130659681967249
0.8	-0.0113350607181713	-0.00421438448652085	0	0	0.955805657852648	0.114607670313077	0	0
0	0	0.0445454324370512	-0.0409832563846292	0	0	-0.121287017773367	0.961603890179569
0.955805657852648	0.114607670313077	0	0	-0.0224062047939496	0.0125151425846611	0	0
0	0	-0.812598732441184	0.448416587236297	0	0	0.00674682879160076	0.0832682960849547
0.9	0.00834306823572397	0.00680473931644295	0	0	0.146106750204342	-0.941036563384956	0	0
0	0	0.0134406210992738	-0.0269508565879765	0	0	-0.434387550851607	-0.867516508199615
0.146106750204342	-0.941036563384956	0	0	-0.00169721029206819	-0.0624505030256964	0	0
0	0	0.764677061054016	0.526381469717774	0	0	0.0365850566845008	0.0133330011203325
1	-0.00469815572952115	-0.00851376474795191	0	0	0.944253542819957	0.182629894781964	0	0
0	0	-0.0143522446769186	0.012299374476259	0	0	-0.839550199564779	-0.482738682758759
0.944253542819957	0.182629894781964	0	0	0.00272690796121484	0.0415228830414386	0	0
0	0	-0.12707854540538	0.904128775389422	0	0	0.00321378244409709	0.00132158558231177
1.1	0.00112397892927075	0.00872850782259855	0	0	0.202310541582149	-0.951611328763437	0	0
0	0	-0.0117419260826787	0.035011907739612	0	0	0.95855276970708	-0.0508481707675084
0.202310541582149	-0.951611328763437	0	0	0.00318859783629671	0.00110430636300928	0	0
0	0	0.871031281962661	-0.260600776687489	0	0	0.00826232363041147	0.0424896254061711
1.2	0.00146632180893886	-0.0074273563021	0	0	0.961605093517384	0.203020637896496	0	0
0	0	0.00854320941245045	0.0640030218575224	0	0	0.773105125136543	-0.556254349115515
0.961605093517384	0.203020637896496	0	0	0.0531881836988738	-0.00115220013892374	0	0
0	0	0.61561062662701	0.67321910349001	0	0	0.00615410339679034	0.0998194681001732
1.3	-0.00310510984470443	0.0043138600881726	0	0	0.205283571397324	-0.945587357538175	0	0
0	0	0.0161427093730718	0.0180426833144554	0	0	-0.355584910949408	0.885891001627136
0.205283571397324	-0.945587357538175	0	0	-0.0554053792495439	0.000155469277885539	0	0
0	0	0.322551581085474	-0.861842707914538	0	0	0.0393841592608861	0.0144671103492827
1.4	0.0036645964627009	-0.000561688824824265	0	0	0.927429922550268	0.233118758156761	0	0
0	0	-0.0129539780772728	-0.044743644558912	0	0	0.181023550795888	0.939825131455528
0.927429922550268	0.233118758156761	0	0	0.016334570639643	0.00776851819116698	0	0
0	0	0.90124767267993	-0.085157559806867	0	0	0.0436198956872581	-0.00645927388920056
1.5	-0.00263103054707935	-0.00245584882239689	0	0	0.270198863387353	-0.925441471825877	0	0
0	0	-0.037564054473249	-0.0572650051132493	0	0	-0.677587145168433	-0.676191246575204
0.270198863387353	-0.925441471825877	0	0	0.0321460914747766	-0.0332693842975357	0	0
0	0	-0.463904938514247	-0.768826114532802	0	0	0.0324626420199737	0.0525953287455933
1.6	0.000298302320073749	0.00428478295048591	0	0	0.94028946251971	0.293688011949442	0	0
0	0	-0.0353681600563549	-0.0203930263645166	0	0	-0.939570200193685	-0.182296063531591
0.94028946251971	0.293688011949442	0	0	-0.0527444067725928	-0.0267992055541688	0	0
0	0	0.497144286094052	-0.756830377690846	0	0	0.00022550800764105	0.0532399999154978
1.7	0.00254519400835068	-0.00466440466463261	0	0	0.288126093579977	-0.945448304026105	0	0
0	0	0.0165184853394663	0.00577907153551873	0	0	0.885736054104527	-0.346222583090626
0.288126093579977	-0.945448304026105	0	0	-0.00181984233889814	0.00548677199316464	0	0
0	0	-0.902383984772285	-0.109371076421597	0	0	0.0393088215760771	-0.0301715565334221
1.8	-0.00501481669820572	0.0032019623400923	0	0	0.919178356685434	0.289031131785903	0	0
0	0	0.0462862073018034	0.0377955261489272	0	0	0.572400590056189	-0.748173406383755
0.919178356685434	0.289031131785903	0	0	0.00621411768037316	0.0656296408191863	0	0
0	0	-0.312541800431309	-0.849665026456662	0	0	0.0270765188187013	-0.0335969944121549
1.9	0.00670980830295183	-7.70376403022872E-05	0	0	0.318252438346013	-0.895376218977684	0	0
0	0	0.0533670796843352	-0.0037065096838918	0	0	-0.081284871979165	0.942362083489588
0.318252438346013	-0.895376218977684	0	0	0.0093457669099992	0.00923092532303886	0	0
0	0	-0.614032712350156	0.647490947585294	0	0	0.0409075764885169	0.0239240087568199
2	-0.00702985824752228	-0.00410121970206757	0	0	0.891900493009559	0.348658398916034	0	0
0	0	0.015381867543834	-0.00468901894184552	0	0	0.459039321519074	0.832420241243207
0.891900493009559	0.348658398916034	0	0	-0.0502373840065902	-0.0328771162565985	0	0
0	0	-0.845092197993315	-0.262407761188168	0	0	-0.0531946596424064	-0.0207069564813836
2.1	0.00576082420875848	0.00841412637834035	0	0	0.363602546189306	-0.898241146531394	0	0
0	0	-0.0292270017583851	0.00829911046691395	0	0	-0.830711416750846	-0.450936531708772
0.363602546189306	-0.898241146531394	0	0	0.0703673692678998	0.0163866381288195	0	0
0	0	0.136538012754398	0.87905896420144	0	0	-0.00511939785362393	0.00993600834281607
2.2	-0.00244423610063111	-0.0120123067042016	0	0	0.898413797518341	0.375811294230338	0	0
0	0	-0.0484911909965393	0.0176518883714584	0	0	-0.931906514735051	0.0694120742826373
0.898413797518341	0.375811294230338	0	0	0.0143679525216063	-0.0107618658999175	0	0
0	0	-0.736505216425071	0.506604910099623	0	0	0.0423687113544848	-0.0110831797101447
2.3	-0.00270883632795983	0.0137934124171933	0	0	0.385976614458301	-0.889147840947581	0	0
0	0	-0.0309322270443298	0.0196408289498248	0	0	0.73629059384125	-0.555658376704882
0.385976614458301	-0.889147840947581	0	0	0.0576476354331548	-0.0286331314475135	0	0
0	0	0.776096809450524	0.431841626696616	0	0	0.0665583828505423	0.0468289912284974
2.4	0.00904688995884263	-0.0133829477913967	0	0	0.877661087177236	0.398117795712874	0	0
0	0	-0.000967679073103399	0.00118583249867068	0	0	0.324214180873403	-0.867845447953496
0.877661087177236	0.398117795712874	0	0	-0.0971554112115168	0.014185010755938	0	0
0	0	-0.0391570014425511	0.882467849157632	0	0	0.0470123575233343	-0.0487213057357314
2.5	-0.0157679204065071	0.0105912262701809	0	0	0.415368486508325	-0.866255260748963	0	0
0	0	0.0190697841349436	-0.036060876288184	0	0	0.189381644756474	0.91766633215969
0.415368486508325	-0.866255260748963	0	0	-0.0103815627145936	-0.0266129916174998	0	0
0	0	0.805072357621668	-0.332130476388908	0	0	0.0126519610912486	-0.000238174277111024
2.6	0.0214325421803031	-0.00580148698787232	0	0	0.859473610749118	0.42964683972774	0	0
0	0	0.0181454461233886	-0.0389093900225222	0	0	0.667290672078436	0.653797566257906
0.859473610749118	0.42964683972774	0	0	0.00545401189745997	-0.0329922081129657	0	0
0	0	0.630688964370364	0.597451405078992	0	0	0.0628227084820057	0.0106206774881831
2.7	-0.0250514627306288	-0.000782283824506548	0	0	0.444362805782973	-0.8538391931739	0	0
0	0	0.021575792944296	-0.00968643126587952	0	0	-0.89799832236073	-0.174341466444913
0.444362805782973	-0.8538391931739	0	0	0.00325813965786385	-0.0125000764218673	0	0
0	0	0.276068317463255	-0.835930529428089	0	0	-0.0270612342592692	-0.0005115903785941
2.8	0.0256118998120976	0.00839985562667186	0	0	0.843773539037442	0.457906224744447	0	0
0	0	0.0099833988672047	0.0125435824889899	0	0	-0.842954185827828	0.312787907004969
0.843773539037442	0.457906224744447	0	0	0.00417053328738535	0.0643360017332707	0	0
0	0	0.872297236939598	-0.150251500989987	0	0	0.0265779728916875	-0.0635691811124561
2.9	-0.0225918312785318	-0.0160717214338989	0	0	0.474066851428403	-0.825081075671365	0	0
0	0	-6.51265938908166E-05	0.0366394728487987	0	0	0.567916221215498	-0.701544368865129
0.474066851428403	-0.825081075671365	0	0	-0.0535294693601727	0.0345112789755177	0	0
0	0	-0.515811515570335	-0.703415994802704	0	0	-0.039853582930285	-0.0459771386685367
3	0.0167624037008322	0.0228347117102591	0	0	0.816558769229222	0.498275304166304	0	0
0	0	-0.0111129007855708	0.0296865739331564	0	0	0.0914469813995904	-0.921499116540192
0.816558769229222	0.498275304166304	0	0	-0.00675190284673555	-0.0174422540587792	0	0
0	0	0.406854411615905	-0.761851891184108	0	0	0.0141112332570866	0.0862406182375839
3.1	-0.00824024542409176	-0.0269344117236059	0	0	0.5189804674856	-0.806684701386226	0	0
0	0	-0.0205401477942537	0.0128004282027608	0	0	0.449322152776631	0.807606640831128
0.5189804674856	-0.806684701386226	0	0	0.0388551902254112	-0.0644590528642143	0	0
0	0	-0.870639186176429	-0.049729767319823	0	0	-0.0752942836331592	0.00644487961129582
3.2	-0.00145599827073572	0.0285789967640211	0	0	0.805455199268596	0.542606429402357	0	0
0	0	-0.0183324244458343	-0.00537604625919045	0	0	0.799705373205345	0.437238868777496
0.805455199268596	0.542606429402357	0	0	0.000852673691572719	0.0254375748381553	0	0
0	0	-0.33862806765651	-0.815050988854864	0	0	-0.0591800238513094	0.00702292653975306
3.3	0.0108147818478771	-0.026467041804438	0	0	0.553751162569633	-0.801440511865712	0	0
0	0	-0.00194066121462861	-0.0233115103881246	0	0	-0.906196362043816	0.0512916703865897
0.553751162569633	-0.801440511865712	0	0	0.0622808338937316	0.0242855617702966	0	0
0	0	-0.574889095920386	0.677099685857127	0	0	-0.0275903711745241	-0.107157127117687
3.4	-0.018457030048065	0.0206992054174316	0	0	0.785027420831323	0.558310146856026	0	0
0	0	-0.00511781158891074	-0.0402451599970975	0	0	-0.73297174744264	0.544819221755221
0.785027420831323	0.558310146856026	0	0	-0.115219459960378	0.00911139166958403	0	0
0	0	-0.858173696252882	-0.22131236661413	0	0	-0.0197155686289788	-0.0397898909169469
3.5	0.0236976802519081	-0.0129471819451087	0	0	0.572570901016857	-0.775741762138872	0	0
0	0	0.00726329053903205	-0.0304330647769236	0	0	0.295801023016438	-0.870324612776115
0.572570901016857	-0.775741762138872	0	0	-0.0124113218391453	-0.0536574014916753	0	0
0	0	0.169434253130916	0.843613332710991	0	0	0.0848145798354217	-0.0729555398350519
3.6	-0.0256451473826522	0.00413570763414061	0	0	0.768572220588545	0.581927761615373	0	0
0	0	0.0190658380466303	0.00191191537365645	0	0	-0.212013642756175	-0.894265809694327
0.768572220588545	0.581927761615373	0	0	-0.0341104633606339	0.0606778987843302	0	0
0	0	-0.691821431974761	0.522385121361313	0	0	0.0446254939121234	-0.0317610888832701
3.7	0.0237369881969788	0.00523650655346705	0	0	0.60061387046342	-0.747988719693871	0	0
0	0	0.0136771243223175	0.0354803485377668	0	0	0.641131250995065	0.64696740010045
0.60061387046342	-0.747988719693871	0	0	0.118298064676487	0.00683792874232709	0	0
0	0	0.771690848616479	0.40724570344554	0	0	0.0553674712025912	-0.0193160457767378
3.8	-0.0187902122568784	-0.0128546042237741	0	0	0.741523914238452	0.619025489358593	0	0
0	0	0.0151884820225644	0.0497381640968161	0	0	0.870971772935858	0.183809972572496
0.741523914238452	0.619025489358593	0	0	-0.0251843740498028	0.0209963116239911	0	0
0	0	-0.0133285726856326	0.870719935721002	0	0	-0.0583423388536662	-0.0248784955386219
3.9	0.0115228627400349	0.0174383118316108	0	0	0.623515223797069	-0.740304287338178	0	0
0	0	0.0112099168303001	0.0150539984911208	0	0	-0.821926513171483	0.329419585183229
0.623515223797069	-0.740304287338178	0	0	-0.0129233359594185	0.0831971386981631	0	0
0	0	0.780610955243586	-0.387096502299219	0	0	0.0247724579232394	-0.00583265700313743
4	-0.00256715015558743	-0.0188804553311203	0	0	0.722112155323353	0.631852354793162	0	0
0	0	-0.0165518662253805	-0.0125082146020089	0	0	-0.513097631120373	0.724524750730767
0.722112155323353	0.631852354793162	0	0	0.050565014752593	-0.0742324481608144	0	0
0	0	0.68404343597076	0.513148833622363	0	0	-0.00464951805950755	0.00949140573574974
4.1	-0.00560796237141377	0.0169955558449547	0	0	0.637474088136158	-0.708714000082856	0	0
0	0	-0.0413606045282681	-0.035240929912647	0	0	0.0528676313776245	-0.889752373365011
0.637474088136158	-0.708714000082856	0	0	0.0245804822283297	-0.111533964162607	0	0
0	0	0.181556095422871	-0.826624677391282	0	0	0.0265360029237161	0.0813271829744178
4.2	0.0120377814695066	-0.012359851758466	0	0	0.703356217570987	0.648939742032289	0	0
0	0	-0.0487989729852631	-0.0149862163373069	0	0	-0.433535203156828	-0.77784495718413
0.703356217570987	0.648939742032289	0	0	-0.039822604590033	0.0163941741073278	0	0
0	0	0.828909421103915	-0.18555945128539	0	0	-0.0118959647317964	-0.0412041769624257
4.3	-0.0157352348949063	0.0053412543415971	0	0	0.658021877910489	-0.69630179699655	0	0
0	0	-0.00743655530989254	0.00722041338418176	0	0	0.776612500571916	0.421780046444283
0.658021877910489	-0.69630179699655	0	0	-0.0108359970690648	0.0669582214378862	0	0
0	0	-0.533777139960234	-0.670974446926324	0	0	-0.0143963649316417	0.00236696863033478
4.4	0.0159706756287548	0.00295104456784173	0	0	0.679190086851613	0.668109457565962	0	0
0	0	0.0378657494253433	0.00466374883058156	0	0	0.885694483014035	-0.0541516582981312
0.679190086851613	0.668109457565962	0	0	0.00122149012284023	-0.0499185043169501	0	0
0	0	0.344444717745536	-0.770332601594589	0	0	-0.0334664797018328	0.00337462312894367
4.5	-0.0126449937038111	-0.010346500929043	0	0	0.675177680450758	-0.661011680259336	0	0
0	0	0.0643610212452936	-0.00450022130697845	0	0	-0.720451899482451	0.52193487735697
0.675177680450758	-0.661011680259336	0	0	-0.049706597107514	0.0265188202212304	0	0
0	0	-0.833150350852325	0.0113640859577369	0	0	-0.0856254928466083	0.0618924075890391
4.6	0.00630519425990878	0.0157972261079437	0	0	0.643159295497078	0.69037799685874	0	0
0	0	0.0463418406343305	-0.0252491905486951	0	0	-0.312840221637806	0.842477190496754
0.643159295497078	0.69037799685874	0	0	-0.00393249442918823	0.014022231320867	0	0
0	0	-0.370622136687807	-0.7433649539045	0	0	-0.0797267660829831	-0.00946589411747496
4.7	0.00180685013382002	-0.0182292366668221	0	0	0.708139604983094	-0.636466481025843	0	0
0	0	-0.024725520004907	-0.00589777517949131	0	0	-0.190137239586057	-0.872836951622184
0.708139604983094	-0.636466481025843	0	0	0.0655017505557176	-0.0173042825587043	0	0
0	0	-0.524076479618367	0.654373276298612	0	0	-0.0728293891251287	0.0721421841633753
4.8	-0.0104998057805211	0.017282483596668	0	0	0.636886371880707	0.72453162098288	0	0
0	0	-0.0586054381802389	0.0336857039329083	0	0	-0.606155213114973	-0.634768998631438
0.636886371880707	0.72453162098288	0	0	0.0530705507775704	-0.0180504520628821	0	0
0	0	-0.826845131776488	-0.197572433096053	0	0	-0.00890657734865806	0.0717935538992616
4.9	0.0180544566334923	-0.012144826697173	0	0	0.730795688431509	-0.629294004847124	0	0
0	0	-0.0395487880634656	0.0580927374907882	0	0	0.853989221848741	0.207422869179537
0.730795688431509	-0.629294004847124	0	0	-0.08052669924781	-0.0287550217061351	0	0
0	0	0.198573876904162	0.821136524700424	0	0	-0.0831549445210906	0.00374085952600302
5	-0.0226948104122279	0.00398656933717542	0	0	0.618638737280738	0.726277446078184	0	0
0	0	1.2690962591413E-05	0.0200105155597834	0	0	0.831051922851726	-0.298062064807283
0.618638737280738	0.726277446078184	0	0	-0.0473756575690106	0.0409322070407799	0	0
0	0	-0.645277068601679	0.533656852496088	0	0	0.0417904244682468	-0.00916817472487045
5.1	0.0242374029602986	0.006025761209096	0	0	0.727577433033241	-0.60632838886939	0	0
0	0	0.0388465021833409	-0.0335954028123646	0	0	-0.533398478882278	0.695568514317979
0.727577433033241	-0.60632838886939	0	0	-0.0214499546029765	-0.0412239643774573	0	0
0	0	0.749990090919477	0.344938530567674	0	0	0.0728070886351444	-0.0198440991865396
5.2	-0.0219624597104768	-0.0171370654828289	0	0	0.584200134069891	0.745102848789422	0	0
0	0	0.0164221967574719	-0.0742323326900096	0	0	-0.0785880032496947	0.871992748126096
0.584200134069891	0.745102848789422	0	0	0.038520537840505	0.0224906156190944	0	0
0	0	0.0153542173759173	0.832581252673282	0	0	0.0269090815819854	0.0662423940516325
5.3	0.0157726168377014	0.0266344045557092	0	0	0.763544270493348	-0.572384312893696	0	0
0	0	-0.0139935809236152	-0.041124815832556	0	0	-0.412505826144852	-0.771096796148488
0.763544270493348	-0.572384312893696	0	0	-0.0318087744609495	0.0247676155158376	0	0
0	0	0.743094932256416	-0.374533975967385	0	0	-0.0433785959958017	0.0117317521540852
5.4	-0.00658358502855464	-0.0325153460560842	0	0	0.56419797201465	0.768469885457699	0	0
0	0	-0.0313298894855047	0.0148791603230332	0	0	-0.767454570569921	-0.428076063670446
0.56419797201465	0.768469885457699	0	0	0.0707139960108708	0.0874403138631637	0	0
0	0	0.657602531071197	0.509727480502642	0	0	-0.00948154111303285	0.0216678635211228
5.5	-0.00442050248601506	0.0349520042224726	0	0	0.779279527497663	-0.561614893386946	0	0
0	0	0.0230034880537114	0.0602975662090803	0	0	0.877197856878153	-0.0447149105945406
0.779279527497663	-0.561614893386946	0	0	-0.00643829715002776	-0.0277120038342487	0	0
0	0	0.157430236635266	-0.816678351388337	0	0	0.0215524221654124	0.0383626669463579
5.6	0.0160558130227111	-0.0325285164651893	0	0	0.547501477059643	0.784822512361712	0	0
0	0	0.0419800610779878	0.0568140027756037	0	0	0.697809140942978	-0.508423110771987
0.547501477059643	0.784822512361712	0	0	0.00195870108997279	-0.109396148260862	0	0
0	0	0.799499428697692	-0.202245447024142	0	0	0.0110764098383726	0.117393185639604
5.7	-0.0267043376504339	0.0260392317560545	0	0	0.797663701927316	-0.539137452637197	0	0
0	0	0.0202033100702879	-0.00696978780983719	0	0	-0.317696531762829	0.807035133671487
0.797663701927316	-0.539137452637197	0	0	-0.0116713652605491	0.0515143643994658	0	0
0	0	-0.53583593318112	-0.648545713916519	0	0	0.0586651868194041	0.0344478642228036
5.8	0.0334156508344718	-0.0154357624945837	0	0	0.521466519656378	0.797588841858609	0	0
0	0	-0.0224137301259045	-0.03148487855168	0	0	0.155339123711613	0.853148362174504
0.521466519656378	0.797588841858609	0	0	0.0592196191324987	-0.0273476135679716	0	0
0	0	0.323889892409147	-0.770496892302562	0	0	0.0340319085658144	0.0553195766218321
5.9	-0.0365041756500262	0.00218503484509398	0	0	0.811327542203475	-0.498137350326578	0	0
0	0	-0.0563602022943927	-0.0269836403334452	0	0	-0.584873761696809	-0.637365743684731
0.811327542203475	-0.498137350326578	0	0	-0.0728433263645872	0.0432488917549677	0	0
0	0	-0.826478103525777	0.0596181469503738	0	0	0.0373473602932381	0.0720677301824885
6	0.0352733715655302	0.0109005831440475	0	0	0.481893853881203	0.824784677645484	0	0
0	0	-0.0339970957444903	0.00567078656564391	0	0	-0.847262716620786	-0.194890743558092
0.481893853881203	0.824784677645484	0	0	-0.00266364997651157	0.023495293601575	0	0
