# GHZ S RI R 50
0.2	-0.00651329558486035	0.0119023283894864	0	0	0.957722321601065	0.058432174698988	0	0
0	0	0.0190977891936681	0.00545659070618574	0	0	-0.370685555572955	0.91094484323714
0.957722321601065	0.058432174698988	0	0	0.0209054824919421	0.0404412139708044	0	0
0	0	0.569816519646974	-0.753812572071203	0	0	0.00138604476289145	-0.0333732576386224
0.3	0.00662533937798913	-0.0105178150720198	0	0	0.0341157981262587	-0.965074506546868	0	0
0	0	-0.00585471432325476	0.00183474955769751	0	0	-0.133646209153644	-0.974199670945908
0.0341157981262587	-0.965074506546868	0	0	-0.0147176473443916	0.00339250895946423	0	0
0	0	-0.921839568839956	-0.202695467640054	0	0	-0.0332932249674479	-0.0185303509918819
0.4	-0.00888454621427327	0.00786646933617607	0	0	0.948540568776075	0.0629493757144766	0	0
0	0	-0.039368950646392	0.000726409775093368	0	0	-0.666419162744543	-0.726453447275432
0.948540568776075	0.0629493757144766	0	0	-0.0349378737822608	-0.0145858383493256	0	0
0	0	-0.234292715812457	-0.896057211077123	0	0	0.0206860510708246	0.0192599677742647
0.5	0.0117200507174773	-0.00428268925278781	0	0	0.129032794669874	-0.948930295687671	0	0
0	0	-0.0325219294360024	0.00452452753852594	0	0	0.96398495730253	0.208529320207976
0.129032794669874	-0.948930295687671	0	0	0.0360770266446392	0.016549279788129	0	0
0	0	-0.679722721841339	0.63589989601118	0	0	0.00440392136332505	0.0074936640025844
0.6	-0.0128449665868121	0.0015907615762898	0	0	0.955413966863701	0.13300592596478	0	0
0	0	-0.00763796685378803	0.00584990520561623	0	0	0.913887053129789	-0.328156751734767
0.955413966863701	0.13300592596478	0	0	0.00470353766401267	-0.0197464162696584	0	0
0	0	-0.861949289080241	-0.346553669032217	0	0	-0.00567885099756245	-0.00723318507968826
0.7	0.012538848836273	0.000612723382869979	0	0	0.110983706747707	-0.958566411096825	0	0
0	0	0.0234284161492233	-0.0110018147330443	0	0	-0.613391599185004	0.748130267576879
0.110983706747707	-0.958566411096825	0	0	0.0079940075360628	0.00977448231839171	0	0
0	0	0.0441576592413376	0.921619839024055	0	0	0.00229243253054685	-0.0130813550104727
0.8	-0.0110038684657018	-0.0035162998176781	0	0	0.956665951261226	0.11578828696724	0	0
0	0	0.0449485502407909	-0.0416574272385317	0	0	-0.12255644274823	0.962419316974767
0.956665951261226	0.11578828696724	0	0	-0.0226788086003214	0.0123585628162994	0	0
0	0	-0.813945678107591	0.447894006990314	0	0	0.00637407886414895	0.0833313188269927
0.9	0.00789867795039167	0.00640864277830384	0	0	0.14725081097599	-0.942224999509413	0	0
0	0	0.0137894026775787	-0.0274657945021919	0	0	-0.434075975068563	-0.86922965569896
0.14725081097599	-0.942224999509413	0	0	-0.00199421423542935	-0.0627159633760123	0	0
0	0	0.765207148120931	0.527961021412817	0	0	0.0362610530498598	0.0133788910052267
1	-0.00440235974415452	-0.00838734397558045	0	0	0.94573053388636	0.183760445091938	0	0
0	0	-0.0141339724660231	0.0120544408117356	0	0	-0.840612260354343	-0.484309912857221
0.94573053388636	0.183760445091938	0	0	0.00209100992066164	0.041828088356009	0	0
0	0	-0.128079539667478	0.905610269569999	0	0	0.0026879142849646	0.00150292716634788
1.1	0.00115914390020354	0.0086546823384649	0	0	0.203256691683493	-0.953407117413853	0	0
0	0	-0.0117102919685693	0.0350793682273569	0	0	0.960534644222894	-0.0504149335793898
0.203256691683493	-0.953407117413853	0	0	0.00266255279114031	0.00161211617500789	0	0
0	0	0.87295227655298	-0.260644004180156	0	0	0.0077710470278673	0.043179113573185
1.2	0.00118781774813798	-0.00711475905280151	0	0	0.963674127818696	0.203684461771687	0	0
0	0	0.00835359825235952	0.0643288089497731	0	0	0.774895258991249	-0.557336142342669
0.963674127818696	0.203684461771687	0	0	0.0531277629380565	-0.000360846524732561	0	0
0	0	0.616839909498662	0.674801013641917	0	0	0.00591156997796121	0.10103392179468
1.3	-0.00286260923383193	0.00375210522847664	0	0	0.205519082086375	-0.947808139864757	0	0
0	0	0.0157548185726488	0.0184711933045984	0	0	-0.356224283573845	0.888003101465037
0.205519082086375	-0.947808139864757	0	0	-0.0556855942454255	0.00103090080576801	0	0
0	0	0.323119755613647	-0.863892736054823	0	0	0.0396012762631451	0.015362064225991
1.4	0.00351442099411044	7.55639157743901E-05	0	0	0.929681858067621	0.233063911354836	0	0
0	0	-0.0135175163605356	-0.0444338543099626	0	0	0.182021113429669	0.941850123477987
0.929681858067621	0.233063911354836	0	0	0.0165653876084816	0.00859673485900714	0	0
0	0	0.903244665186278	-0.0859130106719168	0	0	0.043993445128407	-0.00575259499770325
1.5	-0.0025581814558241	-0.0031951219308098	0	0	0.269830747174723	-0.927722724695445	0	0
0	0	-0.0382868459544114	-0.0571423978261469	0	0	-0.679666500122369	-0.676905409713111
0.269830747174723	-0.927722724695445	0	0	0.0325106459049305	-0.0327292340005314	0	0
0	0	-0.465636357743505	-0.769946554426471	0	0	0.0330288223600563	0.0534385580796744
1.6	0.000437344351668884	0.00512738535140716	0	0	0.942460635702888	0.292894043237997	0	0
0	0	-0.0361778393521393	-0.0204690174947973	0	0	-0.941493808425493	-0.181358430665082
0.942460635702888	0.292894043237997	0	0	-0.05254474689166	-0.0261546841110654	0	0
0	0	0.497014818698316	-0.75885085744814	0	0	0.000857526689016515	0.0539580200822657
1.7	0.00212758015755092	-0.00538492986429192	0	0	0.287037623602619	-0.947367943584486	0	0
0	0	0.0157648909893676	0.00554784468706288	0	0	0.886538731854515	-0.348174858789923
0.287037623602619	-0.947367943584486	0	0	-0.00125141670074791	0.00585264069518029	0	0
0	0	-0.903943286881402	-0.108090732252484	0	0	0.0398753138905689	-0.0301077743358219
1.8	-0.00453575822207733	0.00365985263914365	0	0	0.920724935002627	0.287804641217634	0	0
0	0	0.0457367653171918	0.0374601236689642	0	0	0.571754877032161	-0.750019706011924
0.920724935002627	0.287804641217634	0	0	0.00694822247164906	0.0658662147946262	0	0
0	0	-0.314372570429952	-0.850091384929664	0	0	0.027494221390542	-0.0337048578388614
1.9	0.00635998100542396	-0.000370167671560192	0	0	0.316948408161058	-0.896614948216149	0	0
0	0	0.0531116240394482	-0.00407370358180968	0	0	-0.0797511756268634	0.943210782552532
0.316948408161058	-0.896614948216149	0	0	0.00974477517482817	0.00918133032981743	0	0
0	0	-0.613400130064837	0.649018858494623	0	0	0.0413770460310564	0.0237632440458537
2	-0.00683678518257363	-0.00381049607814132	0	0	0.892825924067294	0.347354782261996	0	0
0	0	0.0154370102874597	-0.0050179010828968	0	0	0.460540580798029	0.831996753990174
0.892825924067294	0.347354782261996	0	0	-0.0501666630934979	-0.0327910605506773	0	0
0	0	-0.8458263501851	-0.261154999592515	0	0	-0.0531020329533302	-0.0206168411317124
2.1	0.00561748674216161	0.0080105268346008	0	0	0.362454093301742	-0.898897651111167	0	0
0	0	-0.0288963658503175	0.00806303219706201	0	0	-0.831414317299493	-0.449863191769559
0.362454093301742	-0.898897651111167	0	0	0.0706016054145885	0.0162046948765266	0	0
0	0	0.137742444931023	0.878972552550715	0	0	-0.00493879024181853	0.00993949822459897
2.2	-0.00219890669391889	-0.0115273543806838	0	0	0.898829535950693	0.374844023474217	0	0
0	0	-0.0479926346046538	0.0175434093677616	0	0	-0.931810525995627	0.0703853609891018
0.898829535950693	0.374844023474217	0	0	0.0145558773072466	-0.0107495234457204	0	0
0	0	-0.735956704513928	0.507362792681717	0	0	0.0425431400915673	-0.0111573040616434
2.3	-0.00309442365536538	0.0133928467670329	0	0	0.385292520471594	-0.889442104868252	0	0
0	0	-0.0304174016946918	0.0196441457654002	0	0	0.735875272835259	-0.556128009285917
0.385292520471594	-0.889442104868252	0	0	0.0579067509207954	-0.0287178968198795	0	0
0	0	0.776348527972667	0.431292979543807	0	0	0.0668976827027531	0.0466899936519722
2.4	0.0094399540049334	-0.013179335091044	0	0	0.877830927193192	0.397762806580459	0	0
0	0	-0.00056449375934406	0.00125945026782849	0	0	0.323863647242142	-0.868005423267873
0.877830927193192	0.397762806580459	0	0	-0.0967758778120325	0.0141318698517466	0	0
0	0	-0.0387920363619808	0.882509990375018	0	0	0.0473068326910811	-0.0489254194764826
2.5	-0.016000882946746	0.0105430936011605	0	0	0.415334765546041	-0.866543931335644	0	0
0	0	0.0192603370069275	-0.0359689412006575	0	0	0.189536139225123	0.917861186648609
0.415334765546041	-0.866543931335644	0	0	-0.0100406411987532	-0.0269207204023198	0	0
0	0	0.805223477662349	-0.332305351471171	0	0	0.012956100908782	-0.00055131980091282
2.6	0.0214570198498499	-0.00574652008475093	0	0	0.859965017819702	0.429915868555746	0	0
0	0	0.0181130408334414	-0.0388653496656496	0	0	0.667624152835418	0.654202429232361
0.859965017819702	0.429915868555746	0	0	0.00573315461620708	-0.033449502597181	0	0
0	0	0.631005376940145	0.597822624698616	0	0	0.0630980407318121	0.0102310661173728
2.7	-0.0249662586874263	-0.000947818250258662	0	0	0.444863033983089	-0.854638140371859	0	0
0	0	0.0213980019716147	-0.00973213992138917	0	0	-0.898826522193418	-0.174598170291084
0.444863033983089	-0.854638140371859	0	0	0.00344431731251921	-0.0129956530489797	0	0
0	0	0.276414485543258	-0.836689774917012	0	0	-0.0270008980024212	-0.000961176943554423
2.8	0.0255044138872623	0.00864169145698706	0	0	0.844937789760837	0.458535537404413	0	0
0	0	0.00978771296479484	0.0123831188963303	0	0	-0.844125858779502	0.313206107813211
0.844937789760837	0.458535537404413	0	0	0.00428669981674527	0.0640399903955595	0	0
0	0	0.873506700580665	-0.150444317428393	0	0	0.0266917773657101	-0.0641777369030023
2.9	-0.0224402468226155	-0.0163435943327492	0	0	0.474688202668562	-0.826673038625358	0	0
0	0	-0.000144465636079971	0.0363418652657779	0	0	0.568744532884858	-0.702926787568628
0.474688202668562	-0.826673038625358	0	0	-0.0536698030575465	0.0342217214836267	0	0
0	0	-0.516899519455006	-0.704530354934024	0	0	-0.0400482484087998	-0.0465188092391089
3	0.0165318423827109	0.0232022700992329	0	0	0.818621305353231	0.49880789267995	0	0
0	0	-0.0110037397020896	0.0292675519023638	0	0	0.0910812949741035	-0.92342819258336
0.818621305353231	0.49880789267995	0	0	-0.00684751404403417	-0.0178801338890571	0	0
0	0	0.407225842177735	-0.76364507529227	0	0	0.0141801101774795	0.0862481381306477
3.1	-0.00798970806388008	-0.0274704862101767	0	0	0.519290410453859	-0.809203801916286	0	0
0	0	-0.0202131982626126	0.0123255685433702	0	0	0.451286426190648	0.808892993380256
0.519290410453859	-0.809203801916286	0	0	0.0387640490353069	-0.0651026188803031	0	0
0	0	-0.8726565203119	-0.048813763861351	0	0	-0.0757624866387269	0.00644251067480371
3.2	-0.00160358294312443	0.0292736555829866	0	0	0.808305773955309	0.542524851649327	0	0
0	0	-0.0178126564632657	-0.00579345088688447	0	0	0.802299922916399	0.436845020681377
0.808305773955309	0.542524851649327	0	0	0.000813090029392012	0.0254244927527865	0	0
0	0	-0.340825754281046	-0.816326969120764	0	0	-0.05956419161113	0.00716540237807031
3.3	0.0108000073773873	-0.027178915496021	0	0	0.55318795925173	-0.804573707902597	0	0
0	0	-0.00132984692861557	-0.0235586331646099	0	0	-0.908095869864529	0.053584885250756
0.55318795925173	-0.804573707902597	0	0	0.0626014242110752	0.0240740738465332	0	0
0	0	-0.574544456799987	0.679993294344762	0	0	-0.0282966213585152	-0.107514869754677
3.4	-0.0183675158079243	0.021319148632283	0	0	0.788153854503673	0.557078354580041	0	0
0	0	-0.00452733873454808	-0.0402372934350275	0	0	-0.732775407824931	0.548000734657898
0.788153854503673	0.557078354580041	0	0	-0.115611964159136	0.00982929078280985	0	0
0	0	-0.86045619801517	-0.219224711470349	0	0	-0.0200245218936102	-0.0398132333919988
3.5	0.0236286901547485	-0.013521917475045	0	0	0.570775329169261	-0.778890085953307	0	0
0	0	0.00772622153750845	-0.0301654154307316	0	0	0.293287217709866	-0.872650009420297
0.570775329169261	-0.778890085953307	0	0	-0.0127487656191366	-0.0537282980470722	0	0
0	0	0.172562062390626	0.844314911984284	0	0	0.0846237340297329	-0.0737522626333349
3.6	-0.0255878796555714	0.00476231422358665	0	0	0.771437228352487	0.579595501808767	0	0
0	0	0.0193322398913782	0.00243403515979888	0	0	-0.215548772349451	-0.894267030690692
0.771437228352487	0.579595501808767	0	0	-0.033637111926685	0.061018859011809	0	0
0	0	-0.690481211594287	0.52543842075295	0	0	0.0445255316003458	-0.0321867760562007
3.7	0.0236106084515254	0.00455945949680457	0	0	0.597880371494502	-0.750626246494578	0	0
0	0	0.0137024327534132	0.0361259871588268	0	0	0.6438102374236	0.644600289983118
0.597880371494502	-0.750626246494578	0	0	0.118479872407638	0.00586763594015517	0	0
0	0	0.773459780495792	0.404313210670295	0	0	0.0552731036175441	-0.0198076383565584
3.8	-0.0185320276952889	-0.0122216626675251	0	0	0.743629385890731	0.615827531565435	0	0
0	0	0.0150440171890573	0.0503344186465151	0	0	0.871205541794242	0.18028304277843
0.743629385890731	0.615827531565435	0	0	-0.0249908931065029	0.0211405715173353	0	0
0	0	-0.00989830622414506	0.870283686177061	0	0	-0.0584788854910207	-0.0244337325392256
3.9	0.0112097662018895	0.0169688554434842	0	0	0.620074155655985	-0.741810185925748	0	0
0	0	0.0109568888952823	0.0154805762261882	0	0	-0.819744240448284	0.332110209267476
0.620074155655985	-0.741810185925748	0	0	-0.0123199302060487	0.0830893552436877	0	0
0	0	0.778260933628277	-0.389565973245453	0	0	0.0246247501484563	-0.00602020960182127
4	-0.00235691059491177	-0.0185394341351986	0	0	0.723060911261607	0.628290351234755	0	0
0	0	-0.0168548980674813	-0.0123452526256799	0	0	-0.509746041849554	0.72499209102704
0.723060911261607	0.628290351234755	0	0	0.0497985342227321	-0.0743220048321458	0	0
0	0	0.68458188092832	0.509934185203021	0	0	-0.00464352927356122	0.00950158458957703
4.1	-0.0056995623232288	0.0166603826479589	0	0	0.634005515278351	-0.709068987239238	0	0
0	0	-0.0416381004712198	-0.035355338979399	0	0	0.0501872035579565	-0.887945123641218
0.634005515278351	-0.709068987239238	0	0	0.0237268423739263	-0.111165510651771	0	0
0	0	0.178774157610047	-0.825327301056075	0	0	0.0268122208427477	0.0808538726395586
4.2	0.0121035940783665	-0.0119695979924344	0	0	0.703138327571546	0.645704727097045	0	0
0	0	-0.0489738465151584	-0.0152858246752559	0	0	-0.434284851863367	-0.774866587140344
0.703138327571546	0.645704727097045	0	0	-0.0396136034401231	0.0165553660140559	0	0
0	0	0.826388916050774	-0.187052620102567	0	0	-0.0120768366001186	-0.0408873052106964
4.3	-0.0158418577125783	0.00496090390287656	0	0	0.655149880171079	-0.695641368233263	0	0
0	0	-0.00748088110572638	0.00688155352846385	0	0	0.775304557447625	0.419331503261132
0.655149880171079	-0.695641368233263	0	0	-0.0105462656860753	0.0666861149163848	0	0
0	0	-0.533536818746906	-0.668292015085369	0	0	-0.0143071405632776	0.00244469846609999
4.4	0.0160606678342925	0.00323664495746534	0	0	0.678268488463249	0.665648547102501	0	0
0	0	0.037946925005992	0.00442912832846498	0	0	0.883375545564938	-0.055022272116748
0.678268488463249	0.665648547102501	0	0	0.00117137754456066	-0.0496886774025974	0	0
0	0	0.342689619690823	-0.768761593369957	0	0	-0.0332339844437221	0.00341875244832902
4.5	-0.0126188243903424	-0.0105561856185311	0	0	0.673229017484635	-0.659928162276413	0	0
0	0	0.0645274347496798	-0.00452859145152348	0	0	-0.718455218000381	0.521184238088977
0.673229017484635	-0.659928162276413	0	0	-0.0493470931095222	0.0263517397999716	0	0
0	0	-0.83121646027293	0.0118655477676003	0	0	-0.0850886246983789	0.0616183527292066
4.6	0.00612965083181074	0.0160373306327243	0	0	0.642105493224971	0.688928202057709	0	0
0	0	0.0465280347511063	-0.0250419402120402	0	0	-0.311990765563938	0.840942661359894
0.642105493224971	0.688928202057709	0	0	-0.0038491851644857	0.013760365820006	0	0
0	0	-0.370123759853281	-0.741822324498119	0	0	-0.0794045278076619	-0.00956995666125936
4.7	0.00205695097772227	-0.0185839114186847	0	0	0.70716340301407	-0.635587598303369	0	0
0	0	-0.0246229782072656	-0.00551059962715302	0	0	-0.189899244656924	-0.871514271003961
0.70716340301407	-0.635587598303369	0	0	0.0653114063932433	-0.0175477772673731	0	0
0	0	-0.523252680331596	0.653418207347237	0	0	-0.0726604910500508	0.0716991935164151
4.8	-0.0107375822341772	0.0177409896473815	0	0	0.636313167362503	0.723911119876873	0	0
0	0	-0.0586620317880783	0.0341372965387773	0	0	-0.60555021125243	-0.634159477533607
0.636313167362503	0.723911119876873	0	0	0.0528812407073022	-0.0183058024176671	0	0
0	0	-0.826032501536772	-0.197394790868319	0	0	-0.00903998920175185	0.0714248943355078
4.9	0.0182579619458547	-0.0126067249192461	0	0	0.730350184045048	-0.629112226204586	0	0
0	0	-0.0397881736424472	0.0584559733198659	0	0	0.853593497826003	0.207145454857412
0.730350184045048	-0.629112226204586	0	0	-0.0806204882645698	-0.0289820704053259	0	0
0	0	0.198636804799553	0.820676233911326	0	0	-0.0832750910306605	0.00356271587130369
5	-0.0229233413538231	0.00444284974695551	0	0	0.618908595289218	0.725944972171083	0	0
0	0	-0.000403360267071404	0.0201864694951634	0	0	0.830847155328518	-0.298466177640132
0.618908595289218	0.725944972171083	0	0	-0.0475478475290819	0.0407320808292207	0	0
0	0	-0.644964199430185	0.533951351041983	0	0	0.0415314290320918	-0.0093685846252407
5.1	0.024489318069054	0.00549222235124433	0	0	0.727140296204836	-0.607133352565173	0	0
0	0	0.0383251663441878	-0.0336437738821464	0	0	-0.532816224272994	0.696226351402992
0.727140296204836	-0.607133352565173	0	0	-0.0218085979450921	-0.0413695029435222	0	0
0	0	0.750472931902864	0.344266679458761	0	0	0.0725138509727854	-0.0200829663875157
5.2	-0.022157753417373	-0.0165127207001138	0	0	0.585449780419303	0.74446276102652	0	0
0	0	0.0158976366690047	-0.0744764511772187	0	0	-0.077295053784845	0.872265647586453
0.585449780419303	0.74446276102652	0	0	0.0382954033766161	0.022317319966513	0	0
0	0	0.016604808273088	0.83270634236468	0	0	0.0268315446171905	0.0661887884038517
5.3	0.015845301400606	0.0260126261832134	0	0	0.762440972264011	-0.573981269857354	0	0
0	0	-0.0143855830253129	-0.0414833095279519	0	0	-0.414130468509942	-0.770207321330929
0.762440972264011	-0.573981269857354	0	0	-0.0320028177695904	0.0249288630710757	0	0
0	0	0.742286452921685	-0.376100092448611	0	0	-0.0435765797121595	0.0120051723331377
5.4	-0.00659978449312682	-0.0320176394951181	0	0	0.566022968232175	0.766863056246881	0	0
0	0	-0.0314758888939499	0.0144940634122886	0	0	-0.768304328474584	-0.425907140865765
0.566022968232175	0.766863056246881	0	0	0.0709171270002092	0.0871168641401766	0	0
0	0	0.65870605611055	0.507817873225011	0	0	-0.00952540930593224	0.0218248552646934
5.5	-0.0043188150495813	0.0345434240768105	0	0	0.776952685409448	-0.563472333044701	0	0
0	0	0.0231448712060488	0.059985498242697	0	0	0.876279964077241	-0.047327245925622
0.776952685409448	-0.563472333044701	0	0	-0.00671266281944666	-0.0275569332160833	0	0
0	0	0.154820516037565	-0.816425649904233	0	0	0.0216567009792506	0.0382557971057623
5.6	0.0158304678971161	-0.0320819097216437	0	0	0.549228848156193	0.781859672188138	0	0
0	0	0.0423642678213228	0.0566531303870368	0	0	0.695049938411722	-0.509849139405072
0.549228848156193	0.781859672188138	0	0	0.00115662071461484	-0.109063842630711	0	0
0	0	0.797561400082048	-0.204491636359125	0	0	0.0117267181428469	0.11698105746967
5.7	-0.0264758628233094	0.0254392784866353	0	0	0.794137398528656	-0.540440246329978	0	0
0	0	0.020745501707081	-0.00696264398688335	0	0	-0.314321594296681	0.806196411864709
0.794137398528656	-0.540440246329978	0	0	-0.011410713801547	0.0513038956380264	0	0
0	0	-0.536708539563077	-0.645287384590982	0	0	0.0585092498954884	0.0338903825645199
5.8	0.0333236106423764	-0.0147773607426033	0	0	0.522326267769161	0.793616134538394	0	0
0	0	-0.0218714064859461	-0.0313322385416299	0	0	0.157461152285067	0.850018243332973
0.522326267769161	0.793616134538394	0	0	0.0584621931878517	-0.0275481682991057	0	0
0	0	0.320528530226519	-0.769087650646532	0	0	0.0339646616208591	0.0548163509623685
5.9	-0.0365496457831909	0.00160706808771405	0	0	0.807006755490725	-0.498322367459989	0	0
0	0	-0.0559469109593779	-0.0267474805309124	0	0	-0.584320096026033	-0.633396433483157
0.807006755490725	-0.498322367459989	0	0	-0.0724123121296179	0.0434206898674222	0	0
0	0	-0.82316944458948	0.0615650860559864	0	0	0.0371975337463438	0.0715062884860249
6	0.0353552320659334	0.0113085447187586	0	0	0.481431023250942	0.820269637170012	0	0
0	0	-0.0337923022898666	0.00591228103835757	0	0	-0.843881037148582	-0.19231086871536
0.481431023250942	0.820269637170012	0	0	-0.00290699222908719	0.0236047556267795	0	0
