# GHZ S RI R 50
0.2	-0.00751457569512861	0.0126389478266606	0	0	0.957648350705511	0.0583831969023274	0	0
0	0	0.0178755088210741	0.00517219447021904	0	0	-0.370763256620996	0.910980368696212
0.957648350705511	0.0583831969023274	0	0	0.0221026961585539	0.0391737809501389	0	0
0	0	0.569897453567923	-0.753826299831366	0	0	0.00264647495136743	-0.0345779041083225
0.3	0.00696962988766645	-0.0110798465986738	0	0	0.0340854165802364	-0.965049909560095	0	0
0	0	-0.00643481474302988	0.00152828144568416	0	0	-0.13366314182681	-0.974263960863872
0.0340854165802364	-0.965049909560095	0	0	-0.0141920594906985	0.00199162124607845	0	0
0	0	-0.921903093939273	-0.202701536165688	0	0	-0.0326701778010136	-0.0198919300741686
0.4	-0.00894899128080407	0.00781993909644422	0	0	0.948523125651141	0.0629406320600885	0	0
0	0	-0.039302412013753	0.000679990776628277	0	0	-0.666453916873032	-0.726464822854426
0.948523125651141	0.0629406320600885	0	0	-0.0349779603984175	-0.015766260558531	0	0
0	0	-0.234316580245313	-0.896081926006918	0	0	0.0207631416370566	0.0180798185702718
0.5	0.0118848305804038	-0.00359600406298264	0	0	0.128992143059775	-0.94893659906884	0	0
0	0	-0.0318710192514237	0.00480065760223353	0	0	0.963993944838624	0.208503136492876
0.128992143059775	-0.94893659906884	0	0	0.0357548106487868	0.0157987139853648	0	0
0	0	-0.679707235188881	0.635920937228364	0	0	0.00417505254891705	0.00671020382678224
0.6	-0.0135260574890454	0.000538336703922402	0	0	0.955422193208576	0.132984351299718	0	0
0	0	-0.00664094297290396	0.00654505091330925	0	0	0.91386466034706	-0.328135596354246
0.955422193208576	0.132984351299718	0	0	0.00443356640025691	-0.0200714912558843	0	0
0	0	-0.861919829460652	-0.34655455228666	0	0	-0.00589702111751042	-0.00759335356518142
0.7	0.0138505598763037	0.00146206073373474	0	0	0.110885824857406	-0.958598006585972	0	0
0	0	0.0244606156751962	-0.00991593133900891	0	0	-0.613410208562363	0.748059751617189
0.110885824857406	-0.958598006585972	0	0	0.00802512931304281	0.00965817236752926	0	0
0	0	0.0440994079817354	0.921581829159178	0	0	0.00234183942461516	-0.0131888535405929
0.8	-0.0125433786927133	-0.00383518018707998	0	0	0.956711155677553	0.115654376097708	0	0
0	0	0.0458216363275403	-0.0404054235602747	0	0	-0.122489113925675	0.962377075005215
0.956711155677553	0.115654376097708	0	0	-0.0223115325932584	0.012135076690409	0	0
0	0	-0.813875017270531	0.447922292099136	0	0	0.00677623471050448	0.0831717991746828
0.9	0.00914004627244241	0.00628949279514223	0	0	0.147207667723591	-0.942204983462865	0	0
0	0	0.014365648489738	-0.0263685159751846	0	0	-0.434001895366441	-0.869252783823178
0.147207667723591	-0.942204983462865	0	0	-0.00150275396645536	-0.0633305772186908	0	0
0	0	0.765155749159312	0.528014616008484	0	0	0.0368869560502984	0.0128872095648461
1	-0.00507233662740898	-0.00817374509898711	0	0	0.945627618208699	0.1836500977824	0	0
0	0	-0.0139554894767847	0.012704591127793	0	0	-0.840661743415249	-0.484349683366864
0.945627618208699	0.1836500977824	0	0	0.00237617510993667	0.0407271804965193	0	0
0	0	-0.12809692995463	0.90566753839691	0	0	0.00322521202429792	0.000508971729976079
1.1	0.0012727967042784	0.0088333269771052	0	0	0.203244565328338	-0.953314416193257	0	0
0	0	-0.0119107634124513	0.0350881953712844	0	0	0.960569256456916	-0.0504918781963191
0.203244565328338	-0.953314416193257	0	0	0.00237592118154774	0.000242368214353414	0	0
0	0	0.872966976423984	-0.260722553518884	0	0	0.00786624230151202	0.0417791190335889
1.2	0.00116079324695618	-0.00798795812809344	0	0	0.96361899833091	0.203693320431099	0	0
0	0	0.00794689551793534	0.0636556823178855	0	0	0.77481178702809	-0.557488543802173
0.96361899833091	0.203693320431099	0	0	0.0521768144190534	-0.00163653447150273	0	0
0	0	0.616975548694061	0.674704564939305	0	0	0.00540204497994293	0.099523909678762
1.3	-0.00251788680553186	0.00500421934066381	0	0	0.205658500565977	-0.947861620884742	0	0
0	0	0.0154185648475417	0.0173003231693071	0	0	-0.356030638895539	0.887922287037796
0.205658500565977	-0.947861620884742	0	0	-0.0570513525046142	6.99236300379623E-05	0	0
0	0	0.322934971253637	-0.863810451147964	0	0	0.0385937470722429	0.0140132449890145
1.4	0.00300827726503073	-0.00124952981135193	0	0	0.929729188961815	0.233112618862098	0	0
0	0	-0.0134061328579375	-0.0457730765214816	0	0	0.182080127774778	0.941615118887335
0.929729188961815	0.233112618862098	0	0	0.015085864256602	0.00792099041433636	0	0
0	0	0.903028768395368	-0.0859898936184538	0	0	0.0427989694592562	-0.00690143252524468
1.5	-0.00191294598739095	-0.00172164143833464	0	0	0.269899247360432	-0.927737459864811	0	0
0	0	-0.0376228583335311	-0.0584733375463935	0	0	-0.679614425707329	-0.676628843063552
0.269899247360432	-0.927737459864811	0	0	0.0309902461046466	-0.0331349269577393	0	0
0	0	-0.465651504365927	-0.769683003361142	0	0	0.0317335228471021	0.0524768529026004
1.6	-0.000612358181085448	0.00362199927508226	0	0	0.942649612310541	0.29303300866741	0	0
0	0	-0.0350744901227383	-0.0216801293298668	0	0	-0.941277921978887	-0.181218854224424
0.942649612310541	0.29303300866741	0	0	-0.0540269902942761	-0.0261547005075744	0	0
0	0	0.49681508885963	-0.758712060209502	0	0	-0.000508933925735644	0.0533846756911517
1.7	0.00353705407604811	-0.00429657486789214	0	0	0.287004280783399	-0.94753058758291	0	0
0	0	0.0170687479107295	0.00466179363079332	0	0	0.886338766198829	-0.347937716682575
0.287004280783399	-0.94753058758291	0	0	-0.00242296093841577	0.00627068164313232	0	0
0	0	-0.903667614725482	-0.108199883105561	0	0	0.0386098498648827	-0.0301720982530666
1.8	-0.00581112452608125	0.00307725823225934	0	0	0.920855852945933	0.287642132481785	0	0
0	0	0.0469657052302716	0.0370654934719955	0	0	0.571784445206758	-0.749762120659318
0.920855852945933	0.287642132481785	0	0	0.00621517854104322	0.0664843502872999	0	0
0	0	-0.314148303763724	-0.849982787668281	0	0	0.026543797699811	-0.0334482644950691
1.9	0.00724903122968683	2.49505299599784E-05	0	0	0.316872006777573	-0.896703183208689	0	0
0	0	0.0540199689159608	-0.00395423122324814	0	0	-0.0798623904712655	0.943009969014169
0.316872006777573	-0.896703183208689	0	0	0.00936632200900026	0.00974533461997305	0	0
0	0	-0.613364117285242	0.648805308119457	0	0	0.0407569775657439	0.0241063658717665
2	-0.00739788414963001	-0.0043239766569432	0	0	0.892944046005418	0.3473514229513	0	0
0	0	0.0158846264873706	-0.00446749292588404	0	0	0.460416456864594	0.831962683022314
0.892944046005418	0.3473514229513	0	0	-0.0503711449082736	-0.032399760673105	0	0
0	0	-0.845721077984394	-0.261212220193768	0	0	-0.0534406835568617	-0.0203615008653912
2.1	0.00611207756339747	0.00879126372254845	0	0	0.362379663715712	-0.898966870125506	0	0
0	0	-0.0289586325365545	0.00890010045983358	0	0	-0.831240706902361	-0.449857802780344
0.362379663715712	-0.898966870125506	0	0	0.070417800064157	0.0164460584562434	0	0
0	0	0.137647409364567	0.878839540565372	0	0	-0.00523609804111459	0.0100611562821187
2.2	-0.00289378461429035	-0.0124434766238273	0	0	0.898960356854407	0.374813971577848	0	0
0	0	-0.0484810336135892	0.0184415980511816	0	0	-0.93160292872451	0.070229653926411
0.898960356854407	0.374813971577848	0	0	0.0142614125884656	-0.0104910366937138	0	0
0	0	-0.735860245236644	0.507134064350189	0	0	0.042133287680145	-0.011061965496975
2.3	-0.00219074555139345	0.0141152790675299	0	0	0.385238894639982	-0.889534104545611	0	0
0	0	-0.0311082187158871	0.0203902685618064	0	0	0.735753396952563	-0.555847710657379
0.385238894639982	-0.889534104545611	0	0	0.0575685613315655	-0.0282951750846202	0	0
0	0	0.776054244094459	0.431294862615212	0	0	0.0663187709615262	0.0468883207740951
2.4	0.00860248855191828	-0.0135194229662636	0	0	0.878070105742723	0.397645860230086	0	0
0	0	-0.00122250248988241	0.00172229429289374	0	0	0.32402555602283	-0.867804706874726
0.878070105742723	0.397645860230086	0	0	-0.0970349515880884	0.014857102080863	0	0
0	0	-0.0389978671570856	0.882375482131362	0	0	0.046730930387984	-0.0484369192679418
2.5	-0.0155496453876662	0.0106397966806708	0	0	0.415248833033078	-0.866671523541601	0	0
0	0	0.0188530555034455	-0.0358686748511598	0	0	0.18935855553234	0.917769953121767
0.415248833033078	-0.866671523541601	0	0	-0.0100425248956749	-0.026067258083905	0	0
0	0	0.805170980404827	-0.332127370508501	0	0	0.012469560875856	0.000177487115867383
2.6	0.0214383720143422	-0.00592179123440682	0	0	0.860071477628023	0.429844680286276	0	0
0	0	0.0180825755921277	-0.0390475917296117	0	0	0.667437036511895	0.654190933707816
0.860071477628023	0.429844680286276	0	0	0.00599823139159499	-0.0325771792524593	0	0
0	0	0.630831215588101	0.597814866836135	0	0	0.0627832710524195	0.0111357571838831
2.7	-0.0251628491784336	-0.000517537930028525	0	0	0.444802727776032	-0.854755773171286	0	0
0	0	0.0217211224821143	-0.0100148505996483	0	0	-0.898671520939038	-0.174686359072554
0.444802727776032	-0.854755773171286	0	0	0.00389554172477872	-0.0122018473756638	0	0
0	0	0.276479743957541	-0.836531045035966	0	0	-0.0271077820806769	-3.78714607901856E-05
2.8	0.025754302719397	0.00804799374317629	0	0	0.845103800416579	0.458472351374656	0	0
0	0	0.0103425594457465	0.0122382206976203	0	0	-0.844003986254587	0.313007174622251
0.845103800416579	0.458472351374656	0	0	0.00485373293470071	0.0647306162542493	0	0
0	0	0.873352789279396	-0.150273846943968	0	0	0.0267159407485886	-0.0632523097093702
2.9	-0.0228041988055727	-0.0156737441809179	0	0	0.474695442576355	-0.826805171479364	0	0
0	0	0.000491783784993525	0.03657384467581	0	0	0.568758929319936	-0.702731171070007
0.474695442576355	-0.826805171479364	0	0	-0.053073943274281	0.0347741924217159	0	0
0	0	-0.516713168475037	-0.704495656927505	0	0	-0.0398942163481608	-0.0456958784397279
3	0.0170808534907356	0.0223281226912381	0	0	0.818696140484058	0.498829933676147	0	0
0	0	-0.010427910009547	0.029974596386761	0	0	0.0910295961444324	-0.923251033459171
0.818696140484058	0.498829933676147	0	0	-0.00624354649476412	-0.0175401355643022	0	0
0	0	0.407118211595751	-0.763510753285184	0	0	0.0144170714145144	0.086885733042588
3.1	-0.00857874841467899	-0.0262555993803071	0	0	0.519316987714192	-0.809222044632041	0	0
0	0	-0.0198383793249132	0.0134543844374633	0	0	0.451176565664274	0.80878966101713
0.519316987714192	-0.809222044632041	0	0	0.0392935936624029	-0.0649945689768137	0	0
0	0	-0.87251867421037	-0.0488491435564645	0	0	-0.075411319058527	0.00688111443271645
3.2	-0.00120278213204532	0.0277560781915699	0	0	0.808497346593655	0.542606569157508	0	0
0	0	-0.0177983480098549	-0.00444741302574495	0	0	0.802098934484065	0.436778606348231
0.808497346593655	0.542606569157508	0	0	0.00115217556832981	0.0253946240705296	0	0
0	0	-0.340714283696611	-0.816154947885502	0	0	-0.0592496467783444	0.00736179630659003
3.3	0.0107050617129725	-0.025627697620831	0	0	0.553180939013277	-0.804731050578228	0	0
0	0	-0.00171885612689979	-0.0222852357596708	0	0	-0.90788893078763	0.0533417201889441
0.553180939013277	-0.804731050578228	0	0	0.0627520063510382	0.0239895845101726	0	0
0	0	-0.574577276849113	0.679682550743542	0	0	-0.028086588826186	-0.107433670121918
3.4	-0.0184066401495605	0.0199614480059275	0	0	0.788434333019172	0.557302943981921	0	0
0	0	-0.00530172613042746	-0.0393187616780129	0	0	-0.732652055408267	0.547722932949543
0.788434333019172	0.557302943981921	0	0	-0.115707151443226	0.00980577280445529	0	0
0	0	-0.860171250945987	-0.219300919131047	0	0	-0.0200000476899491	-0.039835242283548
3.5	0.0235933601578227	-0.012256825884164	0	0	0.570957951392593	-0.779013223607898	0	0
0	0	0.00669716481604124	-0.0297860229030479	0	0	0.293404536249716	-0.872217690456179
0.570957951392593	-0.779013223607898	0	0	-0.0128293766831939	-0.05369113972444	0	0
0	0	0.172263954701802	0.844020020055845	0	0	0.0844866100547975	-0.0736791989629151
3.6	-0.0254950160629201	0.00341112221891307	0	0	0.771728552433583	0.579742485502399	0	0
0	0	0.0181770017595402	0.00219540043091046	0	0	-0.215267798045517	-0.893951521729305
0.771728552433583	0.579742485502399	0	0	-0.0337017718014727	0.0611717719663319	0	0
0	0	-0.690315352496728	0.525076071172685	0	0	0.0443811657047467	-0.0321022000546324
3.7	0.0236146865465704	0.00601780272147369	0	0	0.597879031435313	-0.750742456506227	0	0
0	0	0.0126847202220941	0.0353583725067058	0	0	0.643362933897944	0.644503459615712
0.597879031435313	-0.750742456506227	0	0	0.118540133482324	0.00595966755040635	0	0
0	0	0.773023168821367	0.404353121332085	0	0	0.0551700076184699	-0.0196837731156915
3.8	-0.0187832964319841	-0.0136175636634185	0	0	0.743894339569436	0.615928581737629	0	0
0	0	0.0143442394366462	0.0493686731410251	0	0	0.870974929049461	0.180419749731259
0.743894339569436	0.615928581737629	0	0	-0.0249332262905341	0.0211972167490529	0	0
0	0	-0.0100727702609262	0.870087866980273	0	0	-0.0584249792413102	-0.0243651853751301
3.9	0.0115959416837656	0.0180456573432647	0	0	0.620066470832788	-0.742027291129923	0	0
0	0	0.0106743429228103	0.014561456105006	0	0	-0.819648700028265	0.331816612447114
0.620066470832788	-0.742027291129923	0	0	-0.0122149035132006	0.0830839487235881	0	0
0	0	0.778190063303345	-0.389270542717228	0	0	0.0247064677481323	-0.00595320604493882
4	-0.00255807245739995	-0.0193106500121038	0	0	0.723066908503286	0.628417978975877	0	0
0	0	-0.0166661528389552	-0.0130095445345248	0	0	-0.509779736559543	0.724801083534467
0.723066908503286	0.628417978975877	0	0	0.049907177290919	-0.0744409958430875	0	0
0	0	0.684397085088523	0.509961584791005	0	0	-0.0044989081577544	0.00950077838867278
4.1	-0.00575955561253792	0.0173643541985683	0	0	0.63421219622791	-0.709035107691362	0	0
0	0	-0.0410663694984199	-0.0356240629718236	0	0	0.0502182150788665	-0.887752311305712
0.63421219622791	-0.709035107691362	0	0	0.0238159643560478	-0.111345202951807	0	0
0	0	0.178774643090762	-0.825141869575352	0	0	0.0269544521612316	0.0807724371978582
4.2	0.0122703363912211	-0.0127685376910358	0	0	0.703236565425313	0.645950289735237	0	0
0	0	-0.0482682848146331	-0.0151489062322538	0	0	-0.434153479738101	-0.774780210537316
0.703236565425313	0.645950289735237	0	0	-0.0396484230268365	0.0164057567188689	0	0
0	0	0.826274300752928	-0.186955899257819	0	0	-0.0119487183664158	-0.0409751835623709
4.3	-0.0159545310874962	0.0057578433088512	0	0	0.655345959384233	-0.695797540312381	0	0
0	0	-0.00691494943538841	0.00731119580865894	0	0	0.775130756821843	0.419301691959328
0.655345959384233	-0.695797540312381	0	0	-0.0106291016027214	0.0666514821734814	0	0
0	0	-0.533392891927157	-0.668199532786904	0	0	-0.0142846829577967	0.00234282528432381
4.4	0.0161794717686315	0.0026390806483735	0	0	0.678337852226514	0.665847792309405	0	0
0	0	0.0381560770771145	0.00494669407248522	0	0	0.883256889192813	-0.0549550179853071
0.678337852226514	0.665847792309405	0	0	0.00112924197347707	-0.0496299959531846	0	0
0	0	0.342694043319642	-0.768631966562533	0	0	-0.0333228739974395	0.00341351511316855
4.5	-0.012945303933033	-0.0101773702529094	0	0	0.673417461668515	-0.659988630008091	0	0
0	0	0.0642705384660868	-0.00412714063602716	0	0	-0.718406549262544	0.521156739499147
0.673417461668515	-0.659988630008091	0	0	-0.0493039886356928	0.0265696930492068	0	0
0	0	-0.831164361506571	0.0118707231685168	0	0	-0.0852350943490166	0.0617850319107291
4.6	0.00679498254896853	0.0156889223497107	0	0	0.642104307546725	0.689122492806253	0	0
0	0	0.0458661213814596	-0.0249175253933022	0	0	-0.311974716541767	0.840940318272442
0.642104307546725	0.689122492806253	0	0	-0.00360248362157162	0.0140448540703145	0	0
0	0	-0.370132320226603	-0.74181001803052	0	0	-0.079514767988697	-0.00918546320009032
4.7	0.00115773344264683	-0.0180467362536065	0	0	0.707314444405925	-0.635552033956396	0	0
0	0	-0.0254859078147323	-0.00577338973467308	0	0	-0.190040502646922	-0.871457356295516
0.707314444405925	-0.635552033956396	0	0	0.0657673251731275	-0.0172870173033091	0	0
0	0	-0.523127715788763	0.653487575331718	0	0	-0.072627643490464	0.0722339874564746
4.8	-0.00981715226583262	0.016999896071161	0	0	0.636254467276671	0.724085012072444	0	0
0	0	-0.0594056555042227	0.0334903370450086	0	0	-0.605583453948139	-0.633966101890922
0.636254467276671	0.724085012072444	0	0	0.0534565843156393	-0.0181615549734738	0	0
0	0	-0.825957853524613	-0.197220017781045	0	0	-0.0088541595639649	0.0719901578043495
4.9	0.0173936775924493	-0.0118599195979287	0	0	0.730682650840573	-0.629001855198308	0	0
0	0	-0.0401552271979127	0.0575747388671773	0	0	0.853627036309783	0.207009929702374
0.730682650840573	-0.629001855198308	0	0	-0.0800265681824441	-0.0290259705824118	0	0
0	0	0.198767389730433	0.820645251812933	0	0	-0.0829729619737998	0.00415514159770071
5	-0.0219819800036116	0.00374494721394785	0	0	0.618815623724927	0.726281133894865	0	0
0	0	-0.00022486614772238	0.0192099277545434	0	0	0.830682450079189	-0.298554164777749
0.618815623724927	0.726281133894865	0	0	-0.0469797933051801	0.0405984169218531	0	0
0	0	-0.644788927635064	0.533976766869559	0	0	0.0419239558683929	-0.00886251106257544
5.1	0.0234115112848398	0.00632510278104084	0	0	0.727535986807693	-0.606906845244426	0	0
0	0	0.0390354707776725	-0.0345244783898847	0	0	-0.532548113867177	0.696151727660942
0.727535986807693	-0.606906845244426	0	0	-0.0212214318878326	-0.041668518992526	0	0
0	0	0.750348522418436	0.344035989145715	0	0	0.0729901163754301	-0.019696462660175
5.2	-0.0211143744469351	-0.0175642539066032	0	0	0.585347311607428	0.744846769221781	0	0
0	0	0.0169656750053309	-0.0750963461300385	0	0	-0.0769750430799309	0.871971493681894
0.585347311607428	0.744846769221781	0	0	0.0387254143379224	0.0219478787617948	0	0
0	0	0.0168771437446833	0.832395304415297	0	0	0.0274413000776058	0.0663574726890318
5.3	0.0150568735539383	0.0271347065657874	0	0	0.762936960494812	-0.573960362212491	0	0
0	0	-0.0132742908771735	-0.0417011060762671	0	0	-0.414212823562692	-0.769880277826405
0.762936960494812	-0.573960362212491	0	0	-0.0318267350965906	0.0244544572500379	0	0
0	0	0.741977250954708	-0.376186017250452	0	0	-0.0429909168131619	0.0120245632803013
5.4	-0.00602650687042544	-0.032905866894885	0	0	0.566030469546714	0.767179335017759	0	0
0	0	-0.0306123737449319	0.0147603711486729	0	0	-0.76814697805694	-0.425650596574917
0.566030469546714	0.767179335017759	0	0	0.0709432884101287	0.086798508472901	0	0
0	0	0.65859520164429	0.507555374500163	0	0	-0.00910183167060315	0.0216720262685397
5.5	-0.00500263625188234	0.0351523901408593	0	0	0.777372167165309	-0.563339940878172	0	0
0	0	0.0235407975075039	0.0606718589648414	0	0	0.876035942174762	-0.0474689077554508
0.777372167165309	-0.563339940878172	0	0	-0.00673602730209395	-0.0278460613414773	0	0
0	0	0.154635030416898	-0.816233342607575	0	0	0.0219102398963164	0.0380824205664356
5.6	0.0168050970923114	-0.0326436601072997	0	0	0.548932793449134	0.78230120265088	0	0
0	0	0.0422098186367673	0.0575706797144667	0	0	0.694665224437188	-0.509937539908552
0.548932793449134	0.78230120265088	0	0	0.00129335571428563	-0.109300943098195	0	0
0	0	0.797251871638387	-0.204706940145828	0	0	0.0119857844107167	0.116877745897405
5.7	-0.0276024167667625	0.0262504278585845	0	0	0.794686764815666	-0.540336855024317	0	0
0	0	0.02010298395622	-0.00602301958177097	0	0	-0.314009123188323	0.805994482638133
0.794686764815666	-0.540336855024317	0	0	-0.0113061689912987	0.0510818693812606	0	0
0	0	-0.536683848658977	-0.644927363907912	0	0	0.0588032436481516	0.0339067233955256
5.8	0.0342531525723186	-0.0158130139140689	0	0	0.522123446500334	0.794125991514343	0	0
0	0	-0.0227726573009272	-0.0306148934564373	0	0	0.157632391239931	0.849645266075831
0.522123446500334	0.794125991514343	0	0	0.0587285865249517	-0.027973131449379	0	0
0	0	0.320193882556826	-0.768876747911721	0	0	0.0345059821986505	0.0547989075501356
5.9	-0.037145915003183	0.00258859499517592	0	0	0.807648068559834	-0.498296240319043	0	0
0	0	-0.0568430857988699	-0.0264149549061102	0	0	-0.584235791407292	-0.633011459571506
0.807648068559834	-0.498296240319043	0	0	-0.0724587427421474	0.0427019558844063	0	0
0	0	-0.82283032944467	0.0617309441447174	0	0	0.0379482937215573	0.0712661759228162
6	0.0357254983279284	0.0106570820368756	0	0	0.481334612344807	0.820838361488379	0	0
0	0	-0.034439312408247	0.00582508323457625	0	0	-0.843714242249803	-0.191984015756223
0.481334612344807	0.820838361488379	0	0	-0.00314835170703167	0.0227675818670061	0	0
