# GHZ S RI R 50
0.2	-0.00653600914945018	0.012171697410925	0	0	0.957669794006124	0.0584489844813512	0	0
0	0	0.018854444033424	0.00566056336364771	0	0	-0.370749541315121	0.910939908018505
0.957669794006124	0.0584489844813512	0	0	0.0208253553890264	0.0400033807110924	0	0
0	0	0.569874696590771	-0.753792137233497	0	0	0.00137035238694113	-0.0337526475067708
0.3	0.00659980849087219	-0.0106194320416177	0	0	0.0341725755200913	-0.965020945683842	0	0
0	0	-0.0059783674144199	0.00189790560762587	0	0	-0.133567646127551	-0.974227539250092
0.0341725755200913	-0.965020945683842	0	0	-0.0149049445092249	0.00312978784431215	0	0
0	0	-0.921838617211806	-0.20277547598527	0	0	-0.0333844197494592	-0.0187580969421786
0.4	-0.00889958685717009	0.00786921979029384	0	0	0.948504752166426	0.063062006229453	0	0
0	0	-0.0393684195924245	0.000704473641555001	0	0	-0.666348360106821	-0.726544738907411
0.948504752166426	0.063062006229453	0	0	-0.0351350716807448	-0.0147054765863625	0	0
0	0	-0.234193811418365	-0.896101920458201	0	0	0.0205880381517907	0.0191543717688798
0.5	0.0117805360422681	-0.00424346923428717	0	0	0.129190610448752	-0.948930872636373	0	0
0	0	-0.03241475902845	0.00443443807052771	0	0	0.963973725893935	0.208683892999368
0.129190610448752	-0.948930872636373	0	0	0.0359218843830591	0.016548100481014	0	0
0	0	-0.67983661764175	0.635808133089301	0	0	0.00433807443247455	0.00744920105836747
0.6	-0.0129374392929354	0.0015518182986226	0	0	0.955481522418315	0.133191377559225	0	0
0	0	-0.00743555106681283	0.00573520800095055	0	0	0.913999042147033	-0.327973896123134
0.955481522418315	0.133191377559225	0	0	0.00463692371200682	-0.0197315315737536	0	0
0	0	-0.861913066668843	-0.346755593154113	0	0	-0.00570389933642085	-0.00725339678371355
0.7	0.012639324789122	0.000632116850192273	0	0	0.111155853709665	-0.958700822958627	0	0
0	0	0.0236976624357262	-0.0110962022102025	0	0	-0.613664865227553	0.748034526937763
0.111155853709665	-0.958700822958627	0	0	0.00797637606820977	0.00976491323063111	0	0
0	0	0.0439030517950845	0.92172677813501	0	0	0.00230128195037265	-0.0130922724534822
0.8	-0.011094108602282	-0.00352489796546934	0	0	0.956843880101469	0.115940042346856	0	0
0	0	0.0452356579134794	-0.0417168652744298	0	0	-0.122878405127855	0.962546451762276
0.956843880101469	0.115940042346856	0	0	-0.022705589311578	0.0122762187146931	0	0
0	0	-0.814225635770742	0.447716530957995	0	0	0.00634581578230988	0.0833548297526446
0.9	0.00796972976703154	0.00641489405764563	0	0	0.147405004674719	-0.942419832821046	0	0
0	0	0.0140302361541708	-0.0274870475762036	0	0	-0.433949563271239	-0.869640529616729
0.147405004674719	-0.942419832821046	0	0	-0.00205718356905117	-0.0628783348882494	0	0
0	0	0.765290968939986	0.528363724225445	0	0	0.0363155739552537	0.0133908763804717
1	-0.00444839536996818	-0.00839121626574008	0	0	0.945954700174959	0.183933433737649	0	0
0	0	-0.0140014595524357	0.0120737801060343	0	0	-0.840869669058879	-0.484689824785784
0.945954700174959	0.183933433737649	0	0	0.00189585214303814	0.0417254065110751	0	0
0	0	-0.128321358199872	0.905969017768651	0	0	0.00274615673104854	0.00147125907555461
1.1	0.00116499431677509	0.00866147911454694	0	0	0.20346358979791	-0.953701608607837	0	0
0	0	-0.0117272098138078	0.0351266083632741	0	0	0.960986804790737	-0.0503692231074674
0.20346358979791	-0.953701608607837	0	0	0.00237992136770144	0.00157806295077965	0	0
0	0	0.873378697102692	-0.26070277552936	0	0	0.00784053340112538	0.0431574364645331
1.2	0.00122903658715155	-0.00714950543489158	0	0	0.964082512400618	0.203881114659014	0	0
0	0	0.0081875021762445	0.0643692843534728	0	0	0.775195411965401	-0.557633921669459
0.964082512400618	0.203881114659014	0	0	0.0528581218066324	-0.000249129698349705	0	0
0	0	0.617156746400573	0.675053236135906	0	0	0.00599617960764386	0.101020466267243
1.3	-0.00292855060905132	0.00382915222815653	0	0	0.20565418924512	-0.948302270774978	0	0
0	0	0.0154875340340139	0.0184610428489555	0	0	-0.356238707756735	0.888397495651317
0.20565418924512	-0.948302270774978	0	0	-0.0560313489204203	0.00123727768455178	0	0
0	0	0.323124691992313	-0.864273153636387	0	0	0.0396875130485581	0.0152279124460424
1.4	0.00359812426889855	-2.68148752562871E-05	0	0	0.930223997004336	0.233115003703089	0	0
0	0	-0.0137979502215037	-0.0445542541578566	0	0	0.182284395502917	0.942135639022711
0.930223997004336	0.233115003703089	0	0	0.0163405396388433	0.00886204209449515	0	0
0	0	0.903537359315578	-0.086134979233366	0	0	0.0440613340040855	-0.00593511344531089
1.5	-0.00266638890803395	-0.00306020405904442	0	0	0.26979882559054	-0.928298830235079	0	0
0	0	-0.0385390251054406	-0.0573931810031109	0	0	-0.680034907356066	-0.676871793285484
0.26979882559054	-0.928298830235079	0	0	0.0323371634196396	-0.0324733722106866	0	0
0	0	-0.465979341356109	-0.769999276440245	0	0	0.0330996739438667	0.0532645041774022
1.6	0.000547493525614693	0.00493934212572674	0	0	0.943057661349666	0.292761440120991	0	0
0	0	-0.0363753187039687	-0.0208189715055101	0	0	-0.941699584344526	-0.18108082290209
0.943057661349666	0.292761440120991	0	0	-0.0527154326946662	-0.0258206677395083	0	0
0	0	0.496845787711998	-0.759130703378066	0	0	0.000884543785686115	0.05378733247424
1.7	0.00207296486058139	-0.00515812888361409	0	0	0.286750507536615	-0.947931859999953	0	0
0	0	0.015656315790676	0.00516424112213743	0	0	0.886545991761495	-0.348470867083326
0.286750507536615	-0.947931859999953	0	0	-0.00122943769094505	0.00616072106906425	0	0
0	0	-0.904083362121138	-0.107844810335284	0	0	0.039810730373365	-0.0303042126740936
1.8	-0.00453567582099082	0.00346144907777993	0	0	0.921190670733111	0.287426708632083	0	0
0	0	0.0457469245799419	0.0371233086236931	0	0	0.571578394142066	-0.750236651172296
0.921190670733111	0.287426708632083	0	0	0.00711237845491654	0.0661308706831979	0	0
0	0	-0.314639480374521	-0.85005983211715	0	0	0.0273883806890446	-0.0338448538272026
1.9	0.00636280843496954	-0.000225296954965415	0	0	0.316557609416209	-0.896960987616248	0	0
0	0	0.0532305618526097	-0.00429135200632678	0	0	-0.0794828671235719	0.943228879185895
0.316557609416209	-0.896960987616248	0	0	0.0098695456272499	0.00931331566868068	0	0
0	0	-0.613212809799358	0.64918996183467	0	0	0.0413000406539875	0.0236694877987109
2	-0.00679819368502017	-0.00391975372604415	0	0	0.893085137119215	0.346993396999888	0	0
0	0	0.0156332618327652	-0.00507841306624517	0	0	0.460759149751274	0.831789837070371
0.893085137119215	0.346993396999888	0	0	-0.0501236093187921	-0.0326727303302463	0	0
0	0	-0.845839515165808	-0.260875135808366	0	0	-0.0531736152820524	-0.0206214364581317
2.1	0.00552319181129592	0.00813337557291724	0	0	0.362112288909407	-0.899112085278511	0	0
0	0	-0.0286674318405774	0.00816879951117752	0	0	-0.831377844022362	-0.449572308443772
0.362112288909407	-0.899112085278511	0	0	0.0706742843614135	0.0162237459383327	0	0
0	0	0.137939340294692	0.878779265084196	0	0	-0.00497596936246957	0.00989664159553975
2.2	-0.00208652330778471	-0.0117055658744889	0	0	0.899004361321825	0.374543338737419	0	0
0	0	-0.0477890066078351	0.0177777757221644	0	0	-0.931570501076409	0.0705016653159069
0.899004361321825	0.374543338737419	0	0	0.0145959401610046	-0.0106557855344241	0	0
0	0	-0.735702321007685	0.507343175078122	0	0	0.0424743636061391	-0.0112310615669467
2.3	-0.00315957324156882	0.0136089892085021	0	0	0.385014564175258	-0.889577284038004	0	0
0	0	-0.0302818644204658	0.0199253378162904	0	0	0.735661888509027	-0.555981103757667
0.385014564175258	-0.889577284038004	0	0	0.0579844834620925	-0.0286178780194752	0	0
0	0	0.776136048782646	0.431162323026863	0	0	0.0667829848244364	0.0465720251714574
2.4	0.00943509364252232	-0.0133607124282387	0	0	0.877943973006744	0.397560925236324	0	0
0	0	-0.000514260085077408	0.00150065521899884	0	0	0.323848031392153	-0.867800379895574
0.877943973006744	0.397560925236324	0	0	-0.096592796670915	0.0143106909535047	0	0
0	0	-0.0388381048902293	0.882319407311926	0	0	0.0471546148174595	-0.0489784745803681
2.5	-0.0159766106943385	0.0106287789580707	0	0	0.415201867194715	-0.866622835695892	0	0
0	0	0.0192260254523483	-0.0358452483423622	0	0	0.189394273058493	0.917727942915496
0.415201867194715	-0.866622835695892	0	0	-0.00979330269971283	-0.0268388051669657	0	0
0	0	0.805126423992759	-0.332152696148066	0	0	0.012757354607243	-0.000586152508464128
2.6	0.0214902385082631	-0.00574579426655735	0	0	0.860068479575501	0.429877540882949	0	0
0	0	0.0180367777871316	-0.0388953187700054	0	0	0.667445183475505	0.654229608969654
0.860068479575501	0.429877540882949	0	0	0.0060255752430738	-0.0334515586717751	0	0
0	0	0.630839396410007	0.597850699617704	0	0	0.0628560163729419	0.0102682647461674
2.7	-0.0250829591706215	-0.000972670539160043	0	0	0.444902675297843	-0.854810825803812	0	0
0	0	0.021340112923641	-0.00989155453678869	0	0	-0.898754623344164	-0.1747410758415
0.444902675297843	-0.854810825803812	0	0	0.00374406887103256	-0.0130604619022245	0	0
0	0	0.276542122557737	-0.836603692669909	0	0	-0.0272241112809886	-0.000901638668202791
2.8	0.0256714907628111	0.00866101863305386	0	0	0.845196015543832	0.458634189692119	0	0
0	0	0.00981480938079703	0.0121623053026148	0	0	-0.844222335199001	0.313061027049908
0.845196015543832	0.458634189692119	0	0	0.00457690097295004	0.0639729141158847	0	0
0	0	0.873573825893315	-0.150286475151384	0	0	0.0265047049262139	-0.064071229219292
2.9	-0.0226442636535795	-0.0163812409706699	0	0	0.47482402544675	-0.826995536607756	0	0
0	0	2.80232739238731E-05	0.0361447632235088	0	0	0.568910035598665	-0.702963618962819
0.47482402544675	-0.826995536607756	0	0	-0.0534557465593098	0.0341172255658125	0	0
0	0	-0.516893199965964	-0.704694086473819	0	0	-0.0402434073356553	-0.0464166075314861
3	0.016819508475416	0.02326243133811	0	0	0.819043550589925	0.498964963982467	0	0
0	0	-0.0106692829892598	0.0291609613180919	0	0	0.0910866831709535	-0.923569308301248
0.819043550589925	0.498964963982467	0	0	-0.00666393307095307	-0.0180575716732157	0	0
0	0	0.407280719262778	-0.763764809981089	0	0	0.0140363310044646	0.0864211078410703
3.1	-0.00838463498789981	-0.0274996022403144	0	0	0.519427140569852	-0.809751391696507	0	0
0	0	-0.0197538192524081	0.0123571766456864	0	0	0.451506145989452	0.808995234120732
0.519427140569852	-0.809751391696507	0	0	0.0388925784166501	-0.065352666723722	0	0
0	0	-0.872848979047039	-0.0486902677420502	0	0	-0.075872923452171	0.00661080080337336
3.2	-0.00113750437021563	0.0292057814182093	0	0	0.808993025413733	0.542650917875278	0	0
0	0	-0.0173275427386603	-0.00558863145909885	0	0	0.802556019550603	0.43671236214444
0.808993025413733	0.542650917875278	0	0	0.000861999180915868	0.0253358281282959	0	0
0	0	-0.341099548496826	-0.816382109976108	0	0	-0.0595976866284166	0.00730513292773498
3.3	0.0103535617724584	-0.0270132373603799	0	0	0.553174459793877	-0.805368165431085	0	0
0	0	-0.000934955379447359	-0.0232092179985336	0	0	-0.908266508464331	0.053904840253795
0.553174459793877	-0.805368165431085	0	0	0.0626940414188081	0.0239937047572877	0	0
0	0	-0.574432706228166	0.680330097571182	0	0	-0.0283614283362174	-0.107482853855133
3.4	-0.0179866718721039	0.0211336902749588	0	0	0.788921269609847	0.557003255233557	0	0
0	0	-0.00432875815926829	-0.0397951417458927	0	0	-0.732602167193266	0.548393378945472
0.788921269609847	0.557003255233557	0	0	-0.115752541739599	0.0099757673463136	0	0
0	0	-0.860647057145216	-0.218854555905564	0	0	-0.0200494968039994	-0.0398082886675158
3.5	0.0232548780956111	-0.0133655795549106	0	0	0.570532814211183	-0.77964995631562	0	0
0	0	0.00767881632755709	-0.0297152316416888	0	0	0.292847624590983	-0.872819087156322
0.570532814211183	-0.77964995631562	0	0	-0.0128203909504961	-0.0537275090235419	0	0
0	0	0.172997406411274	0.844245258540993	0	0	0.084534159494896	-0.0738781258079442
3.6	-0.0251694300887256	0.004604788811312	0	0	0.772210543599044	0.579274924904615	0	0
0	0	0.0190253955720032	0.00282559451875977	0	0	-0.216056864578336	-0.894000107806917
0.772210543599044	0.579274924904615	0	0	-0.0335344934032287	0.0611587708193165	0	0
0	0	-0.69005792778378	0.52577592050933	0	0	0.0444399124005962	-0.0322637246698982
3.7	0.0231636479428346	0.00477363178811137	0	0	0.597357765317976	-0.751364458509444	0	0
0	0	0.0132177350472726	0.03636588988079	0	0	0.643998047599113	0.644014974507695
0.597357765317976	-0.751364458509444	0	0	0.118597863450292	0.00567673888200992	0	0
0	0	0.773463401482275	0.403724344711074	0	0	0.0551771799806874	-0.0198721475515896
3.8	-0.0181385895155577	-0.0125145681170262	0	0	0.744236340324768	0.615231964537629	0	0
0	0	0.0145424656214453	0.0504093945268163	0	0	0.870938481758459	0.179649866695123
0.744236340324768	0.615231964537629	0	0	-0.0249294961535732	0.0211731968568076	0	0
0	0	-0.00934037468129151	0.869908646990395	0	0	-0.0584816515844584	-0.0243217045414735
3.9	0.0109394138664818	0.0172592110906123	0	0	0.6193708317339	-0.742244629171799	0	0
0	0	0.010555096872889	0.0153962457691851	0	0	-0.819147956103632	0.332397158265475
0.6193708317339	-0.742244629171799	0	0	-0.0121771791225617	0.0830494937130678	0	0
0	0	0.777653694934967	-0.389801045679069	0	0	0.0245911045264844	-0.00600111628386372
4	-0.00215243611893688	-0.0187190080540385	0	0	0.723224103983901	0.627571392983338	0	0
0	0	-0.017059807872759	-0.0125673045803362	0	0	-0.509040150360709	0.724837652883071
0.723224103983901	0.627571392983338	0	0	0.0496319143583279	-0.0743877213914444	0	0
0	0	0.684451819344865	0.509250459902824	0	0	-0.00460322349339562	0.00954682386953576
4.1	-0.00593475911743944	0.0167420972472607	0	0	0.63336533276475	-0.709052943567857	0	0
0	0	-0.0416030852394476	-0.0356451016801125	0	0	0.0497102306815874	-0.887307629891499
0.63336533276475	-0.709052943567857	0	0	0.0235394860751131	-0.111135796324303	0	0
0	0	0.178232265190905	-0.82480016641166	0	0	0.0269030519174653	0.0807546407885218
4.2	0.0123989685287081	-0.0120359837846909	0	0	0.703029095374631	0.645189868001588	0	0
0	0	-0.0487451749665362	-0.015534802150175	0	0	-0.434242902094649	-0.774061097283866
0.703029095374631	0.645189868001588	0	0	-0.0396317771879074	0.0165459516832106	0	0
0	0	0.825640905300001	-0.187232669066215	0	0	-0.0120312455213476	-0.0407890367275593
4.3	-0.0161307050994992	0.00505145747299808	0	0	0.654711754331032	-0.695464624269531	0	0
0	0	-0.00716549293432601	0.0067650936425915	0	0	0.774717900100872	0.418785137134285
0.654711754331032	-0.695464624269531	0	0	-0.0105481256808092	0.0666417360652963	0	0
0	0	-0.533219901335732	-0.667581750447258	0	0	-0.0142389260003427	0.00243162426384617
4.4	0.0162841478589271	0.00318484893319348	0	0	0.67797288096811	0.665263420807787	0	0
0	0	0.0382101886973743	0.00448969252006653	0	0	0.882634914158895	-0.0550353705673206
0.67797288096811	0.665263420807787	0	0	0.00118961204853063	-0.0496037110816318	0	0
0	0	0.342352384996241	-0.76814314195341	0	0	-0.0331945484465533	0.00338139963345696
4.5	-0.0128120824925947	-0.0106237698261026	0	0	0.672969310785197	-0.659537631740213	0	0
0	0	0.0646210242660232	-0.00429645248510017	0	0	-0.717933502137866	0.520782394160659
0.672969310785197	-0.659537631740213	0	0	-0.0491925799419075	0.0263337568323523	0	0
0	0	-0.8306002581932	0.0118390256957023	0	0	-0.0850629289910863	0.0615037232537118
4.6	0.00639324883230238	0.0162368318150414	0	0	0.641657916962623	0.68881363032711	0	0
0	0	0.0463969660181511	-0.0247090901819527	0	0	-0.311867411008631	0.840413988579724
0.641657916962623	0.68881363032711	0	0	-0.00367398205908418	0.0137015850783519	0	0
0	0	-0.369845085383447	-0.74140506196993	0	0	-0.0794688430082015	-0.00952650418992076
4.7	0.00166167064394036	-0.0188261228870677	0	0	0.7071866442388	-0.63516863917745	0	0
0	0	-0.0249791292066931	-0.00519961279252899	0	0	-0.189721661103777	-0.871054323512236
0.7071866442388	-0.63516863917745	0	0	0.065495696742077	-0.0176249808372496	0	0
0	0	-0.523022241920537	0.653016952810101	0	0	-0.0727902862871454	0.071734385843385
4.8	-0.0102538247445812	0.0179408420228904	0	0	0.635935938909095	0.724059381352069	0	0
0	0	-0.0591579524869188	0.0342830534657016	0	0	-0.605187138251378	-0.633966292106576
0.635935938909095	0.724059381352069	0	0	0.0530645942537773	-0.0184693754380359	0	0
0	0	-0.825635589373602	-0.197428577414113	0	0	-0.00923507972752091	0.071566834304886
4.9	0.0177775739171628	-0.0127815500483093	0	0	0.730614440697783	-0.628729644763205	0	0
0	0	-0.040284766433876	0.0583606366362163	0	0	0.853377002647178	0.207159111055295
0.730614440697783	-0.628729644763205	0	0	-0.0804400496725824	-0.0293190085249014	0	0
0	0	0.198529853201503	0.820497219793871	0	0	-0.083379095081146	0.00380014933799451
5	-0.0224319865894031	0.0046579553553252	0	0	0.618620132714669	0.726320835405437	0	0
0	0	-0.000786337845627377	0.019815944434242	0	0	0.83075873716057	-0.298404222869096
0.618620132714669	0.726320835405437	0	0	-0.047497882984277	0.040396163067769	0	0
0	0	-0.644905291222255	0.533867596164482	0	0	0.0414299092172734	-0.00907270704976693
5.1	0.023898464489593	0.00526158436761127	0	0	0.727558402889757	-0.606938132147906	0	0
0	0	0.0381432405820013	-0.0342235867725939	0	0	-0.532698340357694	0.696227763625121
0.727558402889757	-0.606938132147906	0	0	-0.0217603342412787	-0.0417229526750497	0	0
0	0	0.750449662643797	0.344158116680102	0	0	0.0724770340785534	-0.0197861657699216
5.2	-0.0214802115085732	-0.0163584208893131	0	0	0.585471341348238	0.744929939139656	0	0
0	0	0.0159440141219054	-0.0751344599528108	0	0	-0.0770359440315813	0.872119460204957
0.585471341348238	0.744929939139656	0	0	0.0382344088261833	0.0220629386174297	0	0
0	0	0.0168347742541922	0.832541474173292	0	0	0.0269359060446175	0.0664482167595979
5.3	0.0152030813647067	0.0259833298091325	0	0	0.762873210918815	-0.574135960176068	0	0
0	0	-0.0141397016475599	-0.0420334798571199	0	0	-0.414370474547043	-0.769880922305421
0.762873210918815	-0.574135960176068	0	0	-0.0321997480339336	0.0247211944740278	0	0
0	0	0.741981518808784	-0.376335973138218	0	0	-0.0433958129803537	0.0122587081162019
5.4	-0.00610671230979746	-0.0320113756850841	0	0	0.566325120691847	0.767109657983	0	0
0	0	-0.0310833130277777	0.0142099783978065	0	0	-0.768335903154012	-0.425448383805096
0.566325120691847	0.767109657983	0	0	0.0708019044330562	0.0870494511799789	0	0
0	0	0.658800774968966	0.507392920127406	0	0	-0.00932468960591667	0.0219456731983451
5.5	-0.0047355427264538	0.0344111268688896	0	0	0.777035175094185	-0.563693280673501	0	0
0	0	0.0235831120674471	0.0600479705037117	0	0	0.876009590659722	-0.0478299356632526
0.777035175094185	-0.563693280673501	0	0	-0.00685906366484573	-0.0276254272248679	0	0
0	0	0.154297111510091	-0.816290827910161	0	0	0.0218243099624562	0.0382627001076939
5.6	0.0163214238500083	-0.0318171641818974	0	0	0.549360984272568	0.78178536121089	0	0
0	0	0.0427293965112306	0.057038727036902	0	0	0.694345225316301	-0.510125676609841
0.549360984272568	0.78178536121089	0	0	0.00104883916544755	-0.109147043964954	0	0
0	0	0.797035207725917	-0.20498760962307	0	0	0.0119654729916925	0.116927605239571
5.7	-0.0271250637426959	0.0251862979336226	0	0	0.794081704919293	-0.540544022299665	0	0
0	0	0.0209571230032822	-0.00635441380707039	0	0	-0.313517072268058	0.805940098022894
0.794081704919293	-0.540544022299665	0	0	-0.0114598916999069	0.0511507985453608	0	0
0	0	-0.536868700234763	-0.644484190880432	0	0	0.0585697417666644	0.0338997499236245
5.8	0.0340137434742164	-0.0146806240968119	0	0	0.522358080693951	0.793406653848277	0	0
0	0	-0.0218541673328889	-0.0306885923846836	0	0	0.157959349801078	0.849186825183414
0.522358080693951	0.793406653848277	0	0	0.0582869149232581	-0.0277899529457563	0	0
0	0	0.319688525540035	-0.768678860823802	0	0	0.0341552788166033	0.0549021308362964
5.9	-0.0371166263008002	0.00163652182214086	0	0	0.806806266168684	-0.498243899424079	0	0
0	0	-0.0561089808935174	-0.0262469814135956	0	0	-0.584133491990679	-0.632390222197869
0.806806266168684	-0.498243899424079	0	0	-0.072682795577332	0.0431602693910891	0	0
0	0	-0.822303178873079	0.0620239175657787	0	0	0.0375386879338193	0.0715638487121506
6	0.0357144934853338	0.011289767820068	0	0	0.481202183410957	0.819956140317167	0	0
0	0	-0.0340616083990292	0.00614507760479192	0	0	-0.843042671250929	-0.191604762348548
0.481202183410957	0.819956140317167	0	0	-0.00338170369327894	0.0234237578854622	0	0
