# GHZ S RI R 50
0.2	-0.00581344216400512	0.00662456289088237	0	0	0.958243129160778	0.0576899452845861	0	0
0	0	0.023728114434223	0.00280232753347891	0	0	-0.370130072686582	0.911288344645665
0.958243129160778	0.0576899452845861	0	0	0.0209665045626463	0.0479024344270711	0	0
0	0	0.569385956871514	-0.754269082261672	0	0	0.00137584558945258	-0.0258782985062868
0.3	0.00721538176196854	-0.0083402518286537	0	0	0.0329121577883003	-0.965347843968282	0	0
0	0	-0.00370169942939111	0.00130110636328696	0	0	-0.134824686404426	-0.974298494037718
0.0329121577883003	-0.965347843968282	0	0	-0.0127295334070792	0.00825908107267054	0	0
0	0	-0.922319408335601	-0.201666718329751	0	0	-0.0312887922888666	-0.0135974439445983
0.4	-0.0085637125701056	0.0078697484493887	0	0	0.948638181170774	0.0610860594521327	0	0
0	0	-0.0395139698536794	0.00101198078882909	0	0	-0.667865160975992	-0.725176516599978
0.948638181170774	0.0610860594521327	0	0	-0.032523737841587	-0.0119170139981182	0	0
0	0	-0.236054531858333	-0.895632019590205	0	0	0.0233252799051256	0.021712382722323
0.5	0.00989090534607318	-0.00519577638550146	0	0	0.126528293923199	-0.948858632889506	0	0
0	0	-0.0344167192807206	0.00515573214190637	0	0	0.964055118545648	0.205900164702075
0.126528293923199	-0.948858632889506	0	0	0.0380673787379311	0.0172606979582124	0	0
0	0	-0.677720504385323	0.637366922239744	0	0	0.00645094965624787	0.0083511999807377
0.6	-0.00963756612318912	0.00194295870487443	0	0	0.954655430468108	0.129715036257923	0	0
0	0	-0.0106510677237742	0.00614133711603702	0	0	0.911634312427585	-0.330636696583566
0.954655430468108	0.129715036257923	0	0	0.00552508418618238	-0.0195349395372377	0	0
0	0	-0.861915924186181	-0.343348424840582	0	0	-0.00470951920013909	-0.00701213147464424
0.7	0.00906037626959722	0.00177434965936692	0	0	0.107354443201717	-0.956850827647877	0	0
0	0	0.0200843877431625	-0.0114342843892528	0	0	-0.609361199132977	0.748544217871646
0.107354443201717	-0.956850827647877	0	0	0.00812670934361513	0.0099667463667545	0	0
0	0	0.0472747626536706	0.91933618154227	0	0	0.002306223150114	-0.0127349472159166
0.8	-0.00838605554393319	-0.00569714902834779	0	0	0.953812195801502	0.112055337418583	0	0
0	0	0.0419565958156771	-0.0426217669166118	0	0	-0.119029434565421	0.959785028584315
0.953812195801502	0.112055337418583	0	0	-0.0226885790858092	0.0133228360188832	0	0
0	0	-0.809917954981375	0.449138046502378	0	0	0.00666885350550662	0.0836957871897496
0.9	0.00649336292041553	0.00850554596714123	0	0	0.143451395868183	-0.938231828669686	0	0
0	0	0.011700546962297	-0.0285642719260647	0	0	-0.434911976582304	-0.863988857401359
0.143451395868183	-0.938231828669686	0	0	-0.0023461182498747	-0.0605866007285184	0	0
0	0	0.763487342705478	0.523183023175559	0	0	0.0361554409524163	0.0146622132780634
1	-0.00381205996496509	-0.00962134962750088	0	0	0.940883139023246	0.180344962481276	0	0
0	0	-0.0149902166335996	0.011189536586306	0	0	-0.837134926887214	-0.479546425232615
0.940883139023246	0.180344962481276	0	0	0.00309502933847771	0.0431679776736495	0	0
0	0	-0.125135368758997	0.900893594656916	0	0	0.00367482208307006	0.0033596855209726
1.1	0.000564630574443342	0.00865165041809237	0	0	0.20054787179308	-0.947488464661801	0	0
0	0	-0.0113477866646975	0.0347952438759786	0	0	0.954258029764067	-0.0515267764428118
0.20054787179308	-0.947488464661801	0	0	0.00438211589469699	0.00314053715820327	0	0
0	0	0.866926509039124	-0.260267560180895	0	0	0.00981212288321971	0.0440873282591279
1.2	0.00267270121817931	-0.00628969918146733	0	0	0.957022646602602	0.202135495353488	0	0
0	0	0.00954890096154707	0.0648931208940174	0	0	0.769264967676918	-0.553486182844983
0.957022646602602	0.202135495353488	0	0	0.0547972736237183	0.00047670808794683	0	0
0	0	0.61254787747284	0.669875674192647	0	0	0.00858922688587152	0.100167893863465
1.3	-0.0051787209277305	0.00299436679895928	0	0	0.205224734468863	-0.940622866661474	0	0
0	0	0.0171345759067704	0.0198728856101272	0	0	-0.354596052787028	0.881101346357607
0.205224734468863	-0.940622866661474	0	0	-0.0522683658106578	0.00103589813832525	0	0
0	0	0.321707457961958	-0.857204293998281	0	0	0.0418795686408909	0.0149041761959436
1.4	0.0060568373723267	0.000631947968335581	0	0	0.92261918378563	0.233950200350462	0	0
0	0	-0.0126760251436362	-0.0424626860991884	0	0	0.178379417148812	0.935576498570163
0.92261918378563	0.233950200350462	0	0	0.0187484509780069	0.00833153828116773	0	0
0	0	0.897007778915841	-0.0830536557781398	0	0	0.0461176065646101	-0.00621063914077771
1.5	-0.00530532230304347	-0.00352953839295475	0	0	0.271704094796966	-0.920796143119017	0	0
0	0	-0.0381438744644599	-0.0549417532392938	0	0	-0.672507944056479	-0.675175709324405
0.271704094796966	-0.920796143119017	0	0	0.034534487863667	-0.0326341844535445	0	0
0	0	-0.459510765832514	-0.766752825337951	0	0	0.0345551823092796	0.0519476882610544
1.6	0.00338670511796942	0.00484537064963442	0	0	0.935676674053146	0.296057835263064	0	0
0	0	-0.0366996606461031	-0.0182275053300221	0	0	-0.935202267609183	-0.185215861211582
0.935676674053146	0.296057835263064	0	0	-0.0500343495432455	-0.0273623771979034	0	0
0	0	0.49813031885336	-0.751958368211928	0	0	0.0020259947693054	0.0519168378349026
1.7	-0.000410009691294586	-0.00432364554665127	0	0	0.291352988378189	-0.941696241569426	0	0
0	0	0.0147704889654658	0.00737864564003848	0	0	0.884551221718761	-0.341447922858173
0.291352988378189	-0.941696241569426	0	0	-0.000274074495395096	0.0046429303022824	0	0
0	0	-0.899225634926431	-0.112854618154446	0	0	0.0408411033251638	-0.0309382028281155
1.8	-0.00284391453858105	0.00241579118450773	0	0	0.916423226549688	0.292749780913814	0	0
0	0	0.0445542697120783	0.0385611062978913	0	0	0.57468390740317	-0.744047422882238
0.916423226549688	0.292749780913814	0	0	0.00657763821361734	0.0645161629198899	0	0
0	0	-0.308017960341665	-0.849394202802218	0	0	0.0280586254425446	-0.0345211020117476
1.9	0.00518640292172228	0.000476613385029569	0	0	0.322000003403942	-0.89335294069923	0	0
0	0	0.0520186020408549	-0.00379794673283001	0	0	-0.0855844413327019	0.941181058695649
0.322000003403942	-0.89335294069923	0	0	0.00973952150242939	0.00848392403853766	0	0
0	0	-0.616510587455881	0.64409165401513	0	0	0.0408893348248592	0.0232215185139937
2	-0.00572680116115317	-0.00417303620743632	0	0	0.890611224311466	0.352402794738552	0	0
0	0	0.0146641491631436	-0.00547430776050632	0	0	0.455448621019808	0.834374270381371
0.890611224311466	0.352402794738552	0	0	-0.0497219196277887	-0.0338580430818222	0	0
0	0	-0.843943465990765	-0.266035631009094	0	0	-0.0529129465925361	-0.0218516917878985
2.1	0.00423345234012219	0.00816530409545275	0	0	0.367127384095162	-0.898040752166407	0	0
0	0	-0.0292136101535142	0.00708018006392244	0	0	-0.829730104155671	-0.454348511212181
0.367127384095162	-0.898040752166407	0	0	0.070698659220302	0.0165464219300729	0	0
0	0	0.133424378479146	0.880271520954902	0	0	-0.0050140008239894	0.00942354866008072
2.2	-0.000592422319281954	-0.0118902865351517	0	0	0.898883319219743	0.378744400448736	0	0
0	0	-0.0478552937743301	0.0163675749444796	0	0	-0.933370091564191	0.066911103422019
0.898883319219743	0.378744400448736	0	0	0.014888525738791	-0.0111115468034598	0	0
0	0	-0.738920136218799	0.505244100373897	0	0	0.0428558254852851	-0.0114379191850337
2.3	-0.00449565113432118	0.0141112785457859	0	0	0.388016215274129	-0.890153753273819	0	0
0	0	-0.0299891653774676	0.0186151927911526	0	0	0.73855436884165	-0.555154623913575
0.388016215274129	-0.890153753273819	0	0	0.0584138983372447	-0.0291711252809549	0	0
0	0	0.776535147956891	0.434031142194881	0	0	0.0668526216066091	0.0463979877727139
2.4	0.0103111550415687	-0.0139675289706648	0	0	0.878697634884569	0.399477694037769	0	0
0	0	-5.16446351391222E-05	0.000607272483628149	0	0	0.325447317359263	-0.868696405117237
0.878697634884569	0.399477694037769	0	0	-0.0971606090663905	0.0131890246329119	0	0
0	0	-0.040025606942624	0.883602003451145	0	0	0.04720223344636	-0.0498694313710066
2.5	-0.0164129892596737	0.0109417660849955	0	0	0.415723354306269	-0.867186163034777	0	0
0	0	0.0196566299514193	-0.0361320695018225	0	0	0.189366978126414	0.918502467981737
0.415723354306269	-0.867186163034777	0	0	-0.0103601729497143	-0.0277477653247341	0	0
0	0	0.805838383938311	-0.332262144252907	0	0	0.012227156674513	-0.00143033061342908
2.6	0.0218072793040814	-0.00560719990467297	0	0	0.85999424736471	0.429225724754274	0	0
0	0	0.0182230392810909	-0.0386286822426983	0	0	0.667613234185618	0.653623384983377
0.85999424736471	0.429225724754274	0	0	0.00517416796918702	-0.034114160247926	0	0
0	0	0.630986155441463	0.597284398699666	0	0	0.0620451732451505	0.00949541368387093
2.7	-0.0255261007571272	-0.00141296807175391	0	0	0.443357388035319	-0.85368686836691	0	0
0	0	0.0211750309589616	-0.00933124688009443	0	0	-0.897318447921235	-0.173631972585094
0.443357388035319	-0.85368686836691	0	0	0.00279375175696853	-0.0134840753032362	0	0
0	0	0.275308032345995	-0.835368158428094	0	0	-0.0279991629103378	-0.00134823725324574
2.8	0.0262055318396995	0.0092289290722379	0	0	0.842712641068627	0.456631417499655	0	0
0	0	0.00929011619145846	0.0126599572616467	0	0	-0.841259449424621	0.312671476074548
0.842712641068627	0.456631417499655	0	0	0.00369249703190577	0.0632604028167505	0	0
0	0	0.870636171030395	-0.150445298339014	0	0	0.0253667342746081	-0.0640276407832092
2.9	-0.0231733060446883	-0.0171206064030249	0	0	0.472704803606833	-0.822993583874856	0	0
0	0	-0.000796855963557797	0.036248709066671	0	0	0.566266412657757	-0.699645611955077
0.472704803606833	-0.822993583874856	0	0	-0.0538418079079611	0.0336383155603596	0	0
0	0	-0.51444319860977	-0.701406832058748	0	0	-0.0406496993724218	-0.0461582947151824
3	0.017464598545736	0.0242544542971725	0	0	0.81357312657038	0.497154753218665	0	0
0	0	-0.01165100825779	0.0287296396429867	0	0	0.091895682278585	-0.918129964357112
0.81357312657038	0.497154753218665	0	0	-0.00730202605471159	-0.0178583575908185	0	0
0	0	0.406041931455385	-0.758787699709794	0	0	0.0129526892282357	0.0854475015350222
3.1	-0.00934177806711011	-0.0286130308040261	0	0	0.518379340386065	-0.802941688607805	0	0
0	0	-0.020713074988813	0.0114046207809768	0	0	0.446021939015227	0.804996457214129
0.518379340386065	-0.802941688607805	0	0	0.0382656508864104	-0.0641544236546716	0	0
0	0	-0.866891974977844	-0.0510420232332299	0	0	-0.0754064920788091	0.00612799043755992
3.2	0.000130440418158964	0.0302297318161613	0	0	0.800806747814509	0.542999053827412	0	0
0	0	-0.0179839786896567	-0.00691011368573055	0	0	0.794890141431662	0.437741861801698
0.800806747814509	0.542999053827412	0	0	0.000322773611370911	0.0251709326840014	0	0
0	0	-0.334687604156038	-0.812510793271779	0	0	-0.0591390928858294	0.00674411869370884
3.3	0.00897045317052143	-0.0277824386208416	0	0	0.555245653494619	-0.796440977232302	0	0
0	0	-0.00110465726863988	-0.0246253500146711	0	0	-0.902693947005684	0.0473455660598179
0.555245653494619	-0.796440977232302	0	0	0.0614793179320811	0.0246769370770272	0	0
0	0	-0.575324442856139	0.671954679391382	0	0	-0.0266100446688921	-0.1063842602925
3.4	-0.0167189175867483	0.0217123424970484	0	0	0.779498082429182	0.561013374140768	0	0
0	0	-0.00393029797170659	-0.0410223707739627	0	0	-0.733444751261481	0.538913863464892
0.779498082429182	0.561013374140768	0	0	-0.114642320452582	0.00784119576326054	0	0
0	0	-0.85400321749713	-0.225269337352042	0	0	-0.0191104034329416	-0.0396941924281114
3.5	0.0221000474950142	-0.0139625079384121	0	0	0.576452773124576	-0.770538254145168	0	0
0	0	0.00854365068455939	-0.0304923844081425	0	0	0.300758635617005	-0.866422718180078
0.576452773124576	-0.770538254145168	0	0	-0.0116022204321868	-0.053624443445564	0	0
0	0	0.163587175119252	0.842783608665761	0	0	0.085433652515345	-0.0715761261842093
3.6	-0.0239759255305874	0.00520101844893722	0	0	0.763874401748777	0.587350033670782	0	0
0	0	0.0202374324612884	0.00256956959744561	0	0	-0.205240913902232	-0.89489606727538
0.763874401748777	0.587350033670782	0	0	-0.0349148532170779	0.0600539220934691	0	0
0	0	-0.694935366937393	0.51677551577025	0	0	0.0450145999066023	-0.0311434280112034
3.7	0.0219139735332919	0.00424715340001895	0	0	0.606920938457661	-0.744422413550426	0	0
0	0	0.014456281190174	0.0366668110208747	0	0	0.636440430958081	0.652292376252048
0.606920938457661	-0.744422413550426	0	0	0.118446883354894	0.00855169245587317	0	0
0	0	0.768932321355349	0.413459089961296	0	0	0.0556639967051302	-0.0185524142355631
3.8	-0.0169111854768601	-0.0121936130670624	0	0	0.738766585693952	0.626327390384572	0	0
0	0	0.0155143960857994	0.0510181172693617	0	0	0.871300148011836	0.19101337593795
0.738766585693952	0.626327390384572	0	0	-0.0256992457323895	0.0206441077276759	0	0
0	0	-0.0201835935891412	0.872384665726026	0	0	-0.0582916415264964	-0.0259127770724387
3.9	0.00992796619622272	0.0171191924947436	0	0	0.631489181086795	-0.739048396722722	0	0
0	0	0.0111036252300946	0.0161237562471461	0	0	-0.827502767681647	0.324699946146168
0.631489181086795	-0.739048396722722	0	0	-0.01431732841537	0.0836846077539477	0	0
0	0	0.786448105177068	-0.38290084152578	0	0	0.024943981955292	-0.00544100558607968
4	-0.00141155718483649	-0.0185303616277182	0	0	0.722274039226693	0.639723038469934	0	0
0	0	-0.0170333298403466	-0.0118911829592989	0	0	-0.52039407822954	0.725160761508259
0.722274039226693	0.639723038469934	0	0	0.0519242708594197	-0.0743985791126254	0	0
0	0	0.684463181370868	0.520190807777056	0	0	-0.00488914149620748	0.00969084349966768
4.1	-0.00656551384744835	0.0164079750720403	0	0	0.645087030645134	-0.710372181930541	0	0
0	0	-0.0420509451591011	-0.0351865324710252	0	0	0.0575893253062628	-0.895261103069445
0.645087030645134	-0.710372181930541	0	0	0.0258883341070221	-0.11268285944963	0	0
0	0	0.18680148829746	-0.831090763930551	0	0	0.0260703385383269	0.0828469383114483
4.2	0.0130551422942827	-0.0116338420897323	0	0	0.706407417379699	0.656113776721235	0	0
0	0	-0.049438024417757	-0.0153968710009334	0	0	-0.434108526112499	-0.784709515609057
0.706407417379699	0.656113776721235	0	0	-0.0405859792881316	0.0164956349183792	0	0
0	0	0.835342650365935	-0.184222404805231	0	0	-0.0117378702121779	-0.0416897957194979
4.3	-0.0167464865909873	0.00471603417093808	0	0	0.664199879657531	-0.700602702469926	0	0
0	0	-0.00778912212629709	0.00658756381083346	0	0	0.781561779419194	0.426012002631787
0.664199879657531	-0.700602702469926	0	0	-0.0112567723469502	0.068044827502053	0	0
0	0	-0.536593793728971	-0.676629458590377	0	0	-0.0145777041448129	0.00241177543067267
4.4	0.0167231059567146	0.00350587764597606	0	0	0.684186251223361	0.67280943951142	0	0
0	0	0.0378947608053003	0.00410693573093656	0	0	0.891788791420812	-0.0546148519391296
0.684186251223361	0.67280943951142	0	0	0.00122767368060422	-0.0506910945575626	0	0
0	0	0.34673843393506	-0.775673021576568	0	0	-0.0339800202833198	0.00331532380032673
4.5	-0.013065083154994	-0.0110690059302352	0	0	0.678490593697458	-0.66620502489253	0	0
0	0	0.064759680825741	-0.00473475771414571	0	0	-0.724036422116979	0.526216533546122
0.678490593697458	-0.66620502489253	0	0	-0.0502811736847691	0.0267814884328404	0	0
0	0	-0.83820384784447	0.0127110209086959	0	0	-0.086720146849639	0.062679172493023
4.6	0.00659449008523121	0.016890746624105	0	0	0.648225401132281	0.692351487494342	0	0
0	0	0.0469387972046105	-0.0250620993473192	0	0	-0.312098137014298	0.847480001738255
0.648225401132281	0.692351487494342	0	0	-0.00398164031181112	0.0138074530422996	0	0
0	0	-0.37446570810444	-0.746025509993508	0	0	-0.0810065946394299	-0.00939240939245151
4.7	0.00138164876156161	-0.0196514053915136	0	0	0.708904629740697	-0.641186340448739	0	0
0	0	-0.0241564792289261	-0.00526556101628846	0	0	-0.193653836151022	-0.875248496230947
0.708904629740697	-0.641186340448739	0	0	0.0656679505508627	-0.0182784308691056	0	0
0	0	-0.523756979396231	0.65836229712487	0	0	-0.0734924466048926	0.0729838626730794
4.8	-0.00984508235142195	0.0187726309541588	0	0	0.640802828463847	0.724233642831827	0	0
0	0	-0.0583617522128899	0.0345601514879306	0	0	-0.609570267583962	-0.634066816348982
0.640802828463847	0.724233642831827	0	0	0.0528671373314346	-0.0189635481545398	0	0
0	0	-0.829253698923726	-0.195205450003459	0	0	-0.00915553240139306	0.0721243502787328
4.9	0.0173819284005285	-0.0135945382662241	0	0	0.729705724016319	-0.631861403551162	0	0
0	0	-0.0397478564585499	0.0589628508255335	0	0	0.855254882548409	0.204890536889856
0.729705724016319	-0.631861403551162	0	0	-0.0813005819551472	-0.0287981932658098	0	0
0	0	0.201295118919295	0.821103710888455	0	0	-0.0839966687565655	0.0043853823073483
5	-0.0220830339989208	0.00551669613360694	0	0	0.61990060781021	0.725049063003939	0	0
0	0	-0.000682094142643398	0.0206418314907245	0	0	0.830132669770591	-0.300005322229601
0.61990060781021	0.725049063003939	0	0	-0.0477537074549388	0.040728157262188	0	0
0	0	-0.643830924083636	0.535094084674523	0	0	0.0410024016007006	-0.0091190340942755
5.1	0.0235036463172059	0.00432060005445171	0	0	0.72643194864494	-0.606412652019907	0	0
0	0	0.0377923782950639	-0.0333771810184278	0	0	-0.531878122726976	0.695622941550564
0.72643194864494	-0.606412652019907	0	0	-0.0220735482146783	-0.0413915700377306	0	0
0	0	0.749723245711418	0.343530842964546	0	0	0.0719655276317565	-0.0196260034327664
5.2	-0.020997907178881	-0.0154178096845673	0	0	0.583305779020994	0.744670461962349	0	0
0	0	0.0152601062785065	-0.0744650827330231	0	0	-0.0784387890193571	0.870664111454815
0.583305779020994	0.744670461962349	0	0	0.0378463630806029	0.0223849425515043	0	0
0	0	0.0153586887248094	0.831309636078785	0	0	0.0264027666893482	0.0665395626782324
5.3	0.0146656581698092	0.0251557106095845	0	0	0.763935653239517	-0.570471675530058	0	0
0	0	-0.0149379741839106	-0.0417019186463158	0	0	-0.410887869579967	-0.770418282894907
0.763935653239517	-0.570471675530058	0	0	-0.0323240694577646	0.0247125140264751	0	0
0	0	0.742411964882584	-0.373010569850602	0	0	-0.0434547053135608	0.0121417480822459
5.4	-0.00563353326625455	-0.031314574239434	0	0	0.561836050962176	0.770048014939844	0	0
0	0	-0.0318015694955698	0.0141075881759349	0	0	-0.765659868592323	-0.429660883357894
0.561836050962176	0.770048014939844	0	0	0.0698235290525658	0.0880548951679847	0	0
0	0	0.655697419466988	0.510956094192409	0	0	-0.00954967630386514	0.0220690092540199
5.5	-0.00510697918487114	0.0337172974477681	0	0	0.782020809359288	-0.558805380803263	0	0
0	0	0.0231143949566772	0.0595429114467402	0	0	0.877506071674718	-0.0415580403329541
0.782020809359288	-0.558805380803263	0	0	-0.00644215508313607	-0.0275632527429169	0	0
0	0	0.160402647044731	-0.816247222243209	0	0	0.0213633684746022	0.0388928835486422
5.6	0.0166529429535482	-0.0310436325193654	0	0	0.544852121949615	0.788861402882328	0	0
0	0	0.0426181491579265	0.056275792649044	0	0	0.701063664887144	-0.506147100145051
0.544852121949615	0.788861402882328	0	0	0.00279629468965489	-0.109650803189268	0	0
0	0	0.801573920069139	-0.199069541464799	0	0	0.0100908555041496	0.118139498330362
5.7	-0.0275217287185689	0.0243892040160157	0	0	0.803437125652782	-0.536977841494815	0	0
0	0	0.0211843070803146	-0.00716370986439082	0	0	-0.322315802013398	0.808144062095193
0.803437125652782	-0.536977841494815	0	0	-0.0126737559786154	0.051869781730272	0	0
0	0	-0.534608472124742	-0.652987059428899	0	0	0.0585236953975309	0.0355789816698322
5.8	0.0344921205246778	-0.0139694669352795	0	0	0.52052752356046	0.804378485546246	0	0
0	0	-0.0213763607800195	-0.0313535753826112	0	0	0.152459460859936	0.857886280947449
0.52052752356046	0.804378485546246	0	0	0.059568104922423	-0.0269278465409867	0	0
0	0	0.328709544428887	-0.772805022428977	0	0	0.0336797322235729	0.0567446972197676
5.9	-0.0375590532423445	0.00108709414538099	0	0	0.819142636018997	-0.498309928805094	0	0
0	0	-0.0555516500174028	-0.0266076815082305	0	0	-0.586431671285734	-0.643478642608371
0.819142636018997	-0.498309928805094	0	0	-0.0749025354775329	0.0436164385604309	0	0
0	0	-0.831993324342516	0.0571490934161021	0	0	0.0373245095062407	0.074100500082397
6	0.0359963642896281	0.0117050577087872	0	0	0.483776156051166	0.833039407510982	0	0
0	0	-0.0336055982059709	0.0061335739506489	0	0	-0.853385725367176	-0.198184559497778
0.483776156051166	0.833039407510982	0	0	-0.00346735803319023	0.0245229407014079	0	0
