# GHZ S RI R 50
0.2	-0.00629734795164189	0.0101425894763585	0	0	0.957892018253246	0.0581619454099543	0	0
0	0	0.0206362647816977	0.00453877701996566	0	0	-0.370457085344243	0.911053418540774
0.957892018253246	0.0581619454099543	0	0	0.0209702136268769	0.0429468447316345	0	0
0	0	0.569631325506619	-0.753969972102349	0	0	0.00140410593977956	-0.0308728475840728
0.3	0.00682233856449259	-0.00979953378252737	0	0	0.0336774706084663	-0.965160933939888	0	0
0	0	-0.0051370935948292	0.00164348102356424	0	0	-0.134080863761427	-0.974197902394959
0.0336774706084663	-0.965160933939888	0	0	-0.0140228795012531	0.00501877511961932	0	0
0	0	-0.921982122312047	-0.202303362639416	0	0	-0.0326252530962179	-0.0168922824255536
0.4	-0.00877845930344385	0.00786983823294063	0	0	0.948558960474476	0.0622746094627417	0	0
0	0	-0.0394179943657649	0.000822229535119309	0	0	-0.666916206416529	-0.725966316073125
0.948558960474476	0.0622746094627417	0	0	-0.0341087003824451	-0.0136931688091532	0	0
0	0	-0.234919493857152	-0.895871026759556	0	0	0.0215547233187401	0.0200724277988128
0.5	0.011123015635741	-0.00459156418085974	0	0	0.12813173986268	-0.94887668261121	0	0
0	0	-0.033160502091693	0.00474740319665028	0	0	0.963984130043514	0.207585621156262
0.12813173986268	-0.94887668261121	0	0	0.0367615939750358	0.0167762409588383	0	0
0	0	-0.678990078562978	0.63640628361194	0	0	0.00507962066323161	0.00778532136248761
0.6	-0.0117954184319997	0.00172685858474652	0	0	0.955112739819781	0.131840966516697	0	0
0	0	-0.00866342964294141	0.00596884042364483	0	0	0.913072558693399	-0.329038958448271
0.955112739819781	0.131840966516697	0	0	0.00499074317735939	-0.0196816348708179	0	0
0	0	-0.861928046698085	-0.345405108809594	0	0	-0.00535516317237095	-0.00715428470879763
0.7	0.0113918348557265	0.000968414392789689	0	0	0.109711905897914	-0.957930145056758	0	0
0	0	0.0222746448215961	-0.0111188271339414	0	0	-0.611943057765882	0.748285994272389
0.109711905897914	-0.957930145056758	0	0	0.00804540994945913	0.00983211516267701	0	0
0	0	0.0452824022892066	0.920804003395598	0	0	0.00229517079670372	-0.0129715390094564
0.8	-0.0101365070513334	-0.00421215158551787	0	0	0.955644997860414	0.114485007858883	0	0
0	0	0.0438989385541314	-0.0419474174785624	0	0	-0.121264797758987	0.961484157792695
0.955644997860414	0.114485007858883	0	0	-0.0226738892545101	0.0126916532931157	0	0
0	0	-0.812493538965914	0.448366262319541	0	0	0.00648037432497676	0.0834267758259336
0.9	0.0074401007035238	0.00708248971370341	0	0	0.145920999353136	-0.940828491937928	0	0
0	0	0.013041838725463	-0.0277977314003949	0	0	-0.434404267756799	-0.867336673038169
0.145920999353136	-0.940828491937928	0	0	-0.00210043025449701	-0.0619647170200496	0	0
0	0	0.764608015707826	0.526223043487958	0	0	0.0361993969112413	0.0137900710704183
1	-0.00422756374303446	-0.00877177760477637	0	0	0.94404455002872	0.182539508060102	0	0
0	0	-0.0144505187245431	0.0117976952351513	0	0	-0.839382939200309	-0.482576419747716
0.94404455002872	0.182539508060102	0	0	0.00248570410073543	0.0423026573111705	0	0
0	0	-0.126995417132611	0.90392541173211	0	0	0.00299241370861639	0.00212880797339101
1.1	0.000988994280519093	0.0086188844287869	0	0	0.202247185590987	-0.951348934717281	0	0
0	0	-0.0115850425271639	0.0350065811338282	0	0	0.958294813576	-0.0508428073836249
0.202247185590987	-0.951348934717281	0	0	0.00332846297156845	0.00212764262984651	0	0
0	0	0.870795022979418	-0.26053830552184	0	0	0.00843545017638728	0.0434843029058491
1.2	0.00165324822638064	-0.00680898637590568	0	0	0.961337497781989	0.20304683272981	0	0
0	0	0.00879568947541082	0.0645225729195991	0	0	0.772885593982605	-0.556003138741218
0.961337497781989	0.20304683272981	0	0	0.0537680633345814	-0.00013793281249674	0	0
0	0	0.615347105978956	0.673038365719324	0	0	0.00678629197277014	0.100734637718788
1.3	-0.00358789666629592	0.00347808390314605	0	0	0.205297183298728	-0.945266171620225	0	0
0	0	0.0162854800588448	0.0189328704115552	0	0	-0.355604904412023	0.885600127374746
0.205297183298728	-0.945266171620225	0	0	-0.0544502682224116	0.000957300196439973	0	0
0	0	0.322577461015494	-0.861562837972212	0	0	0.0403154422758706	0.0152329450575273
1.4	0.00428936493812183	0.000292466316729553	0	0	0.927161609696622	0.233240410526619	0	0
0	0	-0.013166037554547	-0.0437667761637976	0	0	0.180816723250616	0.939636801192957
0.927161609696622	0.233240410526619	0	0	0.0173455001344478	0.00840792718547298	0	0
0	0	0.901051598400258	-0.0849799240738956	0	0	0.0446533913103788	-0.00585913529789368
1.5	-0.00339614284142399	-0.00336721952954468	0	0	0.270337410980952	-0.925234370263737	0	0
0	0	-0.0381775626166931	-0.0563580646039223	0	0	-0.677231285420873	-0.676230572341675
0.270337410980952	-0.925234370263737	0	0	0.0332178241254559	-0.0327954146355025	0	0
0	0	-0.463572086220492	-0.76878142796247	0	0	0.0335141127539341	0.0529820700587383
1.6	0.00135011488910187	0.00511247668251721	0	0	0.940003853051051	0.293825221344375	0	0
0	0	-0.0362937262085624	-0.0196416101871846	0	0	-0.939308087749099	-0.18257138804793
0.940003853051051	0.293825221344375	0	0	-0.0516637744633692	-0.0266563654959467	0	0
0	0	0.497291076566833	-0.756502045279757	0	0	0.00124799204181435	0.053316453157317
1.7	0.00133465844580429	-0.00511816090563507	0	0	0.288365274442602	-0.945261822527101	0	0
0	0	0.0154819392927986	0.00625288135790309	0	0	0.885728806374151	-0.345969863999846
0.288365274442602	-0.945261822527101	0	0	-0.000941812660265917	0.0053383172382163	0	0
0	0	-0.90226351097496	-0.109580558946363	0	0	0.0401882381099243	-0.0303411707731405
1.8	-0.00400512983151649	0.00332386203482353	0	0	0.919066704375497	0.289341721568215	0	0
0	0	0.0453639127279236	0.0379159838319699	0	0	0.572553091706708	-0.747970780542689
0.919066704375497	0.289341721568215	0	0	0.00678724821321089	0.065302883139192	0	0
0	0	-0.31229885596591	-0.849684487974404	0	0	0.0276859344503317	-0.0339402044579211
1.9	0.00600446205814081	-0.000149637315005599	0	0	0.318501873800243	-0.895297782375909	0	0
0	0	0.0527421193657425	-0.00391782192432013	0	0	-0.0815647123651664	0.942351548712137
0.318501873800243	-0.895297782375909	0	0	0.00969291943785024	0.00889625181459224	0	0
0	0	-0.614232986920789	0.647318643274841	0	0	0.0412233437504367	0.0235849528770361
2	-0.00651771327990857	-0.00388062250846962	0	0	0.891829892966964	0.348878765939458	0	0
0	0	0.0151484787070688	-0.00514115320513104	0	0	0.458816893952459	0.832537044500108
0.891829892966964	0.348878765939458	0	0	-0.0500268564926546	-0.033146580217176	0	0
0	0	-0.845018303703382	-0.262629646127779	0	0	-0.0530039188477214	-0.0209923564089762
2.1	0.00522746877306622	0.00800607117244311	0	0	0.363849596060048	-0.898290972915722	0	0
0	0	-0.0290531560244278	0.00772638720151947	0	0	-0.830657563304674	-0.45115937410227
0.363849596060048	-0.898290972915722	0	0	0.0705592527197711	0.0162793192678151	0	0
0	0	0.136340497898716	0.879145820805477	0	0	-0.00495287039600056	0.00978042701547367
2.2	-0.00174227939343223	-0.0115723596477304	0	0	0.898471932354017	0.375991847263317	0	0
0	0	-0.048005873674047	0.0171112058154202	0	0	-0.932029808460253	0.0692664814606151
0.898471932354017	0.375991847263317	0	0	0.0146307382558897	-0.0108916310598328	0	0
0	0	-0.73667727277063	0.506544054797861	0	0	0.0426266944467832	-0.0112211045874744
2.3	-0.00349915724532563	0.0135433572686094	0	0	0.386086710621559	-0.88925990893334	0	0
0	0	-0.0303297175693901	0.0192465785260256	0	0	0.736488705548817	-0.555639284204919
0.386086710621559	-0.88925990893334	0	0	0.0579884866421477	-0.0288745107672876	0	0
0	0	0.776157176531064	0.432023503234912	0	0	0.0668623860923608	0.0465919381296333
2.4	0.00969011965335371	-0.0133689063609282	0	0	0.877672893246996	0.39824203963229	0	0
0	0	-0.000437279471595956	0.000992239859903578	0	0	0.324276749414066	-0.867898150865141
0.877672893246996	0.39824203963229	0	0	-0.0968841748125253	0.0137459851321121	0	0
0	0	-0.0391982755822844	0.882534036395916	0	0	0.0472800289169026	-0.0491723488439022
2.5	-0.0160977823373048	0.0106333624313825	0	0	0.415408396206613	-0.866298276051236	0	0
0	0	0.0193629880185589	-0.0360511235982912	0	0	0.189347643181062	0.917721530537149
0.415408396206613	-0.866298276051236	0	0	-0.0102218106173778	-0.0271962902680303	0	0
0	0	0.805128658560118	-0.332109005587301	0	0	0.0127628164565918	-0.000831786931649129
2.6	0.0215115787028049	-0.0056785241997338	0	0	0.859498289039508	0.429653938837792	0	0
0	0	0.0181312606134717	-0.0387832109537598	0	0	0.667280433034772	0.653825694136404
0.859498289039508	0.429653938837792	0	0	0.00544752198842932	-0.0336357472064746	0	0
0	0	0.630679884630298	0.597477718844295	0	0	0.0627592434826509	0.00998038954749239
2.7	-0.0250688326396543	-0.0011215724304695	0	0	0.444349528227442	-0.853824561388778	0	0
0	0	0.0213077792218856	-0.00956912668392471	0	0	-0.897945419234351	-0.174345764715104
0.444349528227442	-0.853824561388778	0	0	0.00312172218942077	-0.0131216382991103	0	0
0	0	0.276065961156673	-0.835879503999297	0	0	-0.0272512701911123	-0.00112527145289433
2.8	0.0256441974369892	0.00885406348123293	0	0	0.843680683635618	0.457904025147371	0	0
0	0	0.00959476538225841	0.0125158311421436	0	0	-0.842901558021471	0.312749434480228
0.843680683635618	0.457904025147371	0	0	0.00394900229793834	0.063760176024121	0	0
0	0	0.872239351373069	-0.150223787768485	0	0	0.0263078853898687	-0.064104901816457
2.9	-0.0225798805852709	-0.0166049562172828	0	0	0.474039424841095	-0.824929661148556	0	0
0	0	-0.000416871322476697	0.0363440860920383	0	0	0.567861162086937	-0.701424829541748
0.474039424841095	-0.824929661148556	0	0	-0.0537877239601999	0.0340133033483236	0	0
0	0	-0.515713356872343	-0.703335115987882	0	0	-0.0401513154047363	-0.046422945043994
3	0.0167072584925703	0.0235477381539402	0	0	0.81639812244043	0.498283133997953	0	0
0	0	-0.0113119813344934	0.0290993054773652	0	0	0.091592931098288	-0.921296325177527
0.81639812244043	0.498283133997953	0	0	-0.00705329666595239	-0.0178012318674058	0	0
0	0	0.406908045258313	-0.761625116552497	0	0	0.0137386319981296	0.0858837915012269
3.1	-0.00827340887210627	-0.0278646728089315	0	0	0.519038824066978	-0.806547443682244	0	0
0	0	-0.0204995461887973	0.011991597409837	0	0	0.449086078964047	0.807464189681773
0.519038824066978	-0.806547443682244	0	0	0.0385635688873411	-0.0646411110981031	0	0
0	0	-0.870406417745701	-0.0498459910254526	0	0	-0.0755844303379992	0.00624347703140542
3.2	-0.00120805648646402	0.0296254421532173	0	0	0.805199092919813	0.542750375597332	0	0
0	0	-0.018005803769444	-0.00622759574580878	0	0	0.799401467204293	0.437321459512861
0.805199092919813	0.542750375597332	0	0	0.000614654212178573	0.0253655651624742	0	0
0	0	-0.338348538920422	-0.814929055804155	0	0	-0.0593875362822658	0.00695042323683758
3.3	0.0103686330433456	-0.0274325177396969	0	0	0.553997393498805	-0.801237857375362	0	0
0	0	-0.00137247774387671	-0.0240075901319213	0	0	-0.90604460474205	0.0511044538648925
0.553997393498805	-0.801237857375362	0	0	0.0621533404114466	0.0243358080596736	0	0
0	0	-0.574919469601529	0.676865805559408	0	0	-0.0276278844759573	-0.10710967014696
3.4	-0.0179843960791134	0.0215035463178758	0	0	0.784683877487386	0.558529120231835	0	0
0	0	-0.0043979652570358	-0.0406138529319876	0	0	-0.733065117533386	0.544505159415591
0.784683877487386	0.558529120231835	0	0	-0.11519721395647	0.00904483301877995	0	0
0	0	-0.857993482026638	-0.221574313709584	0	0	-0.0196747650284898	-0.0397733013110644
3.5	0.0232920448004759	-0.013713595218776	0	0	0.572851136595657	-0.77553871854585	0	0
0	0	0.00799215239775108	-0.0303941030122914	0	0	0.296112664747714	-0.870259390531464
0.572851136595657	-0.77553871854585	0	0	-0.0123068344421708	-0.0536836232181925	0	0
0	0	0.169151297365161	0.843706951841755	0	0	0.0849323933189949	-0.0729144875895377
3.6	-0.025233919516981	0.00495827153134942	0	0	0.768354961944245	0.582356612665477	0	0
0	0	0.0197024306828195	0.00236497401801141	0	0	-0.21167123765138	-0.894434061050683
0.768354961944245	0.582356612665477	0	0	-0.0341135593043932	0.0606053822183171	0	0
0	0	-0.692096642014864	0.522153266955585	0	0	0.044710467616068	-0.0317872171142555
3.7	0.0232343025975805	0.00439359626367239	0	0	0.601096861601033	-0.747999168913736	0	0
0	0	0.0140771158963911	0.0362187754246635	0	0	0.640990887520972	0.647354086749368
0.601096861601033	-0.747999168913736	0	0	0.118374625666361	0.00687279040176145	0	0
0	0	0.771673570576376	0.407639411371619	0	0	0.0554128861716407	-0.0193400942792923
3.8	-0.0181675821308882	-0.0121340320318031	0	0	0.741468663344679	0.619504466715799	0	0
0	0	0.0153359493040163	0.050507700890922	0	0	0.871041374906613	0.184203293928278
0.741468663344679	0.619504466715799	0	0	-0.0252415488778958	0.0209428214590757	0	0
0	0	-0.0136931917622394	0.870860447776059	0	0	-0.058378339702704	-0.0249769227173039
3.9	0.0109278776290724	0.0169445835692956	0	0	0.624051234478083	-0.740348840295084	0	0
0	0	0.0111202680409471	0.0156768220150843	0	0	-0.82231375956354	0.329243364647019
0.624051234478083	-0.740348840295084	0	0	-0.0130569555309494	0.0832411053208477	0	0
0	0	0.781004527170388	-0.386953778763683	0	0	0.0247264986790684	-0.0058181690909216
4	-0.00217292454475654	-0.0184964045547839	0	0	0.722271448998218	0.632266474455472	0	0
0	0	-0.0168456495596498	-0.0121720936113517	0	0	-0.513505097252981	0.724655532017607
0.722271448998218	0.632266474455472	0	0	0.0505594880022366	-0.0742348706448716	0	0
0	0	0.684158598379759	0.513544603730815	0	0	-0.00473888280538461	0.00954184366199833
4.1	-0.00584316412595904	0.0165630128763087	0	0	0.637847241588423	-0.70894681448991	0	0
0	0	-0.0417620720951122	-0.0352469266590164	0	0	0.0530931620596907	-0.890139438029795
0.637847241588423	-0.70894681448991	0	0	0.0245617872396806	-0.111553567582085	0	0
0	0	0.181825024209565	-0.826954239155382	0	0	0.0264570145461284	0.0814925825663283
4.2	0.0122548988608439	-0.011844619957892	0	0	0.703600822434933	0.649312387274788	0	0
0	0	-0.0491595864527785	-0.0152641952742448	0	0	-0.433664425732519	-0.778203345266617
0.703600822434933	0.649312387274788	0	0	-0.0398996908094181	0.0164868769941279	0	0
0	0	0.829272213229991	-0.185580448976522	0	0	-0.0119274601160087	-0.0411493124411798
4.3	-0.0159861236386394	0.00485471031955873	0	0	0.658360077828527	-0.696602284980476	0	0
0	0	-0.00763454169114631	0.00682373920107996	0	0	0.776929853762618	0.421955678832505
0.658360077828527	-0.696602284980476	0	0	-0.0108426935939433	0.0670739136521298	0	0
0	0	-0.533994019662163	-0.671251559262217	0	0	-0.01439205129664	0.00241866185409187
4.4	0.0161469303347072	0.00333272283021873	0	0	0.679538527486567	0.668312115654385	0	0
0	0	0.0378911933161384	0.00432690118751029	0	0	0.886018171202371	-0.0542393981521521
0.679538527486567	0.668312115654385	0	0	0.00125446705722394	-0.0499934942811323	0	0
0	0	0.344513330117142	-0.770644056192084	0	0	-0.033453515291812	0.00334081620356618
4.5	-0.0126379713120271	-0.0106922914598672	0	0	0.675313478346121	-0.661327375192656	0	0
0	0	0.064605310889434	-0.00463137743064522	0	0	-0.720594845498151	0.522186165062887
0.675313478346121	-0.661327375192656	0	0	-0.0497111144663819	0.0264051736220267	0	0
0	0	-0.833395295513473	0.0114794853746027	0	0	-0.0856603200143104	0.0618049650536745
4.6	0.00612103315618223	0.0162516720672173	0	0	0.643464120412292	0.690450039188565	0	0
0	0	0.046720264937765	-0.0251037340862624	0	0	-0.312717105273021	0.842736546509457
0.643464120412292	0.690450039188565	0	0	-0.0039742966098196	0.0137928156808925	0	0
0	0	-0.370874880180331	-0.743445784800942	0	0	-0.0798519546072702	-0.0096635090947022
4.7	0.00203193555986498	-0.0188613381560035	0	0	0.708185036233404	-0.636773949995508	0	0
0	0	-0.0243658147227941	-0.00548362200513429	0	0	-0.190332637016643	-0.872891510923813
0.708185036233404	-0.636773949995508	0	0	0.0653706104496292	-0.0176157856424573	0	0
0	0	-0.524000806081946	0.654547986707853	0	0	-0.0730150112783569	0.0719452273533323
4.8	-0.0106526474918655	0.0180193231621873	0	0	0.63714496252678	0.72451632431565	0	0
0	0	-0.0584321899507885	0.0342554694688962	0	0	-0.606309951441467	-0.634713751858549
0.63714496252678	0.72451632431565	0	0	0.0528295796523604	-0.0183429140286459	0	0
0	0	-0.826941944474567	-0.197446125181318	0	0	-0.00916784348867266	0.0715885315241194
4.9	0.0181757149249704	-0.0128666514206195	0	0	0.730664632258499	-0.629424266527956	0	0
0	0	-0.0396502518461046	0.0586593950804662	0	0	0.854000824365431	0.207238898518803
0.730664632258499	-0.629424266527956	0	0	-0.0808548206735178	-0.0289474407790866	0	0
0	0	0.198736210920705	0.821065474263511	0	0	-0.0834987864718656	0.00360924126991733
5	-0.0228621317427411	0.00471669597497369	0	0	0.618665707703962	0.726194334543471	0	0
0	0	-0.000401736998240462	0.0204428233760988	0	0	0.831012346947463	-0.298193308213161
0.618665707703962	0.726194334543471	0	0	-0.0477250587458616	0.040778714741442	0	0
0	0	-0.645199477194368	0.533761172645995	0	0	0.0414073368182132	-0.00927844498457996
5.1	0.0244073877417491	0.00518526053461931	0	0	0.727492815941709	-0.606352396492338	0	0
0	0	0.0381953010660925	-0.0333938777361948	0	0	-0.53332837719095	0.695628575634068
0.727492815941709	-0.606352396492338	0	0	-0.0218376370708839	-0.0412910288056525	0	0
0	0	0.750030644447788	0.344861630445371	0	0	0.0724096858195512	-0.0198646592816149
5.2	-0.02203183835189	-0.016214713160903	0	0	0.584170951069738	0.745142023261121	0	0
0	0	0.0156825251734221	-0.0742871674907198	0	0	-0.0786153609613041	0.871942093215802
0.584170951069738	0.745142023261121	0	0	0.0381514188624783	0.0225362849939984	0	0
0	0	0.0153231411223982	0.832536169667149	0	0	0.0265535005163039	0.0663375905510929
5.3	0.0156991982043242	0.0257754068429469	0	0	0.763597538020105	-0.572272799342213	0	0
0	0	-0.0146155935873272	-0.0413958995568314	0	0	-0.412416064200886	-0.77103917410011
0.763597538020105	-0.572272799342213	0	0	-0.0321000711938864	0.0249077266836404	0	0
0	0	0.743038036399985	-0.374449922715687	0	0	-0.0436271699579429	0.0119189843923108
5.4	-0.00649436494233711	-0.0318371390274176	0	0	0.56411906243303	0.768657130767997	0	0
0	0	-0.0316648439565251	0.014456972495718	0	0	-0.767382698800454	-0.428154676570085
0.56411906243303	0.768657130767997	0	0	0.070521892726129	0.087664409620323	0	0
0	0	0.657524086381868	0.509790860557803	0	0	-0.0096222379192555	0.0218779109159252
5.5	-0.00437084913229026	0.0343539283328696	0	0	0.779437887668378	-0.561528730299145	0	0
0	0	0.0230385638811266	0.0598366939847951	0	0	0.8772532233745	-0.0445770177658035
0.779437887668378	-0.561528730299145	0	0	-0.00652114942300533	-0.0275672108785668	0	0
0	0	0.157569556649358	-0.816698048680315	0	0	0.0214802497121546	0.0385355003666638
5.6	0.0158732154774356	-0.031848511555904	0	0	0.547491537797025	0.785012237365559	0	0
0	0	0.0423595185015156	0.0564364680555115	0	0	0.698006609901933	-0.508318264025513
0.547491537797025	0.785012237365559	0	0	0.00190225914739029	-0.109344689144947	0	0
0	0	0.799637135334664	-0.202082220483087	0	0	0.010958568848694	0.117523129052006
5.7	-0.0265454801234694	0.0251957743499785	0	0	0.797989872208522	-0.539070066879166	0	0
0	0	0.020832478900856	-0.0071820607116349	0	0	-0.317899220943143	0.807175564643321
0.797989872208522	-0.539070066879166	0	0	-0.0118701012779613	0.0516033898308447	0	0
0	0	-0.535859967244658	-0.64878368186579	0	0	0.0585266640179777	0.0345763874874355
5.8	0.0334314548966029	-0.0145735712003176	0	0	0.521565562145803	0.797934320919413	0	0
0	0	-0.0217370385278263	-0.0315047411322812	0	0	0.155273192946046	0.853417955422004
0.521565562145803	0.797934320919413	0	0	0.0589947329050056	-0.0272052637412011	0	0
0	0	0.324085087385764	-0.770679797186004	0	0	0.0337996599886233	0.0555474109912584
5.9	-0.0366439373805573	0.00147307498222587	0	0	0.811692304361445	-0.498188475373658	0	0
0	0	-0.0558169971744832	-0.0268323666220581	0	0	-0.585041784108581	-0.63763138858091
0.811692304361445	-0.498188475373658	0	0	-0.0732214896042948	0.0435685310975698	0	0
0	0	-0.82677748541836	0.0595861456150327	0	0	0.0371177856244991	0.0724747967707497
6	0.0353849857685626	0.0113886518949356	0	0	0.482081576007922	0.825142178391713	0	0
0	0	-0.0337128275866172	0.00592101870334523	0	0	-0.847537713035954	-0.194950646390541
0.482081576007922	0.825142178391713	0	0	-0.00291761179958259	0.0239991312582494	0	0
