# GHZ S RI R 50
0.2	-0.00697841426883736	0.0124498959616161	0	0	0.957645457909923	0.0584054276745477	0	0
0	0	0.0183573498297034	0.00548548175640065	0	0	-0.370742403909834	0.910956284225874
0.957645457909923	0.0584054276745477	0	0	0.0213869337274301	0.0395328280763287	0	0
0	0	0.569872128171099	-0.75380910810332	0	0	0.00193444465962862	-0.0342146221899783
0.3	0.00675781086572396	-0.0108546527382679	0	0	0.0341186134474996	-0.965012199149077	0	0
0	0	-0.00621345196343843	0.00174268764375576	0	0	-0.133621293775886	-0.974225280054335
0.0341186134474996	-0.965012199149077	0	0	-0.0146181462587472	0.00256272379303837	0	0
0	0	-0.921854373640296	-0.20272640322514	0	0	-0.0330897308408746	-0.0193189879268097
0.4	-0.00892634373746323	0.00785294701622341	0	0	0.948486046156892	0.0629978673284553	0	0
0	0	-0.0393424119510506	0.000686249849728684	0	0	-0.666384840696611	-0.726484721300774
0.948486046156892	0.0629978673284553	0	0	-0.0350978726979275	-0.0152058969901751	0	0
0	0	-0.234250473634823	-0.896068104721119	0	0	0.0206391846557192	0.0186450766982285
0.5	0.0118471683258963	-0.00395126678375146	0	0	0.129097181324098	-0.948903233895327	0	0
0	0	-0.0321529722969701	0.00457990832903766	0	0	0.963952748379266	0.208595324356481
0.129097181324098	-0.948903233895327	0	0	0.035819666741531	0.0162038996881041	0	0
0	0	-0.679756628081144	0.63583944306979	0	0	0.00424648757820424	0.00710770666978486
0.6	-0.0132319006324834	0.00110056565752721	0	0	0.955426605044621	0.133102437674798	0	0
0	0	-0.00704296251333091	0.00607832395319083	0	0	0.913912547910556	-0.328026376497027
0.955426605044621	0.133102437674798	0	0	0.00453403856153202	-0.0198830485873544	0	0
0	0	-0.861884609351992	-0.346663077591597	0	0	-0.00579803704433388	-0.00740848456355666
0.7	0.0132141668515578	0.000989913588632322	0	0	0.111044474374489	-0.958630820670081	0	0
0	0	0.0240877674418708	-0.0105789856579328	0	0	-0.613550679343727	0.748011758118175
0.111044474374489	-0.958630820670081	0	0	0.00799600384286007	0.00971363811515691	0	0
0	0	0.0439693093874297	0.9216376650067	0	0	0.00231973293119669	-0.0131376638447419
0.8	-0.0117702800738328	-0.00364264624825069	0	0	0.956768074360895	0.115824704859008	0	0
0	0	0.0455489343439135	-0.0411303286328018	0	0	-0.122728901111347	0.962447693419363
0.956768074360895	0.115824704859008	0	0	-0.0225272193533683	0.0122007350691033	0	0
0	0	-0.81406489448999	0.447776541181083	0	0	0.0065378598241725	0.0832641957913877
0.9	0.00851365424643546	0.00633663688008898	0	0	0.147332804813594	-0.942316952047075	0	0
0	0	0.0142234969293307	-0.0269774158036375	0	0	-0.433945485329683	-0.869481065865396
0.147332804813594	-0.942316952047075	0	0	-0.00181010553357226	-0.0630990702109294	0	0
0	0	0.76521390533746	0.528231973504776	0	0	0.036576362056124	0.0131573931937893
1	-0.00474141454218202	-0.0082741167492563	0	0	0.945809893576172	0.183821995122463	0	0
0	0	-0.0139551520269558	0.0123721653908728	0	0	-0.840781899570998	-0.484563991847138
0.945809893576172	0.183821995122463	0	0	0.00209517505144577	0.0412580854252985	0	0
0	0	-0.128242147112752	0.905847997602209	0	0	0.00296523990184407	0.00102637327069248
1.1	0.00122223373694074	0.00872377309591165	0	0	0.203377833620641	-0.95354652718192	0	0
0	0	-0.0118070126884076	0.0351280493964667	0	0	0.960829211952611	-0.0504235668249438
0.203377833620641	-0.95354652718192	0	0	0.00235181266018091	0.000965711864384306	0	0
0	0	0.873221508145541	-0.260717651115729	0	0	0.00785395627823037	0.042526152675269
1.2	0.00119001460476625	-0.00751615161527555	0	0	0.963911129783008	0.203796895563161	0	0
0	0	0.00805821807492664	0.0640639798611873	0	0	0.775036678466041	-0.557606871549507
0.963911129783008	0.203796895563161	0	0	0.0525226683263482	-0.000872735987697482	0	0
0	0	0.617113261826937	0.67490526328915	0	0	0.0057322917549098	0.100339580910976
1.3	-0.00273446126671845	0.00435083495757929	0	0	0.205631162676752	-0.948154196198716	0	0
0	0	0.0154201601064549	0.0179441826929952	0	0	-0.356114361059996	0.888231479950521
0.205631162676752	-0.948154196198716	0	0	-0.0565266633480987	0.000727524556716801	0	0
0	0	0.323008628850766	-0.864110332816021	0	0	0.0391957926162905	0.0146639642134178
1.4	0.00332420975650689	-0.000572636788286026	0	0	0.930055425376195	0.233060842901178	0	0
0	0	-0.0136600141404635	-0.0451140900789056	0	0	0.182269903039206	0.941911551640967
0.930055425376195	0.233060842901178	0	0	0.0157508752095346	0.00845169777172808	0	0
0	0	0.903325071426735	-0.086141666725039	0	0	0.0434899157584344	-0.00639408058932131
1.5	-0.00232143232348701	-0.00245900750852105	0	0	0.269758211031728	-0.928099168927975	0	0
0	0	-0.0381594434399363	-0.0579075309458355	0	0	-0.67992121980455	-0.676690119454171
0.269758211031728	-0.928099168927975	0	0	0.0317048060105618	-0.0327629925987771	0	0
0	0	-0.465916935854384	-0.769808175869564	0	0	0.0324926399257569	0.0528829386183918
1.6	1.6746516917475E-05	0.00434238758599213	0	0	0.942915995201085	0.292758366256465	0	0
0	0	-0.0358120090555252	-0.0212511470082405	0	0	-0.941506596397828	-0.181010577755943
0.942915995201085	0.292758366256465	0	0	-0.0533280733952119	-0.0259372279572162	0	0
0	0	0.496714965632094	-0.758987036076249	0	0	0.000263425144417694	0.0535817317687706
1.7	0.00274733386582177	-0.00476558885834509	0	0	0.286700895487431	-0.947762096841535	0	0
0	0	0.016286942233662	0.00488717693912972	0	0	0.886344431848229	-0.34834005380311
0.286700895487431	-0.947762096841535	0	0	-0.0017706635067193	0.00622906538652914	0	0
0	0	-0.903854468528761	-0.107863722120526	0	0	0.0392443051311406	-0.0302706214736688
1.8	-0.00512907514350112	0.00328717136332094	0	0	0.921009048892829	0.287334264320321	0	0
0	0	0.0463094360758343	0.037053327209525	0	0	0.57149025831165	-0.750032515234422
0.921009048892829	0.287334264320321	0	0	0.00673226656916554	0.0662900096756079	0	0
0	0	-0.314519180031511	-0.849883224259795	0	0	0.0269788047995754	-0.0336804132383742
1.9	0.00678215805558949	-0.000116634857600342	0	0	0.316495152197901	-0.896771195760455	0	0
0	0	0.0536161142524455	-0.00416738097545529	0	0	-0.0794917164433875	0.942990570661601
0.316495152197901	-0.896771195760455	0	0	0.00964737781070928	0.00951033121556641	0	0
0	0	-0.613079225824623	0.649008932976882	0	0	0.0410378197474668	0.0238382028810651
2	-0.00708566274734841	-0.00409360364011892	0	0	0.892900527062008	0.346941593408588	0	0
0	0	0.0157857151218398	-0.00480928441225834	0	0	0.460631452668074	0.831620578598418
0.892900527062008	0.346941593408588	0	0	-0.0502226487567055	-0.0325155396864563	0	0
0	0	-0.845644624196705	-0.260843947770258	0	0	-0.0532863385619509	-0.0204835735654239
2.1	0.00580057707270778	0.00842206179736776	0	0	0.362024435217836	-0.898869095304928	0	0
0	0	-0.0287598159283172	0.00851614755350756	0	0	-0.831146156180262	-0.449479307919803
0.362024435217836	-0.898869095304928	0	0	0.0705292854682416	0.016301871775625	0	0
0	0	0.137876735352055	0.878552791096903	0	0	-0.00509402775576899	0.00996256134352668
2.2	-0.00246095097912268	-0.012036557277471	0	0	0.898754968234072	0.37447288237648	0	0
0	0	-0.0480735977147013	0.0181138348466495	0	0	-0.931284803879755	0.0704264020793942
0.898754968234072	0.37447288237648	0	0	0.0144364694951226	-0.0105718021140281	0	0
0	0	-0.735502552908083	0.507143261195105	0	0	0.0422867107457358	-0.011161347159918
2.3	-0.00270556380474329	0.0138410969235097	0	0	0.384952411736366	-0.88928024345815	0	0
0	0	-0.0306461562700229	0.0201797695610539	0	0	0.735432054663956	-0.555736332174614
0.384952411736366	-0.88928024345815	0	0	0.0577604296615482	-0.0284507141191617	0	0
0	0	0.77583098965108	0.431055308159784	0	0	0.0665190704534334	0.0466685929812846
2.4	0.00903148747544014	-0.0134309266194946	0	0	0.877686140102181	0.397472030936716	0	0
0	0	-0.000846280447741301	0.00164379474325013	0	0	0.323845839845615	-0.867467537485638
0.877686140102181	0.397472030936716	0	0	-0.0967188634197047	0.0145497270592443	0	0
0	0	-0.0389338930272254	0.882016840718863	0	0	0.0469147788125104	-0.048705528582694
2.5	-0.0157507311990666	0.0106201949896014	0	0	0.415144573599776	-0.866297436675707	0	0
0	0	0.019025438580832	-0.0358291652847452	0	0	0.189210324336291	0.917420464739115
0.415144573599776	-0.866297436675707	0	0	-0.00988666184652626	-0.0264690411043343	0	0
0	0	0.804877576407029	-0.331931387235521	0	0	0.0125919458848993	-0.000245319308321025
2.6	0.021438974678338	-0.00579947333838503	0	0	0.859703296140944	0.429839190046933	0	0
0	0	0.018016485505147	-0.0389619633757568	0	0	0.667084497701881	0.654083791833293
0.859703296140944	0.429839190046933	0	0	0.00602685868801747	-0.0330304863295791	0	0
0	0	0.630501745855071	0.597720767676823	0	0	0.0627421707688912	0.0106738160747191
2.7	-0.0251008591355163	-0.000796579771803156	0	0	0.444889448847724	-0.854414346377134	0	0
0	0	0.0214761380025795	-0.00996993108895883	0	0	-0.898368080340952	-0.174855754918189
0.444889448847724	-0.854414346377134	0	0	0.00382286861357491	-0.0126644478061842	0	0
0	0	0.276604397362451	-0.836220701667346	0	0	-0.0271848894616654	-0.00051662965016119
2.8	0.0256966524124831	0.00841191802690282	0	0	0.844791224133249	0.458644884298623	0	0
0	0	0.0100342000564606	0.0121568500723126	0	0	-0.843952298853243	0.312710730811149
0.844791224133249	0.458644884298623	0	0	0.00467366951148765	0.0642762696842269	0	0
0	0	0.873249163367793	-0.149996322615683	0	0	0.0265877394768126	-0.0636374901769221
2.9	-0.0227076453773374	-0.0160885818695508	0	0	0.474889490145268	-0.82657085689417	0	0
0	0	0.000244540428188285	0.0362931870325592	0	0	0.568907943808888	-0.702505778040799
0.474889490145268	-0.82657085689417	0	0	-0.0532690711119458	0.0343624333090342	0	0
0	0	-0.516465854042215	-0.704579432399986	0	0	-0.0400637041034769	-0.0460745642001132
3	0.0169372468701565	0.0228690037486878	0	0	0.818577972797838	0.499062866603497	0	0
0	0	-0.010528651387745	0.0294917170814354	0	0	0.0913357110761053	-0.923197802497217
0.818577972797838	0.499062866603497	0	0	-0.00645326235131833	-0.0178262062467544	0	0
0	0	0.407363158123111	-0.76335589833795	0	0	0.0141266991021566	0.0866226590096368
3.1	-0.00848392369287213	-0.0269656899849427	0	0	0.519559137523916	-0.809244779248932	0	0
0	0	-0.0197362346552666	0.0128319771991202	0	0	0.451032533035114	0.808909685959876
0.519559137523916	-0.809244779248932	0	0	0.0391071170798226	-0.0651562129807035	0	0
0	0	-0.872541600581361	-0.0490245638451767	0	0	-0.0756559645077302	0.00670339855778981
3.2	-0.00114566434244164	0.0285636269464576	0	0	0.808539669312112	0.542821642270706	0	0
0	0	-0.0174833092572716	-0.00506508673812495	0	0	0.802120995295677	0.436924198235273
0.808539669312112	0.542821642270706	0	0	0.000978438584567197	0.025356476424814	0	0
0	0	-0.340642652653544	-0.816278245871977	0	0	-0.0594332999581563	0.00730950473806843
3.3	0.0104953218620024	-0.026384408114839	0	0	0.553356212283217	-0.80489218765723	0	0
0	0	-0.00124198162343169	-0.022756881869276	0	0	-0.908030576436598	0.0534017783859381
0.553356212283217	-0.80489218765723	0	0	0.0627001152893064	0.024020358547102	0	0
0	0	-0.574630239051656	0.679823489851253	0	0	-0.0281727684497336	-0.107448916998245
3.4	-0.0181698581539177	0.0205963223414698	0	0	0.788543731263287	0.557291134198763	0	0
0	0	-0.00474458490919435	-0.039526323409803	0	0	-0.732693752587024	0.547876937111027
0.788543731263287	0.557291134198763	0	0	-0.115726883725678	0.00984562021969699	0	0
0	0	-0.860312949206879	-0.219238523435126	0	0	-0.0200043157227435	-0.0398246098856659
3.5	0.0234072809604763	-0.012859102362539	0	0	0.570840835415775	-0.779219719235827	0	0
0	0	0.00722564650493219	-0.0296901872847929	0	0	0.293248571456827	-0.872416395875096
0.570840835415775	-0.779219719235827	0	0	-0.0128013103406313	-0.0537114066142539	0	0
0	0	0.172483588228556	0.844107616039415	0	0	0.0845254051132723	-0.0737490917646759
3.6	-0.0253096898765102	0.00405979975356834	0	0	0.771853061719708	0.579560056190864	0	0
0	0	0.0186044120983135	0.00258801658614154	0	0	-0.215530477684562	-0.893912537802349
0.771853061719708	0.579560056190864	0	0	-0.0336204709814495	0.0611450949590984	0	0
0	0	-0.690182022980051	0.525288122729387	0	0	0.044408795187918	-0.032175220630382
3.7	0.023358008260459	0.00535174808517792	0	0	0.597616988373319	-0.750927407317134	0	0
0	0	0.0129181107282964	0.0359315135280256	0	0	0.643518586536553	0.644228460457232
0.597616988373319	-0.750927407317134	0	0	0.118547764125126	0.00583099797201686	0	0
0	0	0.773086482962749	0.404057101366107	0	0	0.0551571624308157	-0.0197681008683908
3.8	-0.018429852281197	-0.0130418506034122	0	0	0.743890028139367	0.615528923877934	0	0
0	0	0.0143926276676608	0.0499305523694063	0	0	0.870753339346135	0.180075686520981
0.743890028139367	0.615528923877934	0	0	-0.0249248720224735	0.0211706479993141	0	0
0	0	-0.00978391993493277	0.869810647581473	0	0	-0.0584289900674569	-0.0243455618426583
3.9	0.0112552530286002	0.0176444522615784	0	0	0.619634643007032	-0.741898422826155	0	0
0	0	0.0105614268779484	0.0149831101084482	0	0	-0.81921361275071	0.331925648227904
0.619634643007032	-0.741898422826155	0	0	-0.0122084507505335	0.083023375728237	0	0
0	0	0.777754791434766	-0.389343640298616	0	0	0.0246316073996675	-0.00596373473810798
4	-0.00236636989849743	-0.0190032292626549	0	0	0.722836126521024	0.627895477584857	0	0
0	0	-0.016902991353253	-0.0128223376531864	0	0	-0.509344671277486	0.724504211519606
0.722836126521024	0.627895477584857	0	0	0.0497518593488523	-0.0743521428864469	0	0
0	0	0.684122735373321	0.509534856941567	0	0	-0.00455422262789205	0.0095260316911184
4.1	-0.00582725734645532	0.0170270472957714	0	0	0.633697796258827	-0.708660063278968	0	0
0	0	-0.0413461806223294	-0.0356947540132889	0	0	0.0501260329773789	-0.887170036354936
0.633697796258827	-0.708660063278968	0	0	0.0236978980446134	-0.11114461544805	0	0
0	0	0.178601822302669	-0.824609448128551	0	0	0.0268752753973562	0.0807233881268902
4.2	0.0123190862866399	-0.0123688046198559	0	0	0.702664710381762	0.645505014991552	0	0
0	0	-0.0484847798509	-0.0154042424353086	0	0	-0.433798386443281	-0.774207095296275
0.702664710381762	0.645505014991552	0	0	-0.0396204527146275	0.0164461429408894	0	0
0	0	0.825653890503046	-0.186786562885831	0	0	-0.0119524212039807	-0.0408434210119713
4.3	-0.0160285692394557	0.00537748558301451	0	0	0.655012595468084	-0.695087939382351	0	0
0	0	-0.00699087093001506	0.00699878698138118	0	0	0.77441544554276	0.419141659462472
0.655012595468084	-0.695087939382351	0	0	-0.0106302829708428	0.0665860717429675	0	0
0	0	-0.532814680649765	-0.667785556320386	0	0	-0.0142449456123977	0.00237632053257466
4.4	0.0162041410639967	0.00293315947052094	0	0	0.677553715840066	0.665599038229843	0	0
0	0	0.038244500071967	0.00471709816438183	0	0	0.882576302703533	-0.0545504051113989
0.677553715840066	0.665599038229843	0	0	0.00120887184495569	-0.0495757218195271	0	0
0	0	0.34273531034416	-0.767880150424044	0	0	-0.0332317201073502	0.00335542250541808
4.5	-0.0128335391437245	-0.0104312842834216	0	0	0.67331037230682	-0.659110106840696	0	0
0	0	0.0645002426403739	-0.0041689817435146	0	0	-0.718168188028323	0.520338769125039
0.67331037230682	-0.659110106840696	0	0	-0.0492377442974253	0.0263637590314156	0	0
0	0	-0.830540852813002	0.0113727438745199	0	0	-0.0851614940518807	0.0614818900804105
4.6	0.00654123976486679	0.0160150502032216	0	0	0.64119326301658	0.689176061791457	0	0
0	0	0.0461648509625583	-0.0247340394942828	0	0	-0.312369873771597	0.840172748442938
0.64119326301658	0.689176061791457	0	0	-0.00365463187382873	0.0138447263005405	0	0
0	0	-0.369364863946269	-0.741591567840719	0	0	-0.0794486659784999	-0.00946435141146314
4.7	0.00145100951474357	-0.0185047802218082	0	0	0.707568051769998	-0.634659647104877	0	0
0	0	-0.0252396143312536	-0.0053935786737819	0	0	-0.189175408531739	-0.871153725640793
0.707568051769998	-0.634659647104877	0	0	0.0656177561039777	-0.0173638624733307	0	0
0	0	-0.523417486331593	0.652677390297045	0	0	-0.0728155361387579	0.0718358981266454
4.8	-0.0100601685809129	0.0175403365896655	0	0	0.635403388548074	0.72449937620098	0	0
0	0	-0.0593295752225617	0.0339620731919826	0	0	-0.604763208831829	-0.634351123807376
0.635403388548074	0.72449937620098	0	0	0.0532596990501737	-0.0182399179188922	0	0
0	0	-0.82549313012294	-0.197964526232871	0	0	-0.00920227368860669	0.0717512911236724
4.9	0.0176087191288332	-0.0123837564747449	0	0	0.731166714403396	-0.628213620813709	0	0
0	0	-0.0402969107257394	0.0580078127909964	0	0	0.853286214622958	0.207788094624183
0.731166714403396	-0.628213620813709	0	0	-0.0801973041755826	-0.0293244507102234	0	0
0	0	0.197952345836249	0.820696447811494	0	0	-0.0832170930560221	0.00385996047558271
5	-0.0222312370164534	0.0042686259792982	0	0	0.618137363717377	0.726907348499587	0	0
0	0	-0.000594505323989335	0.0195075788702589	0	0	0.831040696113192	-0.297801555343918
0.618137363717377	0.726907348499587	0	0	-0.047339900433471	0.0404126458761414	0	0
0	0	-0.645350994521092	0.533420854581706	0	0	0.0416617846000344	-0.00886559688851581
5.1	0.0236658882489549	0.00571841860065179	0	0	0.728214387092358	-0.606437577200519	0	0
0	0	0.038512578342626	-0.034420937545278	0	0	-0.533293258493907	0.695895927934773
0.728214387092358	-0.606437577200519	0	0	-0.0214529311017878	-0.0417514084582199	0	0
0	0	0.750268871108913	0.344773661682463	0	0	0.0727665221422946	-0.0195874900751306
5.2	-0.0212889521616299	-0.016896039510002	0	0	0.585012827117373	0.745593313813409	0	0
0	0	0.0164094915111951	-0.0751885248909574	0	0	-0.0776811200297141	0.872232969482216
0.585012827117373	0.745593313813409	0	0	0.0384465061006657	0.0220881040246881	0	0
0	0	0.0162364086531501	0.832715141017448	0	0	0.0270925419057455	0.066532102408543
5.3	0.0151175572605348	0.0265197721592541	0	0	0.763616431330461	-0.573743139357773	0	0
0	0	-0.0137084487028835	-0.0419429169988642	0	0	-0.413930071116629	-0.77042767361214
0.763616431330461	-0.573743139357773	0	0	-0.0320934194267001	0.0245769168218532	0	0
0	0	0.742491424726206	-0.375904349279411	0	0	-0.043235728671538	0.0121405733665524
5.4	-0.00607457149660251	-0.0324379309043893	0	0	0.565968920133304	0.767831770627839	0	0
0	0	-0.0308035462221126	0.014429509519806	0	0	-0.768309610349597	-0.426160383737915
0.565968920133304	0.767831770627839	0	0	0.0708189078481317	0.0871026403677895	0	0
0	0	0.658675029671858	0.508055681638124	0	0	-0.00923038283206083	0.021849882831108
5.5	-0.00483770197270352	0.0347518536886797	0	0	0.777844049444419	-0.56338387119311	0	0
0	0	0.0236383642328186	0.0603410045923605	0	0	0.876415051972863	-0.0472545153759755
0.777844049444419	-0.56338387119311	0	0	-0.00678155160218433	-0.0277580126819676	0	0
0	0	0.154917965323977	-0.816533397486415	0	0	0.0218644324835581	0.038244398685064
5.6	0.0165319303321632	-0.0321788332120599	0	0	0.549067835213959	0.78261548639503	0	0
0	0	0.0425532030030771	0.0573285393508448	0	0	0.694974200164919	-0.509968540597565
0.549067835213959	0.78261548639503	0	0	0.00125843426097175	-0.109316326098202	0	0
0	0	0.797536772266761	-0.204624430311442	0	0	0.0119029952437996	0.117019427458105
5.7	-0.027347264535957	0.0256560222413288	0	0	0.794893122760205	-0.540377886034282	0	0
0	0	0.0206051829088612	-0.00612607292583676	0	0	-0.314124174540541	0.806160608192666
0.794893122760205	-0.540377886034282	0	0	-0.0114332369923621	0.0511571125023835	0	0
0	0	-0.536770836507675	-0.64510301042798	0	0	0.0587113073550763	0.0339907533786919
5.8	0.0341388373494642	-0.0152050669045506	0	0	0.522185096120123	0.794195303579155	0	0
0	0	-0.0222774571178533	-0.0305726905138655	0	0	0.157622490506792	0.849703157023596
0.522185096120123	0.794195303579155	0	0	0.058549560485997	-0.0278524042831979	0	0
0	0	0.320232361343922	-0.768918265611431	0	0	0.034329546145655	0.0549461471853821
5.9	-0.03713280650352	0.00210412143244601	0	0	0.807585999854779	-0.498180352391967	0	0
0	0	-0.056488523554499	-0.0262596273670808	0	0	-0.584158233235123	-0.632978048779928
0.807585999854779	-0.498180352391967	0	0	-0.0726549150053871	0.0429400189432914	0	0
0	0	-0.822759091586261	0.0616926193597222	0	0	0.0377516792352339	0.0715258821558066
6	0.0356931713899585	0.0109610443389722	0	0	0.48112704630931	0.8206997148357	0	0
0	0	-0.0343052872546488	0.00602777099407554	0	0	-0.843451309962508	-0.192023701823036
0.48112704630931	0.8206997148357	0	0	-0.0032978392316128	0.0231426395033273	0	0
