# GHZ S RI R 50
0.2	-0.0064251507819296	0.0118346633771836	0	0	0.957729063705041	0.0584338119497421	0	0
0	0	0.0192075414111132	0.00548021715569142	0	0	-0.370676582812018	0.910942778204395
0.957729063705041	0.0584338119497421	0	0	0.0208005698791415	0.0405620328875484	0	0
0	0	0.56980767834801	-0.753812878168714	0	0	0.00127555688877326	-0.0332575296835468
0.3	0.00659721564498152	-0.0104710429235233	0	0	0.0341141884891651	-0.96507669753917	0	0
0	0	-0.00580645757258712	0.00185976597600175	0	0	-0.133648959587532	-0.974193831694311
0.0341141884891651	-0.96507669753917	0	0	-0.0147594145379533	0.00352329251332208	0	0
0	0	-0.921835221228139	-0.202691053667639	0	0	-0.033343186090387	-0.018402661782636
0.4	-0.00887935181990031	0.00787834392353708	0	0	0.948542132952956	0.0629439500490727	0	0
0	0	-0.039381734919522	0.000726665684716087	0	0	-0.666420257724313	-0.726448165666434
0.948542132952956	0.0629439500490727	0	0	-0.0349280421652409	-0.014477629281914	0	0
0	0	-0.234295945433412	-0.896053305956489	0	0	0.0206866103577524	0.0193674255971361
0.5	0.0117026852810624	-0.00435362465102445	0	0	0.129028939975926	-0.94892969245047	0	0
0	0	-0.0325885785846388	0.00449459934934345	0	0	0.963984684171375	0.2085235448076
0.129028939975926	-0.94892969245047	0	0	0.0361113400897626	0.0166152829347918	0	0
0	0	-0.679718094066326	0.635902787093823	0	0	0.00443048486264543	0.0075628865109434
0.6	-0.0127777839205261	0.00169211249125861	0	0	0.95541268193212	0.13299757374937	0	0
0	0	-0.00773388646660746	0.00578137013388525	0	0	0.913883345407964	-0.32816706167679
0.95541268193212	0.13299757374937	0	0	0.00473011557438334	-0.0197186144917597	0	0
0	0	-0.861953194659586	-0.346543941429743	0	0	-0.00565622751430468	-0.007202330940263
0.7	0.0124157296804205	0.000534616171013317	0	0	0.1109801006427	-0.958561230881444	0	0
0	0	0.0233332436141343	-0.0111041766681618	0	0	-0.613378515385664	0.74814047064406
0.1109801006427	-0.958561230881444	0	0	0.00799228014250832	0.00978509937231687	0	0
0	0	0.0441734419373075	0.921618695674972	0	0	0.00228870379874433	-0.0130711320259149
0.8	-0.0108660389447762	-0.00348805092471782	0	0	0.956657411509535	0.115785850684082	0	0
0	0	0.0448720393442141	-0.0417704265286825	0	0	-0.122549297442136	0.962418306211159
0.956657411509535	0.115785850684082	0	0	-0.0227097341336957	0.0123828655978421	0	0
0	0	-0.813940866368869	0.447898966851569	0	0	0.00634173162050603	0.0833487235316498
0.9	0.00779442874710806	0.00641656787209449	0	0	0.147239162419926	-0.942220458385894	0	0
0	0	0.0137434804384653	-0.0275584724143598	0	0	-0.434090794606399	-0.869213787096939
0.147239162419926	-0.942220458385894	0	0	-0.00203499704559088	-0.0626532608355492	0	0
0	0	0.765212238510672	0.527940878975926	0	0	0.0362107747128979	0.0134290372164647
1	-0.00435289731155337	-0.00839575862733377	0	0	0.94573012664089	0.183752733993083	0	0
0	0	-0.0141417266872265	0.0120085756571716	0	0	-0.840605557673522	-0.484288044769269
0.94573012664089	0.183752733993083	0	0	0.00207810618797388	0.0419312620062853	0	0
0	0	-0.128062767393723	0.905596717375309	0	0	0.00265301123008114	0.00159825186116841
1.1	0.001155580733912	0.00861903903838163	0	0	0.203240037783039	-0.953403361519915	0	0
0	0	-0.0116843130639646	0.0350963558191127	0	0	0.960515473564189	-0.0504221810246473
0.203240037783039	-0.953403361519915	0	0	0.00270541776346309	0.00173480914204635	0	0
0	0	0.872933013014939	-0.260646399852476	0	0	0.00778348328620669	0.0433027948983007
1.2	0.00119364310062082	-0.00701427180400515	0	0	0.96366436190909	0.203667469238144	0	0
0	0	0.00839557048828345	0.0644088110935529	0	0	0.774878721595132	-0.557321735523918
0.96366436190909	0.203667469238144	0	0	0.0532303094512332	-0.000256755459219753	0	0
0	0	0.616824355219122	0.674786893394217	0	0	0.00598209040716159	0.101154602992314
1.3	-0.00290280013598072	0.00362295635532442	0	0	0.205489598159961	-0.947785202494337	0	0
0	0	0.0157853562072839	0.018594449566438	0	0	-0.356222342644195	0.887995354741216
0.205489598159961	-0.947785202494337	0	0	-0.0555433095432597	0.00110227644480257	0	0
0	0	0.323118061164639	-0.863885226182849	0	0	0.0397101329872818	0.0154621998346356
1.4	0.00356893761346959	0.000207882021607596	0	0	0.929658445922556	0.233044647280931	0	0
0	0	-0.0135340255337976	-0.0442993719455082	0	0	0.182021797242965	0.941846037539649
0.929658445922556	0.233044647280931	0	0	0.0167125111654086	0.00863675820488235	0	0
0	0	0.903240880415112	-0.0859140251897761	0	0	0.0441154394235212	-0.00567363386310492
1.5	-0.00262544671254082	-0.0033377153601743	0	0	0.269810240684036	-0.927700971338541	0	0
0	0	-0.0383560594384887	-0.0570141938218547	0	0	-0.679657749315532	-0.676906191907479
0.269810240684036	-0.927700971338541	0	0	0.0326567431987955	-0.0327143601059632	0	0
0	0	-0.465628214512376	-0.769945287277529	0	0	0.0331576940764708	0.0534947905226073
1.6	0.000538501072361844	0.00526575946561134	0	0	0.942420349429576	0.292868315538803	0	0
0	0	-0.0362836597529177	-0.0203584578349692	0	0	-0.941486575251564	-0.181360727874716
0.942420349429576	0.292868315538803	0	0	-0.0524039219017003	-0.02617722346873	0	0
0	0	0.497014230324814	-0.758843701421712	0	0	0.000986804026639587	0.0539776219278034
1.7	0.00200400542109626	-0.00548053140068478	0	0	0.287029617580513	-0.947328950701845	0	0
0	0	0.0156491320937658	0.00562228604147111	0	0	0.88652971878954	-0.348187667047436
0.287029617580513	-0.947328950701845	0	0	-0.00114871919479776	0.00579248266216167	0	0
0	0	-0.903941495414692	-0.1080758700593	0	0	0.039983353675459	-0.0301265544806569
1.8	-0.00443487462942695	0.00371296269097449	0	0	0.920688136888894	0.287809460060308	0	0
0	0	0.0456377640073912	0.0374869076640772	0	0	0.571736437875186	-0.750020180492887
0.920688136888894	0.287809460060308	0	0	0.00700595967259614	0.0657904552882832	0	0
0	0	-0.314382447168513	-0.850076664666085	0	0	0.0275686024984672	-0.0337453808090216
1.9	0.00629897474986415	-0.000413734268309871	0	0	0.316947658229462	-0.896582246179956	0	0
0	0	0.0530497767192853	-0.00409193221743093	0	0	-0.0797421402452572	0.943200611892552
0.316947658229462	-0.896582246179956	0	0	0.00976908952546419	0.00912011350625944	0	0
0	0	-0.613387483868595	0.649016666835615	0	0	0.0414193723970999	0.0237194527599028
2	-0.00680419715888587	-0.00374985582499157	0	0	0.892792229474729	0.347347941218053	0	0
0	0	0.0154201758609537	-0.00506965066536731	0	0	0.460536874028908	0.831978590669916
0.892792229474729	0.347347941218053	0	0	-0.0501525068684916	-0.0328306525415588	0	0
0	0	-0.845812144133102	-0.261145203135178	0	0	-0.0530767623260862	-0.0206459578293081
2.1	0.00558648119616921	0.00792517053442373	0	0	0.36245663527435	-0.898866646952307	0	0
0	0	-0.02887041574174	0.00799423704556869	0	0	-0.83140485220866	-0.449855654221853
0.36245663527435	-0.898866646952307	0	0	0.0706101978764967	0.0161773248149176	0	0
0	0	0.137742685172713	0.878961167287697	0	0	-0.00491690075010008	0.00992142669937146
2.2	-0.00214988754635648	-0.0114356941981819	0	0	0.89879458754961	0.374841916658634	0	0
0	0	-0.0479388811187247	0.0174780908725149	0	0	-0.931805095095818	0.0703910956079047
0.89879458754961	0.374841916658634	0	0	0.0145776875111565	-0.0107802118546414	0	0
0	0	-0.735949452800285	0.507364912650577	0	0	0.0425730586887601	-0.0111742992513164
2.3	-0.00315386899341733	0.0133235116727016	0	0	0.385293020907034	-0.889410577911328	0	0
0	0	-0.0303609550385552	0.0195983290561881	0	0	0.735869734114498	-0.556132278525529
0.385293020907034	-0.889410577911328	0	0	0.0579267486125224	-0.0287646561407638	0	0
0	0	0.776350129354718	0.431286439500861	0	0	0.0669360860184268	0.0466579848078687
2.4	0.0094815948197214	-0.0131407307938637	0	0	0.877789336530666	0.397764181113065	0	0
0	0	-0.000527967301359976	0.00124021054714584	0	0	0.323848169814228	-0.86799904659693
0.877789336530666	0.397764181113065	0	0	-0.0967628091431313	0.0140553974624226	0	0
0	0	-0.0387798699365409	0.882499659405787	0	0	0.0473396145708309	-0.0489783245535877
2.5	-0.0160015148530123	0.0105146723565865	0	0	0.415335095192022	-0.866510617633826	0	0
0	0	0.0192601786663982	-0.0359618411018129	0	0	0.189541546542246	0.917845863778267
0.415335095192022	-0.866510617633826	0	0	-0.0100609172813448	-0.0270022165359932	0	0
0	0	0.805208548128262	-0.332307630588078	0	0	0.0129743558625337	-0.000623796775101777
2.6	0.0214224094854446	-0.0056996868224088	0	0	0.859932618326268	0.429914183694395	0	0
0	0	0.0180732030574583	-0.0388451007417748	0	0	0.667616465895059	0.654190083421604
0.859932618326268	0.429914183694395	0	0	0.0056848009572894	-0.0335260483457238	0	0
0	0	0.63099803623336	0.597811265926143	0	0	0.0630938542162589	0.0101500509450257
2.7	-0.0249195111422047	-0.00102117797626306	0	0	0.4448584291863	-0.854602022380714	0	0
0	0	0.021330186374968	-0.00971852525072205	0	0	-0.898811849427161	-0.174587886136907
0.4448584291863	-0.854602022380714	0	0	0.00337901272011674	-0.0130609057699769	0	0
0	0	0.276402876903887	-0.836677024168803	0	0	-0.0270185956503145	-0.00103812351955053
2.8	0.0254564575702243	0.00872883952918849	0	0	0.844891275264675	0.458529577096018	0	0
0	0	0.00971023377019247	0.0123697489044701	0	0	-0.84411278816257	0.313209346608772
0.844891275264675	0.458529577096018	0	0	0.00421169410249071	0.0639826365399342	0	0
0	0	0.873494637722682	-0.150449815270606	0	0	0.0266613395957058	-0.0642460183898323
2.9	-0.0223840110381622	-0.0164382916918435	0	0	0.474673096885353	-0.826627846463062	0	0
0	0	-0.000213336969561184	0.0362849539838154	0	0	0.568726137363374	-0.702916549955316
0.474673096885353	-0.826627846463062	0	0	-0.0537404024236211	0.0341807485869358	0	0
0	0	-0.516894480342602	-0.704510643952946	0	0	-0.0400828469621416	-0.0465760199474367
3	0.0164647798560259	0.0233171716208824	0	0	0.818579145908598	0.498793613108319	0	0
0	0	-0.0110527291605657	0.0291673745755607	0	0	0.091093234509687	-0.923402452764161
0.818579145908598	0.498793613108319	0	0	-0.00691691505094773	-0.0178955660782639	0	0
0	0	0.407226972548145	-0.763618635534882	0	0	0.0141369822382261	0.0862002741248327
3.1	-0.00792859034360737	-0.0276112393814521	0	0	0.519277892054854	-0.809164142456371	0	0
0	0	-0.0202338013285366	0.0121968315711049	0	0	0.451265895089433	0.80886985878601
0.519277892054854	-0.809164142456371	0	0	0.0387062718140296	-0.0650919717929155	0	0
0	0	-0.872627711593138	-0.048818444738633	0	0	-0.0757977352961886	0.00641704706003301
3.2	-0.00164321962646545	0.0294295278542998	0	0	0.808242712743962	0.542509149972721	0	0
0	0	-0.0177963639776177	-0.00592481391186453	0	0	0.802271172690198	0.436844196722824
0.808242712743962	0.542509149972721	0	0	0.000779064402423044	0.0254356399999824	0	0
0	0	-0.34080454781083	-0.816308912942841	0	0	-0.0595899616697605	0.00715730375106376
3.3	0.0108170973035974	-0.0273254887679095	0	0	0.553184311461584	-0.80450926676192	0	0
0	0	-0.00128006249412606	-0.0236653185207253	0	0	-0.908073060520398	0.0535818030122652
0.553184311461584	-0.80450926676192	0	0	0.0625821867825145	0.0240876282745937	0	0
0	0	-0.574531256581427	0.679975043241134	0	0	-0.0283060053507081	-0.107507481243662
3.4	-0.0183814335910422	0.021443999616116	0	0	0.788076863249612	0.55705647496842	0	0
0	0	-0.00445136778028967	-0.0402985515138096	0	0	-0.73276890211198	0.547975686576872
0.788076863249612	0.55705647496842	0	0	-0.115592429157375	0.00982300764449556	0	0
0	0	-0.860433319767555	-0.21923506835042	0	0	-0.0200207046038297	-0.0398092708651666
3.5	0.0236535444819963	-0.0136401298670186	0	0	0.570765224554901	-0.778823872350192	0	0
0	0	0.00781396303947261	-0.0301746669871923	0	0	0.293300707087329	-0.872636441922912
0.570765224554901	-0.778823872350192	0	0	-0.0127372559387045	-0.0537314946925292	0	0
0	0	0.172544766463089	0.844310265435206	0	0	0.084633034935416	-0.073748887649422
3.6	-0.0256152437604105	0.0048867836805652	0	0	0.771352828929258	0.57959329468542	0	0
0	0	0.0194199204084115	0.00247265948878177	0	0	-0.215521123995238	-0.894266391643314
0.771352828929258	0.57959329468542	0	0	-0.0336373983694852	0.0609940534072844	0	0
0	0	-0.690491149881653	0.525414301967329	0	0	0.0445339158492745	-0.0321908156963274
3.7	0.0236286222900992	0.00443547280961832	0	0	0.597899116034063	-0.750555493364514	0	0
0	0	0.0137707062756842	0.0361937916428169	0	0	0.643788577509752	0.644618722337923
0.597899116034063	-0.750555493364514	0	0	0.118461465567727	0.00587071465262763	0	0
0	0	0.773445275802937	0.404336274958726	0	0	0.055275745833551	-0.0198120856767786
3.8	-0.0185376594016758	-0.0121145566932281	0	0	0.743548720044306	0.615841760737005	0	0
0	0	0.0150840616104021	0.0503994027711031	0	0	0.87118782870639	0.180315570084298
0.743548720044306	0.615841760737005	0	0	-0.0249994665687431	0.0211329942518575	0	0
0	0	-0.00993285640640967	0.870272771916103	0	0	-0.0584798534306819	-0.0244431542257179
3.9	0.011219867260398	0.0168905934031834	0	0	0.620101453971112	-0.741734209222594	0	0
0	0	0.0109654426780647	0.0155239217803406	0	0	-0.819752227676891	0.33207437437961
0.620101453971112	-0.741734209222594	0	0	-0.0123388625771161	0.0830877447138867	0	0
0	0	0.77827155711341	-0.389531443562586	0	0	0.0246166463180855	-0.00601836415106158
4	-0.00239246401335706	-0.0184791393090085	0	0	0.723007391082351	0.628319912291356	0	0
0	0	-0.0168754138103356	-0.0123332873109982	0	0	-0.509780237087419	0.724961929915746
0.723007391082351	0.628319912291356	0	0	0.0497996984404789	-0.0742976992638242	0	0
0	0	0.684551938403641	0.509966312921744	0	0	-0.00465466228833957	0.00950631295264606
4.1	-0.00564248224419898	0.0165972638284992	0	0	0.634033045026035	-0.709026499176466	0	0
0	0	-0.0416730256502596	-0.035374900135883	0	0	0.0502430775321916	-0.887944057514844
0.634033045026035	-0.709026499176466	0	0	0.0237383857818474	-0.11114044431494	0	0
0	0	0.178826401639863	-0.82531801360813	0	0	0.0267936506502352	0.0808675480618576
4.2	0.0120405377556515	-0.0118980264833554	0	0	0.703086479245755	0.645725409576742	0	0
0	0	-0.0490023741462298	-0.0153253588844512	0	0	-0.434245496052589	-0.774900290886267
0.703086479245755	0.645725409576742	0	0	-0.0396066635922775	0.0165656493933239	0	0
0	0	0.826409067233809	-0.187007489513705	0	0	-0.0120762929208138	-0.0408781958182028
4.3	-0.0157804752651986	0.00489392417854411	0	0	0.655176171293567	-0.695586889148173	0	0
0	0	-0.00748484011116177	0.00684012947357972	0	0	0.775294703156427	0.419382891424067
0.655176171293567	-0.695586889148173	0	0	-0.0105438046873616	0.0666870919910919	0	0
0	0	-0.533508545484156	-0.668334176326616	0	0	-0.0143051345042838	0.00245051041680392
4.4	0.01599007503809	0.00328679366140936	0	0	0.678230181125771	0.665680260744496	0	0
0	0	0.037976701826111	0.00440435381635009	0	0	0.883394904310915	-0.0549773165284735
0.678230181125771	0.665680260744496	0	0	0.0011788759739408	-0.0496980576691585	0	0
0	0	0.342736035383208	-0.768758109630639	0	0	-0.0332292757011703	0.00341139734718562
4.5	-0.012525528026953	-0.0105968427082742	0	0	0.673254629983799	-0.659893226455006	0	0
0	0	0.0645887139005678	-0.00452283208533008	0	0	-0.718489786582826	0.521152949911559
0.673254629983799	-0.659893226455006	0	0	-0.0493649793758099	0.0263256448320968	0	0
0	0	-0.831226069190675	0.0118229493024944	0	0	-0.0850948185649565	0.0615931246656222
4.6	0.00601205649336883	0.016085465372098	0	0	0.642077264110501	0.688954886287081	0	0
0	0	0.0466078702434627	-0.0250033115520996	0	0	-0.312035497679543	0.840938458238528
0.642077264110501	0.688954886287081	0	0	-0.00388903397653845	0.013738977686692	0	0
0	0	-0.370092659679282	-0.741849842921126	0	0	-0.0794145098473217	-0.00960789436499418
4.7	0.00218436994222784	-0.0186504556087975	0	0	0.707196870096664	-0.635564518386814	0	0
0	0	-0.0245499311721546	-0.00544133002683971	0	0	-0.189847680354355	-0.871535368948057
0.707196870096664	-0.635564518386814	0	0	0.0652558176363891	-0.0175529685638407	0	0
0	0	-0.523298531723994	0.653393075774439	0	0	-0.0726938286301815	0.0716597433397207
4.8	-0.0108608119036444	0.0178188019280088	0	0	0.636292871623528	0.723940013948154	0	0
0	0	-0.0586228179817761	0.0342242470086906	0	0	-0.605523471570929	-0.634211461468709
0.636292871623528	0.723940013948154	0	0	0.0528165361772905	-0.0182952244588067	0	0
0	0	-0.82603808746737	-0.197451135947664	0	0	-0.00908310762380136	0.0713973723922065
4.9	0.0183780430000399	-0.0126800500550757	0	0	0.730358315391673	-0.629099450862848	0	0
0	0	-0.0397952401220264	0.0585434769169757	0	0	0.853592044879966	0.207194524499895
0.730358315391673	-0.629099450862848	0	0	-0.0806866937067696	-0.0289626016446064	0	0
0	0	0.198594228735647	0.820696587951537	0	0	-0.0833201583479788	0.00353058356773351
5	-0.0230490167566102	0.0045150124224803	0	0	0.618889297136519	0.725951290530658	0	0
0	0	-0.000458827867643778	0.0202635576894973	0	0	0.830886280387882	-0.298423358960508
0.618889297136519	0.725951290530658	0	0	-0.0476124198509226	0.0407674875812074	0	0
0	0	-0.645012896771469	0.533925762524682	0	0	0.0414878879403735	-0.00937855353750408
5.1	0.0246168570271435	0.00540844741192803	0	0	0.727144164162507	-0.607125884350681	0	0
0	0	0.0382377618056831	-0.0335883197944054	0	0	-0.532880273271213	0.696215301289582
0.727144164162507	-0.607125884350681	0	0	-0.0218595856432975	-0.0413171228218239	0	0
0	0	0.750476130534927	0.344327806950216	0	0	0.0724722967945178	-0.0200773202694669
5.2	-0.0222737400313686	-0.0164237583342466	0	0	0.585425089242397	0.744469321861806	0	0
0	0	0.0158037585914169	-0.0744492518085798	0	0	-0.0773677054729163	0.872293423816644
0.585425089242397	0.744469321861806	0	0	0.0382622900691018	0.0223821872092724	0	0
0	0	0.0165389695590302	0.832740076144048	0	0	0.0267787568018803	0.0662091604565203
5.3	0.0159446124507286	0.0259360164803445	0	0	0.762439159421944	-0.573948005478938	0	0
0	0	-0.0144561661552647	-0.0414873988966921	0	0	-0.41408735001283	-0.770265001284183
0.762439159421944	-0.573948005478938	0	0	-0.032007848692874	0.0249887596488775	0	0
0	0	0.742340323322934	-0.376057737338479	0	0	-0.0436142163686335	0.0120231053715152
5.4	-0.00669697677468596	-0.0319670077888231	0	0	0.565978181566864	0.766879719769849	0	0
0	0	-0.0315045426787569	0.0144597685927805	0	0	-0.768301999307826	-0.425979428533252
0.565978181566864	0.766879719769849	0	0	0.0709220700162237	0.0871680814151129	0	0
0	0	0.658693608018265	0.507885210166192	0	0	-0.00954677423222572	0.0218512256790556
5.5	-0.00420087856641075	0.0345072451296796	0	0	0.776970736680685	-0.563444799587464	0	0
0	0	0.0231623105620766	0.0599310115099816	0	0	0.87631771680348	-0.04725778108696
0.776970736680685	-0.563444799587464	0	0	-0.00669462327312798	-0.0275278867743456	0	0
0	0	0.154892931837238	-0.816444639806372	0	0	0.0216444198377379	0.0382815730157689
5.6	0.0156946052099508	-0.0320394814665027	0	0	0.549217897636136	0.781885599252809	0	0
0	0	0.0424167293955108	0.056594854099063	0	0	0.695131617826753	-0.509801504613706
0.549217897636136	0.781885599252809	0	0	0.00116719358828372	-0.109042780253716	0	0
0	0	0.797616841018541	-0.204420338705915	0	0	0.0116962099207236	0.117004238906809
5.7	-0.0263414064397647	0.0253809960837497	0	0	0.794156590215178	-0.540408236127843	0	0
0	0	0.0208143539768501	-0.00701064607268077	0	0	-0.314418697214324	0.806216066014246
0.794156590215178	-0.540408236127843	0	0	-0.0114230072131794	0.0513392228889943	0	0
0	0	-0.536679632863315	-0.645379030421871	0	0	0.0584885464506865	0.0339154503458872
5.8	0.033212314511272	-0.0147189111747055	0	0	0.522305044622923	0.793649652552417	0	0
0	0	-0.0218128148612295	-0.0313599903671411	0	0	0.157389968856725	0.850095599930484
0.522305044622923	0.793649652552417	0	0	0.0584618128921167	-0.0274824176545759	0	0
0	0	0.320626729617839	-0.769112609043569	0	0	0.0339270347255184	0.0548520957732401
5.9	-0.0364557229367805	0.00157355387582615	0	0	0.807030295359134	-0.498296910910967	0	0
0	0	-0.0559189815509599	-0.0267515363776092	0	0	-0.58430886705531	-0.633502060886085
0.807030295359134	-0.498296910910967	0	0	-0.0723944913942171	0.0435020296350218	0	0
0	0	-0.823242038760957	0.0614937900705907	0	0	0.0371569486934574	0.0715668457822717
6	0.0352589902197276	0.0113079477325331	0	0	0.481412565846232	0.820307696913282	0	0
0	0	-0.0338050059732508	0.0059264791468382	0	0	-0.843934616545487	-0.192401054398946
0.481412565846232	0.820307696913282	0	0	-0.00284562651275218	0.0236975377095693	0	0
