# GHZ S RI R 50
0.2	-0.00717309137674407	0.0089957558446132	0	0	0.958030271254938	0.0578424809363035	0	0
0	0	0.0210081370522556	0.0031400789411169	0	0	-0.370272706907629	0.911202900977535
0.958030271254938	0.0578424809363035	0	0	0.0224345615456911	0.0443768712157422	0	0
0	0	0.56949719828034	-0.754154422999714	0	0	0.00283118085166359	-0.0294371656146262
0.3	0.00741673396409687	-0.00962299163394521	0	0	0.0331883321001086	-0.965276853858536	0	0
0	0	-0.00495946132440341	0.00105947404534721	0	0	-0.134573987979063	-0.974250819208187
0.0331883321001086	-0.965276853858536	0	0	-0.0125879742756866	0.00526965138328613	0	0
0	0	-0.922193324592906	-0.201876726246301	0	0	-0.0312023825793727	-0.0166219753995294
0.4	-0.00872758037334437	0.00779838527756772	0	0	0.948604874294126	0.0615331706178692	0	0
0	0	-0.039375609725058	0.000898357115866188	0	0	-0.667492977535135	-0.725450305245534
0.948604874294126	0.0615331706178692	0	0	-0.0331757909990364	-0.0140490498116061	0	0
0	0	-0.235625169514259	-0.895695884477888	0	0	0.0225573644744703	0.0196301096555261
0.5	0.0106734114791416	-0.00412973912323864	0	0	0.127094006094693	-0.948845989892159	0	0
0	0	-0.0331314200867593	0.00538067394985106	0	0	0.964016712186722	0.206529443432126
0.127094006094693	-0.948845989892159	0	0	0.0371924225245592	0.0161585790940321	0	0
0	0	-0.678188115307179	0.636999025356163	0	0	0.00551664241599824	0.0072339054305974
0.6	-0.011473251777239	0.00069468823654644	0	0	0.954779319109975	0.130550236856797	0	0
0	0	-0.00871429126260618	0.00699447026953032	0	0	0.912184197454427	-0.330018696017542
0.954779319109975	0.130550236856797	0	0	0.00502042105668695	-0.0199886492529809	0	0
0	0	-0.861916020661223	-0.344139859053161	0	0	-0.00527539032225312	-0.00745222877621359
0.7	0.0116725835308093	0.00224222058459452	0	0	0.108253282559419	-0.95723784954489	0	0
0	0	0.0220652569826115	-0.00991529473199531	0	0	-0.61034728672504	0.748443497164753
0.108253282559419	-0.95723784954489	0	0	0.00814890524248337	0.00977014615258179	0	0
0	0	0.0465124808022832	0.91989530128727	0	0	0.00234790902298199	-0.0129736555895697
0.8	-0.0109212071505166	-0.00522124908488063	0	0	0.954558674763671	0.112985015129547	0	0
0	0	0.0435784273886483	-0.0407809008038518	0	0	-0.119681964379836	0.96043298041799
0.954558674763671	0.112985015129547	0	0	-0.0222342236120552	0.0128210820955253	0	0
0	0	-0.810787400023267	0.448998446241826	0	0	0.00705179106770605	0.0833010104165902
0.9	0.00827471244312715	0.00760741630846118	0	0	0.144503090931178	-0.93929531738322	0	0
0	0	0.0127038216091167	-0.0269062352734036	0	0	-0.434726833630802	-0.865195231297761
0.144503090931178	-0.93929531738322	0	0	-0.0016111146401625	-0.0618089276670875	0	0
0	0	0.763889336597328	0.524279496347134	0	0	0.036757652971988	0.0135934550893096
1	-0.00472499626097978	-0.00895730006326917	0	0	0.942126930965414	0.181148856694047	0	0
0	0	-0.0147315026994066	0.0122084461312861	0	0	-0.838011648303361	-0.480662437043021
0.942126930965414	0.181148856694047	0	0	0.0033044239488973	0.0416177331352663	0	0
0	0	-0.125803330247187	0.902052904439024	0	0	0.00375971749234364	0.00163366512274258
1.1	0.000947843085372659	0.00885296604619807	0	0	0.201139785449436	-0.949030766995901	0	0
0	0	-0.0117207057874194	0.0348490551311562	0	0	0.955809419856245	-0.0513231411897613
0.201139785449436	-0.949030766995901	0	0	0.00384679765742983	0.00115340019038546	0	0
0	0	0.868400021738059	-0.260426127734018	0	0	0.00902373791089674	0.0422710492459727
1.2	0.00200965119323212	-0.00750490114651719	0	0	0.958693135562721	0.202322511508931	0	0
0	0	0.0089115236649697	0.0638729898033891	0	0	0.77067099858984	-0.554605912461738
0.958693135562721	0.202322511508931	0	0	0.0535366793747893	-0.00140076185728192	0	0
0	0	0.613770290185907	0.671087956683055	0	0	0.00690441161389786	0.0988551037955589
1.3	-0.00383356179872302	0.00457494353391094	0	0	0.205174543850564	-0.94247044129127	0	0
0	0	0.0167044371462832	0.0180407543227468	0	0	-0.354859170960998	0.882882218776018
0.205174543850564	-0.94247044129127	0	0	-0.0545006617053472	-0.000344809190229934	0	0
0	0	0.321920553448282	-0.858926555835737	0	0	0.039757815628468	0.0138048386563016
1.4	0.00438127422923919	-0.000934434465708103	0	0	0.92433440011037	0.233474791318078	0	0
0	0	-0.0123815523106102	-0.0445431441426812	0	0	0.179444587912457	0.93706839502082
0.92433440011037	0.233474791318078	0	0	0.0166224412971467	0.00726793673058256	0	0
0	0	0.898509008756979	-0.0839211267023831	0	0	0.0438522966870994	-0.00699425218702587
1.5	-0.00333294680888599	-0.0019755249580282	0	0	0.270996498596169	-0.922367276215942	0	0
0	0	-0.0370508494810881	-0.0568920916987045	0	0	-0.674511132154145	-0.675396137217038
0.270996498596169	-0.922367276215942	0	0	0.0323382114430635	-0.0334761427873415	0	0
0	0	-0.461284517358998	-0.767406565102567	0	0	0.0324238313919287	0.0517485595856831
1.6	0.000922239373776922	0.00361116017116327	0	0	0.937337942785129	0.295074271185795	0	0
0	0	-0.0349719250857886	-0.0198654013359926	0	0	-0.936851200137245	-0.183913341065727
0.937337942785129	0.295074271185795	0	0	-0.0523064569348213	-0.0273864908070997	0	0
0	0	0.497582801578185	-0.753869553177411	0	0	7.49965033016997E-05	0.0523430243667035
1.7	0.00217367199476107	-0.00388958006073149	0	0	0.289968627790794	-0.942939024192617	0	0
0	0	0.016748454290109	0.00633590966631644	0	0	0.884832263701885	-0.343285650604115
0.289968627790794	-0.942939024192617	0	0	-0.00193956653125764	0.00507683299194605	0	0
0	0	-0.900293934767636	-0.111434636775755	0	0	0.0391888093900625	-0.0303670410888439
1.8	-0.00486304732443564	0.0025497617290111	0	0	0.917247533776046	0.29111009356252	0	0
0	0	0.0463187854487876	0.0382635818823131	0	0	0.573641201280125	-0.745552842292015
0.917247533776046	0.29111009356252	0	0	0.00568757352146775	0.0652588770178869	0	0
0	0	-0.309776439858739	-0.849322906888456	0	0	0.0269683905535831	-0.033689380518083
1.9	0.00658436837095245	0.000387593516414532	0	0	0.320406917176604	-0.893892053663235	0	0
0	0	0.053216390521864	-0.00340147156036969	0	0	-0.0837743849758339	0.94141526660793
0.320406917176604	-0.893892053663235	0	0	0.00913485090420708	0.00915273203363689	0	0
0	0	-0.615312815573586	0.645328673892222	0	0	0.0405062763706044	0.0239309062693617
2	-0.00681390785448788	-0.00446274808672458	0	0	0.89087258578867	0.350822706372082	0	0
0	0	0.015103052835023	-0.00458008679105431	0	0	0.456822382298539	0.833399271593095
0.89087258578867	0.350822706372082	0	0	-0.0501526279669433	-0.0331730782741375	0	0
0	0	-0.844236236431382	-0.264495052068244	0	0	-0.053207519137398	-0.0210635378426761
2.1	0.00545305404450902	0.0088060671040385	0	0	0.365565262536198	-0.897739356996303	0	0
0	0	-0.0295625347996949	0.00821558934482312	0	0	-0.82991952329677	-0.452825763960449
0.365565262536198	-0.897739356996303	0	0	0.0702762058810044	0.0166278208680496	0	0
0	0	0.134672152044529	0.879544350258904	0	0	-0.00525571477389959	0.00982263734659505
2.2	-0.00215095866024467	-0.0124968831673695	0	0	0.898297219455008	0.37747017943188	0	0
0	0	-0.0487942828699178	0.0174274568010482	0	0	-0.932464237481422	0.0678948362852621
0.898297219455008	0.37747017943188	0	0	0.0143431205970384	-0.0108129966713174	0	0
0	0	-0.73769745475531	0.505620192925248	0	0	0.0423397723545027	-0.0110799860625427
2.3	-0.00287927496589614	0.0142925267544687	0	0	0.387151697069828	-0.889276337769741	0	0
0	0	-0.0311289346379415	0.0193651274334106	0	0	0.737335241902485	-0.555149406379563
0.387151697069828	-0.889276337769741	0	0	0.0576545290832093	-0.0286271835190867	0	0
0	0	0.776055619994252	0.432959725313799	0	0	0.0663445324411199	0.0469018005802383
2.4	0.00912303525049103	-0.0137730515321487	0	0	0.877898785325023	0.398847064844651	0	0
0	0	-0.00101638681294487	0.000941050917753843	0	0	0.324905220716069	-0.868007409087068
0.877898785325023	0.398847064844651	0	0	-0.0974531136046927	0.0140650268340715	0	0
0	0	-0.0397362688378187	0.882817765321543	0	0	0.0468411273324412	-0.0487884445681518
2.5	-0.0158576576750014	0.0108140101298507	0	0	0.415556734031644	-0.866356583001944	0	0
0	0	0.0191709638459945	-0.0362007101125676	0	0	0.189222592574754	0.917827066155741
0.415556734031644	-0.866356583001944	0	0	-0.0105628099920906	-0.0265758042761607	0	0
0	0	0.805246718773012	-0.33201313019075	0	0	0.0123344872977071	-0.000221647000683306
2.6	0.0216368499555614	-0.00592476887557077	0	0	0.85929259938198	0.429385626410805	0	0
0	0	0.0183371531100143	-0.0389050080840186	0	0	0.667137504255545	0.653509387451376
0.85929259938198	0.429385626410805	0	0	0.00528605867715624	-0.0328609525884448	0	0
0	0	0.630542034866453	0.597185854580713	0	0	0.0624723582630415	0.010707928877458
2.7	-0.0253667103655247	-0.000662635791426556	0	0	0.443770827568774	-0.85323057975467	0	0
0	0	0.0217693160091699	-0.00954630502012327	0	0	-0.897215127403534	-0.174019538091242
0.443770827568774	-0.85323057975467	0	0	0.00313024878554347	-0.0123299557026979	0	0
0	0	0.275665381961469	-0.835222208817516	0	0	-0.0272808378538661	-0.000330581905003919
2.8	0.0259797746718175	0.00826549181648798	0	0	0.842643794908264	0.457153309692993	0	0
0	0	0.0100941260796395	0.0127774499541067	0	0	-0.841645064480448	0.312381780010789
0.842643794908264	0.457153309692993	0	0	0.00408917618035141	0.0643122082729965	0	0
0	0	0.870956946675774	-0.150095224036545	0	0	0.0262639225359056	-0.0631807082867635
2.9	-0.0230036529439446	-0.0159579140374362	0	0	0.473324168407803	-0.823329242281016	0	0
0	0	-0.000101538425377095	0.0369181541547304	0	0	0.56693052253497	-0.699942804304337
0.473324168407803	-0.823329242281016	0	0	-0.0533819438361325	0.0344931936615829	0	0
0	0	-0.514557457221976	-0.702100610028628	0	0	-0.0398266904877794	-0.0455965959152625
3	0.0172650666791993	0.022714242199204	0	0	0.814189992073738	0.497676012986762	0	0
0	0	-0.0112951260733528	0.02995752240199	0	0	0.0919285547078479	-0.919164322390895
0.814189992073738	0.497676012986762	0	0	-0.00671206549394902	-0.0172554226824724	0	0
0	0	0.406438463708666	-0.759667695120687	0	0	0.0138052854827804	0.0860362196132708
3.1	-0.00883355189924416	-0.0267445601861627	0	0	0.518707334675498	-0.803755843311098	0	0
0	0	-0.0208392858306017	0.0129987302119417	0	0	0.446871952323805	0.806032142710783
0.518707334675498	-0.803755843311098	0	0	0.0388566460908106	-0.0639297623836234	0	0
0	0	-0.868146770990344	-0.050887563328505	0	0	-0.0749270066732636	0.00633841861201584
3.2	-0.000834198878484952	0.0282730433523311	0	0	0.80206650000091	0.542925715973898	0	0
0	0	-0.0186936340088705	-0.00530303871546432	0	0	0.796439221771691	0.437805946977803
0.80206650000091	0.542925715973898	0	0	0.000764877941020469	0.0253421701384607	0	0
0	0	-0.335818282312394	-0.813498537118711	0	0	-0.0588604084734155	0.0068138798875493
3.3	0.0102563056776626	-0.0260856713593401	0	0	0.554735807333781	-0.797754238187682	0	0
0	0	-0.00227551307796459	-0.0233813368569888	0	0	-0.903889653165988	0.048353919562613
0.554735807333781	-0.797754238187682	0	0	0.0618353623018893	0.0245488832487725	0	0
0	0	-0.575416048501937	0.673482609926328	0	0	-0.0267578102757658	-0.106710089927646
3.4	-0.0179734044342881	0.0203307582663396	0	0	0.781220890140513	0.560175748043328	0	0
0	0	-0.00535668443074328	-0.0404471312170845	0	0	-0.733399449668312	0.540763383801178
0.781220890140513	0.560175748043328	0	0	-0.114808649916064	0.00819797790640303	0	0
0	0	-0.855372074748974	-0.224107688534628	0	0	-0.019312235214739	-0.0397607296598677
3.5	0.0232238095884886	-0.0126131227571941	0	0	0.575177580606266	-0.772006903326201	0	0
0	0	0.00715258515941286	-0.0307081831867046	0	0	0.299197304134987	-0.867560111653295
0.575177580606266	-0.772006903326201	0	0	-0.0119247927035409	-0.0536032539327766	0	0
0	0	0.165385661810388	0.842970875646092	0	0	0.0851619253239971	-0.0719690775843943
3.6	-0.0251489014162671	0.00377927487687525	0	0	0.765236246024214	0.585372683191894	0	0
0	0	0.0191078147244838	0.00160323009020802	0	0	-0.207416135768036	-0.894587240031199
0.765236246024214	0.585372683191894	0	0	-0.0347008279636035	0.0602792365889438	0	0
0	0	-0.693843364753421	0.518536801612337	0	0	0.0448294235213865	-0.0312649167716172
3.7	0.0232626611356433	0.00562713577770035	0	0	0.604585542625486	-0.745141287633992	0	0
0	0	0.0138382632041739	0.0352279922343848	0	0	0.637861208542343	0.650389437582772
0.604585542625486	-0.745141287633992	0	0	0.118269876761248	0.0080629131348405	0	0
0	0	0.769684561320263	0.411312026435798	0	0	0.0555496010966961	-0.0187296057769021
3.8	-0.0183936025657804	-0.0132581021616385	0	0	0.739335694536806	0.623646204004032	0	0
0	0	0.0153914653175375	0.049598897546724	0	0	0.871050434970562	0.188563522378862
0.739335694536806	0.623646204004032	0	0	-0.0254667498084733	0.0207895152961723	0	0
0	0	-0.0178780819691581	0.871685959845466	0	0	-0.0582319083597618	-0.025523575762203
3.9	0.0112050722957104	0.0177764224182758	0	0	0.62849787008789	-0.739019992150474	0	0
0	0	0.0114048105815313	0.015053736458528	0	0	-0.82531808853062	0.326127381879731
0.62849787008789	-0.739019992150474	0	0	-0.0137576950670597	0.083436855235123	0	0
0	0	0.784194023071618	-0.384131035575442	0	0	0.0249560457325844	-0.00559553885364342
4	-0.00224057745308492	-0.0191125911637742	0	0	0.721645491144826	0.636864572418725	0	0
0	0	-0.0164127956061944	-0.0123704225520566	0	0	-0.517773240160307	0.724534922883701
0.721645491144826	0.636864572418725	0	0	0.0515509076875854	-0.0742805545568885	0	0
0	0	0.683929797759304	0.517650884097144	0	0	-0.00471307348162816	0.00952397862086404
4.1	-0.00598967767298238	0.017184862568944	0	0	0.642324251760754	-0.709123604507289	0	0
0	0	-0.0413219446273301	-0.0350120921436385	0	0	0.056150190719224	-0.892885080608457
0.642324251760754	-0.709123604507289	0	0	0.0255811480219245	-0.112225059189682	0	0
0	0	0.185099350347308	-0.829075840228819	0	0	0.026221208176996	0.0821213249369977
4.2	0.0124466483968221	-0.0125634161709858	0	0	0.704633897070124	0.653483055100973	0	0
0	0	-0.0488713544565869	-0.0147542106966338	0	0	-0.433316210314988	-0.782136956290738
0.704633897070124	0.653483055100973	0	0	-0.0402336299055951	0.0162938206200147	0	0
0	0	0.832775155150144	-0.184195379928969	0	0	-0.0117431467681306	-0.0416132612190223
4.3	-0.0161119722094652	0.00553524453662354	0	0	0.661971341461508	-0.698286029201389	0	0
0	0	-0.00758740738565641	0.00736405822962485	0	0	0.779210293482702	0.424771420389465
0.661971341461508	-0.698286029201389	0	0	-0.0111774773887659	0.0675175703040247	0	0
0	0	-0.534963746472281	-0.674630443628399	0	0	-0.0145256660175115	0.0023365576259401
4.4	0.016328118443211	0.00283428872618039	0	0	0.681540074542137	0.671278119578735	0	0
0	0	0.0376725640521622	0.00467079283390243	0	0	0.889290603628818	-0.0538006086215769
0.681540074542137	0.671278119578735	0	0	0.00125003099876581	-0.0502907092511229	0	0
0	0	0.346324423395347	-0.773208878474573	0	0	-0.0337867124524144	0.00336656022197077
4.5	-0.0130435334233755	-0.0103175315211122	0	0	0.677555518097028	-0.663528258016454	0	0
0	0	0.0641806015869323	-0.00464450293776651	0	0	-0.722968193950788	0.523924315182935
0.677555518097028	-0.663528258016454	0	0	-0.0500885335440247	0.0267920240748833	0	0
0	0	-0.836150017324227	0.0115312944240069	0	0	-0.0862964247843558	0.0624081816735426
4.6	0.00678882188130125	0.0158093753420107	0	0	0.645593290945058	0.69196641119274	0	0
0	0	0.0462125103333957	-0.0255092887196635	0	0	-0.313134355988253	0.845187332481147
0.645593290945058	0.69196641119274	0	0	-0.00390772051207924	0.0141853670589194	0	0
0	0	-0.372264420452701	-0.745275824459046	0	0	-0.0802836788577154	-0.00930923673470008
4.7	0.00124463616544166	-0.0182238223782939	0	0	0.708995330428385	-0.638640715312724	0	0
0	0	-0.0247357709030212	-0.00620070046913513	0	0	-0.191512881184364	-0.874539870918311
0.708995330428385	-0.638640715312724	0	0	0.0658209162591606	-0.0174400356912335	0	0
0	0	-0.524505322617496	0.65638252585857	0	0	-0.0730330178001631	0.0727576963755017
4.8	-0.00989641284550355	0.0172323236856691	0	0	0.638580047657941	0.724819620720596	0	0
0	0	-0.0584826712168917	0.033418231851198	0	0	-0.607731082330083	-0.634924650636961
0.638580047657941	0.724819620720596	0	0	0.0532827397490981	-0.0181760861363289	0	0
0	0	-0.828208798227772	-0.196870360822136	0	0	-0.00875560282031	0.0721704365895684
4.9	0.0174585084603889	-0.0120930979180064	0	0	0.730766436863494	-0.630278830426052	0	0
0	0	-0.0393171089520373	0.0579320954805116	0	0	0.85470687101451	0.20677503470381
0.730766436863494	-0.630278830426052	0	0	-0.080567604222503	-0.0286429979755276	0	0
0	0	0.199443379419468	0.821464737545791	0	0	-0.0832136654146873	0.00406570859772828
5	-0.0220939718938552	0.00394347673760082	0	0	0.61892189947497	0.726130075909069	0	0
0	0	0.000303063350004546	0.0199752183022962	0	0	0.830894401698803	-0.298461375343003
0.61892189947497	0.726130075909069	0	0	-0.0472413403808067	0.0409496049666092	0	0
0	0	-0.645007891668653	0.533962290838451	0	0	0.0418439886908652	-0.0090563714128511
5.1	0.0236155494301193	0.00609157587492679	0	0	0.727532921544558	-0.605851107857611	0	0
0	0	0.0391188953938646	-0.0335213644649418	0	0	-0.533271874840172	0.695182973281167
0.727532921544558	-0.605851107857611	0	0	-0.0212950479233983	-0.0412716264564595	0	0
0	0	0.749609613787617	0.344902597641861	0	0	0.0728505848666354	-0.0196836365233263
5.2	-0.0213512527591925	-0.0172332132634285	0	0	0.583140301149842	0.745408325411705	0	0
0	0	0.0166130066075254	-0.0740851820766692	0	0	-0.0793395121941824	0.871425614582587
0.583140301149842	0.745408325411705	0	0	0.0385371331174599	0.0224622302443787	0	0
0	0	0.0145853235625608	0.83212228085826	0	0	0.026893093954787	0.0662914564266456
5.3	0.015210130725549	0.0267399451630776	0	0	0.764441706307969	-0.57078555803147	0	0
0	0	-0.01393566548504	-0.0409495092418647	0	0	-0.410974563612432	-0.771488426911078
0.764441706307969	-0.57078555803147	0	0	-0.0318192287110451	0.0245386452225708	0	0
0	0	0.743431985390725	-0.37306823160477	0	0	-0.0432302106512055	0.0115961493577682
5.4	-0.0060703711285779	-0.0325743559100617	0	0	0.562331007920936	0.770051854281315	0	0
0	0	-0.0314234303460612	0.0150375070895472	0	0	-0.766382771215882	-0.429993543272343
0.562331007920936	0.770051854281315	0	0	0.0703100086034013	0.0877661607359631	0	0
0	0	0.656326870337287	0.511370175369923	0	0	-0.009460117679492	0.0216148228476432
5.5	-0.00496321588116761	0.0349468023726298	0	0	0.781715644267707	-0.559557438810545	0	0
0	0	0.0227882261756236	0.0603953765539442	0	0	0.877944272300392	-0.0420496215662562
0.781715644267707	-0.559557438810545	0	0	-0.00626870204527122	-0.0278322441444969	0	0
0	0	0.160049834543317	-0.816761398961354	0	0	0.021432824155829	0.0385410942225397
5.6	0.0166626283790535	-0.0325064095453037	0	0	0.545556784409197	0.788084574265722	0	0
0	0	0.0417142557778852	0.0568219847135182	0	0	0.700660608042898	-0.506864012592037
0.545556784409197	0.788084574265722	0	0	0.00276176924794502	-0.109763973871127	0	0
0	0	0.801471867882152	-0.199848465631823	0	0	0.0103685775563876	0.117859095090494
5.7	-0.0273473528276494	0.0260948705193531	0	0	0.801853820494528	-0.537689740771597	0	0
0	0	0.0199414597058954	-0.00703947849005749	0	0	-0.321326069031	0.808003173881303
0.801853820494528	-0.537689740771597	0	0	-0.0121346180271509	0.0516925367655125	0	0
0	0	-0.534953557414836	-0.652080854374238	0	0	0.0587579434417313	0.0350996294709664
5.8	0.0339833691645974	-0.0155434608156815	0	0	0.52068755302287	0.802377086292839	0	0
0	0	-0.0225764710497099	-0.031604033696777	0	0	0.153124686818029	0.856742242176702
0.52068755302287	0.802377086292839	0	0	0.0598564743981065	-0.0272281535948283	0	0
0	0	0.327570075964682	-0.772231834593373	0	0	0.0340075856921253	0.0559888724572013
5.9	-0.036964494455652	0.00225670850766038	0	0	0.816688546253857	-0.49818622418542	0	0
0	0	-0.0563829224559555	-0.0271076000860452	0	0	-0.585845360216668	-0.6418842078415
0.816688546253857	-0.49818622418542	0	0	-0.0738110376592453	0.0430782701187662	0	0
0	0	-0.830447672848806	0.0576580328751092	0	0	0.0374555391468612	0.0729130089433598
6	0.0356685129326301	0.0109315978447783	0	0	0.482932258563936	0.830383134448343	0	0
0	0	-0.0338810821130577	0.00558149848789982	0	0	-0.851511600084206	-0.197538248680451
0.482932258563936	0.830383134448343	0	0	-0.00286064711028166	0.0235327028054363	0	0
