# GHZ S RI R 50
0.2	-0.00626766616874843	0.010005687301032	0	0	0.957885858176462	0.0581439943856721	0	0
0	0	0.0207499625191704	0.00453080849583998	0	0	-0.370495276371063	0.911070000742681
0.957885858176462	0.0581439943856721	0	0	0.0209016406115531	0.0430825592092222	0	0
0	0	0.569670887746013	-0.753975903465834	0	0	0.00139038283337257	-0.0306836532851604
0.3	0.0068377830571512	-0.00972898500442264	0	0	0.0336706784683071	-0.965144291440612	0	0
0	0	-0.00508801816052782	0.00166565665005049	0	0	-0.134068156089077	-0.974246323693262
0.0336706784683071	-0.965144291440612	0	0	-0.0140569850046013	0.00512537976229237	0	0
0	0	-0.922021523865793	-0.202330867351201	0	0	-0.0325715497139858	-0.0167510723654126
0.4	-0.00876762561421646	0.00786160397120315	0	0	0.948553000514049	0.0622761512630774	0	0
0	0	-0.0394182944519664	0.000828932574781639	0	0	-0.66694702568943	-0.725995519838419
0.948553000514049	0.0622761512630774	0	0	-0.0341232173699017	-0.013611848968679	0	0
0	0	-0.23493225838128	-0.895908818633003	0	0	0.0216451317237167	0.0201559218200758
0.5	0.0110492017393533	-0.00461007931071974	0	0	0.128131545303967	-0.948898150069834	0	0
0	0	-0.0331896867324313	0.00471790961950383	0	0	0.964002659233149	0.207577089997689
0.128131545303967	-0.948898150069834	0	0	0.0367598527577182	0.0168341096194624	0	0
0	0	-0.678993414733181	0.63642524368106	0	0	0.00515978610998132	0.00781180883840106
0.6	-0.0116544183314719	0.0017100965839759	0	0	0.955153681225825	0.131810204419147	0	0
0	0	-0.00869153241885805	0.00589255363420599	0	0	0.91306117361263	-0.329034459844872
0.955153681225825	0.131810204419147	0	0	0.00498968301363075	-0.0196516676672308	0	0
0	0	-0.861917047636358	-0.34540108490976	0	0	-0.00531087424528189	-0.00715440359737299
0.7	0.0112349736393319	0.00107092503900212	0	0	0.10964131398958	-0.957970455909714	0	0
0	0	0.0222758014691576	-0.011231227977908	0	0	-0.61195232791229	0.748248102536755
0.10964131398958	-0.957970455909714	0	0	0.0080377829964426	0.0098367810703392	0	0
0	0	0.045251617356015	0.920783112370536	0	0	0.00230369021637075	-0.0129590950524667
0.8	-0.0100245937719419	-0.00437865603235022	0	0	0.955646939425587	0.114385139426175	0	0
0	0	0.043934425245735	-0.0420710739773324	0	0	-0.12133098508166	0.961458143262488
0.955646939425587	0.114385139426175	0	0	-0.0227074021968413	0.0126819920998944	0	0
0	0	-0.812510731283307	0.448300368371612	0	0	0.00646792347950969	0.0834774494985808
0.9	0.00739234892488697	0.00724680051882627	0	0	0.145814875491882	-0.940764022689308	0	0
0	0	0.0130958812630777	-0.0279020899640779	0	0	-0.434357669394151	-0.86738340897945
0.145814875491882	-0.940764022689308	0	0	-0.00219113403872124	-0.0619679215346963	0	0
0	0	0.764590549644239	0.526283730047266	0	0	0.0362321196930896	0.013889258633752
1	-0.00421491916803132	-0.00888049217232902	0	0	0.943945617025014	0.182476490402341	0	0
0	0	-0.0144053488815388	0.0117411745422236	0	0	-0.839397027176387	-0.482613794034757
0.943945617025014	0.182476490402341	0	0	0.00236692094488961	0.0423126913994566	0	0
0	0	-0.127023156633665	0.903950876325578	0	0	0.00309667204544317	0.00223215078355839
1.1	0.00094495041083848	0.00864875979758398	0	0	0.202263641735071	-0.951231017689455	0	0
0	0	-0.0115820143303105	0.0350112971756384	0	0	0.958294912992354	-0.0508647009749972
0.202263641735071	-0.951231017689455	0	0	0.00318323033640751	0.00221397202333081	0	0
0	0	0.870790231390954	-0.260558481306584	0	0	0.00861949968340468	0.0435407090863615
1.2	0.00179580948658398	-0.00680820463049597	0	0	0.961262461952853	0.203140062396643	0	0
0	0	0.00873012836853778	0.0645770730655175	0	0	0.772798712891302	-0.555998995752002
0.961262461952853	0.203140062396643	0	0	0.0536341528672257	3.81229565869778E-05	0	0
0	0	0.615333448157301	0.672956181857351	0	0	0.00702444818277721	0.100685363910981
1.3	-0.00380703512636921	0.00351710606300745	0	0	0.205438539577322	-0.945225807059811	0	0
0	0	0.0161466410990976	0.0190003105680332	0	0	-0.355544471887364	0.885481135120391
0.205438539577322	-0.945225807059811	0	0	-0.0545369400587839	0.00116094565396353	0	0
0	0	0.322521925060668	-0.861446787862518	0	0	0.0405344439785236	0.0151072496966778
1.4	0.00453856859247245	0.000220616760328164	0	0	0.927171065007277	0.23340331797697	0	0
0	0	-0.0133527530434822	-0.0437522642783306	0	0	0.180753704783926	0.939488520829349
0.927171065007277	0.23340331797697	0	0	0.0172871419082999	0.0086594150041146	0	0
0	0	0.900906278181334	-0.0849340473923503	0	0	0.0448506641029844	-0.00602239940505285
1.5	-0.00368129830923895	-0.00325904467154646	0	0	0.270512914268353	-0.925283359998613	0	0
0	0	-0.0383882290458044	-0.0564316342879294	0	0	-0.677039206382225	-0.676154134687679
0.270512914268353	-0.925283359998613	0	0	0.033208581563072	-0.032527301815221	0	0
0	0	-0.463414514965943	-0.768668399130549	0	0	0.0336707105299515	0.0527638963482023
1.6	0.00165672437653318	0.00492056484238347	0	0	0.940089792897904	0.294023047597582	0	0
0	0	-0.0365064569650792	-0.0197914058248791	0	0	-0.939089486170533	-0.182685271225769
0.940089792897904	0.294023047597582	0	0	-0.0516378773992193	-0.0264249504219421	0	0
0	0	0.497312204126924	-0.756269801626347	0	0	0.00134375726819664	0.053061086457733
1.7	0.00109416170750325	-0.00484051984492486	0	0	0.288525959612558	-0.945412855814911	0	0
0	0	0.0153079643720359	0.00605156091213068	0	0	0.885699665537174	-0.34570517343279
0.288525959612558	-0.945412855814911	0	0	-0.000847533180844955	0.00555383708208947	0	0
0	0	-0.902119187642999	-0.109790212112223	0	0	0.0402185155561387	-0.0305423407052906
1.8	-0.00386147426115645	0.00305484909920313	0	0	0.919246889814464	0.289479894065901	0	0
0	0	0.0452697872416458	0.0377074286270927	0	0	0.572738780816111	-0.747765484655697
0.919246889814464	0.289479894065901	0	0	0.00690745155217874	0.0654763830553874	0	0
0	0	-0.312036661160011	-0.849729508731833	0	0	0.0276577532148418	-0.0341023150368332
1.9	0.00589478143010983	5.24745671872592E-05	0	0	0.318647308563869	-0.895464578063418	0	0
0	0	0.052742825697651	-0.00408264460683363	0	0	-0.0818453869380103	0.942345220047576
0.318647308563869	-0.895464578063418	0	0	0.00981644431036139	0.00898013840375742	0	0
0	0	-0.61443634992756	0.647148951825145	0	0	0.041140280335488	0.0234910043648294
2	-0.00637699313381025	-0.00402416950603474	0	0	0.892016748672453	0.349062885361001	0	0
0	0	0.0152382249222698	-0.00522574048014413	0	0	0.458642913110597	0.832705593007363
0.892016748672453	0.349062885361001	0	0	-0.0499585064128945	-0.033130851254527	0	0
0	0	-0.845010303625871	-0.262854996174533	0	0	-0.0530581482612091	-0.0210943052734732
2.1	0.00502278095987156	0.0081478686641576	0	0	0.364028113748172	-0.898570177928538	0	0
0	0	-0.0288957523097165	0.00774137807390003	0	0	-0.830630687862545	-0.45138269607646
0.364028113748172	-0.898570177928538	0	0	0.0706615874616234	0.0163476048223797	0	0
0	0	0.136158018823909	0.879253142457964	0	0	-0.0049896576949211	0.00971546318436201
2.2	-0.0015056205816678	-0.0117711830415394	0	0	0.898813891215562	0.376152783333446	0	0
0	0	-0.047823081878826	0.0172158478978992	0	0	-0.932147388747434	0.069072465120626
0.898813891215562	0.376152783333446	0	0	0.0147046782090378	-0.0108243265875552	0	0
0	0	-0.736867952573135	0.506440436275624	0	0	0.0426137375707366	-0.0112954052985113
2.3	-0.00368925898208677	0.0137948948626692	0	0	0.386174084809036	-0.889648363738939	0	0
0	0	-0.0301660197367549	0.0193958168188222	0	0	0.736711159661552	-0.555551856206142
0.386174084809036	-0.889648363738939	0	0	0.0581409583963594	-0.0288125084526073	0	0
0	0	0.776166856782354	0.432253434801201	0	0	0.0667977948219264	0.0465112871495112
2.4	0.00979529436736565	-0.0136007304636156	0	0	0.878081228555797	0.398316559026314	0	0
0	0	-0.000323971717046873	0.00112851910589561	0	0	0.324479605837004	-0.868011428050199
0.878081228555797	0.398316559026314	0	0	-0.0967808464730605	0.0138566143405934	0	0
0	0	-0.0393490111149113	0.882696381917964	0	0	0.0471851855744013	-0.0492991278767683
2.5	-0.0161608511584808	0.0107669999895658	0	0	0.415424200092292	-0.866692604826389	0	0
0	0	0.0194091658107181	-0.0359765565280414	0	0	0.189291813013773	0.917929187034324
0.415424200092292	-0.866692604826389	0	0	-0.0100002382069809	-0.0271948075409253	0	0
0	0	0.805327957146397	-0.332094052693287	0	0	0.0125713174066612	-0.000918043625987785
2.6	0.0216167130919299	-0.00571116611153752	0	0	0.85989794897508	0.429645986300872	0	0
0	0	0.018125630857608	-0.0388000577911781	0	0	0.667384657690719	0.653969886233749
0.85989794897508	0.429645986300872	0	0	0.0057001002239644	-0.033714248594634	0	0
0	0	0.630779051437717	0.59761015665442	0	0	0.0625460194567916	0.00995780616346637
2.7	-0.0252542378676278	-0.00112978164542475	0	0	0.444317065496532	-0.854236268070893	0	0
0	0	0.021289855191331	-0.00966733416879035	0	0	-0.898084739067508	-0.174355399797961
0.444317065496532	-0.854236268070893	0	0	0.00337205356753342	-0.0132373796990188	0	0
0	0	0.276092169425926	-0.836011320448429	0	0	-0.0275026667159911	-0.00110227820668446
2.8	0.0258808455000883	0.00886822884668307	0	0	0.844089540583375	0.457857949074001	0	0
0	0	0.00961997225671509	0.0123742309515499	0	0	-0.842989015240597	0.312818404429884
0.844089540583375	0.457857949074001	0	0	0.00421541693247891	0.0636646513768803	0	0
0	0	0.872336456703632	-0.150274715213345	0	0	0.0260761781946172	-0.0640609890019298
2.9	-0.0228508500512794	-0.0166494898016282	0	0	0.473990476204689	-0.825283825640253	0	0
0	0	-0.000290441489810165	0.0362085177376364	0	0	0.567849442698696	-0.701539105103089
0.473990476204689	-0.825283825640253	0	0	-0.0536077261575007	0.0338977632228648	0	0
0	0	-0.515823034275007	-0.703352293361161	0	0	-0.0403765055044192	-0.0463328905070588
3	0.0170598077619364	0.0236295905076758	0	0	0.816733141954393	0.4982435181943	0	0
0	0	-0.0110576896294807	0.029010998786413	0	0	0.091458048053891	-0.921300670474835
0.816733141954393	0.4982435181943	0	0	-0.00692348355580795	-0.0179834729367579	0	0
0	0	0.406793312385658	-0.761676875974697	0	0	0.0135964400478673	0.0859966469453074
3.1	-0.00873864378281301	-0.0279242044844433	0	0	0.519007499976896	-0.806887497358719	0	0
0	0	-0.0201442229607178	0.0119917750980678	0	0	0.449203981277875	0.807342393665949
0.519007499976896	-0.806887497358719	0	0	0.0386371078231423	-0.0648486434664233	0	0
0	0	-0.870368883002815	-0.0496905038757602	0	0	-0.0756676288399123	0.00639174871868826
3.2	-0.000658805016731997	0.0296083164719585	0	0	0.805559820075053	0.542792518068754	0	0
0	0	-0.0176053173542916	-0.00611446462242786	0	0	0.799357601004528	0.437148396773644
0.805559820075053	0.542792518068754	0	0	0.000636926747061046	0.0252656354630946	0	0
0	0	-0.338420365413069	-0.814771794857284	0	0	-0.0594043823983116	0.00706051020772179
3.3	0.00982290680139058	-0.0273194861635329	0	0	0.554022807192501	-0.801625361299131	0	0
0	0	-0.00102159230519246	-0.0237826754599775	0	0	-0.905939188680258	0.0511721046370823
0.554022807192501	-0.801625361299131	0	0	0.0621860709185798	0.0242784781710405	0	0
0	0	-0.574800398398338	0.676836696934564	0	0	-0.0276296900075034	-0.107028055245028
3.4	-0.0174976718283472	0.0213629911918294	0	0	0.784984309282759	0.558644497701145	0	0
0	0	-0.00418484767109421	-0.0403004490057291	0	0	-0.732936422741506	0.544451052067551
0.784984309282759	0.558644497701145	0	0	-0.115282302283328	0.00908496674383265	0	0
0	0	-0.857874177795803	-0.221510126400194	0	0	-0.0196581620583892	-0.0397610751545546
3.5	0.022813279766223	-0.0135996766305933	0	0	0.572952290126913	-0.775844808241742	0	0
0	0	0.0080158289907845	-0.0300433711767959	0	0	0.296104889078852	-0.870146148312597
0.572952290126913	-0.775844808241742	0	0	-0.0123124695738486	-0.053683402153573	0	0
0	0	0.169104386037146	0.843611615354326	0	0	0.0849055027878965	-0.0729221230573004
3.6	-0.0247148628656393	0.00484409396056575	0	0	0.768727881255304	0.58255612953382	0	0
0	0	0.0195156931050766	0.00270717781318938	0	0	-0.211599420316125	-0.894326212311405
0.768727881255304	0.58255612953382	0	0	-0.0340992933870052	0.0606918721981629	0	0
0	0	-0.692030755393232	0.522050328338414	0	0	0.0446761164079337	-0.031803154719318
3.7	0.0226855241105187	0.00455379752383687	0	0	0.601226370761574	-0.748447238796713	0	0
0	0	0.0137290092805924	0.0364778825395726	0	0	0.640860717396463	0.647358949967409
0.601226370761574	-0.748447238796713	0	0	0.11851846442609	0.00684914964185733	0	0
0	0	0.771555997350409	0.407681224527994	0	0	0.0553732906172235	-0.0193344557974136
3.8	-0.01765982757591	-0.0123692386556494	0	0	0.741907958040063	0.619693018038216	0	0
0	0	0.0149518095996832	0.0506552143476397	0	0	0.870998631475489	0.184269959624079
0.741907958040063	0.619693018038216	0	0	-0.0252385407272955	0.0209482226919063	0	0
0	0	-0.0137652098115807	0.870831895208349	0	0	-0.058392918847221	-0.0249715295246808
3.9	0.0105325713130922	0.0171886207112116	0	0	0.624223675032614	-0.740810022237408	0	0
0	0	0.0107949025301247	0.015700487274923	0	0	-0.822434758789023	0.329204772164796
0.624223675032614	-0.740810022237408	0	0	-0.0130458670606514	0.0832791303119447	0	0
0	0	0.781126221237314	-0.386925338573276	0	0	0.0247288453135489	-0.00577847161431011
4	-0.00184758185854603	-0.0186412463058071	0	0	0.722658891920561	0.63242225203392	0	0
0	0	-0.0170347656958456	-0.0122755659266655	0	0	-0.513592680344097	0.72480627160165
0.722658891920561	0.63242225203392	0	0	0.0505490102893078	-0.0743640341158429	0	0
0	0	0.68430142173346	0.5136329101078	0	0	-0.00472018780230921	0.00959417622841698
4.1	-0.00618981909458816	0.016615263187214	0	0	0.638048868982658	-0.70935317117251	0	0
0	0	-0.0417793309470264	-0.0354382798741145	0	0	0.0529893108372077	-0.890332330034868
0.638048868982658	-0.70935317117251	0	0	0.0244998615709168	-0.111709868128245	0	0
0	0	0.181756236845416	-0.827150549380648	0	0	0.0265339851590049	0.0815658297474899
4.2	0.0126569412479643	-0.0118793365843401	0	0	0.704110105198465	0.649580568769301	0	0
0	0	-0.0490326874229993	-0.0154622341803085	0	0	-0.433947024832913	-0.77827329552902
0.704110105198465	0.649580568769301	0	0	-0.0400042621655415	0.0165036852100484	0	0
0	0	0.829412812318819	-0.185819923865055	0	0	-0.0118993579405279	-0.041139472651596
4.3	-0.016379279011174	0.00491138180533295	0	0	0.658577446271172	-0.697218647375401	0	0
0	0	-0.00743924552781611	0.0066978719844951	0	0	0.777215391242361	0.421818121542296
0.658577446271172	-0.697218647375401	0	0	-0.0108524088882843	0.0671759325030932	0	0
0	0	-0.534301160053359	-0.671236902953513	0	0	-0.0143655209829524	0.0024199037189243
4.4	0.0164743151663702	0.00331481215125809	0	0	0.68015103677523	0.668408264503882	0	0
0	0	0.0380547174824867	0.0043274097538595	0	0	0.886205846950326	-0.0545753776595501
0.68015103677523	0.668408264503882	0	0	0.00124881655910925	-0.0500210182321129	0	0
0	0	0.344312816953046	-0.770950208301514	0	0	-0.0334890963821968	0.00333723005061589
4.5	-0.0129309615329187	-0.0107884994261261	0	0	0.675358636456847	-0.661918496116709	0	0
0	0	0.0646520559288151	-0.00449175342914636	0	0	-0.720514108977604	0.522668586454836
0.675358636456847	-0.661918496116709	0	0	-0.0496252805042241	0.0264693595436459	0	0
0	0	-0.833593523356617	0.0118924900878303	0	0	-0.0857368213229255	0.0619021463201921
4.6	0.00647951851948575	0.0164733354851696	0	0	0.644034088045205	0.690444497824251	0	0
0	0	0.0466016560464558	-0.0248736614885467	0	0	-0.312260038457774	0.843123805547903
0.644034088045205	0.690444497824251	0	0	-0.00380122101731823	0.0137326808083647	0	0
0	0	-0.371424914946584	-0.743382166128739	0	0	-0.080055602678506	-0.00954182753821723
4.7	0.00155520450474522	-0.0191325255125361	0	0	0.70810823036745	-0.637363374049189	0	0
0	0	-0.0246446365047103	-0.00524958247137218	0	0	-0.191007792751032	-0.87283789723301
0.70810823036745	-0.637363374049189	0	0	0.0655813758321312	-0.0178560703303331	0	0
0	0	-0.52356278260199	0.655008593295004	0	0	-0.0731092787933739	0.0721685689424866
4.8	-0.0100964638547202	0.0182599465377407	0	0	0.637708749720581	0.724364887709357	0	0
0	0	-0.0588143793014319	0.0343784741815423	0	0	-0.606793324689801	-0.63424227151323
0.637708749720581	0.724364887709357	0	0	0.053009331595931	-0.0186432774474102	0	0
0	0	-0.827087190791487	-0.196808437258876	0	0	-0.00922948781769602	0.0717745369913312
4.9	0.0176195977328309	-0.0130913471641329	0	0	0.730473194751626	-0.629837237572228	0	0
0	0	-0.0400366211106324	0.0585964477531284	0	0	0.854142573165095	0.206508480563705
0.730473194751626	-0.629837237572228	0	0	-0.0807771266129311	-0.0291624502819705	0	0
0	0	0.199422835698588	0.820865157344556	0	0	-0.0836274477624969	0.00396417799811508
5	-0.0222967937199633	0.00497829800443308	0	0	0.61900102128054	0.726012891008172	0	0
0	0	-0.000714185429010213	0.0201542666774298	0	0	0.830649977317501	-0.298852787025607
0.61900102128054	0.726012891008172	0	0	-0.0476240249415475	0.0405088186869176	0	0
0	0	-0.644663740180201	0.53423268157179	0	0	0.0412799595518355	-0.0090967111077234
5.1	0.0237572146217446	0.00490637560333819	0	0	0.727296082286272	-0.606592070900788	0	0
0	0	0.0380203617048579	-0.0338636680120124	0	0	-0.532588131104772	0.695897290856949
0.727296082286272	-0.606592070900788	0	0	-0.0218667877011123	-0.0416066133647595	0	0
0	0	0.750123178601492	0.344125765377551	0	0	0.0722961806821886	-0.019712731411004
5.2	-0.0213082218756913	-0.015990695167513	0	0	0.584451684935946	0.745011927043115	0	0
0	0	0.0156706254617153	-0.0748354117865023	0	0	-0.0778401746207353	0.871584819583081
0.584451684935946	0.745011927043115	0	0	0.0380751905652533	0.0222144353418939	0	0
0	0	0.0160193712896275	0.832118646646021	0	0	0.0266868534378463	0.066487457448672
5.3	0.0150001329175059	0.0256504024407833	0	0	0.763501119246076	-0.572506043121408	0	0
0	0	-0.0144748826747516	-0.0418682693593225	0	0	-0.412794222107784	-0.770287299697467
0.763501119246076	-0.572506043121408	0	0	-0.0322614338882601	0.0247055977671749	0	0
0	0	0.74233155718111	-0.374827088734679	0	0	-0.043442303781633	0.0121731162451664
5.4	-0.00591731498702	-0.0317334185932567	0	0	0.56437290844178	0.76851530335265	0	0
0	0	-0.0313978570169069	0.014192479121191	0	0	-0.767234708707006	-0.427409512453808
0.56437290844178	0.76851530335265	0	0	0.0703836976704698	0.0875073414207568	0	0
0	0	0.657491397835414	0.509072299143316	0	0	-0.00943743226718882	0.0219846568000804
5.5	-0.00488614112173595	0.0341450397839212	0	0	0.77928485349365	-0.561606465290207	0	0
0	0	0.0233651539826747	0.05985239136486	0	0	0.876757470668929	-0.0450810729548888
0.77928485349365	-0.561606465290207	0	0	-0.00667410800030377	-0.027616525589124	0	0
0	0	0.156993884456117	-0.816356306117167	0	0	0.0216202270570169	0.0385306500741816
5.6	0.0164465855778802	-0.0315246386614124	0	0	0.547462170911348	0.784877318160379	0	0
0	0	0.0426604297509121	0.0567209763472421	0	0	0.697294420571424	-0.508450918494941
0.547462170911348	0.784877318160379	0	0	0.00180106074775087	-0.109392544031305	0	0
0	0	0.799053097604357	-0.202453322531539	0	0	0.011157890071941	0.117451131543009
5.7	-0.0272668844404577	0.0248821673523092	0	0	0.798067616936375	-0.539057577676895	0	0
0	0	0.0210319634915463	-0.00670478255465232	0	0	-0.317274788010071	0.806912709743535
0.798067616936375	-0.539057577676895	0	0	-0.0119739825430838	0.0514478059901814	0	0
0	0	-0.535930026408252	-0.64813027217719	0	0	0.0585506950738143	0.0345924409442239
5.8	0.034184411487373	-0.0143936707495376	0	0	0.521586902354195	0.79800629769669	0	0
0	0	-0.0216599599750368	-0.0309859168784512	0	0	0.155636687391113	0.852855967827682
0.521586902354195	0.79800629769669	0	0	0.0588208560579081	-0.0274434598711681	0	0
0	0	0.323495707479271	-0.770417564059212	0	0	0.0339428569575252	0.0556462710718811
5.9	-0.0372853420524361	0.00139942927304258	0	0	0.811908999310893	-0.498225964131539	0	0
0	0	-0.0558639150164106	-0.0264181379367341	0	0	-0.585047328349397	-0.63701574315608
0.811908999310893	-0.498225964131539	0	0	-0.0736043040401279	0.0433293049796216	0	0
0	0	-0.826318719157199	0.0599567317358697	0	0	0.0374134558658783	0.072582958137809
6	0.0358397732437275	0.0114733141900893	0	0	0.4821615177693	0.825325587490053	0	0
0	0	-0.0338438944974497	0.00612511872691298	0	0	-0.847245843311511	-0.194397067664413
0.4821615177693	0.825325587490053	0	0	-0.00343211351299799	0.0238597382060395	0	0
