# GHZ S RI R 50
0.2	-0.00619136216719566	0.00940615196719949	0	0	0.957943823290124	0.0580370545574604	0	0
0	0	0.0212752395645819	0.00422181915320856	0	0	-0.370404556968368	0.911112643106165
0.957943823290124	0.0580370545574604	0	0	0.0209200544859936	0.0439344687951297	0	0
0	0	0.569597235674159	-0.754037966504305	0	0	0.00139205066201866	-0.0298312278086189
0.3	0.00690537793008418	-0.00948384295846607	0	0	0.0334988606896503	-0.9651702522141	0	0
0	0	-0.00484370242702099	0.00160103495254898	0	0	-0.134237709471594	-0.97424019592665
0.0334988606896503	-0.9651702522141	0	0	-0.0138211175067647	0.00568025638568533	0	0
0	0	-0.922072234001358	-0.202176108655641	0	0	-0.0323432237385382	-0.0161900849963966
0.4	-0.0087314461510831	0.00786340949209067	0	0	0.948553662952088	0.0620175173820501	0	0
0	0	-0.039435659638735	0.000861104002074198	0	0	-0.667133704614109	-0.725804837662122
0.948553662952088	0.0620175173820501	0	0	-0.0338412389197542	-0.0133066432136007	0	0
0	0	-0.235171056960538	-0.89583247554091	0	0	0.0219446303187628	0.0204299428451404
0.5	0.0108438982451887	-0.00471495753251724	0	0	0.127788324301875	-0.948873640769281	0	0
0	0	-0.0334072852330716	0.00479341766116747	0	0	0.963998662889133	0.207217633428736
0.127788324301875	-0.948873640769281	0	0	0.0369920373479798	0.0169066966554623	0	0
0	0	-0.678712371814354	0.636615271370113	0	0	0.00539117442354846	0.00790800111149988
0.6	-0.0112950878052554	0.00175329184692114	0	0	0.955040786585939	0.131369441978313	0	0
0	0	-0.00903912034499758	0.00593289165663481	0	0	0.912753204603235	-0.329367820419171
0.955040786585939	0.131369441978313	0	0	0.00508352704681654	-0.0196296686917328	0	0
0	0	-0.861908881386606	-0.344966953023641	0	0	-0.00520215115834883	-0.00712791070044094
0.7	0.0108452187186534	0.00119604141152902	0	0	0.109157753133409	-0.957736935181378	0	0
0	0	0.0218868084829487	-0.0112712087693057	0	0	-0.611408945895651	0.748311341949725
0.109157753133409	-0.957736935181378	0	0	0.00805513819431266	0.0098561598885227	0	0
0	0	0.0456766180898831	0.920480486382816	0	0	0.00230301319901961	-0.012919865737465
0.8	-0.00973112602160672	-0.00461714340179945	0	0	0.955276222219277	0.1138853143289	0	0
0	0	0.043582826335388	-0.0421707854647011	0	0	-0.120838548829651	0.96111585449325
0.955276222219277	0.1138853143289	0	0	-0.0227014193687204	0.0127969259255271	0	0
0	0	-0.811968126235787	0.448488443903806	0	0	0.00651476461248543	0.0835057367965234
0.9	0.00723520539913763	0.00747592471517686	0	0	0.145301139816214	-0.940260684315517	0	0
0	0	0.0128474445930947	-0.028017799500571	0	0	-0.434500766325119	-0.866683340786164
0.145301139816214	-0.940260684315517	0	0	-0.00223277202365073	-0.0617110531705283	0	0
0	0	0.764387150812138	0.525630970382749	0	0	0.0362144283930226	0.0140227783461064
1	-0.00415048807009844	-0.00901331385640723	0	0	0.943338787601038	0.181994425414823	0	0
0	0	-0.0145092473904007	0.0116493319352367	0	0	-0.838970398835707	-0.481952759529811
0.943338787601038	0.181994425414823	0	0	0.00250341588065505	0.0424631194691736	0	0
0	0	-0.126594926872134	0.90334525830769	0	0	0.003202623910615	0.00243934340763132
1.1	0.000882488622514963	0.00864327156606428	0	0	0.201848554946178	-0.950491349874796	0	0
0	0	-0.0115396166942438	0.0349815247293335	0	0	0.957479684093402	-0.0510688937442581
0.201848554946178	-0.950491349874796	0	0	0.00340080165572659	0.00238366342962032	0	0
0	0	0.869994249568323	-0.260564618917913	0	0	0.00884816208496599	0.0436334941387705
1.2	0.00195480256800499	-0.00671212592229397	0	0	0.960422063365979	0.202847420377746	0	0
0	0	0.00887334691255535	0.0646399458939604	0	0	0.772027142638097	-0.555563819460884
0.960422063365979	0.202847420377746	0	0	0.0538349094502578	0.00011112999050673	0	0
0	0	0.614833186884831	0.672270881532797	0	0	0.0073300919270851	0.100567657751206
1.3	-0.00405512936251141	0.00342748836428613	0	0	0.205285057132368	-0.944309351482768	0	0
0	0	0.0163172817234467	0.0191558346787264	0	0	-0.355242735741488	0.884621428420913
0.205285057132368	-0.944309351482768	0	0	-0.0541173008685167	0.00115287842882515	0	0
0	0	0.322250674004625	-0.860611403757253	0	0	0.0407710562977576	0.0150536040879983
1.4	0.0048079945296514	0.000289850210915764	0	0	0.926255588622035	0.233380120298659	0	0
0	0	-0.0132408385202617	-0.0435280749388825	0	0	0.18039614848058	0.938638077810733
0.926255588622035	0.233380120298659	0	0	0.0175446371304652	0.00860154533707814	0	0
0	0	0.900073164554524	-0.0846745786427389	0	0	0.0450647640756572	-0.00606808763074339
1.5	-0.00397343062865572	-0.00331004171961746	0	0	0.270594481090746	-0.924368197913652	0	0
0	0	-0.0383547310260095	-0.0561669444558732	0	0	-0.676189549933065	-0.675807411952384
0.270594481090746	-0.924368197913652	0	0	0.0334326262198416	-0.0325441907631975	0	0
0	0	-0.462719448522171	-0.768160587531866	0	0	0.0338351391478316	0.0525857967959423
1.6	0.00196807833283985	0.00490470060238743	0	0	0.9391736617399	0.294245291670878	0	0
0	0	-0.0365473290931969	-0.0195194718225993	0	0	-0.938247874804844	-0.183013891883095
0.9391736617399	0.294245291670878	0	0	-0.0513361892363228	-0.0265715097626607	0	0
0	0	0.497297421864987	-0.75541513033188	0	0	0.00147761188422009	0.0528286660864118
1.7	0.00082499904839615	-0.00474182200817101	0	0	0.2888835896836	-0.944601531958446	0	0
0	0	0.0152111262841718	0.00628128624351384	0	0	0.885289659325851	-0.344962032743834
0.2888835896836	-0.944601531958446	0	0	-0.00074210217791873	0.00538909929169012	0	0
0	0	-0.901437686107231	-0.110230302829668	0	0	0.0403066692952951	-0.0306186924985065
1.8	-0.00368150060197905	0.00293625734144148	0	0	0.918577096678153	0.289913517234562	0	0
0	0	0.0451430757727337	0.0378550254165989	0	0	0.572893734314349	-0.74699409876538
0.918577096678153	0.289913517234562	0	0	0.00685987283030765	0.0652734970551498	0	0
0	0	-0.311330870988177	-0.849458187329228	0	0	0.027709760595964	-0.034175617242089
1.9	0.00577236803225429	0.000130555735439678	0	0	0.319089030305878	-0.894904144844832	0	0
0	0	0.0526184807467027	-0.00403491121255511	0	0	-0.0824113645802118	0.941918084117248
0.319089030305878	-0.894904144844832	0	0	0.00980010449594793	0.00888393600388253	0	0
0	0	-0.614602798938074	0.646501042002134	0	0	0.0410769074122575	0.0234197830358806
2	-0.00626470966201651	-0.00405088746521045	0	0	0.891557621855686	0.349496068494101	0	0
0	0	0.0151426881244224	-0.00527010134566036	0	0	0.458014143547894	0.832745544178793
0.891557621855686	0.349496068494101	0	0	-0.0498953886831404	-0.0332359399233849	0	0
0	0	-0.844614160395257	-0.263287477767846	0	0	-0.0530098963057862	-0.0212125157921785
2.1	0.00488418840562064	0.0081505791321503	0	0	0.364419423515264	-0.898235773461735	0	0
0	0	-0.028945498875871	0.00762726174025914	0	0	-0.830251047016024	-0.451728975389311
0.364419423515264	-0.898235773461735	0	0	0.0706285757769644	0.0163650950784832	0	0
0	0	0.135682211889977	0.879166604983438	0	0	-0.00499192319535708	0.00965679974564359
2.2	-0.0013441284074019	-0.0117932391329042	0	0	0.898556118936042	0.376461082335034	0	0
0	0	-0.0478238556876208	0.0170714141121416	0	0	-0.932063206525515	0.0686974743506657
0.898556118936042	0.376461082335034	0	0	0.0147270833016948	-0.0108683272827804	0	0
0	0	-0.736979174880571	0.506090025640563	0	0	0.0426269563347319	-0.011317981523642
2.3	-0.00383078345765582	0.013853835720087	0	0	0.386361991249818	-0.889441883677081	0	0
0	0	-0.0301330233982051	0.0192641171657738	0	0	0.736783410136827	-0.555294739482729
0.386361991249818	-0.889441883677081	0	0	0.0581506879987588	-0.0288562537851068	0	0
0	0	0.77596861031526	0.432417216494131	0	0	0.0667602999112638	0.0464564132589251
2.4	0.00988030510769877	-0.0136708729130045	0	0	0.877874292227181	0.398397975435693	0	0
0	0	-0.000277883457620798	0.00104339503183524	0	0	0.324558712720447	-0.867813294002282
0.877874292227181	0.398397975435693	0	0	-0.0967776904998668	0.0137266026226237	0	0
0	0	-0.0394789733571225	0.882539892173241	0	0	0.0471496903225277	-0.0493666521921115
2.5	-0.016195079319258	0.0108000727214513	0	0	0.415368863071056	-0.866443084591729	0	0
0	0	0.0194456471808923	-0.0360003651426457	0	0	0.189182001026593	0.9177026119813
0.415368863071056	-0.866443084591729	0	0	-0.0100518523485621	-0.0272746160514141	0	0
0	0	0.805140120922258	-0.331954474354345	0	0	0.0124906756453039	-0.00101163159222266
2.6	0.0216391155065053	-0.00568945866402688	0	0	0.859559244956429	0.429481262846629	0	0
0	0	0.018132541040099	-0.0387708167876553	0	0	0.667115150589024	0.653720874335375
0.859559244956429	0.429481262846629	0	0	0.00560842824771979	-0.0337615017138514	0	0
0	0	0.630524562783028	0.597382845838125	0	0	0.0623949037849405	0.00987519056485858
2.7	-0.0252938516110984	-0.00118701813724391	0	0	0.44407428369375	-0.853765668610544	0	0
0	0	0.0212599262043361	-0.00961354582045632	0	0	-0.897584543227664	-0.174265808761351
0.44407428369375	-0.853765668610544	0	0	0.00326849602698151	-0.013273618405105	0	0
0	0	0.275945573840586	-0.835544779028617	0	0	-0.0275841952979902	-0.00115427881278741
2.8	0.0259329204457771	0.00893969913688199	0	0	0.843456392872323	0.45758527441216	0	0
0	0	0.00955647263344416	0.0124158856313432	0	0	-0.842403069518472	0.312546923559639
0.843456392872323	0.45758527441216	0	0	0.00409873201221662	0.063541669028047	0	0
0	0	0.871720338567597	-0.15011796063033	0	0	0.0259340515378033	-0.0639992578956832
2.9	-0.0229060642114344	-0.0167412078349457	0	0	0.473724593542444	-0.824475885554172	0	0
0	0	-0.000377121579466512	0.0362055867532628	0	0	0.567470683612704	-0.700830662457131
0.473724593542444	-0.824475885554172	0	0	-0.0536216049870627	0.0338038846657273	0	0
0	0	-0.515254214459942	-0.702823950178409	0	0	-0.0403846330119111	-0.0462796838639254
3	0.0171312909080829	0.0237514395040503	0	0	0.815753939807733	0.498029160476046	0	0
0	0	-0.0111535115350205	0.0289514333814341	0	0	0.0916900949073616	-0.92035720136341
0.815753939807733	0.498029160476046	0	0	-0.00698061464676393	-0.0179495115453149	0	0
0	0	0.406657514222153	-0.760780932257934	0	0	0.0134304124721677	0.0858413228896233
3.1	-0.00884929350688595	-0.0280570633417786	0	0	0.518891315476139	-0.805755074552047	0	0
0	0	-0.0202311112575381	0.0118798155503289	0	0	0.448269466818493	0.806719385080186
0.518891315476139	-0.805755074552047	0	0	0.0385701937578448	-0.0646626813018761	0	0
0	0	-0.869400341801417	-0.0501207329011543	0	0	-0.0755743879894458	0.00630600247566848
3.2	-0.000511290450667532	0.0297242255520468	0	0	0.804264531163028	0.5428469506636	0	0
0	0	-0.0176612075755913	-0.00625616718106315	0	0	0.798137167604538	0.437305810198591
0.804264531163028	0.5428469506636	0	0	0.000564577206711811	0.0252320717421808	0	0
0	0	-0.337403495777757	-0.814150571175452	0	0	-0.0593200339703767	0.00697176075075109
3.3	0.00966400850322811	-0.0274017635420446	0	0	0.554284043242318	-0.800242782063915	0	0
0	0	-0.00102789339175698	-0.0239267187073225	0	0	-0.905041394246941	0.0501938557564694
0.554284043242318	-0.800242782063915	0	0	0.0619993272367324	0.0243717353774661	0	0
0	0	-0.574888398271891	0.675540295124777	0	0	-0.0273631462859877	-0.106847101511757
3.4	-0.0173549044207461	0.0214224102514595	0	0	0.783545927330832	0.559134884583263	0	0
0	0	-0.00413635392599738	-0.0404185676783415	0	0	-0.732948355611054	0.543023527941545
0.783545927330832	0.559134884583263	0	0	-0.115094742083875	0.0087802360258231	0	0
0	0	-0.856803605853232	-0.222389336788543	0	0	-0.0195202284089157	-0.039732748486998
3.5	0.0226824590374739	-0.0136635271347625	0	0	0.573665763035513	-0.774433907013319	0	0
0	0	0.00810820851106508	-0.0301100282488543	0	0	0.297148872293941	-0.869077729574065
0.573665763035513	-0.774433907013319	0	0	-0.0121419989327481	-0.0536444850396285	0	0
0	0	0.167757162224805	0.843237116472277	0	0	0.0849942597780302	-0.0725693663916005
3.6	-0.0245795587841806	0.00490580119950018	0	0	0.767395884552288	0.583520029593673	0	0
0	0	0.0196356252170044	0.00269199064019171	0	0	-0.210052335558171	-0.894216627655168
0.767395884552288	0.583520029593673	0	0	-0.0342706871317594	0.0605126468289869	0	0
0	0	-0.692523105603344	0.520672732622694	0	0	0.0447300052678524	-0.0316315356076319
3.7	0.0225429053656647	0.00450367195869362	0	0	0.602358017359491	-0.747260075430224	0	0
0	0	0.0138464364614069	0.0365150101892328	0	0	0.639607990769559	0.648294439468985
0.602358017359491	-0.747260075430224	0	0	0.118427775475376	0.0072419183794358	0	0
0	0	0.770679618890332	0.408895842351644	0	0	0.0554043092228895	-0.0191385654470451
3.8	-0.0175229856754032	-0.0123466866647132	0	0	0.740866991691072	0.621004428424735	0	0
0	0	0.0150405509881942	0.0507168555245734	0	0	0.870707912900539	0.185786011121163
0.740866991691072	0.621004428424735	0	0	-0.0253237924382702	0.0208592306163909	0	0
0	0	-0.0152753473893849	0.870836759987454	0	0	-0.0583191417419456	-0.0251729370177673
3.9	0.0104263959289899	0.0171865829182623	0	0	0.625665036412903	-0.740002198196819	0	0
0	0	0.0108419038582061	0.0157669479836474	0	0	-0.823240188692203	0.32793338646931
0.625665036412903	-0.740002198196819	0	0	-0.0133381258414671	0.0832903089215505	0	0
0	0	0.782015223333927	-0.385740885717488	0	0	0.0247584254717507	-0.00569120774892966
4	-0.00177537503194637	-0.0186295081352019	0	0	0.72207990116448	0.633885165415899	0	0
0	0	-0.0170362500183727	-0.0122199508331691	0	0	-0.515000258339516	0.724411160686223
0.72207990116448	0.633885165415899	0	0	0.050835617348491	-0.0742804531578868	0	0
0	0	0.683883841135767	0.514977727379353	0	0	-0.00475439185107208	0.00960344428120314
4.1	-0.00625019964535882	0.0165831637771413	0	0	0.639489006543544	-0.709007257909075	0	0
0	0	-0.0418214884795336	-0.0354067365377446	0	0	0.0542509762743093	-0.890926840825369
0.639489006543544	-0.709007257909075	0	0	0.0248480499046859	-0.11179565601605	0	0
0	0	0.183027688327032	-0.827520981512108	0	0	0.0263561328562637	0.0817762304958572
4.2	0.0127214429192548	-0.0118388436647033	0	0	0.703970264153021	0.650963244100386	0	0
0	0	-0.0490922526944476	-0.0154601849924628	0	0	-0.433425293398816	-0.779449180972159
0.703970264153021	0.650963244100386	0	0	-0.0401039625171279	0.0164490770402321	0	0
0	0	0.830346711769324	-0.185023942961954	0	0	-0.0118150272957574	-0.0412262698175887
4.3	-0.0164392377077589	0.00487779675932845	0	0	0.659838657329438	-0.697256056857504	0	0
0	0	-0.00748758371213765	0.0066748619244114	0	0	0.77754131488166	0.422927523793683
0.659838657329438	-0.697256056857504	0	0	-0.010996782164806	0.0672897495780864	0	0
0	0	-0.534171864703409	-0.672351222118391	0	0	-0.0143956372310089	0.00240295428778685
4.4	0.0165120505074093	0.00334865771433946	0	0	0.680296042566836	0.669492336926001	0	0
0	0	0.0380389115165525	0.00429199680340677	0	0	0.887044612216805	-0.0539979521090372
0.680296042566836	0.669492336926001	0	0	0.00131212939105639	-0.0501126425171466	0	0
0	0	0.345168899798408	-0.771402823453591	0	0	-0.0335647271171494	0.00329075464462288
4.5	-0.0129475245149458	-0.0108411736858032	0	0	0.676257706914518	-0.662108121425682	0	0
0	0	0.0646791234807829	-0.00452458102306117	0	0	-0.721374798913266	0.52271745697894
0.676257706914518	-0.662108121425682	0	0	-0.0497596762450958	0.0264513000266278	0	0
0	0	-0.834279061617708	0.011465939918253	0	0	-0.0859687628072102	0.0619031897707586
4.6	0.00648968524495854	0.0165533164395259	0	0	0.644208178708142	0.691166328767443	0	0
0	0	0.0466638150198402	-0.0248881320824662	0	0	-0.312795850508545	0.843573702231689
0.644208178708142	0.691166328767443	0	0	-0.0038500860511849	0.0137403224352412	0	0
0	0	-0.371389830592171	-0.744027877416138	0	0	-0.0801958417514049	-0.00962375062619245
4.7	0.00153059302651798	-0.0192331525168436	0	0	0.708679641453514	-0.637476022643346	0	0
0	0	-0.0245647493023779	-0.00523418641151909	0	0	-0.190820252040865	-0.873345327374765
0.708679641453514	-0.637476022643346	0	0	0.0656150686371007	-0.0178290499634878	0	0
0	0	-0.524043584810351	0.655171676037312	0	0	-0.0732808841988684	0.0722009906216523
4.8	-0.0100510990572311	0.0183595009497655	0	0	0.637699412958511	0.724819741231449	0	0
0	0	-0.0587451293047753	0.034420256829898	0	0	-0.606795987123442	-0.634659868045902
0.637699412958511	0.724819741231449	0	0	0.0530104370737377	-0.0186226714237089	0	0
0	0	-0.827308951989507	-0.197146711261231	0	0	-0.00933134379919711	0.0718248195758103
4.9	0.0175753098153074	-0.0131867853425084	0	0	0.730855463385047	-0.629654820919157	0	0
0	0	-0.0399986466749275	0.0586627206001383	0	0	0.854213058401162	0.206885680216312
0.730855463385047	-0.629654820919157	0	0	-0.0808322886520305	-0.0292294417735099	0	0
0	0	0.199131488698462	0.821091403794464	0	0	-0.0837107730377487	0.00391662259896359
5	-0.0222564635786661	0.00507976669880173	0	0	0.61864618353848	0.726398305421946	0	0
0	0	-0.000720495638029446	0.020233734998032	0	0	0.830866848252431	-0.298436018819868
0.61864618353848	0.726398305421946	0	0	-0.0477205916150743	0.040477356811434	0	0
0	0	-0.644991483642484	0.53393079405789	0	0	0.041249027683496	-0.00903003453828351
5.1	0.0237068295517354	0.00479635476769672	0	0	0.727735383531546	-0.606071219690956	0	0
0	0	0.0379731172564078	-0.0337896982708863	0	0	-0.533087577528617	0.695529810271235
0.727735383531546	-0.606071219690956	0	0	-0.0218441531154236	-0.0416171404361222	0	0
0	0	0.749889753892321	0.344661054184851	0	0	0.0722889592454405	-0.0195796139373046
5.2	-0.0212441004585913	-0.0158863494143797	0	0	0.583774318136216	0.745576041992882	0	0
0	0	0.0155986943660554	-0.0747830119268524	0	0	-0.0786510369698805	0.871533850389436
0.583774318136216	0.745576041992882	0	0	0.0380147381510204	0.022315465383444	0	0
0	0	0.0152474309103683	0.832153829753571	0	0	0.0265453509985646	0.0665758162036015
5.3	0.0149320482051916	0.0255661267039272	0	0	0.764243230951756	-0.57169103095779	0	0
0	0	-0.0145481733581714	-0.0418483314853977	0	0	-0.411956807270803	-0.77083672381219
0.764243230951756	-0.57169103095779	0	0	-0.0323294471542593	0.024669973743125	0	0
0	0	0.742834801876401	-0.374017732379337	0	0	-0.0434796326984178	0.0121141071756549
5.4	-0.00586369202227231	-0.0316656413721826	0	0	0.563506233176021	0.76948783281021	0	0
0	0	-0.0314546182912668	0.0141749444418721	0	0	-0.766870899298636	-0.428544465420321
0.563506233176021	0.76948783281021	0	0	0.0701933944142979	0.0877745448909787	0	0
0	0	0.656989630061972	0.510083041790208	0	0	-0.00948997937938016	0.0220042637917955
5.5	-0.00492423366321145	0.0340727761291404	0	0	0.780509884025157	-0.560732407745498	0	0
0	0	0.023337073955553	0.0598033148050631	0	0	0.877262146218089	-0.043808259742982
0.780509884025157	-0.560732407745498	0	0	-0.0065965052362012	-0.0276401220895406	0	0
0	0	0.158278426618432	-0.816532252878737	0	0	0.0215387020124922	0.0386591216084075
5.6	0.0164836510308624	-0.0314386169610884	0	0	0.546665248630527	0.786344327843104	0	0
0	0	0.0426653828692369	0.0566549918403445	0	0	0.698640144439503	-0.507758034510319
0.546665248630527	0.786344327843104	0	0	0.00213958554459032	-0.109537294291767	0	0
0	0	0.799999250077901	-0.201360130188438	0	0	0.0108103610673034	0.117693990837277
5.7	-0.0273102542139288	0.0247915337199049	0	0	0.799801020108392	-0.538396881721666	0	0
0	0	0.0210699653721949	-0.00676552587311375	0	0	-0.318885161115208	0.80730556580943
0.799801020108392	-0.538396881721666	0	0	-0.012182917474609	0.0515655055851807	0	0
0	0	-0.535507422036233	-0.649681556360352	0	0	0.058557903335682	0.0348931884556154
5.8	0.0342400010756485	-0.0143194322212365	0	0	0.521150126105044	0.799916682538554	0	0
0	0	-0.0216088990128238	-0.0310293489605839	0	0	0.154595551423194	0.854299919588649
0.521150126105044	0.799916682538554	0	0	0.05905150308563	-0.0272964683353577	0	0
0	0	0.325096564323028	-0.771034890718959	0	0	0.0338632036092797	0.0559576445831013
5.9	-0.0373322567755595	0.00134974956118412	0	0	0.81396989360606	-0.498015464869303	0	0
0	0	-0.0558176534375483	-0.0264342362661614	0	0	-0.585223279509088	-0.638879579671982
0.81396989360606	-0.498015464869303	0	0	-0.0739761466813737	0.0433437492822618	0	0
0	0	-0.827822325909343	0.05897945630885	0	0	0.0373581684065853	0.0729928870853997
6	0.035860180748043	0.0115080816686498	0	0	0.482240468370252	0.827473727754375	0	0
0	0	-0.0338176263642189	0.00613558182342824	0	0	-0.84871265182673	-0.195678773794825
0.482240468370252	0.827473727754375	0	0	-0.00347497484983445	0.0240075976255024	0	0
