# GHZ S RI R 50
0.2	-0.0062869845252662	0.0100584583492538	0	0	0.957901485011687	0.0581670739181105	0	0
0	0	0.0207080092158896	0.00450191789900881	0	0	-0.370472055653397	0.911057683634013
0.957901485011687	0.0581670739181105	0	0	0.0209644884507151	0.0430533883125556	0	0
0	0	0.569646279588304	-0.753970222406772	0	0	0.00140631570797962	-0.0307609592898904
0.3	0.00683073038889731	-0.00975966419312941	0	0	0.0336849298934385	-0.965171450838209	0	0
0	0	-0.00510009446684189	0.00164027850061684	0	0	-0.134072202589232	-0.974217909376194
0.0336849298934385	-0.965171450838209	0	0	-0.014003910965269	0.00508607772038152	0	0
0	0	-0.921997271410181	-0.20231779926427	0	0	-0.0325950408667526	-0.0168214020807366
0.4	-0.0087721891346237	0.00786023525651203	0	0	0.948573302763137	0.062279855225498	0	0
0	0	-0.0394123501448383	0.000831225915760128	0	0	-0.666928588955094	-0.725984852979919
0.948573302763137	0.062279855225498	0	0	-0.0340851303937232	-0.013656540403104	0	0
0	0	-0.23492163352672	-0.895891860726595	0	0	0.0215934244890134	0.0201109239308854
0.5	0.0110923349015738	-0.00459307829411429	0	0	0.128132646974553	-0.948896530927245	0	0
0	0	-0.0331782759514517	0.00475951311236879	0	0	0.964003264422931	0.207586750070529
0.128132646974553	-0.948896530927245	0	0	0.0367817978309764	0.0167939061115761	0	0
0	0	-0.67900123496244	0.636420523084759	0	0	0.00510930379202406	0.00779875105755819
0.6	-0.0117436950670485	0.00171745868252235	0	0	0.955131924858252	0.131831232449957	0	0
0	0	-0.00869698796871466	0.00597345961571803	0	0	0.913080912111522	-0.329049405643174
0.955131924858252	0.131831232449957	0	0	0.00499905961700798	-0.0196758714578196	0	0
0	0	-0.861940661271216	-0.345402952649056	0	0	-0.00534103759121632	-0.00715185853680146
0.7	0.0113363969120826	0.00100273853488366	0	0	0.109692886726623	-0.957943625925998	0	0
0	0	0.022235828502022	-0.0111282614345919	0	0	-0.611939529036102	0.748293097277272
0.109692886726623	-0.957943625925998	0	0	0.00804487337809228	0.00983558438244767	0	0
0	0	0.0452894406392042	0.920806774550545	0	0	0.00229614545907853	-0.0129671538781363
0.8	-0.0100931565600297	-0.00426369469103235	0	0	0.955643646447215	0.114461205273637	0	0
0	0	0.0438635652970531	-0.0419695070981864	0	0	-0.121263383148442	0.96148250148686
0.955643646447215	0.114461205273637	0	0	-0.0226815965927776	0.0126980395270889	0	0
0	0	-0.812491459375078	0.448366423059592	0	0	0.00647681626498529	0.0834403261470312
0.9	0.00741272570257758	0.00713414979672185	0	0	0.1458959246636	-0.940805584770694	0	0
0	0	0.0130155754135011	-0.0278270061327556	0	0	-0.434400920638713	-0.86732678858084
0.1458959246636	-0.940805584770694	0	0	-0.00211637422411809	-0.0619514498614374	0	0
0	0	0.764600645745842	0.526216305921147	0	0	0.0361996762953455	0.0138138091617125
1	-0.00420939505070746	-0.00881279441037223	0	0	0.944008497958565	0.182526985013415	0	0
0	0	-0.0144650392865072	0.0117681404260498	0	0	-0.839362908601865	-0.482568761882839
0.944008497958565	0.182526985013415	0	0	0.00247060264930407	0.0423160358226277	0	0
0	0	-0.126995761424773	0.903905197470856	0	0	0.00300599239410939	0.00215655289633668
1.1	0.00096829186296749	0.0086446028420254	0	0	0.202255647896063	-0.951297148597797	0	0
0	0	-0.0115888915788086	0.0349836550101966	0	0	0.958262155373286	-0.0508301336500366
0.202255647896063	-0.951297148597797	0	0	0.00331411342428425	0.00215319523817012	0	0
0	0	0.870767786992659	-0.260519355004001	0	0	0.00846172811333381	0.0435029865235772
1.2	0.00168909759556868	-0.00682581768105579	0	0	0.961281849083035	0.203081393355683	0	0
0	0	0.00879947866781319	0.0645120196228727	0	0	0.772863288346242	-0.55595417807857
0.961281849083035	0.203081393355683	0	0	0.0537559581569701	-9.93430150762337E-05	0	0
0	0	0.61529803661328	0.673022622809372	0	0	0.00681937706124146	0.100732984015435
1.3	-0.00363708665566986	0.00349700561966874	0	0	0.20536128756389	-0.945209580137607	0	0
0	0	0.0162891454468351	0.0189362635922405	0	0	-0.355632152247619	0.88552846995681
0.20536128756389	-0.945209580137607	0	0	-0.0544439648416032	0.000988400962946962	0	0
0	0	0.3226053493717	-0.861494398878904	0	0	0.0403514497248917	0.0152300782362167
1.4	0.00434483979043879	0.000271117227213972	0	0	0.927112738060435	0.23332887369379	0	0
0	0	-0.0131675825502464	-0.0437566854439091	0	0	0.180726726360767	0.939600279910866
0.927112738060435	0.23332887369379	0	0	0.0173491774944004	0.0084536346614557	0	0
0	0	0.901009048916479	-0.0848985077661842	0	0	0.0446905373758609	-0.00586253117421061
1.5	-0.00345666621039556	-0.00334072439686478	0	0	0.270452212535678	-0.925194698948463	0	0
0	0	-0.0381877051563419	-0.056351423345586	0	0	-0.677122509031036	-0.676280317388856
0.270452212535678	-0.925194698948463	0	0	0.0332336182236877	-0.0327388927975675	0	0
0	0	-0.463461810252104	-0.768802110893692	0	0	0.0335330568124394	0.0529711314050782
1.6	0.00141870985362908	0.00507595138971149	0	0	0.939978773854347	0.293972855728794	0	0
0	0	-0.0363149888879596	-0.0196328719967703	0	0	-0.939261868768586	-0.182708411152105
0.939978773854347	0.293972855728794	0	0	-0.0516418507692506	-0.0266299435344492	0	0
0	0	0.497394395104739	-0.756412359996966	0	0	0.00125942598785452	0.0532947704121567
1.7	0.00127103487042957	-0.00506718713899982	0	0	0.288533150027588	-0.945271908697513	0	0
0	0	0.0154501189932897	0.00625782880847026	0	0	0.885805075675455	-0.345821100762304
0.288533150027588	-0.945271908697513	0	0	-0.000919251720950451	0.00537426222472988	0	0
0	0	-0.902260396490779	-0.109740318632407	0	0	0.0402163472762683	-0.0303496836755914
1.8	-0.00395434152724113	0.00327028747588232	0	0	0.919112652762484	0.2895228776359	0	0
0	0	0.0453287248562839	0.0379136700647262	0	0	0.57273105748417	-0.747909021257269
0.919112652762484	0.2895228776359	0	0	0.00679393181617151	0.0653421491157803	0	0
0	0	-0.312157125538085	-0.849797127128644	0	0	0.0277065873264761	-0.033952617030836
1.9	0.00595759297842726	-0.00010281307887345	0	0	0.318693102915351	-0.895369669624939	0	0
0	0	0.0527091005066661	-0.00392572060078408	0	0	-0.0817538572876203	0.942443319479472
0.318693102915351	-0.895369669624939	0	0	0.00971686435277506	0.00891435065968584	0	0
0	0	-0.614426496006286	0.647275145060484	0	0	0.041222823653885	0.0235925798190974
2	-0.00646741164125797	-0.00392113859608756	0	0	0.891935795394823	0.349083481787241	0	0
0	0	0.0151247810032973	-0.00515356322627046	0	0	0.458741501936307	0.832749328347338
0.891935795394823	0.349083481787241	0	0	-0.0500172902295017	-0.0331679766512626	0	0
0	0	-0.84510467648359	-0.262820735470386	0	0	-0.0530147577143019	-0.0210264908060258
2.1	0.00517002900477617	0.00804550187086916	0	0	0.36404902357918	-0.898453019849077	0	0
0	0	-0.0290609780757678	0.00771037317726697	0	0	-0.830754623992486	-0.451375399759462
0.36404902357918	-0.898453019849077	0	0	0.0705994597218652	0.0163127227966003	0	0
0	0	0.136234202492588	0.879341737534031	0	0	-0.00495768687200902	0.00977582320885203
2.2	-0.00167874583146629	-0.0116156950515919	0	0	0.898678553064113	0.376177660568157	0	0
0	0	-0.0479942153542729	0.0170939435239184	0	0	-0.932256232784328	0.0691714658684125
0.898678553064113	0.376177660568157	0	0	0.0146535687103438	-0.0108822832934794	0	0
0	0	-0.736910156180769	0.506574705162164	0	0	0.0426504297503887	-0.0112246910126114
2.3	-0.00356255977244847	0.0135915725855765	0	0	0.386238538334907	-0.889505946164432	0	0
0	0	-0.0302997385540525	0.0192300897614319	0	0	0.736729207645939	-0.5557253263217
0.386238538334907	-0.889505946164432	0	0	0.0580474635559799	-0.0288710694310645	0	0
0	0	0.776326629316666	0.432201747620601	0	0	0.0668892053814949	0.0466156485511678
2.4	0.0097504998069194	-0.0134194693961232	0	0	0.877942458944871	0.398371148677413	0	0
0	0	-0.000393574395214927	0.000974392756485729	0	0	0.324394854909686	-0.868131447115709
0.877942458944871	0.398371148677413	0	0	-0.0969076093285481	0.0137672279313557	0	0
0	0	-0.0392368762661404	0.882780355222666	0	0	0.0473077085835381	-0.0492092574546098
2.5	-0.0161554304996474	0.0106786950086614	0	0	0.415493218499972	-0.866584529703726	0	0
0	0	0.0194149199081443	-0.036063665061986	0	0	0.18941737192683	0.91798168563689
0.415493218499972	-0.866584529703726	0	0	-0.0101821130658117	-0.027210445574349	0	0
0	0	0.805354110962216	-0.332217809378643	0	0	0.0127631432009739	-0.000844544208226278
2.6	0.0215716474075027	-0.00571727769324383	0	0	0.859794706405398	0.429700196377149	0	0
0	0	0.0181818604290007	-0.0387877169427141	0	0	0.66751095184128	0.653960208038177
0.859794706405398	0.429700196377149	0	0	0.00549844115652045	-0.0336689042912803	0	0
0	0	0.630896328522828	0.597599179747803	0	0	0.0627852056641689	0.00996836654416639
2.7	-0.0251347798882977	-0.00108664843607392	0	0	0.444359323124442	-0.854123980250174	0	0
0	0	0.0213497248295641	-0.00956289963173402	0	0	-0.89819200976403	-0.17429477144999
0.444359323124442	-0.854123980250174	0	0	0.00317299118793251	-0.0131518171308485	0	0
0	0	0.276047391993311	-0.836121122269687	0	0	-0.027276573167071	-0.00112548593360851
2.8	0.0257141282359533	0.00882116450163213	0	0	0.843974124675638	0.45788309198236	0	0
0	0	0.00962613060223019	0.0125327660360185	0	0	-0.843044181826393	0.312935043824166
0.843974124675638	0.45788309198236	0	0	0.00402061892908728	0.0637638113690983	0	0
0	0	0.872410934429426	-0.150377612087022	0	0	0.0262904453101914	-0.0641427793927179
2.9	-0.0226509786387484	-0.0165780369411759	0	0	0.47399760799971	-0.825195328800982	0	0
0	0	-0.000394694769924891	0.0363689380467575	0	0	0.567857655046049	-0.701647693739256
0.47399760799971	-0.825195328800982	0	0	-0.0537594862722805	0.0340141258627386	0	0
0	0	-0.515922490865461	-0.703386697447292	0	0	-0.0401946617200105	-0.0464286193157673
3	0.0167846856918457	0.0235264275497734	0	0	0.816640007096916	0.498224935058099	0	0
0	0	-0.0112908503844495	0.0291261744691607	0	0	0.091444358440069	-0.921453015595923
0.816640007096916	0.498224935058099	0	0	-0.0070342886232488	-0.0178421422833719	0	0
0	0	0.406835740174742	-0.761813082279629	0	0	0.0137608368199796	0.0859065202777387
3.1	-0.00836133969630833	-0.0278414361035605	0	0	0.51897411831324	-0.806765222850323	0	0
0	0	-0.0204824487179026	0.0120204887868299	0	0	0.449277261694217	0.807481685040635
0.51897411831324	-0.806765222850323	0	0	0.0385723927936567	-0.0647008740280971	0	0
0	0	-0.870516916593348	-0.0497024414920862	0	0	-0.0756014834294203	0.00627586237929042
3.2	-0.00111138909775109	0.0296056797656565	0	0	0.805402479738641	0.542699752709873	0	0
0	0	-0.0179807610126744	-0.00620964227101606	0	0	0.799536620872109	0.437234467358727
0.805402479738641	0.542699752709873	0	0	0.00062668794931723	0.025348299517653	0	0
0	0	-0.338503330438768	-0.814945334645946	0	0	-0.059397802965093	0.00697305289379041
3.3	0.0102676537825027	-0.0274100561622884	0	0	0.553954527968332	-0.801426456240716	0	0
0	0	-0.00134662335222278	-0.0239964916826929	0	0	-0.906102181142587	0.0512242688752621
0.553954527968332	-0.801426456240716	0	0	0.0621734847548243	0.0243145316486044	0	0
0	0	-0.574873356530583	0.676987446438562	0	0	-0.0276586577025992	-0.107114871267059
3.4	-0.01788438229182	0.0214812657602559	0	0	0.784841658784925	0.558522194106232	0	0
0	0	-0.00437556108488177	-0.0406053106279864	0	0	-0.73306010585534	0.544614599759604
0.784841658784925	0.558522194106232	0	0	-0.115228029921745	0.00907484206126245	0	0
0	0	-0.858073059441497	-0.221503816223398	0	0	-0.0196837933625591	-0.0397732772182679
3.5	0.0231889582986124	-0.0136949581962431	0	0	0.572862950554736	-0.775694856775172	0	0
0	0	0.0080077517854288	-0.030381659936777	0	0	0.296073730667418	-0.870351630349477
0.572862950554736	-0.775694856775172	0	0	-0.0123166790178689	-0.0536895281545666	0	0
0	0	0.169226157872802	0.843763337882092	0	0	0.0849355305957517	-0.0729392020387368
3.6	-0.025127491461882	0.00494113548290492	0	0	0.768528720475655	0.582413947561059	0	0
0	0	0.0197053133740063	0.00238844639858419	0	0	-0.211738735337034	-0.89451600380692
0.768528720475655	0.582413947561059	0	0	-0.0341121905744355	0.0606393387414151	0	0
0	0	-0.692141795907504	0.522242646176031	0	0	0.0447162880724975	-0.0317976323863043
3.7	0.0231237928691707	0.00440737259277584	0	0	0.601169479077345	-0.748203639485936	0	0
0	0	0.0140671937201086	0.0362559239091289	0	0	0.641104293398817	0.647423250694753
0.601169479077345	-0.748203639485936	0	0	0.118431919156395	0.00686210576800941	0	0
0	0	0.771797073318869	0.407670068108377	0	0	0.0554259638222722	-0.019348475420532
3.8	-0.0180532733853886	-0.0121482052941043	0	0	0.741697075211987	0.619613245055699	0	0
0	0	0.0153186917899145	0.0505556821793947	0	0	0.871209894533242	0.184206280238245
0.741697075211987	0.619613245055699	0	0	-0.0252482839743224	0.020952389298529	0	0
0	0	-0.013664489930747	0.871022815738777	0	0	-0.0584032895100575	-0.0249811329149823
3.9	0.0108141935119164	0.0169604709549955	0	0	0.624175882037837	-0.740623788635671	0	0
0	0	0.0111005735101559	0.0157294202452972	0	0	-0.822500177159824	0.32937103387056
0.624175882037837	-0.740623788635671	0	0	-0.0130518873422678	0.0832828435336892	0	0
0	0	0.78117745326021	-0.387093519180153	0	0	0.0247374484826588	-0.00582251083153871
4	-0.00206163088460966	-0.0185069283117631	0	0	0.722580252615385	0.632382206472	0	0
0	0	-0.0168665481657204	-0.0121265269478864	0	0	-0.513587205004091	0.724923828027849
0.722580252615385	0.632382206472	0	0	0.0505678871613036	-0.0743070036643094	0	0
0	0	0.684414752259055	0.513630741718734	0	0	-0.00473944314753225	0.00954994760527773
4.1	-0.00595509993687461	0.0165680985455175	0	0	0.637959564468001	-0.709303770125815	0	0
0	0	-0.0417867703055194	-0.0352186740526042	0	0	0.052967397115951	-0.890451063355246
0.637959564468001	-0.709303770125815	0	0	0.0245315109500651	-0.111652643690786	0	0
0	0	0.181753296011232	-0.827265155410919	0	0	0.0265027598273904	0.0815407175477267
4.2	0.0123716821635673	-0.0118462075975313	0	0	0.704026372640097	0.64942087250015	0	0
0	0	-0.0491881419395528	-0.0152577581933626	0	0	-0.433998944195383	-0.778378528322498
0.704026372640097	0.64942087250015	0	0	-0.0399385577146395	0.0165137562938024	0	0
0	0	0.829523127926311	-0.185838870685662	0	0	-0.0119529019547103	-0.0411720069540057
4.3	-0.0161042637330426	0.00485555015549691	0	0	0.658426095423148	-0.697094049628657	0	0
0	0	-0.00766577647560538	0.00680856630683759	0	0	0.777340337867091	0.421871908480305
0.658426095423148	-0.697094049628657	0	0	-0.0108186121162118	0.0671383337565887	0	0
0	0	-0.534392369888298	-0.671332286097115	0	0	-0.0143994234758039	0.00242928632866419
4.4	0.0162636070195666	0.00333620286263318	0	0	0.680062328496564	0.668308507387518	0	0
0	0	0.0378567494907809	0.00429951363922409	0	0	0.886312611684985	-0.0545982106069645
0.680062328496564	0.668308507387518	0	0	0.00122289111266404	-0.0500288088221542	0	0
0	0	0.344340595056275	-0.771050248230865	0	0	-0.0334745884312727	0.00336743000514273
4.5	-0.0127523728092761	-0.0107023355761528	0	0	0.675254407852393	-0.661874437167917	0	0
0	0	0.0645709192066065	-0.00466304977131866	0	0	-0.720593600285377	0.522695438381119
0.675254407852393	-0.661874437167917	0	0	-0.0496985776057235	0.0264684980734608	0	0
0	0	-0.833668880198373	0.0118702036231161	0	0	-0.0856615300113779	0.0619235375987371
4.6	0.00624390659129204	0.016271578178097	0	0	0.644023996650808	0.690322109672661	0	0
0	0	0.0466828618519819	-0.0251380592349252	0	0	-0.312345830836626	0.843145404904022
0.644023996650808	0.690322109672661	0	0	-0.00393100909351863	0.0137853965598319	0	0
0	0	-0.371385275152963	-0.743453685787098	0	0	-0.0799148109746194	-0.00958945764195464
4.7	0.00190245708699696	-0.0188875988467482	0	0	0.70797491025494	-0.637342114632228	0	0
0	0	-0.0243914953237448	-0.00551175078289444	0	0	-0.190910706949308	-0.872960136296365
0.70797491025494	-0.637342114632228	0	0	0.0654176470406607	-0.0177398964987371	0	0
0	0	-0.523709277825691	0.655010031586494	0	0	-0.0729657121483031	0.0720589628214382
4.8	-0.010519497987568	0.0180461343879161	0	0	0.637699159342735	0.724226503109932	0	0
0	0	-0.0584465073088973	0.0342371741862538	0	0	-0.606803508255541	-0.634394376811126
0.637699159342735	0.724226503109932	0	0	0.0528634389222861	-0.0184682497528761	0	0
0	0	-0.827175459585852	-0.196926804998504	0	0	-0.00908016493624941	0.0716184967172581
4.9	0.0180413394403271	-0.0128946347849352	0	0	0.730313402932412	-0.6299204550429	0	0
0	0	-0.0396520305532857	0.0586417799241154	0	0	0.854176585472649	0.206666981481674
0.730313402932412	-0.6299204550429	0	0	-0.0808703788960445	-0.0289133633067924	0	0
0	0	0.1993023443027	0.820963982433361	0	0	-0.0835047402811903	0.00372455306131389
5	-0.0227299007305415	0.0047467008533421	0	0	0.619105155933012	0.725795610855071	0	0
0	0	-0.000396659724454058	0.0204190889008372	0	0	0.830765163847192	-0.298747841936746
0.619105155933012	0.725795610855071	0	0	-0.047653025809328	0.0407640450851447	0	0
0	0	-0.644800304264637	0.534176183114692	0	0	0.041386086463168	-0.00933196534512691
5.1	0.0242746141045786	0.00515054379651594	0	0	0.727053765004418	-0.606719976073108	0	0
0	0	0.0381980756366658	-0.0334257055647056	0	0	-0.532786756897816	0.695886788776831
0.727053765004418	-0.606719976073108	0	0	-0.0218805022577998	-0.0413330205539558	0	0
0	0	0.750154925551076	0.344310378434259	0	0	0.0723588217105068	-0.0199534925441258
5.2	-0.0218967742593249	-0.0161717421545573	0	0	0.584498117428573	0.744696455082164	0	0
0	0	0.015675973839079	-0.0743244402540734	0	0	-0.0780474248535909	0.871793302023503
0.584498117428573	0.744696455082164	0	0	0.0381451994802276	0.0224147754755749	0	0
0	0	0.0158448457926451	0.832337084639773	0	0	0.02662364210962	0.0662767551031247
5.3	0.0155608659425985	0.025727601113893	0	0	0.763151545493511	-0.572539159150222	0	0
0	0	-0.0146332271561603	-0.0414305011895786	0	0	-0.412738709780107	-0.770580709679058
0.763151545493511	-0.572539159150222	0	0	-0.0320982290733027	0.0248760450621311	0	0
0	0	0.742609386422319	-0.374767478704411	0	0	-0.0435875983304231	0.0119644510616693
5.4	-0.00635652288137778	-0.0317875098142957	0	0	0.564342657068725	0.768215882628181	0	0
0	0	-0.0316875897434809	0.0144321671268141	0	0	-0.767353597838363	-0.427631426046722
0.564342657068725	0.768215882628181	0	0	0.070526625979339	0.0875276847202206	0	0
0	0	0.657571168053723	0.509296917358294	0	0	-0.00959154591871765	0.0218754749620759
5.5	-0.00451056624277989	0.0342994041255868	0	0	0.77900823206364	-0.561675175444609	0	0
0	0	0.0230202476693664	0.0598266755937348	0	0	0.876946194254675	-0.0449522217461938
0.77900823206364	-0.561675175444609	0	0	-0.00657119613272693	-0.0275607996631164	0	0
0	0	0.157155074898558	-0.816500667816883	0	0	0.0215027614871443	0.0384927983126877
5.6	0.0160131760346825	-0.0317874870302401	0	0	0.547589131382392	0.784614548325888	0	0
0	0	0.0423557160890631	0.0564415492184689	0	0	0.697580082394562	-0.508429232912959
0.547589131382392	0.784614548325888	0	0	0.00181083415308473	-0.109301138412507	0	0
0	0	0.799298578612738	-0.202332412644172	0	0	0.011045231515764	0.117440975393397
5.7	-0.0267015513592446	0.0251383875381042	0	0	0.797663376273751	-0.53915978635868	0	0
0	0	0.0208368773977091	-0.00716940520099716	0	0	-0.317519028456447	0.807039863577243
0.797663376273751	-0.53915978635868	0	0	-0.0118655175238825	0.0515393343090477	0	0
0	0	-0.535923283400484	-0.648397274319929	0	0	0.0585040785857737	0.0345074617850427
5.8	0.0335825856719988	-0.0145156087873203	0	0	0.521659122610456	0.797642511011419	0	0
0	0	-0.0217074185947289	-0.0314877152633878	0	0	0.15550121006521	0.85313295610576
0.521659122610456	0.797642511011419	0	0	0.0589127618996768	-0.0272885188051936	0	0
0	0	0.323750937311091	-0.770569813888676	0	0	0.0338091572004845	0.0554895773652627
5.9	-0.0367891998286929	0.00140928132251948	0	0	0.811463789338705	-0.49829437158766	0	0
0	0	-0.0557664847604511	-0.0268160515677658	0	0	-0.585098673143689	-0.637305862816452
0.811463789338705	-0.49829437158766	0	0	-0.0732587560541956	0.0435207231130954	0	0
0	0	-0.826567025201904	0.0598225922024325	0	0	0.0371421100264704	0.0724137678764271
6	0.0355247734180483	0.0114586044897866	0	0	0.482228469800455	0.824931702055515	0	0
0	0	-0.0336503666981673	0.00593329690272888	0	0	-0.847433256330213	-0.194652386235385
0.482228469800455	0.824931702055515	0	0	-0.00301994769969468	0.0239486980266367	0	0
