# GHZ S RI R 50
0.2	-0.00668260265007127	0.0106725233222116	0	0	0.957856970292597	0.0581887525829795	0	0
0	0	0.0199798129889509	0.00454161179227753	0	0	-0.370483859641754	0.911044538921967
0.957856970292597	0.0581887525829795	0	0	0.0214212045264178	0.0421719851874262	0	0
0	0	0.569653980771481	-0.753955095212711	0	0	0.00184233606543698	-0.0316642797226885
0.3	0.00691132948976428	-0.0101236860113464	0	0	0.0337204716342836	-0.965163977447992	0	0
0	0	-0.00545197364978175	0.00153991953618004	0	0	-0.134049044600988	-0.974194833282058
0.0337204716342836	-0.965163977447992	0	0	-0.0138852119140484	0.00430737316500163	0	0
0	0	-0.921968805450284	-0.20233100616948	0	0	-0.0325143822005156	-0.0176164241463084
0.4	-0.00881976802876508	0.00787557123529357	0	0	0.948569970772083	0.0623405283946983	0	0
0	0	-0.0394043850837729	0.000784171544276116	0	0	-0.666864423175275	-0.726010713760552
0.948569970772083	0.0623405283946983	0	0	-0.0341896871273365	-0.0142400171406878	0	0
0	0	-0.234856985462525	-0.895885148122113	0	0	0.0214366134320371	0.0195334017286562
0.5	0.0112899637861182	-0.00433365904523979	0	0	0.128208178489796	-0.948888924214403	0	0
0	0	-0.032869682300333	0.00482721959945203	0	0	0.963994671848493	0.207678131070866
0.128208178489796	-0.948888924214403	0	0	0.0365928031447256	0.0164579203701138	0	0
0	0	-0.679067519199804	0.636364759192823	0	0	0.00488365989291583	0.00747138657329268
0.6	-0.0122257893332732	0.00138635622229353	0	0	0.955141729824593	0.131963702689945	0	0
0	0	-0.00821255511795886	0.00623096987445809	0	0	0.913172950279519	-0.32896568849207
0.955141729824593	0.131963702689945	0	0	0.00487533505363288	-0.0198220076933512	0	0
0	0	-0.861953218435019	-0.345521322662637	0	0	-0.00548933955326724	-0.00728556271758712
0.7	0.0120554050267888	0.0011355729529034	0	0	0.109837897363788	-0.958002203759345	0	0
0	0	0.0227370528333011	-0.0106729481870007	0	0	-0.612086854332727	0.748306260334487
0.109837897363788	-0.958002203759345	0	0	0.00805871527129704	0.00978392027883114	0	0
0	0	0.0451935880896273	0.920910275274758	0	0	0.00230685226968433	-0.0130280228333865
0.8	-0.0108237105843274	-0.00412489790858297	0	0	0.955785806357155	0.114611924234993	0	0
0	0	0.0442795334767274	-0.0414107210796238	0	0	-0.121295025574635	0.961606982094402
0.955785806357155	0.114611924234993	0	0	-0.0225256517288197	0.0125966677057882	0	0
0	0	-0.812605641204225	0.44841213351096	0	0	0.00662172343796576	0.0833356040859858
0.9	0.00795169300595721	0.00684900750670358	0	0	0.146077568427594	-0.941028652099848	0	0
0	0	0.0132839628592029	-0.0273083397861124	0	0	-0.434422840449585	-0.867494614733531
0.146077568427594	-0.941028652099848	0	0	-0.00185901135235933	-0.0622357250694848	0	0
0	0	0.764696523291222	0.526346824489158	0	0	0.0364016347101068	0.013520483862393
1	-0.00450278875736261	-0.00856311341851405	0	0	0.944262253612225	0.182622107103333	0	0
0	0	-0.0143764559443907	0.0121104362965607	0	0	-0.839540341890366	-0.482697542895049
0.944262253612225	0.182622107103333	0	0	0.00264877000211948	0.0418897693290654	0	0
0	0	-0.127046024565128	0.904105687212832	0	0	0.00308577647181601	0.00166999002760643
1.1	0.00109496219990948	0.00862265369830788	0	0	0.20227882786468	-0.95161230464984	0	0
0	0	-0.0116535160976555	0.0350529959244761	0	0	0.958519477623825	-0.0508601731376707
0.20227882786468	-0.95161230464984	0	0	0.00330043144074882	0.00155599139231977	0	0
0	0	0.870997958762402	-0.260604399773922	0	0	0.00830443939414368	0.0429447858423423
1.2	0.00149906672619244	-0.00708757995157806	0	0	0.961597048728481	0.202991730971908	0	0
0	0	0.00867696273785129	0.0642787962447344	0	0	0.773075079633675	-0.556216505076864
0.961597048728481	0.202991730971908	0	0	0.0535177955496423	-0.000740145281287876	0	0
0	0	0.615571266529033	0.673194754615541	0	0	0.0064077711024811	0.100270941576965
1.3	-0.00326165559220205	0.0038643081310822	0	0	0.20520979433179	-0.945542366078817	0	0
0	0	0.0162268620424374	0.0184811562615926	0	0	-0.355591876152631	0.885886471373672
0.20520979433179	-0.945542366078817	0	0	-0.0549301759385806	0.000463046911780361	0	0
0	0	0.322558396637227	-0.861838500291058	0	0	0.0397846082153715	0.014841364584238
1.4	0.00388060838995495	-9.75864934883893E-05	0	0	0.927390320435323	0.233077149574831	0	0
0	0	-0.0130384506716266	-0.0442664769656105	0	0	0.181029243879381	0.939836535393123
0.927390320435323	0.233077149574831	0	0	0.0168434716531568	0.00797296532427995	0	0
0	0	0.901258925758547	-0.085161885013552	0	0	0.0440720448338676	-0.00616504181121463
1.5	-0.00290135700864295	-0.00295307860222107	0	0	0.27014812160634	-0.925414234467009	0	0
0	0	-0.0378359226052361	-0.0568184893390861	0	0	-0.677572623249098	-0.676207836947349
0.27014812160634	-0.925414234467009	0	0	0.0326613565695948	-0.0331577471764345	0	0
0	0	-0.463887966109648	-0.768837933108003	0	0	0.032939187325669	0.0528057938258571
1.6	0.000695442349069752	0.00476100995038088	0	0	0.940201470037454	0.293612952141807	0	0
0	0	-0.035774288102913	-0.0200176467173326	0	0	-0.939561351066151	-0.182305904026358
0.940201470037454	0.293612952141807	0	0	-0.0522458487315051	-0.0268201899263912	0	0
0	0	0.497149719129177	-0.756819096984688	0	0	0.000699620480551499	0.0533154830184423
1.7	0.00206580773625227	-0.00498179336201685	0	0	0.288101215372114	-0.945369010421363	0	0
0	0	0.0160732731425794	0.00602184424375114	0	0	0.88572323532223	-0.346273958534272
0.288101215372114	-0.945369010421363	0	0	-0.00143342441612366	0.00532660708031971	0	0
0	0	-0.902396443473598	-0.109322022423581	0	0	0.0397075207535035	-0.0302390214895671
1.8	-0.00461808137543759	0.00336310750548208	0	0	0.919103927134107	0.289044695280473	0	0
0	0	0.045903583025115	0.037868896047697	0	0	0.572348444005969	-0.748191202578343
0.919103927134107	0.289044695280473	0	0	0.00645255018896118	0.0654026128694831	0	0
0	0	-0.312583085626653	-0.849631867441703	0	0	0.0273516485172164	-0.0337456280610729
1.9	0.00645589317202851	-0.000204486202455352	0	0	0.318242451555258	-0.895308011052676	0	0
0	0	0.0531238787892883	-0.00379066041947689	0	0	-0.0812546989791168	0.942347829976481
0.318242451555258	-0.895308011052676	0	0	0.00946245696948215	0.00903258865569918	0	0
0	0	-0.614002070150189	0.647498171383648	0	0	0.04106636690028	0.0237652417356116
2	-0.00687614740853708	-0.00391114897686372	0	0	0.891822271012664	0.348629512200109	0	0
0	0	0.0153110510284718	-0.00488796386374882	0	0	0.459037659763154	0.832368767936193
0.891822271012664	0.348629512200109	0	0	-0.0501711298650271	-0.0330083379310446	0	0
0	0	-0.845057873052897	-0.262374293538595	0	0	-0.0531025679007565	-0.0208140028328917
2.1	0.00560887157061767	0.00813435649601482	0	0	0.363605299993374	-0.898177983672034	0	0
0	0	-0.029129772276464	0.00804391092019205	0	0	-0.83069120534961	-0.450912155860099
0.363605299993374	-0.898177983672034	0	0	0.0704195617330809	0.0162980233669761	0	0
0	0	0.136544723170099	0.87902992738965	0	0	-0.00503694888229283	0.00987019960046504
2.2	-0.00222165526662156	-0.0117109590206814	0	0	0.898335225715371	0.375798624231081	0	0
0	0	-0.0482791500481801	0.01741309216975	0	0	-0.931896587183996	0.0694338810237314
0.898335225715371	0.375798624231081	0	0	0.0144625854865019	-0.0108567407549316	0	0
0	0	-0.73648650138503	0.506618141559758	0	0	0.0424824657891572	-0.0111464488194026
2.3	-0.00297241922984336	0.0135761800632579	0	0	0.385969003478496	-0.889081747359711	0	0
0	0	-0.0306981470550298	0.0194737414533929	0	0	0.736283055624774	-0.555674128832644
0.385969003478496	-0.889081747359711	0	0	0.0577479138485033	-0.028786080178124	0	0
0	0	0.77610774265358	0.431828852709831	0	0	0.0667030393905469	0.0467110443186122
2.4	0.00924468957572275	-0.0132785259650805	0	0	0.877553706156679	0.39812274760879	0	0
0	0	-0.00079641561727828	0.00111531430172014	0	0	0.324169849567456	-0.867831746724606
0.877553706156679	0.39812274760879	0	0	-0.0970764983971108	0.0139327886035894	0	0
0	0	-0.0391208132077184	0.882442397908906	0	0	0.0471356485682102	-0.0489192866734678
2.5	-0.0158174965137746	0.0105221615935547	0	0	0.415367704334753	-0.86617593389037	0	0
0	0	0.0191124073697996	-0.0360370854095959	0	0	0.189394154321604	0.917629929359561
0.415367704334753	-0.86617593389037	0	0	-0.0104048379594439	-0.0269009428450874	0	0
0	0	0.805036947689574	-0.33213558349167	0	0	0.0127179013281684	-0.000506717304017554
2.6	0.0213567420959402	-0.00566368256950434	0	0	0.859399123403764	0.429644021096218	0	0
0	0	0.0180426095079854	-0.0388382713883978	0	0	0.667272279681084	0.653772129937259
0.859399123403764	0.429644021096218	0	0	0.0053366987536248	-0.0332774934332813	0	0
0	0	0.630671464667965	0.59742804239093	0	0	0.062806913910716	0.0103236835348103
2.7	-0.02493502319631	-0.00101688377543871	0	0	0.44435556261114	-0.853757709431702	0	0
0	0	0.0213656434894093	-0.0096363385491699	0	0	-0.897964954064307	-0.17431902031905
0.44435556261114	-0.853757709431702	0	0	0.00307970893000477	-0.0127544708219432	0	0
0	0	0.276042816472453	-0.835901417136183	0	0	-0.027130973224107	-0.000794742217946461
2.8	0.0254928271488543	0.00868535599661173	0	0	0.843664626426543	0.457899698347958	0	0
0	0	0.00973219519885721	0.0125024506982553	0	0	-0.842932708402576	0.312798899450288
0.843664626426543	0.457899698347958	0	0	0.00395581981444648	0.0641111333421272	0	0
0	0	0.872278440880261	-0.150266022356611	0	0	0.0264659165294292	-0.0638222575741678
2.9	-0.0224436811550018	-0.0163881812001386	0	0	0.474032623221832	-0.824977875477438	0	0
0	0	-0.000287617474573961	0.0364488789636985	0	0	0.567874878004864	-0.701528849509436
0.474032623221832	-0.824977875477438	0	0	-0.0537412918062633	0.0343391027108804	0	0
0	0	-0.515807189232978	-0.703373538662746	0	0	-0.0399846198596802	-0.0461885181062062
3	0.0165804357494474	0.023229155239643	0	0	0.816472197610183	0.498245017594636	0	0
0	0	-0.0112611765534322	0.0293458358419292	0	0	0.0914849997475349	-0.921442779638202
0.816472197610183	0.498245017594636	0	0	-0.00696528547798921	-0.0175355628582258	0	0
0	0	0.406867132501378	-0.761789791266278	0	0	0.0139559085608393	0.0860743664065659
3.1	-0.00808632734242962	-0.0274247853108948	0	0	0.518955612164555	-0.806617252023774	0	0
0	0	-0.0205806699909824	0.0123592693452458	0	0	0.449281864142605	0.807549246382644
0.518955612164555	-0.806617252023774	0	0	0.0386713594838161	-0.0644699906309392	0	0
0	0	-0.870573091849141	-0.0497328938483361	0	0	-0.0754284166234661	0.00635543041216392
3.2	-0.00152575703877103	0.0291249707347355	0	0	0.805320386701958	0.54257516029229	0	0
0	0	-0.0182366326493753	-0.00582712535407643	0	0	0.79964416162523	0.437230656791581
0.805320386701958	0.54257516029229	0	0	0.000736936385803152	0.0254546937651473	0	0
0	0	-0.338586833296046	-0.815007670273498	0	0	-0.059277996086627	0.00699683958453911
3.3	0.0107993580648162	-0.0269794793442451	0	0	0.553751686120173	-0.801314438656567	0	0
0	0	-0.00172548847672455	-0.0236757941166518	0	0	-0.906149870655345	0.051313687463337
0.553751686120173	-0.801314438656567	0	0	0.0622218043366013	0.0243201115320371	0	0
0	0	-0.574842125827898	0.677081574161481	0	0	-0.0276343610567767	-0.107137424217392
3.4	-0.018428745047367	0.0211349221827347	0	0	0.784849681810491	0.558245164556173	0	0
0	0	-0.00481668585089924	-0.040446427847757	0	0	-0.732950466626607	0.544780643378645
0.784849681810491	0.558245164556173	0	0	-0.115173518326727	0.00910487456267281	0	0
0	0	-0.858131595297969	-0.221319815510944	0	0	-0.0197077098396971	-0.0397765004976384
3.5	0.0237053211382937	-0.0133617829215228	0	0	0.572530382419819	-0.775608315502044	0	0
0	0	0.00759339518644178	-0.0304439183635272	0	0	0.295812669575081	-0.870320582724722
0.572530382419819	-0.775608315502044	0	0	-0.0123773538827027	-0.0536667253704325	0	0
0	0	0.169422930337759	0.843615542018429	0	0	0.0848446881366851	-0.0729565564348577
3.6	-0.0256579955766307	0.00457318336138062	0	0	0.7683822639516	0.58191475084585	0	0
0	0	0.0193767198469164	0.00208155545708872	0	0	-0.211974852784452	-0.894269280362219
0.7683822639516	0.58191475084585	0	0	-0.0340989595218012	0.0606143855478903	0	0
0	0	-0.691839146570551	0.522352940275759	0	0	0.0446530867320007	-0.0317810633570842
3.7	0.0237127941089182	0.00479708432893977	0	0	0.600652011500829	-0.747855789720752	0	0
0	0	0.0139013595779787	0.0357638500646404	0	0	0.641103732993495	0.6469993208562
0.600652011500829	-0.747855789720752	0	0	0.118262024081768	0.00683061296515867	0	0
0	0	0.77167486207267	0.407282777195769	0	0	0.0553753937377302	-0.0193384663295367
3.8	-0.0187165500336434	-0.0124750147577604	0	0	0.741342595809608	0.619041923984523	0	0
0	0	0.0153036086285584	0.0500174614212354	0	0	0.870921238296487	0.18386456918338
0.741342595809608	0.619041923984523	0	0	-0.0252074628158622	0.0209738365670723	0	0
0	0	-0.013390461834366	0.870681641288115	0	0	-0.0583498949756411	-0.0249032162731499
3.9	0.0114635521650248	0.0171647778849648	0	0	0.623568524153888	-0.740131479856804	0	0
0	0	0.0112113036635666	0.0152552270084347	0	0	-0.821932898595839	0.329352007288521
0.623568524153888	-0.740131479856804	0	0	-0.0129754148934528	0.0831932261481212	0	0
0	0	0.780622477691771	-0.387030710542099	0	0	0.0247414717382966	-0.00582877979326999
4	-0.00260119830709133	-0.0186686608534578	0	0	0.721996636872222	0.631895246922584	0	0
0	0	-0.0166521473230124	-0.0124302969770563	0	0	-0.513159715977574	0.72445410782747
0.721996636872222	0.631895246922584	0	0	0.0505492314909429	-0.0741687246036245	0	0
0	0	0.683973780400411	0.513206745410623	0	0	-0.0046892886700076	0.0095101035070243
4.1	-0.00549663489589845	0.0167693277639658	0	0	0.637511514812113	-0.708621086803093	0	0
0	0	-0.0415107520896047	-0.0352942259405923	0	0	0.052991087069809	-0.889740978108676
0.637511514812113	-0.708621086803093	0	0	0.0245902449981455	-0.111459663404339	0	0
0	0	0.181670189803562	-0.82659567849851	0	0	0.02648166292011	0.0813704921695919
4.2	0.0119099089944238	-0.0121001094414136	0	0	0.703226696903427	0.6489687248009	0	0
0	0	-0.0489245461492373	-0.0151297834220337	0	0	-0.433447558409325	-0.777903625413743
0.703226696903427	0.6489687248009	0	0	-0.0398092978805458	0.0164328241206119	0	0
0	0	0.828939308983612	-0.185463390290592	0	0	-0.0118997439557374	-0.0411658595917885
4.3	-0.0156172892093569	0.0050996551821094	0	0	0.658073274568872	-0.696163681239698	0	0
0	0	-0.00747317340317087	0.00705645822085269	0	0	0.776577890139253	0.421886641039229
0.658073274568872	-0.696163681239698	0	0	-0.0108297951588604	0.0669668141339008	0	0
0	0	-0.533705837601824	-0.671056532849326	0	0	-0.0143893311659888	0.00238777212581749
4.4	0.0158175235253602	0.00313357182081212	0	0	0.679094804901547	0.668168943426593	0	0
0	0	0.0379481926485453	0.00455202327404114	0	0	0.885722195157651	-0.0540479764283685
0.679094804901547	0.668168943426593	0	0	0.00124228487712403	-0.0499448112387226	0	0
0	0	0.344544308304932	-0.770310293564508	0	0	-0.033448698096292	0.0033492496404153
4.5	-0.0124064633708271	-0.010500118507263	0	0	0.675226142782305	-0.66091886261601	0	0
0	0	0.0645545867009811	-0.00450369281922178	0	0	-0.720517921281606	0.521847903940624
0.675226142782305	-0.66091886261601	0	0	-0.0497484276959122	0.0264342925448918	0	0
0	0	-0.833154030727115	0.0112618830064018	0	0	-0.0856379684265471	0.0618043997286576
4.6	0.00598075867487387	0.0159865555997168	0	0	0.643083184152282	0.69043345418938	0	0
0	0	0.0465987814775439	-0.0251298808370774	0	0	-0.312937415397384	0.842452163285063
0.643083184152282	0.69043345418938	0	0	-0.00403861287009722	0.0139351405476753	0	0
0	0	-0.370543840521307	-0.74341470242674	0	0	-0.0797622268667991	-0.00959354618226287
4.7	0.00216188848023517	-0.0184905396638914	0	0	0.70822112265465	-0.636409326202397	0	0
0	0	-0.0244907239343048	-0.00566154737110957	0	0	-0.190004230770059	-0.872869543689646
0.70822112265465	-0.636409326202397	0	0	0.0653410307155547	-0.017356203021545	0	0
0	0	-0.524178835253013	0.654295551549046	0	0	-0.0729399068463246	0.0720043011834654
4.8	-0.0108346369247101	0.0175854943620206	0	0	0.636837891823479	0.724604086409784	0	0
0	0	-0.0584870039536643	0.0339890821819561	0	0	-0.606078264503605	-0.634892786786272
0.636837891823479	0.724604086409784	0	0	0.0528721876460571	-0.018065304767903	0	0
0	0	-0.826847636304686	-0.197713586563755	0	0	-0.00905728935113195	0.0716877754926316
4.9	0.0183786112027337	-0.01243473050358	0	0	0.73080491176685	-0.629258824908262	0	0
0	0	-0.0395878372145731	0.0583965031326579	0	0	0.853973903933455	0.207536519660795
0.73080491176685	-0.629258824908262	0	0	-0.080737306202215	-0.0287409158608712	0	0
0	0	0.198470005782023	0.821173451585463	0	0	-0.0833174722204193	0.00363411703442508
5	-0.0230398085149095	0.00427645540461736	0	0	0.618584909189031	0.726290732123255	0	0
0	0	-0.000192466468966849	0.0202668433979477	0	0	0.831150326056895	-0.29796229195769
0.618584909189031	0.726290732123255	0	0	-0.0475894789146208	0.0409933695468989	0	0
0	0	-0.645396994990978	0.533599559932327	0	0	0.0416249945826147	-0.0092109454794952
5.1	0.0245861926877496	0.00569016706512391	0	0	0.727582499791593	-0.606316877179679	0	0
0	0	0.0385289700968528	-0.0334299253697691	0	0	-0.533554919206942	0.695555320923166
0.727582499791593	-0.606316877179679	0	0	-0.0216350047238108	-0.0411078767810356	0	0
0	0	0.750010574880921	0.345084959950726	0	0	0.0726454794959207	-0.0198357014764728
5.2	-0.0222672807533448	-0.0167773729174302	0	0	0.584149268678145	0.745127087943257	0	0
0	0	0.0160775451342085	-0.0741783156645971	0	0	-0.0787632321297089	0.872064746889523
0.584149268678145	0.745127087943257	0	0	0.0383826867193519	0.0226546637424841	0	0
0	0	0.0151959353871171	0.832667347869843	0	0	0.0267258831606542	0.066305498160146
5.3	0.0160158687056093	0.0263148452415362	0	0	0.763538743375697	-0.572310239865839	0	0
0	0	-0.0142615138949392	-0.0411827898562828	0	0	-0.412408696122086	-0.771226007561144
0.763538743375697	-0.572310239865839	0	0	-0.0318676180485321	0.0249368150669538	0	0
0	0	0.743215597240358	-0.374438582269014	0	0	-0.043511372757405	0.0118045005584837
5.4	-0.00681940355606763	-0.0322858871236009	0	0	0.564104750463065	0.768516401522814	0	0
0	0	-0.0314500136941858	0.0147239126955484	0	0	-0.767453443036944	-0.428237691089816
0.564104750463065	0.768516401522814	0	0	0.070700548667652	0.0875949820538997	0	0
0	0	0.657578517943539	0.50987861818895	0	0	-0.0095569740181379	0.0217643211461218
5.5	-0.00411349947671154	0.0347695656107826	0	0	0.779308713147566	-0.561564703716671	0	0
0	0	0.0230536955151449	0.0600890715461619	0	0	0.87728621902328	-0.0445624396810842
0.779308713147566	-0.561564703716671	0	0	-0.00641028002798063	-0.0276148707403924	0	0
0	0	0.157590428978126	-0.816725087624912	0	0	0.021511371072889	0.0384497957871651
5.6	0.0156853098449631	-0.032319030497336	0	0	0.54749887715113	0.784861340213808	0	0
0	0	0.0421692364803292	0.0566123474656064	0	0	0.697994643460164	-0.508310427011567
0.54749887715113	0.784861340213808	0	0	0.001965419718926	-0.109327457051802	0	0
0	0	0.799623738930573	-0.202079533795134	0	0	0.010992662311173	0.117463174556866
5.7	-0.0263408693006981	0.0257657552395147	0	0	0.797692302422827	-0.539062905378052	0	0
0	0	0.020471219478727	-0.00711970267846434	0	0	-0.317911797905832	0.807083804909844
0.797692302422827	-0.539062905378052	0	0	-0.0117235342624941	0.051608365576906	0	0
0	0	-0.535776179237198	-0.648751276806065	0	0	0.0585908092088912	0.0345189386627232
5.8	0.03313698424918	-0.015158933673528	0	0	0.521430075354588	0.797647799887697	0	0
0	0	-0.022165491275346	-0.0315544050248113	0	0	0.155180679522411	0.853319456196554
0.521430075354588	0.797647799887697	0	0	0.0591752337450362	-0.0271678312910694	0	0
0	0	0.324107895874109	-0.770551565630362	0	0	0.0339032062870387	0.0554310795627234
5.9	-0.0362884679086806	0.00199372426527696	0	0	0.811358747622419	-0.498067723905622	0	0
0	0	-0.0562101316119066	-0.0269683402023851	0	0	-0.584845570745223	-0.637598648914565
0.811358747622419	-0.498067723905622	0	0	-0.0728415396129291	0.0434947187260162	0	0
0	0	-0.826636129135042	0.0594583660388661	0	0	0.0372087446738369	0.072265302284381
6	0.035047557130427	0.0109718980545955	0	0	0.481845141965559	0.824850458652453	0	0
0	0	-0.0339884904082682	0.00574615842809859	0	0	-0.847363834374522	-0.195092641444024
0.481845141965559	0.824850458652453	0	0	-0.00254825932549763	0.0237966463151041	0	0
