# GHZ S RI R 50
0.2	-0.00593409266247992	0.0117433980904698	0	0	0.957722657293572	0.0584882321443573	0	0
0	0	0.0195832807178493	0.00581815121475753	0	0	-0.37069000651702	0.910912845853541
0.957722657293572	0.0584882321443573	0	0	0.0201254558315269	0.0407726515610468	0	0
0	0	0.569812723792083	-0.753781765244361	0	0	0.000609503978268018	-0.0330440127642883
0.3	0.00638828913456066	-0.010292900253292	0	0	0.0341941290490023	-0.965049501153052	0	0
0	0	-0.00563204445188809	0.00207108097603716	0	0	-0.133563037317436	-0.974175249515874
0.0341941290490023	-0.965049501153052	0	0	-0.0151961606649141	0.00397308020400119	0	0
0	0	-0.921789988389902	-0.20276228632122	0	0	-0.0337711339593768	-0.0179531861507021
0.4	-0.00886255509253215	0.00790344495089351	0	0	0.948525292040199	0.0630629353398874	0	0
0	0	-0.0394119695084733	0.000730927073381212	0	0	-0.666322812137265	-0.726528448111083
0.948525292040199	0.0630629353398874	0	0	-0.0350870503571776	-0.0140021819669204	0	0
0	0	-0.234179751648502	-0.896077168035837	0	0	0.0205228273362587	0.0198564131909921
0.5	0.0116977507008207	-0.00466324002749924	0	0	0.129208493570395	-0.948925949906558	0	0
0	0	-0.0328146074661549	0.00428117831601721	0	0	0.963968621065162	0.208696340793044
0.129208493570395	-0.948925949906558	0	0	0.0361341781375409	0.0169874342616301	0	0
0	0	-0.679843532940194	0.635797484412199	0	0	0.00445905284906743	0.00792166687155747
0.6	-0.012557928953104	0.00220511594639816	0	0	0.955464972012529	0.133204540470175	0	0
0	0	-0.00805401151171214	0.00534308941906023	0	0	0.914016124171156	-0.328001792439023
0.955464972012529	0.133204540470175	0	0	0.00480890053511875	-0.0195449818489205	0	0
0	0	-0.861943016465541	-0.346746514191506	0	0	-0.00558212667906007	-0.00703259204046905
0.7	0.0118800803759608	7.78728525777164E-05	0	0	0.111228524768485	-0.958665174979202	0	0
0	0	0.0230440590173211	-0.011716276123561	0	0	-0.613636039826028	0.748102170550209
0.111228524768485	-0.958665174979202	0	0	0.00796189714617645	0.00983537571459533	0	0
0	0	0.0439666970297951	0.921756224049131	0	0	0.00226843279553876	-0.0130297246136683
0.8	-0.0101838589585677	-0.00327496957722798	0	0	0.95680872660272	0.116045673779747	0	0
0	0	0.0446679820456373	-0.0424358633442052	0	0	-0.122875294397382	0.962578331640039
0.95680872660272	0.116045673779747	0	0	-0.0229167285275225	0.01242374126793	0	0
0	0	-0.814248553862734	0.447736916594262	0	0	0.00610742345698683	0.0834364655593357
0.9	0.00722434464541581	0.00643267243181527	0	0	0.147457263932283	-0.942445349094223	0	0
0	0	0.0136424628792162	-0.0281179035947642	0	0	-0.434022286638364	-0.869585911626163
0.147457263932283	-0.942445349094223	0	0	-0.0023206897056009	-0.0624872701568562	0	0
0	0	0.765326688096393	0.52828436685325	0	0	0.035921037351616	0.0136599401787585
1	-0.00404436669379781	-0.00848262562052937	0	0	0.946039571311579	0.18400943348809	0	0
0	0	-0.0141335679439175	0.0117003732959313	0	0	-0.840819848994701	-0.484626726892607
0.946039571311579	0.18400943348809	0	0	0.0017809359920113	0.0424067172266145	0	0
0	0	-0.12828368088241	0.905903251996174	0	0	0.00238326384177258	0.00204886448240359
1.1	0.00111386150280657	0.00853500373231242	0	0	0.203449717175143	-0.953778382471745	0	0
0	0	-0.0116013324149617	0.0351249340899493	0	0	0.960933133533515	-0.0503178854228132
0.203449717175143	-0.953778382471745	0	0	0.00263389231407192	0.00238988188928697	0	0
0	0	0.873340741592991	-0.260643547142494	0	0	0.00772281351783283	0.0439963441513359
1.2	0.0011961643866615	-0.00660350355086315	0	0	0.964109255499526	0.203832676555566	0	0
0	0	0.00847511878062548	0.0647682652040046	0	0	0.775254690802804	-0.557515826714085
0.964109255499526	0.203832676555566	0	0	0.0535153792809779	0.00045812759334566	0	0
0	0	0.617051036144362	0.675122833871056	0	0	0.00623083964009519	0.101956725856911
1.3	-0.00306790964065434	0.00303782297602192	0	0	0.20551862690566	-0.948242696391155	0	0
0	0	0.0157631531304061	0.0191623577143365	0	0	-0.356382518593791	0.888453783487508
0.20551862690566	-0.948242696391155	0	0	-0.0551322612381258	0.00172973995115348	0	0
0	0	0.323262007452759	-0.864330668786822	0	0	0.0402330931647488	0.0160954454437406
1.4	0.00382491648104622	0.000818496385471338	0	0	0.930148607329244	0.233038530798794	0	0
0	0	-0.0137829688450928	-0.0437256164734893	0	0	0.182238312958512	0.942308291539317
0.930148607329244	0.233038530798794	0	0	0.0172885835433849	0.00915995391834677	0	0
0	0	0.903695726428794	-0.0860759285721661	0	0	0.044728263520809	-0.00517558940958326
1.5	-0.00296117137821508	-0.00400828919719686	0	0	0.269716914825447	-0.928227686183386	0	0
0	0	-0.0388590781373416	-0.0565333309938883	0	0	-0.680090676694678	-0.677081128294145
0.269716914825447	-0.928227686183386	0	0	0.0332892479748553	-0.032343406910378	0	0
0	0	-0.465982764587002	-0.770202458728912	0	0	0.033836012851117	0.0539281208140257
1.6	0.0010811986511174	0.00593872291262138	0	0	0.942866383364174	0.292642645097489	0	0
0	0	-0.0369666867416131	-0.0199989352453535	0	0	-0.941890001929619	-0.181172244910049
0.942866383364174	0.292642645097489	0	0	-0.0518004075483448	-0.0259391902547259	0	0
0	0	0.496994220657542	-0.759264512030759	0	0	0.00168728896793678	0.0542253129780006
1.7	0.00129607624474629	-0.00593224424090388	0	0	0.286767485323767	-0.947742025470652	0	0
0	0	0.014926381054282	0.00580308254306136	0	0	0.886696662438787	-0.348662058533347
0.286767485323767	-0.947742025470652	0	0	-0.000547474403102804	0.00579747663654456	0	0
0	0	-0.90429673747159	-0.107752035835847	0	0	0.0405821991336195	-0.0301924217094933
1.8	-0.0038098128680605	0.003922849699085	0	0	0.921023646706566	0.287540957533848	0	0
0	0	0.045031536065618	0.0374576870808472	0	0	0.571544900615929	-0.75044246157512
0.921023646706566	0.287540957533848	0	0	0.00750032308329516	0.0656696212165297	0	0
0	0	-0.314823749112164	-0.850138592242466	0	0	0.0279860340657554	-0.0339441403827508
1.9	0.00586331177446608	-0.000548241257999392	0	0	0.316622332754143	-0.896839837831892	0	0
0	0	0.0526746617217711	-0.00429471813795886	0	0	-0.0793737597225032	0.943374525821425
0.316622332754143	-0.896839837831892	0	0	0.0100454165351202	0.00892691202382409	0	0
0	0	-0.613217942171666	0.649361570569884	0	0	0.0417086730554969	0.0234971970184278
2	-0.00651199121162817	-0.00354443132172027	0	0	0.892954298016766	0.347001756481015	0	0
0	0	0.0153246272476086	-0.00538197031554562	0	0	0.460867935160194	0.831814623440745
0.892954298016766	0.347001756481015	0	0	-0.0500301736112201	-0.0329342976893863	0	0
0	0	-0.845928504552739	-0.260821581217955	0	0	-0.0529494238069293	-0.0207510156509851
2.1	0.00530150606383579	0.00759446735916094	0	0	0.362166696529748	-0.898993276158194	0	0
0	0	-0.0286909996234528	0.00764766161228927	0	0	-0.831521408126916	-0.449567015880493
0.362166696529748	-0.898993276158194	0	0	0.0707502964557253	0.0160552307486312	0	0
0	0	0.138025224755508	0.878883693929733	0	0	-0.0047828477844973	0.00984447542105603
2.2	-0.00175528748044583	-0.0110634994590506	0	0	0.898841334536395	0.374571413696125	0	0
0	0	-0.0475630934846883	0.0171831006684684	0	0	-0.931729855267947	0.0706357070314571
0.898841334536395	0.374571413696125	0	0	0.0147479630404737	-0.0108470143603365	0	0
0	0	-0.735769364948691	0.507530745798876	0	0	0.0427362274637104	-0.0112631714230665
2.3	-0.00363329467333524	0.0130659438794617	0	0	0.385075084975778	-0.889434795621766	0	0
0	0	-0.0299269463782205	0.0194072492090372	0	0	0.735732438819815	-0.556217583698972
0.385075084975778	-0.889434795621766	0	0	0.0581392083551311	-0.0289109137836771	0	0
0	0	0.776371755168185	0.431132317839289	0	0	0.0671680565588495	0.0464889553047141
2.4	0.00989846985559656	-0.0130579105383759	0	0	0.877714753081686	0.397650735676777	0	0
0	0	-0.000163987232848799	0.00116133519335608	0	0	0.323707588545583	-0.867959995818781
0.877714753081686	0.397650735676777	0	0	-0.0965022973303358	0.0138150353009727	0	0
0	0	-0.0386638196496921	0.882422938991975	0	0	0.0475479601424897	-0.0492408004159539
2.5	-0.0162183821098414	0.0105101502203167	0	0	0.41528114619057	-0.866474643737427	0	0
0	0	0.0194462310990708	-0.0359361856531424	0	0	0.189553876547452	0.917788774890338
0.41528114619057	-0.866474643737427	0	0	-0.00989511377450424	-0.0273738688269869	0	0
0	0	0.805154280727336	-0.332308984930307	0	0	0.0131251429674665	-0.00100064662031892
2.6	0.0214513072137592	-0.00561587454240017	0	0	0.859934588563829	0.429939640646698	0	0
0	0	0.0180449748836371	-0.0387759657727444	0	0	0.667599077985099	0.654220827988826
0.859934588563829	0.429939640646698	0	0	0.00574655239847094	-0.0339646620094786	0	0
0	0	0.630982350437997	0.597840124659913	0	0	0.0631371393340848	0.00972236521458477
2.7	-0.0248817097155079	-0.00124404616364835	0	0	0.444949864587112	-0.854662407529841	0	0
0	0	0.0211370226613821	-0.00967919195275008	0	0	-0.898876708182698	-0.174655973455988
0.444949864587112	-0.854662407529841	0	0	0.0033512790210088	-0.0135030877554463	0	0
0	0	0.276475791330534	-0.836730624123629	0	0	-0.0270710218804044	-0.00147061903262792
2.8	0.0254179943151097	0.00903103791683308	0	0	0.845009613024943	0.458674047070484	0	0
0	0	0.00945443353619444	0.0123045855052288	0	0	-0.844302579718917	0.313226398283484
0.845009613024943	0.458674047070484	0	0	0.00411522363658111	0.0635984550140401	0	0
0	0	0.87368138421594	-0.150431995259035	0	0	0.0265715000046944	-0.0646625062338723
2.9	-0.0223088789773025	-0.0167865432132822	0	0	0.474812478755542	-0.826840269857227	0	0
0	0	-0.000419430449310322	0.0360496056425183	0	0	0.568889543204513	-0.703111835173375
0.474812478755542	-0.826840269857227	0	0	-0.0539106919397497	0.0338373239951668	0	0
0	0	-0.517036755040403	-0.704711419934665	0	0	-0.0402630294381338	-0.0469529110321835
3	0.0163401697125546	0.0237772446023468	0	0	0.818920678940623	0.498934526137353	0	0
0	0	-0.0111284084827476	0.0287524413696964	0	0	0.0911168830367572	-0.923713538349574
0.818920678940623	0.498934526137353	0	0	-0.00710373726138463	-0.0181875417563899	0	0
0	0	0.407358094522428	-0.763878397417498	0	0	0.0139557222192884	0.0859922974331857
3.1	-0.00783747764764872	-0.0282280772957171	0	0	0.519387579485961	-0.809647445476501	0	0
0	0	-0.0201326002067368	0.0116557546593879	0	0	0.451580930396102	0.809096081771762
0.519387579485961	-0.809647445476501	0	0	0.0385259845794797	-0.065330075486406	0	0
0	0	-0.872967130015904	-0.0486815911707588	0	0	-0.0760574946785998	0.00629501404784222
3.2	-0.00160215430747748	0.0301493422670291	0	0	0.808758731510252	0.542550846357585	0	0
0	0	-0.0175015169960145	-0.00646796043537019	0	0	0.802722571668541	0.43678975224456
0.808758731510252	0.542550846357585	0	0	0.000646095638662633	0.025402778198574	0	0
0	0	-0.341178364337881	-0.816541535665889	0	0	-0.0597855943048154	0.00714995020154224
3.3	0.0106306298512394	-0.0280126923817181	0	0	0.553145029467058	-0.805131371612842	0	0
0	0	-0.000841311597516321	-0.0240849292840552	0	0	-0.908435345691568	0.0540549902060791
0.553145029467058	-0.805131371612842	0	0	0.0625919925002292	0.0240694841108861	0	0
0	0	-0.574440134002962	0.680551085239712	0	0	-0.0284964006919431	-0.107560920329857
3.4	-0.018160075341648	0.0220231927849491	0	0	0.788634932400089	0.556808840063353	0	0
0	0	-0.00394230636243191	-0.0404846215711665	0	0	-0.732722957993612	0.548597378652213
0.788634932400089	0.556808840063353	0	0	-0.115657305016713	0.00997660701393144	0	0
0	0	-0.860874718796558	-0.218821402866752	0	0	-0.0200711991447257	-0.0397969747119175
3.5	0.0234723847056753	-0.0141885264946553	0	0	0.570387089104508	-0.779453601098437	0	0
0	0	0.00829973264175597	-0.030087207332438	0	0	0.29278342680033	-0.873135985763731
0.570387089104508	-0.779453601098437	0	0	-0.0127692789386383	-0.053754286675395	0	0
0	0	0.173198276453932	0.844471662596004	0	0	0.0846306199768546	-0.0739212608420772
3.6	-0.0254396514211804	0.00547845681493285	0	0	0.771885000877313	0.57912970003034	0	0
0	0	0.0198089814797274	0.00283516531206584	0	0	-0.216248326432772	-0.894260712137343
0.771885000877313	0.57912970003034	0	0	-0.0335076235639337	0.0610276559135686	0	0
0	0	-0.690210335026859	0.526040138174534	0	0	0.0445471520099948	-0.0323087749058665
3.7	0.023387461588275	0.0038179575123367	0	0	0.597351343351273	-0.751123058317084	0	0
0	0	0.0139827136519067	0.0367297263630585	0	0	0.644335481038479	0.644115891339341
0.597351343351273	-0.751123058317084	0	0	0.118507226398493	0.00563530723046313	0	0
0	0	0.773800770218632	0.403719709684463	0	0	0.0552633869978328	-0.019948988320048
3.8	-0.0181984165727055	-0.0115696343336207	0	0	0.74392310261517	0.615156490335881	0	0
0	0	0.0151271123875491	0.0509350872250912	0	0	0.87114981063636	0.179575816906066
0.74392310261517	0.615156490335881	0	0	-0.0249740697990408	0.0211363707375413	0	0
0	0	-0.00922968505614963	0.870097688005459	0	0	-0.0585138622955475	-0.0243718176691519
3.9	0.0108766065006562	0.0165044387241385	0	0	0.619380435071608	-0.741973419715767	0	0
0	0	0.0108607813584106	0.0159399881910837	0	0	-0.81923996569436	0.332603529707261
0.619380435071608	-0.741973419715767	0	0	-0.0122544092308099	0.0830515991664964	0	0
0	0	0.777727889579909	-0.390010640122399	0	0	0.0245464927435867	-0.00605712215853711
4	-0.00217605250677011	-0.0181872507960322	0	0	0.723137747559705	0.627514173287093	0	0
0	0	-0.0170965712806138	-0.0121295027894479	0	0	-0.509050125860981	0.724972595234122
0.723137747559705	0.627514173287093	0	0	0.0495837380667856	-0.074277376092993	0	0
0	0	0.684581481542164	0.50926362690551	0	0	-0.00469810318818152	0.00952934101586113
4.1	-0.00574512085451234	0.0162866508963596	0	0	0.633240607524753	-0.709012510301226	0	0
0	0	-0.0419410454287255	-0.0354126365988254	0	0	0.0497301778877745	-0.887468362551234
0.633240607524753	-0.709012510301226	0	0	0.023516456652173	-0.110992260408999	0	0
0	0	0.178274813791706	-0.824947953025072	0	0	0.0267971322699382	0.0807964760785559
4.2	0.0121229270620759	-0.01153156428344	0	0	0.702895560661263	0.645005048687559	0	0
0	0	-0.0492205411784097	-0.0155444471135318	0	0	-0.434304976748393	-0.774187383897364
0.702895560661263	0.645005048687559	0	0	-0.0395778607196364	0.0166404941465265	0	0
0	0	0.825773228688362	-0.187255194240372	0	0	-0.0121253245980352	-0.0407524709731742
4.3	-0.0158866866325032	0.00454151104969641	0	0	0.654556904521401	-0.695278696112883	0	0
0	0	-0.0075813103836489	0.00655201962703409	0	0	0.774865392879576	0.418874079418116
0.654556904521401	-0.695278696112883	0	0	-0.0104804153064911	0.0666433809179699	0	0
0	0	-0.533317926103317	-0.667717074500349	0	0	-0.0142688776835657	0.00249923320197466
4.4	0.0160595881745155	0.00356020734371961	0	0	0.677861976570347	0.665134808869039	0	0
0	0	0.0380261700086748	0.00417815798770035	0	0	0.88277154136251	-0.0550446612279291
0.677861976570347	0.665134808869039	0	0	0.00121148522595513	-0.0496490933322127	0	0
0	0	0.342404729109728	-0.768262386217054	0	0	-0.0331389572856194	0.00339792863719155
4.5	-0.0124756731264009	-0.0108237742534452	0	0	0.672840690378378	-0.659453220972086	0	0
0	0	0.0647684929717373	-0.00458702494766857	0	0	-0.718029584923131	0.520789234995739
0.672840690378378	-0.659453220972086	0	0	-0.0492610575009543	0.0261889198357093	0	0
0	0	-0.830677534714682	0.0117924688413612	0	0	-0.0849542297483586	0.0614121082233211
4.6	0.00582935567964807	0.0163680478000421	0	0	0.641630809137078	0.688675320717849	0	0
0	0	0.0468566552416784	-0.0248670653526195	0	0	-0.311952291143645	0.840425649462438
0.641630809137078	0.688675320717849	0	0	-0.0039003588187581	0.0135514788980061	0	0
0	0	-0.369799317968178	-0.741469686427938	0	0	-0.0793491486521065	-0.00978125344971148
4.7	0.0024140232675106	-0.0190511144340995	0	0	0.707071078515249	-0.635158525576981	0	0
0	0	-0.0243346658142406	-0.0051232370031952	0	0	-0.189559998593689	-0.871160911695411
0.707071078515249	-0.635158525576981	0	0	0.0651250547401605	-0.0177196973549603	0	0
0	0	-0.523195482042585	0.652962057719421	0	0	-0.0727613164181163	0.0713673842541411
4.8	-0.011053871202437	0.0182999312623792	0	0	0.635946705243795	0.723923617806036	0	0
0	0	-0.0585499545127433	0.0346363747761472	0	0	-0.605152893029358	-0.634185548848408
0.635946705243795	0.723923617806036	0	0	0.0526302729833537	-0.0184560783792392	0	0
0	0	-0.82572303165325	-0.197624929440389	0	0	-0.00929754091913871	0.0711666507394891
4.9	0.0185433071495657	-0.0131512822465408	0	0	0.730367118173184	-0.628816774042595	0	0
0	0	-0.0399099933564145	0.058927008653106	0	0	0.853374496218645	0.207346860719562
0.730367118173184	-0.628816774042595	0	0	-0.0808607274398617	-0.0291610822978121	0	0
0	0	0.198368292746643	0.820577707212998	0	0	-0.0835185990256754	0.00334103703699427
5	-0.0232460952873922	0.00498264238765595	0	0	0.61870344198686	0.726044567980154	0	0
0	0	-0.000778550217804199	0.0205285259423796	0	0	0.830932803352731	-0.298271495513404
0.61870344198686	0.726044567980154	0	0	-0.047872873081607	0.0406199734861076	0	0
0	0	-0.64510332923073	0.533805287274702	0	0	0.0412344846069545	-0.00946606261938173
5.1	0.0248289559825437	0.00486449314458065	0	0	0.727235006396558	-0.60711617496655	0	0
0	0	0.0377706101222967	-0.0334970073766183	0	0	-0.532990614411387	0.696250651995404
0.727235006396558	-0.60711617496655	0	0	-0.0221258864044854	-0.0413858951414172	0	0
0	0	0.750531592210876	0.344421781024457	0	0	0.0722160908213913	-0.0201055042993827
5.2	-0.0224216944825255	-0.0158090440292977	0	0	0.585528621301986	0.744577356348067	0	0
0	0	0.0152915356020934	-0.0745346290857912	0	0	-0.0773717152781778	0.872399619350078
0.585528621301986	0.744577356348067	0	0	0.0380103052964799	0.0224144571088338	0	0
0	0	0.0165460976185869	0.832840900142311	0	0	0.0265312198684961	0.0662723926886905
5.3	0.015981839201587	0.0253514708933841	0	0	0.762436807890021	-0.574132828904288	0	0
0	0	-0.0148722140314585	-0.0417084889037192	0	0	-0.414262241896756	-0.77024903247424
0.762436807890021	-0.574132828904288	0	0	-0.0322171050331623	0.0251095653031038	0	0
0	0	0.742329186925635	-0.376224479356053	0	0	-0.0438151197923184	0.0121637248343533
5.4	-0.00670540170784614	-0.0315125632559481	0	0	0.566264870290188	0.766812782885451	0	0
0	0	-0.0317081173248084	0.0141558558599241	0	0	-0.768478064278789	-0.42575427031296
0.566264870290188	0.766812782885451	0	0	0.0708628388605547	0.0872727422213831	0	0
0	0	0.658890402303462	0.507699450133256	0	0	-0.00964569003951058	0.0220008383777367
5.5	-0.00409488705622474	0.0341254779078056	0	0	0.776697349228344	-0.563770176841597	0	0
0	0	0.0232233561977379	0.0596236994523575	0	0	0.876263460875802	-0.0476351776490023
0.776697349228344	-0.563770176841597	0	0	-0.00678061895509442	-0.0274226422519991	0	0
0	0	0.154533646566542	-0.816480172714142	0	0	0.0216234801776825	0.0383632634981338
5.6	0.0154809111616196	-0.0316080181343412	0	0	0.549569237436217	0.78145043762199	0	0
0	0	0.0427140702922325	0.0563644672159355	0	0	0.694756644567382	-0.510027745596993
0.549569237436217	0.78145043762199	0	0	0.000988285889646882	-0.108962647517509	0	0
0	0	0.797365014174293	-0.204754351926885	0	0	0.0117517967896122	0.116999889765767
5.7	-0.0261388302531776	0.0248263486384425	0	0	0.793616399880019	-0.540622215024856	0	0
0	0	0.0212687406501199	-0.00712021128188937	0	0	-0.313884370686285	0.806125254484636
0.793616399880019	-0.540622215024856	0	0	-0.0114784023546425	0.0513450676300898	0	0
0	0	-0.536853414126032	-0.644882872970407	0	0	0.0583750384048927	0.0338684905910653
5.8	0.0331332365674113	-0.0141359817864643	0	0	0.522485729403936	0.792993244464325	0	0
0	0	-0.0213418118353619	-0.0313365094956543	0	0	0.157741334118976	0.849585612433083
0.522485729403936	0.792993244464325	0	0	0.0581854170341505	-0.0274308372364454	0	0
0	0	0.320074525133315	-0.768885964779636	0	0	0.0337713251417828	0.0548634051151362
5.9	-0.0364779065941893	0.00108716471893845	0	0	0.806274141078335	-0.498272305290865	0	0
0	0	-0.0555558079168343	-0.0266197365234122	0	0	-0.584194317071268	-0.632826937492097
0.806274141078335	-0.498272305290865	0	0	-0.0724821084324963	0.0437079076144974	0	0
0	0	-0.822667153246475	0.0618096413266959	0	0	0.0369744359815071	0.071659517590163
6	0.0352811553328282	0.0116344069110532	0	0	0.481273520329126	0.819498890629001	0	0
0	0	-0.0336307190647514	0.00611001028016961	0	0	-0.843270119234043	-0.191979030717016
