# GHZ S RI R 50
0.2	-0.00665121317324134	0.0104236384098982	0	0	0.957878135926583	0.058155154670043	0	0
0	0	0.0201967173101072	0.00441720175039909	0	0	-0.370460358660277	0.911058131030492
0.957878135926583	0.058155154670043	0	0	0.0214239959986866	0.0425167724721788	0	0
0	0	0.569635531798813	-0.753973535826552	0	0	0.0018444480785269	-0.031315554717306
0.3	0.00693830459788938	-0.0100180259791452	0	0	0.0336685440337381	-0.965171813326459	0	0
0	0	-0.00534830715873215	0.00151706641922371	0	0	-0.134098299654744	-0.974197799065323
0.0336685440337381	-0.965171813326459	0	0	-0.0137963645392836	0.00453077716720384	0	0
0	0	-0.921987811582574	-0.202287622856534	0	0	-0.0324209487056595	-0.0173886137593572
0.4	-0.00880408703499661	0.00786915991762347	0	0	0.948568107018876	0.0622615611787849	0	0
0	0	-0.0394055841641087	0.000800726824803349	0	0	-0.666923235541782	-0.725953665419438
0.948568107018876	0.0622615611787849	0	0	-0.0340823454163963	-0.0141167191527906	0	0
0	0	-0.234930888867974	-0.895863608901561	0	0	0.0215573578091888	0.019647242475277
0.5	0.0112044756278906	-0.00436814233957909	0	0	0.128102840340711	-0.948878064914302	0	0
0	0	-0.0329509044829318	0.00485966906074722	0	0	0.96398922983643	0.20756657274943
0.128102840340711	-0.948878064914302	0	0	0.0366800927562574	0.0164936992760378	0	0
0	0	-0.678978039263992	0.63642047475188	0	0	0.0049775582899176	0.00751202832560279
0.6	-0.0120770114547656	0.00139492327428627	0	0	0.955098765378776	0.131826835570354	0	0
0	0	-0.00834647025562561	0.00624695288822697	0	0	0.913067627007915	-0.32906116044537
0.955098765378776	0.131826835570354	0	0	0.00491254602790524	-0.0198098836194396	0	0
0	0	-0.861938639381734	-0.345386102054182	0	0	-0.00544371774205699	-0.00727485343248248
0.7	0.0118933882548186	0.00119691259996372	0	0	0.109689987311646	-0.95791624758353	0	0
0	0	0.0225857031994796	-0.0106923125506301	0	0	-0.611915509307084	0.748304465287241
0.109689987311646	-0.95791624758353	0	0	0.00806427255596911	0.00979219590896243	0	0
0	0	0.045313707848405	0.920799464362132	0	0	0.002308720484232	-0.0130125058489371
0.8	-0.0106997924971925	-0.00423472904065296	0	0	0.955647912865938	0.114464336334431	0	0
0	0	0.0441417588337578	-0.0414576543017642	0	0	-0.121163584886778	0.961477876527675
0.955647912865938	0.114464336334431	0	0	-0.0225285887192913	0.0126356552164187	0	0
0	0	-0.812431600266138	0.448441050357333	0	0	0.00662916302677275	0.0833505200003615
0.9	0.00788276209610608	0.00695691652273379	0	0	0.145932164069633	-0.940837747923803	0	0
0	0	0.0131848432256048	-0.0273646994675505	0	0	-0.434429183156433	-0.86727188254486
0.145932164069633	-0.940837747923803	0	0	-0.00187814267105016	-0.0621427823210127	0	0
0	0	0.764598972728254	0.52615724081271	0	0	0.0363935877960279	0.0135813900134006
1	-0.00447148326531817	-0.00863275927731625	0	0	0.944035163360789	0.182502336197821	0	0
0	0	-0.0144213606796967	0.0120625280693365	0	0	-0.839367898316874	-0.482517318865433
0.944035163360789	0.182502336197821	0	0	0.00267928948475805	0.0419497858024792	0	0
0	0	-0.12694900744497	0.903891474284562	0	0	0.00312829016763619	0.00175668038744564
1.1	0.00106354389741447	0.00863551184176454	0	0	0.202199823206211	-0.951340932297279	0	0
0	0	-0.0116436506212149	0.0350306029414061	0	0	0.958247848353243	-0.050872096611608
0.202199823206211	-0.951340932297279	0	0	0.00336371600691482	0.00163174253025698	0	0
0	0	0.870745257678339	-0.26055479197559	0	0	0.00839323243384751	0.0429914103147864
1.2	0.0015711700442619	-0.00706375970618332	0	0	0.961302248071081	0.202972108235301	0	0
0	0	0.00872180537539688	0.0642947995585214	0	0	0.772854262693902	-0.5560197228082
0.961302248071081	0.202972108235301	0	0	0.0535784783642564	-0.000681745115225695	0	0
0	0	0.615359377801087	0.673006706511682	0	0	0.00651971606930384	0.100239244225401
1.3	-0.00337114191901909	0.00384611244271523	0	0	0.205250824604255	-0.945233157103988	0	0
0	0	0.0162808139160431	0.0185331135897417	0	0	-0.355562325310106	0.88557630533426
0.205250824604255	-0.945233157103988	0	0	-0.0547950495432709	0.000479960813602177	0	0
0	0	0.32253696771483	-0.861538912114461	0	0	0.0398853400206818	0.0148290780577573
1.4	0.00399840644410361	-8.96126346147083E-05	0	0	0.927094147931366	0.233170331656677	0	0
0	0	-0.0130051701323056	-0.0441909111684283	0	0	0.180830041544446	0.93958531269642
0.927094147931366	0.233170331656677	0	0	0.016926460208655	0.00798989464467669	0	0
0	0	0.901004331590539	-0.0849971345646375	0	0	0.0441670642121148	-0.00617633181333777
1.5	-0.00303164755481107	-0.00295512683613307	0	0	0.270284441226952	-0.925130702425109	0	0
0	0	-0.0378308542114986	-0.0567291317376553	0	0	-0.677245793355129	-0.676178564968664
0.270284441226952	-0.925130702425109	0	0	0.0327496887527598	-0.0331275530809841	0	0
0	0	-0.463597056362587	-0.768737364274504	0	0	0.033006446973171	0.0527522777163926
1.6	0.000837199622328017	0.00473368999834126	0	0	0.939934900930438	0.293805271483447	0	0
0	0	-0.0358028281069568	-0.019927818017391	0	0	-0.939304606861057	-0.182520006539381
0.939934900930438	0.293805271483447	0	0	-0.052140031688201	-0.0268514117209422	0	0
0	0	0.497244855724908	-0.756517460525589	0	0	0.000746872132060931	0.053232693707146
1.7	0.00193954209724611	-0.00491872063987359	0	0	0.288336032445023	-0.945159234614716	0	0
0	0	0.0160216487988273	0.00609755276099588	0	0	0.885681097177635	-0.345957138019421
0.288336032445023	-0.945159234614716	0	0	-0.00138650643509556	0.00529761006034006	0	0
0	0	-0.902217585570655	-0.10956968132733	0	0	0.0397560164000026	-0.0302723794661891
1.8	-0.00452546195369545	0.0032903428690184	0	0	0.918957212536387	0.289298966163069	0	0
0	0	0.0458389738712497	0.0379171415237898	0	0	0.572523535599853	-0.74794070398692
0.918957212536387	0.289298966163069	0	0	0.00644531542888356	0.0653667281644648	0	0
0	0	-0.312289661194484	-0.849645019295344	0	0	0.0273845440263282	-0.0337811062315247
1.9	0.0063852703484205	-0.000148149311319276	0	0	0.318494574425825	-0.895203849498407	0	0
0	0	0.0530611840178734	-0.00377818237444963	0	0	-0.08153748645555	0.942295374603166
0.318494574425825	-0.895203849498407	0	0	0.00947428967700052	0.00901283068208057	0	0
0	0	-0.614179871959132	0.647293205004551	0	0	0.0410499850423261	0.0237460379243009
2	-0.00680786580515179	-0.00394711108824176	0	0	0.8917598866926	0.348878648208321	0	0
0	0	0.0152635177057559	-0.00490848981682745	0	0	0.45881461149979	0.832512320129856
0.8917598866926	0.348878648208321	0	0	-0.0501469055783373	-0.0330533044510884	0	0
0	0	-0.845000820306365	-0.262614528090439	0	0	-0.0530955929788851	-0.0208711879670963
2.1	0.00552871295408431	0.00816133427496122	0	0	0.36383213998227	-0.898174964878778	0	0
0	0	-0.0291524578728879	0.00799794243815026	0	0	-0.830635707328588	-0.451135752458127
0.36383213998227	-0.898174964878778	0	0	0.0704346681884739	0.0163224168278306	0	0
0	0	0.136345705390492	0.879115983496545	0	0	-0.00503980472822024	0.00984949351988296
2.2	-0.0021305094788388	-0.0117456725766953	0	0	0.898366586060448	0.375990831797795	0	0
0	0	-0.048273460776677	0.0173558221938487	0	0	-0.931988148438533	0.0692678158589306
0.898366586060448	0.375990831797795	0	0	0.0144838946916598	-0.0108623969253576	0	0
0	0	-0.736642208788558	0.506525073799222	0	0	0.0424999919953629	-0.0111549532674738
2.3	-0.00305770445387837	0.0136255686348625	0	0	0.38610801893296	-0.889136384141567	0	0
0	0	-0.0306694839718222	0.0194203207489518	0	0	0.736426983256306	-0.555626425569375
0.38610801893296	-0.889136384141567	0	0	0.0577848800859952	-0.0287922157666329	0	0
0	0	0.776121809330862	0.431974165661904	0	0	0.0667048751608654	0.0467067755700713
2.4	0.00930955913084386	-0.0133314438805665	0	0	0.877607941111958	0.398224969162011	0	0
0	0	-0.000753695408574686	0.00107999770498384	0	0	0.324268057124616	-0.867866961109302
0.877607941111958	0.398224969162011	0	0	-0.0970830584967405	0.0139006204209268	0	0
0	0	-0.0391995530999256	0.882503190575325	0	0	0.0471376244408687	-0.048958777888728
2.5	-0.0158629810259532	0.010560651289462	0	0	0.415415285835142	-0.86621498781799	0	0
0	0	0.0191554446659359	-0.0360498877416217	0	0	0.189357099188441	0.917679849433109
0.415415285835142	-0.86621498781799	0	0	-0.0103947674824361	-0.0269330001055408	0	0
0	0	0.805088958723915	-0.332110408741275	0	0	0.0126903925439051	-0.000546303823598705
2.6	0.0213982486778997	-0.00567952790150334	0	0	0.85940882469501	0.429653209514519	0	0
0	0	0.0180736174112299	-0.038829814939706	0	0	0.667257529539956	0.653786716915325
0.85940882469501	0.429653209514519	0	0	0.00534103565659371	-0.0333100656089751	0	0
0	0	0.63065797841335	0.597441836431714	0	0	0.062766385150085	0.0102921194608293
2.7	-0.02498604946676	-0.00101681447537066	0	0	0.444339756509623	-0.853726069370528	0	0
0	0	0.0213782188708504	-0.00961387950322588	0	0	-0.897911484222648	-0.17432719225636
0.444339756509623	-0.853726069370528	0	0	0.00307809191545732	-0.0127854240753232	0	0
0	0	0.276044088709086	-0.835849377749943	0	0	-0.0271724786427041	-0.000821798059068407
2.8	0.0255529278076155	0.00869184269203465	0	0	0.843583080739705	0.457877720383174	0	0
0	0	0.00972685190113435	0.012527720141341	0	0	-0.842851026246538	0.312736617179749
0.843583080739705	0.457877720383174	0	0	0.003947318941705	0.0640682304440887	0	0
0	0	0.872188133503977	-0.150220522299875	0	0	0.0264196665645228	-0.0638259540627034
2.9	-0.022508611066707	-0.0164004332198303	0	0	0.474018378733312	-0.824836181653941	0	0
0	0	-0.000304092875154539	0.0364648094215591	0	0	0.567835888791008	-0.701379696655963
0.474018378733312	-0.824836181653941	0	0	-0.0537349431212264	0.0342939361170206	0	0
0	0	-0.515677400468737	-0.703300387989372	0	0	-0.0400040608474976	-0.0461876511355849
3	0.016653967691144	0.0232530352956178	0	0	0.816278101574352	0.498253322597684	0	0
0	0	-0.0112822108850555	0.0293446320268745	0	0	0.0915816997430115	-0.921259453922627
0.816278101574352	0.498253322597684	0	0	-0.00696638723114016	-0.0175584959814083	0	0
0	0	0.406885238136104	-0.761597328621841	0	0	0.0138954825602733	0.0860442534611503
3.1	-0.0081747643016128	-0.0274607132329836	0	0	0.519004191662547	-0.806382497105345	0	0
0	0	-0.0205916295398157	0.0123329306413253	0	0	0.44903652773318	0.807463611004676
0.519004191662547	-0.806382497105345	0	0	0.0386683334629836	-0.0644556865431439	0	0
0	0	-0.870380931414861	-0.0498851943844221	0	0	-0.0754266175777455	0.00632955404910999
3.2	-0.00141560684344872	0.0291574578964772	0	0	0.805050075711448	0.542693513116465	0	0
0	0	-0.0182369002188088	-0.00587038994021955	0	0	0.799365403488347	0.437350013864404
0.805050075711448	0.542693513116465	0	0	0.00070987154667192	0.0254344119606916	0	0
0	0	-0.338303995874999	-0.814928745049063	0	0	-0.0592745238397715	0.0069701724743008
3.3	0.0106807077049298	-0.0269970296594769	0	0	0.553937718767243	-0.801037208709722	0	0
0	0	-0.00170862514429725	-0.0237234803914705	0	0	-0.906007636025754	0.0510068535906265
0.553937718767243	-0.801037208709722	0	0	0.0621813818963461	0.0243483759746795	0	0
0	0	-0.574963732682387	0.676773760202981	0	0	-0.0275601128170363	-0.10711461895155
3.4	-0.0183159827425025	0.021142455852852	0	0	0.784561899270691	0.558513264693952	0	0
0	0	-0.00478388399133874	-0.0404857981405871	0	0	-0.73307889914684	0.544425084566446
0.784561899270691	0.558513264693952	0	0	-0.115164795620406	0.0090117923180008	0	0
0	0	-0.857941422945668	-0.221633532066776	0	0	-0.0196717161370632	-0.0397839555472249
3.5	0.0235992388024364	-0.0133683436038209	0	0	0.572862144560742	-0.775352462319055	0	0
0	0	0.00763065022137502	-0.0304629422888111	0	0	0.29618136431807	-0.870154341772566
0.572862144560742	-0.775352462319055	0	0	-0.0123261462819833	-0.0536763175974425	0	0
0	0	0.169046319879134	0.843654180697809	0	0	0.0849043000102892	-0.0728806792190166
3.6	-0.02554675561144	0.00458300995705818	0	0	0.768182211248008	0.582326860914131	0	0
0	0	0.0194196481848695	0.00208921060382259	0	0	-0.211566151472403	-0.894407580260828
0.768182211248008	0.582326860914131	0	0	-0.0341563694276563	0.0605917313116399	0	0
0	0	-0.692113645049672	0.522052470396209	0	0	0.0446857983248442	-0.0317484088385158
3.7	0.023597443954245	0.00478809764602275	0	0	0.6010962425734	-0.747730450876919	0	0
0	0	0.0139346858681008	0.0357984874105277	0	0	0.640888584059996	0.647391112148012
0.6010962425734	-0.747730450876919	0	0	0.11830435640361	0.00693488718913117	0	0
0	0	0.771590699073582	0.407702619454242	0	0	0.0554061868956286	-0.0192966543108972
3.8	-0.018600203458212	-0.0124746870942261	0	0	0.741280379131529	0.619531871140491	0	0
0	0	0.0153224493375669	0.0500673347626246	0	0	0.871038439942711	0.184298907385344
0.741280379131529	0.619531871140491	0	0	-0.025236528188111	0.0209573512122962	0	0
0	0	-0.013785547339543	0.870875541208516	0	0	-0.0583576136560703	-0.024969707959941
3.9	0.0113564822232363	0.0171729150110107	0	0	0.624073921356878	-0.740163655329922	0	0
0	0	0.0112146560143658	0.0153093508823985	0	0	-0.822330143368069	0.329134404304856
0.624073921356878	-0.740163655329922	0	0	-0.0130468531133763	0.0832364209108972	0	0
0	0	0.781029077592365	-0.386848172104383	0	0	0.0247597940044362	-0.00581217058039875
4	-0.00250654353827626	-0.0186720568834352	0	0	0.722102733629087	0.632370834552905	0	0
0	0	-0.0166655734138149	-0.0123842987576245	0	0	-0.513593119935842	0.724577897523908
0.722102733629087	0.632370834552905	0	0	0.0506337215817417	-0.0742045138602051	0	0
0	0	0.684081526410788	0.513627304471062	0	0	-0.00470009418006731	0.00951844705985536
4.1	-0.0055867456671633	0.0167641002478483	0	0	0.637953236953861	-0.708803028217652	0	0
0	0	-0.0415397475317218	-0.0352669315755715	0	0	0.0532128946522162	-0.89012416598099
0.637953236953861	-0.708803028217652	0	0	0.0246567774895609	-0.111553620568314	0	0
0	0	0.181935051801846	-0.826922156592774	0	0	0.026468943000814	0.0814596746620824
4.2	0.0120027513287836	-0.0120902733160764	0	0	0.703483615903841	0.64937300367881	0	0
0	0	-0.0489617728679265	-0.0151255968092644	0	0	-0.433549191639612	-0.778308677882223
0.703483615903841	0.64937300367881	0	0	-0.0398569125271037	0.0164380034475844	0	0
0	0	0.829337295585048	-0.185446503703969	0	0	-0.0118997976089788	-0.0412014488903698
4.3	-0.0157121080892117	0.00508979480038342	0	0	0.658409732467964	-0.696479811454316	0	0
0	0	-0.00751110696248389	0.00704108919916644	0	0	0.776911160930762	0.422092349039543
0.658409732467964	-0.696479811454316	0	0	-0.0108535605142509	0.0670349403748	0	0
0	0	-0.533925537051196	-0.671366537605812	0	0	-0.0144029643322432	0.00239016132613561
4.4	0.0159053165449748	0.00314523916085425	0	0	0.679430384269441	0.668412059255112	0	0
0	0	0.0379181155263354	0.00452349611668693	0	0	0.886080062893859	-0.0541249442310956
0.679430384269441	0.668412059255112	0	0	0.00123409522158936	-0.0499849707174356	0	0
0	0	0.344637053237998	-0.770645811117244	0	0	-0.0334799280345219	0.00335212356583931
4.5	-0.0124854900410644	-0.0105203219578126	0	0	0.675392186437456	-0.661253208162424	0	0
0	0	0.0645384814484549	-0.00453551804589809	0	0	-0.720703778872672	0.522129028661456
0.675392186437456	-0.661253208162424	0	0	-0.0497734621758389	0.0264647259519423	0	0
0	0	-0.833447925404631	0.0113770015577513	0	0	-0.0856919234616544	0.0618638912757669
4.6	0.00605387816050123	0.0160206933880111	0	0	0.643397984109337	0.690521283749896	0	0
0	0	0.0465992607992435	-0.0251500033677083	0	0	-0.312865587779043	0.842745085457622
0.643397984109337	0.690521283749896	0	0	-0.00401988341617389	0.0139323492191905	0	0
0	0	-0.370786818336536	-0.743551339880611	0	0	-0.0798231703894639	-0.00957315607910014
4.7	0.00208189938293331	-0.0185371202198062	0	0	0.708239526177314	-0.636692250347835	0	0
0	0	-0.0244799224644743	-0.00566591939947059	0	0	-0.190228651891153	-0.872996912308103
0.708239526177314	-0.636692250347835	0	0	0.0653758260432503	-0.0174107304215151	0	0
0	0	-0.524139100848252	0.654534445469484	0	0	-0.0729552249418654	0.072063716644642
4.8	-0.0107424556844502	0.0176385213870995	0	0	0.637066008617425	0.724568391939218	0	0
0	0	-0.0584692171757543	0.0339983328366001	0	0	-0.606279570504936	-0.634834906373221
0.637066008617425	0.724568391939218	0	0	0.0528887369567969	-0.0181190602401174	0	0
0	0	-0.826980942354304	-0.197560648558625	0	0	-0.00904906177974156	0.071713213210174
4.9	0.0182841318455492	-0.012488871604354	0	0	0.730740518837625	-0.629400917059903	0	0
0	0	-0.0395741486606569	0.058415796677889	0	0	0.854041917393802	0.207386998909039
0.730740518837625	-0.629400917059903	0	0	-0.0807521306890976	-0.0287490014351825	0	0
0	0	0.198627724433869	0.821165773462464	0	0	-0.0833434231196749	0.00367600561160351
5	-0.0229471039296632	0.0043334028699474	0	0	0.618653651958565	0.726227890722872	0	0
0	0	-0.000191450198377258	0.0202859459443007	0	0	0.831092742456736	-0.29807301038627
0.618653651958565	0.726227890722872	0	0	-0.0475865756150546	0.0409693341400817	0	0
0	0	-0.645309953788547	0.533679768952819	0	0	0.0416000684986447	-0.00920801866070349
5.1	0.0244899862023311	0.00562765018039475	0	0	0.727533748135836	-0.606314370931874	0	0
0	0	0.0385127646224687	-0.0334201052853363	0	0	-0.533469295075157	0.695557881260619
0.727533748135836	-0.606314370931874	0	0	-0.0216500845035066	-0.041136910139228	0	0
0	0	0.749995082831228	0.345005786361728	0	0	0.0726166205335744	-0.0198281503202824
5.2	-0.0221648293107635	-0.0167112766058903	0	0	0.584102274673114	0.74512694853113	0	0
0	0	0.0160459020856565	-0.0741816527278516	0	0	-0.07875454413368	0.872000846298141
0.584102274673114	0.74512694853113	0	0	0.038356157873983	0.0226284274244857	0	0
0	0	0.0151975796694827	0.832606034226066	0	0	0.026712212525713	0.0663140702282453
5.3	0.0159085348618834	0.0262527923710444	0	0	0.763597265891889	-0.57221728215919	0	0
0	0	-0.0143009367666661	-0.0411970041507492	0	0	-0.412328871711212	-0.771207256712149
0.763597265891889	-0.57221728215919	0	0	-0.0318992565726218	0.0249137126146587	0	0
0	0	0.743195909311184	-0.374363081294201	0	0	-0.0435098269327787	0.0118156449912573
5.4	-0.00671634064355175	-0.0322300246458999	0	0	0.564007134142766	0.768640168123127	0	0
0	0	-0.0314867458374713	0.0147025175115538	0	0	-0.767385846992236	-0.428334779786417
0.564007134142766	0.768640168123127	0	0	0.0706526714313175	0.0876226535153001	0	0
0	0	0.657501451416155	0.509959900584879	0	0	-0.0095589286779178	0.0217770746629736
5.5	-0.00421188518702642	0.034710514296323	0	0	0.779495363094253	-0.561451909715881	0	0
0	0	0.0230301908688221	0.0600659571913837	0	0	0.877343680766567	-0.0444135161800032
0.779495363094253	-0.561451909715881	0	0	-0.00641733700819667	-0.0276178667723169	0	0
0	0	0.157740365600455	-0.816744214776481	0	0	0.0215048291814642	0.0384735499059226
5.6	0.0157822674497265	-0.0322510436430564	0	0	0.547407085593701	0.785108379866492	0	0
0	0	0.042167187637536	0.0565924576458133	0	0	0.698184189733178	-0.508249615027299
0.547407085593701	0.785108379866492	0	0	0.00200473712926946	-0.109361384500096	0	0
0	0	0.79977009848022	-0.201958158408601	0	0	0.010953457586085	0.117509146201867
5.7	-0.0264379692341907	0.0256884291110751	0	0	0.798024534521419	-0.539024935618558	0	0
0	0	0.0204982949544275	-0.00712806298039677	0	0	-0.318117130125091	0.80720294692137
0.798024534521419	-0.539024935618558	0	0	-0.0117655248927694	0.0516277509516164	0	0
0	0	-0.535780902935767	-0.648981493200402	0	0	0.0586040654794428	0.0345715213545826
5.8	0.0332403805333161	-0.0150841822346158	0	0	0.521468893261005	0.79800797778376	0	0
0	0	-0.022120064149557	-0.0315521150160121	0	0	0.155113218154116	0.853586710254207
0.521468893261005	0.79800797778376	0	0	0.0591976753288102	-0.0271760491555857	0	0
0	0	0.324303094534975	-0.770731776227422	0	0	0.033906883159242	0.0554947210542017
5.9	-0.0363908164589356	0.00192327344964714	0	0	0.811753789635251	-0.498172672229435	0	0
0	0	-0.0561555490532674	-0.0269559959767467	0	0	-0.585010309833907	-0.637865071570631
0.811753789635251	-0.498172672229435	0	0	-0.0729589279852481	0.0435035480056053	0	0
0	0	-0.826934140603628	0.059423437561818	0	0	0.0372281202042573	0.072348371368152
6	0.0351423628047384	0.0110395014912961	0	0	0.482042199299391	0.825234681710586	0	0
0	0	-0.0339357888971973	0.00576558186513216	0	0	-0.847701223358438	-0.195157415625877
0.482042199299391	0.825234681710586	0	0	-0.00261645758934088	0.023821480475124	0	0
