# GHZ S RI R 50
0.2	-0.00621049024680942	0.00945980922618811	0	0	0.957959656743816	0.0580607745712433	0	0
0	0	0.021232947993762	0.00419291886145773	0	0	-0.370381137301339	0.911100109980908
0.957959656743816	0.0580607745712433	0	0	0.0209830678489162	0.0439045989788935	0	0
0	0	0.56957238930527	-0.754032134203562	0	0	0.0014075671567594	-0.029910131076843
0.3	0.00689783549398434	-0.00951464583166391	0	0	0.0335137390028831	-0.965197946125425	0	0
0	0	-0.00485561652033149	0.00157563450220652	0	0	-0.134241468486095	-0.974211466650165
0.0335137390028831	-0.965197946125425	0	0	-0.0137680028269406	0.00564041223260409	0	0
0	0	-0.922047602503432	-0.20216319507219	0	0	-0.0323679046350996	-0.0162615534072003
0.4	-0.00873602945839824	0.00786154621779039	0	0	0.948574509131388	0.0620217413076426	0	0
0	0	-0.0394292685314486	0.000863696578079666	0	0	-0.667114804356744	-0.725794539020028
0.948574509131388	0.0620217413076426	0	0	-0.0338032022332838	-0.0133517793074055	0	0
0	0	-0.235159885406393	-0.895815619791034	0	0	0.0218914118858997	0.0203846461988055
0.5	0.010887915488071	-0.00469741699069027	0	0	0.127789971551581	-0.948872308954172	0	0
0	0	-0.0333953916453768	0.00483577662547029	0	0	0.963999625177976	0.207228051137763
0.127789971551581	-0.948872308954172	0	0	0.037013907253673	0.0168663050189448	0	0
0	0	-0.6787209717414	0.636610420778619	0	0	0.00533957764791989	0.00789526297170179
0.6	-0.0113859113644789	0.00176093465295561	0	0	0.955019223728564	0.131391432356202	0	0
0	0	-0.00904447398689553	0.00601495654793423	0	0	0.912773958897847	-0.329382759724064
0.955019223728564	0.131391432356202	0	0	0.00509289280544292	-0.0196539391733292	0	0
0	0	-0.861933217017989	-0.344969471338658	0	0	-0.00523280483933156	-0.00712505359706076
0.7	0.0109478585764189	0.00112646050523325	0	0	0.109210675085314	-0.957710522314985	0	0
0	0	0.0218462748223399	-0.0111670605798619	0	0	-0.611396720449164	0.748357239938886
0.109210675085314	-0.957710522314985	0	0	0.00806230980713702	0.00985502873573397	0	0
0	0	0.04571461298013	0.920505154418204	0	0	0.0022952818117957	-0.0129281462344117
0.8	-0.00979995526535234	-0.00450044374037014	0	0	0.955273833416335	0.113962847257526	0	0
0	0	0.0435107524134309	-0.0420684809699807	0	0	-0.120770630916782	0.961141287276535
0.955273833416335	0.113962847257526	0	0	-0.0226754632152961	0.0128129064690588	0	0
0	0	-0.811949507753768	0.448555349115392	0	0	0.00652321502748966	0.0834679831125274
0.9	0.00725517562128485	0.00736205562714579	0	0	0.145383488459546	-0.9403036605609	0	0
0	0	0.0127655203408481	-0.0279427844454365	0	0	-0.434544745132604	-0.866627182893619
0.145383488459546	-0.9403036605609	0	0	-0.00215765544710432	-0.0616949643273561	0	0
0	0	0.764398070229399	0.525563597831481	0	0	0.0361807187813177	0.0139463913360428
1	-0.00414451416864586	-0.00894519977008848	0	0	0.943403278192285	0.182045942916799	0	0
0	0	-0.014570546057342	0.01167531914167	0	0	-0.838937001527983	-0.481907935610481
0.943403278192285	0.182045942916799	0	0	0.0026071451360834	0.0424664109211767	0	0
0	0	-0.126567460208581	0.903300283594587	0	0	0.00310978815654597	0.00236331043568704
1.1	0.000905947464742474	0.00863945975796557	0	0	0.201841006558059	-0.950559222604483	0	0
0	0	-0.0115474658706613	0.0349522225853635	0	0	0.957447893812345	-0.0510343018803893
0.201841006558059	-0.950559222604483	0	0	0.00353175358838223	0.0023227840181377	0	0
0	0	0.869972701102539	-0.260525685779815	0	0	0.00868769434704797	0.0435963899503672
1.2	0.0018467591084637	-0.006730578648706	0	0	0.960442944019072	0.202788315729026	0	0
0	0	0.0089430331933668	0.0645731714538036	0	0	0.772093211008458	-0.555519387638799
0.960442944019072	0.202788315729026	0	0	0.0539571751801426	-2.6605939619808E-05	0	0
0	0	0.614798309355638	0.672338699494264	0	0	0.00712191479625069	0.100617333459932
1.3	-0.00388235888480183	0.00340792244169202	0	0	0.205206635449887	-0.944294098576208	0	0
0	0	0.0164618188744927	0.0190905891732193	0	0	-0.355332042092576	0.88467041554787
0.205206635449887	-0.944294098576208	0	0	-0.0540239005432167	0.000979743601453604	0	0
0	0	0.322335627775812	-0.860660644095519	0	0	0.0405851254836049	0.0151797354970277
1.4	0.00461055205441122	0.000340899639969955	0	0	0.926197158213419	0.233304499594093	0	0
0	0	-0.013052418457195	-0.0435327836729105	0	0	0.180369202538566	0.93875280818827
0.926197158213419	0.233304499594093	0	0	0.0176069072953229	0.00839458908011629	0	0
0	0	0.90017873564161	-0.0846388000063973	0	0	0.0449023296466004	-0.00590397571427819
1.5	-0.00374518174632668	-0.00339371668187211	0	0	0.270533328491018	-0.924279002172551	0	0
0	0	-0.0381507628477685	-0.0560860186072342	0	0	-0.676275424186864	-0.675935903472756
0.270533328491018	-0.924279002172551	0	0	0.0334573015250012	-0.0327567818141001	0	0
0	0	-0.462768562675904	-0.768296982768835	0	0	0.0336962842417525	0.0527980853480548
1.6	0.00172745250838296	0.0050631080181976	0	0	0.939062312049088	0.294194907885699	0	0
0	0	-0.036353287388926	-0.0193590406306475	0	0	-0.938423563827731	-0.18303703822681
0.939062312049088	0.294194907885699	0	0	-0.0513403076915833	-0.0267769560163156	0	0
0	0	0.497380806484303	-0.755560580246465	0	0	0.00139305396249322	0.0530668722834706
1.7	0.00100310232578756	-0.00497190111532812	0	0	0.288891119109109	-0.9444600626855	0	0
0	0	0.0153543752904328	0.0064905224169944	0	0	0.885397417046149	-0.345080006979886
0.288891119109109	-0.9444600626855	0	0	-0.000813854812706515	0.00520904150227746	0	0
0	0	-0.901581797728861	-0.110179748507126	0	0	0.0403053027482556	-0.0304226547111293
1.8	-0.00377410394286718	0.00315435527325795	0	0	0.918442483455814	0.289957379579158	0	0
0	0	0.0452014242999447	0.0380642185511558	0	0	0.572886602620741	-0.74714056098094
0.918442483455814	0.289957379579158	0	0	0.00674603751803933	0.0651389439720548	0	0
0	0	-0.311453405131706	-0.849527791854739	0	0	0.0277601910430849	-0.0340235252295998
1.9	0.00583475099542288	-2.62055298876424E-05	0	0	0.319135690186572	-0.894809252483698	0	0
0	0	0.0525825189852988	-0.00387579114850903	0	0	-0.0823187696950405	0.94201916172761
0.319135690186572	-0.894809252483698	0	0	0.00970023818731621	0.00881780305171391	0	0
0	0	-0.614593910092765	0.646630058864236	0	0	0.0411613866806192	0.0235231782707013
2	-0.00635545571004257	-0.00394721493853809	0	0	0.891476827641209	0.349517330922596	0	0
0	0	0.0150258944413081	-0.00519726985237873	0	0	0.458114865055429	0.83279152182956
0.891476827641209	0.349517330922596	0	0	-0.0499544506811537	-0.0332735338854557	0	0
0	0	-0.84471141104057	-0.26325334573004	0	0	-0.0529656450591673	-0.0211435050738319
2.1	0.0050328962079004	0.0080472149055498	0	0	0.364441022593816	-0.898118465327192	0	0
0	0	-0.029114420387617	0.00759492790288782	0	0	-0.830378738868027	-0.451722582445733
0.364441022593816	-0.898118465327192	0	0	0.0705661553789776	0.0163297278381134	0	0
0	0	0.13575986260114	0.879258526488765	0	0	-0.00495916967767257	0.00971868806191268
2.2	-0.00151874359248382	-0.0116353535747504	0	0	0.898420543432427	0.376486921972734	0	0
0	0	-0.0479979864450436	0.0169465027367452	0	0	-0.932176066512302	0.0687985061031392
0.898420543432427	0.376486921972734	0	0	0.0146754046990448	-0.0109270716907068	0	0
0	0	-0.737023717469966	0.506227908614683	0	0	0.0426650600553078	-0.0112453532147572
2.3	-0.0037042531218894	0.0136474134799399	0	0	0.38642804535232	-0.889299627398778	0	0
0	0	-0.0302681213276919	0.0190946983480919	0	0	0.736803450166606	-0.555472924053004
0.38642804535232	-0.889299627398778	0	0	0.058056202430293	-0.0289154075708561	0	0
0	0	0.776133309997385	0.432365446718279	0	0	0.0668548734157581	0.0465634078488305
2.4	0.00983711428696255	-0.0134879590682331	0	0	0.87773591792958	0.398454017589318	0	0
0	0	-0.000346429509001963	0.000885878325910514	0	0	0.324472844909077	-0.867938064869262
0.87773591792958	0.398454017589318	0	0	-0.0969062072071777	0.0136367444517164	0	0
0	0	-0.0393644294843199	0.882627847760835	0	0	0.0472761349966508	-0.0492754971093534
2.5	-0.0161914147173686	0.0107121680005017	0	0	0.415439197542929	-0.866336287932828	0	0
0	0	0.0194544969485875	-0.0360894191356484	0	0	0.189311214946722	0.917758661078016
0.415439197542929	-0.866336287932828	0	0	-0.0102351740536315	-0.0272899079122632	0	0
0	0	0.805168882618298	-0.332082184424168	0	0	0.0126873571467918	-0.000937772489910674
2.6	0.0215946570767932	-0.00569732574982275	0	0	0.859457785882224	0.429536460042941	0	0
0	0	0.018192805418348	-0.0387583253850538	0	0	0.667246878366828	0.653711799505532
0.859457785882224	0.429536460042941	0	0	0.00540573722700524	-0.0337152875151174	0	0
0	0	0.630646901520862	0.59737234483806	0	0	0.0626395677840516	0.00988421236638325
2.7	-0.0251740082734211	-0.00114177787205561	0	0	0.444117154825958	-0.853655705221922	0	0
0	0	0.0213231963746432	-0.00950686415862139	0	0	-0.897696401710668	-0.17420273509179
0.444117154825958	-0.853655705221922	0	0	0.00306872741533686	-0.0131868392083428	0	0
0	0	0.27589902229797	-0.835659258860228	0	0	-0.0273538893191495	-0.00117961846214856
2.8	0.0257652965500078	0.00889003839512189	0	0	0.843343963657486	0.457610175205063	0	0
0	0	0.00956400568163398	0.0125782140065251	0	0	-0.842460274374397	0.312668207595199
0.843343963657486	0.457610175205063	0	0	0.00390369544578944	0.063642534534509	0	0
0	0	0.871797628660953	-0.150224983571764	0	0	0.0261519786176874	-0.064084709485358
2.9	-0.0227038120408313	-0.0166661278937878	0	0	0.473729846291099	-0.824390863578377	0	0
0	0	-0.00048320364361441	0.0363706235893241	0	0	0.567479185743299	-0.700943812949464
0.473729846291099	-0.824390863578377	0	0	-0.0537726611686097	0.0339215180578915	0	0
0	0	-0.515357862858056	-0.702859747990255	0	0	-0.0402013214923834	-0.0463785167812912
3	0.0168515993864515	0.0236448913946195	0	0	0.815663390370278	0.498007678213032	0	0
0	0	-0.0113912255779492	0.0290707361346104	0	0	0.0916739793951353	-0.920515217264737
0.815663390370278	0.498007678213032	0	0	-0.00709082867907224	-0.0178080732142947	0	0
0	0	0.406699869289456	-0.760922890746136	0	0	0.013596633541838	0.0857496036608899
3.1	-0.00846607701424678	-0.0279725812679433	0	0	0.518855262645917	-0.80563447353445	0	0
0	0	-0.0205753879816287	0.0119107725436652	0	0	0.448348158573257	0.806861232155042
0.518855262645917	-0.80563447353445	0	0	0.0385049153698414	-0.064515061995763	0	0
0	0	-0.869553145367132	-0.0501296480395155	0	0	-0.0755078810474568	0.00618861440453398
3.2	-0.000970014792018057	0.0297213985863491	0	0	0.804108731479377	0.542750626932367	0	0
0	0	-0.0180427697016096	-0.00635235064232267	0	0	0.798321949329168	0.437390580702014
0.804108731479377	0.542750626932367	0	0	0.000554239110006457	0.0253149877948197	0	0
0	0	-0.337491599312473	-0.814326623398529	0	0	-0.0593133405161984	0.00688316234489472
3.3	0.0101144286350568	-0.0274934601610997	0	0	0.554212077073036	-0.800044839281106	0	0
0	0	-0.00135779711107117	-0.0241446329122402	0	0	-0.905207524678192	0.0502505252203489
0.554212077073036	-0.800044839281106	0	0	0.0619864971028941	0.0244077309391698	0	0
0	0	-0.574960278805436	0.675696308382819	0	0	-0.0273930397178021	-0.106935663363588
3.4	-0.0177466212480074	0.021542268964848	0	0	0.783404683818432	0.559007998834071	0	0
0	0	-0.00432945370132799	-0.0407298570256672	0	0	-0.733072375915027	0.543192660318329
0.783404683818432	0.559007998834071	0	0	-0.115039977226698	0.008771941649605	0	0
0	0	-0.857006909738402	-0.222379876853054	0	0	-0.0195464036810225	-0.0397459051309895
3.5	0.0230633283228036	-0.0137604667514638	0	0	0.573571914213064	-0.774284736265859	0	0
0	0	0.00810097184856544	-0.0304555100394245	0	0	0.297114096246601	-0.869288174829377
0.573571914213064	-0.774284736265859	0	0	-0.0121462212131574	-0.0536498372962465	0	0
0	0	0.167884194928454	0.843391157578247	0	0	0.0850241270490053	-0.0725879512771454
3.6	-0.0249974692080619	0.00500538807346394	0	0	0.767196963685669	0.58337286547712	0	0
0	0	0.0198292554219116	0.00236723756083997	0	0	-0.210196909755616	-0.894408743998506
0.767196963685669	0.58337286547712	0	0	-0.0342817601665821	0.0604607019509997	0	0
0	0	-0.692634158388307	0.520870474211677	0	0	0.044769656084188	-0.0316271620593129
3.7	0.0229861983666806	0.00435334788435654	0	0	0.602297389589652	-0.74701628022553	0	0
0	0	0.0141909687529028	0.0362898581692368	0	0	0.639857387511349	0.648357806805871
0.602297389589652	-0.74701628022553	0	0	0.118341820054116	0.0072543258395132	0	0
0	0	0.77092574678715	0.408882161876775	0	0	0.0554565158902586	-0.0191538091024974
3.8	-0.0179197083647524	-0.0121204813918273	0	0	0.740656123096653	0.620920649625774	0	0
0	0	0.0154139103641267	0.0506173589136897	0	0	0.870922873255742	0.185719002136106
0.740656123096653	0.620920649625774	0	0	-0.0253321595911563	0.0208637357235162	0	0
0	0	-0.0151707378824756	0.871030606832405	0	0	-0.0583309905415427	-0.0251829640087719
3.9	0.0107086039179873	0.0169538882580478	0	0	0.625613925664723	-0.739816432873702	0	0
0	0	0.011152524219281	0.0157989011098933	0	0	-0.823306053163726	0.328104550829164
0.625613925664723	-0.739816432873702	0	0	-0.0133425830131491	0.0832940481038952	0	0
0	0	0.782066511427429	-0.385913910162247	0	0	0.0247661037958418	-0.00573648715980892
4	-0.00198902715997113	-0.0184931373956192	0	0	0.722003139181502	0.633841322068924	0	0
0	0	-0.0168660842889907	-0.0120656145252374	0	0	-0.514993298859203	0.724532371483654
0.722003139181502	0.633841322068924	0	0	0.0508546178060009	-0.0742235289134958	0	0
0	0	0.684000729352569	0.51497422649882	0	0	-0.0047749297025216	0.0095583372764008
4.1	-0.00601471776184069	0.0165355389264748	0	0	0.639395198074518	-0.708959741525757	0	0
0	0	-0.0418307071048924	-0.0351810768991434	0	0	0.0542263491855542	-0.891049152532026
0.639395198074518	-0.708959741525757	0	0	0.0248793155472276	-0.11173849832647	0	0
0	0	0.183022733492269	-0.827639346043566	0	0	0.0263239708677423	0.0817510813741992
4.2	0.0124344719364415	-0.0118046470559393	0	0	0.703887776981671	0.650798624617086	0	0
0	0	-0.0492523573078757	-0.0152509389169642	0	0	-0.433481483830974	-0.779555791217589
0.703887776981671	0.650798624617086	0	0	-0.0400373961614497	0.0164586932914641	0	0
0	0	0.830459445205956	-0.185046422253975	0	0	-0.0118703845528502	-0.0412585335215958
4.3	-0.016164265729001	0.0048203415857739	0	0	0.659684508911193	-0.697133553742204	0	0
0	0	-0.00771962282627731	0.00678701890210773	0	0	0.777670056889649	0.422978601575884
0.659684508911193	-0.697133553742204	0	0	-0.0109634437005003	0.0672537256476512	0	0
0	0	-0.534267490802126	-0.672445623855903	0	0	-0.0144285893726502	0.00241115555565411
4.4	0.0163030501419301	0.00336961518567376	0	0	0.680211067141594	0.669389865729415	0	0
0	0	0.0378362084111822	0.00426149765053021	0	0	0.88715226113055	-0.0540245712118233
0.680211067141594	0.669389865729415	0	0	0.00128467494463844	-0.050118346950423	0	0
0	0	0.345193876264549	-0.771505276118389	0	0	-0.0335483428601829	0.00331944039681009
4.5	-0.0127698166630507	-0.0107514812199506	0	0	0.676149892678823	-0.662069704615847	0	0
0	0	0.0645955890086109	-0.0047021832603406	0	0	-0.721453988127931	0.522746693375831
0.676149892678823	-0.662069704615847	0	0	-0.0498333179092408	0.0264542873962106	0	0
0	0	-0.834355472506799	0.0114456425460348	0	0	-0.0858907565005091	0.0619219768610992
4.6	0.00625238712414945	0.0163467298718963	0	0	0.644203685595282	0.691038372732577	0	0
0	0	0.0467456826099497	-0.0251605591173095	0	0	-0.312880498371982	0.843597651489919
0.644203685595282	0.691038372732577	0	0	-0.00397947337903077	0.0137951906566347	0	0
0	0	-0.371352499122346	-0.744100109871913	0	0	-0.0800531461773634	-0.00967414659975897
4.7	0.00188171274146016	-0.0189838902986903	0	0	0.708539752728422	-0.637460255282152	0	0
0	0	-0.0243071868639458	-0.00550354175762271	0	0	-0.19072567024626	-0.87347002065716
0.708539752728422	-0.637460255282152	0	0	0.0654519677656218	-0.0177116993439021	0	0
0	0	-0.524190389961476	0.65517639024171	0	0	-0.073135852909511	0.0720875538353375
4.8	-0.0104777720873621	0.0181426442136208	0	0	0.637695192577815	0.724675275768129	0	0
0	0	-0.0583704482515323	0.0342755808226215	0	0	-0.606810533467125	-0.634810582958234
0.637695192577815	0.724675275768129	0	0	0.0528634304651521	-0.0184465519140332	0	0
0	0	-0.827400038335906	-0.197261653865575	0	0	-0.00917829452470011	0.0716643811001259
4.9	0.018000698867972	-0.0129860764443489	0	0	0.7306884073008	-0.629745002489911	0	0
0	0	-0.0396059915022671	0.0587094322826872	0	0	0.854248271972682	0.207041472737588
0.7306884073008	-0.629745002489911	0	0	-0.0809264251575482	-0.0289766577135845	0	0
0	0	0.19901384067401	0.821190063546994	0	0	-0.0835858275102084	0.00367223811415483
5	-0.0226951393173868	0.00484364395000572	0	0	0.618756917502092	0.726171428159534	0	0
0	0	-0.000395395392121883	0.0205042948785238	0	0	0.830981454285312	-0.298334796426489
0.618756917502092	0.726171428159534	0	0	-0.0477486925414039	0.0407352608293311	0	0
0	0	-0.645126330396649	0.533877429285759	0	0	0.0413566113461746	-0.00927125477725651
5.1	0.0242315969651175	0.005043233291194	0	0	0.727482907315586	-0.60620451994102	0	0
0	0	0.0381555407031619	-0.0333435515236693	0	0	-0.533283204383482	0.695522488500575
0.727482907315586	-0.60620451994102	0	0	-0.0218588533568626	-0.0413412109978518	0	0
0	0	0.74992379678264	0.344842250160568	0	0	0.0723519490028122	-0.0198264835632706
5.2	-0.0218394214154571	-0.0160679014776008	0	0	0.583824779391222	0.745250156733163	0	0
0	0	0.015604166969346	-0.074263672461682	0	0	-0.0788541943773604	0.871743588475542
0.583824779391222	0.745250156733163	0	0	0.0380844650563781	0.0225159267846404	0	0
0	0	0.0150769044377466	0.832373034163765	0	0	0.0264820584399326	0.0663600964930436
5.3	0.0154976091258762	0.0256433354545489	0	0	0.763882782637452	-0.571728598683262	0	0
0	0	-0.014711371416483	-0.0414043111016143	0	0	-0.411903480011682	-0.771128015635573
0.763882782637452	-0.571728598683262	0	0	-0.0321655579312131	0.0248421843585197	0	0
0	0	0.743110666803887	-0.373960250074151	0	0	-0.0436263786038772	0.0119015799647296
5.4	-0.00630671007567987	-0.0317209001022154	0	0	0.563480041418256	0.769176701696843	0	0
0	0	-0.0317530970268518	0.0144172437376561	0	0	-0.766989686532208	-0.42876412602821
0.563480041418256	0.769176701696843	0	0	0.070337766227748	0.0877938954186504	0	0
0	0	0.657069624910009	0.510305536534416	0	0	-0.0096464850134552	0.021891543104398
5.5	-0.00454407965605937	0.0342294180867412	0	0	0.78022065650891	-0.560805266958191	0	0
0	0	0.0229821352673101	0.0597759483868994	0	0	0.877450171422028	-0.0436804712213467
0.78022065650891	-0.560805266958191	0	0	-0.00649248672022296	-0.0275819495781493	0	0
0	0	0.158438481880209	-0.816676212964702	0	0	0.0214179758130217	0.0386182232090096
5.6	0.0160441754639854	-0.0317035958118373	0	0	0.546795724650451	0.786068824521599	0	0
0	0	0.0423524607918954	0.0563699452054182	0	0	0.698926313584513	-0.507737075393156
0.546795724650451	0.786068824521599	0	0	0.0021494827876864	-0.109442627287498	0	0
0	0	0.800245439361986	-0.201239683619758	0	0	0.0106939164909038	0.117681189644895
5.7	-0.0267371055095595	0.0250483229074066	0	0	0.799383252451851	-0.538500135755949	0	0
0	0	0.0208702240193452	-0.00723896139322574	0	0	-0.319128104001272	0.807433476404506
0.799383252451851	-0.538500135755949	0	0	-0.0120723400763289	0.0516558754573057	0	0
0	0	-0.535501930536721	-0.649947812457548	0	0	0.0585093411917527	0.0348066636205025
5.8	0.0336311498855465	-0.0144383340865445	0	0	0.521222696795094	0.79954092963807	0	0
0	0	-0.0216567331914928	-0.0315400407693201	0	0	0.154461396676582	0.854577237594407
0.521222696795094	0.79954092963807	0	0	0.0591429843880828	-0.0271416315725059	0	0
0	0	0.325350900162223	-0.771188103213669	0	0	0.0337261296789729	0.0557979015271798
5.9	-0.0368329803616454	0.00135444451670732	0	0	0.813512926604447	-0.498083596206829	0	0
0	0	-0.05571662463225	-0.026838367810855	0	0	-0.585275599996359	-0.639169059251572
0.813512926604447	-0.498083596206829	0	0	-0.0736259193535643	0.0435358936547027	0	0
0	0	-0.828070732269234	0.0588464300402363	0	0	0.0370801813284373	0.07282002624351
6	0.0355466987355864	0.0114967399043825	0	0	0.482308189772486	0.827069385372156	0	0
0	0	-0.0336177471720146	0.0059421789349607	0	0	-0.848899395715455	-0.195934833268219
0.482308189772486	0.827069385372156	0	0	-0.00305857622514808	0.0240958638407366	0	0
