# GHZ S RI R 50
0.2	-0.00624036650864985	0.0103228820235616	0	0	0.957877617746285	0.0581971220276593	0	0
0	0	0.0205299256275265	0.00468672832347833	0	0	-0.370471869770929	0.911037927471171
0.957877617746285	0.0581971220276593	0	0	0.0208620286145133	0.0427236422932464	0	0
0	0	0.56964121217	-0.753951928276318	0	0	0.00129139377197135	-0.0311048378432741
0.3	0.00676732435959445	-0.00985772750178653	0	0	0.0337277043132788	-0.965155176651996	0	0
0	0	-0.00519193282254524	0.00169148212622982	0	0	-0.134034340280284	-0.97418933177288
0.0337277043132788	-0.965155176651996	0	0	-0.0141536930026496	0.00492678273486828	0	0
0	0	-0.921958973462011	-0.202342426708773	0	0	-0.032768357874809	-0.01699161800868
0.4	-0.00878892695057653	0.00788772176244561	0	0	0.948562219720788	0.062348126494995	0	0
0	0	-0.0394292573338389	0.000806088059680453	0	0	-0.66685859624467	-0.726018126304196
0.948562219720788	0.062348126494995	0	0	-0.0342062343192763	-0.0137078686081842	0	0
0	0	-0.234848890000545	-0.895888744084571	0	0	0.0214350774965494	0.0200664542261384
0.5	0.0111907332690378	-0.00462769901028446	0	0	0.128233219958474	-0.948886854057627	0	0
0	0	-0.0331457876877347	0.0046851654679946	0	0	0.96398920851574	0.207691357237861
0.128233219958474	-0.948886854057627	0	0	0.0367085475421734	0.0168066068734193	0	0
0	0	-0.679074845807198	0.636353414154908	0	0	0.00501273537901617	0.00781390836412531
0.6	-0.0118762745964689	0.00181902148667892	0	0	0.955154388283071	0.131969411633329	0	0
0	0	-0.00862537295247088	0.00588439809592896	0	0	0.913173900329228	-0.328953577289097
0.955154388283071	0.131969411633329	0	0	0.00497993412022861	-0.01966590010677	0	0
0	0	-0.861946196173662	-0.345530584290992	0	0	-0.00537801804273383	-0.00713428259960876
0.7	0.0114300815463877	0.000830069906429519	0	0	0.109856000885034	-0.958010902065232	0	0
0	0	0.0223309533833137	-0.011201915604993	0	0	-0.612101353120861	0.74829734681722
0.109856000885034	-0.958010902065232	0	0	0.00803795244239952	0.00983450215387708	0	0
0	0	0.0451776283609172	0.920913235883686	0	0	0.00228948354892172	-0.0129767825891612
0.8	-0.0101222548994107	-0.00407530962554903	0	0	0.955774134871525	0.114629854599475	0	0
0	0	0.0439604990036901	-0.0420138967518538	0	0	-0.121389863425312	0.961611766952459
0.955774134871525	0.114629854599475	0	0	-0.022701943528405	0.0126768467854062	0	0
0	0	-0.812662826709074	0.448341435327415	0	0	0.00644044639233445	0.0834295257080764
0.9	0.00740446971316445	0.00698348347472291	0	0	0.146054451051385	-0.941014187010136	0	0
0	0	0.0130954130236177	-0.0278349188442142	0	0	-0.434411905087127	-0.867543975388326
0.146054451051385	-0.941014187010136	0	0	-0.00212234255907639	-0.0619954481054259	0	0
0	0	0.764710155778099	0.526393240132895	0	0	0.0361575313839934	0.0137796862433427
1	-0.00420866531698885	-0.00871136492711163	0	0	0.944270277964874	0.182651699669861	0	0
0	0	-0.0144131874279617	0.0117984126322303	0	0	-0.839548515524837	-0.482735484499789
0.944270277964874	0.182651699669861	0	0	0.0024412658032866	0.0423448030748707	0	0
0	0	-0.127076339871457	0.9041261777358	0	0	0.0029156282912265	0.00213730639206644
1.1	0.0010156547439819	0.0085715240397231	0	0	0.202310430826801	-0.951615541441805	0	0
0	0	-0.0115692080945673	0.0350444618016722	0	0	0.958547425190068	-0.0508377412276556
0.202310430826801	-0.951615541441805	0	0	0.00330598849112619	0.0021740839283695	0	0
0	0	0.871028688381056	-0.260589983995645	0	0	0.00835948660066856	0.0435607447474756
1.2	0.00158802178650093	-0.00673378502280788	0	0	0.961622154065026	0.20305087006151	0	0
0	0	0.00879195922332462	0.0645855734311916	0	0	0.773089857194833	-0.556185154516811
0.961622154065026	0.20305087006151	0	0	0.0538076337728072	-9.12742288212143E-05	0	0
0	0	0.61554309645415	0.673212318265674	0	0	0.00674500608731148	0.100886300309204
1.3	-0.00351960647253277	0.00336825985422703	0	0	0.205228290167773	-0.945552548797347	0	0
0	0	0.01626112735352	0.0190040185164976	0	0	-0.355632981402566	0.885901821265287
0.205228290167773	-0.945552548797347	0	0	-0.0544447520058253	0.00101327457083151	0	0
0	0	0.322597662114944	-0.861854227779327	0	0	0.0403238799675601	0.0153448507791413
1.4	0.00422768940818522	0.000415877356144125	0	0	0.927434709285719	0.233129554507486	0	0
0	0	-0.0132162488098704	-0.0437077395559564	0	0	0.181015731032232	0.939883780564365
0.927434709285719	0.233129554507486	0	0	0.0174085134110927	0.00843280728399494	0	0
0	0	0.901302179925432	-0.0851448763592526	0	0	0.0446809732481982	-0.00576955105997918
1.5	-0.00333516942747552	-0.00350606171740807	0	0	0.270182287451071	-0.925496762548849	0	0
0	0	-0.0382516760935125	-0.0563197552087609	0	0	-0.677548554767031	-0.676260901885047
0.270182287451071	-0.925496762548849	0	0	0.0332743030911964	-0.032808900808934	0	0
0	0	-0.463854053304737	-0.768880797187225	0	0	0.0335758080022137	0.0530908305651068
1.6	0.00131160848788373	0.00527572335345186	0	0	0.940231314627885	0.293609038568623	0	0
0	0	-0.0363711146165705	-0.0196217567471898	0	0	-0.939556803965569	-0.182360498473624
0.940231314627885	0.293609038568623	0	0	-0.0516297524290278	-0.0266453451830162	0	0
0	0	0.497195867478893	-0.756795501045806	0	0	0.0013297863554859	0.05341774767057
1.7	0.00133588686947331	-0.00527407553615478	0	0	0.288123668113038	-0.945434208757632	0	0
0	0	0.0154172974474043	0.00625075259596569	0	0	0.885762220853086	-0.346297899472702
0.288123668113038	-0.945434208757632	0	0	-0.000885721896846361	0.00530975086920816	0	0
0	0	-0.902440099982054	-0.109319510210218	0	0	0.0402476027987913	-0.0303271609843637
1.8	-0.00399619077861063	0.00344756157727406	0	0	0.91917826374186	0.289093187241875	0	0
0	0	0.0453292116056809	0.0378934466340973	0	0	0.572360967983973	-0.748220820197296
0.91917826374186	0.289093187241875	0	0	0.00685294595326992	0.0652656894644928	0	0
0	0	-0.312600675334466	-0.849657277263858	0	0	0.0277271446764474	-0.0339451562156425
1.9	0.00601317507184463	-0.00024784086580789	0	0	0.318249897306661	-0.895370622233387	0	0
0	0	0.052742541151522	-0.00394925418339342	0	0	-0.0812745631824491	0.942394198835665
0.318249897306661	-0.895370622233387	0	0	0.00970663061893852	0.00885633330669365	0	0
0	0	-0.614043988608847	0.647520703562711	0	0	0.0412819204684473	0.0235606492271298
2	-0.00655210748656977	-0.00378549647976654	0	0	0.891859915948759	0.348623902619281	0	0
0	0	0.0151788963150457	-0.00517278021644261	0	0	0.459035347465823	0.83237657277513
0.891859915948759	0.348623902619281	0	0	-0.0500359619380894	-0.0331405465016065	0	0
0	0	-0.845061357017167	-0.262381022643651	0	0	-0.0529855017050189	-0.0209643819598154
2.1	0.00527489824999949	0.00789521537288032	0	0	0.363626247724592	-0.89826477914841	0	0
0	0	-0.0290044605323065	0.00770336495187433	0	0	-0.83070366997984	-0.450929606329683
0.363626247724592	-0.89826477914841	0	0	0.0705539016643007	0.0162282092525275	0	0
0	0	0.136538775354568	0.879049214335732	0	0	-0.00492783944547978	0.00978304356743802
2.2	-0.0017823568684333	-0.0114476949207331	0	0	0.898407605373009	0.375798420311464	0	0
0	0	-0.0479573271400215	0.0171031171898525	0	0	-0.931933576198481	0.0694372869064609
0.898407605373009	0.375798420311464	0	0	0.0146321072728501	-0.0109161284914067	0	0
0	0	-0.736515420849991	0.506638787307588	0	0	0.0426395816450565	-0.0112297375190726
2.3	-0.00347534385535967	0.0134265847289205	0	0	0.385948657446705	-0.889175868355478	0	0
0	0	-0.0303009935252933	0.0192542906149247	0	0	0.736340422271718	-0.55569080076075
0.385948657446705	-0.889175868355478	0	0	0.0579727071603476	-0.0289145319957439	0	0
0	0	0.776144770660753	0.43187286956821	0	0	0.0668992445407622	0.0465639554300863
2.4	0.0096684335081908	-0.0132790046586196	0	0	0.877579142596148	0.398141715995281	0	0
0	0	-0.000441937582756325	0.00100900491842918	0	0	0.324164285494293	-0.867856921491847
0.877579142596148	0.398141715995281	0	0	-0.0968639666004376	0.0137028470731937	0	0
0	0	-0.0391083706501143	0.882463599545199	0	0	0.0473104825814041	-0.049186265852845
2.5	-0.0160545922424945	0.010567495540858	0	0	0.415361346788236	-0.866227800406349	0	0
0	0	0.019321636881426	-0.0360304362213173	0	0	0.189389347157736	0.917657240215086
0.415361346788236	-0.866227800406349	0	0	-0.0102504850120216	-0.0272446970572265	0	0
0	0	0.80506271942437	-0.332135932155796	0	0	0.0128077430632064	-0.000864923454296646
2.6	0.0214377788195614	-0.00561649415584994	0	0	0.859457986486106	0.429643295451465	0	0
0	0	0.01806229099953	-0.0387706017459539	0	0	0.667287542197082	0.653799669241774
0.859457986486106	0.429643295451465	0	0	0.00539719632042907	-0.0336789272198387	0	0
0	0	0.630686087133355	0.597453409474061	0	0	0.0627946026696666	0.00993116733056447
2.7	-0.0249740557527961	-0.00119414603503517	0	0	0.444361142203601	-0.853821930965566	0	0
0	0	0.021228938223507	-0.00957715616543328	0	0	-0.897984332908944	-0.174328160877015
0.444361142203601	-0.853821930965566	0	0	0.00306067984871789	-0.0131554179027134	0	0
0	0	0.276053908067129	-0.835918799882963	0	0	-0.0272285688595264	-0.00117474526499591
2.8	0.0255392802259619	0.00893354405144274	0	0	0.843717783865912	0.457920715169318	0	0
0	0	0.00952363193469409	0.0124780893586045	0	0	-0.842970599222007	0.312814081497121
0.843717783865912	0.457920715169318	0	0	0.00388519729861029	0.0637462075912187	0	0
0	0	0.872317853619522	-0.150273862144809	0	0	0.0263228091329939	-0.0641687555665602
2.9	-0.0224616329901945	-0.0166859052758763	0	0	0.474039404314684	-0.825028020068403	0	0
0	0	-0.000468398208294976	0.0362724640996976	0	0	0.567882976185551	-0.701563213344273
0.474039404314684	-0.825028020068403	0	0	-0.053861131080452	0.0340171278300457	0	0
0	0	-0.515837309478552	-0.703389565356951	0	0	-0.0401665305657601	-0.0464806826909732
3	0.0165700335107555	0.0236376389413249	0	0	0.81655168564959	0.498261541381719	0	0
0	0	-0.0113393389328553	0.0290019768402459	0	0	0.0915090921318626	-0.921454515733636
0.81655168564959	0.498261541381719	0	0	-0.00711832065495442	-0.0177952299796672	0	0
0	0	0.406892079629425	-0.761791332685173	0	0	0.0137558365810686	0.085866683948618
3.1	-0.00812800328473785	-0.0279678394492555	0	0	0.518979065261593	-0.80674418890679	0	0
0	0	-0.020508700563021	0.0118914964284343	0	0	0.449310662257544	0.807527813145391
0.518979065261593	-0.80674418890679	0	0	0.0385111980977951	-0.0646470247392668	0	0
0	0	-0.870570552186283	-0.0496991153190871	0	0	-0.0756211238046711	0.00624410940654012
3.2	-0.00135300617249738	0.0297468977082057	0	0	0.805408891812314	0.542618444874138	0	0
0	0	-0.0179887756298548	-0.00631415053518501	0	0	0.799651811885567	0.437202134259144
0.805408891812314	0.542618444874138	0	0	0.000607756659817715	0.0253962062064449	0	0
0	0	-0.338609905187122	-0.814990775170899	0	0	-0.059416896153091	0.00696987329588546
3.3	0.0105001115052675	-0.0275590535882729	0	0	0.553809439538972	-0.801453826519851	0	0
0	0	-0.00133909235940127	-0.0240653899818419	0	0	-0.906164974916959	0.0514075864526693
0.553809439538972	-0.801453826519851	0	0	0.0621743791615745	0.0243211856086787	0	0
0	0	-0.574785738793334	0.677155620785451	0	0	-0.0277114048966109	-0.107124566290813
3.4	-0.0181074850780882	0.0216186363508815	0	0	0.784897743207436	0.558241470918769	0	0
0	0	-0.00435464466051524	-0.0406349607191301	0	0	-0.732931191901733	0.544835915216116
0.784897743207436	0.558241470918769	0	0	-0.115187814281507	0.0091329022956359	0	0
0	0	-0.85816157843888	-0.221271569203183	0	0	-0.0197069639364701	-0.0397612897276434
3.5	0.0234190984541524	-0.0138243152965535	0	0	0.572510936251741	-0.775731599125608	0	0
0	0	0.00804316764180611	-0.0303836158884211	0	0	0.29575803184713	-0.870413083603074
0.572510936251741	-0.775731599125608	0	0	-0.0123473983033388	-0.053676612733601	0	0
0	0	0.169510627482706	0.843664761086582	0	0	0.084881458314876	-0.0729867486198158
3.6	-0.0253687902001134	0.00507146011070194	0	0	0.76847461920749	0.581944295449773	0	0
0	0	0.0197459945640505	0.00239655242315285	0	0	-0.212052494050912	-0.89429589583194
0.76847461920749	0.581944295449773	0	0	-0.0340555982840745	0.0606054195777988	0	0
0	0	-0.691832672803212	0.522430087298228	0	0	0.0446862741961714	-0.0318232698310492
3.7	0.0233638715181493	0.00427987757368485	0	0	0.600672467000291	-0.748058153429869	0	0
0	0	0.0141102253434114	0.0362527545069622	0	0	0.641184881795837	0.646981294293271
0.600672467000291	-0.748058153429869	0	0	0.118316080055546	0.00677217324666854	0	0
0	0	0.771743853283652	0.407243006092862	0	0	0.0553849682765651	-0.0193857944533852
3.8	-0.0182858775089757	-0.0120283533570328	0	0	0.741454523864611	0.619029901553407	0	0
0	0	0.0153549804316649	0.0505239233928348	0	0	0.87090731667415	0.183801433354064
0.741454523864611	0.619029901553407	0	0	-0.0252201818311107	0.020952385302973	0	0
0	0	-0.0133324482889328	0.870656446680809	0	0	-0.058371474705395	-0.0249194612021024
3.9	0.0110414659809885	0.0168588127622453	0	0	0.623573961056708	-0.740244970297156	0	0
0	0	0.0111231905407604	0.0156673211877598	0	0	-0.821925662248554	0.329425886918094
0.623573961056708	-0.740244970297156	0	0	-0.0130036230173848	0.0831968343349403	0	0
0	0	0.780609630159945	-0.387102617593689	0	0	0.0247003514564636	-0.00583274107477314
4	-0.00229925862066233	-0.018432637266302	0	0	0.722115526790076	0.631820640839147	0	0
0	0	-0.0168549451863769	-0.012204971928148	0	0	-0.513106197937224	0.724503335053255
0.722115526790076	0.631820640839147	0	0	0.0504762688240506	-0.074175879200756	0	0
0	0	0.684022590316721	0.513156516590894	0	0	-0.00473898468826011	0.00953829878958503
4.1	-0.00570048810227528	0.0165047347894128	0	0	0.637433165734858	-0.708725739600443	0	0
0	0	-0.041770043010264	-0.0352930479877337	0	0	0.0529260210876666	-0.889757159002905
0.637433165734858	-0.708725739600443	0	0	0.0245063423553071	-0.111436027871693	0	0
0	0	0.181611566838296	-0.82662050495079	0	0	0.0264517230129413	0.0814171580238732
4.2	0.0121041372377619	-0.0117827069848789	0	0	0.703295632281591	0.648929540735432	0	0
0	0	-0.0491525995427645	-0.0153076714122269	0	0	-0.433526025649465	-0.777832286858999
0.703295632281591	0.648929540735432	0	0	-0.0398456372244792	0.0164912279919735	0	0
0	0	0.828895345319723	-0.185554493905361	0	0	-0.011926820565609	-0.0411050234420931
4.3	-0.0158350139565552	0.00479832113836399	0	0	0.658050973237042	-0.696235876312764	0	0
0	0	-0.00760141383875812	0.0067977931910387	0	0	0.77658878355236	0.42179928709959
0.658050973237042	-0.696235876312764	0	0	-0.0108185733158095	0.0670084136150166	0	0
0	0	-0.533748667271709	-0.670982643960186	0	0	-0.014376781799056	0.00242250345484251
4.4	0.0159931594825758	0.00337069633939926	0	0	0.6791687432503	0.668100840266596	0	0
0	0	0.0379504604234654	0.00432995346824347	0	0	0.885679872954193	-0.0541203005361809
0.6791687432503	0.668100840266596	0	0	0.00126831414090433	-0.0499610416893421	0	0
0	0	0.344464712068271	-0.770306477069235	0	0	-0.0334179798056022	0.00333109463100376
4.5	-0.0124700120930074	-0.0107129756413331	0	0	0.675172773369531	-0.660962171521472	0	0
0	0	0.0646820877840407	-0.00459523357712824	0	0	-0.720442216959984	0.521876091135492
0.675172773369531	-0.660962171521472	0	0	-0.0497042783894766	0.0263518462388579	0	0
0	0	-0.833111244711543	0.0113242818625386	0	0	-0.0856127467342072	0.0617212036023039
4.6	0.00593584017155339	0.0162667302678303	0	0	0.643124483194844	0.690387753311261	0	0
0	0	0.0467986389312363	-0.0250473426066336	0	0	-0.312831081963541	0.842440749081316
0.643124483194844	0.690387753311261	0	0	-0.00403133787658636	0.0137755575913664	0	0
0	0	-0.370603330059759	-0.743335762406538	0	0	-0.0798019077613507	-0.00972083111118426
4.7	0.00223322040667382	-0.0188823964757694	0	0	0.708198479217865	-0.636471072910784	0	0
0	0	-0.0243044029145516	-0.00541192770894944	0	0	-0.190059824517445	-0.872784632743692
0.708198479217865	-0.636471072910784	0	0	0.0652829146879658	-0.017566164507503	0	0
0	0	-0.52408407412464	0.654285915773245	0	0	-0.0730331965620529	0.071847830136942
4.8	-0.0108616791939824	0.0180442268846173	0	0	0.636899029540825	0.724579542780148	0	0
0	0	-0.0584117571329782	0.0343316370395441	0	0	-0.606083952580266	-0.634820820266584
0.636899029540825	0.724579542780148	0	0	0.0527504406809477	-0.0182806893135014	0	0
0	0	-0.826814418984257	-0.197652057708272	0	0	-0.00921906110443846	0.0715356469574314
4.9	0.0183845875002632	-0.0128859217776526	0	0	0.730736256349397	-0.629270954402931	0	0
0	0	-0.0396713039525926	0.0587266875862311	0	0	0.8539315634657	0.207434437217003
0.730736256349397	-0.629270954402931	0	0	-0.0809045457219709	-0.0289220564416107	0	0
0	0	0.198538614734541	0.821092338994349	0	0	-0.0835180571354022	0.00353605667963484
5	-0.0230751513247582	0.00473255424284105	0	0	0.61857886872027	0.72626286433506	0	0
0	0	-0.000457510644345501	0.0204998919719461	0	0	0.831107610177746	-0.298042635958805
0.61857886872027	0.72626286433506	0	0	-0.0477911403990234	0.0408352836466387	0	0
0	0	-0.645333003278818	0.533657464883233	0	0	0.0413885353165192	-0.00929122281526044
5.1	0.0246254958781897	0.00516308847957179	0	0	0.727545250781757	-0.60634789378792	0	0
0	0	0.0381254187139989	-0.033349882603645	0	0	-0.533474755392616	0.695616703184573
0.727545250781757	-0.60634789378792	0	0	-0.0218732119986445	-0.0412131504860723	0	0
0	0	0.75005024472452	0.344998543165982	0	0	0.0723969179931916	-0.0198667058456621
5.2	-0.0222446860119637	-0.01619091825158	0	0	0.584194679402217	0.745149608844445	0	0
0	0	0.0156213861251876	-0.0742592693916645	0	0	-0.0786924881000827	0.872032709774583
0.584194679402217	0.745149608844445	0	0	0.0381439792107111	0.022623874292612	0	0
0	0	0.0152595322184511	0.832629781422136	0	0	0.0265153519238176	0.0663492413783525
5.3	0.0159006785751343	0.0257595742377386	0	0	0.76353851910057	-0.572334730617225	0	0
0	0	-0.0146466893452602	-0.0413888775804908	0	0	-0.41245532723305	-0.7711121063336
0.76353851910057	-0.572334730617225	0	0	-0.032075867439609	0.024988483637536	0	0
0	0	0.743108325879641	-0.374485582232671	0	0	-0.043665613060763	0.0119262065300476
5.4	-0.00668959609003601	-0.0318402263512522	0	0	0.564175409073178	0.768550488635659	0	0
0	0	-0.031657828304027	0.0144414782547069	0	0	-0.767448110680002	-0.428126168680755
0.564175409073178	0.768550488635659	0	0	0.0705730243624425	0.0876874571804769	0	0
0	0	0.657589367076465	0.509773465743182	0	0	-0.00964119803834739	0.0218915898041873
5.5	-0.00416035311014742	0.0343739407349336	0	0	0.779268532357613	-0.561616578595101	0	0
0	0	0.023077830159832	0.0598040409338353	0	0	0.87723221454966	-0.044659951299415
0.779268532357613	-0.561616578595101	0	0	-0.0064973012759507	-0.0275343458351161	0	0
0	0	0.157488546586663	-0.816697502795371	0	0	0.0214748857926083	0.0385375364689082
5.6	0.0156469521317526	-0.0318712795393013	0	0	0.547574072034679	0.78478955947592	0	0
0	0	0.0424126059155632	0.0563982761333164	0	0	0.697895347207535	-0.50833422271952
0.547574072034679	0.78478955947592	0	0	0.00187365446540715	-0.109289060957687	0	0
0	0	0.79954419691726	-0.202135972475085	0	0	0.010968597120427	0.117500388699522
5.7	-0.0263196619916959	0.0252121418783445	0	0	0.797676370767695	-0.53907762966663	0	0
0	0	0.0208740773749434	-0.00722015914508689	0	0	-0.31778589959998	0.807076253252278
0.797676370767695	-0.53907762966663	0	0	-0.0118398392422302	0.0516176959030883	0	0
0	0	-0.535828877281669	-0.648640872159167	0	0	0.0584935034716179	0.0345486020208477
5.8	0.0332226246113574	-0.0145869689535024	0	0	0.521507184435572	0.797606744222441	0	0
0	0	-0.0217232140784641	-0.031532844843752	0	0	0.155273833610425	0.8532248526979
0.521507184435572	0.797606744222441	0	0	0.0589714114498376	-0.0271342679250579	0	0
0	0	0.323982878409425	-0.770524255080032	0	0	0.0337595666293629	0.0555191387574435
5.9	-0.0364535625812855	0.00150692198729463	0	0	0.811320682999306	-0.498059390421256	0	0
0	0	-0.0558423544136638	-0.0268467828693738	0	0	-0.584867359540352	-0.637465449725519
0.811320682999306	-0.498059390421256	0	0	-0.0730880781530315	0.0436381722309973	0	0
0	0	-0.826549126311915	0.0595539979700696	0	0	0.0370591660981587	0.072451502198729
6	0.0351995454147342	0.0113237886822317	0	0	0.48186776544126	0.824795316858691	0	0
0	0	-0.0337765085492949	0.00591771748413105	0	0	-0.847251789096283	-0.194971019064952
0.48186776544126	0.824795316858691	0	0	-0.0027912121279736	0.0240642698418001	0	0
