# GHZ S RI R 50
0.2	-0.00539244233066921	0.00749983842848859	0	0	0.958155806304004	0.0578924551076479	0	0
0	0	0.023305472265738	0.00362100450204816	0	0	-0.370198350633451	0.9111791293076
0.958155806304004	0.0578924551076479	0	0	0.0202501325546848	0.0468281544329162	0	0
0	0	0.569422281565672	-0.754150777889736	0	0	0.00062781926031311	-0.0270085361012269
0.3	0.00686504768907812	-0.00855851134885671	0	0	0.0332046984927536	-0.965290909844616	0	0
0	0	-0.00389888575481725	0.00160751234499577	0	0	-0.134549342221456	-0.974214530779898
0.0332046984927536	-0.965290909844616	0	0	-0.0135179290154317	0.00790993592449176	0	0
0	0	-0.922152464125761	-0.201886891603125	0	0	-0.0321575773659086	-0.0139927760729168
0.4	-0.0086094016780688	0.00792079787174055	0	0	0.948612047548156	0.061518679232905	0	0
0	0	-0.0395375398052922	0.000955695019885759	0	0	-0.667492421673258	-0.725445767849824
0.948612047548156	0.061518679232905	0	0	-0.0330703769097883	-0.0118571454484107	0	0
0	0	-0.235626701237154	-0.895691872156585	0	0	0.0226324447718208	0.0218208087523706
0.5	0.0102501300052721	-0.00541687278042628	0	0	0.127136267628452	-0.948849535167661	0	0
0	0	-0.0343669967537011	0.00481971676108792	0	0	0.964012657702773	0.20652814894611
0.127136267628452	-0.948849535167661	0	0	0.0377946416031044	0.0175287832878744	0	0
0	0	-0.678184932546952	0.636996575055241	0	0	0.00609408637269908	0.00861244355940096
0.6	-0.0100180350733462	0.00252621306912444	0	0	0.954807277051198	0.130505550904776	0	0
0	0	-0.0105354922790198	0.0056409916910173	0	0	0.912165629441767	-0.330063804384993
0.954807277051198	0.130505550904776	0	0	0.00549779131962439	-0.019400758669739	0	0
0	0	-0.861931431551211	-0.344095806835916	0	0	-0.00481034358750801	-0.00685371216277379
0.7	0.00912556929782033	0.000947918992760708	0	0	0.108278757738792	-0.957218220460265	0	0
0	0	0.0202640449161909	-0.0119803801300949	0	0	-0.610288359811426	0.748489173714217
0.108278757738792	-0.957218220460265	0	0	0.00807736783063265	0.00998762510608443	0	0
0	0	0.0465833865136429	0.91988995645442	0	0	0.00227010373745971	-0.0127577621510447
0.8	-0.00811762172255479	-0.00494264985520327	0	0	0.954452793132443	0.113027620229039	0	0
0	0	0.0421550164471792	-0.0431192759202574	0	0	-0.11988224512732	0.960428119723224
0.954452793132443	0.113027620229039	0	0	-0.0228988370284113	0.0132411179518494	0	0
0	0	-0.810896583669339	0.448840704638766	0	0	0.006359868510177	0.0837042650646961
0.9	0.00612559122210111	0.00802211741768885	0	0	0.144381713065533	-0.939199894250394	0	0
0	0	0.0118715855875607	-0.0289167599479492	0	0	-0.434775994371789	-0.86519566474278
0.144381713065533	-0.939199894250394	0	0	-0.00252582125341615	-0.060701162391998	0	0
0	0	0.763930734535657	0.524257155345916	0	0	0.0358140482052854	0.0146565428756833
1	-0.00359145825645168	-0.00938019090824536	0	0	0.94210489424351	0.181203911503844	0	0
0	0	-0.014864131628867	0.0110594074281471	0	0	-0.83793528485673	-0.480619091346603
0.94210489424351	0.181203911503844	0	0	0.0027514271415486	0.0435189081995266	0	0
0	0	-0.125792264008323	0.901970865044621	0	0	0.00314248121671097	0.00351292761459302
1.1	0.00066111112090609	0.00846355791780022	0	0	0.201159819061179	-0.948960180930136	0	0
0	0	-0.0112808311752913	0.0349103634992955	0	0	0.955707896371719	-0.0512471922817181
0.201159819061179	-0.948960180930136	0	0	0.00422722415902131	0.00356902539500159	0	0
0	0	0.868323506263668	-0.260333571216025	0	0	0.00930028496854661	0.0446866891933466
1.2	0.0023171611264353	-0.00589799671205595	0	0	0.958636809649133	0.202442617602998	0	0
0	0	0.00953677604249727	0.065206760674101	0	0	0.770624986340707	-0.554321316183822
0.958636809649133	0.202442617602998	0	0	0.0550447200497399	0.00096809681508889	0	0
0	0	0.613494416839509	0.671076015771605	0	0	0.00827673611106446	0.101241563824364
1.3	-0.00479546646363209	0.00236561658542772	0	0	0.205132669019271	-0.942288535265251	0	0
0	0	0.0170253030696682	0.0202810155461079	0	0	-0.355067328713838	0.882802328727543
0.205132669019271	-0.942288535265251	0	0	-0.0521962726510653	0.00152714169528973	0	0
0	0	0.322122977340972	-0.858854294817139	0	0	0.0419432882588499	0.0157921078085285
1.4	0.00570909694351193	0.00136872503151065	0	0	0.924247705171778	0.23362384517191	0	0
0	0	-0.0129377171465099	-0.0420848429026157	0	0	0.17926116017334	0.937203519370561
0.924247705171778	0.23362384517191	0	0	0.0191726644838493	0.00868922139462452	0	0
0	0	0.898619582438129	-0.0837361737829442	0	0	0.0463334059838467	-0.00544104677482307
1.5	-0.00500596183445176	-0.0044086127082418	0	0	0.271119848391134	-0.922407263378886	0	0
0	0	-0.0385684880457311	-0.0546195988731043	0	0	-0.674293637013497	-0.675703789369738
0.271119848391134	-0.922407263378886	0	0	0.0349953059429313	-0.0325430811586994	0	0
0	0	-0.461016936668812	-0.767637444810409	0	0	0.0349844195220039	0.0528360425679551
1.6	0.00327295697879592	0.00587130823984689	0	0	0.937139238027304	0.295103210960821	0	0
0	0	-0.03721105347406	-0.0179994992136862	0	0	-0.936838748366584	-0.184280866186437
0.937139238027304	0.295103210960821	0	0	-0.0497400246806089	-0.0271896820340015	0	0
0	0	0.497899992953322	-0.753726600408427	0	0	0.00256950795524379	0.0527012148790103
1.7	-0.000585083046578507	-0.00528422862588743	0	0	0.290212412117235	-0.942887826431227	0	0
0	0	0.0142685761317502	0.00749423332917226	0	0	0.885062223765048	-0.343296747321436
0.290212412117235	-0.942887826431227	0	0	0.000163679868133356	0.00457219361378632	0	0
0	0	-0.90049255864894	-0.111529366534935	0	0	0.0413376836429022	-0.0307417933580983
1.8	-0.00256123386520821	0.00312382544092077	0	0	0.917281354933788	0.291519373482602	0	0
0	0	0.0441576310139296	0.0385470935094087	0	0	0.573808312585025	-0.74565326788257
0.917281354933788	0.291519373482602	0	0	0.00706489583212545	0.0643720586364678	0	0
0	0	-0.309771919765469	-0.849510222615897	0	0	0.0284559176529825	-0.0345054125832827
1.9	0.00502188222246834	-3.59159961941069E-05	0	0	0.320677214267893	-0.893967725076472	0	0
0	0	0.0517985400934297	-0.00392875848418734	0	0	-0.0839654071813325	0.941676558543212
0.320677214267893	-0.893967725076472	0	0	0.00991415235124121	0.00826206667595795	0	0
0	0	-0.61560737941168	0.64540914594448	0	0	0.0413558562205117	0.0231169575123122
2	-0.00574800545498835	-0.00369511204935122	0	0	0.890926738722557	0.351013934702193	0	0
0	0	0.0146375316224396	-0.00568859226337629	0	0	0.456786296847143	0.833614402763848
0.890926738722557	0.351013934702193	0	0	-0.0497303304533505	-0.0338378782364727	0	0
0	0	-0.844350821872532	-0.264662692043088	0	0	-0.0527550902206919	-0.0216898126133933
2.1	0.00435884207810056	0.00757012955723168	0	0	0.365878388553287	-0.897993496117476	0	0
0	0	-0.0290654620115188	0.00682606230978965	0	0	-0.830112701535767	-0.453078609840599
0.365878388553287	-0.897993496117476	0	0	0.0707297134796162	0.0162710475999931	0	0
0	0	0.134593147342572	0.879833216226419	0	0	-0.00481775946604661	0.00946940903347308
2.2	-0.000651349434659289	-0.0111684264173145	0	0	0.89853265050404	0.377665928851853	0	0
0	0	-0.0475982281917306	0.0161319481399004	0	0	-0.932880402067047	0.0679029206485358
0.89853265050404	0.377665928851853	0	0	0.0149551527225083	-0.0112181822016155	0	0
0	0	-0.73803740441596	0.505827497623675	0	0	0.0430038888558578	-0.0114360547461627
2.3	-0.00460041628246217	0.0134312850255674	0	0	0.387275325686428	-0.889626818446015	0	0
0	0	-0.0297263600209009	0.0184457934760405	0	0	0.737745286126797	-0.555436327562174
0.387275325686428	-0.889626818446015	0	0	0.0584130061580019	-0.0293554153358632	0	0
0	0	0.776467996502231	0.433208996468408	0	0	0.0671764216413939	0.0463004948462265
2.4	0.0104737432584278	-0.0135022496437223	0	0	0.878030168800077	0.399033897351448	0	0
0	0	0.000125902355866562	0.000530696307065124	0	0	0.32487836138427	-0.868389430194747
0.878030168800077	0.399033897351448	0	0	-0.0969323331066845	0.0129071567692944	0	0
0	0	-0.0395996817421832	0.883156408121782	0	0	0.0475278488135515	-0.0499290186861685
2.5	-0.0164347345276851	0.010696471027414	0	0	0.415629597667017	-0.866628136821549	0	0
0	0	0.019680601238768	-0.0361106291459848	0	0	0.189410570675524	0.918135350735315
0.415629597667017	-0.866628136821549	0	0	-0.0103926409991228	-0.028069349921273	0	0
0	0	0.805495603649424	-0.332238258252634	0	0	0.012649681681207	-0.00167367275046242
2.6	0.021586836452769	-0.00542153306301677	0	0	0.859593174201288	0.42941453583695	0	0
0	0	0.0180821959131225	-0.0385512124066595	0	0	0.667468821038424	0.653647648304579
0.859593174201288	0.42941453583695	0	0	0.00501540471420056	-0.0344385185383869	0	0
0	0	0.630852259691539	0.597309220692821	0	0	0.0623968129366968	0.00912890207300233
2.7	-0.0251374342837373	-0.00167586005771879	0	0	0.443757350171892	-0.853511143741092	0	0
0	0	0.0209162953235059	-0.0092679592247977	0	0	-0.897506720429018	-0.173868450709436
0.443757350171892	-0.853511143741092	0	0	0.00254444622551476	-0.0137857629024844	0	0
0	0	0.275556759055964	-0.835519007256525	0	0	-0.0277370398493689	-0.00180945351198713
2.8	0.0257495931775401	0.00955005268599032	0	0	0.842805984534177	0.45714091832737	0	0
0	0	0.00898244302562652	0.0126281585330899	0	0	-0.841856160618064	0.312719396576888
0.842805984534177	0.45714091832737	0	0	0.00334426114180357	0.0630646808944944	0	0
0	0	0.871222279365639	-0.15038376482884	0	0	0.0256202982461111	-0.0645636328631602
2.9	-0.0226315973692942	-0.0174374389935927	0	0	0.473188348832413	-0.823474006459818	0	0
0	0	-0.00109048519787838	0.0360421086012466	0	0	0.566830270630289	-0.700288546897594
0.473188348832413	-0.823474006459818	0	0	-0.0542416377935278	0.0334933093649845	0	0
0	0	-0.514905237483981	-0.702092028626561	0	0	-0.0406132564589969	-0.0467014082401189
3	0.0167642389391004	0.0246365022557088	0	0	0.814415927598217	0.497561994516375	0	0
0	0	-0.0118939078573088	0.0283319276371976	0	0	0.0918988806864584	-0.919279367490789
0.814415927598217	0.497561994516375	0	0	-0.00761310354560773	-0.0179678771829466	0	0
0	0	0.406453834265339	-0.759777435803338	0	0	0.0130292194421605	0.0852622662926945
3.1	-0.00853523558112171	-0.0291700189644402	0	0	0.51862109348506	-0.804103757616019	0	0
0	0	-0.0208605478920686	0.0108613374470432	0	0	0.44708584578101	0.805916111851698
0.51862109348506	-0.804103757616019	0	0	0.0380434872698635	-0.064319051231682	0	0
0	0	-0.868162310315847	-0.0506584764843381	0	0	-0.0756873549813571	0.00594026413845891
3.2	-0.000654887872982655	0.0309822639350821	0	0	0.802140223378159	0.542877821236435	0	0
0	0	-0.0179853096390874	-0.00750455422362269	0	0	0.796539266543068	0.437664800413135
0.802140223378159	0.542877821236435	0	0	0.00022129571109694	0.0252912331634551	0	0
0	0	-0.335979406148547	-0.813452639966934	0	0	-0.0594072341042179	0.00672184216012661
3.3	0.00961550846109359	-0.0286168104741252	0	0	0.554821226529041	-0.797942625818116	0	0
0	0	-0.00095167649942994	-0.0251556271415563	0	0	-0.903972273975486	0.0487679285390954
0.554821226529041	-0.797942625818116	0	0	0.0616211751883389	0.0246271982477531	0	0
0	0	-0.575178242234045	0.673820449785682	0	0	-0.0270716748429792	-0.106673157345292
3.4	-0.0172607498042094	0.0224768888307488	0	0	0.781087507755254	0.559986576115536	0	0
0	0	-0.00362816775609868	-0.0413859442257737	0	0	-0.73338073083232	0.541005695771297
0.781087507755254	0.559986576115536	0	0	-0.114765788712309	0.00827113283836317	0	0
0	0	-0.855543620615375	-0.223945844665809	0	0	-0.0193181942570474	-0.0397111756291302
3.5	0.0226693250509832	-0.014668151827869	0	0	0.575053426383642	-0.772156507843557	0	0
0	0	0.00895637979056426	-0.0306388485700641	0	0	0.299065447713171	-0.867994174709615
0.575053426383642	-0.772156507843557	0	0	-0.0118072700343	-0.053665243627231	0	0
0	0	0.165696359110387	0.84326034902669	0	0	0.0853279073989622	-0.0720880185303172
3.6	-0.0245921188568095	0.00595341842916135	0	0	0.765197646588499	0.585446776026905	0	0
0	0	0.0207079825865085	0.00265924911468108	0	0	-0.20765696638961	-0.894875091751663
0.765197646588499	0.585446776026905	0	0	-0.0345992939358403	0.0601476381269483	0	0
0	0	-0.694000570896475	0.518853990742567	0	0	0.0449726914865993	-0.0314179248855396
3.7	0.0224925342047474	0.00342522427631417	0	0	0.604804012598366	-0.745512981625184	0	0
0	0	0.0148900406192087	0.03693935762123	0	0	0.63826414761823	0.650551764026017
0.604804012598366	-0.745512981625184	0	0	0.118348053106657	0.0079129206347886	0	0
0	0	0.770099428183175	0.41134471194657	0	0	0.0556124172231835	-0.0188963584820569
3.8	-0.0173446526569269	-0.011366224394678	0	0	0.739453079860722	0.623756724138906	0	0
0	0	0.0158301346504361	0.0513362429373581	0	0	0.871252229115503	0.188491747155101
0.739453079860722	0.623756724138906	0	0	-0.0255695676098641	0.0207250532077929	0	0
0	0	-0.0177713624934964	0.871866271937292	0	0	-0.0583532414280425	-0.0256057834781955
3.9	0.0102309303769715	0.0164446685562352	0	0	0.628734589767622	-0.73922755803961	0	0
0	0	0.0112487245175326	0.0163955920004401	0	0	-0.825588585856675	0.326425675150013
0.628734589767622	-0.73922755803961	0	0	-0.0139277997105507	0.0835180347721226	0	0
0	0	0.784436147054998	-0.384444687924228	0	0	0.0248068679952292	-0.00560094955868624
4	-0.00176570207045097	-0.0180696548688153	0	0	0.722084287579366	0.636900222898087	0	0
0	0	-0.0170851854668387	-0.0117276469759581	0	0	-0.517848655411496	0.724927173622876
0.722084287579366	0.636900222898087	0	0	0.0513670336189639	-0.0742123281051209	0	0
0	0	0.68430547472749	0.517733850697053	0	0	-0.00491662582232924	0.00964732823665833
4.1	-0.00607018843606902	0.016029798678141	0	0	0.642295006639808	-0.709659970989717	0	0
0	0	-0.0422535947074197	-0.0351623635826758	0	0	0.0560406886180419	-0.893329852026682
0.642295006639808	-0.709659970989717	0	0	0.0253870131623263	-0.112097057821207	0	0
0	0	0.185062623511138	-0.829509217149224	0	0	0.0261091980182742	0.0823913642088062
4.2	0.0124808410364998	-0.0112139171438048	0	0	0.70505519200925	0.653448115685962	0	0
0	0	-0.0496810897388055	-0.0154962105838297	0	0	-0.433811841320405	-0.782317585876157
0.70505519200925	0.653448115685962	0	0	-0.0402763068123954	0.0165635653318715	0	0
0	0	0.833074737315691	-0.184599665278402	0	0	-0.0118444323725779	-0.0414198842552887
4.3	-0.016222939933662	0.00429266944501196	0	0	0.661957168779689	-0.698738630474892	0	0
0	0	-0.00795301414373092	0.00642015323984497	0	0	0.779729624828242	0.424631648442032
0.661957168779689	-0.698738630474892	0	0	-0.0110835036263424	0.0676644113377417	0	0
0	0	-0.535480529706214	-0.674702399889527	0	0	-0.0145029380069732	0.00244859485944937
4.4	0.0162368663444418	0.00378475098778185	0	0	0.682139494177933	0.671117359026259	0	0
0	0	0.0379048447130939	0.00394123296657901	0	0	0.889599559722188	-0.0542725907038234
0.682139494177933	0.671117359026259	0	0	0.00126042554465393	-0.0504630701322106	0	0
0	0	0.346062699580749	-0.773677147688614	0	0	-0.0337279970386699	0.00327888888527516
4.5	-0.0124851062417453	-0.0111645396755933	0	0	0.677304651576408	-0.66407942421393	0	0
0	0	0.0649809005871319	-0.00482992282868545	0	0	-0.722843942404857	0.524447074134348
0.677304651576408	-0.66407942421393	0	0	-0.0501601944567247	0.0264825627615655	0	0
0	0	-0.836336662582607	0.0119986512655151	0	0	-0.0862919995863822	0.0621572625006036
4.6	0.0058077877794486	0.0169082227702778	0	0	0.646175648981289	0.691669271960891	0	0
0	0	0.0473367964450418	-0.0250356859303484	0	0	-0.312586804017282	0.845546439503982
0.646175648981289	0.691669271960891	0	0	-0.00420720700956866	0.013662168000486	0	0
0	0	-0.372852640110797	-0.745133380142627	0	0	-0.0805514400420629	-0.00977577141513736
4.7	0.00234218303997038	-0.0197307671122009	0	0	0.708728854329049	-0.639294910358241	0	0
0	0	-0.0236968669082946	-0.00508201855526874	0	0	-0.192016493092262	-0.874425739227233
0.708728854329049	-0.639294910358241	0	0	0.0652166927665484	-0.0180685029761053	0	0
0	0	-0.524124533460312	0.656682293888929	0	0	-0.0734543976266721	0.0722481900673169
4.8	-0.010856073439979	0.0189554545705596	0	0	0.639214662840679	0.724443376952541	0	0
0	0	-0.0579949779944596	0.0349078288500762	0	0	-0.60810009175958	-0.6346258607506
0.639214662840679	0.724443376952541	0	0	0.0524522861237199	-0.0187023428868319	0	0
0	0	-0.828351831003324	-0.196433278629557	0	0	-0.00937921592353455	0.0716230687160047
4.9	0.0183721917680462	-0.0137690089771407	0	0	0.730069666411102	-0.630793250202578	0	0
0	0	-0.0395853483511349	0.0594164542060038	0	0	0.854704359714613	0.206147345628129
0.730069666411102	-0.630793250202578	0	0	-0.0815225868825689	-0.0287863434319575	0	0
0	0	0.199978718994182	0.821186342405911	0	0	-0.0840435101676834	0.00374371243847574
5	-0.023119911250938	0.00565297910444237	0	0	0.619268838542434	0.725483504489675	0	0
0	0	-0.000780426579599074	0.0211604385824676	0	0	0.830710580556145	-0.298985594444635
0.619268838542434	0.725483504489675	0	0	-0.0481410406388143	0.0408994789257108	0	0
0	0	-0.64467500693998	0.534370676222193	0	0	0.0408997659915682	-0.00937934445094686
5.1	0.0246334096315786	0.00412024728714493	0	0	0.726825014183208	-0.60631152089114	0	0
0	0	0.0374618757624698	-0.0328755755648135	0	0	-0.53287768688101	0.69552866262738
0.726825014183208	-0.60631152089114	0	0	-0.0223137420243213	-0.041090763229173	0	0
0	0	0.749844959922097	0.344468522846232	0	0	0.0718670599492259	-0.0198174051340894
5.2	-0.0221240313302663	-0.0151093377860292	0	0	0.583465784561453	0.744871956825309	0	0
0	0	0.0147872395452474	-0.0740673104770513	0	0	-0.0790225276309204	0.871370428394401
0.583465784561453	0.744871956825309	0	0	0.0377191282268038	0.0227822056647356	0	0
0	0	0.0148793693843961	0.832037506628635	0	0	0.0260762618063295	0.0664681149772922
5.3	0.0156615207589124	0.0248018672653158	0	0	0.763786345087043	-0.570956721359375	0	0
0	0	-0.0154097751175267	-0.0415028398815971	0	0	-0.411180477275436	-0.771092858520921
0.763786345087043	-0.570956721359375	0	0	-0.0323234727578629	0.0251187205939985	0	0
0	0	0.743060461218163	-0.373273284298004	0	0	-0.0438425581872569	0.012067244507603
5.4	-0.00649379429366022	-0.031075226353536	0	0	0.562484290837558	0.769625897390172	0	0
0	0	-0.0321532098883362	0.0140476614502849	0	0	-0.766361028011006	-0.429602821733244
0.562484290837558	0.769625897390172	0	0	0.0700764643038947	0.0882139027079914	0	0
0	0	0.656362015023144	0.511001336352275	0	0	-0.00980532266625195	0.0221101835380579
5.5	-0.00419630166371679	0.0336485799069463	0	0	0.781119671198977	-0.559759670448345	0	0
0	0	0.0229664407535166	0.0592409159527015	0	0	0.877747732447821	-0.0422903711628206
0.781119671198977	-0.559759670448345	0	0	-0.00640254943252176	-0.0273720000806554	0	0
0	0	0.159783987713371	-0.81663517739797	0	0	0.021259053052422	0.0389037172146623
5.6	0.0155826766879247	-0.0310347953087233	0	0	0.545914304666931	0.787488635540085	0	0
0	0	0.0426931817569202	0.0558212629657215	0	0	0.700482124485594	-0.506784028707126
0.545914304666931	0.787488635540085	0	0	0.002475826715404	-0.109398649456312	0	0
0	0	0.801285194052036	-0.199841106445113	0	0	0.010189891068171	0.118054561171521
5.7	-0.0263220829510204	0.0242526308892713	0	0	0.801373705098663	-0.537727851890247	0	0
0	0	0.0214545719935625	-0.00767694427254447	0	0	-0.321180165890953	0.80801969068437
0.801373705098663	-0.537727851890247	0	0	-0.0124293033640073	0.0519713454485835	0	0
0	0	-0.535036076123448	-0.651964769978538	0	0	0.058372428790048	0.0352967044267753
5.8	0.0334022159659469	-0.0136728499289864	0	0	0.520963077678363	0.801965654420587	0	0
0	0	-0.021041795117696	-0.0317804004837834	0	0	0.153230807923095	0.856705909054699
0.520963077678363	0.801965654420587	0	0	0.0592991967029091	-0.0266840372440658	0	0
0	0	0.327465277436915	-0.772258390625227	0	0	0.0334247535910444	0.0564243316456095
5.9	-0.0367012974053576	0.000801434841676445	0	0	0.816231488283531	-0.498239114495931	0	0
0	0	-0.0552653597373182	-0.0268484681812875	0	0	-0.585963287343809	-0.641810395350745
0.816231488283531	-0.498239114495931	0	0	-0.0741697808942383	0.0441068417272317	0	0
0	0	-0.830462462438799	0.0577904740782621	0	0	0.0368559992890861	0.073765969450866
6	0.0353309157497307	0.0117918770953269	0	0	0.4831452076153	0.829991803594502	0	0
0	0	-0.0334590505647147	0.00611694686863118	0	0	-0.851458330421022	-0.19737217415259
0.4831452076153	0.829991803594502	0	0	-0.00294203291617868	0.0248930831776282	0	0
