# GHZ S RI R 50
0.2	-0.00594631165608098	0.0116888737111826	0	0	0.957722335457463	0.0584576278342183	0	0
0	0	0.0196189593807734	0.00577579992547512	0	0	-0.370662386379659	0.910918698933166
0.957722335457463	0.0584576278342183	0	0	0.0201548220104764	0.0408428545525828	0	0
0	0	0.569788533444689	-0.75379404208337	0	0	0.000635716856528237	-0.0329709683485047
0.3	0.00640264811941722	-0.0102748232941454	0	0	0.0341503646387186	-0.965039340247796	0	0
0	0	-0.00561436494687563	0.00205772629753119	0	0	-0.133604177104131	-0.974158835932465
0.0341503646387186	-0.965039340247796	0	0	-0.0151575599659695	0.00400790765511741	0	0
0	0	-0.921788847104952	-0.202719786029091	0	0	-0.0337322391619791	-0.0179154848615547
0.4	-0.00885953514859753	0.00790021834090502	0	0	0.948505069427252	0.0630058084151595	0	0
0	0	-0.0394103973902184	0.000734949768640844	0	0	-0.666349572428754	-0.7264719128445
0.948505069427252	0.0630058084151595	0	0	-0.0350550547338388	-0.0139889901264679	0	0
0	0	-0.234226811713486	-0.896041973976692	0	0	0.0205581839818807	0.0198614465809673
0.5	0.0116780623068024	-0.0046583109893552	0	0	0.129137601833979	-0.948896333423411	0	0
0	0	-0.0328239082050554	0.0042974238361419	0	0	0.963943168269181	0.208621008261202
0.129137601833979	-0.948896333423411	0	0	0.036152787261916	0.0169775303127987	0	0
0	0	-0.67977140856194	0.635818210623261	0	0	0.00448074309045618	0.00791624336327944
0.6	-0.0125319093824019	0.00218612940096074	0	0	0.955416482750863	0.133123740873383	0	0
0	0	-0.00807205647321421	0.00536440640109614	0	0	0.913934700348823	-0.328049705848792
0.955416482750863	0.133123740873383	0	0	0.00481325469984781	-0.019547669317341	0	0
0	0	-0.86191527956998	-0.34666048747398	0	0	-0.00557365359780179	-0.00703591793711625
0.7	0.0118634190555521	0.000111131384300772	0	0	0.111145511206012	-0.958595475566503	0	0
0	0	0.0230204576988655	-0.0116962709715113	0	0	-0.613528680235408	0.748085444435593
0.111145511206012	-0.958595475566503	0	0	0.00796490222925688	0.00983343282906918	0	0
0	0	0.0440319864882121	0.921675751602907	0	0	0.0022692476553284	-0.01302691238141
0.8	-0.0101820623995644	-0.00331011493266617	0	0	0.9567186017098	0.115964716473677	0	0
0	0	0.044643925838122	-0.0424201435614837	0	0	-0.122795352511142	0.96248966590633
0.9567186017098	0.115964716473677	0	0	-0.0229053356955367	0.01243068517559	0	0
0	0	-0.814134851962524	0.447748783148985	0	0	0.00612337091137124	0.0834260192026698
0.9	0.00723117451584402	0.00645819118955313	0	0	0.147380074459518	-0.942336829007804	0	0
0	0	0.0136231265045528	-0.0281085741468607	0	0	-0.434022536329712	-0.869453419639534
0.147380074459518	-0.942336829007804	0	0	-0.00231670470914726	-0.0624646587886194	0	0
0	0	0.765265707688108	0.528173220391958	0	0	0.0359275129312311	0.0136610880934715
1	-0.00404962742478601	-0.00849604723279808	0	0	0.945917123913532	0.183936787500048	0	0
0	0	-0.0141447809299454	0.0117016771863881	0	0	-0.840728231521149	-0.484519769845243
0.945917123913532	0.183936787500048	0	0	0.00180167607562065	0.0423960951651269	0	0
0	0	-0.128222334389292	0.905785502785391	0	0	0.00240457469968527	0.00205054984443246
1.1	0.00110822272794885	0.00854160283234894	0	0	0.20338809276297	-0.953641649132765	0	0
0	0	-0.0116029214643424	0.0351187589259272	0	0	0.960788512220666	-0.0503436760945028
0.20338809276297	-0.953641649132765	0	0	0.00265129443174753	0.00238150981023582	0	0
0	0	0.873201861672065	-0.260635032061275	0	0	0.00774819410203771	0.043973143955238
1.2	0.00121278909464504	-0.0066147236380875	0	0	0.963963578057664	0.203785367376027	0	0
0	0	0.00847997588583817	0.0647576314655804	0	0	0.775121672988115	-0.557444086407333
0.963963578057664	0.203785367376027	0	0	0.0535096369156578	0.000442731323948994	0	0
0	0	0.616967915247453	0.675004321658212	0	0	0.0062513354247538	0.101902875369896
1.3	-0.00308618287768759	0.00305818974902142	0	0	0.205486574492131	-0.948093569682726	0	0
0	0	0.0157740028654697	0.0191502780232448	0	0	-0.356318293529067	0.888311730312862
0.205486574492131	-0.948093569682726	0	0	-0.0551118496500612	0.00171437556829922	0	0
0	0	0.323203340690058	-0.86419230795924	0	0	0.0402301505482038	0.0160627594795966
1.4	0.00384074971064018	0.000793906362696209	0	0	0.930000717111362	0.233010664124841	0	0
0	0	-0.0137666096188035	-0.0437338083517571	0	0	0.182204018190764	0.942154902631958
0.930000717111362	0.233010664124841	0	0	0.0172798841913217	0.00914351384424889	0	0
0	0	0.903548202784096	-0.0860575580794553	0	0	0.0447169102649387	-0.00520046463170977
1.5	-0.00297783436801228	-0.00398101365742066	0	0	0.269688868666044	-0.928077194759335	0	0
0	0	-0.0388379598250978	-0.0565331521713954	0	0	-0.679972132133977	-0.676981136364532
0.269688868666044	-0.928077194759335	0	0	0.0332755205714355	-0.0323480064840827	0	0
0	0	-0.465897463024566	-0.770084618928286	0	0	0.0338240456106786	0.0538864266243389
1.6	0.00109130704969864	0.00590314449554381	0	0	0.94271426333515	0.292617493768431	0	0
0	0	-0.0369461776225339	-0.0199956170030596	0	0	-0.941733283414132	-0.181160862372426
0.94271426333515	0.292617493768431	0	0	-0.0517948473589197	-0.0259426490311244	0	0
0	0	0.496927948214545	-0.759131438658325	0	0	0.00167332873755077	0.0541851176425349
1.7	0.00129608100606942	-0.00589828884895666	0	0	0.286740276413829	-0.947587851726767	0	0
0	0	0.0149436748516861	0.00581079980084583	0	0	0.886556655476072	-0.348584707006253
0.286740276413829	-0.947587851726767	0	0	-0.00056100360609766	0.00579155422789035	0	0
0	0	-0.904143859859674	-0.107753795260002	0	0	0.0405544936579554	-0.0301958704844839
1.8	-0.00381234359892778	0.00389612084768731	0	0	0.920868985339003	0.287508264840434	0	0
0	0	0.0450401260168437	0.0374697485747198	0	0	0.571463362722472	-0.750301810483693
0.920868985339003	0.287508264840434	0	0	0.00748663085877047	0.0656473270001322	0	0
0	0	-0.314751574271715	-0.850000018228786	0	0	0.0279647384880763	-0.0339395355876274
1.9	0.00586337206432396	-0.000528094872227958	0	0	0.316580081490605	-0.896677232753271	0	0
0	0	0.0526744445255178	-0.00428349803256272	0	0	-0.0793774997023226	0.943202667332531
0.316580081490605	-0.896677232753271	0	0	0.0100355094003915	0.00892558489823822	0	0
0	0	-0.613119657670125	0.649232573095528	0	0	0.0416821844653724	0.0234875224166605
2	-0.00650706535910395	-0.00356280026917292	0	0	0.892776789494524	0.346950299804278	0	0
0	0	0.0153169001025888	-0.00537362765295072	0	0	0.460760886440419	0.831660835876245
0.892776789494524	0.346950299804278	0	0	-0.0500135686755363	-0.0329214631136449	0	0
0	0	-0.845757450736187	-0.260787452493938	0	0	-0.052934991995643	-0.0207457344276098
2.1	0.00529372250685619	0.00761565833685947	0	0	0.362105865428856	-0.898795819987204	0	0
0	0	-0.0287037082111401	0.00765167207876582	0	0	-0.831330654842404	-0.449488368658885
0.362105865428856	-0.898795819987204	0	0	0.0707165744510766	0.0160524457473184	0	0
0	0	0.137975236099888	0.878696047527361	0	0	-0.00478664147671178	0.00983881731087587
2.2	-0.00174926165423862	-0.0110879516083623	0	0	0.898618584475424	0.374508133587743	0	0
0	0	-0.0475767287063245	0.0171823907965071	0	0	-0.93150612712986	0.0705888049247861
0.898618584475424	0.374508133587743	0	0	0.0147376603248063	-0.0108391749369358	0	0
0	0	-0.735607125071039	0.507384138804898	0	0	0.0427099458284619	-0.0112568670287134
2.3	-0.00363481837667207	0.013089214294591	0	0	0.385011636643338	-0.889184257945433	0	0
0	0	-0.0299371979327806	0.0194030173176091	0	0	0.735561569911922	-0.556033167803368
0.385011636643338	-0.889184257945433	0	0	0.058106337337314	-0.0288864543702187	0	0
0	0	0.77614281053003	0.43105370930401	0	0	0.0671186146484132	0.0464696511643824
2.4	0.00989741499681104	-0.0130746048979145	0	0	0.877437396682711	0.397595236651542	0	0
0	0	-0.000167695160301725	0.00115837219164771	0	0	0.323675927427066	-0.867681078277971
0.877437396682711	0.397595236651542	0	0	-0.0964551890745944	0.0138015906143327	0	0
0	0	-0.0387170347900755	0.882160630875682	0	0	0.0475131822442443	-0.0492042130091725
2.5	-0.0162205238236499	0.0105203727498496	0	0	0.415235856081749	-0.866164349500129	0	0
0	0	0.019448965257864	-0.035938557355413	0	0	0.189398787004236	0.917517988439244
0.415235856081749	-0.866164349500129	0	0	-0.00988784373349004	-0.0273486211416006	0	0
0	0	0.804933929889241	-0.332120393143822	0	0	0.0131025584457355	-0.000992421214220973
2.6	0.0214594918215037	-0.00562373986010781	0	0	0.859592182626419	0.429914104248905	0	0
0	0	0.01805280171937	-0.0387760475459543	0	0	0.667283694890657	0.654095668337004
0.859592182626419	0.429914104248905	0	0	0.00575047837419543	-0.0339296157656731	0	0
0	0	0.630687145993819	0.5977286905579	0	0	0.063079199483611	0.00974175124404358
2.7	-0.0248945980499729	-0.00123497917149482	0	0	0.444951502366622	-0.854290600805681	0	0
0	0	0.0211468721048308	-0.00967555324656926	0	0	-0.898533028331533	-0.174761721971916
0.444951502366622	-0.854290600805681	0	0	0.00335450716150915	-0.0134827219844602	0	0
0	0	0.276534774674121	-0.836389640132459	0	0	-0.0270622349120391	-0.00147030775467193
2.8	0.025433956143752	0.00902083717453608	0	0	0.844615718151489	0.458709173114886	0	0
0	0	0.00946292247121409	0.0123132091293933	0	0	-0.844079627869791	0.312920947433514
0.844615718151489	0.458709173114886	0	0	0.00408577950919302	0.0635638255488765	0	0
0	0	0.873410395413253	-0.150176725440684	0	0	0.026574879484417	-0.0645964730123801
2.9	-0.0223288351793045	-0.0167748856629395	0	0	0.474882849495398	-0.826430187760307	0	0
0	0	-0.000414621680522187	0.0360632198985987	0	0	0.568892831271636	-0.702711362737625
0.474882849495398	-0.826430187760307	0	0	-0.0538876558224604	0.0337911482208051	0	0
0	0	-0.51666169675893	-0.704615914910318	0	0	-0.0402121046408572	-0.0469311550407282
3	0.0163643000979484	0.0237630067588085	0	0	0.818496606680669	0.499040512320948	0	0
0	0	-0.0111297715358429	0.0287702271035984	0	0	0.0913878124723117	-0.923385546246834
0.818496606680669	0.499040512320948	0	0	-0.0070809507276137	-0.0181767865524527	0	0
0	0	0.407474903491595	-0.763499201815523	0	0	0.0138902120277889	0.0859563058408723
3.1	-0.00786242833375363	-0.0282142801413966	0	0	0.519531273766466	-0.809220233205518	0	0
0	0	-0.020134439407005	0.0116690882667913	0	0	0.451147701730302	0.8090206368984
0.519531273766466	-0.809220233205518	0	0	0.0385559606701113	-0.0652655681181709	0	0
0	0	-0.872688200003076	-0.0489888008329012	0	0	-0.0760163053090305	0.00624149819552499
3.2	-0.00157524802930987	0.0301292865142676	0	0	0.808334278252198	0.54273573265141	0	0
0	0	-0.0175116440988752	-0.00645796170600593	0	0	0.802333063389773	0.436997153251544
0.808334278252198	0.54273573265141	0	0	0.000626649153287568	0.0253891458566592	0	0
0	0	-0.340758522005232	-0.816461923947476	0	0	-0.0597585387642817	0.00710130917274538
3.3	0.0106067270247926	-0.0279899618144575	0	0	0.553364221246071	-0.804721295461525	0	0
0	0	-0.000853231331115908	-0.0240810271487388	0	0	-0.908250062990608	0.0536522550682459
0.553364221246071	-0.804721295461525	0	0	0.0625434517254484	0.0241095809945531	0	0
0	0	-0.574600698625605	0.680148061633671	0	0	-0.028391081353739	-0.107536306698642
3.4	-0.0181384411527607	0.0220015320502193	0	0	0.7882479550076	0.557059062866963	0	0
0	0	-0.00395371635576111	-0.0404881196979828	0	0	-0.732827375650888	0.548168196981847
0.7882479550076	0.557059062866963	0	0	-0.115626685848286	0.00986883508199904	0	0
0	0	-0.860614318661254	-0.219161866658271	0	0	-0.0200300399518558	-0.0398018272401702
3.5	0.0234534916565817	-0.0141659620320362	0	0	0.570653320307913	-0.779086355677638	0	0
0	0	0.00828639943509796	-0.0300954280065401	0	0	0.29312921529413	-0.872869622405068
0.570653320307913	-0.779086355677638	0	0	-0.0127174420829704	-0.0537509771622578	0	0
0	0	0.172793169000586	0.844418477766211	0	0	0.0846697178400666	-0.07382468809068
3.6	-0.025417635813492	0.00545542426180826	0	0	0.771545432268301	0.579408247413171	0	0
0	0	0.0198031899610126	0.0028217883285665	0	0	-0.215823333422333	-0.894247335238602
0.771545432268301	0.579408247413171	0	0	-0.0335543601020019	0.0609835757737465	0	0
0	0	-0.690360031076294	0.525668051075739	0	0	0.0445619694772836	-0.0322631217291026
3.7	0.0233675516277132	0.00384161675637027	0	0	0.59762150117357	-0.750799756611546	0	0
0	0	0.0139813052241037	0.0367164247927997	0	0	0.643989511285241	0.644334591031553
0.59762150117357	-0.750799756611546	0	0	0.118483359209238	0.00573513892058314	0	0
0	0	0.773547353159939	0.404018909623404	0	0	0.0552680328318637	-0.0198979858020766
3.8	-0.0181817442857211	-0.0115920379554522	0	0	0.743610957170518	0.615427483816745	0	0
0	0	0.0151291993450733	0.0509258133214017	0	0	0.871002375877571	0.179934863153699
0.743610957170518	0.615427483816745	0	0	-0.0249855715172244	0.0211102678984124	0	0
0	0	-0.00960205203951864	0.870023385720682	0	0	-0.0584838468393443	-0.0244188995734442
3.9	0.0108618539525579	0.016523057410676	0	0	0.619646696555952	-0.741670952752041	0	0
0	0	0.0108656364395594	0.0159363932332612	0	0	-0.819319261315548	0.332235818858954
0.619646696555952	-0.741670952752041	0	0	-0.0123181886971815	0.0830282917178188	0	0
0	0	0.777834287306714	-0.389656115053185	0	0	0.024548790442857	-0.00603610806972936
4	-0.00215970930449216	-0.0182016866601723	0	0	0.722831207978966	0.627766733920968	0	0
0	0	-0.0170904042112471	-0.0121270486957414	0	0	-0.509312309345338	0.724710029523546
0.722831207978966	0.627766733920968	0	0	0.049640330028399	-0.0742296178595402	0	0
0	0	0.684321755922476	0.509509131566851	0	0	-0.00470382685495778	0.00952394345439881
4.1	-0.00576389190168762	0.0162997831511196	0	0	0.633485281718413	-0.708697938561475	0	0
0	0	-0.0419360910842812	-0.0354054872325709	0	0	0.0500917081615999	-0.887378457662154
0.633485281718413	-0.708697938561475	0	0	0.0236058864278401	-0.11095956541263	0	0
0	0	0.178600544621441	-0.824810010142227	0	0	0.0267275799873006	0.0808057310189826
4.2	0.0121424592954965	-0.011545148006358	0	0	0.702567043076565	0.64525001376743	0	0
0	0	-0.0492192767520067	-0.0155356481879456	0	0	-0.43393967559073	-0.774302825403824
0.702567043076565	0.64525001376743	0	0	-0.0395849440803905	0.0166014859242667	0	0
0	0	0.825779748811746	-0.186889816784442	0	0	-0.0120884955458452	-0.0407557800656175
4.3	-0.0159069849229637	0.00455335032826265	0	0	0.654806363124047	-0.694930085650007	0	0
0	0	-0.00758587062896609	0.00655962857295915	0	0	0.774605427370313	0.419174153522296
0.654806363124047	-0.694930085650007	0	0	-0.0105423870378421	0.0666228210153835	0	0
0	0	-0.532972042497613	-0.66788656608919	0	0	-0.0142704095769928	0.00248365496294708
4.4	0.0160800572105104	0.00355186634275977	0	0	0.677485517164425	0.665389118044408	0	0
0	0	0.0380171335654787	0.00418028658070972	0	0	0.882707074672586	-0.0546251959290699
0.677485517164425	0.665389118044408	0	0	0.00125316710296992	-0.0496355552420786	0	0
0	0	0.342729870681566	-0.768023307890678	0	0	-0.0331399497291153	0.0033651171450867
4.5	-0.0124988137461018	-0.0108192283387816	0	0	0.673111785969209	-0.659051585505841	0	0
0	0	0.0647571391482462	-0.00459205132888154	0	0	-0.718221753382315	0.520375122798197
0.673111785969209	-0.659051585505841	0	0	-0.0492807125236802	0.0261394892389719	0	0
0	0	-0.830601475429702	0.0113717108276482	0	0	-0.0850053719911267	0.0613157770030233
4.6	0.00585251329777229	0.0163636681673962	0	0	0.641200622942787	0.688969018423337	0	0
0	0	0.0468475186766363	-0.024873271796904	0	0	-0.312385083762188	0.840180792078841
0.641200622942787	0.688969018423337	0	0	-0.00390762075208667	0.0135520378984695	0	0
0	0	-0.369360679064449	-0.74160691034405	0	0	-0.0793263212522613	-0.00985790236896179
4.7	0.00238791237111884	-0.0190458047577105	0	0	0.707403392000747	-0.634700788216172	0	0
0	0	-0.0243418826881577	-0.00513228646852165	0	0	-0.189032860075371	-0.871216397147328
0.707403392000747	-0.634700788216172	0	0	0.0651468889626952	-0.0176344230538716	0	0
0	0	-0.523547410905518	0.652610482910636	0	0	-0.072836634453957	0.0712825816780894
4.8	-0.0110234510056989	0.0182959051810275	0	0	0.635467911927384	0.724310011149645	0	0
0	0	-0.0585481699590237	0.0346245284034581	0	0	-0.604732878039292	-0.634551766348354
0.635467911927384	0.724310011149645	0	0	0.052662692499671	-0.0183873959138018	0	0
0	0	-0.825573968021034	-0.198143678993723	0	0	-0.00938381703229499	0.0711606281041405
4.9	0.0185117744986514	-0.0131483883270749	0	0	0.730813853780854	-0.62833220490016	0	0
0	0	-0.0399014541621049	0.0589184089388066	0	0	0.853252634671368	0.207928526976154
0.730813853780854	-0.62833220490016	0	0	-0.0808126529320387	-0.0292743660104316	0	0
0	0	0.197817548792274	0.820729554149818	0	0	-0.0835207188131128	0.00323777545604502
5	-0.0232123052388799	0.00497958443868633	0	0	0.618238560064581	0.72655015778695	0	0
0	0	-0.000764532213169068	0.0205239024318432	0	0	0.831210791232013	-0.297710423739921
0.618238560064581	0.72655015778695	0	0	-0.0479274280428928	0.040555095608227	0	0
0	0	-0.645532087403844	0.533394370520215	0	0	0.0412626231497965	-0.00940092305438176
5.1	0.0247932083766805	0.00487051891561559	0	0	0.727794747181582	-0.606677335213553	0	0
0	0	0.0377865055955757	-0.0334972567878528	0	0	-0.533572786493222	0.69597131335387
0.727794747181582	-0.606677335213553	0	0	-0.022061906446748	-0.0414365270724511	0	0
0	0	0.750396359498045	0.345014679562699	0	0	0.0722768371071317	-0.020000447845883
5.2	-0.0223868368915475	-0.0158175224317557	0	0	0.585121043554022	0.745182584784509	0	0
0	0	0.0153051251259158	-0.0745305482239303	0	0	-0.0780184936310547	0.872541121446239
0.585121043554022	0.745182584784509	0	0	0.0380019249473347	0.0224749067845789	0	0
0	0	0.0159490952748337	0.833041199961836	0	0	0.0264579087130912	0.0663454906562917
5.3	0.0159499080804113	0.0253599992766358	0	0	0.763089620051365	-0.573765330942907	0	0
0	0	-0.0148651285586682	-0.0417009493249023	0	0	-0.413841952578563	-0.770775082744085
0.763089620051365	-0.573765330942907	0	0	-0.0322716404164237	0.0250737251351812	0	0
0	0	0.742819866577267	-0.375812469631891	0	0	-0.043850000470527	0.0121112565109594
5.4	-0.00667571778973969	-0.0315180598492756	0	0	0.565959828697004	0.767494313370844	0	0
0	0	-0.0317095295197052	0.0141655406999468	0	0	-0.768476551776319	-0.426433021773804
0.565959828697004	0.767494313370844	0	0	0.0707963073353725	0.0874335286983866	0	0
0	0	0.65879257622748	0.508334607880351	0	0	-0.0096768254102302	0.0220047935640503
5.5	-0.00412657050053183	0.03412777426308	0	0	0.777401787956694	-0.563522129145048	0	0
0	0	0.0232143559549497	0.0596333197010636	0	0	0.876673840511442	-0.0471043627181219
0.777401787956694	-0.563522129145048	0	0	-0.00675305271472595	-0.0274572378547235	0	0
0	0	0.155114600280974	-0.816737360472901	0	0	0.0215973976809022	0.0384239385957527
5.6	0.0155155325382204	-0.031609660014892	0	0	0.549377954807774	0.782151937609901	0	0
0	0	0.0427008789980018	0.0563714826280538	0	0	0.69538193092262	-0.509877095802651
0.549377954807774	0.782151937609901	0	0	0.00111795464539256	-0.109070124510354	0	0
0	0	0.797865618287957	-0.204398234771051	0	0	0.0116325397552669	0.117126210095421
5.7	-0.0261686716098589	0.0248268250990487	0	0	0.794314816064664	-0.540489379384582	0	0
0	0	0.0212607105215525	-0.0071141434688677	0	0	-0.314454930562304	0.806375284827525
0.794314816064664	-0.540489379384582	0	0	-0.0115396973200322	0.051386855246854	0	0
0	0	-0.536797762547465	-0.645484535629278	0	0	0.0584075064566058	0.033967303888652
5.8	0.0331612816001177	-0.0141374824469429	0	0	0.522399788465787	0.793658899319031	0	0
0	0	-0.0213470054017663	-0.0313331261100556	0	0	0.157442884295619	0.850099958016001
0.522399788465787	0.793658899319031	0	0	0.0582747140534848	-0.0274114971397701	0	0
0	0	0.320586309426076	-0.769143993369763	0	0	0.0337658098003469	0.0549542390070518
5.9	-0.0365032365267652	0.00108613890699002	0	0	0.806911193030309	-0.498213226094283	0	0
0	0	-0.0555555357144323	-0.0266190002617094	0	0	-0.584251021060133	-0.633386296546348
0.806911193030309	-0.498213226094283	0	0	-0.0726002940357444	0.0436867844806563	0	0
0	0	-0.823120723788197	0.061519275937203	0	0	0.0369654939932658	0.0717632680777615
6	0.0353056976369532	0.0116402989697022	0	0	0.481233832313778	0.820100562964945	0	0
0	0	-0.033624141157372	0.00610914378514656	0	0	-0.843634067606422	-0.192367762184561
0.481233832313778	0.820100562964945	0	0	-0.00304076795465803	0.0240089696459762	0	0
