# GHZ S RI R 50
0.2	-0.00728861934739388	0.0107948819899055	0	0	0.957828576946217	0.058119246431449	0	0
0	0	0.0194880648798037	0.00420852694345498	0	0	-0.3705417437993	0.911088971299478
0.957828576946217	0.058119246431449	0	0	0.0221713163416263	0.041793886080628	0	0
0	0	0.569718724942316	-0.753982001413096	0	0	0.00266684561683292	-0.0319655411123611
0.3	0.00717206469136145	-0.0103234326880178	0	0	0.0336569491878021	-0.965150713363821	0	0
0	0	-0.00567849758765602	0.00133078848952993	0	0	-0.134089702016997	-0.974275729231252
0.0336569491878021	-0.965150713363821	0	0	-0.013469911624557	0.00368564232374303	0	0
0	0	-0.922055156505873	-0.202321211584701	0	0	-0.0319775693457094	-0.0181878232104226
0.4	-0.00883521686950379	0.00781251896150068	0	0	0.948560416816073	0.0622710974565098	0	0
0	0	-0.039344623045314	0.000787649957315201	0	0	-0.666961306467716	-0.725994312512907
0.948560416816073	0.0622710974565098	0	0	-0.0341210604708211	-0.0148382050934944	0	0
0	0	-0.234944648378867	-0.895914089744791	0	0	0.0216584116016273	0.0189291776067631
0.5	0.0112637412214757	-0.00390535281292951	0	0	0.128089822569498	-0.948903836093791	0	0
0	0	-0.0325276206274811	0.00504258640482976	0	0	0.964013647097308	0.207559840008742
0.128089822569498	-0.948903836093791	0	0	0.0364629437801722	0.0160440731816834	0	0
0	0	-0.678985934330025	0.636443037015317	0	0	0.00486986578890815	0.00702075780078195
0.6	-0.0124386130874749	0.000674235882431853	0	0	0.955136652287288	0.131809774328285	0	0
0	0	-0.00770574112830632	0.00667651919382294	0	0	0.913060993658622	-0.329034335166467
0.955136652287288	0.131809774328285	0	0	0.00473395618379595	-0.0199995343343489	0	0
0	0	-0.861916839717445	-0.34540105960617	0	0	-0.00556219233790639	-0.00750538971990205
0.7	0.0126554446595877	0.00182912075800528	0	0	0.109600277192582	-0.957969250495468	0	0
0	0	0.0232533790118033	-0.0100368522496231	0	0	-0.611951925386824	0.748233671131671
0.109600277192582	-0.957969250495468	0	0	0.00808036622399957	0.00971810607463316	0	0
0	0	0.0452426762700322	0.920772641391132	0	0	0.0023472416199432	-0.0130764373312397
0.8	-0.0116251696116889	-0.00455902340104979	0	0	0.955684861557473	0.114336904491687	0	0
0	0	0.0447123820674037	-0.0407146909997147	0	0	-0.121179060899201	0.961443166479524
0.955684861557473	0.114336904491687	0	0	-0.0223147661155117	0.0124730302120372	0	0
0	0	-0.812413465080524	0.44840949899422	0	0	0.00687708898194677	0.0832682938957245
0.9	0.00864126158135721	0.00700549269098138	0	0	0.145863269849051	-0.940788157741168	0	0
0	0	0.0135618753819722	-0.0267275200854427	0	0	-0.434337548708624	-0.86733196380932
0.145863269849051	-0.940788157741168	0	0	-0.001627591478387	-0.0625590250566666	0	0
0	0	0.764549928817391	0.526249910359746	0	0	0.0368033225517388	0.013308114937168
1	-0.00487924740320846	-0.0086034027718078	0	0	0.943914351647384	0.182423616157442	0	0
0	0	-0.0143125864080587	0.0124232631102881	0	0	-0.839400363873575	-0.482594823975579
0.943914351647384	0.182423616157442	0	0	0.00275927273515073	0.041236784279962	0	0
0	0	-0.127005389441327	0.903947125016591	0	0	0.00350739825829754	0.00116641958803254
1.1	0.00110273397296267	0.00882358951313089	0	0	0.202238516767638	-0.951213888381549	0	0
0	0	-0.0117992378910097	0.0350002399873039	0	0	0.9582842887431	-0.0509003511035811
0.202238516767638	-0.951213888381549	0	0	0.00305296265792721	0.00080618663577664	0	0
0	0	0.870772500164251	-0.260588928554608	0	0	0.00852225205526823	0.0421287555327861
1.2	0.00163838408185415	-0.00768400823207822	0	0	0.961225216685601	0.20307603478997	0	0
0	0	0.00840922846176183	0.063843783687792	0	0	0.772786609091526	-0.556094178257046
0.961225216685601	0.20307603478997	0	0	0.052845373753843	-0.00137484197847065	0	0
0	0	0.61542263855806	0.672934022745395	0	0	0.0062847102650925	0.0992593478454229
1.3	-0.00327609575978894	0.00473580331120494	0	0	0.20548406517846	-0.945251928289962	0	0
0	0	0.0159908853838768	0.017763142926442	0	0	-0.355451328111937	0.885451595597055
0.20548406517846	-0.945251928289962	0	0	-0.0557738179649451	6.56107288040872E-06	0	0
0	0	0.322432831001174	-0.861416202548639	0	0	0.0393253881444602	0.0139170715581708
1.4	0.0038096259464172	-0.00104845449502767	0	0	0.927143557116784	0.233363429995133	0	0
0	0	-0.013017755730713	-0.0450972164093147	0	0	0.180779108171624	0.939377940978564
0.927143557116784	0.233363429995133	0	0	0.0158922501250813	0.007750892417869	0	0
0	0	0.900804474762283	-0.0849679971639001	0	0	0.0434745014297505	-0.00697044631918068
1.5	-0.00276401175694865	-0.00189152630983815	0	0	0.270508491029221	-0.925186913635667	0	0
0	0	-0.0374994400315167	-0.0576674803432455	0	0	-0.67707747055965	-0.676024554432112
0.270508491029221	-0.925186913635667	0	0	0.0317348804114268	-0.0331680445464398	0	0
0	0	-0.463478656770178	-0.768559089878806	0	0	0.0322235348636014	0.0520645930964826
1.6	0.000329584595248715	0.00362248065321258	0	0	0.940137849080648	0.294100610507291	0	0
0	0	-0.0351982044825838	-0.0208085724715467	0	0	-0.939071134370272	-0.182578117067131
0.940137849080648	0.294100610507291	0	0	-0.053094772821798	-0.0266611851884888	0	0
0	0	0.497211826702667	-0.756292241113725	0	0	-9.83434201735876E-05	0.0527780326792063
1.7	0.00269319894226027	-0.00403542867998095	0	0	0.288504719048847	-0.945399501548902	0	0
0	0	0.0167601108164845	0.00541952262260084	0	0	0.885622882203539	-0.345601013709701
0.288504719048847	-0.945399501548902	0	0	-0.00208096647362108	0.00575157989165159	0	0
0	0	-0.902007405152868	-0.109843154023971	0	0	0.0389744228504853	-0.0303779628177318
1.8	-0.00522682022214495	0.00273437398743616	0	0	0.919211902605627	0.289374863146684	0	0
0	0	0.046549498722346	0.0375619174828345	0	0	0.57276064266975	-0.74767327639946
0.919211902605627	0.289374863146684	0	0	0.00605538661267282	0.0659251556890506	0	0
0	0	-0.311950575011759	-0.84969978620663	0	0	0.0267838649867072	-0.0336717407092404
1.9	0.00684444969032901	0.000263695078319414	0	0	0.318630846607975	-0.895435574598133	0	0
0	0	0.0535991984249832	-0.00377585022589943	0	0	-0.0818527112414035	0.942258494664779
0.318630846607975	-0.895435574598133	0	0	0.00932658313053185	0.00945739034656774	0	0
0	0	-0.614390763808723	0.647080658862618	0	0	0.0406267527912482	0.0239484494948567
2	-0.00703697009890041	-0.00441635681187812	0	0	0.892035045175304	0.349089601994494	0	0
0	0	0.0155453671696959	-0.00459149958331534	0	0	0.458629980734671	0.832724381429592
0.892035045175304	0.349089601994494	0	0	-0.0502305690146499	-0.0327896077340733	0	0
0	0	-0.8450137477286	-0.262875947409386	0	0	-0.0533418457440719	-0.0207641117854461
2.1	0.00568702022129982	0.00880679443162578	0	0	0.363983685823527	-0.898499268199203	0	0
0	0	-0.0291545333331566	0.00853870155040264	0	0	-0.830600976198514	-0.451372417871832
0.363983685823527	-0.898499268199203	0	0	0.0704028196421313	0.0165465377265371	0	0
0	0	0.136148756807649	0.879225039922827	0	0	-0.00524982760914409	0.00990549428982328
2.2	-0.00240222158177247	-0.0124994452642911	0	0	0.898783844407431	0.376156671322331	0	0
0	0	-0.0485097798178957	0.0179668490712255	0	0	-0.932069080908041	0.069029741330532
0.898783844407431	0.376156671322331	0	0	0.0143481615245276	-0.0106322809246382	0	0
0	0	-0.736823848747658	0.506367385928108	0	0	0.0422445015722376	-0.0111158762449882
2.3	-0.00264158962056512	0.0142695373598469	0	0	0.386200126164329	-0.889572303822663	0	0
0	0	-0.0310066678377059	0.0199426427377202	0	0	0.736614473202278	-0.55547486206718
0.386200126164329	-0.889572303822663	0	0	0.0576948177300086	-0.0284539389152423	0	0
0	0	0.776061396884866	0.432198296234377	0	0	0.0663255848059958	0.046838154138309
2.4	0.00892132222139453	-0.0137227228248748	0	0	0.878154746112306	0.398267549609664	0	0
0	0	-0.00105279582285778	0.00139997969811679	0	0	0.324542043292577	-0.867954271030666
0.878154746112306	0.398267549609664	0	0	-0.0971798211272486	0.0144767436783633	0	0
0	0	-0.0394224389014495	0.882662876216576	0	0	0.0467613888504717	-0.0486987249059685
2.5	-0.0157185792906572	0.0107660340677953	0	0	0.41542090760938	-0.866691642492172	0	0
0	0	0.019017734261271	-0.0359900922557965	0	0	0.189263565411526	0.917900946762048
0.41542090760938	-0.866691642492172	0	0	-0.0102029883630028	-0.0263682125522144	0	0
0	0	0.80530707137803	-0.332063360236537	0	0	0.0123266957535048	-0.000101995205465862
2.6	0.0215501707650151	-0.00590547883089295	0	0	0.859880495626187	0.429638429769075	0	0
0	0	0.0181657627864547	-0.0389778415005366	0	0	0.667347217562339	0.653945896031123
0.859880495626187	0.429638429769075	0	0	0.00573942059960009	-0.03280620985013	0	0
0	0	0.630743863751834	0.597588436885918	0	0	0.0625333465460708	0.0108671085211132
2.7	-0.0253073283891982	-0.000642859086262465	0	0	0.444305112639887	-0.854217702888439	0	0
0	0	0.0216835041899058	-0.00983237407696482	0	0	-0.898057206715087	-0.174371297639219
0.444305112639887	-0.854217702888439	0	0	0.00359633572215096	-0.0123652637541987	0	0
0	0	0.276103983617431	-0.835983097310877	0	0	-0.0273232665895211	-0.000219899766308812
2.8	0.0259339179590781	0.00821999720390722	0	0	0.84411331125387	0.457822938788101	0	0
0	0	0.0101809256250012	0.0124161422260435	0	0	-0.842931656593758	0.312759076169375
0.84411331125387	0.457822938788101	0	0	0.00455582262021415	0.0644477901331809	0	0
0	0	0.87227022156349	-0.150227675227669	0	0	0.0263698248406315	-0.0632488146654894
2.9	-0.0229838532136552	-0.0158956107247501	0	0	0.474006786879543	-0.825303141196767	0	0
0	0	0.000223128448339114	0.0366330274429432	0	0	0.567869457869996	-0.701471857721076
0.474006786879543	-0.825303141196767	0	0	-0.0531947635275617	0.0345590100185905	0	0
0	0	-0.515755263535179	-0.703354444699989	0	0	-0.0399942678115298	-0.0456464772613261
3	0.0172835303791023	0.0226290462334459	0	0	0.816690456947958	0.49824530710811	0	0
0	0	-0.0107523953390748	0.0298538935452625	0	0	0.0913883092070336	-0.921297971855125
0.816690456947958	0.49824530710811	0	0	-0.0064631292664072	-0.0174986715698488	0	0
0	0	0.406732231476211	-0.761699374029921	0	0	0.0140315356944228	0.0865015171010234
3.1	-0.00887038166723264	-0.0266132257658163	0	0	0.518995979145213	-0.806754887343766	0	0
0	0	-0.0201607453051851	0.0131454844676866	0	0	0.44917565451637	0.807398925095824
0.518995979145213	-0.806754887343766	0	0	0.0390727134320845	-0.0645732585451023	0	0
0	0	-0.870399636296359	-0.0497416325051311	0	0	-0.0752458388702998	0.00667532653935051
3.2	-0.000802171069594243	0.0281012310789563	0	0	0.805555946515414	0.542764573130364	0	0
0	0	-0.0180269808501671	-0.00489437299643413	0	0	0.799361180923594	0.43718526329136
0.805555946515414	0.542764573130364	0	0	0.000952353135020158	0.0253343379466653	0	0
0	0	-0.338400712407504	-0.814801799545426	0	0	-0.0590912380600156	0.00714674501178143
3.3	0.0102523566405756	-0.0258920944066129	0	0	0.553938244665729	-0.801537268866859	0	0
0	0	-0.00178907233945201	-0.0227753194334457	0	0	-0.905920327778351	0.0509864282889217
0.553938244665729	-0.801537268866859	0	0	0.062317524522578	0.0242420475355456	0	0
0	0	-0.574919322506575	0.676698080360687	0	0	-0.0274582967148533	-0.107046952652343
3.4	-0.017987279834904	0.0201547125802	0	0	0.785082992342647	0.558728721365651	0	0
0	0	-0.00518073003582905	-0.0397502932505886	0	0	-0.732960510802449	0.544359248391917
0.785082992342647	0.558728721365651	0	0	-0.115307344224638	0.00904702924500976	0	0
0	0	-0.857819545593407	-0.221584276340203	0	0	-0.0196605503313469	-0.0397939671327302
3.5	0.0232165599575189	-0.0124508016619916	0	0	0.573035146215239	-0.775779994112097	0	0
0	0	0.00697964301992967	-0.0300664535225018	0	0	0.296190914386018	-0.869952134003818
0.573035146215239	-0.775779994112097	0	0	-0.0123913581990536	-0.0536574626678066	0	0
0	0	0.168943580988121	0.843494956438591	0	0	0.084811200299196	-0.0728671277458146
3.6	-0.0251128081153611	0.00361510804666562	0	0	0.768772147026663	0.582542802766098	0	0
0	0	0.0185902335966475	0.00209837380182354	0	0	-0.211475412287571	-0.894237970545742
0.768772147026663	0.582542802766098	0	0	-0.034178109370433	0.0607703676646868	0	0
0	0	-0.692001602626967	0.521909758485841	0	0	0.0445895918257937	-0.0317171403210903
3.7	0.0232099166282232	0.00582551858549044	0	0	0.601168300662671	-0.748265826676585	0	0
0	0	0.0131174198962965	0.035459147662576	0	0	0.640698172260311	0.647345842817059
0.601168300662671	-0.748265826676585	0	0	0.118475068758311	0.00695005677210414	0	0
0	0	0.771403676079341	0.407715907629886	0	0	0.0553401182752658	-0.0192340113659803
3.8	-0.0183722316981082	-0.0134870347931877	0	0	0.741913164066369	0.619711994229633	0	0
0	0	0.014692375260981	0.0495846362716455	0	0	0.871019517857706	0.184340215966179
0.741913164066369	0.619711994229633	0	0	-0.0251949012617309	0.0210020987859121	0	0
0	0	-0.0138287555772225	0.870865111116217	0	0	-0.0583472436193946	-0.0249212645950369
3.9	0.0112407462115632	0.0179811306155983	0	0	0.624175298220466	-0.740799431769105	0	0
0	0	0.0108798292976353	0.0148283407249526	0	0	-0.822424106896625	0.329103637299611
0.624175298220466	-0.740799431769105	0	0	-0.0129521798870551	0.0832749358849874	0	0
0	0	0.781123642770237	-0.386825304208867	0	0	0.024822968047226	-0.00576622943064265
4	-0.00228721055745812	-0.0192453062490557	0	0	0.722568373494246	0.632516662545167	0	0
0	0	-0.0166418765058132	-0.0127528369444772	0	0	-0.513628476797829	0.724755956191271
0.722568373494246	0.632516662545167	0	0	0.0506817201041533	-0.0744164223985196	0	0
0	0	0.68425203192335	0.513666047456022	0	0	-0.0045982720776648	0.00953975608952527
4.1	-0.00598495123533184	0.0172633208858124	0	0	0.638164666746682	-0.709260719546705	0	0
0	0	-0.0412121854409044	-0.0354403626555369	0	0	0.0529991264454597	-0.890285879898318
0.638164666746682	-0.709260719546705	0	0	0.024627000179379	-0.111822869706352	0	0
0	0	0.181758552780616	-0.827105529579088	0	0	0.0266365232693947	0.0814546558592543
4.2	0.0124910902143139	-0.0126429021304117	0	0	0.704115204210914	0.649651861975356	0	0
0	0	-0.0485077161096681	-0.0150821367312478	0	0	-0.433874863046851	-0.778319668622157
0.704115204210914	0.649651861975356	0	0	-0.0399675721122195	0.0163699077460815	0	0
0	0	0.829435654348121	-0.18574135622529	0	0	-0.0118401180286255	-0.0412677292799755
4.3	-0.0161617224361697	0.00563597643121399	0	0	0.658600007671747	-0.69723304319735	0	0
0	0	-0.00714272879903935	0.00725070744321118	0	0	0.77719642525303	0.421864291436229
0.658600007671747	-0.69723304319735	0	0	-0.0108836998270041	0.0671090293276167	0	0
0	0	-0.53426672637832	-0.671270951049803	0	0	-0.0143857609309552	0.00234582561306672
4.4	0.0163453422014264	0.00275644701716988	0	0	0.680119041521229	0.668492261660052	0	0
0	0	0.0380240705049051	0.00480297690723173	0	0	0.886228497460327	-0.0545332432090907
0.680119041521229	0.668492261660052	0	0	0.00119391727989413	-0.049965569154285	0	0
0	0	0.344358304715606	-0.770950741443461	0	0	-0.0335574495835685	0.00338689701916153
4.5	-0.0130576957968095	-0.0103164240485412	0	0	0.675428548490002	-0.661926954684143	0	0
0	0	0.0642909051467368	-0.00429793728673971	0	0	-0.720569472688464	0.522684209364907
0.675428548490002	-0.661926954684143	0	0	-0.049646958746663	0.0266822767389453	0	0
0	0	-0.833644347809967	0.0118746101109107	0	0	-0.0857811069772461	0.0621143644054063
4.6	0.00687123581270126	0.0158798788458259	0	0	0.644025223361911	0.690500027762943	0	0
0	0	0.0460309117674836	-0.0250563168552403	0	0	-0.312342976858209	0.843156415870356
0.644025223361911	0.690500027762943	0	0	-0.00369557141113854	0.014066814432715	0	0
0	0	-0.371394505997193	-0.743458718141343	0	0	-0.0799837355271389	-0.00920857390901719
4.7	0.00107147719821124	-0.0182992313038925	0	0	0.70810614187975	-0.637306020799819	0	0
0	0	-0.0252101231578079	-0.00581325795408127	0	0	-0.191041484021651	-0.872927987388151
0.70810614187975	-0.637306020799819	0	0	0.06585051561032	-0.017480072520904	0	0
0	0	-0.523608564000035	0.655086390925729	0	0	-0.0728847721002561	0.0725698525808441
4.8	-0.00968852562663671	0.0172732508342285	0	0	0.637643242122493	0.724375339686216	0	0
0	0	-0.0591179543339393	0.0335754949007864	0	0	-0.606842622620181	-0.634230880516335
0.637643242122493	0.724375339686216	0	0	0.0534105162714001	-0.0183020672736262	0	0
0	0	-0.827121299833715	-0.196773248193626	0	0	-0.00886087712246341	0.0721504736082403
4.9	0.0172550126526827	-0.0121248586378098	0	0	0.730616088155295	-0.629825760265029	0	0
0	0	-0.0399427446868088	0.0577743507670444	0	0	0.854219277731316	0.20655701593328
0.730616088155295	-0.629825760265029	0	0	-0.0802995086368999	-0.0289194102726623	0	0
0	0	0.199415113729166	0.820952072369178	0	0	-0.0831780986247407	0.00426621062069088
5	-0.0218629254617268	0.00400904290284826	0	0	0.61903255326947	0.726095188422192	0	0
0	0	-0.000159799713861869	0.0194897142390973	0	0	0.830618391996293	-0.298818888589431
0.61903255326947	0.726095188422192	0	0	-0.0470996213611384	0.0406732268442639	0	0
0	0	-0.644646487978111	0.534192266073419	0	0	0.0417955180647689	-0.00887759065060291
5.1	0.0232980827249692	0.00603110562802889	0	0	0.727406453209342	-0.606521449277591	0	0
0	0	0.0389318565908265	-0.0342298058850404	0	0	-0.532555591064159	0.695806106381284
0.727406453209342	-0.606521449277591	0	0	-0.0213074299328569	-0.0415800206332045	0	0
0	0	0.750032650623512	0.344114881821766	0	0	0.072837628594848	-0.0196176948868632
5.2	-0.020976665988048	-0.0172473023544196	0	0	0.584406346189224	0.745019882821491	0	0
0	0	0.016728933113931	-0.0748509805426402	0	0	-0.0777731831587016	0.871537689314905
0.584406346189224	0.745019882821491	0	0	0.0385789775965596	0.0220914035216133	0	0
0	0	0.0160778679907466	0.832067194940261	0	0	0.0272068712623382	0.066405588155635
5.3	0.0148805175835538	0.026840873758708	0	0	0.763579012599559	-0.572519306108797	0	0
0	0	-0.0135668574699263	-0.0415624447181426	0	0	-0.412808026522601	-0.770314089968316
0.763579012599559	-0.572519306108797	0	0	-0.0318930600004558	0.0244452665694938	0	0
0	0	0.742357362365434	-0.37483959958328	0	0	-0.0430418376388682	0.0119519274626037
5.4	-0.00585211587646389	-0.0326689263682707	0	0	0.564337555181722	0.768480737920847	0	0
0	0	-0.0308858305400599	0.0147509940217134	0	0	-0.767221758038909	-0.427418608838839
0.564337555181722	0.768480737920847	0	0	0.0705835386812923	0.0872205175496147	0	0
0	0	0.657477982803086	0.509078974665984	0	0	-0.0091993220260518	0.0217139043275724
5.5	-0.00513767611464503	0.0349375649163448	0	0	0.779384879541557	-0.561547339171533	0	0
0	0	0.023354454335406	0.0605153239431978	0	0	0.876737403781812	-0.0450702166152199
0.779384879541557	-0.561547339171533	0	0	-0.00656842526054953	-0.0278440275231863	0	0
0	0	0.156999324608281	-0.816335398015537	0	0	0.0217425197841969	0.0383185214292963
5.6	0.0169059134515236	-0.0324054640470051	0	0	0.54731199790512	0.785019238317303	0	0
0	0	0.0421546955560263	0.0573105192663803	0	0	0.697248786802108	-0.508509810134573
0.54731199790512	0.785019238317303	0	0	0.00195110268214339	-0.109533614384868	0	0
0	0	0.799033613436708	-0.202521766520304	0	0	0.0112939566909553	0.11733170825542
5.7	-0.0277197916115797	0.0259970589346395	0	0	0.79815098611204	-0.539074229291919	0	0
0	0	0.0201661122828348	-0.00631352108747438	0	0	-0.317257344923207	0.806858951549252
0.79815098611204	-0.539074229291919	0	0	-0.0117547296764904	0.051332464729274	0	0
0	0	-0.535892587200831	-0.6480902281374	0	0	0.0587871468419543	0.0344972790013508
5.8	0.0343930828783934	-0.0155700620813103	0	0	0.521471371784741	0.798098285984719	0	0
0	0	-0.0226073364463526	-0.0308607859620863	0	0	0.155639759739857	0.8528152351019
0.521471371784741	0.798098285984719	0	0	0.0591844462802399	-0.0276837913472809	0	0
0	0	0.323471776679166	-0.770386301153397	0	0	0.0343200226729769	0.0554335494441273
5.9	-0.0372851249223093	0.00238358308138255	0	0	0.812035119133351	-0.49828338922299	0	0
0	0	-0.0566335701038072	-0.0265546073532936	0	0	-0.585022306581743	-0.636985376559813
0.812035119133351	-0.49828338922299	0	0	-0.0732575759248445	0.0428399470061131	0	0
0	0	-0.826281035220396	0.0599560258082271	0	0	0.0378367299683337	0.0721349339767272
6	0.0358333222353794	0.0108189678053562	0	0	0.48214831405044	0.825440868660638	0	0
0	0	-0.0342513679651327	0.00581096648366736	0	0	-0.847309878924155	-0.194381654967863
0.48214831405044	0.825440868660638	0	0	-0.00320083881782568	0.0231340225881804	0	0
