# GHZ S RI R 50
0.2	-0.00655138214580167	0.0122261781391119	0	0	0.957690211642028	0.0584767075024787	0	0
0	0	0.0188160783533647	0.0056251968823271	0	0	-0.370720250977959	0.910924831426551
0.957690211642028	0.0584767075024787	0	0	0.0208934415153545	0.0399835499573407	0	0
0	0	0.569843770139978	-0.753785398301696	0	0	0.00138004874600163	-0.0338311485782232
0.3	0.00658931136675174	-0.0106510889719352	0	0	0.0341887987075386	-0.96505455863458	0	0
0	0	-0.00598718715713408	0.00186856426953407	0	0	-0.133573687943423	-0.974192528844574
0.0341887987075386	-0.96505455863458	0	0	-0.0148420976875175	0.00309657494424564	0	0
0	0	-0.921809084994423	-0.202758423111152	0	0	-0.0334156578356819	-0.0188290199864829
0.4	-0.00890445301644464	0.00786854337335919	0	0	0.948529702957189	0.0630647111690908	0	0
0	0	-0.0393621154649112	0.000707485802680485	0	0	-0.66632711675933	-0.726530141699001
0.948529702957189	0.0630647111690908	0	0	-0.0350856776559438	-0.0147487032664445	0	0
0	0	-0.234182582444029	-0.896080465572134	0	0	0.02052730335339	0.0191102379930599
0.5	0.0118300984415595	-0.00422922176946893	0	0	0.129189760335005	-0.948928835405271	0	0
0	0	-0.0324078358590982	0.00448326923828462	0	0	0.963974261609992	0.20869314689803
0.129189760335005	-0.948928835405271	0	0	0.0359535350463267	0.0165051415362087	0	0
0	0	-0.679844085401109	0.635803576818328	0	0	0.00428013698160372	0.00743930493670638
0.6	-0.0130383966509741	0.00156902496705821	0	0	0.955454041134232	0.13321369059992	0	0
0	0	-0.007452928846319	0.0058287543266297	0	0	0.914021173238246	-0.327994670959562
0.955454041134232	0.13321369059992	0	0	0.00465150718338575	-0.0197588968984488	0	0
0	0	-0.861942097235916	-0.346754815522029	0	0	-0.00573855206969569	-0.00724759655340164
0.7	0.0127509801102126	0.000543381629739513	0	0	0.111215924918354	-0.95866552087297	0	0
0	0	0.023637498435269	-0.0109787806121118	0	0	-0.613645323271567	0.748090981874935
0.111215924918354	-0.95866552087297	0	0	0.00798469505173377	0.00976425445136755	0	0
0	0	0.0439529738876446	0.921754240292174	0	0	0.00229171334709436	-0.0131005965686722
0.8	-0.0111648562001346	-0.0033827614742195	0	0	0.956836220023679	0.116031032592849	0	0
0	0	0.0451394739343664	-0.0416019763104041	0	0	-0.122791758803457	0.962574680263304
0.956836220023679	0.116031032592849	0	0	-0.0226771386143023	0.0122991303737036	0	0
0	0	-0.814198619323888	0.447799506992302	0	0	0.00635515139285082	0.0833112496302786
0.9	0.00798368901281581	0.00627819380837519	0	0	0.147501812932072	-0.942467708179444	0	0
0	0	0.0139262414004732	-0.0274024312361739	0	0	-0.434004962409276	-0.869564677174657
0.147501812932072	-0.942467708179444	0	0	-0.00196879624183693	-0.0628499177284532	0	0
0	0	0.765302363176182	0.528274572889262	0	0	0.0362723233122525	0.0133021431257587
1	-0.00443445274806887	-0.00831075365835781	0	0	0.94602968540666	0.183992761901486	0	0
0	0	-0.0140749096367959	0.0121036905775628	0	0	-0.840822853968935	-0.484628343799891
0.94602968540666	0.183992761901486	0	0	0.00202453325441323	0.0417405234358449	0	0
0	0	-0.128284038680859	0.90590644910858	0	0	0.002631876770051	0.00138548367907739
1.1	0.00119178270873738	0.00865670324318262	0	0	0.203449157978922	-0.953779171173962	0	0
0	0	-0.0117310797089	0.0350946637314127	0	0	0.960938954746794	-0.0503260635535568
0.203449157978922	-0.953779171173962	0	0	0.00254820827572262	0.00151441881054777	0	0
0	0	0.873344276134907	-0.260652373675175	0	0	0.00764610486293351	0.0431205923804089
1.2	0.0010980278972666	-0.00716374350341689	0	0	0.964099679764056	0.203805622949418	0	0
0	0	0.00827869510901814	0.0642958605894369	0	0	0.775270608188002	-0.557573746898696
0.964099679764056	0.203805622949418	0	0	0.053018898692537	-0.000410250932113266	0	0
0	0	0.617107913959781	0.67513149781386	0	0	0.00574892798061186	0.10108929902407
1.3	-0.00272521513619064	0.00379143937204133	0	0	0.205558119865943	-0.948274405229679	0	0
0	0	0.0156655840715453	0.0183918849149036	0	0	-0.356344371924407	0.888450208043974
0.205558119865943	-0.948274405229679	0	0	-0.0559027556567609	0.00103089011603639	0	0
0	0	0.323225325614796	-0.864326355942875	0	0	0.0394729277473944	0.0153877140067451
1.4	0.00337006591580809	4.66121828983448E-05	0	0	0.930146623042286	0.233024345889277	0	0
0	0	-0.0135738448121353	-0.0445480820821095	0	0	0.182248438945663	0.942266012758288
0.930146623042286	0.233024345889277	0	0	0.0164314118984004	0.00861359391871337	0	0
0	0	0.903656840706611	-0.0860892979692423	0	0	0.0438756883732059	-0.00573312895328734
1.5	-0.00239947295434062	-0.00316930190826452	0	0	0.269723492517115	-0.928184284973794	0	0
0	0	-0.0383008128000542	-0.0572811747687157	0	0	-0.680128986262656	-0.67702612874184
0.269723492517115	-0.928184284973794	0	0	0.0323839191115234	-0.0327320885328409	0	0
0	0	-0.466030079361386	-0.770161054459094	0	0	0.0329396842338766	0.0535224974592643
1.6	0.000263617289309885	0.00513964445820466	0	0	0.942912400096226	0.292698937166896	0	0
0	0	-0.0361501518965182	-0.020611036174085	0	0	-0.941906952846071	-0.181114519339452
0.942912400096226	0.292698937166896	0	0	-0.0527053758916989	-0.0260780161055879	0	0
0	0	0.496949788676561	-0.759300089079134	0	0	0.00078983871716921	0.0540779060784353
1.7	0.00227908986999833	-0.00544495212248508	0	0	0.286762485799544	-0.947750155218863	0	0
0	0	0.0158210859901841	0.00542682165902352	0	0	0.886674344988341	-0.348609643534202
0.286762485799544	-0.947750155218863	0	0	-0.00130918217720475	0.00593177802988963	0	0
0	0	-0.904254227335858	-0.107786063577866	0	0	0.0398179479544972	-0.0300662550051821
1.8	-0.0046402639316245	0.0037311593791066	0	0	0.921018775139198	0.287484477171449	0	0
0	0	0.0458104223061984	0.037381454645555	0	0	0.571570096072607	-0.75040914046438
0.921018775139198	0.287484477171449	0	0	0.00697641657479025	0.0659566505943999	0	0
0	0	-0.314783737484252	-0.85014188765546	0	0	0.0274553892017913	-0.0336621375328195
1.9	0.00643261489513495	-0.000419919359730245	0	0	0.316618736314923	-0.896839572363681	0	0
0	0	0.0531836619151065	-0.00409895254144241	0	0	-0.0793739846340261	0.943347025892898
0.316618736314923	-0.896839572363681	0	0	0.00974851516607833	0.00922633572573349	0	0
0	0	-0.613201939574238	0.649341148679148	0	0	0.0414054594660543	0.0237913838307551
2	-0.00690368882421973	-0.00378838650811756	0	0	0.892982023159594	0.347023030947293	0	0
0	0	0.0154926229415332	-0.00499374235411004	0	0	0.460875937179393	0.831843645184621
0.892982023159594	0.347023030947293	0	0	-0.0501946898563283	-0.0327224139758508	0	0
0	0	-0.845952598528164	-0.260835892687008	0	0	-0.053117350680939	-0.0205413312944296
2.1	0.005698128159125	0.00800164862307627	0	0	0.362142688007864	-0.898966776430233	0	0
0	0	-0.0288673873407909	0.00812482828041541	0	0	-0.831527218338842	-0.449565942558369
0.362142688007864	-0.898966776430233	0	0	0.0705992377293933	0.016180013987421	0	0
0	0	0.138029343619201	0.878887430034138	0	0	-0.00493457701775468	0.00996800838080401
2.2	-0.00229234544634558	-0.0115092142346804	0	0	0.898837458632591	0.374577031767272	0	0
0	0	-0.0479931759016949	0.0176219174341221	0	0	-0.931704090330251	0.0706201871858144
0.898837458632591	0.374577031767272	0	0	0.0145366279508964	-0.0107283227244334	0	0
0	0	-0.735755559044831	0.507505502073299	0	0	0.042521410928407	-0.0111474524112287
2.3	-0.00300989646476362	0.0133554245332343	0	0	0.385095246760318	-0.889402147882322	0	0
0	0	-0.0304397966820312	0.0197165580073703	0	0	0.735686184183081	-0.556192522351468
0.385095246760318	-0.889402147882322	0	0	0.0578747229333495	-0.028693552805384	0	0
0	0	0.77633166911245	0.431101353434221	0	0	0.0668958383768767	0.0466961443302006
2.4	0.00938496348618857	-0.0131332569247694	0	0	0.877771533796505	0.397629219947897	0	0
0	0	-0.000597188461973313	0.00130729950008048	0	0	0.323744239287057	-0.867947583639646
0.877771533796505	0.397629219947897	0	0	-0.0967448134986692	0.0141922647918334	0	0
0	0	-0.0387007119094118	0.882422446402689	0	0	0.0473046889092051	-0.0488720002175088
2.5	-0.0159741901727841	0.010515750138006	0	0	0.415286871897664	-0.866488512928761	0	0
0	0	0.0192311788607169	-0.0359539466641273	0	0	0.189548653400245	0.917791797909645
0.415286871897664	-0.866488512928761	0	0	-0.010017497434628	-0.0268695588080049	0	0
0	0	0.805157947223057	-0.332304740098439	0	0	0.012992324025787	-0.000498447287898746
2.6	0.0214378611565836	-0.0057493721444068	0	0	0.859939351706155	0.429942761970773	0	0
0	0	0.018099834760715	-0.0388800651021605	0	0	0.667599432265959	0.654216983195496
0.859939351706155	0.429942761970773	0	0	0.00577174164060808	-0.033407987176556	0	0
0	0	0.630982619634331	0.59783654420264	0	0	0.0631498625632996	0.0102799265390175
2.7	-0.0249366131955211	-0.000924286334637149	0	0	0.444951912903481	-0.854668231602258	0	0
0	0	0.0214061254496299	-0.00976291219967472	0	0	-0.898885593721242	-0.174665809836739
0.444951912903481	-0.854668231602258	0	0	0.00348995581960807	-0.0129662374791184	0	0
0	0	0.276486265906519	-0.836737905130075	0	0	-0.0269453818069853	-0.000930752901527998
2.8	0.0254655127396354	0.00861064670724889	0	0	0.845046438865184	0.458663096969441	0	0
0	0	0.00981603308664484	0.0123552840749468	0	0	-0.844288875197505	0.313205562033435
0.845046438865184	0.458663096969441	0	0	0.00432610946519885	0.0640846814970285	0	0
0	0	0.873664354282956	-0.150414310111771	0	0	0.0267689990303647	-0.0641722040461279
2.9	-0.0223987468804076	-0.0163040103702322	0	0	0.474833262242029	-0.826876945785326	0	0
0	0	-0.000103037001655865	0.0363356575983185	0	0	0.568915228552123	-0.703097271893832
0.474833262242029	-0.826876945785326	0	0	-0.0536563301352419	0.0342532795137437	0	0
0	0	-0.517016822839732	-0.704731838549742	0	0	-0.0400153831335304	-0.0465344099369566
3	0.0164833527940654	0.0231457784754249	0	0	0.818921149815609	0.498943804466101	0	0
0	0	-0.0109563480234428	0.0292911940063515	0	0	0.0910681131908031	-0.923749374452468
0.818921149815609	0.498943804466101	0	0	-0.00681370455681902	-0.0178842392165607	0	0
0	0	0.407328807471507	-0.76392665119518	0	0	0.0142433190221464	0.0863058268217087
3.1	-0.00792103767403244	-0.0274060356730104	0	0	0.519386260099613	-0.80959433692512	0	0
0	0	-0.0201695793843497	0.012377745059909	0	0	0.451590124147443	0.809160035593509
0.519386260099613	-0.80959433692512	0	0	0.0388044047146124	-0.0651657569191006	0	0
0	0	-0.873022748604024	-0.0487065620311535	0	0	-0.0757888468736074	0.00646241724815684
3.2	-0.00169522241676649	0.0292134482148713	0	0	0.808789620498489	0.542536492249768	0	0
0	0	-0.0177873471690012	-0.00571906945472918	0	0	0.802768002836123	0.43681942627056
0.808789620498489	0.542536492249768	0	0	0.000846395702428481	0.0254409114057775	0	0
0	0	-0.341194670100777	-0.816591488638534	0	0	-0.0595910048003495	0.00719333595978843
3.3	0.0108996344274627	-0.0271378964548008	0	0	0.553092997530141	-0.805112338071296	0	0
0	0	-0.0013307102802769	-0.0234813642835364	0	0	-0.908461626046607	0.0539641257693226
0.553092997530141	-0.805112338071296	0	0	0.0626779142738877	0.024040382656996	0	0
0	0	-0.574522284618743	0.680508427601237	0	0	-0.0283987170314744	-0.107589520139472
3.4	-0.0184582450321586	0.0212912254588541	0	0	0.788732646854483	0.556855597253454	0	0
0	0	-0.00455693518640484	-0.0401731475802337	0	0	-0.732754158206112	0.548586608520918
0.788732646854483	0.556855597253454	0	0	-0.115682856024034	0.0099586442418177	0	0
0	0	-0.860885606106314	-0.218851525790405	0	0	-0.0200815487769528	-0.0398207772751445
3.5	0.0237120948389635	-0.0134929899587413	0	0	0.570428406490795	-0.779454452897804	0	0
0	0	0.00767596508366392	-0.0301287000877071	0	0	0.292815136395286	-0.873065949228133
0.570428406490795	-0.779454452897804	0	0	-0.0128245698598076	-0.0537374223725285	0	0
0	0	0.173139697203962	0.844429858352979	0	0	0.0845727265053732	-0.0738951878819028
3.6	-0.0256744412580789	0.0047316352640447	0	0	0.771952689721391	0.579107290407199	0	0
0	0	0.019267069919461	0.0024401924727188	0	0	-0.216219643155213	-0.894234733312323
0.771952689721391	0.579107290407199	0	0	-0.0335557327733547	0.0610887785448299	0	0
0	0	-0.690198783275451	0.526005511413011	0	0	0.0444940778759798	-0.0322532522913841
3.7	0.0237018309804878	0.0045855259087244	0	0	0.597297707958499	-0.75105357051041	0	0
0	0	0.013640465803503	0.0361012417905444	0	0	0.64429262740441	0.644100808361428
0.597297707958499	-0.75105357051041	0	0	0.118485700418371	0.00569447060148287	0	0
0	0	0.773757274102457	0.40371822670391	0	0	0.0552468484582129	-0.0198870278361916
3.8	-0.0186220285319325	-0.0122338819196526	0	0	0.743965353997259	0.615145181036299	0	0
0	0	0.0149984374351987	0.0502938764981886	0	0	0.87119856961963	0.179580008596616
0.743965353997259	0.615145181036299	0	0	-0.0249463811146227	0.0211764900764023	0	0
0	0	-0.00922457567179424	0.870145290459387	0	0	-0.0584910218282145	-0.0243336374761904
3.9	0.0112855682109333	0.0169693168401365	0	0	0.619326041906381	-0.742005791246118	0	0
0	0	0.010933947205434	0.0154357117921645	0	0	-0.819234468085902	0.332596225586317
0.619326041906381	-0.742005791246118	0	0	-0.0121906949695731	0.0830539200555906	0	0
0	0	0.777723065252428	-0.390003047528804	0	0	0.0246035147430219	-0.0060539101639713
4	-0.00241531417262082	-0.018543539459594	0	0	0.723122100216331	0.627536883850069	0	0
0	0	-0.0168515052878789	-0.0123842072911374	0	0	-0.50904086656225	0.724981984073966
0.723122100216331	0.627536883850069	0	0	0.0496558836927567	-0.0743160105486317	0	0
0	0	0.684590765766815	0.509254959701441	0	0	-0.00462621754151539	0.00949347198694586
4.1	-0.0056485021313971	0.0166742640169102	0	0	0.633270522957196	-0.70899121563746	0	0
0	0	-0.0416116176167812	-0.0353791564757236	0	0	0.0496892920272907	-0.887456154627869
0.633270522957196	-0.70899121563746	0	0	0.0235805011293029	-0.111064463997013	0	0
0	0	0.178234657680209	-0.82494256809758	0	0	0.0268646327379637	0.0807245575978098
4.2	0.0120513245614813	-0.0119887989166124	0	0	0.702928818055213	0.64500806850969	0	0
0	0	-0.0489361214651783	-0.0152898950301575	0	0	-0.43430279465926	-0.774196414842846
0.702928818055213	0.64500806850969	0	0	-0.0395522098738969	0.016562341273097	0	0
0	0	0.825780895975845	-0.187250749889324	0	0	-0.0120961213069604	-0.040831601124267
4.3	-0.0157892289528552	0.00497918916031999	0	0	0.654530514900194	-0.69531422992063	0	0
0	0	-0.00744596874872561	0.00689589578036505	0	0	0.774875743033791	0.41886436995243
0.654530514900194	-0.69531422992063	0	0	-0.0104989973312004	0.0665927787463934	0	0
0	0	-0.533330849096582	-0.667712324819489	0	0	-0.014289214949163	0.00244655687433802
4.4	0.0160180038854025	0.00321890937437856	0	0	0.677863782128184	0.665143630415817	0	0
0	0	0.037965560189462	0.00445468060297419	0	0	0.882779911193956	-0.055059456809075
0.677863782128184	0.665143630415817	0	0	0.0011652753422962	-0.049622040416799	0	0
0	0	0.342395945382827	-0.768275956887924	0	0	-0.0331860242940565	0.00342482611064445
4.5	-0.0125884128581333	-0.0105301096617765	0	0	0.672845698288674	-0.659479369640392	0	0
0	0	0.0645223980591588	-0.00450154650128793	0	0	-0.718039855102872	0.52082474125426
0.672845698288674	-0.659479369640392	0	0	-0.0492804955461287	0.0263178017450358	0	0
0	0	-0.830704541204674	0.0118141262674578	0	0	-0.0849783691647845	0.0615430464786749
4.6	0.00610394786771702	0.0159964536752181	0	0	0.641645941980579	0.688670542358456	0	0
0	0	0.046503121544687	-0.0250246387220128	0	0	-0.311971091089205	0.840447334031178
0.641645941980579	0.688670542358456	0	0	-0.0038381112576445	0.0137545374652627	0	0
0	0	-0.369802066247979	-0.741496069880455	0	0	-0.079297707844217	-0.00957636919410001
4.7	0.00208969792370241	-0.0185296295519452	0	0	0.707029248819231	-0.635143260758156	0	0
0	0	-0.0246616079671261	-0.00551056979077217	0	0	-0.189606051680776	-0.871206095460873
0.707029248819231	-0.635143260758156	0	0	0.0652834405680676	-0.0174930678219164	0	0
0	0	-0.523201215968904	0.653022334911108	0	0	-0.072609439080187	0.0716094663638257
4.8	-0.0107819292323249	0.0176828435423863	0	0	0.635926026149339	0.72389134885382	0	0
0	0	-0.0587008908351057	0.0341178673567333	0	0	-0.605201144438947	-0.634156407914127
0.635926026149339	0.72389134885382	0	0	0.0528771324659912	-0.0182577228878429	0	0
0	0	-0.825746955546014	-0.19757585284872	0	0	-0.00905191997042018	0.0713768238972674
4.9	0.0183037776648947	-0.0125509367682405	0	0	0.730419857722894	-0.62883036064066	0	0
0	0	-0.0398132915489072	0.0584208167530791	0	0	0.853420820533581	0.20735219420648
0.730419857722894	-0.62883036064066	0	0	-0.0805637329502369	-0.0290137476658515	0	0
0	0	0.198384122113094	0.820619644871962	0	0	-0.083228699388969	0.0035060605438552
5	-0.0229656555190676	0.00438455578776927	0	0	0.618747068953073	0.726059348450222	0	0
0	0	-0.000405083585887197	0.0201436499226819	0	0	0.83089795697055	-0.298275154337642
0.618747068953073	0.726059348450222	0	0	-0.0475424533795759	0.0407125627201996	0	0
0	0	-0.64507106651892	0.533797322955781	0	0	0.0415591060719214	-0.00936336694009211
5.1	0.0245354349810795	0.00555727323052349	0	0	0.727263788430827	-0.60709863122886	0	0
0	0	0.0383481513283956	-0.0336825949452579	0	0	-0.5329447006944	0.696209170363414
0.727263788430827	-0.60709863122886	0	0	-0.0217829455002598	-0.0413805921820399	0	0
0	0	0.750483925973549	0.344388256870892	0	0	0.0725507968010223	-0.0200843844841739
5.2	-0.0222123381471167	-0.0165781622708252	0	0	0.585529572953716	0.744540399565343	0	0
0	0	0.0159382680106712	-0.0745020968619922	0	0	-0.0773014466225899	0.872375843576018
0.585529572953716	0.744540399565343	0	0	0.0383201146171988	0.022317519904321	0	0
0	0	0.0166100944353398	0.832811193974393	0	0	0.0268505501238554	0.0661863036160608
5.3	0.0159048715421902	0.0260678732331549	0	0	0.762439766707434	-0.574170353621861	0	0
0	0	-0.0143399876156639	-0.0414908520014816	0	0	-0.414297644170158	-0.770250681471837
0.762439766707434	-0.574170353621861	0	0	-0.0319941884459136	0.0249361270535574	0	0
0	0	0.742331576314373	-0.376258118743757	0	0	-0.0435839594766119	0.0120014415383214
5.4	-0.0066521305345844	-0.03206218518693	0	0	0.566276059579431	0.766746595254747	0	0
0	0	-0.0314367974714999	0.0145063403194233	0	0	-0.768485586324935	-0.425726646047107
0.566276059579431	0.766746595254747	0	0	0.0709794742730515	0.0870755412508296	0	0
0	0	0.658901367391815	0.507674659762076	0	0	-0.00952097846624481	0.0218174330285256
5.5	-0.00427575553256733	0.0345900867546433	0	0	0.776705277897513	-0.563767464083078	0	0
0	0	0.023168154737267	0.0600138423992109	0	0	0.876243334084886	-0.0476690999616271
0.776705277897513	-0.563767464083078	0	0	-0.00673239825129785	-0.0275611720628118	0	0
0	0	0.154497900507398	-0.816469344681522	0	0	0.0216799683431739	0.0382251418413217
5.6	0.0157891240825012	-0.0321378454096981	0	0	0.549511215518295	0.781475769384525	0	0
0	0	0.0423662544120138	0.056689827758712	0	0	0.69469991940253	-0.510093405587689
0.549511215518295	0.781475769384525	0	0	0.00105687171339799	-0.109038813349691	0	0
0	0	0.797338108335868	-0.204832743394924	0	0	0.0118318636838615	0.116921958154649
5.7	-0.0264273086809187	0.0254969704987451	0	0	0.793600547271614	-0.540667214270096	0	0
0	0	0.0207278465406455	-0.00692779591995924	0	0	-0.313826059077804	0.80609425808125
0.793600547271614	-0.540667214270096	0	0	-0.0113352700654237	0.0512711860817112	0	0
0	0	-0.536854481788103	-0.644818827153421	0	0	0.058516980473191	0.0337935462702522
5.8	0.0332691984435703	-0.014828383373381	0	0	0.522447943620398	0.79297499799022	0	0
0	0	-0.0219031802366814	-0.0313071264941237	0	0	0.15778289097066	0.849533135790493
0.522447943620398	0.79297499799022	0	0	0.0583957699437439	-0.0275893041854258	0	0
0	0	0.320013343665565	-0.768865488447254	0	0	0.0339935254780679	0.0547078567067024
5.9	-0.0364984545586181	0.00164764643318631	0	0	0.806273072568384	-0.498329986277727	0	0
0	0	-0.0559828416003396	-0.0267378873504248	0	0	-0.584194134897483	-0.632759959846868
0.806273072568384	-0.498329986277727	0	0	-0.0722663390005213	0.0434075246015663	0	0
0	0	-0.822616775478622	0.0618493689371786	0	0	0.0372083788512305	0.0713566546394916
6	0.0353155499909888	0.0112757606682603	0	0	0.481287022658609	0.819486541214581	0	0
0	0	-0.0338223314839161	0.00590618704003851	0	0	-0.843282441498076	-0.191929115792992
0.481287022658609	0.819486541214581	0	0	-0.00287888814406498	0.0235493248760954	0	0
