# GHZ S RI R 50
0.2	-0.00570925292306763	0.00990846450840202	0	0	0.957904817671914	0.0582084261991175	0	0
0	0	0.021187793250107	0.00485812459819615	0	0	-0.370452403250242	0.911029065801774
0.957904817671914	0.0582084261991175	0	0	0.0201959527259051	0.0433916145201932	0	0
0	0	0.569620945267999	-0.753948524842448	0	0	0.000628526968111758	-0.0304339432853347
0.3	0.00659448998163587	-0.00954557224027111	0	0	0.0337343011463808	-0.965148604545471	0	0
0	0	-0.00488435351949837	0.00186898242571544	0	0	-0.134021356487413	-0.974178593313898
0.0337343011463808	-0.965148604545471	0	0	-0.0144664622152241	0.00567483648703563	0	0
0	0	-0.921944994837447	-0.202350560715563	0	0	-0.033074261168987	-0.0162411072834344
0.4	-0.00875311027336513	0.00791141604933355	0	0	0.948555770175287	0.0623515368976798	0	0
0	0	-0.0394665502052585	0.000828163503770333	0	0	-0.666853002554167	-0.726021182701533
0.948555770175287	0.0623515368976798	0	0	-0.0342149641022774	-0.0130682375316941	0	0
0	0	-0.234842901951325	-0.895888824911006	0	0	0.0214326117787051	0.0207064143324061
0.5	0.0110749720048469	-0.00499223761040913	0	0	0.128256356814937	-0.948883868249972	0	0
0	0	-0.0334874388002674	0.0045124778213991	0	0	0.963983030995141	0.207700762555551
0.128256356814937	-0.948883868249972	0	0	0.0368571505005259	0.0172214029157473	0	0
0	0	-0.679078824169108	0.636343567852989	0	0	0.00516750076249694	0.00822546712198732
0.6	-0.011460634783955	0.00235280251515166	0	0	0.955166053406695	0.131969360632361	0	0
0	0	-0.00913239753467565	0.00546853109769887	0	0	0.913172406164404	-0.328949340649497
0.955166053406695	0.131969360632361	0	0	0.00511035391623427	-0.0194819050958179	0	0
0	0	-0.861942434056853	-0.345532662660246	0	0	-0.00524459173441419	-0.00695231159998798
0.7	0.0106827710263494	0.000446328071065784	0	0	0.109873344240479	-0.958015338967618	0	0
0	0	0.0218318780418451	-0.0118337795209566	0	0	-0.612105972041578	0.748297148393637
0.109873344240479	-0.958015338967618	0	0	0.00801498487693833	0.00989577661246041	0	0
0	0	0.0451742325254277	0.920916048314798	0	0	0.00226813102586018	-0.0129153256101288
0.8	-0.00928388856377846	-0.00399685949385791	0	0	0.955755538542162	0.11464862607012	0	0
0	0	0.043567527827581	-0.0427306389603884	0	0	-0.121481916348602	0.961616713788428
0.955755538542162	0.11464862607012	0	0	-0.0229094265558002	0.0127807923150202	0	0
0	0	-0.812718567052439	0.448272983787894	0	0	0.00622616895511621	0.083541211155049
0.9	0.00675308910853037	0.0071250358258865	0	0	0.146023166089767	-0.940997879230123	0	0
0	0	0.0128632525099548	-0.0284549957693592	0	0	-0.434413660547923	-0.867582817066035
0.146023166089767	-0.940997879230123	0	0	-0.00242633369683186	-0.0616942470140416	0	0
0	0	0.764729565399957	0.52642497956034	0	0	0.0358637088446833	0.0140889432996909
1	-0.00386389567578935	-0.008867637493659	0	0	0.944281397362742	0.18267664865898	0	0
0	0	-0.0144561835375917	0.0114391945262913	0	0	-0.839553120304146	-0.482756529652659
0.944281397362742	0.18267664865898	0	0	0.00221916048977078	0.0429012335758138	0	0
0	0	-0.127093129932338	0.904137605445289	0	0	0.00271068284160822	0.0026986201769903
1.1	0.000931209133080481	0.00848597612020958	0	0	0.20232806610488	-0.951618721477587	0	0
0	0	-0.0114588931720688	0.035051175704254	0	0	0.958561373010807	-0.0508215801974121
0.20232806610488	-0.951618721477587	0	0	0.00335086852282196	0.00291331586899431	0	0
0	0	0.871045132230775	-0.260578218246941	0	0	0.00842589015986085	0.0442992071824402
1.2	0.00168280146413283	-0.00628165742002271	0	0	0.961641752705591	0.203095861584558	0	0
0	0	0.00894707029451986	0.0649708847275621	0	0	0.773092267725752	-0.556141656145812
0.961641752705591	0.203095861584558	0	0	0.0541959849497418	0.000662746476741524	0	0
0	0	0.615501987432979	0.673219476158102	0	0	0.00715074314174091	0.101622766035116
1.3	-0.00381665981719796	0.00274404874841172	0	0	0.205219933633685	-0.945545304459377	0	0
0	0	0.0163230829569808	0.0196494325524194	0	0	-0.355674409769515	0.885913764109205
0.205219933633685	-0.945545304459377	0	0	-0.0538213514526858	0.0016376865081863	0	0
0	0	0.322637316433045	-0.861866679136049	0	0	0.0409708924577556	0.0159493833151904
1.4	0.0046292398068562	0.00106158283416251	0	0	0.927461631647287	0.233164379808881	0	0
0	0	-0.0134127489457354	-0.0430150628420831	0	0	0.181004350445579	0.939931885948176
0.927461631647287	0.233164379808881	0	0	0.0181183036397673	0.00893603128578569	0	0
0	0	0.901346437425123	-0.0851297971291443	0	0	0.0454115888175364	-0.00529451055607201
1.5	-0.00383722216670889	-0.00420063621930141	0	0	0.270196999368625	-0.925563782564144	0	0
0	0	-0.0387376615655758	-0.0556942789946997	0	0	-0.6775200510508	-0.676316932905863
0.270196999368625	-0.925563782564144	0	0	0.0340312804444809	-0.0324424724565428	0	0
0	0	-0.46381543201739	-0.768925358304152	0	0	0.0343409315777371	0.0534327039198651
1.6	0.00202940308192255	0.00592697434663348	0	0	0.940227846278625	0.293579636827325	0	0
0	0	-0.0370743053588791	-0.019117856417481	0	0	-0.939549473030608	-0.18241602388648
0.940227846278625	0.293579636827325	0	0	-0.0508756681026767	-0.026489172277147	0	0
0	0	0.497241830374556	-0.756769134134898	0	0	0.00208814913911527	0.0535405206130659
1.7	0.000482236535657954	-0.00566075637798355	0	0	0.288136486240625	-0.945467301178577	0	0
0	0	0.0146448588145914	0.00655136502399076	0	0	0.885794806463267	-0.346338318265303
0.288136486240625	-0.945467301178577	0	0	-0.000235550186791044	0.00523702133164503	0	0
0	0	-0.902485825747902	-0.109300229012538	0	0	0.0408950753688434	-0.0304335199921003
1.8	-0.0032729540716207	0.00358418151153564	0	0	0.919221692643436	0.289143788285338	0	0
0	0	0.0446554739239258	0.0379425129986176	0	0	0.572354592451984	-0.748255129274251
0.919221692643436	0.289143788285338	0	0	0.00731257187728708	0.0650568456831509	0	0
0	0	-0.312631801088278	-0.849669763932474	0	0	0.0281766147437472	-0.0341846823219086
1.9	0.00550849167383209	-0.000333863989937199	0	0	0.318253589775305	-0.895405199055925	0	0
0	0	0.0522990988764514	-0.00412766087853901	0	0	-0.0812825737468993	0.94243286750409
0.318253589775305	-0.895405199055925	0	0	0.00997672583906303	0.00862081216444915	0	0
0	0	-0.614072634042145	0.647544523804058	0	0	0.0415402756788503	0.0233127356735087
2	-0.00619418671116449	-0.00360021133257861	0	0	0.891867522858827	0.348608611166633	0	0
0	0	0.0150300370844199	-0.00551012602238138	0	0	0.459032631823824	0.832365888826094
0.891867522858827	0.348608611166633	0	0	-0.0498858729469017	-0.0333110073717011	0	0
0	0	-0.845052641612001	-0.262375605570051	0	0	-0.052843159948466	-0.0211432142507463
2.1	0.00490831267438809	0.00757171081340485	0	0	0.363647141471694	-0.898323753252977	0	0
0	0	-0.0288525381877019	0.00729386507557409	0	0	-0.830708379691524	-0.450937561631163
0.363647141471694	-0.898323753252977	0	0	0.0706982615936556	0.0161313782728856	0	0
0	0	0.136535508825885	0.879057278881706	0	0	-0.00479634771620063	0.0096780854686171
2.2	-0.00129208806221111	-0.0110939747685954	0	0	0.898447827015408	0.375793968245838	0	0
0	0	-0.0475806408488025	0.0167280383048044	0	0	-0.931965192602341	0.0694482494777776
0.898447827015408	0.375793968245838	0	0	0.0148244615415358	-0.0110054758159967	0	0
0	0	-0.736536258379832	0.506663086567857	0	0	0.0428271554980188	-0.0113301978212062
2.3	-0.00403979652560463	0.0132091892741052	0	0	0.385926752540702	-0.88924095195534	0	0
0	0	-0.0298459292032071	0.0189894671347276	0	0	0.736391580027812	-0.555712565262082
0.385926752540702	-0.88924095195534	0	0	0.058218804509246	-0.029089226265254	0	0
0	0	0.776183863924983	0.431909435550657	0	0	0.0671344498839095	0.0463844081557928
2.4	0.0101353733673738	-0.0132421080456378	0	0	0.877564744311142	0.398160749927754	0	0
0	0	-4.92127558365558E-05	0.000884415551251364	0	0	0.324142809960386	-0.867875660238346
0.877564744311142	0.398160749927754	0	0	-0.0966369043735522	0.0133980160906616	0	0
0	0	-0.0390833853887446	0.882474288874356	0	0	0.0475179951826785	-0.049506513370618
2.5	-0.0162941579217325	0.0105852892194146	0	0	0.415354978723612	-0.866247900198938	0	0
0	0	0.0195326498716694	-0.0360157315105258	0	0	0.189389325919314	0.917669621785384
0.415354978723612	-0.866247900198938	0	0	-0.0101142527239702	-0.0276688444873486	0	0
0	0	0.805074028814785	-0.332138060821565	0	0	0.0129154094008015	-0.00129567191082322
2.6	0.0214866459018067	-0.00552329409910073	0	0	0.859486554424238	0.429641591207668	0	0
0	0	0.0180441233353291	-0.0386819772449732	0	0	0.667295319580774	0.653816361611373
0.859486554424238	0.429641591207668	0	0	0.00541214312741433	-0.0341561502227315	0	0
0	0	0.630693580007467	0.597468808283295	0	0	0.0627776186497485	0.00945814615831285
2.7	-0.0249690993445415	-0.00144350481010739	0	0	0.444363525792875	-0.853852950359124	0	0
0	0	0.0210262429257161	-0.0095039542428469	0	0	-0.897990491149599	-0.174328486228485
0.444363525792875	-0.853852950359124	0	0	0.00297945370666557	-0.0136212140695288	0	0
0	0	0.276054970571912	-0.835924638738712	0	0	-0.0273445387394401	-0.00163115696594431
2.8	0.0255402676870228	0.00926739026001802	0	0	0.843728288535702	0.457937897014631	0	0
0	0	0.00923904095074098	0.0124406636937982	0	0	-0.842998046251202	0.312831999994744
0.843728288535702	0.457937897014631	0	0	0.00374276534483791	0.0633245424659721	0	0
0	0	0.872347654665635	-0.150286238624997	0	0	0.0261491618383876	-0.0645830978551464
2.9	-0.0224256428285004	-0.0170771240914908	0	0	0.474033988412814	-0.825037818348733	0	0
0	0	-0.000716763429779793	0.036039534176601	0	0	0.56787615091537	-0.701589415834482
0.474033988412814	-0.825037818348733	0	0	-0.0540485746309358	0.0336543491646533	0	0
0	0	-0.515863476260757	-0.703389636868855	0	0	-0.0403831617785928	-0.0468295357746979
3	0.0164954280965334	0.0241602634181479	0	0	0.816595223012552	0.498266686985064	0	0
0	0	-0.0114651697273508	0.0285589556804495	0	0	0.0915455727825375	-0.921445606144146
0.816595223012552	0.498266686985064	0	0	-0.0073373906896985	-0.0180715803570521	0	0
0	0	0.40692035729564	-0.761770666155194	0	0	0.0135133592061875	0.0856130242412558
3.1	-0.00811208402062323	-0.0286506476475762	0	0	0.518992437864713	-0.806838966109041	0	0
0	0	-0.0204557322226429	0.0112968277266491	0	0	0.449323132840327	0.807487565379275
0.518992437864713	-0.806838966109041	0	0	0.0382959253959309	-0.0648166999393375	0	0
0	0	-0.870544770132122	-0.0496688489264001	0	0	-0.0758492327573948	0.00610792164057278
3.2	-0.0012164035287444	0.0305232777812786	0	0	0.805443525043376	0.54264837368504	0	0
0	0	-0.0177226914736101	-0.00693040670160865	0	0	0.799637067428997	0.437173116026469
0.805443525043376	0.54264837368504	0	0	0.000445613526892041	0.0253475394867918	0	0
0	0	-0.338616369896091	-0.814959925694497	0	0	-0.0595817811393752	0.00693523829894953
3.3	0.0102147810393083	-0.0282839701955177	0	0	0.553864414169483	-0.801539585511949	0	0
0	0	-0.000900933134897807	-0.0245596900752497	0	0	-0.906163194941405	0.0515028260339332
0.553864414169483	-0.801539585511949	0	0	0.0621090108445321	0.0243345881717145	0	0
0	0	-0.57471701236453	0.677218600589971	0	0	-0.0277990833282621	-0.107105683110349
3.4	-0.0177969769270669	0.0222263308435069	0	0	0.784879988408547	0.558215316327648	0	0
0	0	-0.00381509729564855	-0.0408830266068804	0	0	-0.732906193889178	0.544874280650261
0.784879988408547	0.558215316327648	0	0	-0.115184995750816	0.00915682819585664	0	0
0	0	-0.858175307628045	-0.221229307479228	0	0	-0.0197034426087289	-0.0397423254061304
3.5	0.0231540590367361	-0.0144047580042489	0	0	0.572478630182976	-0.775799690349835	0	0
0	0	0.00858160766522905	-0.0303310648625538	0	0	0.295711286700882	-0.870498580577998
0.572478630182976	-0.775799690349835	0	0	-0.0123072461902459	-0.0536892262027886	0	0
0	0	0.169588643868122	0.843712017974195	0	0	0.0849267176767258	-0.073015355932477
3.6	-0.025102968700628	0.00569355907595428	0	0	0.768493746106133	0.581967484490609	0	0
0	0	0.0202022366828625	0.00275178043450188	0	0	-0.212111475801176	-0.894322440298372
0.768493746106133	0.581967484490609	0	0	-0.0340108991766241	0.0605744397648981	0	0
0	0	-0.691833217386063	0.522491093560233	0	0	0.044727256443851	-0.0318699319165559
3.7	0.0230288124244084	0.00363919184487234	0	0	0.600705429222875	-0.748200635979497	0	0
0	0	0.0143855055516266	0.0368112905690139	0	0	0.641251453726924	0.646976098422314
0.600705429222875	-0.748200635979497	0	0	0.118353986873064	0.00671482030000292	0	0
0	0	0.771803205277713	0.40721914626942	0	0	0.055396870897895	-0.0194381242589825
3.8	-0.0178567901651323	-0.0114750966833885	0	0	0.741495230995707	0.619024623087542	0	0
0	0	0.0154439848455554	0.051097256774446	0	0	0.870876854973405	0.183761654660189
0.741495230995707	0.619024623087542	0	0	-0.0252402968753638	0.0209243083030341	0	0
0	0	-0.0132999602037564	0.870619746236638	0	0	-0.0583943685339402	-0.024943507685543
3.9	0.0106254262247004	0.0164749137536203	0	0	0.623598007214502	-0.740290206643379	0	0
0	0	0.0110412088676719	0.0161246359582256	0	0	-0.821921419386262	0.329471477412477
0.623598007214502	-0.740290206643379	0	0	-0.0130484877519529	0.0831988808183633	0	0
0	0	0.780601920435906	-0.387147008151458	0	0	0.0246508924933699	-0.0058351475827599
4	-0.00202883740824896	-0.0181363413788463	0	0	0.722186189646342	0.631765891794138	0	0
0	0	-0.0170804419202977	-0.0119663505504418	0	0	-0.513078005951927	0.724524754519695
0.722186189646342	0.631765891794138	0	0	0.05040233937988	-0.0741599928684577	0	0
0	0	0.684043957707684	0.513129938167008	0	0	-0.00479960336144592	0.0095713178976023
4.1	-0.00585159353799521	0.0161766072618024	0	0	0.637372877686271	-0.708790975941419	0	0
0	0	-0.0420661374109787	-0.0353109013962243	0	0	0.0529086454556807	-0.889768387887507
0.637372877686271	-0.708790975941419	0	0	0.0244312081852	-0.111387516915979	0	0
0	0	0.181596936402146	-0.826633613371608	0	0	0.0264044865248967	0.0814761726017237
4.2	0.0122402697951064	-0.0113932440110656	0	0	0.703314342205063	0.648902929335355	0	0
0	0	-0.0494106802246915	-0.0155252192717227	0	0	-0.433568579254911	-0.777786309915787
0.703314342205063	0.648902929335355	0	0	-0.0398748982239035	0.0165596563849705	0	0
0	0	0.828864837161465	-0.185605876881145	0	0	-0.0119535698209036	-0.0410345146630439
4.3	-0.0159965787487931	0.00443022273105991	0	0	0.658048009249741	-0.696254779344381	0	0
0	0	-0.00773437218514459	0.00649733763483753	0	0	0.776587067294108	0.421755032405127
0.658048009249741	-0.696254779344381	0	0	-0.0108057178564648	0.0670505606321353	0	0
0	0	-0.533763903705064	-0.670942469311129	0	0	-0.0143624656624418	0.0024625404217627
4.4	0.0161029188659498	0.00365767288453836	0	0	0.679204286486429	0.668057719894897	0	0
0	0	0.0379820136186329	0.00408231248963771	0	0	0.885649926138221	-0.054151592095442
0.679204286486429	0.668057719894897	0	0	0.0013001130319071	-0.0499854451145451	0	0
0	0	0.344425149430648	-0.770295018924557	0	0	-0.0333827955548474	0.00330525682878982
4.5	-0.0124445871060809	-0.0109669297743382	0	0	0.675139703172906	-0.660969689561683	0	0
0	0	0.0648703535089902	-0.00468222888726398	0	0	-0.720394542736814	0.521871579596919
0.675139703172906	-0.660969689561683	0	0	-0.049677659451566	0.0262447269278565	0	0
0	0	-0.833072299456847	0.011346526681793	0	0	-0.0855932963529486	0.0616121662596218
4.6	0.00577827509404829	0.0165962326343963	0	0	0.643136270320958	0.690364340109338	0	0
0	0	0.0470770916872094	-0.0249276703946872	0	0	-0.312765765334157	0.842421176192465
0.643136270320958	0.690364340109338	0	0	-0.00406218618878917	0.0135952293070672	0	0
0	0	-0.370631398778032	-0.743279335219815	0	0	-0.0798514907019203	-0.00988531622378659
4.7	0.00242649314635953	-0.0193420317908016	0	0	0.708205703800686	-0.636508574566317	0	0
0	0	-0.0240465590654225	-0.00509429271696495	0	0	-0.190064792551524	-0.872716329224742
0.708205703800686	-0.636508574566317	0	0	0.0651713701196167	-0.0177812103251872	0	0
0	0	-0.524031335569239	0.654249179462666	0	0	-0.0731595939589998	0.0716522364976823
4.8	-0.0110064066971409	0.0185813667989098	0	0	0.636938846410476	0.724581703900245	0	0
0	0	-0.0582992788960236	0.0347602088758453	0	0	-0.606061696308716	-0.634796956487893
0.636938846410476	0.724581703900245	0	0	0.0525657553259585	-0.0184875849323618	0	0
0	0	-0.82678376676603	-0.197644350441594	0	0	-0.00942407046775616	0.0713554499943576
4.9	0.018505686716532	-0.0134113292315692	0	0	0.730674994444821	-0.629269360262774	0	0
0	0	-0.0397633290802292	0.0591437956679804	0	0	0.85388601136201	0.207379429957772
0.730674994444821	-0.629269360262774	0	0	-0.0811360070718542	-0.0290865653319738	0	0
0	0	0.198565578147458	0.821029199636229	0	0	-0.0837636193300069	0.00340622367069356
5	-0.0232311795793683	0.00526249771713125	0	0	0.618553801810284	0.726241494273359	0	0
0	0	-0.000778613023464615	0.0208092516204348	0	0	0.831102584883395	-0.298082037018348
0.618553801810284	0.726241494273359	0	0	-0.0480560547135354	0.0407090834134172	0	0
0	0	-0.645315824930182	0.533690992306936	0	0	0.0411083148295954	-0.00938155031218513
5.1	0.0247865624242453	0.00455043205400705	0	0	0.727512147731839	-0.606372630159607	0	0
0	0	0.0376346692551683	-0.0332160784987108	0	0	-0.533455469885341	0.695669204691426
0.727512147731839	-0.606372630159607	0	0	-0.0221620755271058	-0.0412703067841072	0	0
0	0	0.750094444857977	0.344969889724687	0	0	0.0721067098712128	-0.0198927088553297
5.2	-0.0223322991249527	-0.0155140110560554	0	0	0.584218702008906	0.745179423384725	0	0
0	0	0.0150717777928275	-0.0743159190468747	0	0	-0.0786890569628501	0.8720282117248
0.584218702008906	0.745179423384725	0	0	0.0378714051582933	0.0226535457509994	0	0
0	0	0.0152623139716627	0.832625175548685	0	0	0.0262529729884104	0.0664127066208906
5.3	0.0158796817798936	0.0251261349594616	0	0	0.763536800604633	-0.572331065374326	0	0
0	0	-0.015102517483114	-0.0416024204919651	0	0	-0.412464102553224	-0.771051956792215
0.763536800604633	-0.572331065374326	0	0	-0.0322917891572309	0.0250971568584964	0	0
0	0	0.743051310029184	-0.374495324481405	0	0	-0.0438572461502985	0.0120660492067806
5.4	-0.00665212949589507	-0.031341408520655	0	0	0.564208515312168	0.768599477875808	0	0
0	0	-0.0318951047778416	0.0141219011794412	0	0	-0.767443023235885	-0.428079766386403
0.564208515312168	0.768599477875808	0	0	0.0704489620259839	0.0878292843761138	0	0
0	0	0.657591195772895	0.509729306388433	0	0	-0.00974684341754313	0.0220450632654094
5.5	-0.0040948456705079	0.0339388346390378	0	0	0.779241727115226	-0.561647570405816	0	0
0	0	0.0231182698551857	0.0594631301444063	0	0	0.877213642384083	-0.0446969242201354
0.779241727115226	-0.561647570405816	0	0	-0.00656869737408293	-0.0274243831370184	0	0
0	0	0.157450347469141	-0.816688794650906	0	0	0.0214262145825351	0.0386507582092452
5.6	0.0154790656335739	-0.031377782692475	0	0	0.547643992638211	0.784736632799702	0	0
0	0	0.0427077258150142	0.0561262829581014	0	0	0.697868830961199	-0.50831679545346
0.547643992638211	0.784736632799702	0	0	0.00179022541472008	-0.109228825307901	0	0
0	0	0.799514490170455	-0.202129964681971	0	0	0.0109164445634065	0.11756023696981
5.7	-0.0261702155443977	0.0245967497926521	0	0	0.797671967454841	-0.539065505305796	0	0
0	0	0.0213465027455471	-0.00736754116815195	0	0	-0.317744739791845	0.807087144341828
0.797671967454841	-0.539065505305796	0	0	-0.0119672384715643	0.0516598851564282	0	0
0	0	-0.53585744536644	-0.648611050006056	0	0	0.0583760159087793	0.0346015560055103
5.8	0.0332034296161765	-0.0139531793323153	0	0	0.521567239458328	0.797589449150994	0	0
0	0	-0.0212209376180657	-0.0315373986343479	0	0	0.155305198545629	0.85319772033963
0.521567239458328	0.797589449150994	0	0	0.0587648685600291	-0.0270390356244533	0	0
0	0	0.32394327105457	-0.770518870249904	0	0	0.0335793997542017	0.0556412057852916
5.9	-0.0365310677003066	0.000983254174117914	0	0	0.811296031885883	-0.49802782062453	0	0
0	0	-0.0554447795959603	-0.0267275537206494	0	0	-0.584878602168721	-0.637423498832108
0.811296031885883	-0.49802782062453	0	0	-0.0733181729694623	0.0438600696345696	0	0
0	0	-0.82652433197472	0.059587404668874	0	0	0.036869985889375	0.0726959693558009
6	0.0352612486496772	0.0116785069869516	0	0	0.481872653162051	0.824766576559994	0	0
0	0	-0.0335751046681319	0.00610510572903009	0	0	-0.847183294921654	-0.194928093671982
