# GHZ S RI R 50
0.2	0.00050511060612982	0.0035987874931641	6.3068247893888E-06	-1.00664670918609E-06	1.06687257218515E-05	1.04993913263274E-05	0.999701143730735	-0.0069202563333074
0.3	0.00116378641903817	0.00327267661576433	5.81771819997136E-06	5.03890132420164E-06	8.09798974378546E-06	2.95488967053001E-06	0.999536906670747	-0.00984639253724806
0.4	0.00166091763682575	0.00314559079356292	-2.70988937574994E-06	7.87228298808352E-06	-4.81126310058657E-07	-4.43231787590616E-06	0.999600887289491	-0.0125155844277088
0.5	0.00200323650038692	0.00305617180516935	2.30880890137609E-06	1.47941910249281E-06	7.51346634726506E-06	-1.0534842971264E-06	0.99930983129593	-0.0157005590303625
0.6	0.00231119490101583	0.00310412709824851	3.22213542515001E-07	3.54085847714628E-06	2.73619764617629E-07	-7.66327388102224E-06	0.999391203942993	-0.0185024751121527
0.7	0.00255726161591447	0.00315674172162244	4.16818866855861E-06	5.04394870876067E-07	-3.896841944253E-06	-3.5560645811456E-09	0.999119131410147	-0.0214694335343564
0.8	0.00286198587806328	0.00322653548575968	-2.88910133945812E-06	2.96581905991409E-06	-6.82483706691214E-06	1.32098426637359E-06	0.998924786334967	-0.0236743894057439
0.9	0.00310991687869995	0.00327112211884722	6.03989090474976E-06	8.98822195525211E-07	-7.345490663288E-06	-1.83246199686307E-06	0.998803578880241	-0.0260921656321481
1	0.00333345829802652	0.00320708065946492	2.36157225194539E-06	2.94508650957918E-06	-9.04730549967917E-06	-2.58953120856262E-07	0.998501855137979	-0.0278054916442478
1.1	0.00335257903357593	0.00316603673394003	6.44135853667061E-07	3.56175905334505E-08	-5.30274815016979E-06	1.40335831158494E-06	0.99808102002211	-0.0297261100012804
1.2	0.00334333367758406	0.00286447783801113	-5.29538023630552E-06	-3.29072484495397E-06	-1.11873431661285E-05	-1.26612474961406E-05	0.997529585981906	-0.0306405388988272
1.3	0.00301578200983296	0.00220002410548654	3.05082365603793E-06	3.10445623631811E-06	6.96000983308767E-06	-4.08585131027436E-06	0.997704169717804	-0.0315177132144741
1.4	0.00257319258995243	0.00146021288704876	-2.79999932026267E-06	-1.1138643973773E-06	5.71467562107255E-06	6.22911160542355E-08	0.997558292125469	-0.0335848323981264
1.5	0.00234517840645731	0.00113694922647076	1.24093781515173E-06	-2.53477247385476E-06	8.02313584737986E-07	2.51317670731939E-06	0.998130246582279	-0.0370411855496124
1.6	0.00243499479334503	0.0012671223719495	-9.34559208745977E-07	-6.41930611201406E-06	3.18684349967628E-06	-4.24663511449129E-06	0.997733615173531	-0.0404948181489478
1.7	0.00273284323058422	0.00139920838437988	3.40777056424006E-06	6.32944791922653E-07	2.23709099697694E-06	3.85442125834228E-06	0.998021249234376	-0.043070070188613
1.8	0.00299296245950001	0.00157926705756798	-2.37835836041508E-06	2.90016678899831E-06	-1.01587580977067E-06	-3.99988886199303E-06	0.997915157545952	-0.0458376298376525
1.9	0.00325657835467695	0.00159001661056919	-3.73517132294102E-06	-1.76035723841894E-06	5.63401100886184E-06	3.02801824946158E-06	0.997880102707961	-0.0481803864292958
2	0.00338088556570871	0.00155895116378596	-6.18307271687277E-06	-5.75258877094542E-06	-2.07724869936051E-06	9.16155573591567E-06	0.997260105193411	-0.0511395748441017
2.1	0.00345454672464563	0.00157600108222991	1.1742393142517E-06	4.60815387644353E-06	4.48655299818229E-06	3.99193740453291E-06	0.99680394849687	-0.0532137536378601
2.2	0.00350614994619837	0.00156651022851487	6.56945231501401E-07	9.07212437437349E-07	-3.63449830021861E-06	-1.09444145808263E-05	0.996892320694689	-0.0555163859940741
2.3	0.00347599803969712	0.00148616579713224	-2.28561473191896E-06	3.56336225398632E-06	-5.36423936371924E-07	-2.79791075878049E-06	0.996601474124753	-0.0573717434123383
2.4	0.00335859209960783	0.00142947386789051	-1.55840470614349E-06	-1.45611426903061E-06	1.28471122069369E-06	-9.99978260980709E-07	0.99655921508561	-0.0604734966287576
2.5	0.00309410817799494	0.00135695446965385	7.79518671925691E-06	4.05966288405257E-06	-2.35193582977168E-06	-7.23262150880178E-06	0.996166854073453	-0.0627398040696561
2.6	0.00284107714454425	0.00158173589990924	4.88166179663803E-07	2.1188765875505E-06	-1.46622313144879E-06	4.69050585551038E-06	0.99610581771596	-0.0655371284254193
2.7	0.00285328335266409	0.00185284519309949	-7.87019901546279E-06	5.25000595956055E-06	2.54132970392334E-06	9.72772890607113E-06	0.995830057872057	-0.0685445099060731
2.8	0.00307782466017489	0.00212325188344516	-7.74521634894645E-06	7.96777003070704E-06	6.03476781698186E-06	1.99306490159153E-05	0.995933913755441	-0.0705645513262256
2.9	0.00349462138793486	0.00220182853326458	-1.19024082532328E-06	8.61666746950626E-07	-8.12871182467823E-06	-2.95826362293304E-06	0.995694519569479	-0.0726268777093772
3	0.003878198093975	0.00215189472791426	-6.144491135724E-07	-4.47592783213138E-06	-2.18115441909239E-06	6.44668849238883E-06	0.995582347626347	-0.0751677617425735
3.1	0.00429503886197024	0.00207211307845339	-2.59071282611252E-06	9.165131194345E-08	1.10227586173786E-05	-3.54034931342651E-06	0.995178576316385	-0.07717019180112
3.2	0.00462900961411473	0.00185006100090371	-9.80390986065541E-06	2.55922516660671E-06	1.21758806100991E-05	4.25433662875773E-06	0.994969302928218	-0.0789178653886386
3.3	0.00483703839427373	0.00149171787913504	-3.46940853792915E-06	9.37606774712981E-07	-5.01361298233165E-06	-1.38276608910235E-07	0.994780591405667	-0.0821453786516907
3.4	0.00488170859331258	0.00114166917768228	5.35061649227378E-06	4.81881535059232E-07	1.35006478557305E-06	4.45737084766995E-07	0.994782946777228	-0.0841130054132542
3.5	0.00472459635429169	0.00075515053657008	2.77235809739454E-06	1.55626458427355E-06	1.31428939316011E-06	7.91537784652767E-07	0.994704134183089	-0.087071705157491
3.6	0.00448585436016554	0.000674948515161885	-7.15218430661579E-06	-1.23843059228897E-07	1.86121408528158E-06	-3.50169822656329E-06	0.99424692940782	-0.0896575209737815
3.7	0.00433658041635196	0.000619544168082903	5.77742708460438E-06	-1.52076362495722E-06	-3.27532353671914E-07	-1.73287610693837E-06	0.994017265742847	-0.0922916083747769
3.8	0.00427358653829508	0.000639300403622238	-2.00190194235421E-06	8.7987890976495E-07	-5.19524056837866E-06	3.05676426851605E-07	0.99369207560682	-0.0942989941286141
3.9	0.00433798069135615	0.000645510513420928	-8.36756040404847E-06	1.79317979342331E-06	-4.12176776910398E-06	-1.49454660549846E-06	0.993735256745951	-0.0975083332945734
4	0.00436924567403492	0.000546582342724753	-5.82711212548132E-06	3.77357854179603E-07	-9.51590538617856E-06	-8.4386372397881E-06	0.993137494355779	-0.0991890821216069
4.1	0.00446505430850733	0.000582496664477931	-3.9816958808584E-06	4.07202009089775E-06	-1.87279035912768E-06	5.58483521852608E-06	0.992794880628232	-0.100696447536025
4.2	0.00464442866357105	0.000440134097289585	4.61499520522883E-06	-4.39208540002382E-06	6.75599722008783E-06	7.45602207652814E-07	0.992424653869795	-0.103242176149763
4.3	0.0047452803953933	0.000228905430903476	-3.79494961018294E-06	1.13241913631074E-06	3.54776106187131E-06	-1.21132966072685E-06	0.992359441648693	-0.105301229149531
4.4	0.00473293871373013	-4.29416775765391E-05	-3.1554562387008E-06	-4.93067613906299E-06	9.28555993313515E-07	-1.03756498373494E-06	0.991912676217515	-0.107646393473127
4.5	0.00447124497297474	-0.000323872393309686	-1.38871211140065E-06	2.031339252477E-06	2.13350980233037E-06	-8.47413791667884E-06	0.991761490437227	-0.109722045142581
4.6	0.00412759200365497	-0.000322754853070075	5.40300750531972E-06	9.59053781801595E-06	-1.41924893688154E-05	9.82513804689333E-06	0.991648432296096	-0.112475716636281
4.7	0.00394710644598838	-0.000290932568191016	-7.59919511792771E-06	-9.55713297823832E-06	-1.14528199961312E-06	-1.34096752984799E-07	0.991582643266301	-0.114593655442709
4.8	0.00381162093470414	-0.000201298337667907	-8.74542539703774E-06	-2.68235588446716E-06	-4.37671944716233E-06	4.54620157729435E-06	0.991129600933331	-0.117161199906883
4.9	0.00386290491030928	-0.000148439798024187	5.776855619992E-06	8.31253335105806E-06	-7.25374763870428E-06	3.28376153169916E-06	0.990723701922253	-0.118970838002921
5	0.00392122346702117	-0.000284909349538267	4.27722916872753E-06	-8.54509065306823E-06	-4.29482486473874E-06	-6.17948385515432E-06	0.990633224615445	-0.120579628408613
5.1	0.00414296896833065	-0.000283597624168462	1.52220044241839E-05	-1.02544771953014E-05	3.4873618107454E-06	-8.7292203725481E-06	0.990659792070076	-0.121967907620171
5.2	0.0044516135509784	-0.000555348346378903	-4.23568765778345E-06	-4.7163607029943E-06	-3.16465976051737E-06	5.25097154645873E-07	0.990429000985794	-0.124238985725294
5.3	0.00463908258714552	-0.000940193114216828	4.7784411142561E-06	3.37392323680683E-06	-9.29821862107785E-06	-4.74512654578112E-06	0.990225033407524	-0.126534673722241
5.4	0.004670638757756	-0.0013940889063852	5.18011976552193E-06	1.2005097005008E-06	-4.75748427802532E-07	1.04561564174428E-05	0.99032870093471	-0.129319834627714
5.5	0.00427485238375412	-0.00179251810857406	-1.81258977479173E-06	-1.9816751120168E-06	8.88437820773385E-06	5.10135892386628E-07	0.990207236418578	-0.132407951357136
5.6	0.00393262421986256	-0.00174933662166249	4.24665544172807E-06	7.22950500787154E-06	-4.65816746205799E-07	-8.61397299455161E-06	0.989729235388099	-0.135006719255358
5.7	0.00363578279481481	-0.0017405901214168	2.05561079759778E-06	-7.22164270142422E-07	5.4721122068891E-06	2.45413818700026E-06	0.989468734050995	-0.137471859743715
5.8	0.00330568939014954	-0.0016551874593392	3.91303644079838E-06	1.96055276245166E-06	2.73370560964197E-06	7.83472653397652E-06	0.989402700604108	-0.139705120100873
5.9	0.00303660089081903	-0.00148348530809815	-3.78448650546875E-06	-3.0567985966082E-06	-4.70069029993616E-06	-1.77886274518057E-06	0.989220033350298	-0.142194942815552
6	0.00258506674809516	-0.00150025036560998	-2.07578637421978E-06	1.70459001562036E-06	1.04285872107043E-05	-2.66379161881635E-06	0.988318871842387	-0.144302795721752
6.1	0.00211429735012765	-0.00111337479686771	-7.32561349170607E-06	-1.10438106687679E-06	-7.2500508959985E-07	-2.48299026544194E-06	0.987992728657621	-0.145071964703835
6.2	0.00190404557184499	-0.000891636643678648	-1.06148590535028E-06	1.98863091590271E-06	-3.48242648453287E-06	-5.36160121326605E-06	0.987822961746762	-0.146374893454716
6.3	0.00178808155140107	-0.000845016178629071	1.57743492075055E-06	2.82958310550838E-06	1.14747212458715E-06	5.97065801905609E-06	0.987514871569912	-0.148408664607799
6.4	0.00163465464639572	-0.00102872264450966	2.06940408280188E-06	5.03364788725677E-06	-3.33071870318212E-07	2.27241551927276E-07	0.986971545823283	-0.15069747812164
6.5	0.0012008272904987	-0.00120233088106951	4.6652822362221E-06	-1.87573408730829E-06	-4.68609741034685E-06	-1.54873786662985E-06	0.98638815253923	-0.153038097673461
6.6	0.000992727567195327	-0.000962179921554761	3.26269749989711E-07	-1.06848072464241E-06	9.292123318817E-06	3.34117850581444E-06	0.986600051719044	-0.155409093961062
6.7	0.000892782427723941	-0.000815729472406461	5.2620887241003E-07	5.61144590640533E-06	-1.79208367121264E-06	4.97175991477153E-06	0.986512351901545	-0.157977641004719
6.8	0.000759529441632427	-0.000594613253677592	1.76668075721611E-07	-1.58618153456207E-06	-3.47359119312005E-06	-5.12105825035797E-06	0.986095473942947	-0.160385087777489
6.9	0.000665052475118607	-0.000400532069600349	-6.64725955823347E-06	6.71377611748291E-06	2.28640795531819E-06	1.35518120652358E-06	0.985804657498347	-0.162641520505164
7	0.000279214248740163	-0.000226709676694772	8.07653064223476E-06	3.16950665118057E-06	4.56368289738708E-06	5.86523033348033E-06	0.984951116740643	-0.164637926238552
7.1	1.63160564558801E-05	0.000456043585010908	1.39512839231061E-06	7.84528928862068E-07	-2.26906520994938E-06	-4.47716959250249E-06	0.984353476774522	-0.166018040095273
7.2	-6.06128088741547E-06	0.000953578059254427	-1.39742520886654E-07	4.3963984006472E-06	-5.00924576220275E-06	-6.62637992520029E-07	0.983795122900372	-0.167646676168601
7.3	-0.000117534680048518	0.00141487884216002	1.35673868776736E-06	-5.2606042153636E-06	-2.34453309039974E-06	-2.79076508904847E-06	0.982911101791858	-0.169249831230171
7.4	-0.000244284670933484	0.00181323348749912	1.83153480734452E-06	4.42228639131191E-06	-7.2659078678168E-07	-1.06981927898456E-06	0.982368937601971	-0.171349467774714
7.5	-0.000634512923706681	0.00201220312745531	-5.7413433620447E-06	-1.4949811252718E-06	-1.57307252907142E-06	-8.90291668321928E-06	0.981857690947023	-0.17445420111842
7.6	-0.000992680629995928	0.00272382189142856	5.62485389579746E-06	-3.38463319203136E-06	1.02145843309886E-06	3.19050039497464E-06	0.980675678735436	-0.177413797714084
7.7	-0.00104144271528722	0.00327824505958572	-6.50238311845513E-06	-2.86395666019602E-06	4.37503564644814E-06	5.67138037845202E-06	0.980268187383518	-0.180383580423257
7.8	-0.000790908317096367	0.00360256638961339	-1.0824556354325E-06	-5.35657303025333E-06	-2.13526220836078E-07	1.1435075014228E-06	0.980181916415958	-0.183546363202076
7.9	-0.000375023140269011	0.00367187589873569	-3.34793126049409E-06	7.21162787707015E-06	4.71414739146171E-07	-6.88173851666838E-06	0.980234363619897	-0.187059260464122
8	-0.000240343278318214	0.00367940663381813	-2.30282045987122E-07	7.38412655040862E-06	1.77005081824023E-06	-4.45774210665113E-06	0.979076225564386	-0.190525331451338
8.1	0.000210450985713232	0.00405815114837521	-7.3810590968845E-07	-6.46565658095569E-06	-1.74795192366779E-06	-1.06326344228553E-06	0.978343903826932	-0.192450671206446
8.2	0.000691484774623133	0.00415802034456129	-3.82736363554479E-06	1.65153873636395E-06	-1.0969545827701E-05	-2.6168419429275E-06	0.978310884343669	-0.194712745267852
8.3	0.00106396486808313	0.00424803755863375	-5.54713173200929E-06	-9.86114471547169E-06	-7.78781288362356E-06	3.01965182742177E-06	0.977823912664464	-0.197423446304554
8.4	0.001413941108664	0.00435574424573051	6.77056793494825E-07	-6.10044083244232E-07	-1.41614320198697E-06	4.40470465578697E-07	0.977103706451961	-0.200117749274801
8.5	0.00139791830647794	0.00438610879638892	-1.75230425429835E-06	-2.5786013247176E-07	-8.67547489043286E-09	1.80358299563118E-06	0.976278076601669	-0.202759151064898
8.6	0.0015518193700963	0.00504444707038119	2.42928544869914E-06	-3.97266696392774E-06	-4.56331999772495E-06	-5.9255629846709E-06	0.975955756801077	-0.205240256546893
8.7	0.0020762932684133	0.00549605259717749	-1.49878444422224E-06	-2.09518444563729E-06	-3.5595363927446E-06	3.63818667724169E-06	0.975626797331093	-0.207863874767359
8.8	0.00271097216228874	0.00585366418012924	-5.49829668611181E-06	-2.12180697781074E-06	-7.23516640133922E-06	-1.27025393486039E-06	0.975239371772522	-0.210197816237281
8.9	0.00357174457739875	0.00593611232348673	8.55703907892502E-06	4.09797154639945E-06	-1.41802158450342E-06	3.2001477589911E-06	0.975246142271531	-0.212231866933585
9	0.00422560079279254	0.00562176294671539	-5.01455532094642E-07	4.16267615140501E-06	-7.82172735416943E-06	1.22768307201073E-06	0.97515064469611	-0.214602789607299
9.1	0.00495669022231662	0.0054889639790353	-2.55746156904991E-06	6.63860106525399E-06	4.10670791327455E-06	-3.08308588615936E-06	0.974846062532475	-0.216831505774809
9.2	0.00574008362795033	0.00499372718687854	-1.17670131264523E-06	3.42565175333284E-06	-2.24671580257692E-06	-2.05832949144074E-06	0.974398208036751	-0.219395879801299
9.3	0.00631827900326298	0.00438240225280567	2.32581370894028E-06	-4.04192563689236E-06	-7.93278338187446E-07	-1.78129458007179E-06	0.973984864565497	-0.221894363634812
9.4	0.00675685155931245	0.00364214125250457	-1.80080566037586E-06	3.89696444859527E-06	-2.06807453944692E-06	-3.58131930812204E-06	0.973554725338599	-0.224754759053007
9.5	0.00663346452934036	0.00311752061770631	3.49748897117864E-06	6.2994803726259E-06	3.66934165456538E-07	-2.15143443270726E-06	0.972881746230813	-0.227999503629308
9.6	0.00671700556676802	0.00308924178471033	4.62503336635229E-06	7.07946870856716E-06	-8.2306227643407E-06	1.28105101567917E-05	0.971849674223524	-0.231047929984774
9.7	0.00693772556836918	0.0029287283370299	-2.88326188775053E-06	-1.53389625633502E-06	-1.3876644844473E-06	-3.97220170590888E-06	0.971217411352244	-0.23350104921731
9.8	0.00713935985429186	0.00278000455123783	1.29892370661594E-07	-3.59815650237237E-06	3.04730767643189E-06	2.40138012805574E-06	0.971066550532543	-0.23563346190596
9.9	0.00741361231430516	0.00264302346308871	5.80425938478647E-06	-6.16342296245774E-07	-2.56856489386398E-06	6.7336809598898E-06	0.970776994695482	-0.237944983999081
10	0.00736591997335698	0.00234027971367956	-1.14216730488843E-06	-5.78193504853279E-07	1.36366442221142E-06	-1.18773130117486E-06	0.969379067386286	-0.23998866538837
10.1	0.00754928677794666	0.00258502916204909	7.12283084286675E-07	-8.41907845401864E-06	6.15636040672214E-06	3.60671113717308E-06	0.968765794640937	-0.240721994335483
10.2	0.00809375840775125	0.00255480971309598	7.49672255116644E-06	8.32085957433671E-06	5.22603620652699E-06	3.53101116061196E-06	0.96866289856132	-0.242028182272434
10.3	0.00868403362471821	0.00231519659221474	1.75591849676464E-06	-6.95696301833054E-06	1.42633570075412E-06	2.86775243651311E-06	0.968152872525181	-0.243921094570586
10.4	0.00934733023586658	0.00179720680466192	-4.02537205390922E-06	-3.63763351379379E-06	1.95279754059436E-06	-5.59418437280352E-06	0.967258300875209	-0.246145446669355
10.5	0.00957406842659184	0.00111365252619465	3.78649472204077E-07	-7.06207675879562E-06	-5.72910602748224E-06	4.06643094581899E-06	0.96625525051838	-0.248278110209406
10.6	0.0100061183285557	0.000815666832816165	5.48528246891379E-06	6.73892408623687E-06	2.43322146923515E-06	1.19545786052071E-06	0.965913916716325	-0.250646693024631
10.7	0.0105318444136014	0.000281014226428998	-7.07713359760424E-06	-1.6925993510861E-06	-7.73805737355365E-07	1.55945129904332E-06	0.965324678260158	-0.2535411204558
10.8	0.010977092882551	-0.000386710633884613	1.48611894735348E-06	4.44284782416327E-06	9.41452259695271E-06	-4.46800930700443E-06	0.964499260902276	-0.255786419079325
10.9	0.0114672545827687	-0.00121134969656316	3.24271200082244E-07	7.42015434467384E-06	-5.16273825331857E-06	2.07104415219428E-07	0.964290936499617	-0.257697188635971
11	0.0115247136244415	-0.00218625333586771	-2.22468248042255E-06	-3.82692234335861E-06	1.20453269119762E-05	-3.55291670151927E-06	0.963639456369394	-0.259504467858963
11.1	0.0117688519949882	-0.00271994079067129	-6.12000153807187E-06	-4.9373225880056E-06	9.50065619890309E-07	5.58097180845337E-06	0.962940154579536	-0.261015808494041
11.2	0.0121786457485658	-0.00367001365555112	3.31655590151701E-06	4.30755409293034E-06	1.06446739884768E-06	-7.88246264692303E-06	0.962225530737204	-0.262693385016974
11.3	0.0125156957464497	-0.00488270542066447	7.13564778317149E-07	-2.65936625971472E-06	-4.84487363062215E-06	9.12029570146843E-06	0.96177858000371	-0.264420024971167
11.4	0.0125740132506841	-0.00633468579814836	1.4792186211856E-06	-2.20381343844164E-06	-3.00963155950942E-06	-7.44530139815609E-06	0.961230343701055	-0.266924729504307
11.5	0.0119434586421486	-0.00792775094391552	9.49294914660722E-07	-1.01120640894592E-06	-9.03116418983763E-07	-8.7269374262286E-07	0.960233687580329	-0.270417406078868
11.6	0.0113756772768566	-0.00900555998329847	1.12381834947854E-05	-3.28239699291172E-06	-5.43067776503494E-06	-6.83845880327224E-06	0.958534909445924	-0.273819308270277
11.7	0.0108245152144877	-0.0102994496467551	5.33177128425013E-06	-2.90183384780773E-06	-4.4144777972589E-06	1.65508924092521E-06	0.957398414042019	-0.277109567696902
11.8	0.0101038324331238	-0.0115329676546889	-4.52154937106232E-07	-2.55040033223732E-06	1.06826292760873E-06	1.32767611417673E-05	0.956597376013958	-0.280669524273482
11.9	0.00935731905862286	-0.0128065268989703	3.3296142206522E-06	1.99049227417376E-06	-9.38120809408706E-09	1.27505579415996E-05	0.956238960496832	-0.283661538377891
12	0.00789142184948844	-0.0140508077452681	2.00499609652267E-06	4.82559255894152E-07	-3.70139456741791E-06	-9.67616017267794E-07	0.954367951805782	-0.286534121078483
