# GHZ S RI R 50
0.2	0.000518431960479647	0.00360885471392512	6.30665649227128E-06	-1.00669824475511E-06	1.06685889412641E-05	1.04990021406505E-05	0.999590708958576	-0.00700762973018417
0.3	0.00116876252551737	0.00328980816382108	5.81759791980473E-06	5.03869249295186E-06	8.0977806001248E-06	2.95471904114614E-06	0.999412225055368	-0.00991813908427856
0.4	0.00164988651018948	0.00317635356460488	-2.70982727497251E-06	7.87211389150298E-06	-4.81117861599007E-07	-4.432221782597E-06	0.999492630939645	-0.0125382382082229
0.5	0.00198853254855784	0.003116650306945	2.30884058060441E-06	1.47937361061159E-06	7.51345090076683E-06	-1.05363689678247E-06	0.999355549521649	-0.0157104969873075
0.6	0.00229156982149397	0.00318241885984373	3.22317275653729E-07	3.54079379544195E-06	2.73380237039516E-07	-7.66316370685083E-06	0.999505849486473	-0.0186879633208477
0.7	0.00254468918015361	0.00326840206911349	4.16814851325919E-06	5.04252730275936E-07	-3.89678921158489E-06	-3.42952420543237E-09	0.999184976052459	-0.0217799681592323
0.8	0.0028746183582906	0.00335716582202853	-2.88892861791261E-06	2.96590321515592E-06	-6.82467956113006E-06	1.32126577848639E-06	0.99890041698774	-0.02407439413954
0.9	0.0031447810099348	0.00339466650819014	6.03978834048685E-06	8.98429519413054E-07	-7.34541112693267E-06	-1.83196515762698E-06	0.998603146545737	-0.0265209600584497
1	0.00337581262282639	0.0033285700592371	2.36167785726592E-06	2.94470910537718E-06	-9.04678002640927E-06	-2.58174156742028E-07	0.998149381315134	-0.0280150438942676
1.1	0.00339992843344325	0.00324235327193528	6.44055499739257E-07	3.5573120780145E-08	-5.30198154526513E-06	1.40350694782594E-06	0.997852987571422	-0.0297759382866885
1.2	0.00333534578824548	0.00291872162078463	-5.29458981860266E-06	-3.29014615745161E-06	-1.11857413325903E-05	-1.26591304703696E-05	0.997391141689675	-0.0306349683895649
1.3	0.00294371599235604	0.00228421300718013	3.05022223023045E-06	3.10408321187344E-06	6.95906755485886E-06	-4.08493800145952E-06	0.997684976963147	-0.0314888332093217
1.4	0.00247194988805395	0.00162764556054567	-2.79954339240803E-06	-1.11394033561517E-06	5.71392051929566E-06	6.27363458527445E-08	0.997639915957693	-0.033590329916974
1.5	0.00229304903249097	0.00139375500784745	1.24116145657084E-06	-2.53434183771364E-06	8.01884104649901E-07	2.51303078649547E-06	0.998416475413512	-0.0370494292263544
1.6	0.00243253818939322	0.00154636402302612	-9.33391492036679E-07	-6.41940061368321E-06	3.18757216729792E-06	-4.24601183850387E-06	0.998138326876892	-0.0407641469472247
1.7	0.00278140600025965	0.00168436776855865	3.40784448568859E-06	6.33500572142155E-07	2.23661076109341E-06	3.85495891723027E-06	0.998335588184072	-0.0434787496884647
1.8	0.00307097330637117	0.00183673690711336	-2.37886259023685E-06	2.90007066153336E-06	-1.01546147694235E-06	-4.00027269082818E-06	0.998123461609224	-0.0462770377994505
1.9	0.00332020199402414	0.0018180618538872	-3.73511351121592E-06	-1.76086080481114E-06	5.63388046254971E-06	3.02879247146252E-06	0.997967811461471	-0.0485260471892786
2	0.00343439405598041	0.00180291060419729	-6.18257908582478E-06	-5.75430814415476E-06	-2.07917821106023E-06	9.16204185236253E-06	0.997532711386569	-0.051229608301898
2.1	0.00349030409494235	0.00181389830444648	1.17397231564956E-06	4.6089906115373E-06	4.48686514637661E-06	3.99300174271705E-06	0.997315360211043	-0.0535325244653905
2.2	0.00354443944396152	0.00184036073493337	6.56964719670944E-07	9.07386919452528E-07	-3.63414825999003E-06	-1.09461879433245E-05	0.997365618556908	-0.0559993783878596
2.3	0.00355572949799548	0.00176593503331919	-2.28628813516396E-06	3.56372423287176E-06	-5.36263156516347E-07	-2.79839948120149E-06	0.997007094778819	-0.0579373418013155
2.4	0.0034651805557429	0.00166215133800874	-1.55864096737812E-06	-1.45659859994043E-06	1.28510467921638E-06	-1.00009822424277E-06	0.996879293504236	-0.061028726627432
2.5	0.00318601643772372	0.00154882436448684	7.79789418852921E-06	4.06080077683826E-06	-2.35291770276812E-06	-7.23496555501039E-06	0.996568227574229	-0.0631793634051992
2.6	0.00287785271515653	0.00170998605164359	4.88555753018586E-07	2.11940003457716E-06	-1.46606065154597E-06	4.6919716086526E-06	0.996637395805336	-0.0660725559513795
2.7	0.00279808855850559	0.00200132591310891	-7.87132455491808E-06	5.2523476898999E-06	2.54329114330538E-06	9.72967236415764E-06	0.996375500873758	-0.0691534765857172
2.8	0.00297369296474698	0.00233137663898727	-7.7456116914109E-06	7.97060713609556E-06	6.03906080593186E-06	1.99338721288798E-05	0.996465037173993	-0.0712254217805377
2.9	0.00336110769771714	0.00246863840843638	-1.19029467659559E-06	8.62058185111603E-07	-8.13079772084478E-06	-2.95723422253185E-06	0.996157611614898	-0.0732981137111314
3	0.00374523123002305	0.00249944222128755	-6.15698037398814E-07	-4.47599000945459E-06	-2.17951267331567E-06	6.44761203335009E-06	0.996031282363443	-0.0757598514831587
3.1	0.00416084089118864	0.00247065478122599	-2.59053575367483E-06	9.21248883676999E-08	1.10214224497182E-05	-3.54216953903526E-06	0.995679990321514	-0.077810468342421
3.2	0.00452081600839293	0.00232282484918001	-9.80276251022383E-06	2.56038494135251E-06	1.21754914289573E-05	4.25229677973132E-06	0.995431464057868	-0.0796281396999828
3.3	0.00478138199963893	0.00200586529399352	-3.46895889654244E-06	9.37968458407735E-07	-5.01315701931846E-06	-1.37612798079952E-07	0.995160790567242	-0.0829055636793632
3.4	0.0048600521421279	0.00166952858435929	5.34997170531126E-06	4.80999509618324E-07	1.34995160818962E-06	4.45471010967926E-07	0.995020613632353	-0.0848540095993844
3.5	0.00475057542042126	0.00132619119683712	2.77175205757133E-06	1.55568307320963E-06	1.31400564657394E-06	7.91248358665549E-07	0.994956214668623	-0.0875740954083143
3.6	0.00456102335051032	0.00123610846465545	-7.15111960016476E-06	-1.24116592010836E-07	1.86108123629528E-06	-3.50110346613766E-06	0.994729961978914	-0.0902907479209297
3.7	0.00447470033737135	0.00118504384647129	5.77678260694669E-06	-1.5205962144908E-06	-3.27496474411127E-07	-1.73268284937776E-06	0.994378984276764	-0.0931169780384285
3.8	0.00448558390789149	0.00114626167021574	-2.00160418449867E-06	8.7978828427947E-07	-5.19450116396065E-06	3.05720758492011E-07	0.993804984077446	-0.0951493603828454
3.9	0.00455049917472756	0.00104380135106597	-8.36591941347047E-06	1.79252246565494E-06	-4.12087638811414E-06	-1.49438627311928E-06	0.993533698982717	-0.0981235329412327
4	0.00452654412278586	0.000893864421008725	-5.82675795805372E-06	3.76342455583189E-07	-9.51379124712663E-06	-8.43964562257283E-06	0.993136456191997	-0.0992378937931522
4.1	0.00453080180209353	0.000893595892724119	-3.98174830828914E-06	4.07214682220757E-06	-1.87278208251652E-06	5.58497682709698E-06	0.993168046071944	-0.100919455242121
4.2	0.0046506459313526	0.000798142794681776	4.61453651547789E-06	-4.3922245785709E-06	6.75579542433768E-06	7.45132305944213E-07	0.992787173072715	-0.103597052344768
4.3	0.00473824213344302	0.000607427666589298	-3.79472242199054E-06	1.13255332386275E-06	3.54754121048428E-06	-1.21144819444621E-06	0.992686175678507	-0.105676290695186
4.4	0.00468136610656597	0.000326101193448992	-3.15565072660843E-06	-4.93094782896466E-06	9.2860584352836E-07	-1.03762687964098E-06	0.992261379754943	-0.107942676988545
4.5	0.00436835239955329	9.19472618757096E-05	-1.38867290533865E-06	2.03204014664372E-06	2.13251858631652E-06	-8.47642537637435E-06	0.992369294129147	-0.110004370665761
4.6	0.00395999966077638	0.00011325389688086	5.4063533083286E-06	9.59044055747054E-06	-1.41918530128974E-05	9.83034817296695E-06	0.992370335871087	-0.112989044967212
4.7	0.00373067342936569	0.00024575130193243	-7.60303555810476E-06	-9.55656881702452E-06	-1.14550164275688E-06	-1.33803262447344E-07	0.992314082280329	-0.115261160528392
4.8	0.00360994540416103	0.000427468219207759	-8.7480642369551E-06	-2.68015857903547E-06	-4.37618964954892E-06	4.54851050807717E-06	0.991827778420665	-0.117975646930363
4.9	0.00368523856830844	0.000546507874822003	5.781763052476E-06	8.31221293647256E-06	-7.25419934971722E-06	3.2876033980879E-06	0.991288030212825	-0.119879523808975
5	0.00381272525848786	0.000501935379116677	4.27267209100651E-06	-8.54835027239525E-06	-4.29879692678893E-06	-6.17756245887628E-06	0.991094036108977	-0.121379457501741
5.1	0.00410929092684571	0.000515955963135476	1.521656867548E-05	-1.02610951049647E-05	3.48315290548844E-06	-8.73045472509153E-06	0.991172820354064	-0.122789948881429
5.2	0.00451183963608039	0.000245406063546621	-4.23747600527069E-06	-4.71425563377528E-06	-3.16424770307038E-06	5.26432822654861E-07	0.990823627326873	-0.125123158379102
5.3	0.00475648761530385	-0.000218120946000303	4.77941392961149E-06	3.37151800024601E-06	-9.2993256449323E-06	-4.74063066595651E-06	0.990447270379567	-0.127361566600414
5.4	0.00473108002810058	-0.000738214284029351	5.17967878653667E-06	1.19797625018068E-06	-4.71001441289063E-07	1.04543988396156E-05	0.990388089856158	-0.129962566862876
5.5	0.00431437052241177	-0.00107481029608518	-1.81244002717383E-06	-1.9804280322772E-06	8.88113859425652E-06	5.07523024145764E-07	0.990380676622863	-0.132637600605088
5.6	0.00395942446537442	-0.00101811976598576	4.24639682473374E-06	7.22770804852731E-06	-4.66429342691764E-07	-8.61220841940316E-06	0.990274162656359	-0.135351670115457
5.7	0.00372621652995962	-0.000943920055401539	2.05522225886647E-06	-7.22352260047777E-07	5.47169286652836E-06	2.45302656497089E-06	0.989958600945869	-0.138035900739153
5.8	0.00351756895388165	-0.000899497961144755	3.91249297973116E-06	1.95944405233358E-06	2.73443056219772E-06	7.83250062485537E-06	0.989632536508723	-0.140332704093914
5.9	0.00329066174381304	-0.000890342225436812	-3.78309787689156E-06	-3.05536471380261E-06	-4.69886472686368E-06	-1.77790356372451E-06	0.989005321933548	-0.142517825788627
6	0.0027832471293008	-0.00102144763498846	-2.0755814380204E-06	1.70367511313245E-06	1.04262902137945E-05	-2.66081847603516E-06	0.988386908526427	-0.143777606733154
6.1	0.00215427050619432	-0.000800138709561828	-7.32346926568895E-06	-1.10470569886964E-06	-7.24587611474192E-07	-2.48235855349182E-06	0.98854641507201	-0.144685794708292
6.2	0.00171098824519919	-0.000540350320741067	-1.06143794136837E-06	1.98765632108378E-06	-3.48007243152368E-06	-5.36014612888355E-06	0.98844228131496	-0.146015627462283
6.3	0.00146658031842511	-0.000351401960414421	1.57591799246076E-06	2.82904768724202E-06	1.14508341497359E-06	5.96881173984139E-06	0.988229251079736	-0.148041097861539
6.4	0.00125942659061841	-0.000366869000374575	2.06665128081922E-06	5.03370695685161E-06	-3.33118400234295E-07	2.27042939096658E-07	0.987838678473649	-0.150266629433033
6.5	0.000913678122851941	-0.000356407814266806	4.66636115090357E-06	-1.87476798033377E-06	-4.68629440088342E-06	-1.55014565487866E-06	0.987750726355592	-0.15292344084597
6.6	0.000762206683970933	-5.0075377505428E-05	3.26472393828161E-07	-1.06844118233566E-06	9.29168683854636E-06	3.34295044602729E-06	0.987715693117287	-0.155837773846439
6.7	0.000765122033732087	0.000173642070161494	5.24940765768793E-07	5.61226063409956E-06	-1.79348480404933E-06	4.97194539078494E-06	0.987378886755707	-0.158515614999782
6.8	0.000715409187317938	0.000387653841211451	1.77008656480794E-07	-1.58654482547575E-06	-3.47350200128329E-06	-5.12298692591742E-06	0.986750015002456	-0.16097234611271
6.9	0.000607213139361019	0.000573014700455473	-6.64961584185264E-06	6.71571670923732E-06	2.28709855463489E-06	1.35569160275386E-06	0.986176791449198	-0.163109946410585
7	0.00027822628708626	0.000853121878119101	8.07806166457375E-06	3.16891394354742E-06	4.5650697482495E-06	5.86546301208054E-06	0.985453305406391	-0.164703873315158
7.1	4.64170076596867E-05	0.00153537849047399	1.39509943574735E-06	7.84608028499329E-07	-2.26885183436665E-06	-4.47732530437423E-06	0.985130715136123	-0.166284674447582
7.2	0.000130697256147827	0.00213268704479749	-1.40522306969823E-07	4.39683170415743E-06	-5.0096518422679E-06	-6.63578880140501E-07	0.984547253585914	-0.168148537176096
7.3	0.000238193816010354	0.00258126802632033	1.3581135820161E-06	-5.26165406442863E-06	-2.34457076717393E-06	-2.79192507929467E-06	0.983532325406379	-0.17001372791271
7.4	0.000286259908810469	0.00280512724031445	1.83165513925708E-06	4.4239360497949E-06	-7.26712899524047E-07	-1.070249160262E-06	0.982513815591279	-0.17237586706201
7.5	-1.58871699682452E-06	0.00282330593798359	-5.74232525241582E-06	-1.49719608767282E-06	-1.57062717553228E-06	-8.90568288983641E-06	0.981484784561166	-0.174832256375274
7.6	-0.000391049435995848	0.00318883575243422	5.63035293608388E-06	-3.38488084223476E-06	1.02093663467152E-06	3.19326057858614E-06	0.980743762571515	-0.17766779683251
7.7	-0.00064499399463219	0.00356514894582345	-6.50768482343985E-06	-2.8675455637639E-06	4.37799813589403E-06	5.67711444926417E-06	0.980256395725417	-0.180766673729484
7.8	-0.000646264789818516	0.00382393993810382	-1.08351957925706E-06	-5.3608339356405E-06	-2.13656026075545E-07	1.14443328899785E-06	0.979952908162534	-0.183856254804795
7.9	-0.000535394285654266	0.00396876664820234	-3.34888757946581E-06	7.21582705764286E-06	4.70884787576052E-07	-6.88543707111881E-06	0.9797638215851	-0.186951629655428
8	-0.00053125107539866	0.00423843216021246	-2.3070281165546E-07	7.3883888176949E-06	1.77124827644685E-06	-4.4602516878054E-06	0.979341169875321	-0.189851829700568
8.1	-0.000198949186929809	0.00481822241026113	-7.40782087169913E-07	-6.46847397720407E-06	-1.74916754067325E-06	-1.06314204068148E-06	0.978846526414915	-0.192467612118237
8.2	0.000336039805545919	0.00515830947793335	-3.827249165677E-06	1.65331163785119E-06	-1.09721680467956E-05	-2.61281390203502E-06	0.978563885733393	-0.194887954895108
8.3	0.000812883872849306	0.00535177736487343	-5.54989345107349E-06	-9.85943444730942E-06	-7.78685266186385E-06	3.02184932214375E-06	0.977945243202992	-0.19759393587653
8.4	0.0011747342599714	0.00550617989785147	6.77018261852104E-07	-6.10215195879067E-07	-1.41620279778493E-06	4.40749602989195E-07	0.977190011871499	-0.200238185575769
8.5	0.00123740125940351	0.00570499210097127	-1.75283022995215E-06	-2.5701330050383E-07	-7.74630454605731E-09	1.80399182384928E-06	0.976454295295809	-0.203011169787175
8.6	0.00145993872058919	0.00640458677550523	2.42664189706194E-06	-3.97382170678633E-06	-4.56657043067423E-06	-5.92226114736521E-06	0.97591310017782	-0.2056263296222
8.7	0.00213569564622106	0.00698895893002568	-1.49972127175125E-06	-2.09389872942774E-06	-3.55671205650462E-06	3.63956606287026E-06	0.975456292308264	-0.208207723907629
8.8	0.00303790503182541	0.0073387232215695	-5.49808597777434E-06	-2.11792698928379E-06	-7.2339740162251E-06	-1.26555975297716E-06	0.975009669338726	-0.210517068300226
8.9	0.00409136532413513	0.00723166472378737	8.55713724947436E-06	4.09049422088549E-06	-1.41526314431888E-06	3.20010255174073E-06	0.974987672490826	-0.212561153943594
9	0.00484943249866217	0.00672266507429907	-4.9733156041124E-07	4.16003283084784E-06	-7.8148051342442E-06	1.2338186049808E-06	0.974859881575875	-0.214983663358061
9.1	0.00550280771092848	0.00629228351992391	-2.55133862519086E-06	6.63342666660903E-06	4.10098003201238E-06	-3.08226390431211E-06	0.974494456843323	-0.217288112474683
9.2	0.00608938971049526	0.00566207265885318	-1.17444124656284E-06	3.42297565986048E-06	-2.24541112228499E-06	-2.05568742799032E-06	0.973973707302071	-0.21991198436468
9.3	0.00643365443069501	0.00501028097751728	2.3228830068979E-06	-4.03949323074836E-06	-7.93177949461199E-07	-1.77970518693682E-06	0.973456708724686	-0.222496409047395
9.4	0.00659805786846702	0.00437613571363079	-1.79821147984502E-06	3.89478428698026E-06	-2.06779851223592E-06	-3.57806658605863E-06	0.972756024072333	-0.225403888566982
9.5	0.006418633273933	0.00410432086650982	3.49506665732681E-06	6.29399979118299E-06	3.66468279787015E-07	-2.14968023857892E-06	0.971973005055766	-0.228266267494215
9.6	0.00647105493125096	0.00423729098584224	4.62257909120172E-06	7.07716367793111E-06	-8.22864085656785E-06	1.28047805683814E-05	0.971116850469901	-0.231376719171539
9.7	0.00680780690583154	0.00427265827185133	-2.88269284025759E-06	-1.533344375707E-06	-1.38760841865367E-06	-3.97118195902955E-06	0.970326135238331	-0.233884067632912
9.8	0.00720170426836211	0.00415969659776212	1.29358569330747E-07	-3.59712420549985E-06	3.04674920757225E-06	2.40025926172081E-06	0.969958361213667	-0.23589074407069
9.9	0.00756962703188653	0.00392474940899593	5.80154685506814E-06	-6.15753372970637E-07	-2.56769570757781E-06	6.73036576005919E-06	0.969555672602385	-0.237713135920023
10	0.00760548378657191	0.00360770822288008	-1.14189510823081E-06	-5.78597017155573E-07	1.36404793824224E-06	-1.18716062705467E-06	0.969157534205058	-0.23953749264696
10.1	0.00777728899211932	0.00372010830803521	7.12435631979171E-07	-8.41975369201077E-06	6.15681944124143E-06	3.60707312032416E-06	0.968455831384748	-0.241221231860613
10.2	0.00832852439474139	0.00367800807527671	7.49687383133937E-06	8.32088812226408E-06	5.22612276246065E-06	3.53100624449795E-06	0.967921035427905	-0.242544395476808
10.3	0.00897370276537153	0.0033459039722673	1.75652815406814E-06	-6.95750125143559E-06	1.42628548739486E-06	2.86811197070413E-06	0.967299578978713	-0.244203343129973
10.4	0.00957723098031782	0.00266069598663985	-4.02659796300029E-06	-3.63968284599803E-06	1.9543397203559E-06	-5.596287511422E-06	0.966664605273904	-0.246096856410643
10.5	0.00970554945819952	0.00188319233092611	3.76290013911692E-07	-7.06758612148441E-06	-5.73193603150561E-06	4.07166915139579E-06	0.966322671273655	-0.248570978085217
10.6	0.00983989374978435	0.00148799863525281	5.49157402948077E-06	6.73922576816262E-06	2.43504430680949E-06	1.19472342078292E-06	0.965781189780402	-0.251427665269737
10.7	0.0101007681609831	0.0011319495981863	-7.08121120598609E-06	-1.68996795585382E-06	-7.73410646512132E-07	1.56054302494776E-06	0.965034919251595	-0.254471481739998
10.8	0.0104806238389121	0.000722177196687934	1.48881053470044E-06	4.44473257676283E-06	9.41796615261329E-06	-4.4744564262039E-06	0.964132673661738	-0.256714630732739
10.9	0.0108454716691814	0.000123002208673763	3.28793563298571E-07	7.42408661106762E-06	-5.16548505011695E-06	2.10240665444782E-07	0.963700020443551	-0.258805847306289
11	0.0110082492254937	-0.000535300172562129	-2.22798275124599E-06	-3.82601964733843E-06	1.20450624693709E-05	-3.56262004419247E-06	0.963026618322159	-0.260937497741192
11.1	0.0113581058935268	-0.000898942521933305	-6.12191308331801E-06	-4.93521878690628E-06	9.52099779079395E-07	5.58074733626745E-06	0.961696655389644	-0.262770091502905
11.2	0.0120003258767446	-0.00163295812304559	3.31783393763671E-06	4.3075052135239E-06	1.06310095567451E-06	-7.88374110387571E-06	0.960382199089296	-0.264281373924782
11.3	0.0126810318151834	-0.00282275261445608	7.13256250985564E-07	-2.66016215076658E-06	-4.84441529760999E-06	9.12346430871938E-06	0.959489010361434	-0.265639075875177
11.4	0.0129606963530186	-0.004383653632657	1.47880587631766E-06	-2.20454543165278E-06	-3.01216552916113E-06	-7.44550985728535E-06	0.958480418072696	-0.267556905519008
11.5	0.0125795644887024	-0.0060260619156253	9.49309642177758E-07	-1.0108699479008E-06	-9.02811600986944E-07	-8.72702677882292E-07	0.957802627978653	-0.270007352507775
11.6	0.012153894969187	-0.00733946047551348	1.12427552320718E-05	-3.27873786624279E-06	-5.4294372454596E-06	-6.84264660616756E-06	0.956631479154021	-0.2735405966771
11.7	0.011748813767174	-0.00884423574824751	5.33463903895953E-06	-2.90142881795678E-06	-4.41663955267864E-06	1.65446756002208E-06	0.955374448872469	-0.276716394502034
11.8	0.0110958457673704	-0.0104529567002834	-4.51679114778108E-07	-2.55119354336358E-06	1.06543949878769E-06	1.3280589148987E-05	0.954593618906906	-0.279859949937061
11.9	0.0101457241633149	-0.0121623261458898	3.3289701884072E-06	1.99188481199351E-06	-1.43964132202987E-08	1.2751085898554E-05	0.954757465956984	-0.282206877117175
12	0.00833797175810853	-0.0135655293290955	2.00567992158456E-06	4.84142692175141E-07	-3.70260561450959E-06	-9.7057771907267E-07	0.954752887305313	-0.285419926596925
