# GHZ S RI R 50
0.2	0.000504068619293033	0.00357689419249288	6.30675653350749E-06	-1.00656846556717E-06	1.06684831912496E-05	1.04993713435098E-05	0.999687734252063	-0.00693161639534061
0.3	0.00115280107472298	0.00325444245254222	5.81762091646076E-06	5.03892734457305E-06	8.09789829246157E-06	2.9549556869382E-06	0.999518730656932	-0.00985371567419261
0.4	0.00164772170156072	0.00313341843106324	-2.70994106823777E-06	7.87222207374558E-06	-4.81087377737426E-07	-4.4323001404147E-06	0.999582932132916	-0.0125194392357048
0.5	0.00198944589125216	0.00304713719940516	2.30878418717007E-06	1.47943287009563E-06	7.51343925936574E-06	-1.05341085977707E-06	0.999291343787433	-0.0157004275574334
0.6	0.00230202071019376	0.00310129255775915	3.22196043573425E-07	3.5408562514244E-06	2.73656598164131E-07	-7.66326435998748E-06	0.999381071011277	-0.0185004432857252
0.7	0.00255493016029214	0.003154099836931	4.16817266934366E-06	5.0439545476999E-07	-3.8968272654363E-06	-3.55837310649415E-09	0.999113069009013	-0.0214713720379866
0.8	0.00286686674960417	0.0032234596204283	-2.88907464755953E-06	2.96580589699336E-06	-6.8247876547064E-06	1.32099169196933E-06	0.998922864943468	-0.0236796545004009
0.9	0.00312784437194094	0.00326593520039336	6.03982639394745E-06	8.98763459711051E-07	-7.34541809207523E-06	-1.83238179204564E-06	0.998809462459887	-0.0261049047869069
1	0.00336949901247659	0.00318248186432882	2.36154714259019E-06	2.94497444340811E-06	-9.04706178192911E-06	-2.58824973530598E-07	0.998510280093994	-0.0278425138872425
1.1	0.00339513125271884	0.0031073651592677	6.44103436517943E-07	3.56068727988277E-08	-5.30245784475395E-06	1.40335986497305E-06	0.998072370534721	-0.0297967008143877
1.2	0.00335879618486965	0.00274448008332708	-5.29485527993465E-06	-3.29041175183912E-06	-1.11862238975478E-05	-1.26600264171178E-05	0.997446435578641	-0.0307551574211639
1.3	0.00293238603287237	0.00206031941447528	3.05019428468355E-06	3.1042250856548E-06	6.95931009906267E-06	-4.08482371874356E-06	0.997483612085905	-0.0315858219950338
1.4	0.00242653896372193	0.00140717816542318	-2.79953501218438E-06	-1.11414885577393E-06	5.714047851645E-06	6.31110859761109E-08	0.997309146748034	-0.0334888990373166
1.5	0.00223902363617996	0.0011599252359024	1.24130360625029E-06	-2.53450457906937E-06	8.01893457043333E-07	2.51323255635264E-06	0.998002283969967	-0.0368601432876412
1.6	0.00239568069237463	0.00130791512846316	-9.33751552057401E-07	-6.41962335893187E-06	3.1874936935297E-06	-4.24634936894531E-06	0.997731202510184	-0.0403271637148549
1.7	0.00273413098928885	0.00142062886628916	3.40790710187418E-06	6.33326103295888E-07	2.23683340361745E-06	3.85487385459317E-06	0.99808581507045	-0.0429514677468408
1.8	0.00301611311193288	0.00157921032063515	-2.37879364386624E-06	2.90018748359205E-06	-1.01560995686892E-06	-4.00028789542531E-06	0.998019763406403	-0.0457559247281327
1.9	0.00329189037903936	0.00156453520110324	-3.73543417212121E-06	-1.76082758521662E-06	5.63437919022271E-06	3.02876727009336E-06	0.998024678067138	-0.0481359014900679
2	0.00340692276950893	0.001505412475325	-6.18358544165477E-06	-5.75363676614305E-06	-2.07797009370487E-06	9.16263453533004E-06	0.99741683976941	-0.0511509607641895
2.1	0.00346733213581599	0.00152113876274552	1.17422817867103E-06	4.60889937779355E-06	4.48706838857184E-06	3.99272538747728E-06	0.996969299919659	-0.0532363622756501
2.2	0.00351601770125741	0.00151549410550083	6.57050644535568E-07	9.07386896050072E-07	-3.63499186076049E-06	-1.0946454308263E-05	0.99708325121194	-0.05556297907327
2.3	0.0034978614368224	0.0014406859932251	-2.28603106364047E-06	3.56412710727343E-06	-5.36575308261861E-07	-2.79847689367212E-06	0.996826337235306	-0.0574443678215691
2.4	0.00340980184929616	0.00137081621795889	-1.55883543814375E-06	-1.45636949662612E-06	1.2849553189668E-06	-1.00027232057957E-06	0.996835013449821	-0.0605958627418268
2.5	0.00315918368136657	0.00123894119609042	7.79756157748838E-06	4.05994700450153E-06	-2.35322994441735E-06	-7.23423673816307E-06	0.99647919385499	-0.0629690515841054
2.6	0.00285786184538629	0.00140704114908536	4.88661536017774E-07	2.11935407520373E-06	-1.46580184151878E-06	4.69200269635898E-06	0.996375283523166	-0.0659012785351092
2.7	0.00278780553868395	0.00167902867860805	-7.87071749805327E-06	5.25305904816472E-06	2.544216402529E-06	9.72930954436766E-06	0.995971218238991	-0.0689713320778901
2.8	0.00297290425147845	0.00200772559802428	-7.7444873021518E-06	7.97117021869237E-06	6.04100452382803E-06	1.99325395925781E-05	0.995981908124458	-0.0709518877671314
2.9	0.00340104567427399	0.0021292284800891	-1.19017007103678E-06	8.62097217137065E-07	-8.13057674110838E-06	-2.95649797907289E-06	0.995711789641078	-0.0729722169013495
3	0.00379368526491573	0.00209256981215779	-6.15670888847073E-07	-4.47620185220881E-06	-2.17969170412164E-06	6.44787934414011E-06	0.9955732783942	-0.0754910663711834
3.1	0.00421640474294266	0.00203473936336779	-2.59083233164761E-06	9.22917730268311E-08	1.10224943647802E-05	-3.54324695544386E-06	0.995135160054786	-0.0774547629241389
3.2	0.00455906523308473	0.00183274303360233	-9.80367807187732E-06	2.56133054584539E-06	1.21771300333907E-05	4.25194743928947E-06	0.994912241098781	-0.07914263675413
3.3	0.00478472552012484	0.00149949159862528	-3.46932383418474E-06	9.38232634282596E-07	-5.01375078993936E-06	-1.37406051052944E-07	0.99473558974012	-0.0823119978735766
3.4	0.00486421481345139	0.00117069393640834	5.35080013394954E-06	4.81105637972615E-07	1.35015874274855E-06	4.4554814735051E-07	0.99477315220051	-0.0842310283507222
3.5	0.00474666515537052	0.000785739803996857	2.77266859014629E-06	1.55595066017572E-06	1.31444378711577E-06	7.91390942795384E-07	0.994750800344001	-0.0871769290265977
3.6	0.004557959450344	0.000706426273718733	-7.15239184604047E-06	-1.22853116586967E-07	1.86077732977147E-06	-3.50204988787096E-06	0.994332255004289	-0.0897658516049599
3.7	0.00446685249137971	0.000619079499063114	5.77733674193981E-06	-1.52155915420316E-06	-3.27768485446528E-07	-1.73286606551392E-06	0.994153600318991	-0.0924250746114566
3.8	0.00445111661056503	0.000572207130040531	-2.0018183624823E-06	8.80145550718528E-07	-5.19527485617544E-06	3.06340568468758E-07	0.993870682839997	-0.0944928520798504
3.9	0.00452056895289848	0.000473823340130355	-8.36754857455429E-06	1.79425580497032E-06	-4.12205497967654E-06	-1.49407601083785E-06	0.993929857507482	-0.0978038030490378
4	0.00446640524609872	0.000280678318480493	-5.82723394184079E-06	3.78260516018617E-07	-9.51748891813182E-06	-8.43744211564784E-06	0.993249941805174	-0.0996085531047283
4.1	0.00445785540758903	0.000327621217474804	-3.98109077234948E-06	4.07282144623109E-06	-1.87186599448635E-06	5.58530872797425E-06	0.992796487659067	-0.101126149264439
4.2	0.0045906162502048	0.000231487555913022	4.61406847336333E-06	-4.39303424917131E-06	6.75613421431881E-06	7.44193819370251E-07	0.992346916109919	-0.103656597924718
4.3	0.00468010485394357	5.48447027178473E-05	-3.79453340976068E-06	1.13315905987832E-06	3.54734004979732E-06	-1.21201417001094E-06	0.992225464879059	-0.105676813658807
4.4	0.00467035872110674	-0.000200724657859997	-3.15610884584018E-06	-4.92976602474117E-06	9.28305818692228E-07	-1.03765647110508E-06	0.991761015144132	-0.107971713232405
4.5	0.00439252627966387	-0.000490190331151232	-1.3883765513254E-06	2.0314137910981E-06	2.13230009197652E-06	-8.47397429648143E-06	0.991617334694082	-0.110010298823571
4.6	0.00401350954480116	-0.000467950160863328	5.40443102173939E-06	9.58995649237763E-06	-1.41913755410483E-05	9.82727657733062E-06	0.99153636214597	-0.112759634461723
4.7	0.00380387734104368	-0.000395045308776851	-7.60143544809616E-06	-9.55620880234785E-06	-1.14537050754302E-06	-1.33885690756097E-07	0.991472005823515	-0.114892174746644
4.8	0.00366330113684284	-0.000240323855360954	-8.74668380085859E-06	-2.68033073271497E-06	-4.37586532648734E-06	4.5476072748287E-06	0.991017771991709	-0.117455956447601
4.9	0.00375233545314234	-0.000121955576341478	5.77972830484135E-06	8.31121870453203E-06	-7.25314019231941E-06	3.28617113109685E-06	0.990631483906357	-0.119253515992443
5	0.00387309167440914	-0.000227120195803534	4.27449033907151E-06	-8.54691596482729E-06	-4.2971196349419E-06	-6.17827865234843E-06	0.990586233450885	-0.120863946934085
5.1	0.00418242701527891	-0.000222258198951465	1.52182397727928E-05	-1.026050688536E-05	3.48402987899488E-06	-8.73068748927084E-06	0.990665707725602	-0.122290097223337
5.2	0.00456216260284498	-0.000564470988077762	-4.23745311706837E-06	-4.71443129875569E-06	-3.16431644749521E-06	5.26375284198006E-07	0.990449028346691	-0.124648272336636
5.3	0.00473958989813261	-0.00104560227078475	4.7792696190762E-06	3.37158063967627E-06	-9.29908665623669E-06	-4.74077799285116E-06	0.990160244719601	-0.127028754528718
5.4	0.00470021587959819	-0.00152685059083361	5.179574701581E-06	1.19840969314567E-06	-4.71877649301937E-07	1.04543519985691E-05	0.990125392279885	-0.129784644232041
5.5	0.00426113955080974	-0.00187872656164273	-1.81283320717285E-06	-1.98070568556244E-06	8.88271373819344E-06	5.07272514350388E-07	0.989950416912462	-0.132773245984283
5.6	0.00397258203121461	-0.00176599867422589	4.24776490349544E-06	7.22648684898899E-06	-4.68256697156867E-07	-8.61173860731242E-06	0.989489516323822	-0.135282855095522
5.7	0.00377673551788507	-0.00176537276732344	2.05484185096325E-06	-7.22522476050651E-07	5.4712560725101E-06	2.45196583318768E-06	0.989297662239239	-0.137726626320744
5.8	0.00354038143397675	-0.00175330267637721	3.91225753973968E-06	1.95888777342425E-06	2.73484494551384E-06	7.83143298058703E-06	0.989275842853123	-0.14001423213023
5.9	0.00333687965645405	-0.00172878554442304	-3.78371213354764E-06	-3.05462854291522E-06	-4.69923003091895E-06	-1.7769828326519E-06	0.989086113010449	-0.142626064106487
6	0.00283342767502465	-0.00197797728725755	-2.07431000552023E-06	1.7040671002681E-06	1.04223404198828E-05	-2.66439968268342E-06	0.987997601779514	-0.144896872122515
6.1	0.00213495208997115	-0.00174108366859352	-7.32099721799886E-06	-1.10353572912654E-06	-7.24595559613919E-07	-2.48140367342009E-06	0.987385384187091	-0.145626475378976
6.2	0.0016340256242643	-0.00148396407491389	-1.06112905564245E-06	1.98725317196104E-06	-3.47949488737024E-06	-5.35882655683415E-06	0.986969587085498	-0.14672947217539
6.3	0.00134649767209524	-0.001213535689881	1.57588733774747E-06	2.82852890207112E-06	1.14533385020871E-06	5.96786910340534E-06	0.986602905433785	-0.148445281319652
6.4	0.00123564582336788	-0.00116622223878642	2.06725235082553E-06	5.03219435779209E-06	-3.32999544160556E-07	2.27063289231591E-07	0.986221428024996	-0.150515422709408
6.5	0.000931547887450814	-0.0012467117119724	4.66430437025349E-06	-1.87398652414477E-06	-4.68425726315456E-06	-1.54942875008942E-06	0.985851833027902	-0.152789354911987
6.6	0.000838693199805133	-0.00101366568270985	3.26410095395257E-07	-1.06821801271383E-06	9.28974350503324E-06	3.34230421688745E-06	0.986289871311905	-0.155245421082526
6.7	0.000750168827619343	-0.000909343569399305	5.25565665224362E-07	5.61084945695474E-06	-1.79239154586421E-06	4.97099717179529E-06	0.986271804187977	-0.157950679791673
6.8	0.000595393860259606	-0.000650774607317788	1.76687942099678E-07	-1.58605153243166E-06	-3.47320524646377E-06	-5.12072502464443E-06	0.985856520357179	-0.160407045875195
6.9	0.000541759466446355	-0.000383354358667243	-6.64647411548448E-06	6.71350187490937E-06	2.28627944030162E-06	1.35498560593621E-06	0.985597353805782	-0.162649617975702
7	0.000216862006353091	-0.00018131808804423	8.0759369734591E-06	3.16876404797865E-06	4.56357021960323E-06	5.86442381426548E-06	0.984786327600871	-0.164630865592188
7.1	4.43269089495165E-05	0.000539278554447696	1.39501477881641E-06	7.84393389738297E-07	-2.26900533389243E-06	-4.47661821707262E-06	0.984273104060132	-0.165956036315643
7.2	0.00012279748976636	0.00102275733759647	-1.39768867137316E-07	4.39596754383278E-06	-5.00875026462277E-06	-6.62618821117653E-07	0.983828844827948	-0.167551589584314
7.3	0.000114693079854584	0.00145186740192517	1.35712430695764E-06	-5.26015813954474E-06	-2.34413920402907E-06	-2.79080189186123E-06	0.98309610425804	-0.16911278852428
7.4	0.000124263278862911	0.00178121303725755	1.83068949276617E-06	4.42280367798092E-06	-7.2639544145548E-07	-1.07000240128956E-06	0.982807339460912	-0.171188681215169
7.5	-0.000164229563609844	0.00177897679166817	-5.74245025891071E-06	-1.49670906218398E-06	-1.57138124180231E-06	-8.90554694278161E-06	0.982620692746883	-0.17450725674905
7.6	-0.000571720138812564	0.00227649862491103	5.62758640653589E-06	-3.3851466805359E-06	1.02139305798634E-06	3.19191772932552E-06	0.98151693225606	-0.177784655625272
7.7	-0.000777627548473297	0.00266419992769292	-6.50547921945705E-06	-2.86542062545855E-06	4.37707044194989E-06	5.67416958668265E-06	0.981008533635872	-0.181074288204238
7.8	-0.000728591057611648	0.00295825647150342	-1.08371992718419E-06	-5.35890230805161E-06	-2.13462446388649E-07	1.14406803500659E-06	0.980676104061613	-0.184414952822155
7.9	-0.000456894438293293	0.00308827115500793	-3.34725145139119E-06	7.21526179521022E-06	4.69735095688956E-07	-6.88447088388383E-06	0.980447533685995	-0.187999232831039
8	-0.000479355429728746	0.00317101951150587	-2.27178268941399E-07	7.38558008181751E-06	1.76847648069085E-06	-4.45931450245049E-06	0.978954371051723	-0.19148433246372
8.1	-6.12871374849545E-05	0.00370112861013794	-7.40348485253777E-07	-6.46523598220103E-06	-1.74827983677787E-06	-1.06262544258725E-06	0.977972940813748	-0.193143593000696
8.2	0.000415742209642583	0.00389481707069192	-3.82649905154076E-06	1.65232605440857E-06	-1.09689465349371E-05	-2.61373569084438E-06	0.977869020398951	-0.195201302084327
8.3	0.000786997180879244	0.00407415401129607	-5.54815889638096E-06	-9.85869447254635E-06	-7.78613003816586E-06	3.02065936246179E-06	0.977367223093365	-0.197748102377666
8.4	0.00116898627012765	0.00428128633815092	6.76854950598055E-07	-6.10051137773919E-07	-1.41584969545897E-06	4.40618365003676E-07	0.97667078780764	-0.200309039580014
8.5	0.00119975707687936	0.00438248254975786	-1.75204925463425E-06	-2.57625352310112E-07	-8.47534691951417E-09	1.80329224632096E-06	0.975898702687577	-0.202836067627272
8.6	0.00145112169191339	0.00513078783208213	2.42839257219477E-06	-3.97244565333643E-06	-4.56350090532647E-06	-5.92409662786004E-06	0.975687881783511	-0.205259399426544
8.7	0.00210129156296281	0.00560231932587416	-1.49891733452102E-06	-2.0945928442053E-06	-3.55833961100071E-06	3.63824127351649E-06	0.975461489672371	-0.207895303145052
8.8	0.00286713914173507	0.00593995108318062	-5.49775549618664E-06	-2.12012046787541E-06	-7.23409827886885E-06	-1.26832183123623E-06	0.975161637398534	-0.210297944591707
8.9	0.00387430427970317	0.00594073343756078	8.55584180666597E-06	4.09419832718832E-06	-1.41664319087644E-06	3.19966516686149E-06	0.975205366033102	-0.212460014042875
9	0.00461417312848993	0.00542607756757092	-5.00021073666588E-07	4.16098419497868E-06	-7.81791581209554E-06	1.22942028079255E-06	0.975047524764912	-0.214984118901679
9.1	0.00530567480192105	0.00507056237319838	-2.55467270409771E-06	6.63500102815613E-06	4.1036229954053E-06	-3.08195074806883E-06	0.974560702123542	-0.217291786192497
9.2	0.00588382248328988	0.00439401861004558	-1.17615180117007E-06	3.42322439738848E-06	-2.24502831992281E-06	-2.057090243662E-06	0.973898543447052	-0.219770386042635
9.3	0.00617100131765756	0.00379600074016547	2.32580390824038E-06	-4.03885205438216E-06	-7.92242023327596E-07	-1.78053443368344E-06	0.973360072724092	-0.222035611599379
9.4	0.00642757611878499	0.00326798746786166	-1.80188901057918E-06	3.89470799136474E-06	-2.06569665052978E-06	-3.58091937415003E-06	0.972970098150781	-0.224608999448299
9.5	0.00631200167081588	0.00295818897319487	3.49428330478657E-06	6.29977094738989E-06	3.67746831590887E-07	-2.1508957523841E-06	0.972480958820635	-0.227722129043159
9.6	0.0065267416992251	0.00307901211266757	4.62194745796203E-06	7.07994815464091E-06	-8.23368162195062E-06	1.28057916795008E-05	0.97159205086109	-0.230697568046969
9.7	0.0068841488790291	0.00295221840049681	-2.88233990090716E-06	-1.53462750304074E-06	-1.38615268624606E-06	-3.97208772025568E-06	0.971103702732623	-0.233124731292553
9.8	0.00720405428868487	0.00279459528271208	1.31142215624631E-07	-3.59765887683174E-06	3.04607991975677E-06	2.4021508423452E-06	0.971094764976779	-0.235249838517308
9.9	0.00759954194735023	0.00260170273911012	5.804062084989E-06	-6.1413106274117E-07	-2.5708884802061E-06	6.73222679095616E-06	0.970981460479948	-0.237609822986571
10	0.00760669821903077	0.00217070196674034	-1.14188819932717E-06	-5.78589720638699E-07	1.36403471698393E-06	-1.18715546111708E-06	0.969657666468331	-0.23978563372744
10.1	0.00778908645394767	0.00231816680315543	7.16068333794633E-07	-8.41919808064309E-06	6.15507401078735E-06	3.60963914127007E-06	0.969162788671359	-0.240574896560776
10.2	0.00828625089261352	0.00220949118670928	7.49470466927026E-06	8.32567652797323E-06	5.22558667445231E-06	3.53391761787492E-06	0.969147889056669	-0.242018120360841
10.3	0.00884482198693405	0.00195286640125827	1.75890793249419E-06	-6.95868068866767E-06	1.42582172369947E-06	2.86920311173873E-06	0.96871697322024	-0.244034632373748
10.4	0.0095535537031628	0.00138389939058828	-4.02631136120862E-06	-3.64008074807786E-06	1.95486173674686E-06	-5.59616791480942E-06	0.967928498627023	-0.246455984134461
10.5	0.00975695219425304	0.00050904144811963	3.796166359367E-07	-7.06546657640579E-06	-5.73234103293317E-06	4.06777168590619E-06	0.966926167788397	-0.248895734963552
10.6	0.00992774764386515	-1.4923014602324E-05	5.48862201514979E-06	6.74132266851582E-06	2.43448075756141E-06	1.19570257326745E-06	0.966273775038864	-0.25177483807212
10.7	0.0100669390966893	-0.000486202312120176	-7.08011172624652E-06	-1.6914450258585E-06	-7.73696141820747E-07	1.56020753283317E-06	0.965172496323864	-0.25471633478509
10.8	0.0104309856294952	-0.000780923390725555	1.4873718173887E-06	4.4444789949418E-06	9.41779027152159E-06	-4.47121155560942E-06	0.964299380196423	-0.256334716607959
10.9	0.0109303130509666	-0.00130811831386841	3.25724327953024E-07	7.42247337950661E-06	-5.16435513997903E-06	2.08109527703326E-07	0.964009887040444	-0.258051616580588
11	0.0111316105734928	-0.00213470652498603	-2.22597618899259E-06	-3.82792936480193E-06	1.20489736987731E-05	-3.55580363273259E-06	0.963535614523765	-0.259673902244825
11.1	0.0115373601496184	-0.00257826709725206	-6.12290027547084E-06	-4.93832713176069E-06	9.51151321610103E-07	5.58289528744177E-06	0.963021522436581	-0.261094514355324
11.2	0.0120789450564716	-0.00351397384481435	3.31827605372372E-06	4.30880775601768E-06	1.06400009018444E-06	-7.88554162249002E-06	0.962452893186239	-0.262738172712595
11.3	0.012525809751352	-0.00472193465211009	7.13630053611122E-07	-2.66045403326779E-06	-4.84602709965231E-06	9.12421680137132E-06	0.962135864228102	-0.264436136149923
11.4	0.012709651694118	-0.00616861086165045	1.47975180693404E-06	-2.20467993171959E-06	-3.0108970455943E-06	-7.44810747310911E-06	0.961725559227806	-0.266872243276501
11.5	0.0121935655614696	-0.0077970100361526	9.49696485510713E-07	-1.01163718054337E-06	-9.03501181449071E-07	-8.7306294899977E-07	0.960886914379691	-0.270399306236829
11.6	0.0117766054434475	-0.00891469387727852	1.12426463005271E-05	-3.2835076100899E-06	-5.43270113552301E-06	-6.84122871838545E-06	0.959313359073531	-0.273817829428566
11.7	0.011387224822196	-0.0103401266870161	5.33412132882139E-06	-2.90274058346981E-06	-4.41638326711249E-06	1.65553242217963E-06	0.958366085337986	-0.277209965463222
11.8	0.0107971736079804	-0.0118057300563948	-4.52181472801698E-07	-2.55162515048954E-06	1.06780020313532E-06	1.32830440962248E-05	0.957752060560816	-0.280999163790086
11.9	0.0101180717955692	-0.0134720315393566	3.33179333217758E-06	1.99162554981409E-06	-8.90914457510191E-09	1.27586173190836E-05	0.957582389468907	-0.28453462460529
12	0.00827848385457468	-0.0150356944569445	2.00643190913967E-06	4.82520283110755E-07	-3.7040591182785E-06	-9.67595696976955E-07	0.955333616591248	-0.28786851427734
