# GHZ S RI R 50
0.2	0.000494571873796573	0.00358548598092493	6.30686701343182E-06	-1.00657619927361E-06	1.06686514020274E-05	1.04995690328436E-05	0.999695490868743	-0.00692166542784825
0.3	0.00114652015795938	0.00326853498497248	5.81773380530162E-06	5.03900975890597E-06	8.09804930439441E-06	2.95499694542726E-06	0.999530482254963	-0.00984135527554569
0.4	0.00163860578504351	0.00316008470032212	-2.7100107117079E-06	7.87249215000598E-06	-4.81115186625623E-07	-4.43244688464797E-06	0.999607082648252	-0.012495923171303
0.5	0.00201709675339332	0.0030919871738385	2.30895882486122E-06	1.47937746631326E-06	7.51370613125229E-06	-1.05384184732567E-06	0.999360625614549	-0.0157075698193994
0.6	0.0023375430799234	0.00310048776067813	3.22372494396835E-07	3.54080146126088E-06	2.7326418175592E-07	-7.66319512544448E-06	0.999404677256947	-0.0185516378682002
0.7	0.00256890843893632	0.00314347033465448	4.16812157535449E-06	5.04274253897709E-07	-3.89676676983444E-06	-3.45233935893978E-09	0.999110874385215	-0.0215086665331516
0.8	0.00286466760188925	0.00320867836941047	-2.88899467610337E-06	2.96581310017839E-06	-6.82468429756445E-06	1.32107824417968E-06	0.998908077965424	-0.0237090087603445
0.9	0.00308884192134833	0.00325328766200365	6.03982152892024E-06	8.98778235073303E-07	-7.34541031922887E-06	-1.83239944198759E-06	0.998770206379211	-0.0261148515945701
1	0.00331818819974487	0.00325226167875488	2.36168862583443E-06	2.94508752483764E-06	-9.04748806172677E-06	-2.5874210030637E-07	0.998505447478243	-0.0277842493272663
1.1	0.00341673619685795	0.00316374143434938	6.44126478916182E-07	3.55741870022936E-08	-5.30255836408697E-06	1.40368470567945E-06	0.99812466357006	-0.0297933435885595
1.2	0.00337479597091945	0.00278223376825527	-5.2952127125824E-06	-3.29020095074806E-06	-1.1187315742665E-05	-1.26597571781295E-05	0.997489737504201	-0.0307770635101379
1.3	0.00295644328967657	0.00210077971405306	3.05059778638413E-06	3.10409296289508E-06	6.95925456951764E-06	-4.08560902621813E-06	0.997545536236775	-0.0316334316405626
1.4	0.00245317504264389	0.00144618149168253	-2.79976295077242E-06	-1.11380192467481E-06	5.71421471611058E-06	6.23417055994704E-08	0.997356319473167	-0.0335830984810536
1.5	0.0023198324706602	0.00120098505218813	1.24090355376684E-06	-2.53462871121506E-06	8.02243707192776E-07	2.51305753465187E-06	0.998056280848883	-0.0369630810194032
1.6	0.00243399436125222	0.00126456607774547	-9.34499213064716E-07	-6.4191220214441E-06	3.18677126304126E-06	-4.24649406296653E-06	0.997703245708896	-0.040489096365132
1.7	0.00271139560282452	0.0013932057874565	3.40769620850581E-06	6.32888592791655E-07	2.23708353437107E-06	3.85430165009023E-06	0.997975378763391	-0.0430856885697772
1.8	0.00295880511831863	0.00158167240212319	-2.37820343593116E-06	2.90009354618246E-06	-1.01591208485476E-06	-3.99970383045419E-06	0.997839154175915	-0.0458532046439591
1.9	0.00320320554514301	0.0016290671274589	-3.73480967931018E-06	-1.7602964745675E-06	5.6334565614619E-06	3.02789472575897E-06	0.997742906176896	-0.0481135633127912
2	0.00340769648942474	0.00166164185585004	-6.18227975910492E-06	-5.75364087713882E-06	-2.07870373214538E-06	9.16138106424486E-06	0.997311241647991	-0.0508836906093728
2.1	0.00352758733750519	0.00159008912960394	1.17424098357674E-06	4.60880595843294E-06	4.48701574377264E-06	3.99261857861677E-06	0.997011272453952	-0.053173927427555
2.2	0.00355504845181668	0.00155247258877274	6.570361669439E-07	9.07295766394405E-07	-3.63513247693592E-06	-1.09455147655853E-05	0.997047410260474	-0.0555588610339231
2.3	0.00351555743662877	0.00145631612769234	-2.28575081223771E-06	3.56382503417052E-06	-5.36572035539479E-07	-2.79819961988277E-06	0.996748033728817	-0.0574400848051932
2.4	0.00336843169173895	0.00138566004658079	-1.55871214299073E-06	-1.45625179744048E-06	1.28485179522362E-06	-1.00019350574396E-06	0.996714944713954	-0.0605761918044036
2.5	0.00312124705078803	0.00135816802554571	7.7971936950294E-06	4.05910574323105E-06	-2.35351282246081E-06	-7.23349426248454E-06	0.996357090215425	-0.0629094505754655
2.6	0.00288643544949244	0.0014836811622869	4.88652857837779E-07	2.11895813375449E-06	-1.4653668411653E-06	4.69122042459873E-06	0.996225212687289	-0.0658487725192595
2.7	0.00279261858845807	0.00174170744443012	-7.86936234972944E-06	5.25185200174154E-06	2.54347440622194E-06	9.72752934827909E-06	0.995790555950253	-0.0688684756272043
2.8	0.00296419682837641	0.00208184811875081	-7.74365896367514E-06	7.96921322817257E-06	6.03854757314455E-06	1.99294053020509E-05	0.995802661650541	-0.070796195755229
2.9	0.00338023497259565	0.00223929671636212	-1.19007440642488E-06	8.6187327448898E-07	-8.12916934233316E-06	-2.95677074349901E-06	0.995555666961435	-0.0727684430371066
3	0.00386616009685402	0.00225719909813937	-6.15267367022224E-07	-4.47548586734105E-06	-2.17975425291492E-06	6.44664288366606E-06	0.995481225791821	-0.0752483979139889
3.1	0.00432307247013774	0.00208954085389363	-2.59048211778486E-06	9.19234816777145E-08	1.10214365510569E-05	-3.54123881468594E-06	0.995113357185629	-0.0772533265921793
3.2	0.00462691957751645	0.00184861845496864	-9.80319946436757E-06	2.5600274168191E-06	1.21756993793111E-05	4.25298470097207E-06	0.994911912632468	-0.0790091977689394
3.3	0.00481225701359585	0.00149336106818842	-3.46919325021013E-06	9.37986037158568E-07	-5.01347732950383E-06	-1.37683299311517E-07	0.994715712515687	-0.0822578437328002
3.4	0.00482391722160554	0.00118179346207929	5.35037545506089E-06	4.80849947813759E-07	1.35006465506329E-06	4.45456727176446E-07	0.994647571415868	-0.084252982410359
3.5	0.00475311958677989	0.000885236775554947	2.77189902719122E-06	1.55551096714761E-06	1.31407907459091E-06	7.9116751103371E-07	0.994480814435343	-0.0870535248557651
3.6	0.00458673222601859	0.000710174859556137	-7.15087236784789E-06	-1.23951540894931E-07	1.86093748553912E-06	-3.50102288375719E-06	0.994167929022817	-0.089587711920247
3.7	0.00442470980182794	0.000611078400045005	5.77661251139435E-06	-1.52042461014359E-06	-3.27449484836529E-07	-1.73262919078992E-06	0.99396206530906	-0.0922666438724992
3.8	0.00435527896982792	0.000587044352401365	-2.00159628076463E-06	8.79637731569103E-07	-5.19435887375842E-06	3.05391384024865E-07	0.99360702684931	-0.0942904794957033
3.9	0.00436092722750512	0.000556917569153997	-8.36606809941577E-06	1.79142804024388E-06	-4.12064362006263E-06	-1.49490204955641E-06	0.993562867762976	-0.0974135049977153
4	0.00439111207941938	0.000504296056873841	-5.82731991783084E-06	3.75241527946876E-07	-9.51294902450171E-06	-8.44220275177921E-06	0.993207861245184	-0.0988719079335035
4.1	0.00445109347669406	0.000470284786266621	-3.98312111092818E-06	4.07223143351404E-06	-1.87402209886452E-06	5.58567400849086E-06	0.992996108388701	-0.100677589122462
4.2	0.00456085095697565	0.000371232562141741	4.61598299382682E-06	-4.39260989834645E-06	6.75710421986057E-06	7.4604750078971E-07	0.992513479894827	-0.103281977257293
4.3	0.00464700764801442	0.000205788531557245	-3.79556206516227E-06	1.132520345479E-06	3.54833663634351E-06	-1.21144801784006E-06	0.992416968771522	-0.105321333201316
4.4	0.00460594864033228	-8.58314758042457E-06	-3.15609963174903E-06	-4.9317345293129E-06	9.2875747659191E-07	-1.03777992453294E-06	0.991995042867957	-0.107630226365925
4.5	0.00444530076927018	-0.00016520844713508	-1.38865397733775E-06	2.03210458241097E-06	2.1323763970485E-06	-8.47661685630146E-06	0.991954421455737	-0.109782892923726
4.6	0.00419395754284207	-0.000278221014447004	5.40528254095466E-06	9.58992054889414E-06	-1.41911961133028E-05	9.82860095319993E-06	0.991743456619515	-0.112642227990625
4.7	0.00397420918388134	-0.000290225255649766	-7.60083610833729E-06	-9.55638643445986E-06	-1.14534219507272E-06	-1.3393749300239E-07	0.991628658336006	-0.114738621258873
4.8	0.00380460022555456	-0.000202236092061514	-8.74634820939008E-06	-2.68138033651653E-06	-4.37640669175271E-06	4.54707358397209E-06	0.991171678277545	-0.117299605399514
4.9	0.00381350320279218	-9.94986401383165E-05	5.77907304244342E-06	8.31243363456574E-06	-7.25398660297655E-06	3.28549105446198E-06	0.990767876159843	-0.119118821558914
5	0.0039995444210905	-0.00013350800630624	4.27465974171335E-06	-8.54656596320913E-06	-4.29681377444189E-06	-6.17826378542173E-06	0.990692047891946	-0.120736004454156
5.1	0.00429929862028587	-0.000282588664432002	1.52190706027383E-05	-1.02573984635798E-05	3.4852777122455E-06	-8.72961118085348E-06	0.990746179410565	-0.122180135822468
5.2	0.00457008200891445	-0.000640421671168452	-4.23671860885217E-06	-4.71531652927494E-06	-3.16449449528173E-06	5.25821087527678E-07	0.990505138641293	-0.124550547889592
5.3	0.00466789550192709	-0.00109829498833368	4.77927332888873E-06	3.37251242339499E-06	-9.29933004804341E-06	-4.74242295337345E-06	0.990195932171484	-0.126965206654864
5.4	0.00453509275233614	-0.00149052516002266	5.18011358162806E-06	1.19845059487401E-06	-4.71764559255938E-07	1.04554097712867E-05	0.990057327367388	-0.129776182692635
5.5	0.00424702948641644	-0.00169465829468643	-1.81250736834652E-06	-1.98037037771411E-06	8.88116504396152E-06	5.07230466861986E-07	0.989765505548529	-0.132560862355211
5.6	0.00396289567926585	-0.00178299927052107	4.2456923415546E-06	7.2271944164273E-06	-4.66028120173156E-07	-8.61140613679437E-06	0.989462379142974	-0.135040859654762
5.7	0.00361138911847094	-0.00178387078458127	2.05515827198841E-06	-7.22072960771906E-07	5.47103581189098E-06	2.45346284556599E-06	0.989233562035173	-0.137515372161441
5.8	0.00324917383264821	-0.00169371819703089	3.91217066635902E-06	1.96005431761705E-06	2.73318616685528E-06	7.83290510649029E-06	0.989119749459512	-0.139725092475411
5.9	0.00289311458045699	-0.00147671191958393	-3.78298758801765E-06	-3.05654646814604E-06	-4.69913782852196E-06	-1.77909898506619E-06	0.988829754430681	-0.141998688791707
6	0.0025439628063912	-0.0012629009556255	-2.07659586376761E-06	1.70409804521384E-06	1.04306904572322E-05	-2.66063165141043E-06	0.98844030763529	-0.143753997362377
6.1	0.00226135098442256	-0.00103167427759217	-7.32717482250109E-06	-1.10434604217842E-06	-7.25245283416034E-07	-2.48347979587026E-06	0.988339422359072	-0.145055381905656
6.2	0.00200520377786526	-0.000906611998071812	-1.06139606108381E-06	1.9888763417856E-06	-3.48315900829902E-06	-5.36171457570163E-06	0.987987923784023	-0.146485981641729
6.3	0.00183242618769912	-0.000883296147921007	1.57757675879278E-06	2.82967158670537E-06	1.14767288578728E-06	5.97089912294348E-06	0.987600046237505	-0.148477873130226
6.4	0.00162171295858506	-0.000997210496631197	2.06940056001198E-06	5.03466702322727E-06	-3.33145789993666E-07	2.27256937790462E-07	0.987139279600501	-0.150620940314724
6.5	0.00140540272718296	-0.00112296901074057	4.66652678383647E-06	-1.87748848969298E-06	-4.68814184318267E-06	-1.54821077953989E-06	0.986911944322607	-0.153241652336071
6.6	0.00114514546331531	-0.00116360629673171	3.25980811213481E-07	-1.06861642295425E-06	9.293445904392E-06	3.3386861986647E-06	0.986749550766856	-0.155895303808312
6.7	0.000855336765197604	-0.00104683938269146	5.27052517187101E-07	5.61153740693334E-06	-1.79140426296088E-06	4.97217412378654E-06	0.986481938633456	-0.158358409797349
6.8	0.000572194784147874	-0.000752152162966998	1.76486868464489E-07	-1.58633207876532E-06	-3.4745045130803E-06	-5.1210457367219E-06	0.985969064707464	-0.160676183895473
6.9	0.000362251057314069	-0.000353844717282796	-6.64713223136631E-06	6.71553552860022E-06	2.28687938516144E-06	1.35502622413334E-06	0.985601240387531	-0.162752965125397
7	0.000262137202372932	8.82142323332137E-05	8.07817106981645E-06	3.16831161135547E-06	4.5654136390862E-06	5.86506715764846E-06	0.985026698381393	-0.164538616802551
7.1	0.000148548760312604	0.000516159072649626	1.39543524171156E-06	7.84329607289688E-07	-2.27021255942078E-06	-4.47718494183636E-06	0.984556838126195	-0.166175394800714
7.2	5.77223368445107E-05	0.000944249195673619	-1.38759959393057E-07	4.39697507373575E-06	-5.01001731490893E-06	-6.61580857820945E-07	0.983943147321617	-0.167900872604837
7.3	-9.75174550385054E-05	0.00138158546710197	1.35528977139127E-06	-5.26172751975786E-06	-2.34571116392753E-06	-2.7904114240305E-06	0.983010696686541	-0.169610987061703
7.4	-0.000338828213232833	0.00181199495742035	1.83367549453279E-06	4.42130385300714E-06	-7.27103401237379E-07	-1.06944217296888E-06	0.982173048174336	-0.171829055040341
7.5	-0.000586633155114622	0.00228589595034486	-5.73915044685629E-06	-1.4933286990616E-06	-1.57396987543141E-06	-8.8988297924097E-06	0.981454190260093	-0.174274034534092
7.6	-0.000708852763962881	0.00275550156984475	5.6248980930865E-06	-3.38381373786801E-06	1.02104626181933E-06	3.19042625993743E-06	0.980923115448155	-0.17726173541261
7.7	-0.000835426731412899	0.00314055701241313	-6.50301476260463E-06	-2.86405334561254E-06	4.37554818478087E-06	5.67177060596827E-06	0.980556520124407	-0.18055977402937
7.8	-0.000718486108274449	0.00338467529818202	-1.08325973909382E-06	-5.35666451700011E-06	-2.13374816588454E-07	1.14358968108801E-06	0.980276008163298	-0.18390966260162
7.9	-0.000450536226308641	0.00353741396886435	-3.34679900576369E-06	7.21083346389276E-06	4.70744390113624E-07	-6.8807432539069E-06	0.979969957213318	-0.187257264969054
8	-0.000168231762883714	0.00365720176079488	-2.32081804196495E-07	7.3847723138846E-06	1.77129220428236E-06	-4.45773924273307E-06	0.979302821449563	-0.190331734846135
8.1	0.000184696367694588	0.00384402683646715	-7.3910752491229E-07	-6.46737709584991E-06	-1.74857229594115E-06	-1.06334641696352E-06	0.978561316685206	-0.192838310946117
8.2	0.000530583446632037	0.00402252112874699	-3.82745643253439E-06	1.65247193839407E-06	-1.0971257817609E-05	-2.61496949222297E-06	0.978214598211676	-0.195060633986221
8.3	0.000844442138863662	0.00419779354901745	-5.54886396179971E-06	-9.86115366099438E-06	-7.78800105382391E-06	3.0209167403019E-06	0.977649745713467	-0.197617520075044
8.4	0.00110699983516796	0.00447533827447809	6.77123329884675E-07	-6.10268304899068E-07	-1.41639425387548E-06	4.40756533999456E-07	0.976981882600038	-0.20017281846732
8.5	0.0013926018000265	0.00479094992169647	-1.75272676730936E-06	-2.57006139271492E-07	-7.75392192243762E-09	1.80388648990499E-06	0.976327187070843	-0.202887925040104
8.6	0.00173030658030652	0.0051734681629345	2.42730225757447E-06	-3.97289122545684E-06	-4.5647954861462E-06	-5.922717177922E-06	0.975875490893498	-0.205451654733813
8.7	0.00219751499680564	0.00553870838851552	-1.49899891277927E-06	-2.09445273280241E-06	-3.5580388993517E-06	3.63835168445513E-06	0.975520552829999	-0.208009874196616
8.8	0.00280321141811273	0.0058689313881637	-5.49795353990501E-06	-2.12055982436855E-06	-7.23444631453428E-06	-1.268811422617E-06	0.975166304203168	-0.210326226711028
8.9	0.00359853361566329	0.00599006833544573	8.55776361106809E-06	4.09583982312509E-06	-1.4172275925658E-06	3.20039173159998E-06	0.975193896243719	-0.212400728824644
9	0.00448577019484488	0.00582025574610362	-4.99410973505045E-07	4.16191132159338E-06	-7.81928702452384E-06	1.23100528444074E-06	0.975076047860633	-0.214800253805919
9.1	0.0053358241004099	0.00533894992583775	-2.55502104564341E-06	6.63635666148997E-06	4.10435518946568E-06	-3.08264691211934E-06	0.974775024629462	-0.217088811457626
9.2	0.00592898942736444	0.00463486755838339	-1.17613932330562E-06	3.42459638830606E-06	-2.24609065177842E-06	-2.05754152356802E-06	0.974261402602536	-0.219731640028027
9.3	0.00622178486008774	0.0039832756327762	2.32536033344378E-06	-4.04127554846167E-06	-7.93170276962677E-07	-1.78098128344398E-06	0.973723777487608	-0.222269777878137
9.4	0.00639603953485323	0.00349615911506793	-1.79980301580831E-06	3.89697264579828E-06	-2.06863766988187E-06	-3.58053452418846E-06	0.973053202572002	-0.225084752916918
9.5	0.006543920545948	0.00327441336993031	3.4968297500885E-06	6.29637775538932E-06	3.66502133233793E-07	-2.15057627616665E-06	0.972357068959402	-0.227869361936805
9.6	0.00669520885454863	0.00304408936014241	4.62345938978427E-06	7.07865721461765E-06	-8.23044747832396E-06	1.28073263366227E-05	0.971676723335934	-0.230950099766141
9.7	0.00683396156831441	0.00288148636278823	-2.88301757442089E-06	-1.5337833092381E-06	-1.38753201482225E-06	-3.97188123559812E-06	0.971035729811898	-0.233524078143825
9.8	0.00697460125414509	0.0027649289696847	1.29789961105819E-07	-3.5976203019581E-06	3.04690638475594E-06	2.40095002739707E-06	0.970752500993825	-0.235635073221026
9.9	0.00714027639612659	0.00277282313623809	5.80291789571394E-06	-6.14828536492466E-07	-2.56948067776068E-06	6.731357530815E-06	0.97031297719034	-0.237529673611412
10	0.00738254589308975	0.00275273742902422	-1.14230955306063E-06	-5.78999186018405E-07	1.36479453830156E-06	-1.18748939244313E-06	0.969887738660969	-0.239177619134652
10.1	0.0077403959328748	0.00273351739795789	7.12052716355067E-07	-8.4237725382096E-06	6.16002127085951E-06	3.60824389455263E-06	0.969468753198923	-0.240779801009486
10.2	0.00824073905833655	0.00262787756330192	7.50138814721525E-06	8.32265810121995E-06	5.22883018492026E-06	3.53136133173617E-06	0.969142307930331	-0.24224792229127
10.3	0.00882397997583313	0.00235674782978768	1.75526856169114E-06	-6.95997431335166E-06	1.42743089527256E-06	2.86858405664265E-06	0.96861378397153	-0.244158020664047
10.4	0.00945966318405865	0.00186858076868692	-4.02845244729183E-06	-3.63888604231737E-06	1.95275107042846E-06	-5.5978156675476E-06	0.967868329160084	-0.246417190001347
10.5	0.00998226111179195	0.00118627043282361	3.73464905668588E-07	-7.06686345974393E-06	-5.72962909953355E-06	4.07342120983296E-06	0.967077588052831	-0.2490976643943
10.6	0.0102743804079525	0.000365711728641681	5.49133823896884E-06	6.73441681473723E-06	2.43435072891082E-06	1.19339091720238E-06	0.966032953079764	-0.251999443778866
10.7	0.0103976219981592	-0.000223041713109742	-7.07724343999526E-06	-1.68745737075124E-06	-7.72612698557945E-07	1.55975238850025E-06	0.964903863643368	-0.254744770272669
10.8	0.0107098256887977	-0.000662114268380611	1.48792008813456E-06	4.44198247524183E-06	9.41213074475481E-06	-4.47175579340639E-06	0.96406132626985	-0.256364599083537
10.9	0.0110185208223148	-0.0011824781505082	3.27370626556011E-07	7.41982595586527E-06	-5.16251752413806E-06	2.09261390790982E-07	0.963706130886243	-0.258062546816249
11	0.0114493268141768	-0.00185379042403634	-2.22642714022183E-06	-3.82519665113022E-06	1.20417464022156E-05	-3.55888736229175E-06	0.963290232173379	-0.259646871836118
11.1	0.0118311703354384	-0.00267387176794036	-6.12041456326681E-06	-4.93411093308105E-06	9.51818981726942E-07	5.57943535232347E-06	0.962703662901212	-0.261246313712674
11.2	0.0121465058901504	-0.00368417796236296	3.31743505390349E-06	4.3059247908955E-06	1.06186840530752E-06	-7.88169948157822E-06	0.961978317278371	-0.262964408410571
11.3	0.0123955948161041	-0.00489620346651135	7.12407109518441E-07	-2.65941655330697E-06	-4.84068445112319E-06	9.12145319547982E-06	0.961466913350033	-0.264805095060366
11.4	0.0123352605338381	-0.00618782814877362	1.47738601653385E-06	-2.20404500515678E-06	-3.01332177097387E-06	-7.44110412349086E-06	0.960534092440243	-0.26729111408588
11.5	0.0120509140488576	-0.00751290909243512	9.48319029088548E-07	-1.01051342406842E-06	-9.02501761948323E-07	-8.71801134505891E-07	0.95949847800769	-0.269941213088958
11.6	0.0116380813930595	-0.00888832684043714	1.12334353360911E-05	-3.27847622202333E-06	-5.42663304289532E-06	-6.83628282631521E-06	0.958395618458887	-0.27337625159854
11.7	0.0110569701078516	-0.0102826207203469	5.3303149036191E-06	-2.89975511137697E-06	-4.41313287245844E-06	1.65364802619076E-06	0.957326777923231	-0.276816839766323
11.8	0.0103227417381814	-0.0116291342431144	-4.51269123562592E-07	-2.54941874760387E-06	1.06420804206409E-06	1.32713034027334E-05	0.956479496834244	-0.280393392360436
11.9	0.00946115179478184	-0.0129648831628242	3.32672909941244E-06	1.99175427502091E-06	-1.7803041354083E-08	1.27445406828842E-05	0.956075278835138	-0.283068279511129
12	0.00811733932655266	-0.0141774120823234	2.00536046526729E-06	4.84911783840516E-07	-3.70198525236789E-06	-9.71992665518681E-07	0.955298728936547	-0.285769328093108
