# GHZ S RI R 50
0.2	0.00564702100134266	0.00554232820729494	0.00304821085778226	-0.000894719037105574	0.00305856961532233	-0.000887902416846121	-0.014316064142353	0.00915648960095849
0.3	0.0067147829524592	0.00105893561252357	0.00290547887239129	-0.00131576363713249	0.00289821225641337	-0.00130284218148011	-0.0127767255769607	0.0068144689722291
0.4	0.00571404257878858	-0.0023121698993872	0.00267703930947298	-0.00168576706702431	0.00268232983632383	-0.00169431296967459	-0.0130121428786614	0.00562409367559424
0.5	0.00365640170962998	-0.00416599302779911	0.00242279836034526	-0.00204228127040489	0.00243438817445097	-0.00205448669475238	-0.0138484113119635	0.00574953884248344
0.6	0.00165412811146204	-0.00456187048854342	0.00211531822609807	-0.00235901905467789	0.00211456219468331	-0.00236618431149148	-0.0143782920575659	0.00694798238416847
0.7	0.000311707657839584	-0.00414838184654633	0.0017724427473007	-0.00264165976861151	0.00177048167025898	-0.00264186879161824	-0.0141324203711884	0.00862973406467575
0.8	-0.000215908859107268	-0.00376471922336672	0.0013891441496067	-0.00286608031148017	0.00137650779047682	-0.00287071267587262	-0.0130486526644573	0.0101152881544892
0.9	-0.000575619561921721	-0.00386184721811584	0.00097111003496657	-0.00303783003584078	0.000972199185332404	-0.00304859212202965	-0.0116272362199866	0.0108422074783839
1	-0.0013598158260336	-0.00440498283299129	0.000541822707202502	-0.003149086304867	0.000531886199522921	-0.00314986642796713	-0.0104986907526116	0.0108888616642355
1.1	-0.00299258830220543	-0.00483473673863013	7.82626399900576E-05	-0.0031837334466918	7.47594332862787E-05	-0.00320155128314125	-0.0101442451553801	0.0108351721090362
1.2	-0.00516114319471685	-0.00470739465587717	-0.000373879090796138	-0.00317582170735233	-0.000374699335866119	-0.0031737249147812	-0.0099508378924014	0.011251082736496
1.3	-0.00723936260462681	-0.00397061558014544	-0.000811648159216127	-0.00309115705604089	-0.000814924823532305	-0.00309317679806142	-0.00903242248064518	0.012062958978755
1.4	-0.00861406581270388	-0.00298477480549849	-0.00124262954002558	-0.00293728097002859	-0.00124142599851365	-0.00294287358511945	-0.00752251492233585	0.0122979704021123
1.5	-0.00914367282413795	-0.001469582575402	-0.0016505298402319	-0.00273244434162339	-0.00164895273868251	-0.00274103078196283	-0.00615429628293805	0.0122122243026231
1.6	-0.00886082303187473	0.00056711167302179	-0.00201408978886429	-0.00246903511565854	-0.00201434123354259	-0.00247430779889176	-0.00545025245163835	0.012550238341808
1.7	-0.00770124955053404	0.00240446388373022	-0.00234116038516498	-0.00216096023780755	-0.00234207799263044	-0.00215465388563053	-0.00433599743811649	0.0130625254437232
1.8	-0.00612981536434171	0.00372636631121401	-0.00260655072059522	-0.00179998632122471	-0.00261760981881452	-0.00180554434234679	-0.00306526038543109	0.0131544040649297
1.9	-0.00463104172045282	0.00436306165485067	-0.00282347406424225	-0.00142304189612438	-0.00283587968628544	-0.00141676544836878	-0.00210070821498406	0.0129214788418635
2	-0.00339077853605998	0.00474297361621844	-0.00298938603020181	-0.00101320364925476	-0.00299896683570768	-0.00100841578267861	-0.00152728214165242	0.0127676980602402
2.1	-0.00219590848370241	0.00506354557111703	-0.00309376516854952	-0.000586842883907155	-0.00308970302722891	-0.000588860204467499	-0.000965158655892922	0.0128199455639588
2.2	-0.000794578623703032	0.00534182808022471	-0.00314450670554937	-0.000153940054007533	-0.00315579510586561	-0.00015670668977191	-7.3208419007934E-05	0.0130101772511806
2.3	0.000881280660293353	0.0051058020527803	-0.00313686359035428	0.000282328912436914	-0.00313658688711635	0.000275466009640602	0.00108121738837063	0.0129210779142877
2.4	0.00245827889818492	0.00424457950465565	-0.00306539835149473	0.000713755452949762	-0.00306794026208478	0.000709514218669014	0.0022777457952763	0.0124858492267282
2.5	0.00354256861399297	0.00282950347470288	-0.0029326097154376	0.00112127784492125	-0.00294347880255573	0.00112764995425501	0.00325403147568767	0.0116950996170344
2.6	0.0041019408179265	0.00134009777885577	-0.0027646587477669	0.00152301511372309	-0.00276109249236588	0.00151069702748477	0.00392071238251455	0.0108590410052784
2.7	0.0044573246128867	-2.76426386005324E-05	-0.00252447679298498	0.00189700859019953	-0.0025297660669724	0.00189701323462153	0.00434385499630465	0.0101621657964665
2.8	0.0048291448489838	-0.00149804445558483	-0.00224508704315285	0.00223046080174393	-0.00223725277529194	0.0022402941515947	0.00474365694491794	0.00969228734689383
2.9	0.00502309633268575	-0.00327401575287313	-0.00191052262434309	0.00253858579003244	-0.00190679289626488	0.00253815593209169	0.00535576074453466	0.00933644337361715
3	0.00470488185569622	-0.00516916275007015	-0.00151948118784447	0.0027817732535033	-0.00153435528048426	0.00278794275448609	0.0060592063989356	0.00898094671780325
3.1	0.00400105918008872	-0.00687262606317642	-0.00112055862032906	0.00296450887138043	-0.00111583088208702	0.00297289966721829	0.00669927286867288	0.00861374241867503
3.2	0.0029449638711568	-0.008428253525002	-0.000688376735393797	0.00310334931178788	-0.000690139599831801	0.00310274503950592	0.00726537498242329	0.00835743052858452
3.3	0.00161666708309448	-0.00998567179145532	-0.000237377855311888	0.00316960347228019	-0.000235750690409246	0.00316581936464565	0.00808766951279374	0.00793630429890182
3.4	-0.000232239039394513	-0.0113530461343972	0.000220472806643468	0.003154478637357	0.000214421489624726	0.00317122110911047	0.00892218222735537	0.0071143971021253
3.5	-0.00257104330884611	-0.0123939986029243	0.000649746723622021	0.00309843373639477	0.000655367516044035	0.00309843233191465	0.00936421134345587	0.00593128917241524
3.6	-0.00521269305399422	-0.0127094368201546	0.00108014484018095	0.00296293829688135	0.00108834481010722	0.00296249463042538	0.00949171940885634	0.00503304025406307
3.7	-0.00777234317555865	-0.0123465459625001	0.00148615619831934	0.00276531179418434	0.00147680508483682	0.00277912085694703	0.00970211597269285	0.00429463389448269
3.8	-0.0100825956890019	-0.0115187933413675	0.00185360937771885	0.00252395827808915	0.00185614817554224	0.00253302526209961	0.0099811195080055	0.00352987457839842
3.9	-0.0121209856946888	-0.0104323852507899	0.00218391546328806	0.00224137146689576	0.0021766821510307	0.00223971498079839	0.0101998824416488	0.00263882308572129
4	-0.014077625684988	-0.00905705481423254	0.00245065693142469	0.00191751686555385	0.00245502557096312	0.0019150512693854	0.0102958012264264	0.00178690518919003
4.1	-0.0158419415082474	-0.00723552224353463	0.00268491949943197	0.00156176955043506	0.00268369091298053	0.00156250862904951	0.010402274447109	0.00106708416040518
4.2	-0.0172136456685391	-0.00498385299658094	0.00286966223395785	0.00117113141806967	0.00287400133464206	0.00116250925799411	0.0105634545786151	0.000398846980590387
4.3	-0.0180547912783734	-0.00264318937370483	0.00300382125050327	0.000773749716879791	0.00301011934683941	0.000766037589779272	0.0108111656835997	-0.000452585389947113
4.4	-0.0186490823829202	-0.000259099593315245	0.00307804859469124	0.000355915735443057	0.00308038813739264	0.00035368968284432	0.0108857323708653	-0.0014233410922603
4.5	-0.019017798364619	0.00227224267572155	0.00310508031869527	-6.7372753256525E-05	0.00311038061452358	-7.06918661043678E-05	0.0108164070555517	-0.00242638614585114
4.6	-0.0190846221455992	0.00502986639340017	0.00307036418617723	-0.000499459259638193	0.00307152534631641	-0.000486674738088786	0.0105453046594799	-0.00341074105537667
4.7	-0.0184868088092525	0.00797853895371201	0.00297695097234421	-0.00091326152554465	0.00299217072529128	-0.000922720997602115	0.0101036764948927	-0.00430300705893947
4.8	-0.0171883217516932	0.0107939771496091	0.00282747430019597	-0.00132804193054662	0.00283594500460758	-0.00133405265901298	0.00971182160806497	-0.00502409390240874
4.9	-0.0151904092745519	0.0131893927151943	0.00261551621163835	-0.00171777311542581	0.00261965804860766	-0.00171485454966093	0.00936218159950671	-0.00567080688898819
5	-0.01280294563843	0.0150374335445417	0.00236000194884874	-0.00208132667139694	0.00236361355484857	-0.00207865081456751	0.00921571017715745	-0.00627749809158872
5.1	-0.00991365557107834	0.0164647935128759	0.00204812396808939	-0.00240071879295802	0.00205042548856734	-0.00239935661986162	0.00912542685695811	-0.00698199933271881
5.2	-0.00672755548902384	0.0172329504333709	0.00168469720643655	-0.00265716012258051	0.00168640674031241	-0.00266231375756989	0.00901298119347188	-0.00766431829096592
5.3	-0.00339872879209964	0.017215633075591	0.00128899912827332	-0.00287490717579135	0.00129214391408779	-0.00287285409537675	0.00893629308969992	-0.00830657958029113
5.4	-0.00033658756211956	0.0164451146238266	0.000854411820755206	-0.00301923006169369	0.000871505867897668	-0.00303054930130457	0.00885175243757954	-0.0092233414065587
5.5	0.00221037763059994	0.0152175857584914	0.000432881118479428	-0.00310871171996485	0.000442833568126072	-0.00311820539439632	0.00838881966678912	-0.0103215394286537
5.6	0.00432163301381755	0.0137539436906157	-9.24350486664258E-06	-0.00313214957837167	-1.77591211345679E-05	-0.00313526913837657	0.00745013733006636	-0.011162877206109
5.7	0.00611469261258871	0.012119429646392	-0.000437834672883366	-0.00308714054693067	-0.000454349571032113	-0.0030906015391917	0.00639688882336025	-0.0115640234359717
5.8	0.00764359311849108	0.0102044205154557	-0.00087426214687957	-0.00297851797922134	-0.000877891037334916	-0.00299231127782699	0.00545816482296264	-0.0118542925992468
5.9	0.00872766998410507	0.00797910021969098	-0.00126401456482012	-0.00282898180614993	-0.00127212235483096	-0.00282883642284154	0.00452989266405836	-0.0121081331911893
6	0.00916351873808527	0.00548998753478007	-0.00164281989292366	-0.00261975604398948	-0.00163932216185512	-0.00261993820998409	0.00349302592120002	-0.0122614180504803
6.1	0.00896001229659793	0.00305049442867914	-0.00197785447834625	-0.00237032077115614	-0.00197945521123856	-0.00236639178417311	0.00260861012253141	-0.0121963428105558
6.2	0.00829858820167036	0.000764788440233143	-0.0022734213262963	-0.00207034733356362	-0.00227702707029886	-0.00208198548266767	0.0019709365630435	-0.0121589120739342
6.3	0.00740197314726302	-0.00142927658775412	-0.00253971634464693	-0.00175491832843349	-0.00254869975791772	-0.00174935385154683	0.00154619261717471	-0.0123335439203459
6.4	0.00594151931706927	-0.00358617643710959	-0.00276289759826392	-0.00138693106367103	-0.00275330065614354	-0.00139164142042562	0.00112451232359924	-0.0127399102480338
6.5	0.00398349788944644	-0.00533874636808726	-0.00292534081371529	-0.00100363260785551	-0.00293313991095864	-0.000999330806288114	0.000586987060549437	-0.0133198701678102
6.6	0.00178305105651496	-0.00638282891193469	-0.00304696015563973	-0.000596320960388935	-0.00304850837001895	-0.000600275324763018	-0.000130715888252155	-0.013840865485969
6.7	-0.000353800038708863	-0.00683364841567879	-0.00311626246521839	-0.000169421088666249	-0.00312515301921413	-0.000163351665420372	-0.00112332948318803	-0.0141116624333393
6.8	-0.00246424591073553	-0.00688673924661591	-0.00311538760571915	0.000269539308223666	-0.00312652233869868	0.000274367195445095	-0.00213297627329183	-0.0140627279245283
6.9	-0.00468417561628657	-0.00647100788474894	-0.00305889753761079	0.000708177029285434	-0.00306192311058869	0.000710515783928459	-0.00306123431149079	-0.0138324515800477
7	-0.00685808138320729	-0.00552367703345093	-0.00293648017900193	0.00114046251255507	-0.00294931036991829	0.00113806930647375	-0.00389382474474399	-0.0136977144671459
7.1	-0.00887961305870317	-0.00392408981606454	-0.00276637837141738	0.00154406620508866	-0.00276280164061567	0.00155281991223755	-0.00490033197145848	-0.0133806627103668
7.2	-0.0104136501282758	-0.00174959172937877	-0.00251046873073428	0.00192754384782846	-0.00251705869908218	0.00192957742858946	-0.00578062379421145	-0.0127582649239875
7.3	-0.0113786624451056	0.0006632801439058	-0.00220926754095318	0.00225924651714817	-0.00222058409125812	0.00226426997486585	-0.00629932105357064	-0.0120857515780783
7.4	-0.0117524129860251	0.00322850676374988	-0.00185773629554218	0.00255010124534565	-0.00186469461816801	0.00256377199857968	-0.00680018364168781	-0.0114270808538564
7.5	-0.0117705698158045	0.00554515980017955	-0.00148074006603881	0.00279074204203533	-0.00147371840079216	0.00279816722425114	-0.00695133364564477	-0.0111974177046822
7.6	-0.011605603792774	0.00765469053920805	-0.00106465462110719	0.00296433542899168	-0.00106604060843191	0.0029596343367226	-0.00708787242380777	-0.0117498695241839
7.7	-0.0105567355654966	0.00976558320540213	-0.000630959481856956	0.0030759679119576	-0.000632300311150051	0.0030749118093732	-0.00751117254376561	-0.0120262470743922
7.8	-0.00902778822436452	0.011492306204021	-0.000206252520544124	0.00311338989749992	-0.000214004058330728	0.00311983364983512	-0.00824894920735569	-0.0124024721873184
7.9	0.285893334727415	-0.115781226205772	0.00087009217151376	0.00261730797591499	0.000862292473121196	0.00251761132433032	0.434941110777438	0.2389519125064
8	-0.00509166495587653	0.0135383482147691	0.000655075815709245	0.00303204739333207	0.000655147651162941	0.00303689388397935	-0.0102583582904255	-0.0127068110563612
8.1	-0.0024624839092178	0.0139430593491955	0.00104905545865119	0.00291553478659522	0.0010679571810426	0.00291671031685993	-0.0110580672459231	-0.0120841058652353
8.2	6.79792567708948E-05	0.014072530676736	0.00143766051245259	0.00274424714717486	0.00144685617123165	0.00273723320686548	-0.0119361346636164	-0.0114423999852058
8.3	0.00265816027879009	0.0135629327365874	0.00180267118818272	0.0025223563824731	0.00180086119496399	0.00253572213843714	-0.0125593004921162	-0.0107283125731956
8.4	0.00499725868774353	0.0125036050485895	0.00213467117897179	0.00226646226696324	0.00213167391104954	0.00226618652500153	-0.0130824260270879	-0.0101630213884414
8.5	0.00696771644383827	0.0110037342978804	0.00242633453676499	0.00195857268590301	0.00242537699656138	0.00196171821221143	-0.0137493284635389	-0.00964885874419802
8.6	0.00857683078585634	0.00930613987361635	0.0026872728334131	0.00161785507229156	0.00269690398501645	0.00161154154838588	-0.0145114570012003	-0.00905872811237426
8.7	0.00996091618870813	0.00732152140736258	0.00289516553282866	0.00122777049587328	0.00290072523531923	0.00122862599264541	-0.0153043481170954	-0.00829462739406859
8.8	0.0110683216785625	0.00495203393952503	0.00305718033030843	0.000820487945229519	0.00306319380199389	0.000811790535513825	-0.0160409845796819	-0.00746352396791985
8.9	0.011758232905102	0.0020780824899347	0.003159819279516	0.00038014331477421	0.00315898432463031	0.000377850361923859	-0.0164450179937312	-0.00641361879874557
9	0.0117017704815596	-0.00116810651931439	0.00319040555074732	-7.85325392989481E-05	0.00319354054636306	-7.4309499510787E-05	-0.0164892402496621	-0.00537240916022591
9.1	0.0109955037967033	-0.00450960025356119	0.00315762984213534	-0.000541622004940921	0.00316039078696242	-0.000528443169732419	-0.0162534845583122	-0.00447190317691292
9.2	0.00933728861875115	-0.00767640948200699	0.00305212405040549	-0.000983451618560038	0.00305996377422224	-0.000986315209484585	-0.0160070673066277	-0.00376606884056276
9.3	0.00693268180439385	-0.0104604835310595	0.00287825520247222	-0.00141196365953793	0.00287753294362569	-0.00141705996863696	-0.0156420564727424	-0.00308115578804733
9.4	0.00375338974052075	-0.0125410688944934	0.00264262171905413	-0.00182093907803573	0.00264925736744104	-0.00181319149797628	-0.0152278184355362	-0.00245576592589601
9.5	-3.80940717361583E-05	-0.0138483413241222	0.00234914469156561	-0.0021661030557813	0.00235667940999202	-0.00216749924628663	-0.0150450391477468	-0.00219174716733636
9.6	-0.00402200075884397	-0.0139728219896056	0.00201239190709046	-0.00247217695743335	0.00201273255376633	-0.00247118332613401	-0.0151481495021565	-0.00179985567878697
9.7	-0.00785515112458395	-0.0130779139383942	0.00162781360412521	-0.00271672664733746	0.00163334597546195	-0.00272415064765206	-0.0153259218608643	-0.00114411785810909
9.8	-0.0113593923789431	-0.0114492927529715	0.00123130072093051	-0.00291364055849374	0.00123710272829758	-0.00290513857590409	-0.0154055547418638	-0.000309725697336045
9.9	-0.0144723058260815	-0.00919756456277943	0.000822369418282041	-0.00303813071402685	0.000815031867698734	-0.00303684973976333	-0.0153698738034261	0.00055254858491618
10	-0.0172751507429199	-0.00627111818692908	0.000396596198537209	-0.00311388657569599	0.000389057406684781	-0.00312627989762755	-0.0152492823831474	0.00142903139560371
10.1	-0.0194248892159383	-0.00266916076156801	-3.47233003772989E-05	-0.00313693850924356	-4.49141100712455E-05	-0.00313155067097369	-0.0149858395847689	0.00219723960003919
10.2	-0.0206987559619543	0.0013645529508982	-0.000466821282770681	-0.0030994024312213	-0.000470221895023883	-0.00309664410198342	-0.0146026982323558	0.00296087834657049
10.3	-0.021084368516148	0.0055409935765182	-0.000886557204399098	-0.00300142856228985	-0.000878431015633963	-0.00301041637138229	-0.0140319560091303	0.00364902969749914
10.4	-0.0207054132763644	0.00965876636041074	-0.00127637570014654	-0.00286115219319048	-0.00127461674217117	-0.00286732375345019	-0.0132028391303074	0.00399423521491299
10.5	-0.019684681791103	0.0138101776343175	-0.00166845006981024	-0.0026805309333629	-0.00166551080821665	-0.00266745699494216	-0.0124944103655094	0.00404902495303424
10.6	-0.0179397763892088	0.017876527464449	-0.00203111731890384	-0.00242778117744672	-0.00202885973117318	-0.00243159797239705	-0.0120514487891804	0.00384143407820374
10.7	-0.0150266389718142	0.0218844935171271	-0.00236419969622898	-0.00213810079543917	-0.00236074204444658	-0.00213270751938997	-0.0117784839116123	0.00400157717491253
10.8	-0.0112720449647383	0.0252672008494511	-0.00265657367565304	-0.00178181016411499	-0.00265117289288609	-0.00179081256993526	-0.0115522170138965	0.00415906793936357
10.9	-0.00691359496236929	0.0279957927309431	-0.00288863671099614	-0.00140164726749	-0.00289393751961784	-0.00140095449241524	-0.0114405394252503	0.0043061829630691
11	-0.00183508780842814	0.0298287712578356	-0.00306873502837295	-0.000969133695933184	-0.00307365163997027	-0.00097606275182267	-0.0112081387653637	0.00455510691144454
11.1	0.003698642815892	0.0307131824282391	-0.00319107576553782	-0.000520594718253981	-0.00317994261348718	-0.000517647881352029	-0.01094459622591	0.00477178323280576
11.2	0.00958341112994474	0.0303972482871546	-0.00322407555796436	-5.4935738092512E-05	-0.00323143508358768	-5.98696981883717E-05	-0.0105807156808634	0.00505842036062642
11.3	0.765898710915659	0.2461123111727	-0.0116716844237704	-0.0119431730186288	-0.0122476863506677	-0.00897450439536067	0.536430954347046	2.86103671830207
11.4	4.12175272799146	7.26076514701435	0.00419167250662749	-0.0266172667910445	0.00308545338539314	-0.0258079646451938	-0.580008172699577	0.581085887767456
11.5	10.085215607419	-3.12974824489934	0.0439763869073974	-0.0275674710367621	0.043253596687092	-0.0282869994654916	-0.228189563657411	-2.33991516297478
11.6	0.0290173987724181	0.0161449777205965	-0.00270863081333173	0.00169976718659519	-0.00270854724001898	0.00170275033857334	-0.00772086452017781	0.00459050342109098
11.7	0.031691574124188	0.0105841774734038	-0.00241953365197946	0.00204803726158875	-0.00241989952486149	0.00205673719011837	-0.00721151735501719	0.00420661247287768
11.8	0.0332268677229093	0.00451902160093392	-0.00210146545185561	0.00236425065113655	-0.00210555666163453	0.00236605388671312	-0.00667421136583824	0.00370853976122795
11.9	0.0333624852829634	-0.00176626821937312	-0.00173854134367997	0.00261730650926997	-0.00175145040566412	0.0026218997828136	-0.00631611470542488	0.00308777346324224
12	0.0325052477163754	-0.00800532908031989	-0.00136239298769426	0.00281541838987624	-0.0013617729097342	0.00281681059085498	-0.00579932956703921	0.00271858143837581
12.1	0.0304162340919403	-0.0136814428051037	-0.000960082698276214	0.00297347172593508	-0.000963638981465355	0.00297267839514069	-0.0057209309070117	0.00221868791326605
