# GHZ S RI R 50
0.2	0.00637786278493418	-0.00125901799082435	0.00304834385725638	-0.000899692176487803	0.00305871775678915	-0.000892887714544592	-0.0135512168822871	0.00242712642960805
0.3	0.00608390780992153	-0.00182404078472484	0.00290325225461957	-0.00132429628868524	0.00289601745076899	-0.00131134898889548	-0.0133621519242296	0.00400698727404576
0.4	0.00613431437376766	-0.00235414870342407	0.00266995672019051	-0.00169688877314817	0.00267521151744235	-0.00170545654485792	-0.0125623902110652	0.0056679673561759
0.5	0.00623901757141098	-0.00327836454540887	0.00240874989018609	-0.00205360860552165	0.00242025888328913	-0.00206586557082213	-0.0112587564937942	0.00676962846815064
0.6	0.00599427529888748	-0.00461146163136587	0.00209365069788224	-0.00236686894810591	0.00209284839207813	-0.00237400961000154	-0.0100158128387184	0.00711166562042154
0.7	0.0049604887815475	-0.00603100629893483	0.00174432671715177	-0.00264207671470908	0.00174237353433519	-0.00264227019502136	-0.00937789717477554	0.00702832372568781
0.8	0.00322564399692873	-0.007031880887634	0.0013578258936188	-0.00285580745955597	0.00134524593197965	-0.00286031247503553	-0.0093730153291637	0.00711832093719827
0.9	0.001034176425068	-0.00712054564808564	0.000941259480127233	-0.00301509936809475	0.000942265541789409	-0.00302576506767158	-0.00969478790166854	0.00773556839423704
1	-0.000921414546108304	-0.00627882143832817	0.000518679925346994	-0.00311442313788193	0.000508857717447621	-0.0031151413160651	-0.00978435592785603	0.00899799391083651
1.1	-0.00222250128429274	-0.00494548762695223	6.71090683422808E-05	-0.00314010044391531	6.35977611767554E-05	-0.00315766161535929	-0.00930510846224752	0.0106232089006744
1.2	-0.00288133624810809	-0.0039478098405095	-0.000369881925850396	-0.00312793339317305	-0.00037068878325644	-0.00312586767449785	-0.00787797727830153	0.0119833286843682
1.3	-0.0036673133985204	-0.0036167968498888	-0.000791480149445371	-0.00304528365384978	-0.000794701107168399	-0.00304728017387468	-0.00583950495824419	0.0126013527108567
1.4	-0.00467731243705851	-0.00326331290267584	-0.00120769938527624	-0.0028997230130173	-0.00120648328180588	-0.00290522449040976	-0.003978522150598	0.0123106469224275
1.5	-0.00508595698039293	-0.00240512165849141	-0.00160478013169039	-0.00270824942383352	-0.00160315326509274	-0.0027167033678144	-0.00249935127009206	0.0116504568622844
1.6	-0.00502121386288363	-0.00139578671563738	-0.00196355483517191	-0.00246127038856714	-0.00196374660689533	-0.00246648295889649	-0.00184413394152992	0.0111099023568477
1.7	-0.00478954704286612	-0.00036179397005469	-0.00229235199160624	-0.00216999479531131	-0.0022933397018436	-0.00216375875167077	-0.00149132038616771	0.0108577887635313
1.8	-0.00441994041579106	0.000968552552266446	-0.00256585030182465	-0.00182328870481082	-0.00257676447933099	-0.00182895888368788	-0.00127554010829479	0.0109004820228627
1.9	-0.00358480953179671	0.00231417509674743	-0.00279500556952079	-0.00145580509582696	-0.002807452814524	-0.00144971490730619	-0.000968861594144391	0.0112579877431284
2	-0.00223943049515869	0.00339752857009749	-0.00297514678829554	-0.00104947831816917	-0.00298478104901192	-0.00104481139810348	-0.000377695908474814	0.0117774422535524
2.1	-0.000582971894766347	0.00383878888063389	-0.00309277299313315	-0.0006204227651802	-0.0030886827824772	-0.000622400672598287	0.000596575000707629	0.0120358067125876
2.2	0.000944800072878702	0.00369099986493682	-0.00315316357632944	-0.00017996218991333	-0.00316446507352271	-0.000182829217449563	0.00170008035256043	0.0118953471559541
2.3	0.00210281387926539	0.00309556218286707	-0.00314984387701736	0.000266436761534972	-0.00314952913796027	0.000259550285421735	0.00250090305458351	0.0114052396047964
2.4	0.00290798945075313	0.00249189235180348	-0.0030769067828791	0.000707666257103051	-0.00307944512210116	0.000703404882222437	0.00300728474960507	0.0110630618643181
2.5	0.00367446465696334	0.00191953994060243	-0.00293778322617204	0.00112186313420682	-0.00294867240620163	0.00112824097155382	0.0035565240669083	0.0109094261783416
2.6	0.00460127757734419	0.00115471320485823	-0.00276093768754745	0.00152516197754282	-0.00275738828965328	0.00151284841483934	0.00437697731984534	0.0107579476825471
2.7	0.00551107161306658	-1.89603642227763E-05	-0.00251219170993805	0.00189485032334396	-0.00251746235351922	0.00189486442313208	0.00521602577179622	0.0103491878492633
2.8	0.00618243540257544	-0.00151885074230356	-0.00222746328337484	0.00221895426605455	-0.00221966681046598	0.00222871302863621	0.00586376459630977	0.00991796695081809
2.9	0.00663258318045604	-0.00317589596446411	-0.00189318127119269	0.00251458013253575	-0.00188948622235536	0.00251415496074431	0.00662184062733276	0.00968290383465211
3	0.00681939157510991	-0.00503281111713188	-0.00150932411412737	0.00274542737286353	-0.00152404223976214	0.00275148538113756	0.00764768520180413	0.00947262551426876
3.1	0.00666533060769912	-0.00715438470498002	-0.00112365042431614	0.00291900752076518	-0.0011190348001138	0.00292731683773323	0.00876264495512011	0.00894780199091391
3.2	0.00575730686077008	-0.00939250841576716	-0.000709493289487912	0.00305464334574049	-0.000711226395923799	0.00305402996116486	0.00955823395000733	0.00822679606744151
3.3	0.00414451903254555	-0.0114551975106853	-0.000278073036584057	0.00312573361334831	-0.000276414496922295	0.00312202042258889	0.0102203463866859	0.00738880376752855
3.4	0.00195343355373483	-0.0129326235001982	0.000162413840543777	0.00312397167028051	0.000156133118026399	0.0031404248159615	0.010742779242491	0.00647043501222549
3.5	-0.000421108994321272	-0.0139181377039161	0.000579616520704671	0.00308768658765701	0.000585193112895493	0.00308780314066255	0.0110607642060336	0.00545790166841133
3.6	-0.00297727427215273	-0.0144651660955834	0.00100644077064109	0.0029768283964291	0.00101461944598864	0.0029765788640708	0.0113048428017445	0.00456344308214278
3.7	-0.00570242908966967	-0.0145715559852421	0.00141874122985754	0.00280446289614023	0.00140903972444394	0.00281805118736534	0.0115711482896568	0.00360395837575601
3.8	-0.00860871629477015	-0.014028986685064	0.00180173475756857	0.00258477228276143	0.00180406311294516	0.00259395536246608	0.0116007336182114	0.00259057999185813
3.9	-0.0112845494948234	-0.0127165713634855	0.00215487984295086	0.00231680571588653	0.00214760735972898	0.00231496161003155	0.0114143614544715	0.00175068670490469
4	-0.0134746901335496	-0.0108466698086755	0.00244823284178856	0.00199747464929652	0.00245271905742586	0.00199506203051768	0.01132178160675	0.00122684525894297
4.1	-0.0151297139370197	-0.00873283380771793	0.00270883175804479	0.00163610755183222	0.00270756778277275	0.00163683978165637	0.0115597607955472	0.000761617354285505
4.2	-0.0164749033844969	-0.00645930466253283	0.00291531151996084	0.00123036164335979	0.00291984569296773	0.0012216122749804	0.0118907999176882	6.47501556458474E-05
4.3	-0.0175446578477396	-0.00400263973954898	0.00306299784694189	0.000811687520334421	0.00306948615428368	0.000803854008781721	0.0120674495911673	-0.000879780903698188
4.4	-0.0182885622923479	-0.00118290489385738	0.00314086326336254	0.000370104016875102	0.00314325609250042	0.000367837159156978	0.0119365939048254	-0.00176242784717761
4.5	-0.0184045242326078	0.00187528682816792	0.00316213658336121	-7.47755711893196E-05	0.00316752791435852	-7.81663343594392E-05	0.0118176444796312	-0.00246306481420555
4.6	-0.0178983714495032	0.00482547367586579	0.00311414853551718	-0.000522721084514454	0.00311539269086032	-0.000509749548009631	0.0117443524696304	-0.0032333120599247
4.7	-0.0168170149591665	0.00754466992131733	0.00300368889633056	-0.000943998197017401	0.00301901220579465	-0.000953668004056863	0.0115951878772319	-0.00413179069475649
4.8	-0.0154335538792797	0.0100027425215429	0.00283740946673639	-0.00135777756063351	0.00284589517462489	-0.00136389144617446	0.0112395138249581	-0.0050237375360433
4.9	-0.0134512425966238	0.0122836679839991	0.00261276489707011	-0.00173914249982403	0.00261693728554506	-0.00173624077883072	0.010821503924304	-0.00568679601746319
5	-0.0109072842754497	0.0140809328816144	0.00235146739823157	-0.00209000129596121	0.00235508857602332	-0.00208733994949607	0.0107150732144511	-0.00613972059496328
5.1	-0.00784058746393994	0.0151887951726479	0.00204188149152896	-0.00239613452963426	0.00204417827917481	-0.00239477690446481	0.0108612044507189	-0.00680217739212668
5.2	-0.00485889399451854	0.0154969606318985	0.00168802751307051	-0.00264282594075827	0.00168974861790998	-0.00264795696781451	0.0109033153839423	-0.00771203690252012
5.3	-0.00208139337747056	0.0153472548487844	0.00130676918805585	-0.00285740725353276	0.00130989006023157	-0.00285533651026132	0.0106732791120536	-0.00861975668394098
5.4	0.000585215638911602	0.0149176111129902	0.000887703837871159	-0.00300715761413024	0.000904911405497621	-0.00301827522841935	0.0103047888186345	-0.0095243867195075
5.5	0.00320802300221254	0.0141038344522689	0.00047875822681186	-0.00311009116400906	0.000488871935110992	-0.00311946463170224	0.00977619674448158	-0.0103877617032764
5.6	0.00565510750601946	0.0126909644038095	4.23786840080016E-05	-0.0031535960095815	3.38566518067151E-05	-0.00315687729788635	0.00907488010015198	-0.0111067364022293
5.7	0.0075309688646451	0.010786841261268	-0.000389947562169379	-0.00313132001791719	-0.000406599011961669	-0.00313510608203947	0.0082338565150533	-0.0116928817795813
5.8	0.00879212971373839	0.00863553613344062	-0.000840870793833776	-0.00304407921422055	-0.000844337816285288	-0.00305816929275306	0.00729351069304046	-0.0123880771626354
5.9	0.00947220054488567	0.0065882400428072	-0.00125364557689778	-0.00290950169325779	-0.00126193664824607	-0.00290946378120261	0.00600308515637716	-0.0129161600809472
6	0.00981006523790636	0.00458494559990257	-0.00166191162112414	-0.00270524144268882	-0.00165831877387303	-0.00270539539710189	0.0045068361464884	-0.0129848526348414
6.1	0.00989725390525462	0.00249609195108685	-0.00202729689264879	-0.00244865788840881	-0.00202896079898324	-0.00244461837598187	0.00338438571357088	-0.0126127426504345
6.2	0.00954730700478551	0.000194495094863192	-0.00234899017433041	-0.00212935928093051	-0.00235273547386278	-0.00214135078964072	0.00271821471190166	-0.0123669329728176
6.3	0.00866280325478215	-0.00210057847691946	-0.00263291900690254	-0.00178590035635511	-0.0026421272479316	-0.0017800859090931	0.00216939074679592	-0.0124837750722136
6.4	0.00732661433618532	-0.00418000799658412	-0.00286142002413341	-0.00138435843177903	-0.00285162417456316	-0.00138934554017863	0.00164069707841172	-0.012674233007413
6.5	0.0057781545390883	-0.00600136261567551	-0.00301590707205461	-0.000968735896583761	-0.0030238068455037	-0.000964173338281708	0.0012698989726657	-0.0129067505630502
6.6	0.0038749580494518	-0.00752771988176577	-0.00311831965988677	-0.000534827560536677	-0.00311999122500273	-0.00053881914904523	0.000977809624836783	-0.0133177490691885
6.7	0.00151954469390833	-0.00851359288796855	-0.00316049754620233	-9.12154602850649E-05	-0.00316934529531546	-8.48390923299233E-05	0.000266271497349454	-0.0138252296100512
6.8	-0.00109774115931611	-0.00865441715350431	-0.00312940481021799	0.000352096229254776	-0.00314048948757329	0.000357245236825288	-0.000832449722437461	-0.0140425320808429
6.9	-0.00354486325849568	-0.00799003215208123	-0.00304517516576028	0.000783433599010618	-0.00304814729542039	0.000785848671417224	-0.00193627784048157	-0.0138825083462766
7	-0.00550411664309476	-0.00672938742982516	-0.00290183908270945	0.00119896625879218	-0.00291467497864865	0.00119685468622965	-0.00287297926893295	-0.0134593746802893
7.1	-0.00710353347339411	-0.00528515414889651	-0.00272077702211461	0.00158084293983869	-0.00271707487039506	0.00158947480433976	-0.00361963079122859	-0.0128893708176752
7.2	-0.00853817298400126	-0.00369361792355845	-0.00246467610702255	0.00194165672887328	-0.00247118323665983	0.00194375386588291	-0.00407689917366022	-0.0123737981885929
7.3	-0.00997282124449601	-0.00178388343837712	-0.0021728557118214	0.00225526204437672	-0.00218403393157324	0.00226032375876354	-0.00442161609896825	-0.0121551939209822
7.4	-0.0112045131004963	0.000559378357937506	-0.0018369227655062	0.00253590950283213	-0.00184379207549834	0.00254949612352282	-0.00495574483770626	-0.0122961436942643
7.5	-0.011816375273581	0.00340698082634036	-0.00147730211725683	0.0027761751961152	-0.0014703215418498	0.00278357477287727	-0.00564529872405957	-0.0122763146817189
7.6	-0.0113822021399862	0.00645331311233086	-0.00107563475713878	0.00295897181347563	-0.00107700202673566	0.00295426737091618	-0.00634918545677791	-0.011982220158896
7.7	-0.0105963578591095	0.00891203943960024	-0.000648894253130083	0.00308674092603544	-0.000650235946701348	0.00308567348407886	-0.00702494259212671	-0.0125735008289151
7.8	-0.0089136449385538	0.0111073987568703	-0.000221182371693031	0.00314276553580452	-0.000229035934436011	0.00314923967397038	-0.00806385241100998	-0.0126986330355855
7.9	-0.00664130628057804	0.0128428367733544	0.000225547186788605	0.00315563685946856	0.000233536726039402	0.00315714942483144	-0.00910048377080582	-0.0125151695442146
8	-0.00342739265976689	0.0137608336107916	0.000675756210280607	0.00308627948641481	0.000675843062968532	0.00309121541734333	-0.00990919816290175	-0.0116615972243868
8.1	-0.000417136721338936	0.0138658283927614	0.00109581941041354	0.00296752731493137	0.0011151261667469	0.00296856637027647	-0.0105967993501735	-0.0111491766734583
8.2	0.00236178651701385	0.0132390042133169	0.00150956672839221	0.00278125325224382	0.00151885340627134	0.00277395146283291	-0.011043574486067	-0.0105320451284474
8.3	0.00479062724798475	0.0122505794997872	0.00189262145941438	0.00253303188669902	0.001891064596553	0.00254669966436264	-0.0115271959098922	-0.0100283245597456
8.4	0.00699569113219918	0.0110692677646426	0.00223113501973815	0.00224375432649294	0.00222808239757028	0.00224355677969479	-0.0121668814729417	-0.00950873662659048
8.5	0.00910109083246233	0.00946861966124239	0.00251485941929142	0.00190085570913051	0.00251399325449257	0.00190406501819181	-0.0128818917606462	-0.00874612576663754
8.6	0.0108977794835211	0.00734434655858946	0.00275433437096321	0.00152946043542219	0.00276377989170618	0.00152278430860831	-0.013357863359034	-0.00785881396648141
8.7	0.0121381883997625	0.00468166387645857	0.00292936092326049	0.00111898587397503	0.00293493207288709	0.00111963771726448	-0.0135972213786884	-0.00713118816498768
8.8	0.0125874610644921	0.00188038755923879	0.00305312232853003	0.000704787637629582	0.00305876722812632	0.000695973107749095	-0.0139852875322077	-0.00665493449416474
8.9	0.0125291828660775	-0.000843062356416329	0.00311735418719152	0.000272602360788326	0.00311646039275652	0.000270375718615957	-0.014406872644386	-0.00599988043605116
9	0.0121190726290843	-0.00357297940691214	0.00311581430772832	-0.000164013783703801	0.0031189936275197	-0.000159972383589245	-0.0146517094635835	-0.00507997537332106
9.1	0.011265380846724	-0.00643793230586195	0.00306191010619875	-0.000595357513651697	0.00306488200743035	-0.000582588978840552	-0.0145520964922013	-0.00414238843888823
9.2	0.00964143239465218	-0.00930502148846484	0.00294949634066328	-0.00100135924370546	0.0029570673472253	-0.00100425912986025	-0.0142847692978309	-0.00348001319017643
9.3	0.00725430890938276	-0.0117094579398878	0.00278269501179021	-0.00139551349547722	0.00278195028722339	-0.00140045575221955	-0.0140500523246591	-0.00295222476599048
9.4	0.00443760773673444	-0.0134940347949067	0.00256591774670047	-0.00177700006567363	0.00257238897201207	-0.0017694803317305	-0.0139686781496659	-0.00253760261479845
9.5	0.00126558452741548	-0.0144265811055175	0.00229886009217861	-0.00210645583138514	0.00230621656356443	-0.00210779517992908	-0.0138609742975229	-0.00179966444401732
9.6	-0.00215143786956038	-0.0149458809027988	0.00199024584877695	-0.00240939697785466	0.00199057279770515	-0.0024084204815146	-0.0138233038237504	-0.00119058020467173
9.7	-0.00590126274118011	-0.0147132032537925	0.00162999994928519	-0.00266298163345486	0.00163552289904375	-0.00267024866776537	-0.0137348610376974	-0.000599261526970532
9.8	-0.00980340666311768	-0.0135225113364593	0.00124898715429208	-0.00287726529656827	0.00125465848286545	-0.00286877901273751	-0.0137518590835156	-7.43348295955015E-05
9.9	-0.0134727736567717	-0.0111301586891599	0.000844041561250179	-0.0030226554727786	0.000836715473692064	-0.00302143646755473	-0.0140454915512971	0.000622515876468196
10	-0.016403413994302	-0.0079509256915141	0.000410793242766284	-0.00311695552744865	0.000403296903228251	-0.0031294008418682	-0.0142077656967008	0.00156841252444817
10.1	-0.0185078615687505	-0.00425834200514607	-3.6976054419511E-05	-0.00315081565937384	-4.72084167074725E-05	-0.003145397127772	-0.0140144399196568	0.00254098016939608
10.2	-0.0198871628753373	-0.000251259261365381	-0.000489561613805531	-0.00311266783052162	-0.000492962082067664	-0.00310987272346547	-0.0135294344003573	0.00333550651221723
10.3	-0.0205015720896914	0.0041354565560926	-0.000927474472302345	-0.00300190967186499	-0.000919429292256733	-0.00301103363078014	-0.0129945986888575	0.00385847169649989
10.4	-0.0200673167204172	0.00875292486961411	-0.00132747913679535	-0.00283933707470341	-0.00132582911753805	-0.00284554159451177	-0.0124404699437276	0.00415485239227344
10.5	-0.0185237846444039	0.0132354622296658	-0.00171784645594562	-0.00263098706190609	-0.00171463999426946	-0.00261804261766373	-0.0119422063719883	0.00445505719668494
10.6	-0.0159075551076285	0.0172475787807775	-0.00206466592560009	-0.0023518803163325	-0.00206252425652724	-0.00235570596146681	-0.011409490184525	0.00478402068806623
10.7	-0.0126875723059676	0.0206691926874379	-0.00237001655144921	-0.00204314130663239	-0.00236649754503104	-0.00203792912679846	-0.0108173147133058	0.00502709941637371
10.8	-0.008869924191927	0.023559591556856	-0.00262622511447825	-0.00168066987831395	-0.00262115082303341	-0.00168955607500242	-0.0103777447573564	0.00513477984616
10.9	-0.00445705928768996	0.0258352972184787	-0.002820823248041	-0.00130924424924467	-0.00282594518350237	-0.00130848496766927	-0.0101108609498073	0.00529486604760847
11	0.000665891623075717	0.0272482489592824	-0.00296769396471508	-0.000901025573932659	-0.00297250635961479	-0.000907650276488767	-0.00980824389348167	0.00571721297063793
11.1	0.0060826057963662	0.0274597112190769	-0.00306736815995535	-0.000488647678126897	-0.00305666254378838	-0.000485856790093033	-0.00918740135529834	0.00613907565899643
11.2	0.0113571044351829	0.0264520002729962	-0.00309349948155561	-6.62772708512926E-05	-0.00310054071626673	-7.10427164849137E-05	-0.00826420503263512	0.00631427607909596
11.3	0.0163146459129904	0.0245708855709021	-0.00306940591522908	0.000366692000865796	-0.00308074085781156	0.000356767561247041	-0.0072980638309792	0.00621883521297515
11.4	0.0207792767870538	0.0218786173581745	-0.00300376892784562	0.00078103006109251	-0.0029989689251773	0.000788519630338618	-0.0065255880756383	0.00577296014884588
11.5	0.0248245222296676	0.0183387386006228	-0.00287288483432722	0.0011873061235584	-0.00287571386958666	0.00119743315907066	-0.00608639450782075	0.00511477284778249
11.6	0.0282990949662862	0.013901721280721	-0.00269289219822793	0.00157373767273779	-0.00269290250541533	0.00157664846604517	-0.00568777197593397	0.00448738174010482
11.7	0.0307822977030364	0.00879765574795784	-0.00244574479366128	0.00193030646620217	-0.00244639729507366	0.0019388402200071	-0.00534042577885491	0.00364937197416808
11.8	0.0322762698748865	0.00342194243802248	-0.00216211819157277	0.00226880174047967	-0.00216623123851253	0.00227044662996104	-0.00528871043927685	0.0027579369239635
11.9	0.0330167163908366	-0.00197917983862871	-0.00182043940112371	0.00255459324651965	-0.00183347046709952	0.00255875356455641	-0.00548418943054946	0.00246148219688378
12	0.03278661639102	-0.00788338308723886	-0.00144980527679398	0.00278826680320901	-0.00144922278341053	0.00278968301729104	-0.00581269029572297	0.00216500448602362
