# GHZ S RI R 50
0.2	0.00638038485130806	0.00111889379886857	0.00304827472613817	-0.000897719960570575	0.00305864257938825	-0.000890910725748228	-0.0135510447535983	0.00478842571421427
0.3	0.00640953554678753	-0.0008821670208949	0.00290415478629297	-0.00132090831004736	0.00289690728205385	-0.001307971221251	-0.0130433015534864	0.00492451208225337
0.4	0.00599290245964701	-0.00231432577387803	0.00267278901833231	-0.00169248549181981	0.00267805804199205	-0.00170104464447647	-0.0127170704150283	0.00567564794510948
0.5	0.00536895774491818	-0.00343314896133556	0.00241433463715246	-0.00204912395215223	0.00242587574857833	-0.00206136052502602	-0.0121520595352747	0.00657515285088403
0.6	0.00463135330508789	-0.00437863481596283	0.00210224869894747	-0.00236374655927971	0.00210146476806281	-0.00237089696947148	-0.0114172710690865	0.00729932824503774
0.7	0.00361422373720116	-0.00520697214764407	0.00175549204102207	-0.00264187430656774	0.00175353574349524	-0.00264207396977283	-0.010784221613751	0.00780875470605203
0.8	0.00234784848236138	-0.00584365169223382	0.00137029255946717	-0.00285982331547218	0.00135769045662481	-0.00286437905490706	-0.0103342063569087	0.00827849943879634
0.9	0.000740020318816164	-0.00604350633940786	0.000953189133469547	-0.00302404858968006	0.000954228495981988	-0.00303475236183217	-0.0100842954932702	0.0088160833497419
1	-0.000925203361286664	-0.00570689728639041	0.000528008352596344	-0.00312811610711007	0.000518140939492698	-0.0031288593341539	-0.00986906519767829	0.00961015908669372
1.1	-0.00243530977242507	-0.00489781178322574	7.17446165015051E-05	-0.00315739955535576	6.82377093255959E-05	-0.00317506275053089	-0.00955367067784469	0.0107280098578878
1.2	-0.00360131616219679	-0.00405660873918146	-0.000371215443932993	-0.00314700030285393	-0.0003720277919403	-0.00314492229748499	-0.00856986527416103	0.0119214310622444
1.3	-0.00472004976693617	-0.00351378296573361	-0.000799222965492711	-0.00306364383452097	-0.000802465932100292	-0.0030656499223888	-0.00681731246009287	0.0127111680555985
1.4	-0.00576367260757813	-0.00297558633852671	-0.00122132048063834	-0.00291487808123158	-0.00122010875081105	-0.00292041584553697	-0.00498097238900132	0.0125982364065785
1.5	-0.00617312759555844	-0.00195164093015649	-0.0016227345309178	-0.00271820306312118	-0.00162112636320793	-0.00272670994334225	-0.00348693366592783	0.0121045996787687
1.6	-0.00599975221239302	-0.00065979490566948	-0.00198348513724125	-0.00246481279895279	-0.00198369997033607	-0.00247004971656431	-0.00275382253964014	0.0118134399540208
1.7	-0.00546143655927151	0.00055835639017932	-0.00231172314939521	-0.00216697142999517	-0.00231268396479263	-0.00216070684628454	-0.00211024312632874	0.0117318674743207
1.8	-0.00475720413109545	0.00182894020230031	-0.0025821850817956	-0.00181466697898595	-0.0025931578165213	-0.0018202949711754	-0.00158564748027193	0.0117043002980815
1.9	-0.00376694856847274	0.00294693923415371	-0.0028067100268509	-0.00144343410261465	-0.00281914404855552	-0.00143727020519961	-0.0011339172581257	0.0118430310335435
2	-0.00247440281969086	0.00384321259632505	-0.0029814534801588	-0.00103562492437672	-0.0029910694004167	-0.00103090972022935	-0.000594238345193703	0.0121790344533165
2.1	-0.000935464101893943	0.00426616888811106	-0.00309404300002741	-0.000607435568925984	-0.00308996262790523	-0.00060942949053368	0.000262371137715371	0.012413165892937
2.2	0.000583502899831213	0.00422225734602066	-0.00315073310691246	-0.000169675477210325	-0.00316203302085328	-0.000172503515795249	0.00134425378803339	0.0123704692122571
2.3	0.00188658972285384	0.00368642715945487	-0.0031456890953243	0.000273037701843628	-0.00314538980501293	0.000266158342937167	0.0022696913623977	0.0119488385447425
2.4	0.00287539166870539	0.00299218611131657	-0.00307319290872299	0.000710667003401788	-0.00307573394944548	0.00070641262624207	0.00294259819089436	0.0115276969615353
2.5	0.00369018609266199	0.00219256358094799	-0.00293635119349146	0.00112240216629594	-0.00294723434954747	0.00112878119311147	0.00354596714212239	0.0111774062227669
2.6	0.00449720812066856	0.0012583618640065	-0.00276279082652243	0.00152515078107841	-0.00275923607299326	0.00151283192638599	0.00426777865805008	0.0108684169629997
2.7	0.00526014739842726	5.87646588604273E-05	-0.00251725175298807	0.00189651900179737	-0.00252253085386944	0.00189653025186143	0.00497502718260955	0.010429160258025
2.8	0.0058629175755354	-0.00141771094802768	-0.00223454041822912	0.00222428231906372	-0.00222672597459436	0.00223407134037015	0.00555982894321986	0.0100220735353451
2.9	0.0062589456741996	-0.00309451264916778	-0.00190009832450467	0.00252486386362359	-0.00189638883609908	0.00252443624599083	0.0062848455003506	0.00978638855029403
3	0.00633491521214058	-0.00495975106680286	-0.00151333501541366	0.00276066029318884	-0.00152811753467301	0.00276676581283815	0.00724341838449727	0.0095739804611055
3.1	0.00605965870417242	-0.00697831982405293	-0.00112229431493883	0.00293796347128586	-0.0011176318511565	0.00294630657384072	0.00827187098229903	0.00912392543671258
3.2	0.00512917694955958	-0.00905729138328842	-0.000700792971615362	0.00307495971294814	-0.000702538483723286	0.00307435006647374	0.00906324746793147	0.00853205527219412
3.3	0.00359088713826582	-0.0110169015786886	-0.000261339453868426	0.00314413681468369	-0.000259693661745349	0.00314039401706224	0.00981581067711496	0.00777134395534584
3.4	0.00147052485256125	-0.0124833742936819	0.000186308625370047	0.00313696531275416	0.00018012131889503	0.00315353978951639	0.0104314601586803	0.00683473307644515
3.5	-0.000913335661929008	-0.0134824985473726	0.000608518287324875	0.00309265778989205	0.000614114037222515	0.00309272592806269	0.010774498138688	0.00575288845036997
3.6	-0.00349733823436672	-0.0139568408764695	0.00103691216932867	0.00297178814135645	0.00104510139796996	0.00297145888095388	0.0109865784665392	0.00485778450786172
3.7	-0.00617634340404172	-0.0139399075723568	0.00144680246929406	0.00278916314267582	0.00143724212248243	0.00280284578576026	0.0112587816518705	0.00393881921361164
3.8	-0.00893485490159011	-0.013324958062386	0.00182368989269027	0.00256065836860887	0.0018261055917379	0.00256979688375898	0.0113567920240039	0.00294579236803581
3.9	-0.0114569739873328	-0.0120560317323125	0.00216783909832803	0.00228666454817098	0.0021605795621751	0.00228489715520143	0.0112382124005789	0.00205511497579194
4	-0.0135773555773294	-0.0102855399285981	0.00245069453597229	0.00196526503466169	0.00245513430508955	0.00196282886311528	0.0111425912434932	0.00145068789659626
4.1	-0.0152281351751101	-0.00823563317715419	0.00270085818114709	0.00160575876067405	0.00269960825594074	0.00160649451017783	0.0113228512185319	0.000951577556333958
4.2	-0.0165538253985494	-0.00598625104584822	0.00289859161866448	0.00120556323297813	0.00290304470539308	0.00119685969631913	0.0116140750309257	0.000280259444004616
4.3	-0.0175702089137458	-0.00357929336273608	0.00304060447163992	0.000794904118940249	0.0030470137270346	0.000787113274206973	0.011799649077655	-0.000650044342266502
4.4	-0.0182845120398843	-0.000872266241638091	0.00311653879273081	0.000362435391151348	0.00311890924681734	0.000360182883468297	0.0116906356411555	-0.00155290967307121
4.5	-0.0184591724783002	0.00205921641886856	0.00313951574171722	-7.39843263093476E-05	0.00314486876935845	-7.73503898432514E-05	0.0115527064426056	-0.00229788480547566
4.6	-0.018084518577362	0.00495297257428109	0.00309622880445076	-0.000515515006164171	0.00309744851899272	-0.000502619335240891	0.011433212720826	-0.0030718429787033
4.7	-0.017120538478736	0.00771751860465934	0.00299211259743422	-0.000933529305048427	0.00300738689667269	-0.000943123840286047	0.0112364888682692	-0.00393306944070863
4.8	-0.0157660111244147	0.0102641035543558	0.00283225113702308	-0.00134735223347645	0.00284072610321379	-0.00135342896581069	0.0109051484650524	-0.00477418085655651
4.9	-0.0137817810325356	0.0125794345659774	0.00261254089383501	-0.00173172840791359	0.00261670198201409	-0.0017288226178091	0.0105183272126504	-0.0054366867449196
5	-0.0112658081672985	0.0143904784810252	0.00235348867934137	-0.00208742064808791	0.00235710685513239	-0.0020847557080734	0.0104129869211112	-0.00592575324828505
5.1	-0.0082315383631609	0.0155641463735783	0.00204290834442473	-0.00239868175062075	0.00204520740787413	-0.00239732363728669	0.0105243301389409	-0.00660094364994811
5.2	-0.00519892058219449	0.0159678579976936	0.00168509724114183	-0.00264909707221567	0.00168681081693249	-0.00265423737397387	0.0105535988918098	-0.00747968526738039
5.3	-0.00229107101812554	0.0158423366367502	0.00129789001488059	-0.0028646896783181	0.00130102111494185	-0.00286262803289624	0.0103611803605923	-0.00836030784547506
5.4	0.000472246871239339	0.0153279055172976	0.000872497447118043	-0.00301189351923338	0.000889649848171524	-0.00302309937148686	0.0100311973243074	-0.00928991473009025
5.5	0.0030847510391281	0.0144085982438901	0.000458519747596624	-0.00310900720501591	0.00046856102260313	-0.00311843206916731	0.00948295987872156	-0.0101962085677289
5.6	0.00545828269609161	0.0129656138651128	2.0017395027954E-05	-0.00314404812085783	1.14988424400583E-05	-0.00314725909403959	0.00871659241453923	-0.0109086809269746
5.7	0.00732299251664705	0.0110902812070141	-0.000410496197049779	-0.00311235042073137	-0.000427088991008946	-0.00311599697262492	0.00786516200075969	-0.0114284519796964
5.8	0.00860608452734265	0.00896312143658056	-0.00085524641060684	-0.00301638358552707	-0.000858783051557628	-0.0030303483275808	0.0069454931701471	-0.0120507446600207
5.9	0.00932591652130272	0.00687866608108611	-0.00125850507888204	-0.00287579410101528	-0.00126671995567637	-0.00287570994949312	0.00572470896877694	-0.0125463875117432
6	0.00965504588466242	0.00480075387947817	-0.00165478219581978	-0.00266956609088015	-0.00165122858123372	-0.00266973264807364	0.00429784102499805	-0.0126359725134675
6.1	0.00968049935463141	0.00266861423131123	-0.00200791623099307	-0.00241580665258457	-0.00200955277211973	-0.00241181184747367	0.00321188850239138	-0.0123025625167435
6.2	0.00927426377829805	0.000388645059555962	-0.00231903042252431	-0.00210409668478927	-0.00232272414473523	-0.00211594172541835	0.00256678510903404	-0.012074273576496
6.3	0.00840069980522824	-0.00186620281417259	-0.00259565856975751	-0.00177163162295162	-0.00260477102273207	-0.0017659145302724	0.00207192553927442	-0.0121955673431981
6.4	0.00705409811771993	-0.00392224562579205	-0.00282159223310444	-0.00138334843966995	-0.00281188243856716	-0.00138822795711481	0.00155734792117656	-0.0124156817233861
6.5	0.00546273213737549	-0.00570593108669823	-0.00297870277947152	-0.00098067747730779	-0.00298655608693871	-0.000976217407470055	0.00115422605914368	-0.0126813000938812
6.6	0.00354001202962953	-0.00715064559818214	-0.00308822999168727	-0.000557676293324659	-0.00308985310004076	-0.000561649924563635	0.000816357871859108	-0.0130874135373932
6.7	0.00124415693912925	-0.00806521767029239	-0.00314083041012881	-0.000121240484055156	-0.00314968724107931	-0.000114987587263593	0.000102621054010366	-0.0135650320106201
6.8	-0.001275279467491	-0.00822044884705549	-0.00312164502285863	0.00031973141979503	-0.00313274098832542	0.000324751750138373	-0.000950287610550929	-0.0137780975458322
6.9	-0.00369272136673332	-0.00761276981295388	-0.00304856034691456	0.000753442338814517	-0.0030515514688974	0.000755825937928005	-0.002045434621634	-0.0136289046868473
7	-0.0057051920816603	-0.00643488726066771	-0.00291377772784415	0.00117526927417159	-0.00292660394328784	0.00117304819354345	-0.00297529659011185	-0.0132804265286334
7.1	-0.00740895978865605	-0.00497460005498574	-0.00273729050825903	0.00156558419039174	-0.00273363952561077	0.00157425947707685	-0.00377757040301165	-0.0127624777912787
7.2	-0.00889085704652503	-0.00327251692293517	-0.00248140276778788	0.00193526966726206	-0.0024879392215795	0.00193734107236776	-0.00430486556724559	-0.012232586657131
7.3	-0.0102662939985318	-0.00126230076658358	-0.0021859048451767	0.00225588796129799	-0.00219713147715513	0.00226093304565603	-0.00466402919252059	-0.0119601479178177
7.4	-0.0113562240054565	0.00119109541303873	-0.00184384531269914	0.00254028594604053	-0.00185074449237386	0.00255389889899688	-0.00525871287361768	-0.0119379946661226
7.5	-0.0118561048180555	0.00398328666542142	-0.00147752623086263	0.00278030954424393	-0.00147053321585298	0.00278771408460087	-0.00589906583716885	-0.0119032631110765
7.6	-0.0115273858242863	0.00674933589972538	-0.00107054786598216	0.00295910032745547	-0.00107192164252701	0.00295440039648483	-0.00644304388887976	-0.0119414792524971
7.7	-0.0105640637475307	0.00921396481291028	-0.000641649385423317	0.00308028213867298	-0.000642989706117563	0.00307921979073635	-0.00713235052883957	-0.0122940905558909
7.8	-0.00888481271274538	0.0112875760469908	-0.000215768264292134	0.00312902252270772	-0.00022357759041508	0.00313547876628588	-0.00809810943027744	-0.0124579195865842
7.9	-0.00649983982214691	0.0128487565392959	0.000225093376586308	0.00313577284374619	0.000233033258069002	0.00313727348756705	-0.00911565652068254	-0.012149987889119
8	-0.00373456729820917	0.0137411187805649	0.000666239068400852	0.00306354223364199	0.000666318327797324	0.00306844040579546	-0.0100006943760612	-0.0117106203216626
8.1	-0.000753729222781771	0.0138768805880125	0.00107594754489839	0.00294614271686873	0.00109508616529769	0.00294724148349742	-0.0106471789979061	-0.0110336416245179
8.2	0.00194068214455601	0.0134016396992103	0.00147986969240103	0.00276609940098717	0.00148911925642113	0.00275891641096674	-0.0111282768159831	-0.0104164737033298
8.3	0.0043552104716744	0.0125288420420822	0.00185589753555893	0.00252840426095041	0.00185423812987872	0.00254194787980879	-0.0116107781931612	-0.00990576736804128
8.4	0.00656303860864344	0.0114199485141217	0.00219180768560345	0.00225234313305021	0.00218877805900075	0.00225211419156198	-0.0122310792184151	-0.00940851695695241
8.5	0.00865589575829178	0.00988594598906336	0.00247849580908286	0.00192336333704293	0.00247759328406204	0.0019265459719123	-0.012948085765816	-0.00870472478344409
8.6	0.0104481492413069	0.00786702852098428	0.00272622022198414	0.00156434858741596	0.00273573638783406	0.00155782101972268	-0.0134782185265966	-0.00787706572876517
8.7	0.011724215226039	0.00535856959366908	0.00291410939364489	0.00116238465497167	0.00291967318583903	0.00116311845209493	-0.0138399037560143	-0.00714952691337052
8.8	0.0123290960309594	0.0026392661759756	0.00305308089859664	0.000751457535236097	0.00305887258459058	0.000742695528253705	-0.0142918713957367	-0.00662947969552143
8.9	0.0124412795112998	-0.00013057003558839	0.00313283535930999	0.000316520178294354	0.00313196623872566	0.000314267728762362	-0.0147258629001027	-0.00593074504512595
9	0.0121119779757933	-0.00299211343957456	0.0031444971339811	-0.000128546960812165	0.00314765591215373	-0.000124433248929358	-0.0149636828776507	-0.00501364517393264
9.1	0.0112951030569319	-0.0059977467184902	0.00309944687336533	-0.000572406354403301	0.00310232815711169	-0.000559476629916225	-0.0148604194482008	-0.0041098715269393
9.2	0.00964380677138942	-0.00894844150415035	0.00299013803518856	-0.000992701617589572	0.00299781561359698	-0.000995583057419469	-0.0146375890352863	-0.00343714890674875
9.3	0.00723484128585764	-0.0114310867348255	0.0028207611267038	-0.00140059015171875	0.00282002760458575	-0.00140559303983093	-0.0144159860405256	-0.00285468813401018
9.4	0.00431336636265076	-0.0132426826652272	0.00259667107763635	-0.0017930094120269	0.00260320314495489	-0.00178539779164527	-0.0142861038359606	-0.0022915866885118
9.5	0.00103979811142397	-0.0143089994910669	0.00231936184536716	-0.00212862935262067	0.00232678825025701	-0.00212998752175605	-0.014168777069711	-0.00165487915866743
9.6	-0.00250790385130523	-0.0147469399971737	0.00199997364432632	-0.00243275902702076	0.00200030543130354	-0.0024317757386224	-0.0141298610764915	-0.00104668306626828
9.7	-0.00629788747097003	-0.0143677775597062	0.00163061752110527	-0.00268288164837684	0.00163614811010707	-0.0026902063830238	-0.014054968292841	-0.000428253287034974
9.8	-0.0101366633711088	-0.0130548727828125	0.00124402812729163	-0.00289068258522533	0.00124974490078518	-0.00288218622977686	-0.0140586328505765	0.000148505133105235
9.9	-0.0136463134966198	-0.0106624645408955	0.000837889769007081	-0.0030284920496731	0.000830557332096778	-0.00302725400740315	-0.0142594122549214	0.000858249016340816
10	-0.0165112933814583	-0.00751707579551445	0.000407627971596612	-0.00311631915880037	0.000400122029293794	-0.00312875305427043	-0.0143726533595145	0.00179491143351787
10.1	-0.0185833413167128	-0.0038711786403364	-3.40129907737358E-05	-0.00314669429888441	-4.42368695271105E-05	-0.00314129237800493	-0.0141495923446577	0.00273861508677733
10.2	-0.0199442028702453	9.25143839352226E-05	-0.000479164973589586	-0.00310927391543197	-0.000482568723197469	-0.00310649373009942	-0.0136598835241883	0.00351453026108064
10.3	-0.0205537674394471	0.0044183502524798	-0.000910597998920181	-0.00300365761000451	-0.000902512976266669	-0.00301272934248557	-0.0131217708531772	0.00403816235375735
10.4	-0.0202135804130696	0.00888679401995762	-0.00130707477186964	-0.002849690991269	-0.00130537909409141	-0.00285588493210504	-0.0125282662996347	0.00427547160357979
10.5	-0.0187050869803515	0.0134162301212183	-0.00169830641793118	-0.0026520398608562	-0.00169520768718727	-0.00263903836342373	-0.0120623746841719	0.00463420257785399
10.6	-0.0162887798704764	0.0174270946924603	-0.00205137867027292	-0.00238321741551096	-0.00204918940541778	-0.00238704015149006	-0.0115453041117139	0.00487056419931587
10.7	-0.0131932664708257	0.0209777431449476	-0.00236764262771493	-0.00208215135021116	-0.00236414879575805	-0.00207686476651406	-0.0110250322492103	0.00508805887649657
10.8	-0.00940930503489617	0.0240319134364124	-0.00263829231548254	-0.0017224417951951	-0.00263308310263507	-0.00173137445657761	-0.0106458084675953	0.00521875243753551
10.9	-0.00497000286261799	0.0265029406681703	-0.00284812830736144	-0.0013478745532113	-0.00285332356902001	-0.00134714403192295	-0.0104550540720376	0.00541445053518128
11	0.000229798399623002	0.0280361669134455	-0.00300880557991261	-0.000930159865272827	-0.00301365811249701	-0.000936911397895257	-0.0101543400850146	0.00585283173752428
11.1	0.00576039964349882	0.0283640208686052	-0.00311818421406344	-0.000503281469191292	-0.0031073034980294	-0.000500421165458461	-0.00956346238669272	0.00626872902623809
11.2	0.0112208662284828	0.0274389351971458	-0.00314763972181768	-6.32763909397461E-05	-0.00315481039110385	-6.8115634521863E-05	-0.00870126334488059	0.00647120883929485
11.3	0.0163845310811171	0.0254138241328268	-0.00311999955901811	0.000387744196877184	-0.00313157570871116	0.000377705097657872	-0.00765557575739929	0.00633898767703655
11.4	0.0210299905259083	0.02260145828258	-0.00304463145900107	0.000817417915234651	-0.00303969596249919	0.000824986453841069	-0.00690564722978054	0.005971725280421
11.5	0.0252020032917146	0.0189130972600965	-0.00289900905047128	0.00123410031251311	-0.00290176794270212	0.00124439450562169	-0.00644060441971779	0.00547037913255322
11.6	0.0286689084011113	0.0142716995934951	-0.00270199539175016	0.00162458298653231	-0.00270196912828048	0.00162752518629875	-0.00597693756448389	0.00484648124897735
11.7	0.0310998270164478	0.00900823381021496	-0.00243820589707449	0.00197836723177782	-0.00243874727303228	0.001986975208704	-0.00558487438992062	0.00402965491211577
11.8	0.0325112951449055	0.00350847548516424	-0.00214088829410434	0.00230871752907047	-0.00214499752313828	0.00231042620634299	-0.00546452124528965	0.00319945661091439
11.9	0.0330181087518814	-0.00208438414799214	-0.00179041072057959	0.00258217369427704	-0.00180340903772843	0.00258650876886045	-0.00567695507850096	0.00276611113789925
12	0.0327255340099366	-0.0078350678735676	-0.00141707276417965	0.00280285293613655	-0.00141647455148201	0.00280426154717299	-0.0057886201291552	0.00266131757068933
