# GHZ S RI R 50
0.2	0.00613545318134953	-0.000895216911120862	0.00304842519603453	-0.000899514810399884	0.00305879877283844	-0.000892709658544986	-0.0138347162609524	0.00274859319031121
0.3	0.00603168685032303	-0.001602604434298	0.00290345093795426	-0.00132408109463495	0.00289621479780092	-0.00131113405460026	-0.0134559543554603	0.00420742633409072
0.4	0.00610652677482599	-0.00235198409886321	0.00267028578965374	-0.00169669174711134	0.00267554180105281	-0.00170525941536856	-0.0125876314937796	0.00566135530734175
0.5	0.0060647708229298	-0.00343037798592973	0.00240921193181437	-0.00205348412443143	0.00242072343724479	-0.00206574070415256	-0.0113644937779067	0.00657092011452953
0.6	0.0056071690840474	-0.00474897472304741	0.00209422400118573	-0.00236687932375832	0.00209342255178866	-0.0023740209688337	-0.0103005248997441	0.00683327459523764
0.7	0.00444429638342814	-0.00599396160217095	0.00174496133888062	-0.00264227653660022	0.00174300786311899	-0.00264247030728247	-0.00983304677507222	0.00682016503390622
0.8	0.00275900672605284	-0.00678272690193422	0.00135844458476471	-0.00285622275125749	0.00134586261615627	-0.00286073019298505	-0.00988257080548927	0.00708058305383119
0.9	0.000761382421052046	-0.0067797264745052	0.000941779656357564	-0.00301572259145563	0.000942787006441461	-0.00302639072430765	-0.0101000326415782	0.0078503437920524
1	-0.00100919813157855	-0.00604354511617606	0.000519033254394955	-0.00311521143587931	0.000509208496712819	-0.00311593048552934	-0.00998767173901071	0.00912671144366736
1.1	-0.00229836714367703	-0.00493069475953753	6.72427986884302E-05	-0.00314098547959095	6.37311409356819E-05	-0.00315855174268973	-0.00935205013369895	0.0105922299625068
1.2	-0.00313420187447989	-0.00407141682982401	-0.000369978235700256	-0.00312884509284549	-0.000370785335425679	-0.00312677877588592	-0.00793173210686521	0.0117273502607524
1.3	-0.00410073093825137	-0.00369783845464703	-0.000791786135070368	-0.00304614688923492	-0.000795008076973748	-0.0030481439073627	-0.00601662048554826	0.012226427500061
1.4	-0.00517649257156269	-0.00325855981857435	-0.00120817586900773	-0.00290048943939654	-0.00120695967497958	-0.00290599253300561	-0.00423724722698444	0.0119181195575316
1.5	-0.00564582781629889	-0.00231411105927621	-0.00160538205237359	-0.00270890059473765	-0.00160375523688111	-0.00271735696325134	-0.00283887109097962	0.0112378270653878
1.6	-0.00559744048967332	-0.00113545115775278	-0.00196423746525907	-0.0024618117722104	-0.00196442961317182	-0.00246702573603843	-0.00231500276251647	0.0107387850881969
1.7	-0.00525153681457849	6.02882524532095E-05	-0.0022930966631958	-0.00217044818459053	-0.00229408427932193	-0.00216421039963725	-0.00203989788904498	0.0106368262003844
1.8	-0.0047054234754813	0.0014228898970982	-0.00256665988000332	-0.00182367330570869	-0.002577577398204	-0.00182934453570887	-0.0017735117301504	0.0108344293857996
1.9	-0.00375792055291299	0.00267605250589693	-0.00279590917094068	-0.00145612983861181	-0.00280835992374395	-0.00145003730029643	-0.00133161106621818	0.0112471279568165
2	-0.00243113899137238	0.00365616583364228	-0.0029761791266797	-0.00104971866028862	-0.00298581643185011	-0.00104504982519698	-0.000637367696101707	0.0117018726636095
2.1	-0.000860166986911415	0.0040938796547502	-0.00309395942477596	-0.000620529694350891	-0.00308986775905774	-0.000622508510986337	0.000328398343817896	0.0118609807645588
2.2	0.000642062669341625	0.00404380318213448	-0.00315451141643929	-0.000179861909460871	-0.0031658178689922	-0.000182729520277023	0.00133910880653525	0.0117013886846037
2.3	0.0019001930756168	0.00353388403748896	-0.00315132125476278	0.000266832897573131	-0.00315100695444081	0.000259943114789239	0.00207864199542583	0.0113133397461967
2.4	0.00285905889078075	0.00288597923643874	-0.00307843431741173	0.000708438601213069	-0.00308097454646198	0.000704175313275591	0.00265334759754743	0.0111092086300385
2.5	0.00368453763880114	0.00214814825074177	-0.00293925342177061	0.00112306024850985	-0.0029501476320714	0.00112944379389985	0.00338439614899435	0.0109956611266907
2.6	0.0045217463716884	0.0012425505677461	-0.00276221988137672	0.00152681653705588	-0.00275867155376899	0.00151449453756943	0.00435545240225769	0.0107412360809896
2.7	0.00530114003571693	4.80210927292579E-05	-0.00251311724054821	0.00189692332486592	-0.00251839120775925	0.00189693927215326	0.0052266927409533	0.0101941135463587
2.8	0.00590107724724215	-0.00141921752651533	-0.00222789488895588	0.00222134895764948	-0.00222008914658945	0.0022311104633614	0.00585658627452043	0.00968624663252747
2.9	0.00629516112137517	-0.00306971125393151	-0.00189299488682915	0.00251715137958765	-0.0018892977871582	0.00251672395512638	0.00663261025350482	0.00938860408228253
3	0.00637032006120009	-0.00490309249267526	-0.00150846724620019	0.00274796589357045	-0.00152319006630449	0.00275403667775566	0.00766370147372615	0.00905426499868441
3.1	0.00609999465181079	-0.00690471829074693	-0.00112216508987925	0.00292132803340176	-0.00111754116023504	0.00292963841021877	0.00868270291708199	0.00837879305415088
3.2	0.0051855657524091	-0.0089569646884104	-0.000707447381321397	0.00305655541957516	-0.000709181735675535	0.00305594310167904	0.00930172031568368	0.00761866103084597
3.3	0.00367857423419504	-0.0108975869740227	-0.000275631444410349	0.00312710125707293	-0.00027397532020669	0.00312338536098774	0.00983204313640137	0.00685727582696904
3.4	0.0015926770086161	-0.0123668209071679	0.000165057253202113	0.00312472505177279	0.000158788423450241	0.00314118809817865	0.0103378601996712	0.00603815217229367
3.5	-0.000763026020754463	-0.0133773394471117	0.000582302785053068	0.0030878599738715	0.000587880656229917	0.00308797192191725	0.0106975922250333	0.00504052409512969
3.6	-0.00334184915921731	-0.0138770401010411	0.00100900858943934	0.00297646519820136	0.00101718830741753	0.00297620899384904	0.0109144586199466	0.00409629157877917
3.7	-0.00601206979981611	-0.0138819703982738	0.00142109588369665	0.00280366075871505	0.00141140395624052	0.00281725815423346	0.0110689805155295	0.0031435692965957
3.8	-0.00876824378987058	-0.0133096192056108	0.00180384059438877	0.00258364180665088	0.00180617607349836	0.00259282393876251	0.0110186420660004	0.00226235782276306
3.9	-0.011323501071927	-0.0121018948906648	0.00215674563290321	0.00231543199211656	0.00214947119944032	0.00231359302250803	0.0108980529413072	0.00158329218853711
4	-0.0135286453992056	-0.0103719375454985	0.00244988608783794	0.00199592239003399	0.00245437101260036	0.00199350635085627	0.010966077565765	0.0011018468372061
4.1	-0.0152789127324327	-0.00830107841459	0.00271031053460523	0.00163437742717248	0.00270904693058862	0.00163511063979435	0.0113051758980217	0.000554545848558095
4.2	-0.0166656017513454	-0.00598224521785956	0.00291663164856993	0.00122842736140136	0.00292116013990808	0.00121967342056046	0.0116222083946971	-0.000212944517162247
4.3	-0.0176946740789696	-0.00350903437767235	0.00306416062658714	0.00080949474664354	0.00307064410897671	0.000801654894999871	0.0117735262280577	-0.00112805170818898
4.4	-0.0184146518968983	-0.000767972785743237	0.00314179625868014	0.000367597899373442	0.00314418770474728	0.000365328622002089	0.0117185693266493	-0.00194716656851018
4.5	-0.0186180714242656	0.00219794396341079	0.00316272717734385	-7.76349646503189E-05	0.00316811658048976	-8.10312818677854E-05	0.0117525095418097	-0.00268448499109952
4.6	-0.0182698153020212	0.00515982921272268	0.00311423397491028	-0.000525908066580251	0.00311549122436269	-0.000512935249548216	0.0117693500191814	-0.00362818094792222
4.7	-0.0172752775527473	0.00800695138822004	0.00300311471745705	-0.000947416290869187	0.00301842980520514	-0.000957104270758659	0.0115600455529664	-0.00469346441644483
4.8	-0.0158624174629569	0.0105824378716465	0.00283602186325704	-0.00136125182890291	0.00284450098467817	-0.00136737626665207	0.0110862227276442	-0.00562593085826005
4.9	-0.0138335912970315	0.0128810754313363	0.00261049829055403	-0.00174242333209933	0.00261467427350857	-0.00173952697502647	0.0106348931445208	-0.00626010215968713
5	-0.0113246579601968	0.0146852204587797	0.00234833293825441	-0.00209282624927991	0.00235195712722412	-0.0020901701243137	0.0105596969219159	-0.00675914812561381
5.1	-0.0082942497427876	0.0158992399639303	0.00203800929022781	-0.00239822028640569	0.00204030725815858	-0.00239686619690869	0.0106403561612684	-0.00753982446120833
5.2	-0.0052170441868296	0.016337913183333	0.00168367209963776	-0.0026439450527823	0.00168538544388132	-0.00264907613213752	0.0104972361228751	-0.00846070399439685
5.3	-0.00226411108155105	0.0161778362899434	0.00130221123016319	-0.00285743305090259	0.00130533298161883	-0.00285536766928085	0.0101523122343559	-0.00920138283679378
5.4	0.000469380611577012	0.0155987823928995	0.000883295489262473	-0.00300607204159877	0.000900476591616824	-0.00301720305549202	0.00987475334939811	-0.00993384964963023
5.5	0.00298593233689905	0.0146794423261806	0.000474773562593531	-0.00310802337624201	0.000484867959588045	-0.00311740059689482	0.00952622790643153	-0.0108132845068167
5.6	0.00529661362129319	0.0133368943753811	3.90817715418315E-05	-0.00315072176719947	3.05642351332423E-05	-0.00315399121601024	0.00886962924671111	-0.0117061215546037
5.7	0.00718420524475341	0.0115940538598732	-0.000392403523732052	-0.00312792331552231	-0.000409042216057189	-0.00313169062394291	0.00786138393337531	-0.0124070528277643
5.8	0.00861752509902814	0.00952220000657021	-0.000842410066438009	-0.00304042259721856	-0.00084588463302833	-0.00305449608123961	0.00672420859926317	-0.0129979956573672
5.9	0.00946888401657316	0.00735967236134506	-0.00125436211378597	-0.00290585451399386	-0.00126264513634608	-0.00290581113950169	0.00541172233463295	-0.0132723275769219
6	0.00981037186069819	0.00514358311855767	-0.00166191938084979	-0.00270179500434839	-0.00165832993997684	-0.00270195086550303	0.0041156195656613	-0.0131580941124381
6.1	0.00974359833058209	0.00293091774061185	-0.00202678314092237	-0.00244552072148941	-0.00202844357166542	-0.00244148385590436	0.00324049882977527	-0.0128132203133992
6.2	0.00924885629114576	0.00065103942212379	-0.00234812121808429	-0.00212656140428343	-0.00235186917028461	-0.00213854161133249	0.00268780692045346	-0.0127022253708603
6.3	0.00831567511676738	-0.00161319179173885	-0.00263182131815194	-0.00178336645958971	-0.00264102010665402	-0.00177755198610034	0.00218525133160353	-0.0128883129185939
6.4	0.00687728243580179	-0.00370884365040663	-0.00286014826267629	-0.00138201561076897	-0.00285036152527156	-0.0013870041146039	0.00177068831106381	-0.0131455422388933
6.5	0.00514118363325116	-0.00543045095734758	-0.00301446157045406	-0.000966488549980887	-0.00302235375255614	-0.00096192473021958	0.00149068080312977	-0.0136190113801952
6.6	0.00316991767337467	-0.00668023349537115	-0.00311661343528399	-0.000532616263042296	-0.00311828630019488	-0.000536604259183131	0.00104027563009975	-0.0143254895172449
6.7	0.000988667963858261	-0.00742520759872868	-0.00315840739570053	-8.90488333038182E-05	-0.00316724487743955	-8.26709131426932E-05	-9.53865924645204E-06	-0.0148986040808528
6.8	-0.00137300668261518	-0.00755978192229943	-0.00312680820177145	0.0003541158316728	-0.00313788083530239	0.000359269075616825	-0.00132631509343858	-0.0149117362184625
6.9	-0.00373249555365305	-0.00705090764438993	-0.00304197990566372	0.000785121351905096	-0.00304494764085684	0.000787536668056025	-0.0023724870940153	-0.0145269288784236
7	-0.00580788801827627	-0.0058801618908862	-0.00289804902140341	0.00120006999054386	-0.00291087397955538	0.00119797057730961	-0.00311599552721996	-0.0141143362823499
7.1	-0.00753847487696353	-0.00429944448263906	-0.00271651042967114	0.00158111413938655	-0.00271280593484376	0.00158973346018836	-0.00383245760181288	-0.0137753470997136
7.2	-0.00888377619407202	-0.00245114201470112	-0.00246021315739889	0.00194084905445854	-0.00246671055795001	0.00194294792616197	-0.0045575498197224	-0.013435563959009
7.3	-0.0099867956450328	-0.000437080476811557	-0.00216854260296317	0.00225329480317521	-0.00217970227026678	0.00225835560568882	-0.00528373020817014	-0.0130715013050307
7.4	-0.0108984468965332	0.00172981456785582	-0.00183314227798495	0.00253280645469499	-0.00183999582390068	0.00254637527191687	-0.00599806235167117	-0.012779055745777
7.5	-0.0114177115805333	0.00422209094460687	-0.00147439137148246	0.00277210732020084	-0.00146742025280287	0.00277949376781986	-0.00650536454647214	-0.0123436897248214
7.6	-0.0111290379502223	0.0069354487307908	-0.00107389798782672	0.00295425684797778	-0.00107526310738992	0.00294955992264602	-0.006806671519531	-0.011897685457285
7.7	-0.0104664846033043	0.00932462358953683	-0.000648505626337801	0.00308176161223326	-0.000649844995217566	0.00308069557242354	-0.0072991924810541	-0.0124586553610195
7.8	-0.00893442388481727	0.0113890348622517	-0.000222116502475905	0.00313798087293872	-0.000229960936171655	0.00314444217781848	-0.00808357761216298	-0.0125569629266921
7.9	-0.00696692580033398	0.0130441031662735	0.000223418380260696	0.00315141859433275	0.000231396039167195	0.00315293367842902	-0.00873520245788299	-0.0125107211723691
8	-0.00413322422328875	0.0141004797523653	0.000672707199977816	0.00308296750119854	0.000672790399279436	0.00308789742109896	-0.00926749353655446	-0.0120835815517999
8.1	-0.0012991541930626	0.0145998385872486	0.00109222763844857	0.0029652827711672	0.00111151309909216	0.00296633654483647	-0.0100295165274132	-0.0120897586991654
8.2	0.00159503484576813	0.0143317117232505	0.00150581443800376	0.00278014037472182	0.00151509937717762	0.00277285309230313	-0.0108404778864548	-0.0117626302387544
8.3	0.00426487446275401	0.0134635166969406	0.00188908007150732	0.00253293580655585	0.00188751227605821	0.00254659272059558	-0.0116497774319488	-0.0112149624752806
8.4	0.00658758775108758	0.0122120984110435	0.00222805575655055	0.0022444222651091	0.00222500493780837	0.00224422226345739	-0.0123540360305643	-0.0105420253590062
8.5	0.0086192170990008	0.0105826349809022	0.00251236629605376	0.0019019988005813	0.00251149802954651	0.00190520612294671	-0.0129630911855454	-0.00980483873987788
8.6	0.0103307971786416	0.00863083478088738	0.00275239896911464	0.00153081567521197	0.0027618458912405	0.00152414810893363	-0.0134602966068511	-0.00916534402091988
8.7	0.0116962654567587	0.00624196872707895	0.00292787713717064	0.00112035441772516	0.00293344631602331	0.0011210092863967	-0.0140266283000585	-0.00864341713992481
8.8	0.0124939572006014	0.00352766484056529	0.00305190353845157	0.000706062641865353	0.00305755108123173	0.000697253377890472	-0.0148465436747403	-0.00802554263573759
8.9	0.0127190948113368	0.000597363570898128	0.00311621263176228	0.000273792102306875	0.00311532004665861	0.000271565828648874	-0.0154347398971721	-0.00695414987961223
9	0.0123210342844106	-0.0024120039466791	0.00311459982028693	-0.000162786935233087	0.00311777633434517	-0.000158746006221793	-0.0155055462728404	-0.0057149560328855
9.1	0.0113445371006167	-0.00537930085705206	0.00306058256784288	-0.000593873641469883	0.00306354803236735	-0.000581110453960378	-0.0151907266790229	-0.0047363949437344
9.2	0.00969730590313343	-0.00826098651935345	0.00294815838551127	-0.000999410354645792	0.00295572610742626	-0.00100230503793433	-0.0148736675984662	-0.00406252575117626
9.3	0.00732519309078558	-0.0107857110257239	0.00278158881648561	-0.00139295235684766	0.00278084745049211	-0.00139789165002884	-0.0145588272432207	-0.00338983135471142
9.4	0.00433732666987057	-0.012745486111971	0.00256536456963952	-0.00177379233447129	0.0025718254708513	-0.00176627328162317	-0.0141753985519426	-0.00285232038617543
9.5	0.000889725974913835	-0.0137008448571998	0.0022991960420247	-0.0021027761754463	0.00230654849548363	-0.00210410762616506	-0.0137513189472406	-0.00232979624475258
9.6	-0.00273802446153282	-0.0139650492560061	0.00199175482626292	-0.00240555271377335	0.00199208043712024	-0.00240457646525415	-0.0136468554759974	-0.00212933919186455
9.7	-0.00641737728885047	-0.0134281920286078	0.00163280788532155	-0.00265944339924236	0.00163833796357458	-0.00266669931749814	-0.0138253786814342	-0.00181629721992216
9.8	-0.0100702527862476	-0.0121396741184745	0.00125302300047608	-0.00287451128063678	0.00125867968424332	-0.00286601880724	-0.0141648896510421	-0.00123207638804463
9.9	-0.0135639241288535	-0.00989911727457298	0.000848994838518143	-0.00302113617426469	0.00084166704548041	-0.0030199293108749	-0.0145367115111073	-0.000283247993091441
10	-0.0165542267459885	-0.00686198519342269	0.000416240096640447	-0.00311698752102666	0.000408763344862258	-0.00312944864456209	-0.0145574440104621	0.000776264471212903
10.1	-0.0187645077369345	-0.00313889366884583	-3.1569111260377E-05	-0.00315254425922948	-4.18162123600235E-05	-0.00314714048715817	-0.0142832402084932	0.00166025259580109
10.2	-0.0200921569161681	0.000958354465334651	-0.000484776038319011	-0.00311603584527549	-0.000488183952492474	-0.00311324411309324	-0.0139209961955792	0.00240596632137954
10.3	-0.0205662406544083	0.00526268210350348	-0.000923839310561794	-0.00300663490780966	-0.00091577118154021	-0.00301575639603067	-0.0134968421554502	0.00312534755376087
10.4	-0.0201671949300447	0.00963702755813139	-0.00132534713881374	-0.00284496382756079	-0.00132368637114964	-0.00285117437882067	-0.0127626188840575	0.00369313560877745
10.5	-0.018891540077814	0.0139987017834486	-0.00171743498354703	-0.00263700786048984	-0.00171423858673116	-0.00262403986396837	-0.0118863638729854	0.00401020231450449
10.6	-0.0165804976861018	0.0181644312529604	-0.00206597420714004	-0.00235768412548381	-0.00206382548409058	-0.0023615142098261	-0.0110999622456938	0.00402070217012502
10.7	-0.0134156559661954	0.0218595435541505	-0.00237281073035058	-0.00204823229475311	-0.00236928898961372	-0.00204300876794418	-0.0105685142361167	0.00396201716842583
10.8	-0.00950624999870417	0.0248735948098203	-0.00263012415366733	-0.00168464469882966	-0.00262503747894378	-0.00169354433305003	-0.0102612472190592	0.00399583018037903
10.9	-0.00509576810310978	0.0271324514367121	-0.00282533198740195	-0.00131197438081813	-0.00283046269281578	-0.00131121477223141	-0.0099309798329646	0.00417839101380514
11	-0.000150675576184448	0.0286621908170219	-0.00297237836556371	-0.000902504332210617	-0.00297719826654224	-0.000909139610516265	-0.00946830503135582	0.0043706479493404
11.1	0.00519167380843492	0.0292473830671758	-0.00307188284143828	-0.000489083827811109	-0.00306116137055608	-0.000486289835506438	-0.00893482343985996	0.00433677862149546
11.2	0.0107311693638065	0.0286463418456383	-0.00309762178771506	-6.59569063079555E-05	-0.00310467301470345	-7.072775896066E-05	-0.00848600473674693	0.00418642004381211
11.3	0.0161929054719516	0.0269061195639907	-0.00307311350748475	0.000367478118113976	-0.00308446338504084	0.000357542809378229	-0.00815221681451051	0.00417473397554544
11.4	0.0210383771129946	0.0240024855650832	-0.00300721672062922	0.000782061986770964	-0.00300241083937386	0.000789560032229912	-0.00768407201773084	0.00413917388476579
11.5	0.0251889398702187	0.0202279571159931	-0.00287625379343863	0.00118851164905054	-0.00287908664371399	0.00119865017073225	-0.00721712671671951	0.00377477487444829
11.6	0.0287497128733836	0.0156899713160658	-0.00269641234194763	0.00157518833241334	-0.00269642315029686	0.00157810264337116	-0.00686418154058116	0.00328424379277722
11.7	0.0314473805286494	0.01044058718029	-0.00244953018740246	0.00193223480089563	-0.00245018583873044	0.00194077979117376	-0.00668903202820619	0.00270193114701134
11.8	0.0331076292815938	0.00467330504327278	-0.00216616583509513	0.00227155681206479	-0.00217028570452902	0.0022732028628037	-0.0066369186361985	0.00233103167119125
11.9	0.0336914160282914	-0.00121636708700489	-0.00182449889180717	0.00255849036179866	-0.00183755431364983	0.00256265367527077	-0.00644599232443573	0.00252906507073089
12	0.0329958233059642	-0.00737960820486899	-0.00145348241063146	0.00279352817885704	-0.00145289911399129	0.00279494741580825	-0.00608088775695368	0.00229367969708242
