# GHZ S RI R 50
0.2	0.00564472232939942	0.0062835039470336	0.00304832604833607	-0.000893860509226563	0.0030586825406189	-0.000887041378732564	-0.0142863235217401	0.00992657786284297
0.3	0.00681528765989067	0.00134230837471742	0.0029060162093766	-0.00131437479314138	0.00289874376005846	-0.00130145706297354	-0.012645394068152	0.0071048295087567
0.4	0.00567148278544514	-0.0023088312631912	0.00267836771912847	-0.00168403277376631	0.00268366445689677	-0.00169257557858482	-0.0130654796327735	0.00562038260314405
0.5	0.00340507000583518	-0.00422252945511944	0.00242520290454408	-0.00204058506026586	0.00243680640943558	-0.00205278294345648	-0.0141720178425892	0.00571656694934504
0.6	0.00127671767290919	-0.00451838759923357	0.00211885580948976	-0.00235790718676516	0.00211810704668954	-0.00236507671787613	-0.0148623010028673	0.00709441318715542
0.7	-5.21036043114656E-05	-0.00396702616878668	0.00177691741140556	-0.00264169329100291	0.00177495502320673	-0.00264190475876845	-0.0145756190386195	0.0090026309805014
0.8	-0.000466196289351879	-0.00351246311978535	0.00139407789584239	-0.00286770810406507	0.00138143261234932	-0.00287236052647643	-0.0133016600667786	0.0105999810635738
0.9	-0.000699164918742538	-0.00364100838726195	0.000975841225483903	-0.00304129174510618	0.000976943644089063	-0.00305206864027346	-0.0116855348050676	0.0112600995988592
1	-0.00141432137808158	-0.00428583971603991	0.000545624893438985	-0.00315430437869582	0.000535671088202964	-0.00315509481557869	-0.0104945256444611	0.0111253919162434
1.1	-0.00305956063858864	-0.0048271205522884	8.04062167782053E-05	-0.0031903108051557	7.69068041353039E-05	-0.00320816790388369	-0.0102494829623855	0.0109173037520126
1.2	-0.00530229993480786	-0.00477597452859506	-0.000373824967157673	-0.00318314492151425	-0.000374647672854674	-0.00318104359755209	-0.0102485937213562	0.0113194842535599
1.3	-0.0074584243186764	-0.00404957557702587	-0.000813855729764667	-0.00309840923287972	-0.000817140345894048	-0.00310043346128979	-0.00945044478070964	0.0122427631050727
1.4	-0.00886043475419928	-0.00304084764090311	-0.00124697558483033	-0.0029436365152577	-0.00124577187197874	-0.00294924293966896	-0.00795342134335265	0.0126005430238858
1.5	-0.00937785320569803	-0.00149648106906039	-0.00165656685043764	-0.00273722848390962	-0.00165499342950275	-0.00274583566563919	-0.00653033658544695	0.012636072466852
1.6	-0.00908367551175409	0.000569141260213628	-0.00202110155142435	-0.00247179431062826	-0.00202135961942007	-0.00247707757501423	-0.00572265745912069	0.013087238085265
1.7	-0.00789770088101311	0.00243373431368404	-0.00234836450018629	-0.00216157077453652	-0.00234927496781287	-0.00215525184631297	-0.00443282843539113	0.0136218405249036
1.8	-0.00627714292894551	0.00376678008753731	-0.0026131492278385	-0.00179866368489359	-0.00262423314710913	-0.00180421302401305	-0.00302098870460937	0.0136141560076948
1.9	-0.0047381392993958	0.00438785181320706	-0.00282893672679673	-0.00142030757245772	-0.00284134693248216	-0.00141400465735972	-0.00204333854714766	0.0132497242421658
2	-0.00347438817355957	0.00473272082319106	-0.0029934386116753	-0.00100971060081251	-0.00300302067242928	-0.00100490462304512	-0.00154809846866234	0.0130347421001441
2.1	-0.0022823306170277	0.00501708565244889	-0.00309648961782451	-0.000583281343152792	-0.00309242744667362	-0.000585305122196209	-0.00105038926485691	0.0131327832076297
2.2	-0.000901433093273774	0.005280140472058	-0.0031463080235316	-0.000150825675107581	-0.0031576051398406	-0.000153582288797973	-0.000121427913270648	0.0134025969226495
2.3	0.000760289239419573	0.00505762735076308	-0.00313833236630957	0.000284785047695165	-0.00313806055871936	0.000277918274186005	0.00114743496896866	0.0133091490397904
2.4	0.00235332489555743	0.00422536003289544	-0.00306712931535944	0.000715706687728282	-0.00306967497675336	0.000711463803179672	0.00241080438094909	0.0127499321247639
2.5	0.00348357696122872	0.00281969382064893	-0.00293501909922687	0.00112318923671344	-0.00294589646332266	0.00112957050073826	0.00332443544528776	0.0118198043489844
2.6	0.00409163890233026	0.00130412593139194	-0.00276784599777723	0.00152556824205726	-0.00276427792170487	0.00151323366443188	0.00385260541969769	0.0109441815353883
2.7	0.00447104291837099	-0.000109004205769851	-0.0025281179685326	0.00190085633711709	-0.00253341598871968	0.00190086247770356	0.00418048693158244	0.0102995984955125
2.8	0.00485025162822337	-0.00161756020484698	-0.00224856425969342	0.00223605784020661	-0.00224070939739411	0.0022459073493726	0.00454565702992706	0.00987889666135124
2.9	0.00505808852599847	-0.00343435572655019	-0.00191295616366006	0.00254608762140365	-0.00190921802860075	0.00254565374152415	0.00510889831349351	0.00955263416121709
3	0.00474829525312719	-0.00538888045925262	-0.00151994802367095	0.00279084027850214	-0.00153485284412899	0.00279704417682333	0.0057485811428703	0.00928052051841653
3.1	0.00401590865914637	-0.00715668134170998	-0.00111837529988194	0.00297448331259431	-0.0011136200503856	0.00298288845933027	0.00638516224090949	0.00906043645012859
3.2	0.00289811877618588	-0.00875407975683356	-0.000683042303021587	0.00311328116931682	-0.000684811302903311	0.00311267935432728	0.00704795724458446	0.00892751820893929
3.3	0.00149991121147036	-0.0103100699432113	-0.000228851709523414	0.00317831312482127	-0.000227231321070961	0.00317451474943081	0.00800319025157759	0.00852560295841263
3.4	-0.000385513531992799	-0.0116458268036522	0.000231738154428648	0.00316077778596502	0.000225730484388278	0.00317757835178111	0.00891100868477921	0.00764923390044345
3.5	-0.00273429467546165	-0.0126756571468231	0.000662946217355841	0.00310150483452139	0.00066857715062877	0.00310148161032558	0.00934605272223398	0.00642543344916963
3.6	-0.00538393805541663	-0.0129944196447692	0.00109407600492815	0.00296209230137409	0.00110228443251104	0.00296161329017341	0.0094830282569656	0.00556425977016435
3.7	-0.00799108312728213	-0.0126267015251004	0.00149944241203798	0.00276043384396574	0.00149014699839313	0.00277429341084556	0.0097739137662242	0.00485710386672221
3.8	-0.0103439106659548	-0.0117381101362	0.00186495981535226	0.00251549153333756	0.00186753952694113	0.0025245467318259	0.0101616336193996	0.00402788645014977
3.9	-0.0123592442967938	-0.0105628380428323	0.00219227849026734	0.00223019922556376	0.00218504288590748	0.00222857575197329	0.0103977483402816	0.0029943261367237
4	-0.0142302577013674	-0.00914442588040464	0.00245540398865671	0.00190495915087362	0.00245975685822471	0.00190247873203873	0.0103932187863957	0.00204861174021254
4.1	-0.0159195758441538	-0.00735195885227443	0.00268597259627679	0.00154912036021372	0.00268474889308286	0.00154986267632831	0.0103942829368009	0.00135292178763408
4.2	-0.0172747674905575	-0.00514482238329903	0.00286747420282764	0.00115961715743846	0.00287177702019676	0.00115099896875509	0.0105440523101723	0.000745433958419512
4.3	-0.0181159380401851	-0.00280519124218484	0.00299932501433831	0.000764184518519503	0.00300558918401476	0.000756472619046149	0.0108303880279867	-0.000134863323508182
4.4	-0.0186723275914986	-0.000397831577905134	0.00307232507828619	0.000348644486840626	0.00307465498058044	0.000346418161545372	0.0108636668632744	-0.00118541185553909
4.5	-0.018960343668316	0.00211664019394999	0.00309911907682006	-7.25724251182208E-05	0.00310440370057365	-7.58943815758578E-05	0.0106596919132858	-0.0022093087173867
4.6	-0.0189705901648983	0.00479662440115949	0.00306485279746513	-0.000503161276663485	0.00306603080297247	-0.000490398363475021	0.0102769017947291	-0.0030819695267782
4.7	-0.0183825293936841	0.00765161222056342	0.00297216024695421	-0.00091625076952633	0.00298734894921813	-0.000925719826970797	0.00982358097138708	-0.00383649728829994
4.8	-0.0171220440101761	0.0104353137509383	0.00282318719573383	-0.00133101179549175	0.00283164212230435	-0.00133702971831788	0.00950918533507176	-0.0044953878271827
4.9	-0.0151340533702935	0.0128262514831397	0.00261120921219988	-0.00172117493798659	0.00261535361318758	-0.00171826488130923	0.00917848400995105	-0.00514727661259685
5	-0.0127261318113726	0.0146375051350376	0.00235495617844377	-0.00208526127725273	0.00235857177552086	-0.00208259364298919	0.00899576041610816	-0.00571694534317995
5.1	-0.00985923504099357	0.015988098114079	0.00204166551095009	-0.00240485440855042	0.00204396954843543	-0.00240349822782315	0.00892726927224759	-0.00631768297641474
5.2	-0.00676003457005362	0.0167212934610708	0.0016763907882474	-0.00266080214197526	0.00167808489096123	-0.00266595840116106	0.00894038562807926	-0.00694911019583111
5.3	-0.00350050575862864	0.016758003409529	0.001278667033801	-0.0028771387225474	0.00128181637130095	-0.00287509739131316	0.00897593622655671	-0.0076726584230255
5.4	-0.000414506737938809	0.0160624300444242	0.000842413235924043	-0.00301902370627479	0.000859446957222449	-0.00303039303331775	0.0088684061047075	-0.00871343480493754
5.5	0.00221550170323497	0.014831312683143	0.000419899947124378	-0.00310529568337732	0.000429798527521769	-0.00311481298326831	0.00828598673579425	-0.00982982951335558
5.6	0.00436058036951178	0.0132732530525722	-2.20560142682646E-05	-0.00312490173310934	-3.05648104389373E-05	-0.00312797921992068	0.00728292913724547	-0.0105557769438473
5.7	0.00608280808586819	0.011536742522961	-0.000449104912490734	-0.0030760000192997	-0.000465583893189497	-0.00307938313689145	0.00632049859969981	-0.0108298049274063
5.8	0.00746942633762157	0.009638480493343	-0.000882478513179192	-0.00296386778491625	-0.000886147040960892	-0.00297759486354347	0.00555481758205221	-0.0111359197663454
5.9	0.00848532053229401	0.00754484425029695	-0.00126808363912604	-0.00281188741353969	-0.00127615443207934	-0.00281171471623557	0.00471386969156155	-0.0115609851128632
6	0.00898906986420587	0.00518530605928245	-0.00164183214888878	-0.00260170407151727	-0.00163835282621356	-0.00260189520717558	0.00358397081025505	-0.0118874668600825
6.1	0.00891312991923871	0.00276940641517936	-0.00197172227414995	-0.00235309601351688	-0.00197330605971442	-0.00234918557781655	0.00252802637361552	-0.0118458351561354
6.2	0.00832252065228793	0.000437843277400432	-0.00226272444909525	-0.0020557334076904	-0.00226632301563863	-0.00206730015512018	0.00180750552078788	-0.0117268330101922
6.3	0.0074600113792044	-0.00176299349467675	-0.00252563171392906	-0.00174413253498648	-0.00253456200253046	-0.00173859747470539	0.00138483202259091	-0.0118661484735964
6.4	0.0060939675918946	-0.00391609478267837	-0.00274703175295801	-0.00138082068614404	-0.00273748481418266	-0.00138550011738059	0.000863895744355153	-0.0122747115916996
6.5	0.00424996866075802	-0.00578523415234292	-0.0029094472543014	-0.00100212450340508	-0.00291721239661886	-0.000997853702449834	0.000186759662068817	-0.0127101314461699
6.6	0.00202338436513365	-0.00703100944158168	-0.0030324134293557	-0.000598800818374165	-0.00303394810433901	-0.000602740213769791	-0.000494598942263118	-0.01297881556259
6.7	-0.000281658064896805	-0.00758664258586438	-0.00310401146193668	-0.000174856561896901	-0.00311287985665739	-0.000168827711334593	-0.00126154645603728	-0.0131272262372847
6.8	-0.00253616904527919	-0.00758334961470327	-0.00310587225406519	0.000262366021984349	-0.00311698079661214	0.00026715579121987	-0.00207752950452608	-0.0131722350676322
6.9	-0.00476855727222578	-0.00705310239191688	-0.00305196379725246	0.000700367294459771	-0.00305498566599696	0.000702693880668948	-0.00301647653723915	-0.0130724171139483
7	-0.00685317090425706	-0.00610767081816447	-0.00293162689681539	0.00113283569492257	-0.0029444233498325	0.00113042622385585	-0.0039565956956258	-0.0129558651966287
7.1	-0.0088514723097545	-0.00463533722945581	-0.00276283408161159	0.00153705042944549	-0.00275927685907134	0.00154579110360954	-0.00499640045615793	-0.0124937565634776
7.2	-0.0105242900884191	-0.00258867169872294	-0.0025075598938625	0.00192116398961087	-0.00251413908200787	0.00192318674407012	-0.00571013540937931	-0.0117186876738193
7.3	-0.0117301332390841	-0.000151332873013362	-0.00220638742969411	0.00225315123211786	-0.00221768466268722	0.00225815667339351	-0.00592574855611923	-0.0110821487074025
7.4	-0.0122655617939398	0.0026813209285555	-0.0018546389535103	0.00254365837066278	-0.00186158735920809	0.00255729581161912	-0.00624102687875754	-0.010659361095952
7.5	-0.0122222483684553	0.00527305027857936	-0.00147752722564847	0.002783233144244	-0.00147052525107957	0.00279064071191614	-0.00642001911387044	-0.0107773853757763
7.6	-0.0119124424631441	0.00745766138018223	-0.0010618938187375	0.00295517251942945	-0.00106327485612644	0.00295048547150579	-0.00674517118958721	-0.0115833147318391
7.7	-0.0106521080431346	0.00960726709071373	-0.000629566089678352	0.00306484619511289	-0.000630901854591139	0.00306379347961134	-0.00737264685572308	-0.011875013116362
7.8	-0.00898836875872909	0.0113314147665124	-0.000207272192881881	0.00310050069830502	-0.000214995808262089	0.00310691338549767	-0.00828320798402347	-0.0122862809099855
7.9	0.28845436340142	-0.105583550801452	0.000834685643941763	0.00256374919089459	0.000820583330717579	0.00247517077613593	0.429601039173071	0.233220721223565
8	0.333507826251788	0.178747253531332	0.00125409309480182	0.00420428024540238	0.000709401037896862	0.00606467033763817	2.81315674591793	1.66791035028371
8.1	-0.00203305048201194	0.0131902495743722	0.00103561957883092	0.00290364027855309	0.0010544220090812	0.00290486239236553	-0.0116092215437868	-0.0113146338687376
8.2	0.000285663469103438	0.0131336272347918	0.00142021173072669	0.00273604267502367	0.00142938815633054	0.00272909809724955	-0.0122744443313232	-0.0104350095592897
8.3	0.00266395791510228	0.012647951892679	0.00178255143243414	0.00251938613614906	0.00178068655640817	0.00253268249197915	-0.0126654119257307	-0.00972965926817737
8.4	0.00495236026457791	0.011704063286184	0.00211377276001263	0.00226955343600437	0.00211078865460714	0.00226926207812683	-0.0131392889635425	-0.00928638498347543
8.5	0.00700055722969122	0.0102220489089538	0.0024068970312146	0.00196776290710446	0.00240592283314486	0.00197089305401741	-0.0139083002408235	-0.00877762674944049
8.6	0.00863574917221867	0.00839581349330066	0.00267122579404037	0.00163235492666529	0.00268087935967191	0.00162611757701529	-0.0147062431398631	-0.00801164680672012
8.7	0.00988348583595827	0.00629882297987245	0.00288410423906245	0.00124605921468398	0.00288965280621884	0.00124695128572603	-0.0153418514626206	-0.007087940612503
8.8	0.0107739006802236	0.00394979560810997	0.00305179821403951	0.000840726523627978	0.00305786931830155	0.000832068767362399	-0.0158014793749026	-0.00627353389009972
8.9	0.011343847766095	0.00124711294165552	0.00316024558867077	0.000400404447870994	0.00315942434407036	0.00039810418241203	-0.0160471109491182	-0.00543594329650865
9	0.011328685846284	-0.00184039614115358	0.00319606124093158	-6.002954736874E-05	0.00319917668220023	-5.57813210175139E-05	-0.0161330462168036	-0.00460149976829972
9.1	0.0107166236368627	-0.00511367074774122	0.00316741944126774	-0.00052617512046691	0.00317011701540295	-0.000512952790426896	-0.0159492409197914	-0.0037912946571705
9.2	0.00909602654607663	-0.00826300014068406	0.00306457628617757	-0.000971829912445787	0.00307244956107301	-0.000974664523955055	-0.0157479795157656	-0.00314582244949323
9.3	0.00674884571859944	-0.0109720186351674	0.0028919377751587	-0.00140438170849482	0.00289123390132294	-0.00140949512787271	-0.0154632546447945	-0.00258145865488807
9.4	0.00370932661849009	-0.0129873507872904	0.00265626540322891	-0.00181708820123331	0.00266289341929833	-0.00180929621051901	-0.0152576726757376	-0.00197231285626686
9.5	0.000109952810420897	-0.0144474544530719	0.00236169881491097	-0.00216514888955397	0.00236925779605191	-0.00216652710890127	-0.0153413483259881	-0.00162549889320269
9.6	-0.00382599861545245	-0.0147843781273123	0.00202341345035845	-0.00247312872742886	0.00202375244236088	-0.00247213184803686	-0.015509327514286	-0.000959884941809563
9.7	-0.00779217883771631	-0.0140488679208467	0.00163733089351714	-0.00271857370066084	0.00164289148935972	-0.002726000278997	-0.0155238861058451	-9.74554687277746E-05
9.8	-0.0114762472507525	-0.0123967938017697	0.00123994613601579	-0.00291561329847843	0.00124573830880037	-0.00290708418755719	-0.0153787556235432	0.000717618033146457
9.9	-0.0146117902761655	-0.0100160531956765	0.000831011795514237	-0.00303994730896836	0.000823661690888039	-0.00303868304326405	-0.0152604054017343	0.00139611636846261
10	-0.0173148236453728	-0.00702934584149055	0.000406154776191629	-0.00311597502113726	0.000398644502769723	-0.00312840342884879	-0.0152568978504665	0.00217991184986131
10.1	-0.0194039586316445	-0.0035203204755779	-2.36876589305045E-05	-0.0031403008751448	-3.39080094901472E-05	-0.00313494343973654	-0.0150751110040445	0.00302862688281713
10.2	-0.0207803131573364	0.000435835459654968	-0.00045445266361785	-0.00310537881532994	-0.000457869235661423	-0.00310263114179115	-0.0146012553634019	0.00385952793822849
10.3	-0.0212933023820282	0.00471671060789299	-0.000873813418684852	-0.00301124646358524	-0.00086562906897203	-0.00302021198992043	-0.0139287630250913	0.00441640923003972
10.4	-0.0208583753560422	0.00902445103435142	-0.00126478755754502	-0.00287548597413388	-0.00126299155017706	-0.0028816648006	-0.0132200708021712	0.00455160629266368
10.5	-0.0196343098384377	0.0132188450975892	-0.00165997989623438	-0.0026994553074691	-0.00165710102962249	-0.00268631737197719	-0.0128052600507769	0.00458497187384437
10.6	-0.0177803561431024	0.0171780208689968	-0.00202775711481235	-0.00245021739545202	-0.00202546832464897	-0.00245404023414567	-0.0125582560918397	0.00453598679882427
10.7	-0.0148820020674383	0.021028480655783	-0.00236730788088232	-0.00216233522579821	-0.0023638569801745	-0.00215689331085265	-0.0122861641720794	0.00495166259134159
10.8	-0.0111760158776141	0.024416201554827	-0.00266686900934989	-0.00180546972439013	-0.00266139237977379	-0.00181450979047646	-0.0120147268278505	0.00518244640868548
10.9	-0.0067265081856011	0.0271986909966032	-0.00290569423321363	-0.00142242321365549	-0.00291103777815463	-0.00142174373596947	-0.0120178696365868	0.00536815553712901
11	-0.00149233021289933	0.0289040997833062	-0.00309151351937814	-0.000984763899618622	-0.00309645318565593	-0.000991762149591241	-0.0118995063016038	0.00583687465212554
11.1	0.0040568293115346	0.0294979026130554	-0.00321777682231283	-0.000529539140955691	-0.00320655209806502	-0.00052655138019677	-0.01157203106214	0.00642106462484812
11.2	2.68557627216116	2.79826522269268	0.00906397103281452	0.00426863963372692	0.0168063507948302	0.0229764360623704	-0.712630766304648	-0.887649292089138
11.3	0.674024401114828	0.319646546682051	-0.00965376758155262	-0.0130583446810973	-0.0102639060787594	-0.0103036650254632	0.287076646342218	3.09349909474814
11.4	0.0204222505679907	0.0240531926653327	-0.0031238138386465	0.000886584023960587	-0.00311861945128077	0.000894306784129096	-0.00854774312500732	0.00694370410694747
11.5	0.0250421737771568	0.0201587946516651	-0.00295082797873982	0.00132310066647889	-0.00295345790803103	0.00133371846314392	-0.00780903727640435	0.00675600149278459
11.6	0.0286268670082132	0.0151413708688699	-0.00272191072902291	0.00172194827618273	-0.00272181561168517	0.00172495261394049	-0.00708100530880516	0.00612538072706195
11.7	0.0311090460626716	0.00960524786638617	-0.00242635308286763	0.00207133506175272	-0.00242668458162195	0.00208009213025845	-0.00639554366807382	0.00534008512146057
11.8	0.0326425281464853	0.00382346181063098	-0.00210235288779598	0.00238684280822245	-0.00210645852190455	0.00238867456045852	-0.00579822868786215	0.00449962245946592
11.9	0.033054237211107	-0.00196255969907599	-0.00173473135616021	0.00263739018422534	-0.00174767960405084	0.00264206352463053	-0.00583380398167105	0.00394200695197761
12	0.0324596274247574	-0.00830579711708328	-0.00135554591045466	0.00283252464370516	-0.00135491731098931	0.00283391967196812	-0.00585582767251059	0.00300620562749368
12.1	0.0306354855145629	-0.0142370991518998	-0.000951736984426066	0.00298757807710372	-0.000955308744371268	0.00298679596138567	-0.00594580754062453	0.00261541896206197
