# GHZ S RI R 50
0.2	0.00676357622848328	0.00520275345473709	0.00304822821218035	-0.000893972190795065	0.00305858478998712	-0.000887153633514607	-0.0131699362218442	0.00884328705318059
0.3	0.00716266775330012	0.000616096192640209	0.00290590638248323	-0.00131439943042757	0.0028986344124115	-0.00130148191004429	-0.0123004772061243	0.00637727414321568
0.4	0.00575784122758826	-0.00223996742440002	0.00267828116535734	-0.00168400070015703	0.00268357770078106	-0.00169254329270101	-0.0129781524939801	0.00568860597116653
0.5	0.00389117675202797	-0.00344147381753658	0.00242515440083215	-0.0020405220992983	0.00243675768666563	-0.00205271962159663	-0.0136798692038093	0.00649370264410891
0.6	0.00253271847942758	-0.0035654166195169	0.00211885029789331	-0.00235783516669516	0.00211810164821382	-0.0023650045787139	-0.0135979709097028	0.00803593506224155
0.7	0.0018131867339278	-0.00346468141690721	0.00177695825039004	-0.00264163720923266	0.0017749958811544	-0.00264184871559722	-0.012705555306263	0.00948567576558403
0.8	0.00143876589032809	-0.00373983945398858	0.00139414311533613	-0.00286770461361517	0.00138149781901741	-0.00287235731171616	-0.0113997774625342	0.0103504690650993
0.9	0.000665687779332056	-0.00434243225061723	0.000975875467440354	-0.00304133998484602	0.000976977965783959	-0.00305211706412354	-0.0103300597007953	0.0105410945634073
1	-0.000767619867126206	-0.00484176684359535	0.000545606959045152	-0.00315435201668593	0.000535653010974942	-0.00315514238419225	-0.00985591968524214	0.0105601445516816
1.1	-0.00275792347036647	-0.00469326197207428	8.03675828146334E-05	-0.00319032807089722	7.68679337734819E-05	-0.00320818521791645	-0.00994549135108247	0.0110462709216703
1.2	-0.00470419697345857	-0.00391528342254934	-0.00037386244051529	-0.00318313709782522	-0.000374685120336786	-0.00318103576630105	-0.00963480279065277	0.0121694186547448
1.3	-0.00626190622146711	-0.00294981932065717	-0.000813897232146563	-0.00309838752221938	-0.000817181866408798	-0.00310041169720664	-0.00823253278623009	0.0133188820205903
1.4	-0.00728032408955079	-0.00205759652329259	-0.00124702066109355	-0.00294359583195834	-0.00124581705634875	-0.00294920224309966	-0.00635356789512583	0.0135507457228499
1.5	-0.00749993476739519	-0.000731796203492374	-0.00165659832202459	-0.00273717951731547	-0.00165502505431281	-0.00274578665587147	-0.00463654571870714	0.0133594189724195
1.6	-0.00696766018725385	0.00087687215068119	-0.00202113652490563	-0.00247175073712758	-0.00202139468238972	-0.00247703397787926	-0.00360093119477952	0.0133452614658576
1.7	-0.00590064114964687	0.0021564493969703	-0.00234841779562484	-0.00216151294377425	-0.00234932810752327	-0.00215519399298355	-0.00244351454757078	0.0132954835557314
1.8	-0.00476257455103434	0.00315596489579932	-0.00261320588885211	-0.00179856188587811	-0.00262428997231317	-0.00180411080042593	-0.00152317328044059	0.0129639680801131
1.9	-0.00369461567518006	0.00389217484322067	-0.0028289494721454	-0.00142016244191622	-0.0028413591974017	-0.00141385910294896	-0.0010141617915544	0.0127251328111725
2	-0.00256651896294311	0.00458589497120719	-0.0029933859895803	-0.00100955836997142	-0.00300296755759536	-0.00100475215576066	-0.000645424012759627	0.0128614104118437
2.1	-0.00116362267158512	0.00506221765487665	-0.00309638039891935	-0.000583155255443196	-0.00309231846291683	-0.000585179084395976	6.86726851142283E-05	0.0131433731691205
2.2	0.00044213907584054	0.00514451361821125	-0.00314616068108557	-0.000150745328435493	-0.00315745731993924	-0.000153501547469418	0.0012165296681174	0.0132238919825627
2.3	0.0019813828300986	0.0045582523109194	-0.00313817221779182	0.000284809262241381	-0.00313790050791744	0.00027794282820041	0.00235036314678566	0.012769083466451
2.4	0.0031022292851312	0.00361446185201581	-0.00306698965313591	0.000715679989213099	-0.00306953520745064	0.000711437300704031	0.00313712490177706	0.0121130225033178
2.5	0.00380580569274638	0.00252250578764149	-0.00293490267345405	0.00112314286596038	-0.00294577960729592	0.00112952386963865	0.0036344830439955	0.011510764390597
2.6	0.00436383039724207	0.00149218274428668	-0.00276774100915647	0.00152550555992197	-0.00276417305468739	0.00151317146395602	0.00413043542520829	0.0111217153505891
2.7	0.0049606724824485	0.000363217764422825	-0.00252803294585075	0.00190076921044665	-0.00253333076469306	0.00190077531977578	0.00468719949178692	0.010752152153802
2.8	0.0055111643423481	-0.00105500599011966	-0.00224851511240925	0.00223596088755323	-0.00224066061176268	0.00224581016067638	0.00522761677412163	0.0104138383499398
2.9	0.00582933562412012	-0.00273192356715992	-0.00191293793464425	0.00254600895273449	-0.0019091998818568	0.00254557512135474	0.00590787270410827	0.010221930942355
3	0.00579368995907853	-0.00451963414235199	-0.00151993804437325	0.0027907774567013	-0.00153484262525534	0.00279698113823013	0.00682998955278294	0.0101033616632869
3.1	0.00547877533520641	-0.00634034664247444	-0.00111835730782731	0.00297441843742575	-0.00111360217452208	0.00298282341579014	0.00788227978490501	0.00980962011041486
3.2	0.00465519879347694	-0.00825728943036483	-0.000683029914484323	0.00311324341682942	-0.000684798893180149	0.00311264161153707	0.00882589789450643	0.00934104978383699
3.3	0.00325310126193733	-0.0101916375448361	-0.000228811560252912	0.00317826754242469	-0.00022719124021756	0.00317446920596726	0.00975960108965047	0.0085578409186815
3.4	0.00118124951165258	-0.0117082565188274	0.000231793612112059	0.0031606942393557	0.000225786417916527	0.00317749450138954	0.0104719210276489	0.0075074322539845
3.5	-0.00125978020710187	-0.0127120063351602	0.000662974627771335	0.00310137593747092	0.000668605347393789	0.00310135261699122	0.0108145099205273	0.00631262807400418
3.6	-0.00383850533927371	-0.0130617638819548	0.00109408025028114	0.00296192425040994	0.00110228826246148	0.00296144510118735	0.0110207042175621	0.00541382816847918
3.7	-0.00639396539696915	-0.0129244154000839	0.0014993947530681	0.002760239290066	0.00149010013755184	0.00277409815318103	0.0113500372644477	0.00447120617607325
3.8	-0.00896149966526996	-0.0123105060922847	0.00186484173073035	0.00251528516520512	0.00186742132891781	0.0025243396578392	0.0115068123867742	0.00337725435502402
3.9	-0.0113694433938908	-0.0111476079687051	0.00219207678093733	0.00223001273915502	0.00218484181825284	0.00222838937766092	0.0113479849785402	0.00235205368786928
4	-0.0134747912929434	-0.00945585153591475	0.00245512990951886	0.00190483041693898	0.00245948241815468	0.00190235032677854	0.0111235265646885	0.00169238541971357
4.1	-0.0151024958529898	-0.00741278619529524	0.00268565025221499	0.00154907405487995	0.00268442663939762	0.00154981625088011	0.0112003309450664	0.00124332340937488
4.2	-0.0163340256794374	-0.0051952408987295	0.00286712984220889	0.00115966839668016	0.00287143273426438	0.00115105128965617	0.0114739224712411	0.000637948387162858
4.3	-0.0172638360507631	-0.00293806238518135	0.00299898345500445	0.000764344778223802	0.00300524763194309	0.000756634089828141	0.0116662526503501	-0.000319231067491791
4.4	-0.0180209220426808	-0.000417519412327173	0.00307204136757299	0.000348918508740435	0.00307437129979459	0.00034669259344103	0.0115066438929748	-0.00124428639399834
4.5	-0.0183518716106349	0.00241058048169381	0.0030989381383045	-7.2219383793142E-05	0.00310422281326022	-7.55405430961355E-05	0.0112810785520422	-0.00195232081775534
4.6	-0.0181324356285809	0.00533406288347082	0.00306478414192452	-0.000502783698388146	0.00306596061313631	-0.000490021177851382	0.0111460961103693	-0.00259742876246979
4.7	-0.0172501506787459	0.00819351909293461	0.0029722062676259	-0.000915876000076733	0.00298739577710107	-0.000925343040080818	0.0109889874092676	-0.00336960835870139
4.8	-0.0158821760859827	0.0108261872282354	0.00282333356221053	-0.00133068452896464	0.00283178916043388	-0.0013367014670078	0.0107721446081099	-0.0041895465623721
4.9	-0.0139127871040151	0.0131763386825226	0.00261142833779549	-0.00172091703824143	0.00261557248056061	-0.00171800649822493	0.0104207949826396	-0.00488324338562375
5	-0.0114222856439764	0.015051947730222	0.00235521431590859	-0.0020850813607718	0.00235882973865986	-0.00208241331221793	0.0103262703555882	-0.00539709597436393
5.1	-0.00834279440590021	0.0163260083470655	0.00204193527726828	-0.00240474725307654	0.00204423926438156	-0.00240339083155148	0.0104647746510329	-0.00609290696483196
5.2	-0.0051663811513948	0.0167688054492879	0.00167665066958457	-0.00266075703345025	0.00167834522629974	-0.00266591332578396	0.0105326249933743	-0.00702309648376463
5.3	-0.00211477736522851	0.0165639461830151	0.00127890452078539	-0.00287713947419417	0.00128205381493876	-0.00287509786318632	0.0103410404908629	-0.00797440217825191
5.4	0.000686411183945177	0.015914146177425	0.000842627021525999	-0.00301905395182491	0.000859661930867142	-0.00303042251802325	0.00995151034218965	-0.00894910952961871
5.5	0.00325210685309265	0.0149153919048867	0.00042009329139802	-0.00310534623520278	0.00042999267327588	-0.0031148631820155	0.00932371496854983	-0.00982930595228488
5.6	0.00558949469489342	0.0134700021373608	-2.18848216026554E-05	-0.00312496283318462	-3.03936117709063E-05	-0.00312804084617634	0.00852289120027105	-0.0104601125725481
5.7	0.00751792311664059	0.0115639566045803	-0.000448926870561158	-0.00307604133377625	-0.000465405733308363	-0.00307942543328599	0.00775182317689805	-0.0109224115771791
5.8	0.00881732627235212	0.00933315771352375	-0.000882278014152566	-0.00296391278367976	-0.000885945615092584	-0.00297764004280107	0.00686985921763332	-0.0115551346204296
5.9	0.00945634098982534	0.00710559606706411	-0.00126783974571889	-0.00281196520609998	-0.00127591047588822	-0.00281179317569229	0.00564105480197267	-0.0120846955274084
6	0.00961041496276379	0.00496493350583088	-0.00164156150761146	-0.00260185918925474	-0.00163808218028621	-0.00260204997156258	0.00417946321869387	-0.0121623837003934
6.1	0.00948212176790084	0.00290315281371479	-0.00197146760952272	-0.00235334428921958	-0.0019730518604096	-0.00234943400246909	0.0031030643883777	-0.0117638403889081
6.2	0.00902881978100811	0.000751944281412651	-0.00226252132003474	-0.00205606510024122	-0.00226611852633767	-0.00206763257256352	0.00253509267399104	-0.0114790561125901
6.3	0.00820892423674157	-0.00140771550931792	-0.00252551343323848	-0.00174454757591771	-0.00253444486185352	-0.00173901345511003	0.0021588988972328	-0.0115824213885582
6.4	0.00684093849559277	-0.0033603498537874	-0.00274702855865049	-0.00138128568984436	-0.00273748034565823	-0.00138596414011593	0.00165426708828632	-0.0117918989117977
6.5	0.00526133806315049	-0.00498499220903272	-0.00290957743676956	-0.00100259769144935	-0.00291734384059915	-0.000998327527903553	0.00126551989113318	-0.0120094180455313
6.6	0.00347197611704269	-0.00630865279942854	-0.0030326727229696	-0.000599236710944187	-0.00303420708520774	-0.000603176725692001	0.00101479050199069	-0.012400138358788
6.7	0.00136481744571105	-0.00725444168279715	-0.00310438114433951	-0.000175223707777243	-0.00311325132142214	-0.000169195087882888	0.000407265151449497	-0.0129605702317681
6.8	-0.00105600195460251	-0.00756945409068055	-0.00310633614082373	0.000262094905177384	-0.00311744672466321	0.000266884247567807	-0.000606805842906688	-0.0133092602297811
6.9	-0.00353293572909987	-0.00704574779703598	-0.00305249880728207	0.000700228290905335	-0.00305552133895748	0.000702554995132022	-0.00179035403662758	-0.0131920900559105
7	-0.00564726782874678	-0.00591490638696185	-0.00293218455439705	0.00113284830396589	-0.00294498299889177	0.00113043766004571	-0.00274130575953898	-0.0128897132336024
7.1	-0.00741368969101939	-0.00439040219806731	-0.00276336396978519	0.00153721274930165	-0.00275980645763992	0.00154595505203425	-0.00354404849340012	-0.0124023776184511
7.2	-0.00885457558394794	-0.00261391881298899	-0.00250800826287544	0.00192145513504171	-0.00251458858779456	0.00192347814422105	-0.00405562502788872	-0.0119250799952325
7.3	-0.0101379242568326	-0.000646137161628344	-0.0022067239140421	0.00225352325116209	-0.00221802291110952	0.00225852955921473	-0.00440006771841285	-0.0117513057329688
7.4	-0.0111313409038318	0.0018452525244477	-0.00185486399353335	0.00254405789204513	-0.0018618131724859	0.0025576974240489	-0.00521096191480923	-0.0116218889527794
7.5	-0.0116514567993619	0.00452151948925389	-0.00147765884442579	0.00278363886947813	-0.00147065576249268	0.00279104726024869	-0.00594554834721479	-0.0115944732193796
7.6	-0.0115969188606134	0.00705179322058354	-0.00106194107027556	0.00295557351947622	-0.00106332241669127	0.00295088592451068	-0.00649021688117428	-0.0120278152892785
7.7	-0.0104420212649543	0.0095284588459748	-0.000629535056521415	0.00306522888809173	-0.000630871014941597	0.0030641760944178	-0.00718520186432287	-0.0119805798115915
7.8	-0.00881139599758965	0.0115320017667988	-0.000207175387619731	0.00310084673748855	-0.00021489959816603	0.00310726042132361	-0.00809937424879462	-0.0121078866960983
7.9	0.291264221485016	-0.117191817244981	0.000872951615702997	0.00257088749425213	0.000862885319036158	0.00246642290440149	0.448217072687342	0.237587976270869
8	0.356253225605273	0.159400403931549	0.00134504369014404	0.00388775584902902	0.00117177436199235	0.00605715748955926	2.90622664887425	1.55935507489656
8.1	-0.000910034631612006	0.0141739569736372	0.00103582218299385	0.00290386863934424	0.00105462638546564	0.00290509016940075	-0.0103843674783798	-0.0104674776131356
8.2	0.00174958271769434	0.0138138961304847	0.00142042603115416	0.00273624675198632	0.00142960307315297	0.00272930125744085	-0.0107443815560738	-0.00993544192428996
8.3	0.00411834031700362	0.0130057861000242	0.00178278388090869	0.00251958802092014	0.00178091913932349	0.00253288570940379	-0.0111854878536196	-0.00955339952351688
8.4	0.00624726452095651	0.0119992392817394	0.00211405443359236	0.00226976013357404	0.00211106999181445	0.00226946880623282	-0.0118271371264023	-0.00915485075800753
8.5	0.00830719485851946	0.0106529465524954	0.00240725426222435	0.00196794679623719	0.00240628002533518	0.00197107736503577	-0.0125673111670695	-0.00851388420119867
8.6	0.0101966600684014	0.00885229602162035	0.00267166099133325	0.00163247896968373	0.00268131566030941	0.00162624037788241	-0.0131080517857644	-0.00775611196347716
8.7	0.0116541948019683	0.00650563663939522	0.0028846028258313	0.0012460953131436	0.0028901522733333	0.00124698722750279	-0.0135666704997103	-0.00711150889066695
8.8	0.0125142126914326	0.00376446171544611	0.00305234640500841	0.000840643890183809	0.00305841786470065	0.000831984316434794	-0.0141091645972302	-0.00668713369309016
8.9	0.0127941452701515	0.00083226944165684	0.00316080817006277	0.000400172430966212	0.00315998657182395	0.000397871861121305	-0.0146763596833002	-0.00604143377427259
9	0.012499493284044	-0.002219222872654	0.00319658616176282	-6.04246670096276E-05	0.00319970263368179	-5.61761087237864E-05	-0.0150375286723872	-0.00513447542009775
9.1	0.0117405906295717	-0.00542801282103088	0.00316784266665889	-0.000526732507135286	0.00317054264702029	-0.000513508485342002	-0.0149915416509593	-0.00424038622154062
9.2	0.010027840599771	-0.00852699258786588	0.00306484805602392	-0.000972514688256348	0.0030727219691886	-0.000975351108048738	-0.0148752758934073	-0.00353253035019472
9.3	0.00750971954252463	-0.0111354796605851	0.0028920090826463	-0.00140514099216881	0.00289130408536344	-0.00141025489848185	-0.0147472361838137	-0.00284530920301343
9.4	0.00438247898378923	-0.0128903434055707	0.00265611843906297	-0.0018178690142573	0.0026627488744558	-0.00181007774812108	-0.0145925879297489	-0.00196480896502481
9.5	0.000930531049215316	-0.0140370500431984	0.00236136740040973	-0.0021658527322696	0.0023689266076738	-0.00216723280379272	-0.0144835776594451	-0.00132532991250991
9.6	-0.00269395886686655	-0.0142980527139665	0.00202290865142498	-0.00247371848558056	0.00202324789596715	-0.0024727216448573	-0.0143265315768921	-0.000629856258305842
9.7	-0.00643838390822056	-0.0137589440713121	0.0016366953837781	-0.00271900419313202	0.00164225425704185	-0.00272643221034341	-0.0141453612744082	-7.25950127785537E-07
9.8	-0.0101723780573	-0.0123670724075373	0.00123923062716104	-0.00291585722527628	0.00124502472739246	-0.00290732964205562	-0.0140906177063368	0.000558381917037287
9.9	-0.0135343897927352	-0.010042962446889	0.000830307779054093	-0.00303999397053351	0.000822958279503288	-0.00303872814851318	-0.0142077989799159	0.00121005248714805
10	-0.016347752504985	-0.00690588667651124	0.00040549013634925	-0.00311585454748818	0.000397977808526813	-0.00312828060480143	-0.0142928480788513	0.00215846445962288
10.1	-0.0183376156980212	-0.00330115406736446	-2.42729124435452E-05	-0.00314004066462206	-3.44914288583712E-05	-0.00313468175442656	-0.0139994608495429	0.00308648161815854
10.2	-0.0196417815501029	0.000539287879018459	-0.00045492803042543	-0.00310501924842873	-0.000458343832740895	-0.00310227125726683	-0.0134712985772436	0.00378917566157996
10.3	-0.0203213147403794	0.00469531830060439	-0.000874171486047714	-0.0030108377814576	-0.000865989209274082	-0.00301980366563828	-0.0129851308644782	0.00424441710406262
10.4	-0.0201394772131042	0.00913696219868109	-0.00126504913800573	-0.00287506862546262	-0.00126325409020072	-0.0028812471405744	-0.0125104814201351	0.00455179933339804
10.5	-0.0189468988895565	0.0136538623977718	-0.00166017297669748	-0.00269904233566124	-0.00165729275896074	-0.00268590578523885	-0.0120771597103548	0.00491408296301058
10.6	-0.0167397331076982	0.0178538107946163	-0.00202790984077361	-0.00244979013616353	-0.00202562168619704	-0.00245361297706194	-0.0115762755041594	0.00518221838612041
10.7	-0.0137570909640908	0.0216541074573396	-0.00236743103447218	-0.00216191518457282	-0.00236397967331281	-0.00215647401946853	-0.0110907248667215	0.00539854150883694
10.8	-0.00999115721802927	0.0249843319188462	-0.00266696100311953	-0.00180500932068711	-0.00266148589776793	-0.00181404961234563	-0.0107678413435103	0.00556055291811795
10.9	-0.00551009740876187	0.0278641603339123	-0.00290573179289247	-0.00142188408178748	-0.0029110748969409	-0.00142120382001714	-0.0107267377280055	0.00583929155920698
11	-6.09543390532497E-05	0.0296850645969666	-0.00309143971345609	-0.000984180309830262	-0.00309638015419928	-0.000991177213759417	-0.0103720996325208	0.00638712891437453
11.1	0.00586163489947709	0.0302015011005614	-0.00321757243014365	-0.000528944091826118	-0.00320634822523557	-0.000525958511166336	-0.0096839569981918	0.00683068241419086
11.2	2.62969954562147	2.76321679548023	0.00881865438681574	0.00423026881454094	0.0161577946162941	0.0227608339681967	-0.70921689191531	-0.876816832198635
11.3	0.75963795427408	0.292663819317804	-0.01133596810191	-0.0137419218342419	-0.0118550195185564	-0.0104261664912266	0.211807455415906	3.13510149489505
11.4	0.022200900622842	0.023627202626728	-0.00312319221609968	0.00088701490877094	-0.00311799720766622	0.000894735591930926	-0.00687440593673943	0.00622055336089809
11.5	0.0265605018952757	0.0196022324038185	-0.00295009043043306	0.00132337901972101	-0.00295271808034711	0.00133399543262927	-0.00641599166373328	0.00594837301109503
11.6	0.0299652396999437	0.0145339254623685	-0.00272108758428413	0.0017220509390107	-0.00272099199445206	0.00172505466354449	-0.00587692046220489	0.00529470674930471
11.7	0.0322151291891309	0.00888941434783763	-0.00242549111223619	0.00207122880402804	-0.0024258212213059	0.00207998393339241	-0.00544207362524935	0.00444127055768124
11.8	0.0333512851604251	0.00311293715837944	-0.00210150710616303	0.00238650047975969	-0.00210561145187565	0.00238833228929713	-0.00523737513156591	0.00367030132969963
11.9	0.0333655708697885	-0.00239083275499171	-0.00173399273917726	0.00263681654487354	-0.00174693690950137	0.0026414898130522	-0.00562049704029354	0.00346318666535839
12	0.0326771763073907	-0.00824171001565217	-0.00135499403220958	0.00283175443489886	-0.00135436554606899	0.00283314901559232	-0.00565092202591744	0.00303137437551829
12.1	0.0310420117993291	-0.0138153620898702	-0.000951419750034508	0.00298669509691604	-0.000954990450469682	0.0029859132541048	-0.00549049384554534	0.00296026358544114
