# GHZ S RI R 50
0.2	0.00556498593633994	0.0063950915794021	0.00304833434593761	-0.000893853987636993	0.00305869083975068	-0.000887034815975752	-0.0143970745090199	0.0100047407796715
0.3	0.00680181953409026	0.00141495492934433	0.00290602434411136	-0.00131437915613743	0.00289875187631629	-0.0013014613872475	-0.0126907774242774	0.00716170583943409
0.4	0.00566246030952884	-0.00230866420527497	0.00267837074646722	-0.00168404461484451	0.00268366747636266	-0.0016925874576861	-0.0130705761936623	0.00561534375167766
0.5	0.00333584717492114	-0.00426723752365307	0.00242519849933392	-0.00204060074671022	0.00243680197175098	-0.00205279871012279	-0.0141841592304678	0.00563606105028599
0.6	0.00112924689602195	-0.00454027913394506	0.00211884339286829	-0.00235792350060608	0.00211809458361338	-0.00236509303563491	-0.0149264810465088	0.00696192294216629
0.7	-0.000235379515194385	-0.00391048095447661	0.00177689650885547	-0.00264170745621319	0.00177493411892522	-0.00264191890842123	-0.0147079909028954	0.00886797364425281
0.8	-0.000614691720997603	-0.00337761158811083	0.00139404945601774	-0.00286771614455707	0.00138140415070858	-0.00287236844400104	-0.0134771894699351	0.0105115413258811
0.9	-0.000769617382125768	-0.00348606578935789	0.000975808819871149	-0.00304129150498783	0.000976911131116452	-0.00305206837660294	-0.011849020257729	0.011234422149837
1	-0.00142895244231545	-0.00418380071566887	0.000545590147848331	-0.00315429697928047	0.00053563637555671	-0.00315508731036404	-0.0105917827763004	0.0111315817801048
1.1	-0.00309481482761716	-0.00480498394299247	8.03684198124242E-05	-0.00319029414741801	7.68688173959237E-05	-0.00320815110666657	-0.0102648781842541	0.010889202012196
1.2	-0.0054251997831659	-0.00478659302092584	-0.000373862885418744	-0.00318311477169853	-0.000374685557568327	-0.00318101345389964	-0.0102229988717463	0.0112009898373493
1.3	-0.00765912730474035	-0.00401962535006315	-0.0008138861387823	-0.00309836456467371	-0.000817170744291009	-0.00310038872887566	-0.00944654391979278	0.0120415188166892
1.4	-0.00908863178906596	-0.00295358833421406	-0.00124699325179036	-0.00294358147568062	-0.00124578962160566	-0.00294918783750868	-0.0079865129603633	0.0123606437079399
1.5	-0.00961389048102684	-0.00134760189642097	-0.00165657033331581	-0.00273716619249405	-0.00165499703248226	-0.00274577325303814	-0.00660636512986263	0.012369997612472
1.6	-0.00929293989139555	0.000796656237184273	-0.00202108733581547	-0.00247172914661498	-0.00202134544905213	-0.00247701231019581	-0.00586883647482333	0.0128181805940636
1.7	-0.00802904799312072	0.00271136303496605	-0.00234833105418379	-0.00216151001231083	-0.00234924145939114	-0.00215519120798704	-0.00464204193192275	0.0134028772667091
1.8	-0.00632379294619405	0.00402612543923554	-0.00261310008623224	-0.00179861488479747	-0.00262418378898531	-0.00180416406160936	-0.00323693750888722	0.0134752731213639
1.9	-0.00475597782561117	0.00458609959995865	-0.00282887879849316	-0.00142027329778665	-0.00284128873170051	-0.00141397049820129	-0.00220745718957499	0.0131584485180264
2	-0.00352608888693523	0.00489057210578971	-0.00299337640532625	-0.00100969018674874	-0.00300295826834012	-0.00100488431019443	-0.00165151837540244	0.0129273948121309
2.1	-0.00237908008962182	0.00519700142786744	-0.00309642563189992	-0.000583273828663263	-0.00309236354073612	-0.000585297560655808	-0.00114238127304234	0.0129692475843551
2.2	-0.000989650401504321	0.00551898627783337	-0.0031462442775755	-0.000150830666172091	-0.00315754115933162	-0.000153587253169512	-0.000262740584791853	0.0132088575652131
2.3	0.000742242561846456	0.00531839413222688	-0.00313827109405854	0.000284768507485587	-0.00313799926802416	0.000277901871145522	0.000951259718302615	0.01315818260173
2.4	0.00239822350854215	0.00442611597500144	-0.00306707099580036	0.000715680192394194	-0.00306961658951389	0.000711437382322289	0.00222982981251671	0.012686386043061
2.5	0.00351474427448094	0.00292532313264024	-0.00293496533770596	0.00112315211651056	-0.00294584251346507	0.00112953319815439	0.00323434483587529	0.0118064855924739
2.6	0.00404107526704042	0.00136268001497213	-0.00276779900519996	0.00152552088539757	-0.00276423092805184	0.00151318657883227	0.00386077235009815	0.010898188813796
2.7	0.00434725202554028	-3.01403208121174E-05	-0.00252807897542415	0.00190080112654851	-0.00253337688784614	0.00190080723234532	0.00423011275672502	0.010183100410003
2.8	0.00469150951395825	-0.0015078371343478	-0.00224853231135846	0.00223599533794706	-0.00224067768199986	0.00224584469382105	0.00460313984475802	0.0097148397802522
2.9	0.0048581704175356	-0.00330813425822888	-0.00191293132183981	0.00254601602894018	-0.00190919326831801	0.00254558218603992	0.00519165181755744	0.00934793614467744
3	0.00448534374051133	-0.00521214520643336	-0.00151993428607479	0.0027907593204576	-0.00153483879429369	0.00279696294211734	0.00585118762189953	0.00899374431672338
3.1	0.00372360345292279	-0.00687507806553684	-0.00111837746363738	0.00297439607630606	-0.00111362242175413	0.00298280105804489	0.0064460434096006	0.00867192811088592
3.2	0.00264834032917709	-0.008366647743492	-0.000683060397744648	0.00311318361176267	-0.00068482933960933	0.0031125817926185	0.00701116654561378	0.00848312739610328
3.3	0.00133681309049665	-0.00987720633107186	-0.000228895385409481	0.00317821227372705	-0.000227274985953091	0.00317441404033806	0.00787387077492188	0.00810142191740025
3.4	-0.000488164108188839	-0.0112286569009173	0.000231665737079549	0.00316068407510119	0.000225657907700376	0.00317748399348829	0.00875040505677931	0.00727635403241976
3.5	-0.00283304657282381	-0.0122711951753358	0.000662850351843653	0.00310142709168387	0.00066848111512796	0.00310140400578378	0.00919937741533413	0.00606426353136734
3.6	-0.00547818511554015	-0.0125581400878677	0.00109395693098835	0.0029620394547663	0.00110216513662517	0.00296156070010661	0.00932079904673856	0.00517514898489874
3.7	-0.0080263648113508	-0.0121465865576364	0.00149931016784546	0.0027604116693446	0.00149001453264017	0.00277427055922496	0.00954046891746714	0.00446097834573183
3.8	-0.0102834607439916	-0.0112823913895015	0.0018648237647097	0.00251550322499295	0.00186740308111105	0.0025245583121046	0.00986222603434035	0.00370549717446244
3.9	-0.0122581294424116	-0.0102054574849853	0.00219214868107575	0.00223024425056229	0.00218491327741181	0.00222862052032923	0.0101212935832646	0.002781110467759
4	-0.0141830199752887	-0.00886877887380329	0.00245528901095713	0.00190503286289063	0.00245964191930813	0.00190255266079096	0.0102147090722606	0.00187871174199535
4.1	-0.015947253732608	-0.00707262633741651	0.00268587788774391	0.00154921880465441	0.00268465416577448	0.00154996106057212	0.0102869088962661	0.00113825191055787
4.2	-0.0173136745471031	-0.00482317678747539	0.00286740575740316	0.00115973605987085	0.00287170892714374	0.00115111811281823	0.0104289216641698	0.000484358977117819
4.3	-0.0181212854429157	-0.00249747396746461	0.00299929088380344	0.000764314594784785	0.00300555538660204	0.000756602969859846	0.0106941943738227	-0.000366778367811991
4.4	-0.0186953958202028	-0.000155821186204657	0.00307232541991778	0.000348773792848384	0.00307465542593526	0.000346547553593483	0.010780134691101	-0.00136494308246746
4.5	-0.0190796323318413	0.0023250038898114	0.00309914867369026	-7.24550452642264E-05	0.00310443346969464	-7.57768292578528E-05	0.0106869372381661	-0.00240421250068797
4.6	-0.0191890929388742	0.00506556400970477	0.00306490388927737	-0.000503060772536411	0.00306608146617717	-0.000490297678324502	0.0103727960333889	-0.00338271387861695
4.7	-0.0186291069505835	0.00802532339142365	0.00297222105943765	-0.000916170503136695	0.00298741021809812	-0.000925639203443242	0.00989941988676954	-0.00425012004791967
4.8	-0.0173289887983116	0.0108667972238498	0.00282325189061314	-0.00133094719936256	0.00283170706692636	-0.00133696494889785	0.00952264419086058	-0.00494417005752594
4.9	-0.0153263892969987	0.0132651235016942	0.00261127505300937	-0.0017211190673942	0.00261541940897596	-0.00171820887834136	0.00917965456805677	-0.00559383194784116
5	-0.0129474775139699	0.0151100540248771	0.00235502596855195	-0.00208520915315615	0.00235864151363522	-0.00208254140584874	0.00901689995633027	-0.00620861814845822
5.1	-0.0100702288254301	0.0165518938341363	0.00204174394140455	-0.00240480395188161	0.00204404794812733	-0.00240344769835015	0.00890376558128716	-0.00689552468632177
5.2	-0.0068718122541411	0.01734606938021	0.0016764845270275	-0.00266075566792571	0.00167817880613003	-0.00266591188849966	0.00879641399578316	-0.00754498431432581
5.3	-0.00350547681320842	0.0173352149332939	0.00127878149399695	-0.00287710516702435	0.00128193077067052	-0.00287506370727625	0.0087500071425724	-0.00817537627409527
5.4	-0.000412050802757787	0.0165376145574509	0.000842544316976679	-0.00301901474109986	0.000859578649524077	-0.00303038346536522	0.00868262952009997	-0.0091111879671603
5.5	0.00213503672200643	0.0152705666168192	0.000420039214177132	-0.00310531574865329	0.000429938327337904	-0.00311483273815029	0.00820250908757271	-0.0102275682443216
5.6	0.00421972360795872	0.0137860769336648	-2.19157815681593E-05	-0.00312495168464049	-3.04245726112946E-05	-0.00312802960245228	0.0072323835130804	-0.0110540843200161
5.7	0.00599089879709372	0.0121550358420481	-0.000448970293918725	-0.00307608348311941	-0.000465449451243122	-0.00307946743949009	0.00617897507717689	-0.0114144288439527
5.8	0.00751959075141064	0.010260062752877	-0.000882353706194641	-0.00296398578127146	-0.000886021645462199	-0.00297771338565164	0.00527065690696127	-0.0116651262604597
5.9	0.00862485526985759	0.00803260676228405	-0.00126797914844541	-0.0028120434851686	-0.00127605021020457	-0.00281187119941237	0.00439524499906818	-0.0119182197514475
6	0.00906940078313235	0.00551557372248931	-0.00164176594572109	-0.00260189527271374	-0.00163828647033598	-0.00260208623749886	0.00339117768554685	-0.0121078984147564
6.1	0.0088478470661029	0.0030530107259716	-0.00197170754534447	-0.00235330800271183	-0.00197329159767755	-0.00234939744814665	0.00250302378635096	-0.0120762877480629
6.2	0.00816587325212636	0.000772098978339125	-0.00226276678825933	-0.00205594721866815	-0.00226636506990512	-0.00206751478140468	0.001856104773764	-0.012042541667026
6.3	0.00727950038242263	-0.00140543304931071	-0.00252572686051495	-0.00174433098050881	-0.00253465790198095	-0.00173879589347561	0.00144962553934124	-0.0122119937977021
6.4	0.00582228262794627	-0.00356847903737132	-0.00274717505660203	-0.00138098828641383	-0.00273762735656712	-0.00138566776193895	0.00102799501773429	-0.0126409629674739
6.5	0.00384122438818382	-0.00532988231069806	-0.00290962462831102	-0.00100224875647031	-0.00291739037881489	-0.000997977817276021	0.000454079231072376	-0.0132347165402903
6.6	0.00160934132214128	-0.00635574254781798	-0.00303261053524771	-0.000598876653383963	-0.00303414526737659	-0.00060281633191406	-0.000299420413917823	-0.0137277572683337
6.7	-0.000530980108799468	-0.00677158139522329	-0.00310421555725076	-0.000174882984248389	-0.00311308456636589	-0.000168853778137475	-0.00128272687970686	-0.0139564883168749
6.8	-0.00261802224240308	-0.00680740101580831	-0.00310606948249582	0.000262387312582055	-0.00311717872473765	0.000267177403034625	-0.00225283789183821	-0.01389823429955
6.9	-0.00482392379471232	-0.00638413882971351	-0.00305214474105976	0.000700425890834933	-0.00305516678025984	0.000702752633891358	-0.00317583849686569	-0.0136767740910246
7	-0.00699567291543668	-0.00545864716763896	-0.00293178538280168	0.00113292547659226	-0.00294458258986941	0.00113051597577737	-0.00401437037846411	-0.0135675146076511
7.1	-0.00903831542455214	-0.00386352453237089	-0.00276297037298176	0.0015371623928292	-0.00275941286785679	0.00154590351120869	-0.00504521938013351	-0.0132462837464142
7.2	-0.0105907111604838	-0.00166433639357307	-0.00250767515076974	0.00192129507783235	-0.00251425467375154	0.00192331801264968	-0.0059307692851052	-0.0125885675147746
7.3	-0.0115438336078918	0.000783765141926808	-0.00220648198982471	0.00225330335494104	-0.00221777978749115	0.00225830921298856	-0.00640959715308316	-0.0118800603152897
7.4	-0.0118577918956666	0.00341380979446999	-0.00185470455620736	0.00254383646930846	-0.0018616531399427	0.00255747481571757	-0.00688961625174763	-0.0111743049432153
7.5	-0.0118078801793774	0.0057080383508867	-0.00147755252631346	0.00278342811752203	-0.00147054998034019	0.00279083596442518	-0.00698027173718995	-0.0109756460931249
7.6	-0.0116565724074359	0.00773540253646479	-0.00106187540165382	0.00295536703797454	-0.00106325664086581	0.00295067976266247	-0.00708695553456207	-0.0116601479048251
7.7	-0.0105624298574552	0.0098061702696484	-0.000629511181113534	0.00306502978442319	-0.000630847048610358	0.003063977050865	-0.00751171266531034	-0.0119163851698304
7.8	-0.00904583858145089	0.0114938416515974	-0.000207189978744034	0.00310067066181514	-0.000214913809324526	0.00310708391972743	-0.0082495275112356	-0.0123296204988464
7.9	0.283193886564163	-0.102733216446746	0.000853027509183093	0.00256300101164004	0.000843006602221196	0.00247354745291085	0.429845420976067	0.239996678903226
8	0.343181816144215	0.177527838118706	0.00123748186997127	0.00421529761631096	0.00054543774504976	0.00598126326907454	2.69140146613514	1.70915284191919
8.1	-0.00260212376773184	0.013836311512434	0.00103576101146031	0.00290376099777164	0.00105456446172078	0.00290498261035044	-0.011151958405119	-0.0120292264039694
8.2	-0.000138016804686679	0.0140053587763072	0.00142037899829146	0.00273615375909557	0.00142955572762151	0.00272920849602874	-0.0120354460156754	-0.0113556446650686
8.3	0.00242597502401994	0.0135471191807589	0.00178275787128103	0.002519474068535	0.00178089338706412	0.00253277131846759	-0.0126342767023769	-0.0106297368498809
8.4	0.00476255114002823	0.0125233662855654	0.00211401526366965	0.00226959356451687	0.00211103095688406	0.00226930233278619	-0.013137550276481	-0.0100869449455856
8.5	0.00672895715359983	0.0110457994792652	0.00240715186566256	0.0019677386513102	0.00240617779188833	0.00197086903783574	-0.0138173770746878	-0.00960618752860405
8.6	0.00832721210481868	0.00937776769875256	0.00267146901886421	0.00163226921939323	0.00268112268827405	0.00162603092865574	-0.0146164880615464	-0.00902416238045038
8.7	0.00970715745521537	0.0074368100023542	0.00288432237421478	0.0012459221156449	0.00288987125928857	0.00124681385304714	-0.0154384955918523	-0.00823707390939114
8.8	0.0108371771173337	0.00511170661642438	0.00305198644594248	0.000840546670715288	0.0030580571956651	0.000831888120329218	-0.01616959637647	-0.00738559955176076
8.9	0.0115715444795009	0.00226126428801264	0.00316039569604044	0.000400183223131051	0.003159574248116	0.000397882931665565	-0.0165594001481724	-0.0063400023810691
9	0.0115580300393605	-0.000990958147623996	0.00319615840527642	-6.02863751387831E-05	0.00319927428476453	-5.60382617545524E-05	-0.0166058198525137	-0.0053195938710519
9.1	0.0109192724932173	-0.00435015731835658	0.00316745583328979	-0.000526452711498947	0.00317015457893264	-0.000513230271350624	-0.0163704298853669	-0.00441582620504128
9.2	0.00927838119671114	-0.0075511570461365	0.00306454419840366	-0.000972110139614671	0.00307241736177233	-0.000974945476759887	-0.0161299732976801	-0.00371283358753717
9.3	0.00688667553804268	-0.0103698542030001	0.00289183700903167	-0.00140464608616246	0.00289113268147537	-0.00140975948335779	-0.0157625846181934	-0.00303607522935547
9.4	0.00368963081396825	-0.0124603506222788	0.00265609999315341	-0.00181731075557814	0.00266272865767481	-0.00180951936179222	-0.0153603326381176	-0.00238597935703521
9.5	-0.000128978548790286	-0.0138463546133448	0.00236148641593786	-0.00216531827744427	0.00236904518232831	-0.00216669711182146	-0.015221642004998	-0.00217545578604392
9.6	-0.00414846505213394	-0.0139755187260418	0.0020231821483705	-0.00247323471580873	0.00202352121040622	-0.0024722378825627	-0.0153533460478666	-0.0017565249385696
9.7	-0.00800629195770004	-0.0130593325223895	0.00163710404833291	-0.00271862493969563	0.00164266399953742	-0.00272605173365008	-0.0155330181961905	-0.00105785720631681
9.8	-0.0115063015486914	-0.0114029049641025	0.00123973166605956	-0.00291562756061613	0.00124552425583683	-0.00290709901136159	-0.0155842634722737	-0.000193684091136016
9.9	-0.0145774029209135	-0.00916158213434826	0.000830804193248497	-0.00303993961938843	0.000823454313183351	-0.0030386749163498	-0.0154970789783566	0.000654284303111985
10	-0.0173723095431934	-0.00625893430127063	0.000405950224316757	-0.00311594168613622	0.000398439307920672	-0.00312836938409555	-0.0153712679345039	0.00150640699537101
10.1	-0.0195386665429562	-0.00268053900641505	-2.38887614817809E-05	-0.00314023943069466	-3.4108573132095E-05	-0.00313488144158235	-0.0151225546863448	0.00226508452320252
10.2	-0.0208385118943739	0.00134914400755996	-0.000454648461127355	-0.00310528885177066	-0.000458064786105875	-0.0031025410062993	-0.0147463297635788	0.00304005593778109
10.3	-0.0212423209768944	0.00553086856842262	-0.000874004467335482	-0.00301112587590541	-0.000865820901679544	-0.00302009179002306	-0.0141633748975704	0.00373207217902917
10.4	-0.0208807047352205	0.00964750412199515	-0.00126497317616401	-0.00287532748196906	-0.0012631776687542	-0.00288150630373395	-0.0133289136237645	0.00405597008751107
10.5	-0.019977270931434	0.0137222541553635	-0.00166014622904818	-0.00269925377312522	-0.00165726641421502	-0.00268611641276572	-0.0126360920758412	0.00400279919385118
10.6	-0.0180861553581611	0.0179476367690161	-0.00202789962775001	-0.00244993465184381	-0.00202561127772374	-0.00245375754665922	-0.0122457883862883	0.00397654453694168
10.7	-0.0154832110237155	0.0219325962244912	-0.00236738908095263	-0.00216205042258882	-0.00236393787259942	-0.00215660901713317	-0.0120498199270547	0.00392908191305519
10.8	-0.0115735994249312	0.0253979666107058	-0.00266687321700211	-0.00180512033378317	-0.00266139773341178	-0.00181416035578937	-0.0117861966128098	0.00423934122201069
10.9	-0.0071994671800313	0.0282037505961263	-0.00290559854345046	-0.00142206898726104	-0.00291094163124211	-0.00142138910420223	-0.0117074223180837	0.00438664186527487
11	-0.00207489448764706	0.0300814742796153	-0.00309132722718091	-0.000984435521811288	-0.00309626702437525	-0.000991432783570026	-0.0115035529893451	0.00465435138188807
11.1	0.00350803680155726	0.0309958316029638	-0.00321751317813263	-0.00052925794536283	-0.00320628929145122	-0.000526271272419678	-0.011266731705658	0.00491384566080573
11.2	2.69963796410516	2.66191066999831	0.00918173858947658	0.00397436262607736	0.0169575677592516	0.0219804541765202	-0.718875393123355	-0.893382808045246
11.3	0.693763547137819	0.373964325831148	-0.00979862391468101	-0.0135534847896104	-0.0107317991282988	-0.010855151070576	0.41160535267243	3.00750674942349
11.4	0.0208257161720849	0.025644390115365	-0.00312340640277162	0.000886644893484083	-0.00311821221197881	0.000894366489373182	-0.0092311276833198	0.00550728791126781
11.5	0.0255800229001142	0.0215465431150431	-0.00295040685721751	0.00132306883969788	-0.0029530359930695	0.00133368544846094	-0.00859065358458656	0.00554762102969915
11.6	0.0292239664913791	0.0163839338381256	-0.0027215033561177	0.00172180883109449	-0.00272140815791892	0.00172481277523356	-0.00790189038566632	0.00507263470591508
11.7	0.0318121798554168	0.0106617878969497	-0.00242600097334545	0.00207109225050598	-0.00242633230726944	0.00207984815573217	-0.00730177018484547	0.00449744556292031
11.8	0.033362897364165	0.00455158389415954	-0.00210209099102197	0.0023865210095169	-0.00210619609929918	0.00238835250212119	-0.00667807537953549	0.00400848004063856
11.9	0.033561356341918	-0.00157885622449729	-0.00173457774726661	0.0026370297174884	-0.00174752451689171	0.00264170220097931	-0.00642997984948193	0.00379139859149112
12	0.0325618593418354	-0.00801893386683428	-0.00135548633316144	0.00283217667557408	-0.0013548578445316	0.002833571572278	-0.0059984981722087	0.00290235471760303
12.1	0.0304301017409813	-0.013806037112091	-0.000951749057808785	0.00298725902202345	-0.000955320448604172	0.00298647685778763	-0.00577367355716306	0.00230661550915699
