# GHZ S RI R 50
0.2	0.00642066821200464	-0.00117324068088296	0.00304842901842043	-0.00089950062999972	0.00305880256265514	-0.000892695430967411	-0.01355875056627	0.00246116532305465
0.3	0.00612697854329062	-0.00179648264628129	0.00290345705484946	-0.0013240433713516	0.00289622078801712	-0.00131109645582698	-0.0133698470066974	0.00400891147622716
0.4	0.00612912686252221	-0.00235579482205897	0.00267031305889668	-0.00169663143563304	0.00267556923225657	-0.00170519896976213	-0.0125641383410379	0.00565550576970758
0.5	0.00617094883279478	-0.00325377092334542	0.00240927219800479	-0.00205341484233219	0.0024207840623076	-0.00206567109172989	-0.0112424866691053	0.00673675437010771
0.6	0.00589740621812064	-0.00451073960074943	0.00209431897633751	-0.00236681411433781	0.00209351778174526	-0.0023739558202723	-0.0099867940820426	0.00703925757845179
0.7	0.0049002674189285	-0.00584885261658265	0.00174509270169901	-0.00264222594560016	0.00174313921572742	-0.00264241980295749	-0.0093630119722042	0.00690918117567439
0.8	0.00325163854950646	-0.0068220385722011	0.0013586112346685	-0.00285620134406441	0.00134602928579172	-0.00286070949550464	-0.00939963072315602	0.0069755395419323
0.9	0.00113220277007847	-0.00696473088996518	0.000941973501367887	-0.00301574645443791	0.000942981477909711	-0.00302641480257737	-0.00975951302891356	0.00761332444498293
1	-0.000835869882584173	-0.00622072373692121	0.00051923926041571	-0.00311529143797817	0.000509414195190787	-0.0031160111045452	-0.0098411685007962	0.00892460634255328
1.1	-0.00224651826868833	-0.00493783821157368	6.7441274988789E-05	-0.00314112679830779	6.39305471457993E-05	-0.00315869409354943	-0.00929470608680338	0.0105740504306521
1.2	-0.00302964077062139	-0.00387882263251498	-0.000369801938739357	-0.00312904694541141	-0.000370609214879846	-0.00312698056148362	-0.00778391165106036	0.0118896325902155
1.3	-0.00385462436684329	-0.00343133721452209	-0.000791651779261754	-0.00304640757800641	-0.00079487382072969	-0.00304840493502628	-0.0057144462231473	0.0124264879769666
1.4	-0.00484905343192882	-0.00300605552574294	-0.0012081070033357	-0.002900797400159	-0.00120689039078371	-0.0029063008748474	-0.00385691106878435	0.0120811043621633
1.5	-0.00524180381077627	-0.00207501399449593	-0.00160539185196914	-0.00270923650265757	-0.00160376444733275	-0.00271769357650654	-0.00238589001582888	0.0113633851938063
1.6	-0.00509134971832952	-0.000981121372107952	-0.00196433428379996	-0.00246215078068097	-0.00196452622681522	-0.00246736529145833	-0.00178554942170195	0.0107514093438332
1.7	-0.00472257207603488	5.54727710235454E-05	-0.00229328086576453	-0.00217076538474328	-0.00229426879688692	-0.00216452693715402	-0.00153071977237254	0.0104874631978474
1.8	-0.00426651894703781	0.00129545115876178	-0.0025669198039099	-0.00182394146543365	-0.00257783847277571	-0.00182961359280879	-0.00138276945914432	0.0105897192906472
1.9	-0.00344874995593766	0.00253463598022002	-0.00279622549127299	-0.00145633238799002	-0.00280867778648426	-0.00145023925909659	-0.0010653436217197	0.0110217074367859
2	-0.00218831984415729	0.00358940435702018	-0.00297653086792924	-0.00104984676597462	-0.0029861693218416	-0.00104517738877212	-0.000409935933984053	0.0115597442095695
2.1	-0.000583964518603689	0.00409517021807426	-0.0030943262583336	-0.000620582680701798	-0.00309023412540304	-0.00062256175560044	0.000606741541287688	0.0117650320222781
2.2	0.000992387015579492	0.00402484525247523	-0.00315487772704975	-0.000179845786317096	-0.00316618551854158	-0.00018271359600474	0.0016762652524706	0.011558682822255
2.3	0.00226265052565875	0.00341345944626985	-0.00315167881331006	0.000266910288018119	-0.00315136457921341	0.000260019710168934	0.00239124641700045	0.0110728319064868
2.4	0.0031242032188461	0.00267785002052182	-0.00307878053051844	0.000708573073316809	-0.00308132112721307	0.000704309332269271	0.00284977594866218	0.0108226651836068
2.5	0.00380470277148396	0.00196192668883665	-0.00293957963742377	0.00112325131897169	-0.00295047501303223	0.00112963583578297	0.00346362934310575	0.0107773447365788
2.6	0.00456638397725369	0.00117044982085592	-0.00276252259017787	0.00152706285469581	-0.00275897410067984	0.00151473927791955	0.00441346060214213	0.0106453285888724
2.7	0.00536632094124139	7.6504970331365E-05	-0.00251339150707175	0.00189722379547728	-0.00251866614379229	0.00189723986972272	0.00534182990696892	0.0101719898989681
2.8	0.00600333820410451	-0.00135007024190098	-0.00222813660498928	0.00222170850303389	-0.00222032954763909	0.00223147111924157	0.00602037249910432	0.00967994183691402
2.9	0.00640755924071323	-0.00296205413811862	-0.00189318886087997	0.00251757891926167	-0.00188949123709419	0.00251715131294298	0.00682243719959066	0.00940575045792683
3	0.00651692219679926	-0.00472150591445774	-0.00150859128711947	0.00274845830830914	-0.00152331616658056	0.00275453064621719	0.00791411725729901	0.00911238999177981
3.1	0.00634906735481439	-0.00666881812389071	-0.00112219505827707	0.00292187795513201	-0.00111756990489009	0.00293018947368497	0.00903970313825131	0.00843112688406882
3.2	0.00555550218611269	-0.00875254787505555	-0.000707358813191271	0.00305715371747851	-0.000709093521903514	0.00305654141199776	0.0097417301694402	0.00758855610539729
3.3	0.00410586149117811	-0.0107890954338707	-0.000275392926783679	0.00312771220338432	-0.000273736837303584	0.0031239954580592	0.0102760849525176	0.00672134386175696
3.4	0.00199690044273354	-0.0123333330438131	0.000165458519279501	0.00312529992923544	0.000159190445707242	0.00314176684942659	0.0107319351431975	0.00584827953053463
3.5	-0.000391449998822881	-0.0133501580221078	0.000582860756495623	0.00308835312341109	0.000588439687721245	0.00308846428132499	0.0110646176803897	0.00485344152095376
3.6	-0.00294650346311123	-0.0138330421521859	0.0010097058046157	0.00297682388108548	0.00101788694484062	0.00297656621195531	0.0113053879790248	0.00390398838043823
3.7	-0.00555772062723697	-0.013880551531566	0.00142189086469421	0.00280384018556687	0.00141220005207356	0.00281744176451732	0.011482067699708	0.00288667361264777
3.8	-0.00831042524812798	-0.01341362703212	0.00180468070827112	0.00258361571819281	0.00180701857877365	0.00259279866778477	0.0113836935486603	0.00192231092759731
3.9	-0.0109543763850274	-0.0122841341989964	0.00215757062656661	0.00231519187961367	0.0021502948583842	0.00231335444936067	0.011162104226362	0.00122415643837377
4	-0.0132670857654696	-0.01053608733935	0.00245063310469636	0.00199548527520948	0.00245511783973323	0.00199306785369567	0.0111620940852978	0.000801064293902034
4.1	-0.0150538995597834	-0.00839359330532355	0.00271092986756179	0.00163376934709229	0.00270966637189458	0.00163450294542402	0.0115085061918622	0.000315645579075044
4.2	-0.0164144094600863	-0.00604270389538386	0.00291707990159681	0.00122769173718036	0.00292160621896279	0.00121893622442999	0.0118568946735531	-0.000446857559183426
4.3	-0.0174373628962897	-0.00359757091365634	0.00306441600871815	0.000808688112550467	0.00307089748419874	0.000800846430920033	0.0119975217650249	-0.00138719523606927
4.4	-0.0182179988540031	-0.000876505564737202	0.00314185973351961	0.000366779870868928	0.00314425056721632	0.000364509996638844	0.011892691636719	-0.00219347221281609
4.5	-0.0184971244576701	0.00214444802022128	0.00316261760957913	-7.84200969491823E-05	0.00316800601345158	-8.1817658931493E-05	0.0119047032198884	-0.0028622785039716
4.6	-0.0181566491747274	0.00521579209152276	0.00311397823981135	-0.000526627312364422	0.00311523852452348	-0.000513655338435675	0.0119702845147226	-0.00373648938210722
4.7	-0.0170897603344486	0.00813115037532126	0.00300274724563347	-0.000948047936245692	0.00301805935987717	-0.000957738889983674	0.0118398050970014	-0.00479916117793234
4.8	-0.0156052297887511	0.010696327376836	0.00283556984513357	-0.00136179225950285	0.00284404716915091	-0.00136791819961957	0.0114048649467751	-0.00577740360554404
4.9	-0.0135682476993298	0.0129665623204762	0.00260998282904378	-0.00174287471171731	0.00261415918550272	-0.00173997939931302	0.0109446124202519	-0.00643700778215898
5	-0.0110656181822324	0.0147971507686554	0.00234776474576288	-0.00209319760869211	0.00235138928398198	-0.00209054238825694	0.010879295196633	-0.00692174783153822
5.1	-0.00797374553791442	0.0160501714524277	0.00203739192275252	-0.00239851739238644	0.00203969004926658	-0.00239716386146566	0.0110156786286492	-0.00771504518227802
5.2	-0.00480097687276508	0.0164432176838119	0.00168300188727583	-0.00264416606955894	0.00168471401689559	-0.00264929723868254	0.010904922682975	-0.00871478657683471
5.3	-0.00183248780862453	0.0161648968159094	0.00130147581794155	-0.00285756341732229	0.00130459785983996	-0.0028554988772702	0.010509702191062	-0.00953488166970831
5.4	0.000811561140221372	0.0155157064693526	0.000882497617125151	-0.00300608331987182	0.000899674814460028	-0.00301721778827375	0.0101473468806491	-0.010266025138257
5.5	0.00323947083804145	0.0146416759535267	0.000473919160246599	-0.00310788847028468	0.000484010256567337	-0.0031172675546376	0.00977372361332865	-0.0110803732677861
5.6	0.00556613307668892	0.0133908086123072	3.81995743167381E-05	-0.00315039848921134	2.9682030161817E-05	-0.00315366521751898	0.00917265135302833	-0.011936492916785
5.7	0.00755583093421592	0.0116592368131341	-0.000393260437539699	-0.00312737418744476	-0.000409897914820715	-0.00313113612373043	0.00822474961924974	-0.0126867813741092
5.8	0.00906063588436224	0.00948805594815085	-0.000843163838410157	-0.00303963915582665	-0.000846641968565193	-0.00305370913935236	0.00707482328210168	-0.0133702194156738
5.9	0.00986430239005583	0.00719236730074954	-0.00125494418142397	-0.00290486263510865	-0.00126322541168249	-0.00290481684254591	0.00567153548572779	-0.0136931625824207
6	0.0100675052614996	0.00492619691077115	-0.00166225788303195	-0.00270064237688549	-0.00165866939617379	-0.00270079920811423	0.00428170184566602	-0.0135381437257896
6.1	0.00988440350870782	0.00277481420347824	-0.00202683763780615	-0.00244427762576241	-0.00202849652480663	-0.00244024149582756	0.00338221542169105	-0.0131092190068295
6.2	0.00936079467605928	0.000580213512170493	-0.00234786451694768	-0.00212531059839203	-0.0023516141050349	-0.0021372860177093	0.00286002714084711	-0.0129481004839264
6.3	0.00842441830696433	-0.00164643126862904	-0.00263125344754745	-0.00178219011564379	-0.0026404477679379	-0.00177637581283449	0.00237615125230876	-0.0131198343795113
6.4	0.0069429554943179	-0.00369010726882287	-0.00285929573966733	-0.00138100809800607	-0.00284951355983601	-0.00138599636019227	0.00196818787032658	-0.0133369096463845
6.5	0.00521042265760777	-0.00528295041634965	-0.00301339067741081	-0.00096571841695123	-0.00302127914501928	-0.000961155393164978	0.00175488335788257	-0.0137591316486023
6.6	0.00337084438552304	-0.00642885470953622	-0.00311539402389244	-0.000532130436510191	-0.00311706655447696	-0.000536116668700951	0.00141551354225202	-0.0144911154628905
6.7	0.00135984822133357	-0.00721300404319727	-0.00315712225296894	-8.8873012229364E-05	-0.00316595584612478	-8.24973049253991E-05	0.000420091233961882	-0.0151726590913875
6.8	-0.000940300730307535	-0.0074892268657983	-0.00312555052096221	0.00035398376273099	-0.00313661868804709	0.000359134972030392	-0.000941922235021282	-0.0152826998781256
6.9	-0.00337296520831141	-0.0070735250861986	-0.00304082904717134	0.000784717269771471	-0.00304379571401944	0.000787131553631336	-0.00206794926183039	-0.014905347282392
7	-0.00553601113572382	-0.00586582041159334	-0.00289706196864661	0.0011994520554257	-0.00290988210211147	0.00119735262049746	-0.0028291293389824	-0.0144377710447991
7.1	-0.00723737901852859	-0.00417754844895658	-0.00271570790953797	0.00158035347104544	-0.00271200537894194	0.00158897013954787	-0.00347956592624385	-0.0140740812019461
7.2	-0.00842702305985345	-0.00230323632282231	-0.0024596001931611	0.00194000641829941	-0.00246609570258176	0.00194210403357005	-0.00412900283675758	-0.0138062358088335
7.3	-0.00938182664055779	-0.000432615957246884	-0.00216809137892705	0.00225241373716907	-0.00217924812686371	0.00225747198600322	-0.00486747562164229	-0.013576859946469
7.4	-0.0103002055698811	0.00151066352733962	-0.00183282862150677	0.00253190136222186	-0.00183968135739654	0.00254546559311522	-0.00570256637547444	-0.01337269050809
7.5	-0.0109797393612695	0.00384453447201094	-0.00147419314250582	0.00277117630037311	-0.0014672246722713	0.0027785611773589	-0.00635053680431725	-0.0129217566532711
7.6	-0.010888008303737	0.00652759396340885	-0.00107381239120239	0.00295329205605701	-0.00107517673197917	0.00294859642108978	-0.00672451188866408	-0.0123966298424066
7.7	-0.0103185676681126	0.00895632674021709	-0.00064855207115705	0.00308075646824502	-0.000649890940332167	0.00307969065079373	-0.00724056541201454	-0.0128950485656217
7.8	-0.00890274598395592	0.0110469433541696	-0.000222312994325946	0.00313693702560276	-0.000230155420131909	0.00314339554781172	-0.00805005457010916	-0.0129309758415241
7.9	-0.00707581364451931	0.0128317433299554	0.000223030144978288	0.00315034631768031	0.000231004884366505	0.00315186166208671	-0.00869429757492375	-0.0127695143696635
8	-0.0043024944159574	0.0141000016978919	0.000672087308275274	0.00308191205266278	0.000672169882228306	0.00308684016509091	-0.00912844671516985	-0.0122559127081944
8.1	-0.00133844637311375	0.0148170618933777	0.00109134789993764	0.00296429384528723	0.00111062568020313	0.00296535016014365	-0.00974335455688737	-0.0122465969365215
8.2	0.00176190884148904	0.0146059429596874	0.0015046645949976	0.00277930570311004	0.00151394718480471	0.00277202317620763	-0.0104536237471105	-0.01200747756945
8.3	0.00456263256621058	0.0136556087778642	0.00188768544112641	0.0025323481363164	0.00188611497974661	0.00254599903030065	-0.0112573040651579	-0.0115588193647632
8.4	0.00688184060394984	0.0123198401652307	0.00222647668415246	0.00224415980196624	0.00222342717745434	0.00224395897976215	-0.0120032777538089	-0.0109204117178518
8.5	0.00886480746555856	0.0107144916111793	0.00251069780194704	0.00190212411818384	0.00250982875439485	0.00190532985851018	-0.0126173860624003	-0.010160047823869
8.6	0.010621474028536	0.00886398992901647	0.002750743439099	0.00153136347137601	0.00276018953716792	0.00152470225404039	-0.0130532203091051	-0.00951672605779296
8.7	0.0121569065308359	0.00650940244260508	0.002926366877667	0.00112132906699625	0.00293193386661494	0.00112198628974362	-0.013551717509234	-0.00907239114402523
8.8	0.013115404439356	0.00366122616484125	0.00305065862298541	0.000707414863073202	0.00305630902256022	0.000698611033884271	-0.0143869275613419	-0.0085795056078652
8.9	0.0133423675095766	0.000522627064594067	0.00311534321281354	0.000275433073973195	0.00311445205136486	0.000273206826331311	-0.0150766247917807	-0.00757955709371272
9	0.0128161098991484	-0.00259636749011985	0.00311417696439188	-0.000160984148217338	0.00311735064853399	-0.000156942077110728	-0.0152424193496151	-0.00631825223385875
9.1	0.0117447300881835	-0.0055463845708051	0.00306062501702886	-0.000592048462804106	0.00306358282224086	-0.000579284816028069	-0.01495247906089	-0.0052917297027506
9.2	0.0100780196441889	-0.0084275576846089	0.00294862720408868	-0.000997696711278881	0.0029561963170151	-0.0010005869845317	-0.0146425514747249	-0.00461041726073647
9.3	0.00765283132950275	-0.0110081666973847	0.00278241409544349	-0.00139145391855362	0.00278167542754302	-0.00139639372543053	-0.0143692139423882	-0.00393100976818863
9.4	0.00451567075315305	-0.0129697890728616	0.00256646417149071	-0.00177257657175387	0.00257292159554499	-0.00176505363835477	-0.0140304660559813	-0.00332495039199819
9.5	0.000961381498004323	-0.0138090349595877	0.00230045776834544	-0.0021018544432663	0.00230781160555109	-0.00210318241165342	-0.0135772715106077	-0.00272610193460901
9.6	-0.00263829551768058	-0.0138947140569625	0.00199310351243619	-0.00240492722737214	0.0019934287133808	-0.00240395071080441	-0.0133811017917585	-0.0024942943683259
9.7	-0.00616698110032204	-0.0132824258659611	0.00163417447404693	-0.00265909383600026	0.00163970842454867	-0.00266634833643527	-0.0134833997810355	-0.00223557284721456
9.8	-0.00969318532249154	-0.0120690057307988	0.00125436917589886	-0.00287439551466795	0.00126002317111385	-0.00286589956241792	-0.0138241649675531	-0.00173453452527347
9.9	-0.0131879317096163	-0.00995595901212693	0.000850298085939752	-0.00302120649220079	0.000842968836212915	-0.00302000235249267	-0.0142528216127546	-0.000821815380704894
10	-0.0162612190092993	-0.0069522892885297	0.000417503974437481	-0.00311722912655391	0.000410031092923068	-0.00312969476450894	-0.0143097691773913	0.000261386167264296
10.1	-0.0184993945982048	-0.00318197061348829	-3.03360390301316E-05	-0.00315295277015239	-4.05865481648237E-05	-0.0031475523399765	-0.0140213648498994	0.00116449929722382
10.2	-0.0197722109150337	0.000917572973912705	-0.000483573186713554	-0.00311662470713221	-0.000486982662242342	-0.00311383400576663	-0.0136443369110269	0.00188095543906664
10.3	-0.0202302130420435	0.00512033736413206	-0.000922679886466538	-0.00300742936493305	-0.000914606792313317	-0.00301654862644412	-0.0132609494243249	0.00256283685216159
10.4	-0.0199501283113286	0.00940103904947112	-0.00132425856122338	-0.00284599158345393	-0.00132259473238688	-0.00285220231673739	-0.0125964998286861	0.00315458458033856
10.5	-0.0188445953502802	0.013809051970764	-0.0017164764776427	-0.00263830776111807	-0.0017132857388096	-0.00262533589521199	-0.0117404777683861	0.00355021772211449
10.6	-0.0166047797957572	0.0181442576072693	-0.00206523469138907	-0.00235925140917357	-0.00206308355281184	-0.00236308124901054	-0.0108988500583748	0.00362440770942681
10.7	-0.0133749460650891	0.0219653191601339	-0.00237238427471929	-0.00205004643961145	-0.00236886431760416	-0.00204481961936611	-0.0103016834107257	0.00356071705693636
10.8	-0.00939832913898135	0.0249956246167883	-0.00263011785118557	-0.00168662713595896	-0.00262502467742041	-0.00169552707756098	-0.00997474017608508	0.00356470667244971
10.9	-0.0050119646026995	0.0272603204751781	-0.00282580156752942	-0.00131401003899655	-0.00283093478847881	-0.00131325283274843	-0.00965150662661628	0.00375334185718797
11	-0.00010262465204928	0.028910017000825	-0.00297336524059064	-0.000904456147167447	-0.00297818410978526	-0.000911097106785984	-0.00914897121061574	0.00398276532873113
11.1	0.00534202362638847	0.0296823180777913	-0.00307337487014916	-0.000490807347323408	-0.00306264870460925	-0.000488006730007118	-0.00851950517419866	0.00394317234242308
11.2	0.0111375387813127	0.0291594448791701	-0.00309954327372366	-6.72906927473702E-05	-0.00310659694696019	-7.20674888716156E-05	-0.00798742547312455	0.00370238849262315
11.3	0.0168676754367927	0.0272934696211853	-0.00307535319207341	0.000366661577770245	-0.00308670741299266	0.000356715493095863	-0.00764783390223234	0.00355618578023431
11.4	0.0217973868781585	0.0241658528362198	-0.00300961496170753	0.000781830486854704	-0.00300480757790878	0.000789335272687126	-0.00725341002225131	0.00343753617071191
11.5	0.0259103543091682	0.0202590554486495	-0.00287862388780157	0.0011888829267697	-0.00288146069184464	0.00119902853472732	-0.00685075438308733	0.00306185546689356
11.6	0.0294769499382958	0.0156438873399183	-0.00269859400049326	0.00157611765719257	-0.00269860509511706	0.00157903416259991	-0.00652503665714129	0.00255396588575526
11.7	0.03221780795752	0.0102497307062391	-0.00245137730770037	0.00193362755480177	-0.00245203358331647	0.00194217886895365	-0.00639457514862873	0.00192487588702528
11.8	0.0338104721476691	0.00424804633184166	-0.0021675943100149	0.00227330009303522	-0.00217171704052749	0.00227494754456142	-0.0064449165935529	0.00153129922008451
11.9	0.0341560112103549	-0.00181972970973023	-0.00182545628749577	0.00256043848114966	-0.00183852014266994	0.00256460609326275	-0.0063596880624903	0.00177815070760291
12	0.0331530032834371	-0.00791739288123697	-0.00145398525135538	0.00279554862343219	-0.00145340136047217	0.00279696868266479	-0.00604179888676748	0.0016829786681833
