# GHZ S RI R 50
0.2	0.00564636259953596	0.00274811950567641	0.00304826934256335	-0.000896962404391555	0.00305863492679389	-0.000890151273208019	-0.0142790664239202	0.00641860493308858
0.3	0.00630817274535234	-4.91389167238702E-05	0.00290450298641448	-0.00131966497367329	0.00289725075769157	-0.00130673158543632	-0.0131401979518272	0.00575205284026893
0.4	0.00587913815444634	-0.00235453266426735	0.0026738327153269	-0.00169089087624065	0.00267910694236216	-0.00169944693267694	-0.0128365642409408	0.00562498767991765
0.5	0.00471204216027531	-0.00401605721005428	0.00241637567894234	-0.00204750995494432	0.00242792851387452	-0.00205973920701365	-0.0128300372321328	0.00598582819519633
0.6	0.00328104051005996	-0.00492885795338971	0.00210538653441411	-0.00236264558746563	0.00210460924441706	-0.00236979961404703	-0.0128001241165834	0.0067573668337633
0.7	0.00186730084114351	-0.00523852438221667	0.00175955102518262	-0.00264186427664167	0.00175759356049487	-0.00264206616918722	-0.0125642858127289	0.00780427106585342
0.8	0.000750130901866909	-0.00525342731918959	0.00137479338955234	-0.00286136970891527	0.00136218288713489	-0.00286594372047372	-0.011955739083293	0.0089088562155828
0.9	-0.000274015069654484	-0.0051766309137535	0.000957455847947885	-0.00302740149505229	0.000958507013875973	-0.00303811938901004	-0.0111111398627973	0.00972471235641659
1	-0.00134001301578452	-0.00513129958752215	0.000531277001577919	-0.00313320357098347	0.000521392849546251	-0.00313395549208563	-0.0102936142279402	0.0102212547030434
1.1	-0.00269513784176361	-0.00499568635787704	7.32308056698295E-05	-0.00316378415673557	6.97242719273123E-05	-0.00318148472798576	-0.00983026821700168	0.0106614332098927
1.2	-0.00426638726042655	-0.00470382148647875	-0.000371982886223546	-0.00315397256376595	-0.000372797068175965	-0.00315188997274903	-0.00925625707941244	0.0113155094397127
1.3	-0.00591622607029633	-0.00422358821513592	-0.000802377198867392	-0.00307025717981317	-0.00080562841146012	-0.00307226641043448	-0.00802758582025046	0.0120552172910192
1.4	-0.00720646576403276	-0.00353220367968018	-0.00122662572074917	-0.00292019728307964	-0.00122541629584956	-0.00292574832413198	-0.00643225926202753	0.0121115167309755
1.5	-0.00780400011400542	-0.00232670944876966	-0.00162958981288936	-0.00272148301482987	-0.00162798972871898	-0.00273000904155377	-0.00511615344012436	0.0118186830104795
1.6	-0.00775935597259946	-0.000639079368799459	-0.00199096692317697	-0.0024656115799353	-0.00199119093644869	-0.00247085693006671	-0.00450254772590178	0.0119314329210186
1.7	-0.00703722015066947	0.00103956515626202	-0.00231884230514231	-0.00216526338658847	-0.00231979225155443	-0.00215898898910027	-0.00364900001726686	0.0123054429064962
1.8	-0.00589188206918048	0.0025099347894359	-0.00258799319938598	-0.00181087192820301	-0.00259898636128233	-0.00181648209731655	-0.00267194090516139	0.0124526642783507
1.9	-0.00452648286725869	0.00346758330113788	-0.00281061748591163	-0.00143829717577285	-0.00282304353002263	-0.00143210604261491	-0.00185377076546504	0.0124092442813853
2	-0.00315999230932569	0.00405966852319499	-0.00298318696907947	-0.00103004489702828	-0.00299279357552217	-0.00102531218949858	-0.00126093226782069	0.0124362715001622
2.1	-0.00180211902421425	0.00434344778361074	-0.00309376923319582	-0.000602341804926255	-0.00308969360598151	-0.000604341336058205	-0.000598689358407649	0.0125463732686789
2.2	-0.000436522109822388	0.00445098336400159	-0.00314900435592719	-0.00016579303415296	-0.0031603007314012	-0.000168605787425015	0.000337398144710111	0.0126729288014333
2.3	0.000995280983840742	0.00417506873828196	-0.00314331054873023	0.000275324950578509	-0.00314301687697782	0.000268450088053006	0.0014121465862964	0.0125107424962276
2.4	0.0023603777729044	0.00353119550048819	-0.00307103786902924	0.00071140332304579	-0.00307357897439943	0.00070715252307655	0.00246693146751386	0.0121120127504013
2.5	0.00348496448195988	0.00244393187961397	-0.002935170440742	0.00112204789377207	-0.00294604915649153	0.00112842473970671	0.00336008910741862	0.0114512040712143
2.6	0.00429036418663223	0.00111839321411216	-0.00276298853827083	0.00152447485377311	-0.00275943127476273	0.00151215737277755	0.00404695280228998	0.0107500254360125
2.7	0.00485312970024705	-0.00028963970020277	-0.00251879556333908	0.00189641460082902	-0.00252407662783704	0.00189642415936222	0.00453234353589584	0.010120968340408
2.8	0.00531077867367066	-0.0018184571637248	-0.00223695369287724	0.0022255126061967	-0.00222913543755456	0.00223531169114107	0.00496500428121159	0.00968009792080773
2.9	0.00561278483438201	-0.00359039453278776	-0.00190255556426168	0.0025279005607743	-0.00189884147438091	0.00252747257609356	0.00559109285126771	0.00936810705302272
3	0.00547584133187136	-0.00557384661419119	-0.00151482449932575	0.00276549974429027	-0.00152962832804327	0.00277161967256959	0.00633313324822003	0.00906622615427632
3.1	0.00488313917146197	-0.00753418178763715	-0.00112192198795474	0.00294415364483078	-0.00111724436588369	0.00295250794466136	0.0070549775645395	0.008710625032852
3.2	0.00374208208422593	-0.00935133419893742	-0.000697849930938906	0.00308161219925679	-0.000699599511384346	0.00308100383165778	0.00767200770850996	0.00840746287950779
3.3	0.00222928355261642	-0.0110200053152373	-0.000255617659331088	0.00315009094051255	-0.000253976368772563	0.00314633843417185	0.0084957880140611	0.00793497034028456
3.4	0.000262945556820469	-0.0123620927347923	0.000194480441714527	0.00314099265685214	0.000188326031303962	0.00315760648421618	0.00929343533677425	0.00709629495100889
3.5	-0.00205696003660359	-0.0133864281613899	0.000618372696368769	0.00309383289536175	0.000623974074885514	0.00309388433668962	0.00970855997304316	0.00596159808061492
3.6	-0.00470336792619788	-0.0138284225395386	0.00104718805569502	0.002969418994539	0.00105537917567667	0.00296906233973331	0.00985828006156342	0.00508910691065918
3.7	-0.00740853151806436	-0.013617274629457	0.00145606273028215	0.0027831875612637	0.00144655332687525	0.00279689905694615	0.0101173896744484	0.00434924209575334
3.8	-0.00997703919433461	-0.0127892591461983	0.00183059459740288	0.00255163622601645	0.00183303929074827	0.00256075667859782	0.0104134021982015	0.00353189544151713
3.9	-0.0121806082952296	-0.0115207525757365	0.0021713488193985	0.00227565503273415	0.00216409645045378	0.00227391408633803	0.0105883440569963	0.00259363181860553
4	-0.0141101040305978	-0.00996655493437213	0.00245029799742295	0.00195376177630787	0.0024547203911071	0.00195131909295593	0.0106245865659606	0.00175167900002416
4.1	-0.0157911967407483	-0.00811605006305868	0.00269663867190983	0.00159525907601999	0.0026953939322725	0.00159599545219454	0.0107181498287822	0.00107486365346325
4.2	-0.0171936528131558	-0.00589688382828222	0.00289127681638627	0.00119745009969684	0.0028957029226171	0.00118876728443352	0.0109084791504647	0.00041443000766891
4.3	-0.0181488088820204	-0.00346115173988693	0.00303144191143327	0.000790054198740424	0.00303782470020142	0.00078228352701582	0.0111523529965272	-0.000465674651651239
4.4	-0.0187246731182069	-0.000862464405259193	0.00310700508828291	0.000361167464872255	0.0031093681635653	0.000358921741486688	0.0111702183844648	-0.00146613339095297
4.5	-0.0188845278815507	0.00181882509827661	0.00313100351871228	-7.20202440003071E-05	0.00313634385148368	-7.53741313710192E-05	0.0110220064806376	-0.00243758470524615
4.6	-0.0187009149216627	0.0045154652687682	0.0030898596378677	-0.00051119406197171	0.00309106342177996	-0.000498325868618527	0.0107049864887115	-0.00335733656596883
4.7	-0.0179828234887238	0.00728484910678486	0.00298844002148567	-0.000928136512567503	0.00300370181898286	-0.000937695642383484	0.0102868926537075	-0.00416790954459361
4.8	-0.0167268486672327	0.0099644985152673	0.00283123442267277	-0.00134217272315775	0.00283970911148973	-0.00134823190736578	0.00990251939556787	-0.00486649438436033
4.9	-0.0147271882563532	0.0123318966140297	0.0026135520541128	-0.00172789253255321	0.00261770796565023	-0.00172498293961643	0.00955372550684229	-0.00549213193896349
5	-0.0122638068992842	0.0141028621113275	0.00235548113435924	-0.00208559420500635	0.00235909735314071	-0.00208292593672784	0.00939524091914136	-0.00602878220746477
5.1	-0.00938363066346142	0.0153380485428155	0.00204465324219345	-0.00239896950923884	0.00204695279887766	-0.00239760998062938	0.00935974077841236	-0.00663326086882409
5.2	-0.0063968105320249	0.0159687665940925	0.0016854793417198	-0.00265099030634978	0.00168719276550649	-0.00265613393789456	0.00936911028681951	-0.00728780644503834
5.3	-0.00330445700009797	0.0160259210263545	0.00129616394833796	-0.00286721612375625	0.00129929834445434	-0.00286515604005577	0.00937464709058655	-0.00801689448727557
5.4	-0.000300791393666395	0.0154542482771177	0.000868471877397039	-0.00301378006294796	0.000885612369818514	-0.00302501240963438	0.00925855883017066	-0.00903510773480876
5.5	0.00236279057490009	0.014327127440573	0.000452616878024698	-0.00310905447718085	0.000462638016448537	-0.00311849557965122	0.00871068917931772	-0.0101404631049689
5.6	0.00457599975224861	0.0127802303523845	1.32330116802463E-05	-0.00314128459169691	4.71515275905039E-06	-0.00314447436524735	0.00775848744320613	-0.010903389481961
5.7	0.00629099479877888	0.0110264601275448	-0.000416797246269642	-0.00310639812562833	-0.000433371364877319	-0.0031100016478727	0.0067888670834925	-0.0112436016912464
5.8	0.00762938735972536	0.00912900836331775	-0.000859509327949744	-0.00300743588298615	-0.000863066708914727	-0.00302136008283155	0.00598761355601457	-0.0116267557597013
5.9	0.00860841187873562	0.00712774036605424	-0.0012595048383779	-0.00286477904046358	-0.00126769421356596	-0.00286468119532692	0.00506665501096341	-0.0120794622691825
6	0.00917253373394017	0.00488673274365661	-0.00165160512386432	-0.00265793222614669	-0.00164806477293818	-0.00265810204987386	0.00386579117862078	-0.0123815372299401
6.1	0.0092248915331471	0.00250179631838425	-0.00200045107983316	-0.00240531102029085	-0.00200207969941338	-0.00240133204373311	0.00277106045786342	-0.0123128279577205
6.2	0.00871321739015006	9.53043238218343E-05	-0.0023079296432637	-0.00209649832657393	-0.00231160071533683	-0.00210829511542563	0.00200636210078866	-0.0121967906236671
6.3	0.00780693613250578	-0.00218850566831973	-0.00258218881895713	-0.00176816792661122	-0.00259127196031903	-0.00176248834824376	0.00147987260969155	-0.0123482409501625
6.4	0.00644827004805048	-0.00436642616570781	-0.00280757748869636	-0.00138477617087977	-0.00279789306404787	-0.00138961410055145	0.000921645055440172	-0.0127026981387695
6.5	0.0046644504258847	-0.00629456868013206	-0.00296608206512169	-0.000986764024381281	-0.00297392395414703	-0.000982342658074277	0.000278322641263849	-0.0130782665237285
6.6	0.00244328207823389	-0.00765900714634869	-0.00307864805954771	-0.00056752764699675	-0.00308025276474941	-0.000571497449965621	-0.00035232235798423	-0.0133314350143479
6.7	3.22179839248269E-05	-0.00828578735976319	-0.00313542285519737	-0.000133343219057529	-0.00314429024917997	-0.00012713480853376	-0.00111506489577657	-0.0134839056155082
6.8	-0.00233786839087209	-0.0082236288690234	-0.00312080576837817	0.000307247659331586	-0.00313191401537528	0.000312221008261115	-0.00195859812028618	-0.0135066585300223
6.9	-0.00455877410222365	-0.00763405736134823	-0.00305185633053105	0.000742311877582135	-0.00305485675841809	0.000744684833113742	-0.00286112903618376	-0.0134198320123279
7	-0.00655911634010845	-0.00662734684855357	-0.00292013595884006	0.00116688694267213	-0.00293296626901773	0.00116462246541644	-0.00380629844786651	-0.0132491091779083
7.1	-0.00846309438418236	-0.00521783682225056	-0.0027451875547943	0.00156066180664118	-0.00274155400621491	0.0015693587154646	-0.00481293758114671	-0.0127447080175438
7.2	-0.0101360282894318	-0.00330091072355235	-0.00248918905087586	0.00193392210770023	-0.00249574038786027	0.00193598485526001	-0.00547568598547756	-0.0119654215468341
7.3	-0.01144665017674	-0.000932647222999908	-0.00219212898955505	0.00225740064584999	-0.00220338047238388	0.0022624422180927	-0.00567589977889204	-0.0113621810609032
7.4	-0.0121761871627335	0.00177778687899301	-0.00184755126108614	0.00254345416879207	-0.00185446579687382	0.00255708518079484	-0.00589573381020868	-0.011168748345531
7.5	-0.012265628189685	0.00448960911412702	-0.00147843701434552	0.00278362811250115	-0.00147143477034554	0.00279103887716902	-0.00616216802752343	-0.0113205983131044
7.6	-0.0117789334396101	0.00694961157785915	-0.0010690975639453	0.00296109949288798	-0.00107047499850325	0.00295639838335893	-0.00656637421536273	-0.0117677201106114
7.7	-0.0106985105373865	0.00919997170397656	-0.000638955000067081	0.00307989586084329	-0.000640295789619967	0.00307883491620131	-0.00725232834578216	-0.0122693916775562
7.8	-0.00897223127115481	0.0110493085966324	-0.000213320308577806	0.00312586413862761	-0.000221116790287349	0.00313231908920472	-0.00821829001761605	-0.0126510098071945
7.9	-0.00657709081804389	0.0122410873291851	0.000225752220540932	0.00313016422173393	0.000233678598096026	0.00313165954395413	-0.00934077323726703	-0.0125711886306475
8	-0.00422013920570897	0.0129042657661157	0.000663831201914608	0.00305661130382899	0.000663908902290975	0.00306149811765318	-0.0106599373813804	-0.0124178224170523
8.1	-0.00161485595966229	0.0130083786195387	0.00106990774570533	0.00293944844873867	0.00108899417081408	0.00294056489223992	-0.0116528455379124	-0.0115800965481977
8.2	0.000806323080901665	0.0127874838905671	0.00147034080101714	0.0027614636430103	0.00147957929039593	0.00275431862981232	-0.0123074442356088	-0.0106523766477353
8.3	0.00321156348588407	0.0121799139781053	0.00184390312278594	0.00252743185571754	0.00184220861836802	0.0025409366306508	-0.012699493616048	-0.00990651538409158
8.4	0.00552749203217638	0.0111511900939764	0.00217899719146703	0.00225602366515483	0.00217597449038655	0.00225578385754809	-0.0131816127265611	-0.00940250881939294
8.5	0.00761823558967015	0.0095547497251343	0.00246693196542124	0.00193190080800861	0.00246601652831737	0.00193507550493773	-0.0139341788346319	-0.00880244855514883
8.6	0.00924483685449705	0.00755007168072442	0.00271783735625295	0.00157708353326124	0.00272738230185786	0.00157060397563258	-0.0146605401343329	-0.0079430452977562
8.7	0.0103786694561637	0.00526838762079214	0.00291050711002758	0.00117778384810493	0.00291607142881737	0.00117854592915485	-0.0151484887393758	-0.00696186961492848
8.8	0.0110682371531957	0.00285884889448701	0.00305497336947778	0.000767548219534315	0.00306081780453297	0.000758798322176276	-0.0154667873252723	-0.00614917660809703
8.9	0.0114661966285464	0.000230619194608399	0.0031401583444419	0.000331115651434656	0.0031392966691175	0.000328853135473169	-0.0156040448220534	-0.00537061143305371
9	0.0113797485063275	-0.00272769067415393	0.00315625239338461	-0.00011743175496164	0.0031594073602405	-0.000113291654668977	-0.0156430518246841	-0.00459525116608666
9.1	0.0106543176969677	-0.00588119303726618	0.00311396828998038	-0.000566123596509813	0.00311682542129677	-0.00055313191408131	-0.0154980587836272	-0.00382953054120661
9.2	0.00903184017512429	-0.00889792163320987	0.00300530378038335	-0.000991760444649279	0.00301302089749067	-0.000994640955769304	-0.0152626196103548	-0.00320235707033424
9.3	0.00672242220751719	-0.011461931942803	0.00283450727323117	-0.00140468365510144	0.00283377434639026	-0.00140970956318016	-0.0149553665787015	-0.00270080094019805
9.4	0.00384703367571661	-0.0134615885625837	0.0026072737879129	-0.00180103012334811	0.00261383473814613	-0.00179338765591942	-0.0148012983272096	-0.00230888432168812
9.5	0.000442360314510514	-0.0147838786636694	0.0023257414124905	-0.00213877628970792	0.00233319372619866	-0.00214014690593206	-0.0148717247366984	-0.0018773095512444
9.6	-0.00337191353200446	-0.0152617077687623	0.00200194267124981	-0.00244310286491766	0.00200227700807888	-0.00244211722295633	-0.0150914552217801	-0.00123129982445838
9.7	-0.00734379858542119	-0.0147015185078349	0.0016288182310299	-0.00269157738055556	0.00163434614012846	-0.00269892793609006	-0.0151297502892827	-0.000384175193164362
9.8	-0.0111391131467152	-0.0131600846468427	0.00123983753804557	-0.00289649351036061	0.00124557759286869	-0.00288799838213451	-0.0150125836816856	0.000393530733580071
9.9	-0.0144432648892585	-0.0107155307946638	0.000833068537185119	-0.00303090831851477	0.000825735750803661	-0.0030296575189991	-0.0149960506460575	0.00108967318027443
10	-0.0172006786746765	-0.00767050167939849	0.000403928116937142	-0.00311569661924666	0.000396410600580125	-0.00312811760559073	-0.0150483438645356	0.00189264339558421
10.1	-0.0193105920877534	-0.00410516039024061	-3.52334379111015E-05	-0.00314419158833114	-4.5447087595676E-05	-0.00313878988805827	-0.0148963934791473	0.00278634252035121
10.2	-0.020704107609952	-8.96965855847601E-05	-0.000477279016975134	-0.00310657982090224	-0.000480680859579067	-0.00310380381530536	-0.0144129895191042	0.00364713940404416
10.3	-0.0212006371804089	0.00429298389472492	-0.000905902338228583	-0.00300256510419447	-0.000897811445999028	-0.00301161911824407	-0.0137211041543627	0.00420005491913503
10.4	-0.0206488746679297	0.00871279868719759	-0.00130069253913624	-0.00285161418199222	-0.00129898431015952	-0.00285780274836017	-0.013010453802179	0.00431882790286516
10.5	-0.0192002683719071	0.0129317979821171	-0.00169193145681256	-0.00265778844187143	-0.00168886630810159	-0.00264477281861868	-0.0125994553341685	0.00436670706566594
10.6	-0.0169852255895718	0.0167957054614831	-0.00204701437042981	-0.00239264775110341	-0.0020448106116799	-0.00239646912847855	-0.0123246636396908	0.00450558515105484
10.7	-0.014091149577713	0.0203944612684973	-0.00236699691725319	-0.00209425512246957	-0.002363510720101	-0.00208894540521221	-0.0119859533354644	0.00480792009105404
10.8	-0.0103637600154396	0.0235524843151324	-0.00264256766648735	-0.00173540831728619	-0.00263731665999457	-0.00174435713744694	-0.0116451652371545	0.00502506961744749
10.9	-0.00591885835507686	0.0260414475594725	-0.00285752480446618	-0.00135959527762626	-0.00286274386065487	-0.00135887246502387	-0.011506595786742	0.00518646502124851
11	-0.000814315819024441	0.0275179136386431	-0.00302269104139747	-0.000938416836764618	-0.00302755965251223	-0.000945207873256483	-0.0113844331222324	0.00560505697291878
11.1	0.00450607934540413	0.0279064113209559	-0.0031350107939781	-0.000506403911709146	-0.00312407150287281	-0.00050352673153603	-0.0110418709929801	0.00618704164395181
11.2	0.00982682405158762	0.0272368280987037	-0.00316511630543368	-6.03235657556015E-05	-0.00317233171484107	-6.5182051928068E-05	-0.0102738340115098	0.00675172434918718
11.3	0.0150707577953268	0.0254853783952485	-0.00313571673985844	0.000396747947194519	-0.00314737674759728	0.000386681260452855	-0.009000797311915	0.00692289312497869
11.4	0.0199546177661911	0.0228215860707141	-0.0030564813661221	0.000831409198907206	-0.00305149720695173	0.000838997579086778	-0.00796475493792051	0.00668742162094197
11.5	0.0243323463427509	0.0191271744869936	-0.00290530155814228	0.00125122873197849	-0.00290802795635323	0.00126157540254523	-0.00728801078121409	0.00620251196537823
11.6	0.0278850966947017	0.0144472485534156	-0.00270202534173592	0.00164249259532933	-0.00270198469190754	0.00164544330346523	-0.00667902578553138	0.00556237571175996
11.7	0.0304278819581996	0.00922107562201544	-0.0024322618570716	0.0019945336650345	-0.00243275950978999	0.00200315972352371	-0.00607213115365361	0.0047640517308945
11.8	0.0320747421514633	0.00370170879751657	-0.00213018678388707	0.00232115563410097	-0.00213428957124244	0.00232288659072646	-0.00563579095932771	0.00381845000795099
11.9	0.032815018716453	-0.00206346852726576	-0.00177701817441773	0.00258948268096422	-0.0017899888407594	0.00259387827016698	-0.00564823193386318	0.00309731632052889
12	0.032568510328308	-0.00822111972448423	-0.0014032915139651	0.00280468475287202	-0.00140268828756195	0.00280608880833951	-0.00580076074470821	0.00247011020389636
