# GHZ S RI R 50
0.2	0.00605745016321554	0.00142678678286849	0.00304829798569175	-0.000897672263105996	0.00305866575565171	-0.000890862838625854	-0.0138654808725276	0.00510492944971192
0.3	0.00630850933736079	-0.000683579099319873	0.00290419733215254	-0.00132086599199782	0.00289694955211044	-0.00130792894472488	-0.0131358725839333	0.00512702772592667
0.4	0.00596654290542465	-0.00234930539205226	0.00267284153351299	-0.00169244916855952	0.00267811075774217	-0.00170100829077431	-0.0127447225708046	0.00564189046310682
0.5	0.00522834843423329	-0.00367840048567897	0.0024143978339465	-0.00204908728129049	0.00242593930054932	-0.00206132369771876	-0.0123084179881736	0.00633936072994622
0.6	0.00426785097733565	-0.00468041927812313	0.00210233041212901	-0.0023637106170855	0.00210154666645385	-0.00237086111036723	-0.0118039289471752	0.00702735861123209
0.7	0.00307021996465053	-0.00538316352479327	0.00175559697567099	-0.00264184667122652	0.0017536406629917	-0.00264204639997504	-0.0113426887860604	0.00768472855241561
0.8	0.00178939074484061	-0.00580705492211424	0.00137042232457588	-0.00285981147444048	0.00135782021681509	-0.00286436776448055	-0.0108853880233905	0.00837628773056934
0.9	0.000343707128396043	-0.00586664608737111	0.000953346019082163	-0.00302406467771706	0.000954385890880152	-0.0030347686134291	-0.0104547040119682	0.0090418323088027
1	-0.00110194363724847	-0.00557891759316282	0.000528186565325249	-0.0031281779995917	0.000518318908887531	-0.00312892176243555	-0.0100232459561269	0.00976260963915761
1.1	-0.00250954441981626	-0.00498686359643273	7.19236771551148E-05	-0.00315752178446298	6.84176154281242E-05	-0.00317518588151046	-0.00963517355280791	0.0106507943188019
1.2	-0.00377414449326399	-0.00436397828425134	-0.000371058460772096	-0.00314718556401328	-0.000371870967699212	-0.00314510749558291	-0.00878558779637981	0.0116436378409237
1.3	-0.00507068924667046	-0.00388209169711035	-0.000799107799570124	-0.00306388106855234	-0.000802350862970863	-0.00306588745892185	-0.00722393692064328	0.0124067730173461
1.4	-0.00621265177819348	-0.00331219013804738	-0.0012212626802107	-0.00291515515059493	-0.00122005057994117	-0.00292069326204792	-0.00548274707867936	0.012349392567626
1.5	-0.00670767789984104	-0.00224572359755872	-0.00162274861860716	-0.00271850149747535	-0.00162113993849299	-0.00272700901411766	-0.00406767271466037	0.011922226652701
1.6	-0.00661618513159356	-0.000829251052261774	-0.00198357225652574	-0.00246510945871363	-0.00198378691351824	-0.00247034685732857	-0.00339088889780373	0.0117806919455355
1.7	-0.00605011993188884	0.00056311477850352	-0.00231187866453035	-0.00216724805149776	-0.0023128397604538	-0.00216098289839022	-0.00267916432451116	0.0118749021166886
1.8	-0.0052070851875239	0.00193227720049449	-0.00258240134003911	-0.00181490824404817	-0.00259337504198126	-0.00182053705310069	-0.00198935384412478	0.0119193897988856
1.9	-0.00407444628549824	0.00301607586390905	-0.00280698035735543	-0.0014436283374269	-0.0028194157720327	-0.0014374639904144	-0.0014006993439174	0.0119929376026057
2	-0.00273845505816234	0.00380600152332865	-0.00298176516406047	-0.0010357576116823	-0.00299138214845202	-0.00103104197288519	-0.000843565628826913	0.0122148459826645
2.1	-0.00125902694368898	0.00416644164783387	-0.00309437779656231	-0.000607499832606989	-0.00309029698417282	-0.000609493971632558	-6.26852524631627E-05	0.0124074371965401
2.2	0.000192908711773559	0.00416817321412781	-0.00315107434323861	-0.000169670849390785	-0.00316237549714384	-0.000172499110882284	0.00096712835639958	0.012435173029734
2.3	0.00152717694840525	0.00373509774034499	-0.00314602116112538	0.000273106454774662	-0.00314572192555226	0.000266226358373532	0.0019582720716458	0.0121120309231877
2.4	0.00265194738139852	0.00307910058977458	-0.00307350375446954	0.000710789681295148	-0.00307604512817458	0.00070653489824669	0.00278333102117575	0.0116893101929474
2.5	0.00359901514974148	0.00218782299653314	-0.00293664309107691	0.00112256790018159	-0.00294752729329222	0.00112894777550737	0.00349180032341303	0.0112051645358831
2.6	0.00442744480801881	0.00110357466748037	-0.00276306769240734	0.00152536348374066	-0.00275951275462009	0.00151304322258272	0.00418438301555745	0.0107399770691143
2.7	0.00512546414177828	-0.000188766667174195	-0.00251750602842629	0.00189678498276161	-0.00252278573732562	0.00189679633365683	0.00479333433852545	0.0102335120281208
2.8	0.00567452827457762	-0.00169454396555824	-0.00223476240454021	0.00222460451406347	-0.00222694678482597	0.00223439455173606	0.0053133995019889	0.00982018838142648
2.9	0.00604014677978174	-0.00341211961688014	-0.00190027354716025	0.00252524388083265	-0.00189656359058877	0.00252481610394762	0.00599171067558099	0.00955899176777683
3	0.00604296439005129	-0.00533410586685177	-0.0015134447228635	0.00276109665370221	-0.0015282290661959	0.00276720355087487	0.00685340664397318	0.00932375295771916
3.1	0.00564475532024009	-0.00735172121589279	-0.00112232173281738	0.00293845242486558	-0.00111765818246354	0.00294679654437017	0.00775894000563666	0.00893144272797961
3.2	0.00462124112884095	-0.00934457445864812	-0.000700711247859824	0.00307547688575684	-0.000702457066612704	0.00307486725302159	0.00849461363505637	0.00847284330596633
3.3	0.00307997670680428	-0.0111948892001512	-0.000261136613607974	0.00314466202031398	-0.000259490848633298	0.00314091849356468	0.00929544918741083	0.00783000386540373
3.4	0.00101550123081175	-0.0126110510078526	0.000186644665899096	0.00313746525895958	0.000180457950509249	0.00315404307514558	0.0099936812656244	0.00692396238345711
3.5	-0.00133930418989546	-0.0136238043068377	0.000608992701245435	0.00309309840854844	0.000614589389495797	0.00309316588267086	0.0103636035666185	0.00581951426653297
3.6	-0.00395002876984994	-0.0140989663864924	0.00103750709537505	0.00297212118221323	0.0010456976048143	0.00297179069239343	0.0105515339769719	0.00494176881678758
3.7	-0.00665224048759889	-0.0140177950378677	0.00144749023988137	0.00278934906085291	0.00143793071313677	0.00280303539882784	0.0108367913142139	0.00410348041555161
3.8	-0.00935375603778392	-0.013319318174315	0.00182442959052265	0.00256067184149247	0.00182684735648287	0.00256981117894754	0.0110393660172635	0.00316841538480096
3.9	-0.0117599401956317	-0.0120414719957864	0.00216858210441655	0.00228649104071894	0.0021613213112171	0.00228472494897239	0.0110456157157202	0.00222790221988845
4	-0.0138045733058406	-0.0103500933829422	0.00245138298408854	0.00196491118649072	0.00245582265131651	0.00196247377123785	0.0109857234921103	0.0015053176325299
4.1	-0.015466744338665	-0.0083804002875601	0.00270144380069409	0.00160524502090248	0.00270019395316196	0.00160598112150946	0.0111117975487224	0.000934902864314981
4.2	-0.0168290191017141	-0.00614373863390347	0.00289903573481515	0.00120492553468592	0.00290348695057801	0.00119622046295778	0.0113610523949112	0.000275083067007687
4.3	-0.017828265074647	-0.00371671331375799	0.00304088749237534	0.000794184810758089	0.0030472950325469	0.000786392173038556	0.0115772881005983	-0.000642271883553369
4.4	-0.018483712056457	-0.00103832331674359	0.00311664556685661	0.000361682761090785	0.00311901548982322	0.000359429665548227	0.0115112591623256	-0.00160579833802067
4.5	-0.018636736413527	0.0018012002745618	0.00313945217982841	-7.47228643958054E-05	0.00314480433581935	-7.8090139564989E-05	0.0113392572157519	-0.00245245091335908
4.6	-0.0183216190288555	0.00461009781582467	0.00309601753348334	-0.000516195912933583	0.00309724011251461	-0.000503300913248364	0.0111071680381583	-0.00326919666988871
4.7	-0.0174471267577025	0.00736390729868339	0.00299178554574157	-0.000934131684869427	0.00300705713941631	-0.000943729090571686	0.0108146953907352	-0.00407830656189445
4.8	-0.0161327773729793	0.00995321409955731	0.00283183658344757	-0.00134786338348999	0.00284030989208888	-0.00135394154443013	0.0104726685475462	-0.00484452066758763
4.9	-0.0141394277442219	0.0122840063789258	0.00261206484496329	-0.00173215152931487	0.00261622628751948	-0.00172924670772215	0.0101070919853521	-0.00549179843322272
5	-0.0116390625039074	0.014069323189153	0.00235296373778153	-0.00208776556230206	0.00235658223879053	-0.00208510145851208	0.00997060289587741	-0.00599019332718367
5.1	-0.00866866841775822	0.0152520786422203	0.0020423391153701	-0.00239895436776174	0.00204463832394035	-0.00239759676926051	0.0100267298765889	-0.00660605577010392
5.2	-0.00566808059744916	0.0157368535168842	0.00168448310431661	-0.00264929691123841	0.0016861955682417	-0.00265443729076435	0.0100841625772207	-0.00737499106644632
5.3	-0.00270036988423107	0.0156872386377874	0.00129722126924441	-0.00286480612156247	0.0013003526309545	-0.00286274524183389	0.0100098575421212	-0.00821678784220921
5.4	0.000156096889561195	0.015157914250061	0.000871776100044881	-0.00301190201975509	0.000888924963392394	-0.00302311098683407	0.00976616255661002	-0.00922421329096222
5.5	0.00279384193202793	0.0141570507742109	0.000457754719634009	-0.00310888452030789	0.000467793034058682	-0.00311831104678264	0.00918532222056381	-0.0102258742139589
5.6	0.00510561256832278	0.0126665446138245	1.92370760425913E-05	-0.0031437648013545	1.07185094229301E-05	-0.00314697337090781	0.00832369766643998	-0.0109330329194195
5.7	0.00690456301265004	0.0108375371387776	-0.000411262064911315	-0.00311189372532364	-0.000427853946445862	-0.00311553553876137	0.007445918379899	-0.0113483259034513
5.8	0.00820527518929547	0.00880512762682636	-0.000855941888536365	-0.00301572949824783	-0.000859481808648926	-0.00302969132644366	0.00662437567607168	-0.0118833029964948
5.9	0.00903125830228554	0.00676226814982472	-0.00125907821536192	-0.00287494717585763	-0.0012672916399464	-0.00287486077636529	0.00554997445886508	-0.0124168113450797
6	0.00946588564039173	0.00462345233504853	-0.00165515825153915	-0.00266854716290604	-0.00165160543815015	-0.00266871465366572	0.00418526640450644	-0.0126508653499003
6.1	0.00951481776190435	0.00238364712737774	-0.00200803742424474	-0.00241467549502699	-0.00200967251458021	-0.00241068127237909	0.00303789571697689	-0.0124417880478558
6.2	0.00907095553663382	3.95332818294646E-05	-0.00231886157691271	-0.00210293697545898	-0.00232255705215315	-0.00211477771592393	0.00230528664325712	-0.0122425565609346
6.3	0.00817998928321962	-0.00223727021967395	-0.00259519441790787	-0.00177051930143223	-0.00260430274570044	-0.00176480214166607	0.00177767284860561	-0.012366851701926
6.4	0.00682863251177091	-0.00435074746686906	-0.00282085211441806	-0.00138237671184857	-0.0028111465438974	-0.00138725622237338	0.00121093046030764	-0.0126376953882522
6.5	0.00516043377782864	-0.00620473488871549	-0.00297774518953725	-0.000979918516167581	-0.0029855950254688	-0.000975459022049751	0.000669080343974712	-0.0129015414179109
6.6	0.00310989598099575	-0.0076293528568363	-0.00308712540078924	-0.00055717842448768	-0.00308874827296635	-0.000561150415391384	0.000222394315282603	-0.0131657504302144
6.7	0.000753429633623395	-0.00842988082349976	-0.00313965859370323	-0.000121022915493521	-0.00314851175890201	-0.000114771879561175	-0.000443586966080463	-0.013466164010247
6.8	-0.0017138502772481	-0.00848744684123489	-0.00312048442927357	0.00031967389983579	-0.00313157619380745	0.000324692589509582	-0.00134767468100309	-0.0136236320734471
6.9	-0.00404683175654088	-0.00788091415772544	-0.00304747401298934	0.000753134003052966	-0.00305046408932714	0.000755516708694081	-0.00235580027510326	-0.0135517352540954
7	-0.00604175437076434	-0.00677255081792351	-0.0029128195859473	0.00117475088924608	-0.0029256412957519	0.00117253007442831	-0.00332970967623007	-0.0132837677019305
7.1	-0.00781826925020426	-0.00534566121501687	-0.00273648877984321	0.00156490996018636	-0.00273283950555821	0.00157358262812825	-0.00423158970763559	-0.0127216769724378
7.2	-0.00938088826729577	-0.00357153151289533	-0.00248077820559693	0.00193449225673854	-0.00248731279399954	0.00193656254745186	-0.0047606021917116	-0.0120332279868581
7.3	-0.0107395379546487	-0.00142141462518712	-0.00218544481547099	0.00225505662522335	-0.00219666856806883	0.00226009934970283	-0.00495340231021433	-0.0116322952898974
7.4	-0.011698191335176	0.00112930823292836	-0.00184352943077301	0.00253942712404283	-0.00185042775416046	0.00255303571109494	-0.00531610274962433	-0.0116460437263182
7.5	-0.0120352393440863	0.0038953190125054	-0.00147733291450188	0.00277942914498673	-0.00147034239787	0.00278683218212954	-0.00581435283954677	-0.0118037610283616
7.6	-0.0116166540670106	0.00654870128442284	-0.00107047124576191	0.00295819851211325	-0.00107184429009894	0.00295349978416538	-0.00636345293516173	-0.012045326346061
7.7	-0.0106262077035867	0.0089321697971358	-0.000641699748220553	0.00307935170017715	-0.000643039604553909	0.00307828955449151	-0.00711793761990603	-0.0125037675342625
7.8	-0.00892366724110654	0.010919930499343	-0.00021595829566944	0.00312806905863117	-0.000223765811238215	0.00313452273576149	-0.00814353499089354	-0.0127778681500869
7.9	-0.00654275017376025	0.0123520762825763	0.000224730004033405	0.00313480512869304	0.000232667242153523	0.00313630603973227	-0.00931392879191552	-0.0125836781361935
8	-0.00390083573893416	0.0131152580925908	0.000665672557557608	0.00306259800329645	0.000665751239208753	0.00306749455477109	-0.0104368721420908	-0.0121509129835372
8.1	-0.00108094369775869	0.0132364381922807	0.00107516794634222	0.00294526127256772	0.00109429973206928	0.00294636227879938	-0.0112664965768578	-0.0112988801016959
8.2	0.00150046596571051	0.01285019492183	0.00147886277999264	0.00276534581053866	0.00148811020325165	0.00275816699914063	-0.0117555800088591	-0.0104632112550062
8.3	0.00390974780880821	0.0120776999478628	0.00185467592106536	0.00252785053715409	0.00185301429634867	0.00254138875937402	-0.0121237746401267	-0.00984430550701071
8.4	0.00616408598905047	0.0109941596945401	0.00219040968264596	0.00225206050661505	0.00218738124980599	0.00225183087507919	-0.0126635186369626	-0.0093738516109657
8.5	0.00825862079539898	0.0094217576110532	0.00247700015381909	0.00192341920687891	0.00247609698387436	0.00192660040130695	-0.0134206089518983	-0.00870919542794195
8.6	0.00997805554806277	0.00739121069869133	0.00272472225984153	0.00156477843749732	0.00273423746236287	0.00155825650968397	-0.014036759426163	-0.00780497555748791
8.7	0.0111805164465062	0.00496078811961181	0.00291272421205829	0.00116318619988657	0.00291828595508206	0.0011639219959432	-0.014378111324681	-0.00690760883795572
8.8	0.0118020620976007	0.00236859059119453	0.00305190204340732	0.000752595384802181	0.0030576959858984	0.000743838364107625	-0.0146576373841739	-0.00627211076364772
8.9	0.0120214643418261	-0.000332326394750591	0.00313195621370103	0.000317933254981936	0.00313108836426467	0.000315680917089377	-0.0148950746804651	-0.00562711011509661
9	0.0117924448769695	-0.00322232920585555	0.00314398922823863	-0.000126952170516539	0.00314714537591583	-0.000122837628590495	-0.0150611011719586	-0.00485599416170118
9.1	0.0110119998421438	-0.00627740101095199	0.00309934815859061	-0.000570738853214111	0.00310222242353815	-0.000557809286624735	-0.0149792003083717	-0.00403924520126341
9.2	0.00937765173264962	-0.00924817100733221	0.00299043737172089	-0.000991079295953012	0.00299811589117864	-0.000993956546274813	-0.0147574940462483	-0.00340143679310711
9.3	0.00701820912235966	-0.0117570600705787	0.00282142327159232	-0.00139911776038162	0.00282069232657757	-0.00140412092612385	-0.0145106214435053	-0.00290343668982799
9.4	0.00413291352361885	-0.0136517894055386	0.00259763523751658	-0.00179176301260913	0.00260416368573431	-0.00178414792956089	-0.0144458000031222	-0.0024694703128303
9.5	0.000826810374277914	-0.0148229365933971	0.00232051754814462	-0.00212766518431323	0.00232794506738962	-0.00212901992029072	-0.0144909749939388	-0.00189073876891087
9.6	-0.00282139782980904	-0.0152996571413129	0.00200124738665594	-0.00243208541727493	0.00200157876339962	-0.00243110189000844	-0.0146022107147858	-0.00118291840541169
9.7	-0.00669049386519841	-0.0148688274063564	0.00163193235302761	-0.00268248769043953	0.00163746665089332	-0.00268981089317934	-0.0145323550735328	-0.00039682059663114
9.8	-0.0105247284080126	-0.0134767024757565	0.00124533775242671	-0.00289053241171857	0.00125105180788391	-0.00288203273799679	-0.0144140045286927	0.000260399272301883
9.9	-0.0139661655712884	-0.0110604170769095	0.000839153200091231	-0.00302854471690317	0.000831819384409581	-0.00302730933070253	-0.0145037328347955	0.0009087634017944
10	-0.0167950425266405	-0.00795663643803541	0.000408848238103302	-0.00311655013796615	0.000401346039201479	-0.00312898838388475	-0.0146298145830613	0.0017559329489784
10.1	-0.0188894546372448	-0.00434326094518212	-3.28345260482323E-05	-0.00314709487965093	-4.30616950621689E-05	-0.00314169613564946	-0.0144671264594062	0.00270157647325535
10.2	-0.0202704827983083	-0.000354710110885322	-0.000478033461703369	-0.00310984849602378	-0.000481438704907084	-0.00310706926581444	-0.0139537437928585	0.00353595698665341
10.3	-0.0208352380306436	0.00400370273869746	-0.000909525712978183	-0.00300441784874786	-0.000901436014183893	-0.00301348757338876	-0.0133132221815075	0.00403101857019733
10.4	-0.0203679063037371	0.00850160079398667	-0.00130607680996827	-0.00285065533612667	-0.00130437829682009	-0.0028568494786146	-0.0127131616844953	0.00417683599510158
10.5	-0.0188947046272134	0.0128630919104607	-0.00169743336140907	-0.00265323666291789	-0.00169433980218911	-0.00264023158976286	-0.0123489713691114	0.00435433211492603
10.6	-0.0165432883134294	0.01679881198072	-0.00205070354952551	-0.00238464849909655	-0.00204851207916041	-0.00238847101191479	-0.0120006787757136	0.00461344803006294
10.7	-0.0135230527830382	0.0203481885904507	-0.00236724177431804	-0.00208380140072841	-0.00236374958983376	-0.00207851182825261	-0.0115498158859088	0.00494047219095499
10.8	-0.0097629967673941	0.0234256631619136	-0.00263826109769522	-0.00172425118320263	-0.00263304594891023	-0.00173318404157758	-0.0111549377387701	0.00512817232765756
10.9	-0.00532378852656163	0.0258798942656103	-0.00284853117876252	-0.00134975169766072	-0.002853728718114	-0.00134902341915375	-0.0109915381630437	0.00530222512597518
11	-0.000174200033003316	0.0273687331623535	-0.00300968541639036	-0.000931966177942633	-0.00301453692361147	-0.000938722915005264	-0.0108111805285503	0.00577766284997749
11.1	0.00524699174396276	0.0277025908930475	-0.0031195242130325	-0.000504881941576136	-0.00310863929882825	-0.000502015501514135	-0.0103195759244966	0.00637471645814666
11.2	0.0106161760321444	0.0268774341801192	-0.0031493670732951	-6.45317101984887E-05	-0.00315653985774244	-6.93764266854789E-05	-0.00939137083480419	0.00682571419639008
11.3	0.0157883558875978	0.0249962952125995	-0.00312201898946133	0.00038693752292458	-0.00313359880021551	0.000376888477870425	-0.00810373623281122	0.00683476696219265
11.4	0.0205159878956149	0.022269843169474	-0.00304681706680604	0.000817123764023154	-0.00304188042760893	0.000824698519374484	-0.0071354436247386	0.00643081262329296
11.5	0.0247626306457101	0.0186002690246546	-0.00290120217015649	0.00123435235484336	-0.0029039649646418	0.0012446529142583	-0.00656862752855761	0.00583962149691717
11.6	0.0282741985108323	0.0139702451824635	-0.00270405207947631	0.00162535482091977	-0.00270402616971122	0.00162829904004227	-0.00603496077759356	0.00516925759049709
11.7	0.0307690240625253	0.00874539266064822	-0.00243998470557481	0.00197959066966033	-0.00244052692073034	0.00198820451731294	-0.00551002817229277	0.00430080127368353
11.8	0.0323054320772219	0.00325220860510928	-0.00214229598735666	0.00231030199293625	-0.00214640795737615	0.00231201187907971	-0.00524588959976533	0.00329228005944485
11.9	0.0329340770815909	-0.00242470417041759	-0.00179137959660659	0.00258397523470494	-0.00180438600409755	0.00258831406623433	-0.00547489571655267	0.00258113354804709
12	0.0326849102164751	-0.00833752633083873	-0.00141759102043645	0.00280474672317048	-0.00141699226549766	0.0028061561224175	-0.00577202402861079	0.00225850022053545
