# GHZ S RI R 50
0.2	0.00670590307875996	0.000495077905576432	0.00304834418008284	-0.000897879996179118	0.00305871268512871	-0.000891070958572463	-0.0132753230563926	0.00411492434072838
0.3	0.0064845186339146	-0.00121876470644335	0.00290415374236165	-0.00132121961644917	0.00289690709830991	-0.00130828136417588	-0.0130180246710323	0.00456599415729999
0.4	0.00603563153751983	-0.00232349300425459	0.00267260017706187	-0.00169291989925274	0.00267786805577528	-0.00170148002856245	-0.0126679225291771	0.0056609021833569
0.5	0.00557339475392872	-0.0032033694593177	0.00241385216556697	-0.00204958131520735	0.00242539046115769	-0.00206182001896827	-0.0118576557328974	0.00675298895693637
0.6	0.00508550355747403	-0.00409318317359705	0.00210143236127233	-0.00236405318520351	0.00210064666861635	-0.0023712026853479	-0.0108291689610115	0.00741660450711098
0.7	0.00426130222802794	-0.00505368056200018	0.001754400631053	-0.00264183661069275	0.00175244466951292	-0.0026420356861289	-0.0100511466543821	0.00766477892431588
0.8	0.00301779594063485	-0.0059156871621793	0.00136909171787924	-0.00285928717349916	0.00135649237557906	-0.00286383808994237	-0.00970209917706122	0.00785509003171854
0.9	0.00124452085250672	-0.00628248290452546	0.000952115916597584	-0.00302293988019217	0.000953152496492404	-0.00303363921977185	-0.00972538802370506	0.00829358681932276
1	-0.000675399893861854	-0.00592718794634344	0.000527327979847666	-0.00312647739303635	0.000517465851706899	-0.00312721897660083	-0.00974862999865772	0.00924420972523686
1.1	-0.00235637710720742	-0.00489996961903744	7.17188480170619E-05	-0.00315540692508216	6.82142626429623E-05	-0.0031730589971735	-0.00943925766588995	0.0106524651345032
1.2	-0.00348530941891182	-0.00378248177272223	-0.000370430985121467	-0.00314492510237828	-0.000371243132702312	-0.00314284864614454	-0.0082235191384987	0.0120226719819999
1.3	-0.00443860442342439	-0.0031039752897835	-0.000797607107005191	-0.0030618444012097	-0.000800847169590854	-0.00306385026365495	-0.00623693380310908	0.0127597411527894
1.4	-0.00537778467857479	-0.00255104386902297	-0.00121900441765693	-0.00291370869262309	-0.00121779049335338	-0.0029192423530116	-0.0043123511320326	0.0125296816675835
1.5	-0.00569081942043914	-0.00151718002715602	-0.00161998864844169	-0.0027179331453657	-0.00161837534971384	-0.00272643449314563	-0.00275685666187488	0.0119095334926158
1.6	-0.0053704776165479	-0.000299808318439995	-0.00198070008562165	-0.00246558004759271	-0.00198091045299447	-0.00247081524443553	-0.00201563413653865	0.0114052805207132
1.7	-0.00475900601944677	0.000730655126151001	-0.00230931231495512	-0.00216874783943748	-0.00231027878752396	-0.0021624852242503	-0.001528573477744	0.0111261101757667
1.8	-0.00413688317083111	0.00181772980440951	-0.00258053651428447	-0.00181723201998714	-0.00259150425450908	-0.00182287082886995	-0.00123425291590062	0.0110679920054568
1.9	-0.00331759030189601	0.00288079632553769	-0.00280606129027432	-0.00144644375350787	-0.00281850426837124	-0.00144029000780344	-0.000920772461765776	0.0113290652977169
2	-0.00214867548199556	0.0038646616988996	-0.00298190677944663	-0.00103866182951761	-0.00299153110385139	-0.00103395278404271	-0.000354791565817539	0.0117966815616587
2.1	-0.000595047920974836	0.00441177727071701	-0.00309550766952669	-0.000610072884866059	-0.00309142332195938	-0.000612065052811556	0.000610219153381696	0.012035696728144
2.2	0.00103996070561987	0.00438999604675445	-0.00315295662045369	-0.000171572799286956	-0.00316426326032361	-0.00017440927608521	0.00172490512257418	0.0118725497600042
2.3	0.00241721524789745	0.00372763162309061	-0.00314830529115964	0.000272083838506365	-0.00314800319831412	0.000265199092203283	0.00252890650510213	0.0113466201129354
2.4	0.00331673772841776	0.00286088370825035	-0.00307578986785928	0.000710684388242878	-0.00307833218370557	0.000706426135487336	0.00301939065804668	0.0109800790266861
2.5	0.00390930632458878	0.00201530896720562	-0.00293854872335876	0.00112323463520304	-0.0029494400292032	0.00112961840622016	0.00355579195135277	0.010825141693427
2.6	0.00453520593614779	0.00120753844574021	-0.00276434864557052	0.0015265129248039	-0.00276079333045521	0.00151418568144688	0.00438632519517571	0.0106791622165602
2.7	0.00526071768581475	0.000174242331388956	-0.0025180723124812	0.00189804234125223	-0.0025233540439324	0.00189805480780207	0.0052478036408091	0.0102615400343285
2.8	0.00588401734930113	-0.00121002431780484	-0.00223472302589461	0.0022256210484906	-0.00222690337483151	0.00223541137160822	0.00591710392473873	0.00981545934951544
2.9	0.00625788643736854	-0.00280822957114742	-0.00189987358902599	0.00252577199795125	-0.00189616350565503	0.00252534344858732	0.00671135583630003	0.00957310036015912
3	0.00632948733676443	-0.00451643760506095	-0.00151303210572978	0.00276103215914414	-0.00152781461064329	0.00276714011534218	0.00780137197493274	0.00932670949783653
3.1	0.00617676145142288	-0.0063602667299771	-0.00112224714374473	0.00293788141662564	-0.00111758477933655	0.00294622424926434	0.0089556025423537	0.00872672818718863
3.2	0.00546742190021766	-0.00838454190004707	-0.000701254785322647	0.00307466900256881	-0.000703000097826389	0.00307405910608924	0.00975523581468447	0.00792569161396913
3.3	0.00409656233830939	-0.0104408711246108	-0.000262405581757633	0.0031439856977116	-0.00026075854686014	0.00314024353474302	0.0103856173338258	0.00702195318575158
3.4	0.00200220929960186	-0.0120348193291675	0.000184731265276167	0.00313732998503818	0.000178535007299883	0.00315390274577718	0.0108788447820719	0.00607278536173158
3.5	-0.000425663125906736	-0.0130567727868949	0.000606688510506889	0.00309383893605715	0.000612285646985148	0.00309391068381292	0.0111966435715813	0.00501783860495226
3.6	-0.00297663510479161	-0.0134821925104687	0.0010352626424992	0.00297395814170692	0.00104345602574648	0.00297363463602753	0.011434545268793	0.00407214227345992
3.7	-0.00551743762817119	-0.0134856798587501	0.0014458228849883	0.00279226825471713	0.00143624551112266	0.00280595394035932	0.0116473291867545	0.00303708776774888
3.8	-0.00818301946075887	-0.0130490174126603	0.00182381730153642	0.002564426590874	0.0018262293631215	0.0025735758433297	0.0115763650052992	0.0020055981034761
3.9	-0.0108018689671334	-0.0119910549323135	0.00216938108394073	0.00229063697817018	0.00216211336701909	0.00228886365458464	0.011318923553118	0.00122987237322488
4	-0.0131411463232121	-0.01027337737509	0.00245372271086478	0.0019688459994212	0.00245816968239144	0.00196640752928916	0.0112398378754453	0.000783321504781492
4.1	-0.0149292404992009	-0.00811152743706447	0.00270522682045549	0.00160835212051883	0.00270397487509733	0.00160908906097945	0.01153133635194	0.000330623631611249
4.2	-0.0162383553933437	-0.00576466790802167	0.00290388547866231	0.00120664882744013	0.00290834323298358	0.00119792912150367	0.0118721066613917	-0.00039901908842571
4.3	-0.0172222032873195	-0.00339583910716828	0.00304623053403949	0.000794190226768957	0.0030526452819401	0.000786382025845	0.0120074297072794	-0.00134960036936475
4.4	-0.0180391819319273	-0.00076512340236799	0.00312179948738226	0.000359871635558771	0.00312417140110702	0.000357613205906349	0.0118705322860815	-0.00216475411223153
4.5	-0.0184098752189087	0.00222481153497444	0.00314376606865469	-7.81778533179756E-05	0.0031491221213823	-8.15555527656285E-05	0.011832730226417	-0.00280694090325715
4.6	-0.0181392418549456	0.00533831085673341	0.00309892688527071	-0.000520871152607523	0.00310016786171119	-0.000507962814206828	0.0118876425215078	-0.00360469410884962
4.7	-0.0170886638089271	0.00831453421673039	0.00299298011265058	-0.000939390291597791	0.00300825061847594	-0.000949018711637982	0.0117907047935653	-0.00460903289973837
4.8	-0.0155799692183244	0.0109114311188733	0.00283125203231187	-0.00135304004831479	0.0028397203800049	-0.00135913480525151	0.0114280978704607	-0.0055738881848217
4.9	-0.0135515167699016	0.0131897191159633	0.00260993584780289	-0.00173659829440908	0.00261410272274714	-0.00173369932243027	0.0109985408988396	-0.00625794791389844
5	-0.0110646750412098	0.0150602976077203	0.00234974651570593	-0.00209103195820316	0.00235336861986392	-0.0020883733232253	0.010940454934668	-0.00676161413210421
5.1	-0.00793367133934226	0.0163732569415807	0.00203863416014205	-0.00240081244009526	0.00204093438311341	-0.00239945820460582	0.0110969682305302	-0.00756335736780404
5.2	-0.00466509222687242	0.0167720804886691	0.00168091080941886	-0.00264980550717493	0.00168261707928996	-0.00265494524427571	0.0110236980447563	-0.00859626983546982
5.3	-0.00162334549311269	0.0164233590339345	0.00129424793453857	-0.00286427081990098	0.0012973792197468	-0.00286221354059073	0.0106380689090091	-0.00947966591801218
5.4	0.00101565104067653	0.0156909943983976	0.000869691480061425	-0.00301079646901661	0.00088682530590917	-0.0030220088383639	0.0102275258041134	-0.0102605225048014
5.5	0.00339941065134223	0.0147912249186089	0.000456547842113872	-0.00310773560910978	0.000466578884229726	-0.0031171614779799	0.00978422269399777	-0.0110611197074832
5.6	0.00571593378453889	0.013562901330355	1.86856508276451E-05	-0.00314299527304968	1.01686205154933E-05	-0.0031462015723424	0.00915769636394822	-0.0118541969707956
5.7	0.00776962597190704	0.0118240682369257	-0.00041154664367057	-0.00311174572684208	-0.000428138296492619	-0.00311538581944804	0.0082750256549007	-0.0125671562832313
5.8	0.00930693743723648	0.00956807037420328	-0.000856426705226085	-0.00301623893763158	-0.00085996878581688	-0.00303020316838048	0.00715648753207702	-0.0132764600513427
5.9	0.010057248596567	0.00715691315541549	-0.0012601958645223	-0.00287591381493206	-0.00126841276191232	-0.00287582571425735	0.00573807201527988	-0.0136431964568523
6	0.0101304843020995	0.00484161512078875	-0.0016572170927925	-0.00266954635177476	-0.00165366215592746	-0.0026697153293349	0.00430261702377635	-0.0134935873286047
6.1	0.0098357601630048	0.00274333333334055	-0.00201109982421994	-0.00241514930754427	-0.00201273351416513	-0.00241115106305581	0.00338164469602734	-0.0130247049698023
6.2	0.0092837847083278	0.000634905704050459	-0.00232267721453723	-0.00210231101501683	-0.00232638697928208	-0.00211415728265387	0.00288366067554606	-0.0128207838714104
6.3	0.00836765915582175	-0.00154297922748673	-0.00259928359047349	-0.00176838491560708	-0.00260839082183478	-0.00176265200446952	0.00244204267595972	-0.0129725646758727
6.4	0.00685657321850615	-0.00352489935126772	-0.00282450741449342	-0.00137855435082263	-0.00281480472972725	-0.00138345192155923	0.0020364417677777	-0.0131597140848799
6.5	0.00512490442258586	-0.00499630627838296	-0.00298025200022872	-0.000974590837706924	-0.00298809531471563	-0.000970115690869884	0.00184584031556679	-0.0135234966217813
6.6	0.00339182628111034	-0.00604321448266773	-0.00308785109074852	-0.000550797672145156	-0.003089481859977	-0.000554765817226291	0.00159057712579243	-0.0142256866768562
6.7	0.00152982876410609	-0.00685156961353036	-0.00313819658009297	-0.000114312410255343	-0.00314703167186364	-0.000108046059727052	0.000694426552574057	-0.0149598051700069
6.8	-0.000701368587922188	-0.00724899688484012	-0.00311677362959812	0.000325831800469437	-0.00312784415416938	0.000330868586153186	-0.000625882311154601	-0.0151772582371415
6.9	-0.00318122375482284	-0.00690958972756207	-0.00304180979714019	0.000757925306641944	-0.00304479116880654	0.000760310435877445	-0.00180735693534628	-0.01486153672029
7	-0.00541658705955692	-0.00571175395991258	-0.00290580194503384	0.00117751601743619	-0.00291860497737015	0.00117532025732321	-0.0026116394704723	-0.0144203312230349
7.1	-0.00713363839582359	-0.00396346612268371	-0.00272892105998108	0.00156532064949087	-0.00272526783819061	0.00157397104306351	-0.00327126803283148	-0.0140457606793358
7.2	-0.00825586654573078	-0.00205012340137708	-0.00247359527293652	0.001932482241492	-0.00248011366432117	0.00193455387357971	-0.00388295592982383	-0.0137888005697085
7.3	-0.00912422853251325	-0.000236323455937008	-0.00217945835880994	0.00225100360163447	-0.00219065444480164	0.00225604024570773	-0.00458410823200906	-0.0136394322355109
7.4	-0.00999303747446491	0.00163474279711168	-0.00183934599673122	0.00253394111794732	-0.00184622845345564	0.00254752015156981	-0.00552533795537962	-0.0134565905280665
7.5	-0.010730945743143	0.00386042734013421	-0.00147522272111305	0.00277329527204177	-0.00146824882143827	0.00278068549653451	-0.00627338644238007	-0.0130414694520764
7.6	-0.0108246541884943	0.00641456275885022	-0.00107040925218859	0.00295225553592385	-0.00107177691496068	0.00294756432901872	-0.00667349273706578	-0.0127152626853028
7.7	-0.0102104829872003	0.00885874547305258	-0.00064331349042291	0.00307429076582793	-0.000644650494485086	0.00307322906925094	-0.00720568817023912	-0.0129977393047191
7.8	-0.00885824055167043	0.0109180407052588	-0.000218610448661057	0.00312434187485493	-0.000226415134535229	0.00313078104723419	-0.00801637987244952	-0.0130295598323311
7.9	-0.00700390738881095	0.0126617942270061	0.000221707611907719	0.00313252082289539	0.000229637188316049	0.00313402774358887	-0.00868590331429942	-0.0126713325585304
8	-0.00450946619343946	0.0141039168455153	0.000662933064666688	0.00306157867586622	0.000663007862578552	0.003066472823846	-0.00918956433868132	-0.0123133986536999
8.1	-0.0014531765918845	0.0149011387035161	0.00107313598173623	0.00294504136713459	0.00109226161140972	0.0029461532430995	-0.00962596304333321	-0.0120964237218019
8.2	0.00171209277975851	0.0147699145831024	0.00147771740476161	0.00276537344293286	0.00148696564904111	0.0027581988290521	-0.0102239807854963	-0.0118724787279287
8.3	0.00453901887934086	0.0138173201379661	0.00185429327583576	0.00252755243840092	0.00185263132773716	0.0025410885753286	-0.0109649121112694	-0.0114965612026056
8.4	0.00681416710256425	0.0124962430455679	0.00219038698865447	0.00225099513033633	0.00218735925416785	0.0022507662561476	-0.0117068770732574	-0.0109241872484772
8.5	0.00875675763004088	0.01099072868238	0.00247674131720431	0.0019214195866735	0.0024758400003882	0.00192459973881156	-0.0123316059154704	-0.0101939560986549
8.6	0.0105719014313093	0.00928459865237321	0.00272359599270963	0.00156201331155554	0.00273310025450351	0.001555490706432	-0.0127551272550267	-0.00956512110699316
8.7	0.0122458763281873	0.00701971122239873	0.00291025536830351	0.00116017037846259	0.00291581150443753	0.0011609020313434	-0.0132380216759603	-0.00913957917073859
8.8	0.0133750606632323	0.00413344870176654	0.00304790974867337	0.000749990266990861	0.00305369101311291	0.000741242882306371	-0.014054288474429	-0.00874576344052717
8.9	0.0136944648662245	0.000872132870918132	0.00312657521793714	0.000316479258534311	0.00312570823867757	0.000314231104934329	-0.0148033159000594	-0.00786311673645293
9	0.0131744931112741	-0.00236416382458572	0.00313769542347168	-0.00012660775109798	0.00314084513140668	-0.00012250136016606	-0.0150871709766993	-0.00666711967823575
9.1	0.0121231355489279	-0.00544663933006364	0.00309287007898234	-0.000568181793121245	0.00309573260688159	-0.000555279041178805	-0.0148964588097534	-0.00563919195716932
9.2	0.0104163180045521	-0.0084264192856621	0.00298466125066267	-0.00098626384430409	0.0029923252294571	-0.000989127991573946	-0.0146527989042694	-0.0049261461777879
9.3	0.00790049517110143	-0.0110957576478123	0.00281722828888461	-0.00139233329294528	0.00281650561116611	-0.00139732667783936	-0.0144312599929992	-0.00420278140960162
9.4	0.00461525474204373	-0.0130310860435295	0.00259575532491713	-0.00178363336190691	0.00260225744884906	-0.00177602151594421	-0.0141198685783953	-0.00348424850210759
9.5	0.000942872402916255	-0.0138450752828311	0.00232134501856439	-0.00211912514687083	0.00232876330974747	-0.00212046149218686	-0.0136898035251	-0.00284567581194871
9.6	-0.00267558414798573	-0.0137983575196315	0.00200482540952395	-0.00242414690197	0.00200515394257191	-0.00242316375773091	-0.0134468949645655	-0.00251985757574099
9.7	-0.00613530879348217	-0.0131026980535028	0.00163786509466423	-0.00267616537624937	0.00164341479225593	-0.00268346844792784	-0.0134651108647616	-0.00222315823077874
9.8	-0.00958480467220993	-0.0118908704171127	0.00125287773074839	-0.00288652201407753	0.00125856753007546	-0.00287800877763987	-0.0137418961386156	-0.00174127386382747
9.9	-0.0130300299442663	-0.00984396318252442	0.000847289687509277	-0.00302719301722357	0.000839950617249599	-0.00302597642950454	-0.0141187151035448	-0.000876337763505572
10	-0.0161208498635493	-0.00684753391162024	0.000416574582806048	-0.00311781495658119	0.000409096655396555	-0.00313028003344908	-0.0141729795058762	0.000198694571047505
10.1	-0.0183328225605248	-0.00306177285071065	-2.63902910860658E-05	-0.0031505187907783	-3.66394821308636E-05	-0.00314513534485023	-0.0138552665866228	0.00109707671142244
10.2	-0.0195460583023439	0.000993586215230703	-0.000473470608628169	-0.00311467520061504	-0.000476884896114651	-0.00311189804335252	-0.0134473291791275	0.00177519669889641
10.3	-0.0200154465141217	0.00507846890167127	-0.000907048839303745	-0.00300974194816432	-0.000898936551226591	-0.00301881423751982	-0.0130798878183082	0.00239900370377326
10.4	-0.0198688648248891	0.00927518087867745	-0.00130545866895804	-0.0028556331178948	-0.00130375263798996	-0.00286183426383665	-0.012480765260146	0.00296697307766832
10.5	-0.018922960152899	0.0137587498685199	-0.00169818348890045	-0.00265726438054788	-0.00169509255354074	-0.00264424211846241	-0.0116965374656671	0.00341761871737818
10.6	-0.0168094302854218	0.0181908694782074	-0.00205211655721037	-0.00238738604108249	-0.00204992213140254	-0.00239121169905918	-0.0108805153023292	0.00351083516005679
10.7	-0.0136727991972612	0.0220971823068071	-0.00236860284612176	-0.00208531523747535	-0.00236510882025222	-0.00208002201138026	-0.0102932759570684	0.00343184031482619
10.8	-0.00965476654592022	0.025295534137318	-0.00263894430558962	-0.00172493260120095	-0.00263372703632639	-0.00173386781168172	-0.00996643002752888	0.00349799705956927
10.9	-0.00528842092419339	0.0277505043263282	-0.00284822750204332	-0.00135022383376736	-0.00285342505084958	-0.001349496489842	-0.00969586832270959	0.00370494896987644
11	-0.000285420676982874	0.0296083018987466	-0.00300846410097532	-0.000932949711843967	-0.00301331147010575	-0.000939706573825726	-0.00919363584730056	0.00399500666468898
11.1	0.00538914613709832	0.0305553663165593	-0.00311780820805293	-0.000506976284433163	-0.00310693010006914	-0.000504103011828849	-0.00851527577551396	0.00401061892679205
11.2	0.0115088575551446	0.0300635518519901	-0.00314785892157146	-6.80317656237831E-05	-0.00315502300641218	-7.28823118511509E-05	-0.00790306343272454	0.00377639150017349
11.3	0.0175159689665507	0.0279464017515408	-0.00312152493584248	0.000382092209399116	-0.00313308558228411	0.000372029158131869	-0.00741687977266512	0.00352216811020656
11.4	0.0225929118141233	0.024602835479476	-0.00304802198992925	0.000811354293817224	-0.00304309999889638	0.000818937464319635	-0.00704420258382924	0.00332608668476817
11.5	0.0268033649482902	0.0204811363310627	-0.0029045832264518	0.00122840570669936	-0.00290736890880618	0.001238702869489	-0.0066906323079571	0.00299701793153422
11.6	0.0303548507168958	0.0156146143375682	-0.00270975478310625	0.00162015467185467	-0.00270973575614981	0.00162310101287884	-0.00633598314978611	0.0024783567206404
11.7	0.0330126182715084	0.00997027275379857	-0.00244771079995239	0.00197612733207307	-0.00244827439208019	0.00198475034202664	-0.00616866250809009	0.00181060401982244
11.8	0.0344092199307748	0.00375788026195447	-0.00215141897163092	0.00230937683967119	-0.00215554212376121	0.00231108017257601	-0.00622631168633494	0.00137362915491281
11.9	0.0344473949154316	-0.00251330815387176	-0.00180095888038869	0.00258632208304346	-0.00181400486131887	0.00259064407291039	-0.00622046291352946	0.00146836790592462
12	0.0331885182430374	-0.0083521276641929	-0.00142627888289743	0.00280995762970247	-0.00142568091844262	0.00281137190165776	-0.00592707725088782	0.00162119735247267
