# GHZ S RI R 50
0.2	0.00510845412863058	0.00228604470247865	0.00304840246072315	-0.000897588877950997	0.00305877024616389	-0.000890778931924016	-0.014818946342717	0.00595968591610523
0.3	0.00600118922190976	-8.36010269110036E-05	0.00290435240975443	-0.00132088266608229	0.00289710409455809	-0.00130794512978189	-0.0134480200797234	0.00572517975933927
0.4	0.00589410171623049	-0.00239111203132455	0.00267296660800598	-0.00169257374221534	0.00267823601551937	-0.00170113339447644	-0.0128176319203435	0.00560011875890018
0.5	0.00484404719789146	-0.00431697043405424	0.00241443620460366	-0.0020492825670005	0.00242597775899412	-0.00206152003691009	-0.0126864241452588	0.00569774439882119
0.6	0.00324401401950014	-0.00548304011036225	0.00210225357415093	-0.00236392550958307	0.00210146934875968	-0.00237107620078341	-0.0128175051344496	0.00621303032977231
0.7	0.00151418560825819	-0.00582047558419149	0.00175539162181825	-0.00264202073254282	0.00175343527300337	-0.00264222029837178	-0.0128914611930381	0.00722570592039623
0.8	0.000174848449859575	-0.00561423985562553	0.00137011124241203	-0.00285986504022337	0.00135750904059766	-0.00286441999972345	-0.0125016566920761	0.00854283902589885
0.9	-0.000812615167627739	-0.00524118475355965	0.000953008697685578	-0.00302393831091777	0.000954047538919131	-0.00303464159046442	-0.0116207290238836	0.00964566677324853
1	-0.00162076139698141	-0.00506537695812105	0.000527922432572867	-0.00312787639235543	0.000518055788658049	-0.00312861942127599	-0.0105505404077548	0.0102645934580457
1.1	-0.00271968586318328	-0.00508045614931706	7.1809899948018E-05	-0.00315709205465626	6.83037365669774E-05	-0.00317475361902637	-0.00984194138158402	0.0105509292713885
1.2	-0.00425741345181726	-0.00507893264177936	-0.000370971147142324	-0.00314669014263601	-0.000371783544123882	-0.00314461241090948	-0.00925023698140826	0.0109145175084284
1.3	-0.00606388348091378	-0.00476643380406938	-0.000798775903884751	-0.00306340349001131	-0.000802018281053432	-0.0030654097399689	-0.00819414892536466	0.0114950581857972
1.4	-0.00749019345021605	-0.00409369154304893	-0.00122068413968203	-0.0029148177067038	-0.00121947153797235	-0.00292035472648217	-0.00673898800792925	0.0115300407242873
1.5	-0.00823899223857565	-0.00289481902942289	-0.00162199765527675	-0.00271841252896158	-0.00162038759937252	-0.00272691850156445	-0.00558228209444755	0.0112251031946793
1.6	-0.00839161882662533	-0.00110678785274724	-0.00198275210274024	-0.00246533907524865	-0.0019829654410451	-0.00247057597204931	-0.00515918172224688	0.0114428791782176
1.7	-0.00775642379174347	0.000807511116297658	-0.00231111713450459	-0.00216783161486195	-0.00231208005446553	-0.0021615670582265	-0.00439654643617769	0.0120586469705153
1.8	-0.00651928327317214	0.00248525522621754	-0.00258185600940672	-0.0018158261071609	-0.00259282809676039	-0.00182145876273243	-0.00332409527896894	0.0124258396249486
1.9	-0.00497263582222709	0.00349218261762632	-0.00280680113891851	-0.00144479123428125	-0.00281924020083218	-0.00143863055691117	-0.00231870393588549	0.0124368089353679
2	-0.00350678325803802	0.00399085362769113	-0.00298205402569147	-0.00103699758739399	-0.00299167468936949	-0.00103228421289404	-0.00161958798201489	0.0123711357620585
2.1	-0.00219885329521474	0.00418295165131363	-0.00309514505395385	-0.000608615572685732	-0.00309106239023149	-0.000610609098096442	-0.00100269194559865	0.0123866830032202
2.2	-0.000944860702329889	0.00433117510504947	-0.00315224621940498	-0.000170475675676528	-0.0031635510551253	-0.000173307677144155	-0.000176644140339202	0.0125497590045695
2.3	0.000475510405090577	0.00421554528844216	-0.00314744822887566	0.000272754696280858	-0.00314714782900041	0.000265871613528953	0.000886008072613473	0.0125456215130369
2.4	0.0019949131209656	0.00369042926309642	-0.00307498321231484	0.000710956436354543	-0.00307752554700037	0.000706699520866935	0.00209704597024209	0.0122704014125943
2.5	0.00333165997779133	0.00255292193895155	-0.00293797929618197	0.00112321829846534	-0.00294886835875621	0.00112960162938635	0.00320776074881593	0.0115592948041942
2.6	0.00422841394031381	0.00104630594872952	-0.00276410701166033	0.00152641115159733	-0.00276055209820064	0.00151408489488152	0.0039918375153599	0.0106751929988596
2.7	0.00473917179767895	-0.000504720375114225	-0.00251812145125459	0.00189808286888478	-0.00252340328913753	0.0018980953403674	0.00442924331784198	0.00989950812091698
2.8	0.00513019152192444	-0.00208214552237408	-0.00223490583327515	0.00222596457598448	-0.0022270849047765	0.00223575576997271	0.00479789067451812	0.00940473547672043
2.9	0.00540611626009203	-0.00390042574405493	-0.00189997369560021	0.00252646681362062	-0.00189626293547709	0.00252603778436609	0.00539615258652286	0.00903421164619914
3	0.00519591737131046	-0.00597234345852634	-0.00151283680848582	0.00276202850906199	-0.00152762171399873	0.00276814103050126	0.00605533853373171	0.00863306666407981
3.1	0.004433960284289	-0.00797861367158767	-0.00112159250337141	0.00293904474816652	-0.00111692615062921	0.00294738832193449	0.00659872927277461	0.00822056262804879
3.2	0.00314071629199169	-0.00970270493006785	-0.00070000954142765	0.00307571964681576	-0.000701755547561683	0.00307511040696958	0.00704555178673449	0.00801566670346238
3.3	0.00158926309115422	-0.011214494682828	-0.000260640068117319	0.00314466814321386	-0.000258994909052982	0.00314092439962023	0.00781300956022123	0.00770766122413455
3.4	-0.000309347023013025	-0.0124640657124776	0.000186858276361577	0.00313741437493792	0.00018067277662379	0.00315399241579416	0.00866479673986697	0.00697671398502378
3.5	-0.00257271867808152	-0.0134998445989274	0.000608970939642484	0.0030931810111024	0.000614567763515301	0.00309324855310486	0.00912843985442731	0.0058538829706399
3.6	-0.00525844481246978	-0.0139656869923346	0.00103734358984818	0.00297247793305539	0.00104553486397093	0.00297214812108686	0.00923902578813969	0.00497915554003882
3.7	-0.00802739522382707	-0.0136861931743704	0.00144737867402498	0.00279005830912856	0.00143781553455562	0.00280374587000937	0.0094430206017942	0.00433371822453113
3.8	-0.0105639533899318	-0.0127321874496848	0.00182458435749247	0.00256172118398972	0.00182700144614733	0.0025708636379742	0.00979226050877998	0.00366640061795989
3.9	-0.0126341829022205	-0.0114150823986045	0.00216920715877679	0.0022877556523582	0.00216194349396892	0.00228598784516768	0.010134562297233	0.00279075396175734
4	-0.0144600699751747	-0.0099409792110471	0.00245260046303523	0.00196616543925266	0.00245704274978419	0.00196372698533552	0.0103153806722997	0.00186609159281105
4.1	-0.0161585830679698	-0.00819159802919809	0.00270328138875621	0.00160621829474674	0.00270203073904847	0.00160695492244193	0.0104277858747494	0.00106737117455555
4.2	-0.0176319267762197	-0.00597709202246079	0.00290139531371155	0.00120533525278467	0.00290584837970073	0.0011966229559195	0.0105710496218002	0.000369545997500325
4.3	-0.0185879012086596	-0.00347203938999503	0.00304356008571105	0.000793806820287361	0.00304997012178159	0.000786005885408579	0.0108275235272012	-0.000472608859736608
4.4	-0.0190741008073972	-0.000855512520692339	0.0031193026975573	0.000360376379259752	0.00312167334862195	0.000358120284944748	0.0109360730702491	-0.00149180061280208
4.5	-0.0191623599682826	0.00173790080442295	0.00314173225382371	-7.69451619544835E-05	0.00314708606079792	-8.03186319381989E-05	0.0108491751378817	-0.00258798850787181
4.6	-0.0190166093110168	0.00430845062513529	0.00309757933230011	-0.000519155089120748	0.00309881363745365	-0.000506252797955643	0.0104570291908985	-0.00367146915375656
4.7	-0.0183998697108242	0.00704750797233986	0.00299239489687925	-0.000937544585389083	0.00300766486134317	-0.000947161875729415	0.00989936301580631	-0.00452462580432913
4.8	-0.0172019684319427	0.00978016369897125	0.00283136398810498	-0.00135136294782348	0.00283983368968564	-0.00135745228253016	0.0094200051189847	-0.00515659829327605
4.9	-0.0151789174225233	0.0121722725348823	0.0026105498277389	-0.00173535176697668	0.0026147151900896	-0.00173245112936638	0.00907097542179736	-0.00573793993979567
5	-0.0127182598741406	0.0138962718976433	0.00235058642162448	-0.00209033759943662	0.00235420780639262	-0.00208767758400517	0.0088948685552505	-0.00629836144823576
5.1	-0.00993008082502252	0.0151149247893621	0.00203940245319242	-0.00240065837141115	0.00204170265890464	-0.00239930347207125	0.00876112129108838	-0.00689137797741844
5.2	-0.00702443862012522	0.015844968980218	0.00168135826993493	-0.00265003848976052	0.00168306519159309	-0.00265517880411791	0.00869770908980039	-0.00741814279950589
5.3	-0.0038868108085225	0.0160295169497256	0.00129424049459728	-0.00286464042688182	0.00129737221637185	-0.00286258308753875	0.00877158084223463	-0.00800225891413525
5.4	-0.000761722606113002	0.0154725132833441	0.000869234854315916	-0.00301101300232749	0.000886367340169247	-0.00302222838964261	0.00880447994577761	-0.0090051548252143
5.5	0.00194776918796375	0.0142485141115755	0.000455797856052995	-0.00310755580676131	0.000465825833650055	-0.00311698310100778	0.00832464317663357	-0.0102216129064387
5.6	0.00407594092924062	0.0126333605375875	1.79092471453286E-05	-0.00314228507829474	9.39336598754085E-06	-0.0031454885561473	0.00729789454343131	-0.0110750413500208
5.7	0.00566203082026343	0.0109502339164504	-0.000412083272909672	-0.0031105591429181	-0.000428669877129454	-0.00311419431866663	0.00619609872465489	-0.0113748538199602
5.8	0.00701190600101727	0.00922007295276255	-0.000856459328900049	-0.00301468449756382	-0.000860001761239423	-0.0030286415934862	0.00539101633272744	-0.0116074169014353
5.9	0.00815063012407384	0.00732452603679251	-0.00125957205043693	-0.00287422294885384	-0.00126778423711298	-0.00287413461817701	0.00461060891532413	-0.0119602492836207
6	0.00890026263602644	0.00502983527845764	-0.00165585308849666	-0.00266802061675446	-0.00165230041350162	-0.00266818908530429	0.0035800227986509	-0.0123162790484871
6.1	0.00902423634079628	0.00249214919392449	-0.0020090647520736	-0.00241413053653195	-0.00201069851864804	-0.00241013541867397	0.00254302588941945	-0.0123996430954781
6.2	0.00847274430291169	-2.63269698609582E-05	-0.0023202223290406	-0.00210211132515955	-0.00232392411059178	-0.00211395197915733	0.00172279380774453	-0.0123916773739055
6.3	0.00753826528184562	-0.0023568300338024	-0.00259676509266513	-0.00176914591470064	-0.00260587126278561	-0.0017634219466439	0.0011594821406805	-0.0125728394965801
6.4	0.00617178445852988	-0.00462678942970947	-0.00282235296247112	-0.00138027608139536	-0.00281265004002912	-0.00138516411788751	0.000598248998131341	-0.0130013069037776
6.5	0.00427596347278313	-0.00667595274371961	-0.00297883276272893	-0.000977064867304785	-0.00298667861222947	-0.000972597533502868	-0.000143199098963811	-0.0134905203776813
6.6	0.00184613270451271	-0.00802861934455557	-0.00308744327753379	-0.000553691181846296	-0.00308907040785077	-0.000557660979866615	-0.000976430421346594	-0.0137358513116208
6.7	-0.000693446261705947	-0.00847685911789776	-0.00313891065183916	-0.000117179077109015	-0.00314775370952411	-0.000110919080998162	-0.00187219076994173	-0.013711666368253
6.8	-0.00301064749552338	-0.00822556879773085	-0.00311849662159119	0.000323456140533959	-0.00312957641279818	0.000328486303889637	-0.00266914456851694	-0.0135425305269008
6.9	-0.00509143523533805	-0.00759792097278922	-0.00304424993273141	0.000756378966847984	-0.0030472347910688	0.00075876362519457	-0.00342927902606294	-0.0134175250879435
7	-0.00702979996640997	-0.00667296926923458	-0.00290857080268138	0.00117699472788598	-0.00292138244770061	0.00117479108866954	-0.00432327200119889	-0.0133276771516887
7.1	-0.00901289469219686	-0.00532742601011445	-0.00273160253642508	0.00156582900402694	-0.00272794877582436	0.00157448752612014	-0.00542452491674574	-0.0128771501491914
7.2	-0.010806461829449	-0.00332818069609889	-0.00247578728836638	0.00193388176126464	-0.00248231121863735	0.00193595458984456	-0.00622118940380365	-0.0119941742135385
7.3	-0.0121111763867172	-0.000754327995952205	-0.00218088839022152	0.00225299470724554	-0.00219209256735494	0.00225803652773181	-0.00642589961332671	-0.0111573301163082
7.4	-0.0126859585418405	0.0020837821671	-0.00183987388028069	0.00253616264540167	-0.00184675716349141	0.00254975275001535	-0.00644554259873093	-0.0108211339994097
7.5	-0.0125470969270915	0.00478133937111455	-0.00147488692987892	0.00277535851051612	-0.00146790635919507	0.00278274984011541	-0.00645050720681692	-0.0109695234593578
7.6	-0.0118561465847535	0.00713243014032865	-0.00106940678522389	0.00295381706830207	-0.00107077714152453	0.00294912482108782	-0.00667579703774541	-0.0114564206790264
7.7	-0.010804203434801	0.00928747335019062	-0.000641976441741727	0.00307515033475956	-0.000643314189259361	0.00307408907838568	-0.00732457487838492	-0.012145536553844
7.8	-0.00903313818720848	0.0110495089551869	-0.000217315457664959	0.00312449378593182	-0.000225117618189284	0.00313093632961649	-0.0082399676453121	-0.012640367270195
7.9	-0.00671229554778855	0.0121023647323186	0.000222645732241913	0.00313211241550374	0.000230574910084364	0.00313361673678812	-0.00935150171754244	-0.0128536535751384
8	-0.00435491051242345	0.012557386928043	0.000663302536040229	0.00306089793076425	0.000663378109188676	0.00306579114936246	-0.010770406925644	-0.0127605856097163
8.1	-0.0020304577182863	0.0126279025337143	0.00107293664568276	0.00294442659552763	0.00109205834270098	0.00294553810090321	-0.0120620291998074	-0.0120725428569153
8.2	0.000228866450482814	0.0125090714006174	0.0014770593474684	0.00276512448937442	0.00148630708890932	0.00275795245342965	-0.0129260463669011	-0.0110252747098634
8.3	0.00262695926635104	0.0120401143057272	0.00185343186632745	0.002527875865552	0.00185176622494217	0.0025414104586523	-0.0133610558873365	-0.0101064428683763
8.4	0.00502249641036487	0.0110420438110995	0.00218964402539442	0.00225196137723449	0.00218661621072727	0.00225173132744652	-0.0137778023771589	-0.00952701408466853
8.5	0.00712867144375464	0.00936487545799043	0.00247646261618951	0.00192294032951266	0.0024755597023498	0.00192612080932125	-0.0145081342263187	-0.00896509785695124
8.6	0.00863746339943812	0.00730051126314238	0.00272406748374355	0.00156383427828633	0.00273357852024816	0.00155731301308141	-0.0153306215471505	-0.00813015830716515
8.7	0.0096182523322844	0.00509568661076243	0.00291160696033022	0.0011618816527541	0.00291716619249711	0.00116261567829142	-0.0159307564147703	-0.00703566575527488
8.8	0.0102698217669153	0.00288705308530452	0.00305004685174651	0.00075119880900128	0.0030558343176535	0.000742446057288372	-0.0162393231477064	-0.00600981153395759
8.9	0.010789146222326	0.000412852239272157	0.00312924443092893	0.000316858194586743	0.00312837678588835	0.00031460808400578	-0.0162066213255422	-0.00509066732918491
9	0.0108525149013812	-0.00253319193032262	0.00314052543964199	-0.000127249441157549	0.00314367869896874	-0.000123139847355937	-0.0160659776231396	-0.00433321214164704
9.1	0.0101662313329666	-0.00572013093015282	0.0030954496390863	-0.000569868735356197	0.00309831964930527	-0.000556955408814209	-0.0158650626782271	-0.00364081709220184
9.2	0.00857943783625562	-0.00872080125946798	0.00298658246479569	-0.000988830653923886	0.00299425118327353	-0.000991701669594112	-0.0155918687699243	-0.00303348134926648
9.3	0.00637003586622965	-0.0112749221518439	0.00281818832346498	-0.00139547498355362	0.00281746132817311	-0.00140047139783488	-0.0151900192324005	-0.00256186291237863
9.4	0.00361483130103619	-0.0133881921814923	0.00259557675776546	-0.00178693485055585	0.00260208925855735	-0.00177932466754911	-0.0149584141680936	-0.00233953702562547
9.5	0.000215275547205498	-0.0148463566967103	0.00232003492707595	-0.0021221801189843	0.00232745446115527	-0.00212352433792291	-0.0150535006032674	-0.00207079938116344
9.6	-0.0037196932683901	-0.0154318886422277	0.00200258076280316	-0.00242651651807105	0.00200291035011185	-0.00242553358817866	-0.0154452605726634	-0.00152938328739357
9.7	-0.00782086998586161	-0.014843198565428	0.00163504925108069	-0.00267753119844253	0.00164059115999983	-0.00268483906932759	-0.0156517380006047	-0.000624331201259806
9.8	-0.0116423078899629	-0.0132082578933241	0.00124994006780461	-0.0028867794328758	0.00125563574755903	-0.00287827377997414	-0.015573214625185	0.000288290718988351
9.9	-0.0149007182054124	-0.0107232568529718	0.000844670978045182	-0.00302645741336768	0.000837336109065812	-0.00302523594849497	-0.0154887510567676	0.00105827516881647
10	-0.0176303754121781	-0.00773124579377779	0.000414655954601727	-0.00311633491769155	0.000407175359528203	-0.00312878911930568	-0.0154851768615389	0.0018211317590522
10.1	-0.0198038382206408	-0.0041981886156841	-2.74174332865196E-05	-0.00314870127251934	-3.76589589336595E-05	-0.0031433175267155	-0.0153728787631022	0.00267187495601251
10.2	-0.0212572560575669	-0.000112543463495525	-0.000473623074134647	-0.00311295621890996	-0.000477035184063384	-0.00311018009631637	-0.0149423576597153	0.00358475918199447
10.3	-0.0216961448321288	0.00437204809226173	-0.000906534007112259	-0.00300848051167288	-0.000898424847228211	-0.00301754855383954	-0.0141940026116459	0.00422659106657214
10.4	-0.0210047463400921	0.00878738472170898	-0.00130460965912567	-0.00285503895841634	-0.00130290307657214	-0.00286123805472127	-0.0133437183087252	0.00432737204566005
10.5	-0.0194765402843608	0.012882685816544	-0.00169737212356427	-0.00265738714733278	-0.00169428461134975	-0.00264436552735589	-0.0128636315493931	0.00423454967901303
10.6	-0.0173029393269413	0.0166248042958787	-0.00205170689512213	-0.00238809214861312	-0.0020495113454625	-0.00239191759532721	-0.0126566549867218	0.00424868821070977
10.7	-0.0144849757045028	0.0201925901296593	-0.00236882246957305	-0.00208632952675889	-0.00236532855276736	-0.00208103421762921	-0.0124194610962986	0.00454153455714972
10.8	-0.0107753882702863	0.0233510181292727	-0.00263992778789477	-0.00172587492254995	-0.00263470759279016	-0.00173481351241484	-0.0121014609360617	0.00479612322524245
10.9	-0.00630817218865548	0.0257432644408497	-0.00284988730080498	-0.00135074995101718	-0.00285508764002922	-0.0013500218203606	-0.0118904897998286	0.0049377484511773
11	-0.00130487974558593	0.027102746687975	-0.00301055670503618	-0.000932696252451641	-0.00301540888346365	-0.000939455914403074	-0.0118250598471045	0.00524549777611473
11.1	0.00379365556510739	0.027458769173225	-0.00311993266588746	-0.000505753959907404	-0.0031090466045495	-0.000502884287392401	-0.0116599912878742	0.00578556086105259
11.2	0.00889308182221179	0.0269317987145753	-0.0031495369946777	-6.58844986691215E-05	-0.00315670815424937	-7.07325908497041E-05	-0.0110706861600243	0.00646814704937176
11.3	0.0140596868972802	0.0255152731866865	-0.00312234795437545	0.000384902838946282	-0.00313392146629419	0.000374845968894379	-0.00991762445410852	0.00692646366669096
11.4	0.0190287844670175	0.0230530666702515	-0.00304779021592581	0.000814449161966924	-0.00304285999852491	0.000822028947979675	-0.00876733449022437	0.00684110142779434
11.5	0.0234999991397139	0.0194276017941918	-0.00290323657077993	0.00123134447386666	-0.00290601161833422	0.00124164417870268	-0.00797191283140373	0.00633153980060681
11.6	0.0271335806711876	0.0148486079590951	-0.00270742741352335	0.00162248294201028	-0.0027074054119333	0.00162542851463699	-0.007338489565579	0.00573212828900923
11.7	0.0298095068643954	0.0097568034145494	-0.00244473156575111	0.00197748848330273	-0.00244528686292076	0.00198610800797457	-0.00667360154341582	0.00503221680399149
11.8	0.0317127350979486	0.00429828171704713	-0.00214820179220316	0.00230960506651611	-0.00215232094337443	0.00231131058438989	-0.00605887586016739	0.00414185457059641
11.9	0.0327868524272036	-0.00166628385664362	-0.00179783279347882	0.00258518384223351	-0.00181086488692487	0.00258951002825551	-0.00576743989706563	0.00323823282311806
12	0.0326203580470958	-0.00799077699066229	-0.00142393571565259	0.002808136164771	-0.00142333769290224	0.00280954899175685	-0.0059426988605471	0.00252991615962375
