# GHZ S RI R 50
0.2	0.00605652536757156	-0.000949535486481629	0.00304836043873523	-0.000899648380576757	0.00305873424973552	-0.000892843758707184	-0.0138638598612248	0.0027452271364851
0.3	0.00598308625227549	-0.00162555350474304	0.002903291560324	-0.00132425324471681	0.00289605649081333	-0.00131130599808268	-0.013454427912832	0.00420939664349793
0.4	0.00610720432181522	-0.00238854739800136	0.00267000728521976	-0.00169685078342331	0.00267526227979807	-0.00170541851721444	-0.0125907434351606	0.00563483058371815
0.5	0.00609847188638268	-0.00352247214823922	0.00240881213511804	-0.00205356801864491	0.00242032148067341	-0.00206582480626682	-0.0114150753226522	0.00653501854375754
0.6	0.00563134819917394	-0.00491322510514112	0.00209373491104656	-0.00236682719455121	0.00209293280406799	-0.00237396793489341	-0.0104020900234069	0.00683988898998378
0.7	0.00441541701612858	-0.00620784675403456	0.00174443915645663	-0.00264204447191715	0.0017424859588514	-0.00264223802321674	-0.00993760873857889	0.00690419804050249
0.8	0.00266463304602492	-0.00699347678505132	0.00135796606828986	-0.00285579626855793	0.00134538609461751	-0.00286030187814052	-0.00992644378497417	0.00721870690368819
0.9	0.000638103353503462	-0.00693842507662298	0.000941424457377581	-0.00301512135178257	0.000942431051033682	-0.00302578724017242	-0.0100640453271742	0.00796691448094626
1	-0.00109207608270567	-0.00614708672335136	0.000518862571138795	-0.00311449162458483	0.00050904009814741	-0.0031152103504479	-0.00993174895549761	0.00915352341926262
1.1	-0.00228980621726239	-0.00503765716489166	6.72917976670421E-05	-0.00314022887184451	6.37813487006182E-05	-0.00315779098420152	-0.00938019124429419	0.010541909805517
1.2	-0.00305433766484892	-0.00425952929667672	-0.00036972227194061	-0.00312812620215169	-0.000370529292426841	-0.00312606041661115	-0.00809495964313951	0.0117014645676882
1.3	-0.00401996978899793	-0.0039817790630393	-0.000791365092238242	-0.00304552860770813	-0.000794586153264932	-0.00304752543687337	-0.00624804117213824	0.0123011912563012
1.4	-0.00512041226847995	-0.0035951665541028	-0.00120764378957072	-0.0029000066780335	-0.00120642731209556	-0.00290550851452903	-0.00447397759226392	0.0120662499945749
1.5	-0.00561293087341963	-0.00270364339916274	-0.00160479740886644	-0.00270855398694911	-0.00160317002527784	-0.00271700858568124	-0.00307382514859958	0.0114631060544193
1.6	-0.00563754136227895	-0.00157324791320237	-0.00196364725290946	-0.00246157362127982	-0.00196383884911598	-0.00246678668658805	-0.00248301342945412	0.0110704914529848
1.7	-0.00538190072330161	-0.00036041893235205	-0.00229251571815709	-0.00217027642202362	-0.00229350370789512	-0.00216403978977745	-0.00206438197209561	0.0109997024186946
1.8	-0.0048741038646641	0.00107065257955994	-0.00256607659036486	-0.00182353115183444	-0.00257699177454083	-0.00182920214672473	-0.00168324016260888	0.0111164804195786
1.9	-0.00389381117294366	0.00238384953082134	-0.00279528441493918	-0.00145599684974018	-0.00280773306635188	-0.00144990617501428	-0.00123644382999371	0.0114096183140319
2	-0.00250294477777406	0.00336033488823264	-0.00297546413224001	-0.00104960700451675	-0.00298509946095313	-0.00104493962661236	-0.000626108429271996	0.0118138495659287
2.1	-0.000905112868521559	0.00373763075988075	-0.00309311127750637	-0.000620483307481535	-0.00308902062582125	-0.000622461439632168	0.000272780914714242	0.0120291552398073
2.2	0.000554717858377062	0.00363384231519116	-0.00315350702776871	-0.000179954439611408	-0.00316480977515465	-0.000182821680294273	0.00132298425170665	0.0119579310138143
2.3	0.0017413857224004	0.00314146352945953	-0.00315017699795143	0.000266507636052978	-0.00314986231792449	0.000259620419565772	0.00218739446259203	0.011567324859614
2.4	0.00268137055288389	0.00258113318119227	-0.00307721819723683	0.000707788874091629	-0.00307975686962441	0.000703527092443181	0.00284658071109655	0.0112286847618589
2.5	0.00358403764445128	0.00191927817420484	-0.00293807726852515	0.00112202748226431	-0.00294896750411871	0.00112840616404923	0.00350536993049751	0.0109416356940832
2.6	0.00453571426373004	0.00100221465123176	-0.00276121823591538	0.00152537287628553	-0.00275766863800579	0.00151305790171678	0.0042988670489297	0.0106304683729037
2.7	0.0053796669318557	-0.000267127175079315	-0.00251245174408173	0.00189511399482628	-0.002517723001083	0.00189512818656549	0.00503731754400546	0.0101520760594366
2.8	0.00599512988373235	-0.00179550525565386	-0.00222769469564992	0.00221927506673266	-0.00221989705626039	0.00222903488230484	0.00561829955632225	0.00971644444837435
2.9	0.00641609444013057	-0.00349029462205617	-0.00189336923969405	0.002514962971074	-0.00188967370989939	0.0025145376486566	0.00633192322239624	0.00945864656871527
3	0.00653379640766186	-0.00540555910287115	-0.00150944664852927	0.00274587195107936	-0.00152416667517646	0.00275193132854634	0.00726408286077747	0.00922260688469061
3.1	0.00625633658882664	-0.00753177523794737	-0.00112368891889548	0.00291951004524954	-0.00111907219806959	0.00292782043144609	0.00825331666230884	0.00875061106961004
3.2	0.00525176576473595	-0.00968468916296349	-0.000709418727847864	0.0030551796153231	-0.000711152151584017	0.00305456623906447	0.00898964621405469	0.00816396608594872
3.3	0.00363467952614987	-0.0116362510163466	-0.000277870365711535	0.00312628140962253	-0.000276211843465525	0.00312256746212336	0.00970002757934287	0.00744640203243315
3.4	0.00150130879625436	-0.0130627250730326	0.000162757763292429	0.00312449405707841	0.000156477621318076	0.00314095067567063	0.0103074785746211	0.00655829522730191
3.5	-0.00084276767015456	-0.0140632430574932	0.000580105618959149	0.0030881476579016	0.000585683190387197	0.00308826352878423	0.0106531362302525	0.00552112509670441
3.6	-0.00342782165186114	-0.0146151725546254	0.0010070570860175	0.00297717634544232	0.00101523709552108	0.00297692554169081	0.0108690240030746	0.00464112827572868
3.7	-0.00618008198637631	-0.0146575374409593	0.00141945487935972	0.00280465618859719	0.00140975422308788	0.00281824831467454	0.011144766098967	0.0037642347761849
3.8	-0.00903222922553007	-0.0140285926142075	0.00180250143810935	0.00258478431458902	0.0018048319378447	0.00259396824115714	0.0112780420448134	0.00281291897635276
3.9	-0.0115919515360393	-0.0127033517335471	0.00215564758098763	0.00231662255834792	0.0021483738038592	0.00231477980474751	0.0112189344090487	0.0019265062340759
4	-0.0137033345053618	-0.0109103974732449	0.00244894127248797	0.00199710491023186	0.00245342737490777	0.00199469100817814	0.01116608758287	0.00128465045866034
4.1	-0.0153665459708637	-0.00887820696204009	0.00270943144155955	0.00163557391000483	0.00270816754888728	0.00163630650104674	0.0113520702734477	0.000744886026713276
4.2	-0.0167483058297295	-0.0066208091779776	0.00291576348812786	0.00122970209089089	0.0029202957242447	0.00122095115771025	0.0116392896886298	5.61500111854793E-05
4.3	-0.0178061186181947	-0.00414511243999145	0.00306328265173155	0.000810945613267232	0.00306976918039433	0.000803110273110629	0.0118409981513243	-0.0008737216576567
4.4	-0.0184923989010403	-0.00134966676990749	0.00314096586723762	0.000369330768098033	0.00314335814596809	0.000367063312095118	0.0117543347427103	-0.00181239741880036
4.5	-0.0185825333387915	0.00161929725498602	0.00316206440850741	-7.55314585897797E-05	0.00316745483506418	-7.89234545141592E-05	0.0116066295563587	-0.0026147519902418
4.6	-0.0181325269991155	0.00447967043891346	0.00311392494179036	-0.000523414641585416	0.00311517201728694	-0.000510443823355786	0.0114205127642512	-0.00343453942746259
4.7	-0.0171426729402562	0.00718555754267265	0.00300334877176967	-0.000944607360178084	0.00301866929295947	-0.000954280056192903	0.0111717539082953	-0.00428174403232806
4.8	-0.0158041454986582	0.00968780589945246	0.00283698421052772	-0.00135829049877447	0.00284546822479269	-0.00136440581246853	0.0108017343084451	-0.00509403919244313
4.9	-0.0138110532724138	0.011988699289215	0.00261228322977729	-0.00173956562252426	0.00261645596929405	-0.0017366648785056	0.0104095720672005	-0.00573845829293613
5	-0.0112777924815322	0.0137592862896842	0.00235094116462713	-0.00209034843003879	0.00235456267035369	-0.00208768792226539	0.0102759475343608	-0.00620479738952793
5.1	-0.00827537140807583	0.014871138752162	0.0020413129003677	-0.00239641426551546	0.00204360983917256	-0.00239505715567804	0.0103628642627955	-0.00681218778714981
5.2	-0.00533107182975262	0.0152601208389386	0.00168741215080079	-0.00264303946633537	0.00168913213600153	-0.00264817059356417	0.0104279846014047	-0.00760824258300537
5.3	-0.00249477866004994	0.015191889650706	0.00130609197827271	-0.00285754304746464	0.0013092131364598	-0.00285547307625262	0.0103194240818532	-0.00847077978860399
5.4	0.000270703278162322	0.0147496766795663	0.000886962823019102	-0.00300718617540497	0.000904166840946098	-0.00301830708769617	0.0100447245144061	-0.00945522623219935
5.5	0.0029232554458496	0.0138492909775992	0.000477961993723187	-0.00310998322598231	0.000488072674463688	-0.00311935849161661	0.00948405877153095	-0.0104221607105791
5.6	0.00530618652676723	0.0123825510512032	4.15582092810894E-05	-0.00315331621379308	3.30361131532522E-05	-0.003156594992954	0.00868035806948339	-0.0111397295615358
5.7	0.00711283614203771	0.0105249684760259	-0.000390757888027862	-0.00313085240771727	-0.000407408451793481	-0.00313463348705484	0.00781032021797758	-0.0116178932837443
5.8	0.00838762733334257	0.00846905049896744	-0.000841607575513434	-0.00304339660136291	-0.000845078070541089	-0.00305748364037584	0.00696579280389442	-0.0122220267015555
5.9	0.00917179246975771	0.00646638173621895	-0.00125424978486496	-0.00290861109481805	-0.00126253933067597	-0.00290857081520593	0.00582299308730796	-0.0127840091327054
6	0.00961659753164889	0.00440561661864608	-0.00166230287984614	-0.00270416868070351	-0.00165871087869001	-0.00270432361337556	0.00439333089951444	-0.0129959070878704
6.1	0.0097312958469735	0.00220906431527662	-0.00202741520475318	-0.002447469377269	-0.00202907759255037	-0.00244343048778293	0.00321322841832769	-0.0127520823520704
6.2	0.00934504446992177	-0.000160772871966188	-0.00234880051775875	-0.00212814518262633	-0.00235254760849529	-0.00214013216359756	0.00245731690713064	-0.012540869704895
6.3	0.00843980295778417	-0.00248166893799003	-0.0026324182946828	-0.00178474202508916	-0.00264162221611606	-0.00177892756242742	0.00186893123481496	-0.0126622974541637
6.4	0.00709527054569963	-0.00461606176398246	-0.00286063071716877	-0.00138335382043721	-0.00285083928502673	-0.00138834085518348	0.00128604058698066	-0.0128984407906638
6.5	0.00546954332911014	-0.00650517389208438	-0.0030148928975941	-0.000967960545645776	-0.00302278905509527	-0.000963398652123125	0.000777449622988416	-0.0131262254411992
6.6	0.00343754143031019	-0.00801077488025617	-0.00311715685320703	-0.000534331330512667	-0.00311882813752147	-0.000538321212704705	0.000375753479634157	-0.0133931850194593
6.7	0.00101887049624584	-0.00887976350336419	-0.00315927212316242	-9.10170959286479E-05	-0.00316811609995938	-8.46427538280885E-05	-0.000287808163457392	-0.0137178359083394
6.8	-0.0015450234733504	-0.00891680665197942	-0.00312820142289354	0.000352005095897353	-0.0031392817831955	0.000357152286384884	-0.00123054441988367	-0.0138748753684279
6.9	-0.00390031754114392	-0.00825193928197485	-0.00304406114063176	0.000783082779560018	-0.00304703221559883	0.000785496897395572	-0.00223878398732121	-0.0137980574672677
7	-0.00583637825344857	-0.00706580277171108	-0.00290086946300363	0.00119840331059986	-0.00291370071562271	0.00119629187196888	-0.00321965482628244	-0.0134657311684993
7.1	-0.00751061181001486	-0.00566232687233821	-0.00271997818366958	0.00158012863801185	-0.00271627786009017	0.0015887578778762	-0.00407580786643561	-0.012855924166988
7.2	-0.00903289070378879	-0.00399983465444621	-0.00246406401434739	0.00194084945876157	-0.00247056928142498	0.00194294541093188	-0.00454238295191205	-0.012174852940365
7.3	-0.0104537162798593	-0.00194531201643399	-0.00217240992820678	0.00225441246251801	-0.00218358529400157	0.00225947172996211	-0.00471778149468203	-0.0118196985070006
7.4	-0.0115548127486225	0.000493336589176737	-0.00183661634927	0.00253504030687528	-0.00184348485639095	0.00254862251913494	-0.00502087418415379	-0.0119985953635963
7.5	-0.0120047545300708	0.00331587726376431	-0.00147711077597427	0.00277528625488865	-0.00147013272716794	0.00278268432565356	-0.00556808541623407	-0.0121706293205162
7.6	-0.0114672938085762	0.00624638894134298	-0.00107555339192657	0.0029580571474368	-0.00107691992346998	0.00295335392839897	-0.00626566676173482	-0.0120938251037203
7.7	-0.0106609770946603	0.00863537551373649	-0.000648939379824018	0.00308578719547004	-0.000650280598992944	0.0030847199639842	-0.00700308599739644	-0.0127746206505934
7.8	-0.00894599955499467	0.0107448030191925	-0.000221374107111581	0.00314177886802903	-0.000229225785316918	0.00314825036188188	-0.00809257445214802	-0.0130197207178005
7.9	-0.00668183654535951	0.0123391527161276	0.000225169266615122	0.0031546306115392	0.000233156057197165	0.00315614345495624	-0.00929695361631292	-0.0129619269824806
8	-0.003579990642519	0.0131235285931413	0.000675159016534173	0.00308529936765375	0.000675245255498331	0.00309023361349238	-0.0103396794511246	-0.0121261614038105
8.1	-0.000742971346307565	0.0132091246648391	0.00109499586200212	0.00296661819893221	0.00111429552192276	0.00296765967347642	-0.0112272091283679	-0.0114304014138036
8.2	0.00191515765055774	0.0126732762081356	0.00150850648676881	0.00278048565468571	0.00151779100583479	0.00277318824894053	-0.0116870355456238	-0.0105846322823276
8.3	0.00433353049720773	0.0117900323730875	0.00189134255888567	0.0025324804591554	0.00188978328865994	0.00254614267664711	-0.0120554530678878	-0.00996320144643194
8.4	0.00658402981996649	0.0106400696191464	0.00222968121591215	0.00224349056040034	0.00222662981586353	0.00224329227417382	-0.0126091773359006	-0.00946482194354998
8.5	0.00869334272485511	0.0090042221199496	0.00251331464731446	0.00190094547752653	0.00251244778506001	0.00190415331149749	-0.0133597119671019	-0.00874176050103498
8.6	0.0104177114318418	0.00686809966625713	0.00275279761589043	0.00152993673761479	0.0027622422652001	0.00152326645298041	-0.0139230625759535	-0.0077786465795443
8.7	0.0115768603033689	0.00428787058660755	0.00292795061267523	0.00111984299199319	0.00293351969400229	0.00112049694162214	-0.0141453654972062	-0.00686701642088467
8.8	0.0120454956503235	0.001623719418069	0.00305193456068562	0.000705986944362323	0.00305758190013024	0.000697177497803721	-0.014346456454878	-0.00626812444501037
8.9	0.0121062078181952	-0.00102590491602297	0.00311648447355884	0.000274077491909643	0.00311559198944695	0.000271850933421885	-0.0145541638677276	-0.00567637782385908
9	0.011806978525966	-0.00379063143757215	0.00311533425314685	-0.000162362682230149	0.00311851089303335	-0.000158320361090344	-0.014725610832041	-0.00492192508653344
9.1	0.0109864386245778	-0.00672003866171727	0.00306185539457497	-0.000593646892731796	0.00306482010267631	-0.000580878324365714	-0.0146702927651051	-0.00408133468185452
9.2	0.00937355826828389	-0.00960708012021148	0.0029498488785137	-0.00099971254521796	0.00295742096693661	-0.00100260818379415	-0.0144103589844607	-0.00344490995530291
9.3	0.00703602563089001	-0.0120320320463966	0.00278341005414641	-0.00139403733470641	0.00278266793876834	-0.00139897994794743	-0.0141427741469513	-0.00299483732576232
9.4	0.00426652711546182	-0.0139024342790647	0.00256692640680887	-0.00177576554220977	0.00257339406536542	-0.00176824220887943	-0.0141186467258853	-0.00272562410955482
9.5	0.00106732287642097	-0.0149411822793824	0.00230004517083046	-0.00210551399152592	0.00230740284469341	-0.00210684991471421	-0.0141708378332569	-0.00205264676884866
9.6	-0.00245452015549611	-0.0155085566911458	0.00199153476575811	-0.00240874551659713	0.00199186130797917	-0.00240776877326992	-0.0142994305245677	-0.00134594144700153
9.7	-0.00629198159948066	-0.0152267499170172	0.00163132092297827	-0.00266260307377951	0.00163684760398141	-0.00266986861914134	-0.0142263877002525	-0.000576598120911591
9.8	-0.0101959103159145	-0.013953523377092	0.00125030119078155	-0.00287712220490403	0.00125596981293518	-0.00286863257824089	-0.0141207265665305	4.10146105823446E-05
9.9	-0.0137985412772181	-0.0115297355531978	0.000845314111694419	-0.00302271088590537	0.00083798663035619	-0.00302149455355826	-0.0142930804272938	0.000684312563103955
10	-0.0166907311511005	-0.00838829620646242	0.000412028242895998	-0.00311718965893048	0.00040453569091674	-0.00312963937764884	-0.014459895961743	0.00154013021131907
10.1	-0.0188138529542445	-0.00472822244166283	-3.57790290493738E-05	-0.0031512246313797	-4.60147402197177E-05	-0.00314580932319889	-0.0143226502281811	0.00250855987513838
10.2	-0.0202126312737953	-0.000698621566775213	-0.0004884122406504	-0.00311325830174766	-0.000491814234299576	-0.00311046416006762	-0.0138159471288235	0.00335705297562515
10.3	-0.0207841385060289	0.00372090053610667	-0.000926389728664615	-0.00300269168952146	-0.000918339775391804	-0.00301181364340944	-0.0131799404349903	0.00385243619769021
10.4	-0.0202734833849657	0.00830302932219399	-0.00132647911506	-0.00284032307436959	-0.0013248262287064	-0.00284652782710976	-0.0125924048950234	0.00400004041047298
10.5	-0.018674029681613	0.0127208055292687	-0.00171695854404817	-0.00263221049684785	-0.00171375735064638	-0.00261926239089467	-0.012236272396574	0.00420651060231979
10.6	-0.016158076173684	0.0166173713713884	-0.00206399410212943	-0.00235332761721477	-0.00206185020765743	-0.0023571530511026	-0.0118627324942144	0.00451479212993871
10.7	-0.0130187035961659	0.0200368084149304	-0.00236961746940438	-0.00204480499309151	-0.00236610011419911	-0.00203958979709034	-0.0113483958525438	0.00487510928576341
10.8	-0.00922725032061231	0.0229567932901716	-0.00262619358589862	-0.00168249451971803	-0.00262111330845242	-0.00169138091490284	-0.0108875534921179	0.0050498221600234
10.9	-0.0048076625944327	0.0252227159015117	-0.00282122731035623	-0.00131113928314801	-0.00282635154153214	-0.00131038226815571	-0.0106330317360087	0.00518600806282373
11	0.000272385423843503	0.0265875974931456	-0.00296857942352361	-0.000902854632993573	-0.00297339076866276	-0.000909484596839047	-0.0104515861320091	0.00563258563601912
11.1	0.00558054148338965	0.0267982748991645	-0.00306872247287997	-0.00049027274947504	-0.00305801261629088	-0.000487475632966015	-0.0099412689274375	0.0062310713228013
11.2	0.0107604447932017	0.0258881963876117	-0.00309525065196966	-6.75531595226437E-05	-0.00310229402614985	-7.23241610505142E-05	-0.00895859980191491	0.00666178546991118
11.3	0.0157195874153118	0.024156492544811	-0.0030714548202516	0.000365873687825992	-0.00308279347781907	0.00035593915764755	-0.0077476120045331	0.0067279968827171
11.4	0.0202740615514239	0.0215514467871757	-0.00300598533732979	0.000780734325592279	-0.0030011841688841	0.000788230196917589	-0.00674389964514231	0.00623597051088506
11.5	0.0243944297271957	0.0180178887313247	-0.00287510615546305	0.00118756509935336	-0.0028779391333225	0.00119769859073694	-0.00621973257194316	0.00547545913766307
11.6	0.0279074419085181	0.0135909092928923	-0.00269497095309735	0.00157452098902931	-0.00269498161521083	0.0015774338248757	-0.0057566523210365	0.00481129477682711
11.7	0.0304498660748718	0.00853055744094913	-0.0024475405482102	0.00193154158731573	-0.00244819389675831	0.00194008126782757	-0.00526959277394573	0.00393394998405164
11.8	0.0320704678054558	0.00316743233795081	-0.00216354106947618	0.00227039673404919	-0.0021676568831099	0.00227204283700746	-0.00505907514135452	0.00286531480947756
11.9	0.0329536511372477	-0.00232614789547916	-0.00182141847841584	0.00255641504588445	-0.00183445772328962	0.00256057916492909	-0.00523563700335945	0.00226367317597698
12	0.0327547679914111	-0.0083846621982416	-0.00145034093647194	0.00279017361927226	-0.00144975790146658	0.00279159063214028	-0.005779232014057	0.00175993682605963
