# GHZ S RI R 50
0.2	0.00562820591730606	0.00149727423114567	0.00304838287899068	-0.000897821417437382	0.00305875130732561	-0.000891012116737194	-0.0142933137174622	0.00517841717581115
0.3	0.00612590394801598	-0.000541751043170288	0.00290421622508025	-0.00132121836629232	0.00289696934349055	-0.00130827994683774	-0.0133168387952483	0.00527211010688967
0.4	0.00595250429723866	-0.00237970464478373	0.00267263869577152	-0.00169297028675445	0.00267790661416169	-0.0017015306136195	-0.0127581918223037	0.00561543906107796
0.5	0.00517040205444037	-0.00395548074219391	0.00241384712000022	-0.00204964940646866	0.00242538534893747	-0.00206188846672027	-0.012367136135998	0.00606882809610373
0.6	0.00398518647950005	-0.00508600965837976	0.00210139031319603	-0.00236411686320263	0.00210060444900686	-0.00237126638945971	-0.0120866621877255	0.00663275350431394
0.7	0.00254281614938796	-0.00570325987418894	0.00175432348788945	-0.00264188447780847	0.00175236752239967	-0.00264208349710133	-0.0118657481751552	0.00737936913465373
0.8	0.00117298312728763	-0.00588980973498086	0.00136898718856192	-0.00285929739290692	0.00135638784739022	-0.00286384786555508	-0.0114905798513978	0.00830772024299571
0.9	-0.00014034161447484	-0.0057389318607861	0.000952013245137276	-0.00302290098236402	0.000953049511673229	-0.00303360012080806	-0.0109228236143862	0.00917724653861167
1	-0.00133289892614226	-0.00543826784698918	0.000527252699915405	-0.00312640775963197	0.000517390809631828	-0.00312714912936643	-0.0102412202083567	0.00990165476029785
1.1	-0.00257330467583736	-0.00505692258486874	7.16707244826177E-05	-0.00315533013030202	6.81659662430121E-05	-0.00317298171541815	-0.00969833533607474	0.0105750711674014
1.2	-0.00389799762468189	-0.00469596381569549	-0.000370466681342639	-0.0031448498651409	-0.000371278781816454	-0.00314277344381737	-0.00892497184594731	0.0113111010211232
1.3	-0.00538197085520756	-0.00431833544393868	-0.000797628974903014	-0.00306175873912435	-0.000800868985346135	-0.00306376450873398	-0.00755940400783809	0.0119841138397876
1.4	-0.0066466090380706	-0.00372947292777301	-0.00121899967131262	-0.00291361601826933	-0.00121778583556249	-0.00291914953774012	-0.00593948471357011	0.0119516687535759
1.5	-0.00725675429197191	-0.00263007716217386	-0.00161996389711093	-0.00271783691757915	-0.00161835072223911	-0.00272633802352379	-0.00464103749515933	0.0115594252113958
1.6	-0.00729556078042355	-0.00108452519157532	-0.00198064442792474	-0.00246548166116307	-0.0019808548180635	-0.00247071667216052	-0.00408437507544904	0.0115587887930459
1.7	-0.00673935846601985	0.000522347401259474	-0.00230921648660967	-0.00216866078585491	-0.00231018292398119	-0.00216239842725048	-0.00337323201403083	0.0118684277170914
1.8	-0.00576064914469457	0.00203757116192255	-0.00258040921005938	-0.00181718158666308	-0.00259137643049012	-0.00182282026911317	-0.00254012004021493	0.0120561536857415
1.9	-0.00445941710471561	0.00311565890413177	-0.00280593196622567	-0.00144644111445015	-0.00281837459748157	-0.00144028781939585	-0.00178214786992986	0.0121174849312518
2	-0.00305680998794465	0.00379649655045925	-0.00298179698344799	-0.00103869361202149	-0.00299142112231577	-0.00103398490704499	-0.00116278085008893	0.0122285757020547
2.1	-0.00163942353113074	0.00408113481165226	-0.00309542361026251	-0.000610121322609589	-0.00309133931702342	-0.000612113361758355	-0.000446497813625629	0.0123501038842357
2.2	-0.000276485180074742	0.00413390201897007	-0.00315289482978131	-0.000171620907718192	-0.00316420121186314	-0.000174457515438385	0.00049924509254052	0.012434081621453
2.3	0.00107711373085628	0.00383616332151011	-0.00314824965967145	0.000272045430130517	-0.00314794749946728	0.000265160814990568	0.00151915495390496	0.0122442676319022
2.4	0.00235817106650449	0.00325254402916963	-0.00307571936101064	0.000710647981324234	-0.00307826158847379	0.000706389816504839	0.00250544559935439	0.0118860630844457
2.5	0.00347769161624777	0.00227815888350529	-0.00293847371736142	0.0011231797291563	-0.00294936476248862	0.00112956323339513	0.00338180057858662	0.0113072208822792
2.6	0.00435443158641287	0.00102168963251555	-0.00276427954847957	0.00152644152551834	-0.00276072422667363	0.00151411468581342	0.00411176294234181	0.0106669614110399
2.7	0.00498721422920677	-0.000387715291635787	-0.00251800618821691	0.00189796168213278	-0.00252328774991999	0.00189797410705974	0.00464807161076819	0.010048645897644
2.8	0.00547430113299862	-0.00193178460388655	-0.0022346522181459	0.00222552184013282	-0.00222683292807589	0.00223531184056974	0.00510413717988184	0.00960152093439692
2.9	0.00580710200420849	-0.00369686967996052	-0.00189980716461635	0.00252563372959301	-0.00189609725371388	0.00252520523585136	0.0057450782123915	0.00929473979159295
3	0.00572771861943028	-0.00569067340725948	-0.00151299084837185	0.00276085918456983	-0.00152777263902126	0.00276696658758526	0.00651675976011956	0.00899263730385369
3.1	0.00518057128987821	-0.00771814185333669	-0.00112225164199334	0.00293768781434139	-0.00111758973773083	0.00294603028010306	0.00726865647235147	0.00860222854848876
3.2	0.00403763016503319	-0.00961332412895687	-0.00070130619692986	0.00307444132024113	-0.000703051373419348	0.00307383140871695	0.0078907763752668	0.00825708613743015
3.3	0.00247935642780693	-0.0113268140055488	-0.000262537182937713	0.00314376194832571	-0.000260890081098787	0.00314002011503159	0.008683586856522	0.00775522383621788
3.4	0.000478454425654756	-0.0126716537922886	0.000184524665840748	0.00313714904251084	0.000178327756443996	0.00315372040104039	0.00944874860676741	0.00691941291040354
3.5	-0.00184023489930939	-0.0136938301886523	0.000606436775650113	0.00309372547191846	0.000612033623336217	0.00309379761583239	0.00985042311765954	0.0058082701526036
3.6	-0.00448223504659564	-0.0141771993453146	0.00103497426671246	0.00297392279333982	0.00104316734320837	0.00297359997921067	0.0100097364004043	0.00493606129335075
3.7	-0.00722468488011641	-0.0140211964574517	0.00144552998653236	0.0027923206082393	0.00143595164443952	0.00280600504450701	0.0102679629805835	0.0041853243688214
3.8	-0.00987311571119699	-0.0132138249822507	0.00182355002307122	0.00256456749890579	0.00182596118322416	0.00257371686438758	0.0105442691421708	0.0033597010186515
3.9	-0.0121474139032631	-0.0119099372405264	0.00216917026855955	0.00229085098376713	0.00216190269638898	0.00228907696271932	0.0106973600451206	0.00243347193520738
4	-0.0141009845159959	-0.010302487292433	0.00245358578036994	0.00196910447128621	0.00245803305226639	0.00196666636465252	0.0107334526756954	0.00161410774604931
4.1	-0.0157789273469305	-0.00842403195816523	0.00270517054362301	0.00160863158563605	0.00270391849770994	0.00160936844121325	0.0108460657903033	0.000944907425305897
4.2	-0.0171935704918699	-0.00619401818519132	0.00290391467815003	0.0012069202231361	0.00290837328220075	0.00119820049305243	0.0110500901751882	0.000269613538298293
4.3	-0.0181788017112834	-0.00372529975927909	0.00304633609379797	0.000794420453459099	0.00305275165470844	0.000786612254811355	0.011285510967776	-0.000622319648121148
4.4	-0.0187588285201158	-0.00105854699450228	0.00312194025298216	0.000360034505130042	0.00312431239103852	0.000357776071531854	0.0112889968755216	-0.00162065203737952
4.5	-0.0188700628282471	0.00168586909292995	0.00314390464610072	-7.80706879002398E-05	0.00314926104902238	-8.14483449449405E-05	0.0111383133816626	-0.00257951345343472
4.6	-0.0186109232059963	0.00439241474290472	0.00309905065470742	-0.000520788756816285	0.00310029125592096	-0.000507879932932116	0.0108208577534667	-0.00350195982041549
4.7	-0.0178353206559366	0.00713092666775736	0.00299308808542404	-0.000939325264175247	0.00300835928764532	-0.000948953481216076	0.0104108292836515	-0.00431463297458558
4.8	-0.0165650583127759	0.00977217845068114	0.00283135146727674	-0.00135297055189243	0.00283982018130644	-0.00135906513995751	0.0100163907106733	-0.00501700711418248
4.9	-0.0145538006702718	0.0121224100763137	0.00261004004373963	-0.00173652613487986	0.00261420687194114	-0.00173362696307868	0.00965958333247055	-0.00563629604285824
5	-0.0120646039910804	0.0138717610600597	0.00234986676575556	-0.00209095936952597	0.00235348880439819	-0.00208830054491407	0.00949918592365146	-0.00615582198130669
5.1	-0.00917306722061819	0.0150553912315594	0.00203877689400932	-0.00240074866001264	0.00204107708442669	-0.00239939429609972	0.00947376342216171	-0.0067446353706549
5.2	-0.00622444298432121	0.0156349461406017	0.00168107647128778	-0.00264976104436259	0.00168278303714624	-0.00265490077631197	0.00949611731565985	-0.00739745574693818
5.3	-0.00319725334113069	0.0156859852398878	0.00129443563317836	-0.00286425364808975	0.00129756686323024	-0.00286219615101882	0.00950409349295043	-0.00813820718866871
5.4	-0.000230650338016761	0.0151511238508356	0.000869897696040935	-0.0030108131852045	0.000887032614794863	-0.00302202475903549	0.00937876892873141	-0.00916401361299856
5.5	0.0024404855241293	0.0140565475137219	0.00045677713901945	-0.00310779476700208	0.000466809129421793	-0.00311722021460655	0.00882459506297069	-0.0102649840366185
5.6	0.00467526007115399	0.012507478938369	1.89332780413922E-05	-0.00314312349968913	1.04161480382283E-05	-0.00314633060035337	0.00788223353788272	-0.0110216883793303
5.7	0.00637486538303314	0.0107365128360599	-0.000411328898244175	-0.0031119863534817	-0.000427921374283521	-0.00311562799758978	0.00691765307635033	-0.0113727161463429
5.8	0.00768959824930083	0.00883624855691955	-0.000856289163011894	-0.00301656460660661	-0.000859830569802161	-0.0030305303154347	0.00612834225466104	-0.0117826350515541
5.9	0.00864830496429856	0.00686497373082911	-0.00126017507501868	-0.00287627686000145	-0.00126839282563864	-0.00287618918152376	0.00519226058932722	-0.0122670998895013
6	0.00922474982751384	0.00466561797454852	-0.00165730972168689	-0.002669887302532	-0.00165375439667947	-0.00267005618393097	0.0039546298116605	-0.0125838818657945
6.1	0.00931461230976159	0.00229596524249313	-0.00201127132606187	-0.00241544058826644	-0.00201290525909769	-0.00241144194773124	0.00282285178005067	-0.0125093166199329
6.2	0.00882755156017203	-0.000130707863605205	-0.00232290900279269	-0.00210254724860636	-0.00232661908478405	-0.00211439478863756	0.00203011461418216	-0.0123833268109783
6.3	0.00791214115675983	-0.00243730003637379	-0.00259956323825567	-0.00176854846760263	-0.00260867136575173	-0.00176281490304331	0.00147264783895347	-0.0125283253963152
6.4	0.00655484913331516	-0.00462102865650959	-0.00282481053644496	-0.00137863658166253	-0.00281510699146976	-0.00138353481530085	0.000889612740940826	-0.0128625837826614
6.5	0.00479078995217383	-0.00656523930961766	-0.00298055250459795	-0.000974598441873007	-0.00298839641647974	-0.000970122668338547	0.000239981340422485	-0.013196603542555
6.6	0.00257288345621856	-0.00796605738875896	-0.00308813881116093	-0.000550738568365373	-0.00308976985976166	-0.000554707002011926	-0.000368425314836252	-0.01340723206256
6.7	0.000127817076385664	-0.00861422336243342	-0.00313845874766676	-0.000114185846883154	-0.00314729429210073	-0.000107918599938392	-0.00109733632334759	-0.0135393694613798
6.8	-0.00227961386147517	-0.00852799784179071	-0.00311698363998046	0.000326018211477344	-0.00312805470794292	0.000331055941944466	-0.00191969511617224	-0.0135635391575949
6.9	-0.00449527337141789	-0.00790878711290481	-0.00304194501184202	0.000758144741385709	-0.00304492642154404	0.000760530182322363	-0.00281029832970082	-0.0134977468195514
7	-0.00645305396976896	-0.00687805002290736	-0.00290586605855752	0.00117773198840478	-0.00291866978797854	0.0011755368489856	-0.00376974454972226	-0.0133093231035623
7.1	-0.00830814863193544	-0.0054962516145148	-0.00272893317512042	0.00156550746761247	-0.00272527940408469	0.00157415796453714	-0.00476560541852864	-0.0127657793509303
7.2	-0.00996941058530163	-0.00363851372721829	-0.00247358219659688	0.00193262696089446	-0.00248010067095446	0.00193469889853081	-0.00537900897785973	-0.0119596044427589
7.3	-0.0113098774945573	-0.00131108855532365	-0.00217944898047014	0.00225111292042837	-0.00219064519069571	0.00225614997606067	-0.00552015844695287	-0.0113712262138951
7.4	-0.0121160701537708	0.0013396293063473	-0.0018393544139186	0.00253403558307941	-0.00184623683842303	0.00254761507667901	-0.00567650178924376	-0.0113076577271481
7.5	-0.0122549044253953	0.00407562030082923	-0.00147525759589206	0.00277339492141194	-0.00146828342687447	0.00278078535587173	-0.00596132302834554	-0.0115250646305406
7.6	-0.0116800987582725	0.00663307647852034	-0.00107046600868469	0.0029523817249597	-0.00107183371609487	0.00294769030742854	-0.00641689807481793	-0.0118493603729745
7.7	-0.0107026029771955	0.00890575495904722	-0.000643371159253381	0.00307446031826866	-0.000644708231646363	0.00307339855235621	-0.00714740464107748	-0.0124702061965971
7.8	-0.00896866731963557	0.0108027043092684	-0.000218648654742793	0.00312456438235162	-0.000226453946809707	0.00313100396028762	-0.00816128755897428	-0.0128560500135897
7.9	-0.00665340021592504	0.0120801302371102	0.000221715275497315	0.00313279872469606	0.000229645547493025	0.00313430580890635	-0.00934955981446053	-0.0128799973217859
8	-0.0040614025733997	0.0127126389207995	0.000663028077126582	0.00306189589200878	0.000663102923119234	0.00306679055517007	-0.0106610007168934	-0.0124771706305581
8.1	-0.00147911808785281	0.0128037159114371	0.00107336287733338	0.00294536192568421	0.00109249085544197	0.00294647330491163	-0.0117096785145982	-0.0116726118227095
8.2	0.000962703798251787	0.0125190472005105	0.00147807171737452	0.00276562993216956	0.00148732068299038	0.00275845385336574	-0.0123301998543891	-0.0106929223124969
8.3	0.00336482797191405	0.0118722812852032	0.00185473953579473	0.00252768943544197	0.00185307859296054	0.00254122733697137	-0.0126861076476603	-0.00993552013248412
8.4	0.00568104384293379	0.0108223154035113	0.00219087178660163	0.00225099176951337	0.00218784370302405	0.00225076320806121	-0.0131595732099802	-0.00943275046391762
8.5	0.00778245475382895	0.00919780509075393	0.0024772223608662	0.00192127818438474	0.00247632137216721	0.00192445875109251	-0.0139193887607447	-0.00880951481962782
8.6	0.00940755390014001	0.00714220323852837	0.00272404618672518	0.00156172941209851	0.00273355022622483	0.00155520486561822	-0.0146279892323238	-0.00789793380929788
8.7	0.0105093616732517	0.00480107680000135	0.00291062120807741	0.00115973085297325	0.00291617778521707	0.00116046158289636	-0.0150375807108853	-0.0068728942775585
8.8	0.011130320741425	0.00237796384687868	0.00304811840486537	0.000749433169726815	0.00305389815080233	0.00074068450315579	-0.0152596369242707	-0.00606997842002991
8.9	0.0114727961057188	-0.000211663574956533	0.00312658365983526	0.000315883545092973	0.0031257162701901	0.000313635592145173	-0.0153333850672282	-0.00535671727329535
9	0.0113753423656905	-0.00311178499331842	0.00313751364799718	-0.000127154590009785	0.00314066391993711	-0.000123048963146345	-0.0153696100947595	-0.00464474858748241
9.1	0.0106366145352819	-0.00621973213057172	0.0030925444897753	-0.000568614861676602	0.00309540878643717	-0.000555713543882459	-0.0152608282674033	-0.00390790644645288
9.2	0.0090320820480722	-0.00919711487058135	0.00298425544881507	-0.00098654527676668	0.00299191834394309	-0.000989410115326221	-0.0150223093080203	-0.00329427229114295
9.3	0.00674926853725642	-0.0117216169992264	0.00281681920909255	-0.00139245883565038	0.00281609613605405	-0.0013974516585586	-0.0147160228826211	-0.00283787223794066
9.4	0.00394818083072551	-0.0137303088315932	0.00259539961250684	-0.00178362665929591	0.00260190159685509	-0.0017760159353952	-0.0146149692130372	-0.00255832698334581
9.5	0.000611681424399506	-0.0150116462491862	0.00232104795941006	-0.00211907462155306	0.00232846558317443	-0.00212041124353051	-0.0147343371246665	-0.00207785896000931
9.6	-0.00315134056801451	-0.0155622045750564	0.00200458982806181	-0.00242406857570315	0.00200491838043367	-0.00242308551077728	-0.0149993725223111	-0.00139852654428138
9.7	-0.00712644464564548	-0.015090654482275	0.00163767764073292	-0.00267607655744537	0.00164322676728163	-0.00268337942566014	-0.0150328309088084	-0.000519653453035138
9.8	-0.0109720108552371	-0.0136131889343616	0.00125272945674115	-0.00288643516779203	0.00125841927999842	-0.00287792248998366	-0.0148962254735296	0.000248089768762286
9.9	-0.0143615200490227	-0.0111705420855624	0.00084715469301188	-0.00302713008833073	0.000839815893132149	-0.00302591327431809	-0.0149064514653586	0.000923772132865659
10	-0.01716279021598	-0.00811522886285419	0.000416445698718769	-0.00311777456571744	0.000408967422107865	-0.00313023912539133	-0.0149983491900323	0.00171610207337928
10.1	-0.0193053753867793	-0.00453275278088959	-2.65459181960808E-05	-0.00315050011071235	-3.67947865054532E-05	-0.00314511618777996	-0.0148777645865397	0.00263375633042164
10.2	-0.0207300536954722	-0.000493731031742675	-0.000473683965875041	-0.00311464882140917	-0.000477098070416755	-0.00311187142602641	-0.0143889391458799	0.00351785637771965
10.3	-0.0212467039025804	0.00393375787872203	-0.000907323426122857	-0.00300965751308845	-0.000899211971329576	-0.00301873053918128	-0.0136805057849865	0.00405758487739774
10.4	-0.0206779411108491	0.00841192019512073	-0.00130576542727311	-0.00285544700677064	-0.00130406012283906	-0.00286164826392697	-0.0129859696773353	0.00414311374823825
10.5	-0.0191658117697396	0.0126674863417552	-0.00169847261928111	-0.00265695269533787	-0.00169538008964858	-0.00264393127809286	-0.0126226293347922	0.00419214724184583
10.6	-0.0168741916799716	0.0165170322782361	-0.00205232848698306	-0.00238695254888685	-0.00205013473273946	-0.00239077828419378	-0.0123753124177679	0.00438149642191903
10.7	-0.0139298577911264	0.0200654802773776	-0.00236866411057078	-0.00208479617830076	-0.00236516969222728	-0.00207950392648973	-0.012014165611822	0.00473933454982927
10.8	-0.0101850741595323	0.0231679359632074	-0.00263885459989823	-0.00172437828994505	-0.00263363913272009	-0.00173331311462432	-0.0116324846159004	0.00497095805725682
10.9	-0.00572742724216168	0.0255690031221079	-0.00284798423632945	-0.00134970844602644	-0.00285318097523361	-0.00134898060761607	-0.0114358542987529	0.00512526982830184
11	-0.000646062650895569	0.0269868555779014	-0.00300807768308469	-0.000932503093653764	-0.00301292495019989	-0.000939258399746521	-0.0113327307302066	0.00554996767382074
11.1	0.00462150006847466	0.0273167092930377	-0.00311728752808904	-0.000506634932784959	-0.00310641114818278	-0.000503763049995898	-0.0109833781395956	0.00618581360312585
11.2	0.00985211879201803	0.0266168448670792	-0.00314723235290056	-6.78530621050803E-05	-0.00315439525801664	-7.2702261637957E-05	-0.0101428968305212	0.00679554946210854
11.3	0.0150084312403907	0.024986951771512	-0.00312085224631719	0.00038205696335263	-0.00313241057205108	0.000371996234210003	-0.00885761640218973	0.00703980152107666
11.4	0.0198354558756806	0.0223896790418367	-0.00304739619896297	0.000811101481665877	-0.00304247545342253	0.000818683171970698	-0.00774145499921164	0.00672389415501475
11.5	0.0241688272357325	0.0187344016086528	-0.00290408912205706	0.00122798420651737	-0.00290687489655094	0.0012382791744234	-0.00705535308675444	0.00608403311188626
11.6	0.027744916268153	0.0141478715589098	-0.00270943125018322	0.00161963048828838	-0.00270941249143704	0.00162257632085007	-0.00647380001172437	0.00542666479393092
11.7	0.0303365028942966	0.00899676325080744	-0.00244756656096472	0.00197558064577584	-0.00244813098905281	0.00198420234681	-0.0058605579448633	0.00460051136161551
11.8	0.0320580027458996	0.00352649386052875	-0.00215142365144609	0.00230887100358579	-0.00215554651216718	0.00231057368356779	-0.00543402343422351	0.00356768471637591
11.9	0.0330109254543089	-0.00228057731430015	-0.00180105460003474	0.00258589468815299	-0.00181409979816691	0.00259021493587708	-0.00544631642841415	0.0026920971457947
12	0.032720996215848	-0.00840334740087607	-0.00142641929418357	0.00280959251471854	-0.00142582150980376	0.00281100672419704	-0.00582443333019265	0.00216304978610365
