# GHZ S RI R 50
0.2	0.00571860977680059	0.00147141744004459	0.0030483805846804	-0.000897828497975487	0.00305874902830403	-0.000891019221980273	-0.0142587643166362	0.00509494561805448
0.3	0.00617416071893541	-0.000563980428106048	0.00290421187126136	-0.00132122480087114	0.00289696502368268	-0.00130828636928424	-0.013324766114166	0.00522261874295703
0.4	0.00595486518240558	-0.00236675461374687	0.00267263341338977	-0.00169297661567458	0.0026779013078738	-0.00170153695323845	-0.012749396714536	0.00561865717024226
0.5	0.00514825845533787	-0.0038758045175636	0.00241384068428598	-0.00204965631905315	0.00242537887518518	-0.0020618954120146	-0.0122897606905682	0.00608544495982298
0.6	0.00398256276514831	-0.00493014700139216	0.00210138274714538	-0.00236412438464798	0.00210059685873074	-0.00237127390960384	-0.0119423065891232	0.00659377924401266
0.7	0.00260341365078564	-0.00550016896650545	0.0017543151883173	-0.00264189405294981	0.00175235921997204	-0.00264209306492341	-0.0117151212146366	0.00724277725689856
0.8	0.0013065265118701	-0.00569928751139216	0.00136897572700097	-0.00285931213207211	0.00135637632868863	-0.00286386255031369	-0.0114090581249898	0.00810012872767447
0.9	2.17787236391925E-05	-0.00561533168818765	0.000951991486985008	-0.00302292083302055	0.000953027667382929	-0.00303362002205271	-0.0109349036659244	0.00898327735422803
1	-0.00122379964381613	-0.00538355923081804	0.0005272140738507	-0.00312642522408882	0.000517352140395676	-0.00312716646884072	-0.010285405713448	0.00979881976814523
1.1	-0.00257868239813011	-0.0050004632192127	7.16163548140139E-05	-0.00315533308714839	6.8111290289558E-05	-0.00317298462145705	-0.00966364755697877	0.0105571513056679
1.2	-0.00399643439437945	-0.00454106172973326	-0.000370528447766215	-0.00314483004967675	-0.000371340503302149	-0.00314275362019267	-0.00875301296078134	0.0112771764021545
1.3	-0.00548680566608323	-0.00404352733645383	-0.000797687977265006	-0.00306171489429882	-0.000800928002695109	-0.00306372057665188	-0.00730950414316399	0.011848589320433
1.4	-0.00672263694012819	-0.00338673294250551	-0.00121904854775195	-0.00291355040172592	-0.00121783485138486	-0.00291908387525505	-0.00568029670910808	0.0117325719307879
1.5	-0.00729709303226936	-0.00222125895521029	-0.00161999429701057	-0.00271775310051097	-0.00161838133637503	-0.00272625409002365	-0.00438408370099691	0.0112540824202228
1.6	-0.00724018330020864	-0.000620941914253263	-0.00198065133736732	-0.00246538882934341	-0.00198086182813547	-0.00247062372347973	-0.00389528648046134	0.0111448497799207
1.7	-0.00656296123537951	0.000957240978377801	-0.0023091991482762	-0.00216856730840222	-0.00231016545103331	-0.00216230508411603	-0.00332445124357098	0.0114145015216609
1.8	-0.00552942391641408	0.00237111536625856	-0.00258036991943039	-0.00181709338169157	-0.00259133694017481	-0.00182273174401803	-0.00260642006875156	0.0116715633437462
1.9	-0.00427291674014083	0.00335943525355672	-0.00280587120665442	-0.00144636111117948	-0.00281831339621076	-0.00144020782229315	-0.00185807426167255	0.0118438524532824
2	-0.00295989395575611	0.00403736663404085	-0.0029817151617657	-0.00103862802627426	-0.00299133894713369	-0.00103391936196047	-0.00115968595270465	0.012001817913682
2.1	-0.00158146183098525	0.00439952257710369	-0.00309532477975619	-0.000610077144925976	-0.00309124063840171	-0.000612069148831247	-0.000377465545728788	0.0120656025875537
2.2	-0.000159243187552913	0.00452142199334123	-0.00315278603794332	-0.000171603337389823	-0.00316409203807761	-0.000174439805018096	0.000531238333928234	0.0120573783711721
2.3	0.00129571064363477	0.00419150658763163	-0.00314814016796215	0.000272034815296584	-0.00314783801577439	0.000265150439919196	0.00142898269510506	0.0118620670535576
2.4	0.00260187033089602	0.00347774779647604	-0.00307561720662024	0.000710611911647118	-0.00307815933100341	0.000706353882258056	0.00233356857458541	0.011630338774855
2.5	0.00361194530040962	0.00238935646790615	-0.00293838473249472	0.00112312323789676	-0.00294927546263295	0.00112950645984755	0.00327529639293284	0.011213087657475
2.6	0.00432718679328854	0.00114216185828497	-0.00276420606657851	0.00152636885664964	-0.00276065074707873	0.00151404243681452	0.0041720208369644	0.0106245927160765
2.7	0.00486877229466847	-0.00017004384770891	-0.00251795028195606	0.00189787737131769	-0.00252323168400467	0.0018978897394602	0.00483406058711729	0.0099394310176947
2.8	0.00533193266145226	-0.00163681684757214	-0.00223461418207215	0.00222543096614072	-0.00222679523435839	0.00223522077694914	0.00533828435272879	0.00942116948680751
2.9	0.00562030377491021	-0.00334759670537244	-0.00189978401104116	0.00252554161068617	-0.00189607419789095	0.00252511317208804	0.00603966107805726	0.0090726685714933
3	0.00547998738900937	-0.0052265091906114	-0.00151297859155913	0.00276076549712486	-0.00152776003528602	0.00276687256838933	0.00690635358213496	0.00867028491341373
3.1	0.00495323880997709	-0.00707658469006318	-0.00112224992479888	0.0029375913953461	-0.00111758824199405	0.00294593366916693	0.00768577732489849	0.00808992939712938
3.2	0.00394418703017609	-0.0088408301101195	-0.000701314528987183	0.00307433536197756	-0.000703059643203653	0.00307372545253632	0.00820152475222489	0.00757016737696173
3.3	0.00254435611958722	-0.0105485388093385	-0.000262563423439962	0.00314364584852166	-0.000260916338392078	0.00313990416856427	0.0088252408856337	0.00701951238748305
3.4	0.000613640296417134	-0.0119634930208497	0.000184471806120883	0.00313702675148298	0.000178274903183696	0.00315359735999935	0.00949324826873409	0.00624063986544829
3.5	-0.00172116679426308	-0.0130070547656214	0.000606353090842964	0.00309360479859184	0.000611949698371179	0.00309367704400947	0.00990268673656548	0.00516033278002865
3.6	-0.00435061465182109	-0.0134314077921485	0.00103485554464786	0.00297381659840111	0.00104304826657151	0.00297349399947817	0.0100621536071581	0.00422523013799569
3.7	-0.00697586871328385	-0.0132333273887341	0.00144538168782536	0.00279223919480292	0.00143580336338766	0.0028059227325234	0.0102062922968699	0.00340092860931639
3.8	-0.00948732083780485	-0.0125186875584316	0.00182337818914466	0.00256451868956473	0.00182578891758798	0.00257366773549965	0.0103113703268485	0.00263766343451955
3.9	-0.0117569026750428	-0.0113954978816404	0.00216898262878433	0.00229084171573062	0.002161715442343	0.00228906747182605	0.0104083027816144	0.00190167352685071
4	-0.013848791244241	-0.00988910194138369	0.0024533930552609	0.00196913899602202	0.00245784025957982	0.00196670119771001	0.0105596703146444	0.00122698073432652
4.1	-0.0156539796315792	-0.00796272703741304	0.00270498284993526	0.00160871384201391	0.00270373081246271	0.00160945060337491	0.0108156766373872	0.00054326811380521
4.2	-0.017073967800015	-0.00565298500524701	0.00290374595891342	0.00120705311961048	0.00290820493420874	0.00119833394589659	0.0110442018201871	-0.000211815194410957
4.3	-0.0180165250912762	-0.00320765043905229	0.00304620583647489	0.000794597559789147	0.00305262173816844	0.00078678997912257	0.0112284849025977	-0.00108874321983434
4.4	-0.0186525979693105	-0.000634441779715013	0.00312186475485285	0.000360242577973051	0.00312423700904865	0.000357984343693946	0.0112668533864924	-0.00197579049131878
4.5	-0.0189363624220458	0.00209729112864804	0.00314389119937457	-7.78553614917495E-05	0.00314924780112747	-8.12326322944943E-05	0.011292240309027	-0.0028812347350712
4.6	-0.0188265954878973	0.00494907122233904	0.00309909305757547	-0.000520589624498474	0.00310033282671029	-0.000507680684103322	0.0111630468600868	-0.0039232590008863
4.7	-0.0180491037488999	0.00788253456913019	0.00299316787670918	-0.000939155408047084	0.0030084397726771	-0.00094878279740862	0.0107905236317798	-0.0049426801523383
4.8	-0.0166782430606383	0.01061278136864	0.00283145378873783	-0.00135283294351519	0.00283992291862614	-0.00135892714151531	0.0103038841842524	-0.00576009055798112
4.9	-0.0146284967251882	0.0129577110907483	0.00261015569317604	-0.00173641424308944	0.00261432242157828	-0.00173351483059283	0.00990163707420019	-0.00637839258131176
5	-0.0121810782173761	0.0147608457023216	0.00234999114618164	-0.00209086792828945	0.00235361309419155	-0.00208820890264203	0.00979722164667302	-0.00694318600666377
5.1	-0.00924772401443656	0.0160951434549744	0.0020389092288036	-0.00240067082669577	0.00204120937341161	-0.00239931634099788	0.00975984621534437	-0.00770174511542992
5.2	-0.00610517138981034	0.0167444118982644	0.00168122368007631	-0.00264969444294403	0.00168293052026871	-0.00265483412494011	0.00958755878788233	-0.00847145872223352
5.3	-0.00290900671547506	0.0166622960517588	0.00129460530293296	-0.00286420732529306	0.00129773644684375	-0.00286214963707874	0.00938304473370691	-0.00910480107796755
5.4	1.74830290528548E-05	0.0159322296176838	0.000870084118834296	-0.00301080058359279	0.000887219907538363	-0.00302201130088572	0.00925784234456958	-0.00991202726438675
5.5	0.00250524121815559	0.0148078217110394	0.00045696865470824	-0.00310781850645219	0.000467001367259329	-0.00311724351397122	0.00889262938377932	-0.0109451798717843
5.6	0.00464860985202247	0.0134276035566336	1.91219521653438E-05	-0.0031431794687054	1.06048595875576E-05	-0.00314638713795646	0.00807716148411218	-0.0118679267918166
5.7	0.00648246939776026	0.0118227986876864	-0.000411141369373455	-0.00311207202300033	-0.000427733935754729	-0.00311571477915313	0.00699232404538638	-0.0124227075494242
5.8	0.00803854859914015	0.00987805089280292	-0.000856099325481922	-0.00301668851937622	-0.000859639844303533	-0.00303065477266871	0.00592838704893618	-0.0128250543185628
5.9	0.00909698045828849	0.00764894787853646	-0.00125999061295282	-0.00287645470787163	-0.00126820860285937	-0.0028763676558114	0.00483428232112881	-0.0130453384489864
6	0.00951509222004505	0.00520328096308996	-0.00165715797021588	-0.00267012906917279	-0.00165360248956699	-0.00267029766715683	0.00372419089389936	-0.0130650212604091
6.1	0.00933407545081458	0.00280022190935035	-0.00201118053990712	-0.00241573395248875	-0.00201281488748538	-0.00241173523289254	0.00287694804352342	-0.0129089508513911
6.2	0.00869209370370704	0.000494148113776732	-0.0023228964665186	-0.00210286737033623	-0.00232660586260095	-0.00211471597853877	0.00226566065368174	-0.0128863500712278
6.3	0.00772720469509805	-0.00174620425232599	-0.0025996307721854	-0.00176887215934266	-0.00260874000764141	-0.00176313882617163	0.00176708924489295	-0.0130918849194668
6.4	0.00622238314038093	-0.0038922963283365	-0.00282496124221262	-0.00137893940069582	-0.00281525654803547	-0.00138383741629857	0.00134627868896279	-0.0134390955849818
6.5	0.00428325996658091	-0.00559692822014555	-0.00298077431555357	-0.000974855855887887	-0.00298861920571132	-0.000970380106819688	0.000920099922246134	-0.0140032047790082
6.6	0.0021496665552342	-0.00662293464451005	-0.00308841565601288	-0.000550934417620988	-0.00309004668176294	-0.000554903314545351	0.000272403789059791	-0.0146294965710349
6.7	5.15367523497834E-05	-0.00709507655453654	-0.00313877355941904	-0.00011430976845484	-0.00314761022590829	-0.000108042200908521	-0.000811130442226668	-0.0149980240062256
6.8	-0.00206484376525821	-0.00715667711375175	-0.00311731599961834	0.000325973770757983	-0.00312838834557735	0.000331011746864815	-0.00197283908212207	-0.0148981007207058
6.9	-0.00428466029607547	-0.00677238699601349	-0.00304227613944245	0.000758175570719011	-0.00304525789994544	0.000760561214091915	-0.00289192475408394	-0.0145722261519987
7	-0.00643900577226033	-0.00576485002742416	-0.00290617589387104	0.00117783608101457	-0.00291898094157579	0.00117564063187497	-0.00364295035297769	-0.0143267205833276
7.1	-0.0083673461375191	-0.00413614771503707	-0.00272921046298441	0.00156567135678516	-0.00272555630640917	0.00157432273440924	-0.00452660752763526	-0.0140371242793472
7.2	-0.00977162935334978	-0.00202239844048038	-0.002473819167862	0.0019328430936019	-0.00248033829019683	0.00193491529301242	-0.00538583178262186	-0.0135403931255588
7.3	-0.0106543273424296	0.000243017536891937	-0.00217963865147314	0.00225137806323233	-0.00219083593640051	0.002256415809269	-0.00603481937930235	-0.0129441825235574
7.4	-0.0111675499875751	0.0024722957255913	-0.00183948035826347	0.00253434490927287	-0.00184636314961604	0.00254792598471553	-0.00657058481002573	-0.012459658373717
7.5	-0.0114033595251467	0.00470679801586168	-0.0014753027137685	0.00277372840710954	-0.00146832756931705	0.00278111932481984	-0.006823933964026	-0.0121107504138637
7.6	-0.0111700947860883	0.00700107120050671	-0.00107042889731338	0.00295271348961417	-0.0010717969561046	0.002948021689494	-0.00694909110226463	-0.01208753431607
7.7	-0.0104471630713754	0.00922039867577748	-0.00064326834702286	0.00307476019508545	-0.000644605590175679	0.0030736984060558	-0.00740656337211392	-0.0126072239954044
7.8	-0.00897567251670396	0.011054414801312	-0.000218497719089566	0.003124827653339	-0.000226303292020663	0.00313126817056114	-0.00813640806364463	-0.0128775394767376
7.9	-0.00709222178211873	0.012399427788217	0.000221903152834849	0.0031330172663833	0.000229834091299736	0.00313452402730875	-0.00883579393034711	-0.0129132904805237
8	-0.00486769747176193	0.0134377033467718	0.000663227162939172	0.00306207063780598	0.000663302260235971	0.00306696562986283	-0.00967636496425527	-0.0128996157487244
8.1	-0.00230679854915001	0.0141043761578397	0.00107356180933558	0.00294551044299157	0.00109269110272437	0.0029466210656616	-0.0106124101339244	-0.012733126095267
8.2	0.000473776206881872	0.0141967001836127	0.00147828516799061	0.002765774327824	0.0014875345309102	0.00275859737285758	-0.0115522844751627	-0.012227619448724
8.3	0.00323492675253102	0.0135563758630816	0.00185499616386988	0.00252782254567739	0.0018533356371378	0.0025413616340804	-0.0123082833457663	-0.0115339402001133
8.4	0.0056399870458268	0.0123473758144431	0.00219118134841438	0.00225108187793447	0.00218815298288273	0.00225085344934072	-0.0129070374936562	-0.0108700917423486
8.5	0.00761123737498243	0.01073443893386	0.00247756275759649	0.00192129649067433	0.00247666188534525	0.00192447739745843	-0.0135232870360165	-0.0102444369800739
8.6	0.00921134069098451	0.008957506070268	0.00272438830363825	0.00156167337296953	0.00273389270253576	0.00155514760550006	-0.0141674235136082	-0.00964456247661619
8.7	0.0106133217085433	0.00689186209006051	0.00291095031584573	0.00115961478597696	0.00291650741256182	0.00116034516992212	-0.014880624644384	-0.0089755678202891
8.8	0.0117117500741132	0.0044113068878456	0.00304843894719394	0.000749256041027883	0.00305421849569751	0.000740506167120742	-0.0156571469795276	-0.00817815342774132
8.9	0.0123102590694177	0.00143432223529438	0.00312688543024725	0.000315628507283998	0.00312601776159832	0.000313380436316589	-0.0160844816861315	-0.00706341208713339
9	0.0121065618812682	-0.00181830580256309	0.00313776288527695	-0.000127496341111705	0.00314091385422817	-0.000123390702996785	-0.0160614358776914	-0.00593433742747079
9.1	0.0111816306140329	-0.00502737592341644	0.00309270991596726	-0.000569026346932627	0.00309557596637558	-0.000556124397694982	-0.0157660941685036	-0.00504945643291718
9.2	0.00952524391497074	-0.0080399474156715	0.00298431358866133	-0.000987001173970427	0.00299197658934848	-0.000989867204115604	-0.0154768991928843	-0.00437666099632944
9.3	0.00716782528294906	-0.0107363634013505	0.0028167522423957	-0.00139292766152634	0.00281602842040091	-0.00139792061565394	-0.0151055348639388	-0.00370791047940955
9.4	0.0040553437456866	-0.0128868851246012	0.00259519657879941	-0.00178405893432869	0.00260169986201398	-0.00177644899612405	-0.0146657564417877	-0.00323002958552967
9.5	0.000335555562807147	-0.0140110438300113	0.00232074320515615	-0.00211942478921095	0.00232816065756424	-0.0021207625111531	-0.0143397006527171	-0.00288225837057736
9.6	-0.00356997692399171	-0.0141342928542262	0.00200422490770182	-0.00242431549921249	0.00200455359273426	-0.00242333249324447	-0.014406989195203	-0.00266533905101664
9.7	-0.00731185116915198	-0.0133140528045019	0.00163729475093331	-0.00267622482938977	0.00164284280740611	-0.0026835282412355	-0.0146747260448032	-0.00219285236822094
9.8	-0.0108009137802394	-0.0118368284199491	0.00125234743179864	-0.00288650597205707	0.00125803812193529	-0.00287799421466408	-0.0149377961915933	-0.00144594286421715
9.9	-0.0140633430969163	-0.00965528831472307	0.000846777342301127	-0.00302713914798244	0.000839438901179819	-0.00302592151590154	-0.015113694892811	-0.000485058968386803
10	-0.0170154598110328	-0.00674320766828038	0.000416075955072597	-0.0031177176477419	0.000408596506617024	-0.00313018093650462	-0.0150518241977588	0.000484056509516018
10.1	-0.0192728464296371	-0.00305358567588739	-2.68941311739968E-05	-0.00315037651338157	-3.71420101278979E-05	-0.00314499166060735	-0.0147962785743002	0.00130124908320727
10.2	-0.0205631491225116	0.00108219139645627	-0.000473995938717614	-0.00311447013546394	-0.000477409607029095	-0.00311169249117676	-0.0144464225588527	0.00207368244501974
10.3	-0.0209135755785139	0.00531473207065372	-0.000907597769865224	-0.00300943949618277	-0.000899487589142226	-0.00301851298860663	-0.0139364436899062	0.00281677895042163
10.4	-0.0205046046298072	0.0094597848426352	-0.00130601089981772	-0.00285519534856076	-0.00130430631189668	-0.00286139653349182	-0.0130976123623585	0.00328380199568897
10.5	-0.0194372893248196	0.0136596995079576	-0.00169869258154811	-0.00265665796501415	-0.00169559875859334	-0.00264363742143148	-0.0122567456930118	0.00343917674415644
10.6	-0.0174672659888108	0.0178308186224977	-0.00205251390746143	-0.00238660513222969	-0.00205032069882077	-0.00239043095009754	-0.0116351188167095	0.00331790394771481
10.7	-0.0144964448823365	0.0217415809680775	-0.00236879673852373	-0.00208438790462685	-0.00236530184780091	-0.00207909637459631	-0.0112642513574301	0.0032956607711792
10.8	-0.0106183000591369	0.0249568626235371	-0.00263890376668896	-0.00172391350994989	-0.00263368983118052	-0.00173284841875042	-0.0110071963466581	0.00339769960399959
10.9	-0.0062328615564225	0.02736237499808	-0.00284792018048495	-0.00134921820016343	-0.00285311638181559	-0.0013484897381831	-0.0107265222663317	0.0035586412252404
11	-0.00135341449825695	0.0290494688635406	-0.0030078952524731	-0.000932019709358501	-0.0030127429055656	-0.000938773707040198	-0.0103788459008327	0.00371814098838446
11.1	0.00397648565994218	0.0299392513749909	-0.00311699473100961	-0.000506188453712395	-0.00310611923497409	-0.000503318254748504	-0.0100349020574536	0.00376090423165512
11.2	0.00973990337877646	0.0296928855110317	-0.00314684516797377	-6.7465153190019E-05	-0.00315400775778321	-7.23128800934325E-05	-0.00970054174857211	0.00383912172058345
11.3	0.0156461012501761	0.028031757819437	-0.00312037487706145	0.000382364102543281	-0.00313193275923952	0.000372306104111484	-0.00920443164579443	0.0040381602089037
11.4	0.0209072034811328	0.0250145973909207	-0.0030468374970924	0.000811320605359858	-0.00304191665149	0.000818900578459996	-0.0085837884124142	0.00411119901186602
11.5	0.0253208292625162	0.0209976506958344	-0.00290345156169829	0.00122807830202905	-0.00290623575603884	0.00123837176821053	-0.00801101685342008	0.00383222658845372
11.6	0.0289745337704622	0.016212582659506	-0.00270876358071591	0.00161955809844758	-0.00270874456388109	0.00162250335985941	-0.00753862688925305	0.00336505677981189
11.7	0.0317764665880263	0.0107526950551565	-0.00244693601045095	0.00197532819120457	-0.00244749977494087	0.00198394814849497	-0.00719428336625442	0.00283429960654329
11.8	0.0335275176682897	0.00467622683163993	-0.00215089446856878	0.00230845919114589	-0.00215501640698234	0.00231016165295606	-0.00689027089452158	0.00244397818070203
11.9	0.0340159814512691	-0.00174264399312553	-0.00180067831135107	0.00258537863362377	-0.0018137208472593	0.00258969806323987	-0.00649622682636225	0.00229830433145507
12	0.032982600783096	-0.00799458632389975	-0.00142620166894553	0.00280903809651925	-0.00142560402259561	0.00281045205069934	-0.00608406823013886	0.00201079211482282
