# GHZ S RI R 50
0.2	0.0058549332215062	-0.000655898426302398	0.00304843590051981	-0.000899478011234319	0.00305880939478625	-0.000892672734613022	-0.014073298218284	0.00303019564335349
0.3	0.0059316238684748	-0.00144618895175148	0.00290348013775081	-0.0013240427286827	0.00289624378266774	-0.00131109575207409	-0.0135143333508168	0.00438370660892531
0.4	0.00608574125693872	-0.00238113296549306	0.00267032680216853	-0.0016966552385105	0.00267558298156015	-0.0017052228597537	-0.0126132392043755	0.00563935926543277
0.5	0.00597985965436382	-0.00364745433608544	0.00240926692168967	-0.00205344597160502	0.00242077873984187	-0.00206570238223306	-0.0115233537100864	0.00640044452105797
0.6	0.005355252700627	-0.00505409913544441	0.00209430013566537	-0.00236684405323979	0.0020934988618402	-0.00237398577301358	-0.0106622428636744	0.00667270333335348
0.7	0.00402545168111825	-0.00624235620234603	0.00174506051089706	-0.00264225410653295	0.00174310701879543	-0.00264244793809215	-0.0103196000465224	0.00682501273601996
0.8	0.00228166052952432	-0.00687318537445219	0.00135856374266568	-0.00285622106139503	0.00134598173093245	-0.00286072900485181	-0.0103206247309148	0.00728760679535239
0.9	0.000379640911317584	-0.00672575351274215	0.000941916495453775	-0.0030157495329148	0.000942924280680909	-0.003026417851267	-0.0103497871569513	0.00814034820954186
1	-0.00119920443208317	-0.00597805161001672	0.000519182962729405	-0.00311527855731026	0.000509357953640963	-0.00311599805272447	-0.010062119663171	0.00930600478344845
1.1	-0.00234037726843892	-0.00502133379757892	6.73888495996881E-05	-0.00314110547772263	6.38778563201294E-05	-0.00315867258943592	-0.00942623286974228	0.0105528919689972
1.2	-0.00318893910080207	-0.00437964739230952	-0.000369858830588445	-0.00312902026005381	-0.000370666062543912	-0.00312695387384939	-0.00819089735989292	0.0115596102170486
1.3	-0.00427786304522672	-0.00412047130018647	-0.000791712865181339	-0.00304636239733384	-0.000794934922338009	-0.0030483596642045	-0.00645596839626251	0.0121101506471562
1.4	-0.00543466401858644	-0.00369940656046236	-0.00120815872916884	-0.00290072876401718	-0.00120694226329193	-0.00290623219127787	-0.00474193296009431	0.0118907621487301
1.5	-0.00598184772544863	-0.00277480983573259	-0.00160542918827934	-0.0027091459476087	-0.00160380202429737	-0.0027176029038259	-0.00340041161739603	0.0113027804067841
1.6	-0.00605677744130043	-0.00155087247218769	-0.00196434551602065	-0.00246204129521349	-0.00196453758183256	-0.00246725567122076	-0.00288181115602135	0.0109770182087976
1.7	-0.00577585354244304	-0.000213657542004262	-0.00229325528197528	-0.00217064513177494	-0.0022942430436637	-0.002164406862405	-0.00247305452845912	0.0110292540859057
1.8	-0.0051717554939855	0.00128581023956417	-0.00256685469534906	-0.00182382847668443	-0.00257777305127934	-0.00182950020195612	-0.00201888026948098	0.0112376930305339
1.9	-0.00409513126842392	0.0025776916815071	-0.0027961300674878	-0.00145624212974667	-0.0028085817942549	-0.00145014910287176	-0.00147176871951617	0.0115367208827806
2	-0.00267753241644602	0.00348753070430965	-0.00297641678813153	-0.00104978469988976	-0.00298605482000442	-0.00104511544948522	-0.000812533392163786	0.0118815638827775
2.1	-0.00112056027820424	0.00383104156512824	-0.00309420350114281	-0.000620549330549393	-0.00309011153813407	-0.000622528336932737	5.94511330077795E-05	0.0120458725826384
2.2	0.00029653923070796	0.00376582652027322	-0.00315475318465739	-0.000179837019500238	-0.00316606053091696	-0.000182704709919912	0.00105456195406651	0.0119921057660389
2.3	0.00150721024649445	0.00334756811951494	-0.00315155228915419	0.000266897510266124	-0.00315123806319635	0.00026000720962864	0.0019133242437485	0.0116790792845148
2.4	0.00253949745714535	0.0028161659632968	-0.00307864986292955	0.00070853484017913	-0.0030811903395839	0.000704271276166247	0.00264790415794809	0.0114016354732343
2.5	0.00353024918413472	0.00209512448212562	-0.00293945877521589	0.00112318261765559	-0.00295035371769677	0.0011295667828359	0.00341729094620468	0.0110943028461183
2.6	0.0044930094953386	0.00108114403296212	-0.00276241944339	0.00152697115613085	-0.0027588709867257	0.00151464813912989	0.00426644472425877	0.0106944672544676
2.7	0.00528920123711417	-0.000243791142049547	-0.00251330600929597	0.0018971183420785	-0.0025185804254399	0.00189713436095474	0.0049879672564187	0.010140177697689
2.8	0.0058655670122443	-0.00178269438164287	-0.00222806426360061	0.00222159020763852	-0.00222025764199528	0.00223135248685451	0.00554146194079726	0.00967513643263068
2.9	0.00626622647151772	-0.00349362838921103	-0.00189313141966313	0.00251744177837579	-0.00188943396009129	0.00251701423448108	0.0062513186884207	0.00938807369123136
3	0.00633517724619482	-0.00543925083761907	-0.00150855348469332	0.00274830533868854	-0.00152327772729549	0.00275437719159866	0.00715827215815045	0.00909486293242621
3.1	0.00597052660643419	-0.00756121993854328	-0.00112218437039087	0.00292171204117367	-0.00111755958299842	0.00293002321142051	0.00806788707390207	0.00857297801270373
3.2	0.00490234960476182	-0.00964328249976633	-0.000707377578084968	0.00305696723849949	-0.000709112176925833	0.00305635493429946	0.00870902221495428	0.00801668107387483
3.3	0.003285749900876	-0.0115116775685228	-0.000275458444484555	0.00312751997220263	-0.000273802355756343	0.00312380349006918	0.00937779563310656	0.00737238493510335
3.4	0.00119232187988639	-0.0128969763987928	0.00016534329836595	0.00312511853254195	0.000159075044852592	0.00314158425635883	0.0100040571702499	0.00653966106549244
3.5	-0.00112990841766584	-0.013900774003262	0.000582701291102368	0.00308819686445484	0.000588279892751024	0.00308830824260903	0.0103781584455845	0.0055040493057967
3.6	-0.00373400673705844	-0.0144444663411653	0.00100950180822511	0.00297670269293409	0.00101768249185913	0.00297644544006198	0.0105718781588027	0.00461127743661045
3.7	-0.00650021219415555	-0.0144358343298881	0.00142165260976708	0.00280376927498193	0.00141196154367741	0.00281736955792944	0.0108021723563307	0.00376546939223751
3.8	-0.00931243936437928	-0.0137443274200392	0.00180442196665908	0.00258360678583356	0.00180675911864377	0.00259278943591597	0.0109317780721031	0.00289330406037831
3.9	-0.01179433139548	-0.0124068592162833	0.00215731047390694	0.00231525015376003	0.0021500351490464	0.00231341227283575	0.0109387290317811	0.00206603390546954
4	-0.013855201231918	-0.0106592912658628	0.00245039088545152	0.00199560755758454	0.00245487565303777	0.00199319057228026	0.010966545522683	0.00141108446751212
4.1	-0.0155249790293864	-0.00867296446227429	0.00271072281378461	0.00163395134363657	0.00270945929050741	0.00163468481775184	0.0111802866350059	0.000817689969875484
4.2	-0.0169299581223284	-0.00641807237512469	0.00291692749573441	0.0012279195240842	0.00292145448293914	0.00121916454031207	0.0114481228686726	0.000105092231308298
4.3	-0.0179793634872668	-0.003921469021013	0.00306432722749093	0.000808938826387398	0.00307080931409054	0.000801097740951442	0.0116468525097635	-0.000802512018230045
4.4	-0.0186276670010215	-0.00113531664626851	0.00314182541187169	0.000367032360287115	0.00314421642475035	0.000364762682072384	0.0116060985987209	-0.00172660670585711
4.5	-0.0187020255863343	0.00178329869737224	0.00316262814955193	-7.81708095599914E-05	0.00316801682877302	-8.15679513024069E-05	0.0115157564160595	-0.00257136076017161
4.6	-0.0182876409382428	0.00459130080115662	0.00311403200984839	-0.000526379447308744	0.00311529125857706	-0.000513407324268543	0.0113331152681545	-0.00348107689391214
4.7	-0.0173545994520974	0.00729884300507105	0.00300284630905595	-0.000947812747978649	0.00301815932037633	-0.000957502538881575	0.0110276375724099	-0.00438161555306214
4.8	-0.0160416829726021	0.009840769520452	0.00283571506563948	-0.001361575211575	0.00284419299269372	-0.00136770052692253	0.0106008657429326	-0.0051806223039614
4.9	-0.0140364494524806	0.0121601605133715	0.00261017009042316	-0.00174269157963308	0.00261434628235746	-0.00173979587633216	0.0102014448397308	-0.00580259422632908
5	-0.0115057037735722	0.0139174362332026	0.00234798435700293	-0.0020930564421447	0.00235160876354813	-0.00209040087280936	0.0100730552099273	-0.00628885483603006
5.1	-0.00854071971875004	0.0150347308706469	0.00203763199114807	-0.00239842330802597	0.00203993007391242	-0.00239706956301004	0.0101134262487574	-0.00692713610479999
5.2	-0.00561726056713433	0.0154770836263983	0.00168324918652886	-0.00264411989252905	0.00168496174954418	-0.00264925108776835	0.0101041787180815	-0.00768970100451761
5.3	-0.00274236035389705	0.0154608655041921	0.00130172208894405	-0.00285755942991929	0.00130484408029932	-0.00285549460068118	0.00998097465479904	-0.00846143636569787
5.4	8.35758031928763E-05	0.0150101228082461	0.000882740536381526	-0.00300611358725779	0.000899919066191349	-0.00301724717091973	0.00977265223924309	-0.00938955144172634
5.5	0.00274886527984863	0.0140563725498952	0.000474169074713017	-0.00310795166287304	0.000484261201100847	-0.00311733028362383	0.00927999725372383	-0.0103883282162306
5.6	0.00508351518544537	0.0125613574602712	3.84588304990902E-05	-0.00315051225779539	2.99412376207311E-05	-0.00315377980449218	0.00846553941894536	-0.0111748722102272
5.7	0.00683315276107256	0.0107370427847944	-0.000393016718713372	-0.00312756783699692	-0.000409654732278214	-0.00313133137031126	0.00751182877761329	-0.0116699406226188
5.8	0.00811435702205654	0.00875540078380817	-0.000842968658747762	-0.00303990121835532	-0.000846445858565293	-0.00305397238026729	0.00661048557478705	-0.0121954279121006
5.9	0.00896605195573798	0.006792436051956	-0.00125481951898787	-0.00290516824539359	-0.00126310135762146	-0.00290512306625188	0.00550281061713214	-0.0126509311661692
6	0.00948013503487232	0.00470362533029631	-0.00166220667488035	-0.00270096250699373	-0.00165861789960272	-0.00270111911117111	0.0041815286250385	-0.012819929625121
6.1	0.00961156836051921	0.00244693298311501	-0.00202684786752707	-0.00244460016914931	-0.00202850713946499	-0.00244056381873706	0.00309352272308047	-0.012621206158761
6.2	0.00920111450006471	4.38775850084222E-05	-0.00234793804911119	-0.00212563245336284	-0.00235168724186035	-0.00213760911963607	0.00236089216353224	-0.012474832837229
6.3	0.00829215156666724	-0.0022858182232465	-0.00263139749965486	-0.00178249872381549	-0.00264059298552722	-0.00177668439164742	0.00178785392902849	-0.0126221643347578
6.4	0.00694228004373527	-0.00444868937874806	-0.00285950872154336	-0.00138128452598715	-0.00284972533503561	-0.00138627279680314	0.00123861973764415	-0.012896971604415
6.5	0.00526481949113215	-0.00637484867401204	-0.00301366454748484	-0.000965949616534346	-0.00302155403812671	-0.000961386455363712	0.000729919554881046	-0.0132247965164021
6.6	0.00314852684741951	-0.00785805747060146	-0.00311572457340299	-0.000532300158483886	-0.00311739715071656	-0.000536286896695755	0.000228154259936261	-0.0135755499092061
6.7	0.00069102292708747	-0.00864206769338546	-0.00315749439837944	-8.89600530408772E-05	-0.00316632919329946	-8.25838038553637E-05	-0.000568545878799448	-0.0138725212370084
6.8	-0.00183520764927771	-0.00860544712462265	-0.00312593371759945	0.000353992713548411	-0.00313700328405058	0.000359144427651917	-0.00156086849301409	-0.0139194487460237
6.9	-0.00413217047027432	-0.00792863890658457	-0.00304118919559243	0.000784819293588284	-0.00304415620916887	0.000787233873495854	-0.00251861537936264	-0.0137611220250407
7	-0.00605309992273615	-0.00678379645178444	-0.0028973764036716	0.00119962809176754	-0.00291019802863667	0.00119752859049657	-0.00342756577604975	-0.0134561266757079
7.1	-0.00777413037816404	-0.0053974519897807	-0.00271596512599828	0.00158058068161338	-0.00271226201497931	0.00158919819424893	-0.00430209470729373	-0.0129312836060776
7.2	-0.00934784437593921	-0.00368111247205838	-0.00245979449365842	0.00194026226906039	-0.00246629059398222	0.00194236025963268	-0.00488701963122314	-0.0122740004891709
7.3	-0.0107530580783817	-0.00153078220734869	-0.00216823115875145	0.00225267810343261	-0.00217938879861449	0.00225773711215073	-0.00517646759880481	-0.0118120175383815
7.4	-0.0117675146799833	0.000983413709677786	-0.00183292578520436	0.00253216558307748	-0.00183977878443513	0.00254573115714759	-0.00549656173833638	-0.0118033756230822
7.5	-0.0121106427176244	0.00379118959822911	-0.00147426514506582	0.00277144175530223	-0.00146729593571419	0.00277882712756493	-0.00592297665069287	-0.0118486727218541
7.6	-0.0115202994384572	0.00661463847886855	-0.00107386395921783	0.00295356468665978	-0.00107522848567558	0.0029488686619094	-0.00642992903408433	-0.0117821478768469
7.7	-0.0106900713197536	0.00898315065870927	-0.000648572436937203	0.00308104858888204	-0.000649911443087127	0.00307998269035419	-0.0071159653134781	-0.0124580204054285
7.8	-0.00896264314778636	0.011043151744066	-0.000222297916696863	0.0031372502298498	-0.000230141042590033	0.00314370948421262	-0.00810826114545733	-0.0127217936544882
7.9	-0.00670001138281428	0.0125522391400048	0.000223096767176512	0.00315068729412757	0.000231072397616412	0.00315220269698119	-0.00919034720488346	-0.0127519469390987
8	-0.00369073349080442	0.0132633582166565	0.000672232444080147	0.00308227051739959	0.000672315130228275	0.00308719922360635	-0.0101830791146089	-0.0121126843861264
8.1	-0.000959342580768381	0.0133496141982028	0.0010916041077097	0.00296464493202368	0.00111088447872264	0.00296570065960588	-0.0111577704312738	-0.0115820674093091
8.2	0.00162333725323263	0.0128845202913105	0.00150502769272858	0.00277959863907941	0.00151431113247514	0.00277231459203676	-0.0117796917657786	-0.0107929006596561
8.3	0.00403916888223124	0.0120782152795128	0.00188812946537376	0.0025325466468465	0.00188655981876414	0.00254619949364087	-0.0122556264526557	-0.0101146471217336
8.4	0.00632329783087822	0.0109552781107736	0.00222697082893354	0.00224425190556424	0.00222392090527068	0.00224405133291433	-0.0128113890501963	-0.00955305602373306
8.5	0.00843916532537797	0.00930208211511979	0.00251122209687759	0.00190210336162365	0.0025103532765438	0.00190530960642681	-0.0135258828615682	-0.0088511965215927
8.6	0.0101207291288005	0.00716185841193378	0.00275128322223157	0.00153121010016576	0.00276072967246668	0.00152454685295301	-0.0141256457725505	-0.00797260065405678
8.7	0.0112245381921967	0.00463608230535592	0.0029268764629488	0.00112101258728786	0.00293244419624866	0.00112166903720155	-0.0144887483211166	-0.00709143253433236
8.8	0.0117043567232175	0.00206141935982773	0.00305107158186593	0.000706949783517108	0.00305672098179978	0.000698144132966229	-0.0148237923832199	-0.00638914191881172
8.9	0.0118378399765044	-0.000537935925161176	0.00311560646823649	0.000274866533759214	0.00311471482805882	0.000272640302377313	-0.0150398830606475	-0.00562980058740297
9	0.0116050858539975	-0.00331950461519132	0.00311427260176333	-0.000161588288269981	0.00311744719050068	-0.000157546661950433	-0.0151130987483722	-0.00478155190329166
9.1	0.0108044696730956	-0.00627977816819098	0.00306056213861439	-0.000592636543152964	0.00306352240410211	-0.000579873250996131	-0.0149774762484849	-0.00394688623536104
9.2	0.00919708886061467	-0.00916892973852778	0.00294843180516135	-0.000998222016609051	0.00295600035723772	-0.00100111363653539	-0.0146977493932338	-0.00330745469373129
9.3	0.00689224237418009	-0.0115953875162069	0.00278212657479613	-0.00139188776676455	0.00278138710150525	-0.0013968273507354	-0.0143833812501118	-0.00281254834395397
9.4	0.00414444526545662	-0.0134975352540103	0.00256612301325484	-0.00177291191719806	0.00257258138380419	-0.00176539017376814	-0.014245246811729	-0.00251786704187763
9.5	0.000937020651360448	-0.014619345023746	0.00230007971394074	-0.00210212439129701	0.00230743312857842	-0.00210345339037022	-0.0142100458189679	-0.0019701804874638
9.6	-0.0026523756681321	-0.0152082844501276	0.00199269748319092	-0.00240512391110156	0.00199302280993841	-0.0024041474736731	-0.0143592380080735	-0.00140962285119809
9.7	-0.0065446172343102	-0.0148848609764555	0.00163375021510338	-0.00265920988370253	0.00163928296577023	-0.00266646484612297	-0.0144082841866872	-0.000705310823897999
9.8	-0.0104445264609137	-0.0135501903558239	0.00125394450942405	-0.00287443026966127	0.00125959934804512	-0.00286593541795713	-0.0144076037984314	-2.99823804526955E-05
9.9	-0.0139940076482803	-0.011112969739049	0.000849888684734621	-0.0030211761976499	0.000842559910255696	-0.00301997121058006	-0.0145752636342299	0.000707383946929368
10	-0.0168657896085976	-0.0079985633525998	0.0004171199103762	-0.00311714445743453	0.000409645885199329	-0.00312960868293428	-0.014683582154791	0.00158889227203857
10.1	-0.0190120738585167	-0.00435813215484292	-3.07035013258412E-05	-0.00315282696577684	-4.09529815743853E-05	-0.00314742554654577	-0.0145306474078468	0.0025207526387114
10.2	-0.0204360226237789	-0.00030533595797682	-0.000483936839327352	-0.00311645366008312	-0.000487345851249103	-0.00311366264212381	-0.0140747887938162	0.00336858426262252
10.3	-0.0209895846705316	0.00414869942993183	-0.000923040694717642	-0.00300719528863661	-0.000914969102254003	-0.00301631526961328	-0.0134603640401893	0.00394801298344447
10.4	-0.0204371737485464	0.00872290406406854	-0.00132460309206115	-0.0028456783246448	-0.00132294021625137	-0.00285188901914192	-0.0127855520048788	0.00417711554569217
10.5	-0.0188310614416083	0.0130942456723485	-0.00171676071297374	-0.0026379111575574	-0.0017135682807122	-0.0026249404836462	-0.0122954890193848	0.00435219483488388
10.6	-0.0163573085246745	0.0169627575260387	-0.00206546284392397	-0.00235876181925538	-0.00206331245851699	-0.00236259173169629	-0.0118691603647405	0.00453777443525483
10.7	-0.0132610406744555	0.0204033710977271	-0.0023725071955057	-0.002049485435615	-0.00236898670414654	-0.00204425963858289	-0.0114047277163737	0.00480691476126004
10.8	-0.00947173785513663	0.02335721832228	-0.00263010892949732	-0.00168602879009721	-0.00262501771548006	-0.00169492860350047	-0.0109943872333627	0.00497614750503593
10.9	-0.00502388912268006	0.0256211438084617	-0.00282566277891546	-0.00131340453537147	-0.00283079525286192	-0.00131264661379582	-0.0107080996273752	0.00512859694499588
11	3.65415470428548E-05	0.0269581542716943	-0.0029730815214295	-0.000903869804570348	-0.00297790072744243	-0.000910509077812872	-0.010486753419927	0.00548314621850043
11.1	0.00528252395316898	0.0271726875379497	-0.00307293574538039	-0.000490275364818663	-0.00306221095303314	-0.00048747678500328	-0.0100446320613545	0.00593336897485562
11.2	0.0104116602988473	0.0263273915886314	-0.00309895593782325	-6.68726333339803E-05	-0.00310600887878443	-7.16475888075084E-05	-0.00925237954052107	0.0062967605459717
11.3	0.0153663161797726	0.0246926119923674	-0.00307465239715419	0.000366911298265061	-0.00308600523812149	0.000356968566549057	-0.00825712955899948	0.00644456282884675
11.4	0.0199831354520099	0.0221435083884699	-0.00300886571167769	0.000781872929951723	-0.00300405887871537	0.000789375636561576	-0.00731937916763135	0.00612416503999918
11.5	0.0241612503006748	0.0186119084237947	-0.00287791424019195	0.00118872669617478	-0.00288074998042155	0.00119887008840446	-0.00675066640454408	0.00546455996824088
11.6	0.027699761371338	0.0141919632074577	-0.00269796590713106	0.00157579887721571	-0.00269797696052913	0.00157871472658037	-0.00629307452490485	0.00485155147479708
11.7	0.030281369753004	0.00916028873032545	-0.00245086136008178	0.00193319024391116	-0.00245151755885099	0.00194173970178651	-0.00584322917365851	0.0040806931807801
11.8	0.0319853193228022	0.0038064334231471	-0.0021671956130098	0.00227277997225607	-0.00217131752524009	0.0022744269896784	-0.0055829893387125	0.00319528864357995
11.9	0.0329484804475349	-0.00172698656621426	-0.00182517162402418	0.00255986693000347	-0.00183823299178938	0.00256403329082486	-0.00560041527577923	0.0027268153186071
12	0.032791853262362	-0.00789907075106837	-0.0014538098136474	0.00279493197994321	-0.00145322609722065	0.00279635178003714	-0.00589137102117576	0.00218288654587781
