# GHZ S RI R 50
0.2	0.00669321597847216	0.00150922748131693	0.00304831785956319	-0.000897049963624668	0.00305868382695613	-0.000890238909030644	-0.0132788840381335	0.00513207471967769
0.3	0.00661477097714173	-0.000810154641284787	0.0029045340231069	-0.00131978556409541	0.0028972820097956	-0.00130685163868318	-0.0128806514557671	0.0049690268444226
0.4	0.00597559707468144	-0.00229589736727192	0.00267380288167478	-0.00169105433786434	0.00267907679555832	-0.00169961081930225	-0.012734625574919	0.00567668144908458
0.5	0.00521476840777302	-0.00326255396556164	0.0024162271506159	-0.00204768737074834	0.00242777909716862	-0.00205991747211576	-0.0122436028013767	0.00668814911265598
0.6	0.00452453052790732	-0.00400170752904822	0.00210508568727717	-0.00236274894919943	0.00210430776426709	-0.00236990262570272	-0.0114326296299876	0.00752348453991674
0.7	0.00370044324184087	-0.00472934832081914	0.00175913456936061	-0.00264178502850695	0.00175717726844624	-0.00264198671550881	-0.0106535801451445	0.00803145463977766
0.8	0.00263374902755653	-0.00544362197714439	0.00137435961739761	-0.00286103515071408	0.00136175070452823	-0.00286560747948703	-0.0101115137776078	0.00838693251847514
0.9	0.00108689379713476	-0.00584080188341134	0.000957130605458896	-0.00302678111582003	0.000958181127789848	-0.00303749672281468	-0.00989056665244755	0.00879326891258901
1	-0.000706449233706925	-0.00566761263827861	0.000531212886304851	-0.00313231747533982	0.000521331504903049	-0.00313306945130194	-0.00978504812937546	0.009547171718804
1.1	-0.00244161282546305	-0.00484537684323516	7.35955061867707E-05	-0.00316274970635877	7.00922822121908E-05	-0.00318044497092981	-0.00954682080681265	0.0107423602530677
1.2	-0.00374867767739485	-0.00381391294125517	-0.000371090633324163	-0.00315298655581925	-0.000371905042783797	-0.00315090487303218	-0.00852094917431441	0.0120430384785315
1.3	-0.00483717379058909	-0.00307806653728641	-0.000800978301603055	-0.00306957781988703	-0.00080422773023255	-0.00307158762104352	-0.00666211129146754	0.012858837897059
1.4	-0.00579581713372048	-0.00245883615762753	-0.00122485412639864	-0.00292005965043056	-0.00122364224277363	-0.00292560866333288	-0.00475107117710442	0.0127154184997859
1.5	-0.00610956983709303	-0.00137066268367243	-0.00162765910840497	-0.00272206052595875	-0.0016260540249016	-0.00273058423323624	-0.00318880485244921	0.012179541984571
1.6	-0.00576044572417652	-5.8140673632876E-05	-0.00198918989646306	-0.00246697349211889	-0.00198941020118557	-0.00247221890638763	-0.00240413896634145	0.0117858343526393
1.7	-0.00506005576600457	0.00104811088930717	-0.00231754327129578	-0.00216734144485701	-0.00231849811517993	-0.00216106684045223	-0.00178617820034978	0.0115816096509324
1.8	-0.00432335574542147	0.00213665746299642	-0.00258744963322355	-0.00181343897732567	-0.00259844207784941	-0.00181905937414415	-0.00135652031783759	0.0114928151185558
1.9	-0.00343476899842368	0.00313742422573747	-0.00281097110636057	-0.00144105698251955	-0.00282340783916675	-0.00143487180206055	-0.000983275405853333	0.0116580157661243
2	-0.00226364752386139	0.00405389643546694	-0.00298448297592886	-0.00103266024698666	-0.00299409898237421	-0.00102793065992107	-0.000444792332580072	0.012049673868747
2.1	-0.000743758889035961	0.00457765236623622	-0.00309591072271121	-0.000604473082624583	-0.0030918307832518	-0.000606472029818175	0.000466841006461941	0.0122862381548037
2.2	0.00087475002455028	0.00457924460187389	-0.0031517730580018	-0.000167166661782377	-0.00316307850321084	-0.000169986338229127	0.0015755287217391	0.0121731804979946
2.3	0.00228100234645728	0.00394740043883435	-0.00314639914697961	0.000274879389227429	-0.00314610363825385	0.000267997974037497	0.00243971469234906	0.0116786325782412
2.4	0.00324089495290127	0.00308047993328965	-0.00307409979130097	0.000711923344157714	-0.00307664314718669	0.000707668214971139	0.00300281345453335	0.0112706582733602
2.5	0.00387749026441577	0.00218383367260077	-0.00293785938113236	0.00112342680640249	-0.00294874783157602	0.0011298108835811	0.00355574671541613	0.0110269633084372
2.6	0.00450114873252111	0.00131542088966141	-0.00276506921562372	0.0015264924187066	-0.00276151177162977	0.00151416316402643	0.00433326029953384	0.010816533182501
2.7	0.00519679078622707	0.000249546399941181	-0.00252013952380155	0.00189876195791449	-0.00252542474846084	0.00189877331103491	0.00513141512127343	0.0103951225230112
2.8	0.00579922517281733	-0.00114427650778916	-0.0022376016294803	0.0022279031655135	-0.00222977421495161	0.00223770584613942	0.00577148593974011	0.00996813406825347
2.9	0.00616210734684916	-0.00275683711890597	-0.00190262644926237	0.00253012817582526	-0.00189891039354431	0.00252969843862166	0.00655148207996322	0.00973238687444093
3	0.00621000439326774	-0.00449275889479444	-0.00151451034395993	0.00276741800165308	-0.00152931903939759	0.00277354652243592	0.00760718724132927	0.00949444848523928
3.1	0.00601182004452406	-0.00634390350752373	-0.00112144499495664	0.00294574893300235	-0.00111676272371706	0.00295410523013125	0.00872330166242202	0.00893994478210595
3.2	0.00525677942681733	-0.00834331313826512	-0.000697383834760801	0.00308301443551629	-0.000699134262647083	0.00308240624762851	0.00952573529039663	0.0082089563608478
3.3	0.00386998858861955	-0.0103601037443551	-0.000255219116328517	0.00315144592963671	-0.00025357774291557	0.0031476915948071	0.0102059232401293	0.00734437098195845
3.4	0.00178256590523867	-0.0119256102691925	0.00019483886219179	0.00314246748422031	0.000188682937157979	0.00315908972097256	0.0107448708019148	0.00638694578720637
3.5	-0.000643434495179649	-0.0129417484843552	0.000618805276858466	0.00309558810537504	0.000624409862936814	0.00309563943380382	0.0110726065737481	0.00530408948824285
3.6	-0.00320322283209483	-0.0133532549644621	0.00104794783557505	0.00297151196142056	0.00105614474543094	0.00297115500122549	0.0112976177676368	0.0043655780492974
3.7	-0.00575735644709507	-0.01332222010116	0.00145741137121846	0.00278554252999089	0.00144789420889398	0.00279926617628916	0.0115205520202325	0.00335517807626934
3.8	-0.00840733602068642	-0.0128323704923948	0.00183276157968666	0.00255404373940222	0.00183520981701123	0.00256317326365042	0.0114891071124396	0.00233122285601378
3.9	-0.0109732916312845	-0.0117361744647899	0.00217447031054484	0.00227778883471694	0.00216720897882441	0.00227604765193233	0.0112632727527115	0.00152535085702237
4	-0.0132481911238907	-0.0100196848665263	0.00245434026685669	0.001955224524031	0.00245876733463309	0.0019527767240797	0.0111751389587249	0.00103953291229838
4.1	-0.0149942484532204	-0.0078884928375432	0.00270142664991504	0.00159563929642516	0.00270018069226334	0.00159637752510271	0.0114330361303843	0.000577268372009563
4.2	-0.0162883054575916	-0.00557253982447171	0.00289642807735875	0.00119641350828907	0.00290085222770382	0.00118771444641944	0.0117548351699713	-0.0001326128838609
4.3	-0.017264221477041	-0.00321912044997038	0.00303646694241406	0.000787457465492533	0.00304284892776547	0.000779668654701342	0.0118971382763752	-0.00107054811905982
4.4	-0.0180601999007375	-0.000603669477745332	0.00311135460396431	0.000357058742607478	0.00311371729406996	0.000354806795246328	0.0117687869576753	-0.00189659739549559
4.5	-0.0184079666826326	0.00234981349391941	0.0031341880712694	-7.74113558071261E-05	0.00313952835081582	-8.07778508955058E-05	0.0117137307008559	-0.00255789919832487
4.6	-0.0181398775087048	0.00540624491379721	0.00309145809245037	-0.000517452782761984	0.00309268717410772	-0.000504576185425324	0.0117366418799206	-0.00335039765510164
4.7	-0.0171320449371351	0.00834530978118072	0.00298825890260586	-0.0009346885646923	0.00300351005597641	-0.000944283881927851	0.011616907794399	-0.00432281806794192
4.8	-0.0156665917438418	0.0109498285216413	0.0028292479929297	-0.00134844824500898	0.0028377124862545	-0.00135452679568605	0.0112687647168763	-0.00525338216474223
4.9	-0.0136536917431187	0.0132496289396964	0.00260997812816266	-0.00173332868692749	0.00261414010352864	-0.00173042770799789	0.0108563855868436	-0.00593435881441704
5	-0.0111629139557795	0.0151200462211928	0.00235069606978434	-0.00208979623578276	0.00235431673099328	-0.00208713590565309	0.0107950295047891	-0.00644851567407065
5.1	-0.00804822992912935	0.0164168164899783	0.00203915943962287	-0.00240169177348987	0.00204146047299116	-0.00240033722686207	0.0109358143882903	-0.00724140590723272
5.2	-0.00481495311041381	0.0168266495317235	0.00167981884536819	-0.00265220129368138	0.00168152228493231	-0.00265734458553366	0.0108690156639886	-0.0082481279749613
5.3	-0.00177976253137891	0.0165258143651934	0.00129075141764225	-0.00286707212772777	0.00129388665227051	-0.00286501844341518	0.0105149444229936	-0.00912213789415026
5.4	0.000903489844628672	0.0158275081355908	0.000863650663467797	-0.00301256736100372	0.000880762103558324	-0.00302381423601045	0.0101225888276185	-0.009925386437304
5.5	0.0033422053483678	0.0149058166997001	0.000448489255658824	-0.0031071558370479	0.000458491052697764	-0.00311660166239171	0.00965849778636257	-0.0107467303101775
5.6	0.00566587099016173	0.0136173886845837	9.78534805366697E-06	-0.00313899468125734	1.27024673788978E-06	-0.0031421727924282	0.00899491699070698	-0.0115229876824845
5.7	0.00767456191890048	0.0118345758212575	-0.000419688952156164	-0.00310392944503608	-0.000436255838099821	-0.00310751370434309	0.00811198342384182	-0.0121939898564108
5.8	0.00914474702915006	0.00959740934609653	-0.000862027535320065	-0.00300488415356105	-0.000865596812926644	-0.00301879696029009	0.00701877414220122	-0.0128667417417964
5.9	0.00987127300608858	0.00725000070693426	-0.00126187028935002	-0.00286213070284985	-0.00127005571027473	-0.00286202444767451	0.00564072421572348	-0.0132301000273572
6	0.00997923313877836	0.00498913569881954	-0.00165393701365813	-0.00265501767899039	-0.00165039826172068	-0.00265519141630806	0.0042290945720896	-0.0131032876053839
6.1	0.00974054437918797	0.00289898491222596	-0.00200276322081922	-0.0024018821797685	-0.00200438618791911	-0.00239790260901174	0.00330734881073276	-0.0126535308588473
6.2	0.00921980435133374	0.00077311455842131	-0.00231001458042361	-0.00209230367275882	-0.00231370119981492	-0.00210409032337548	0.00280574846508653	-0.0124477983229595
6.3	0.00833193747730321	-0.00140976512270213	-0.00258371446785748	-0.00176305061612352	-0.00259278364423073	-0.00175735924395565	0.00238478676075376	-0.0125948815526632
6.4	0.00685898012939694	-0.00339024699650218	-0.00280806224359193	-0.00137878656238488	-0.00279839330326557	-0.00138363835061258	0.00197676011484597	-0.0127887714097776
6.5	0.0051645043168909	-0.00491200475715479	-0.00296511594495501	-0.00098017826939886	-0.00297294191145769	-0.000975746228711904	0.00176098581130817	-0.0131500295614809
6.6	0.00340415913358911	-0.00603851022237103	-0.00307587553418382	-0.000560796169872571	-0.00307748597356176	-0.000564757832151584	0.00148934256856189	-0.0138228932455179
6.7	0.00146093003565454	-0.00687735909373029	-0.00313069002266782	-0.000127093603467894	-0.00313953135086653	-0.000120877998255445	0.000614926725349597	-0.014526690294214
6.8	-0.000828815480382009	-0.00723621675141172	-0.00311425297508454	0.000312310376508938	-0.00312533087026	0.000317294291244865	-0.00066215347330729	-0.0147485457263282
6.9	-0.00330024820318225	-0.00683407494423058	-0.00304386350839909	0.000745597815353789	-0.00304685341961136	0.000747970344599894	-0.00184023139741609	-0.0144525696269753
7	-0.00549223494435931	-0.00564997945109645	-0.00291129405621028	0.00116794596186548	-0.00292409554088169	0.00116570451293237	-0.00265845051445466	-0.014046929000009
7.1	-0.00721733365757055	-0.00396831867077779	-0.00273619171636101	0.00155932409899919	-0.00273255888537134	0.0015679938711616	-0.00335433668985192	-0.0136737145357322
7.2	-0.00843180685054981	-0.00209710831862588	-0.00248085802796663	0.00193019044619107	-0.00248738951710869	0.00193225188896478	-0.00398133276461231	-0.0133829166704855
7.3	-0.00942220880076785	-0.00023402585785435	-0.00218514011117629	0.00225163465745778	-0.00219635779595931	0.00225666536582003	-0.00465167489849135	-0.0132059595864842
7.4	-0.0103243053964564	0.00181691688187546	-0.00184244958430018	0.00253616642529372	-0.0018493452301632	0.00254975852812591	-0.00560429481398947	-0.0129690559125922
7.5	-0.0109975388318004	0.00417498568789864	-0.00147549366744376	0.0027754876490185	-0.00146851332859157	0.00278288097180699	-0.00633206790081573	-0.0125757902478424
7.6	-0.0110414941976904	0.00671918793542382	-0.00106837589566738	0.0029528507050109	-0.00106974665898033	0.00294816061851431	-0.00669055122711387	-0.0124294588585931
7.7	-0.0102866470490182	0.00918346497506038	-0.000640236690607076	0.00307218411770081	-0.00064157342080354	0.00307112442943535	-0.00723165429060782	-0.0126010611005704
7.8	-0.00885450391151347	0.0112330988426714	-0.000216139457727044	0.00311917415259685	-0.000223926541360095	0.00312560761542794	-0.00802680917730499	-0.0126611084845976
7.9	-0.00681162077693378	0.0128702621295564	0.000221868887377006	0.00312471559569326	0.000229779174697224	0.00312621698817328	-0.00871656505430694	-0.0122431367033139
8	-0.00436546638378941	0.0142259093433153	0.00065939630691884	0.0030524552154073	0.00065946849008994	0.00305733429912555	-0.00930031848361493	-0.0120380701697657
8.1	-0.00130641569705635	0.014845468625362	0.00106530647864999	0.0029363727151983	0.00108436449852015	0.00293750752842954	-0.00972565100210582	-0.0117051314735334
8.2	0.00172379896460293	0.014648131635232	0.00146578660319188	0.00275922598660896	0.00147501971841621	0.00275209913775008	-0.010317217907403	-0.0114420888751249
8.3	0.00442889059860413	0.0137326330661489	0.00183943777308604	0.00252575620907304	0.00183773411872731	0.00253924236139291	-0.0110292457730936	-0.0110514397056775
8.4	0.00666829867389037	0.0124919373809975	0.00217449250266113	0.00225468322572356	0.0021714739232323	0.00225444150598471	-0.0117502822576782	-0.0104943657202719
8.5	0.00864352437859134	0.0110196801473558	0.00246216755584038	0.00193084841359331	0.0024612512674247	0.00193401803640702	-0.0123826113295129	-0.00978856412337895
8.6	0.0104712403367204	0.00927525479683639	0.00271255359345726	0.00157646967729927	0.00272208809466165	0.00157000662136491	-0.0128352362609939	-0.00916343310179969
8.7	0.0120614459664825	0.00697786178167246	0.0029046118024436	0.00117796443000837	0.00291016597915236	0.00117872941683963	-0.0133490900083183	-0.00869898210252211
8.8	0.0130946829507258	0.00414379564860988	0.00304854418996202	0.000768909146868199	0.00305438568924805	0.000760181004812242	-0.014148909143069	-0.00828282201836973
8.9	0.0133946741983804	0.000997944393531923	0.00313350835720539	0.000334045877722147	0.00313265099047528	0.000331786894757837	-0.0148747486680547	-0.00741258245579896
9	0.0129450815848978	-0.00216674211796321	0.00314988720607932	-0.000112678451485283	0.00315302972647588	-0.000108542412214494	-0.0151636589818149	-0.00625093314027307
9.1	0.0119853804548687	-0.00528014252905446	0.00310849508751616	-0.000559476563077351	0.00311132345838119	-0.000546506845124186	-0.0149995271451158	-0.00524148843446293
9.2	0.0102792776901861	-0.00828773984713837	0.00300137146440827	-0.00098343474956978	0.0030090791880322	-0.000986293212591403	-0.0147784322394751	-0.00451643412940038
9.3	0.0077648053564966	-0.0109297757971836	0.00283272513218796	-0.00139510855815396	0.00283200593350714	-0.00140012697903667	-0.0145596418873293	-0.00377750078173004
9.4	0.0045309244420211	-0.012800686111483	0.00260811490223674	-0.00179085755344581	0.0026146439758804	-0.00178320904184869	-0.0142508788242373	-0.0030087546825239
9.5	0.00093825177003804	-0.0137136214699543	0.0023293671531455	-0.00212883887861079	0.00233681413365714	-0.00213018469398421	-0.0138457865539087	-0.00242108230292044
9.6	-0.00267368383963862	-0.0137646911186201	0.0020082650501871	-0.00243427947569319	0.00200859581738264	-0.0024332936035983	-0.0136258279423891	-0.00205856798648195
9.7	-0.0062163897860739	-0.0131249856233539	0.00163739643052698	-0.00268473668750778	0.00164294728154234	-0.00269206482747393	-0.0136387136013547	-0.00171028618059549
9.8	-0.00975489793919062	-0.0118686479735334	0.00124998920639417	-0.00289220796134048	0.00125569965076433	-0.00288369260981647	-0.0138800167668349	-0.00119157602041613
9.9	-0.013183816256587	-0.00974213392764638	0.000843885168486574	-0.00302948464188482	0.000836544596338763	-0.00302825845890869	-0.0141908255888788	-0.000335076443990649
10	-0.0162081696968216	-0.00670483146349965	0.000414498122976462	-0.00311716111316169	0.000407014577076007	-0.00312961784494448	-0.0142261177937812	0.000724679673347561
10.1	-0.0183691641727456	-0.00295918499098115	-2.57262005592904E-05	-0.00314822103209395	-3.59690007994949E-05	-0.00314284361931674	-0.0139022390885754	0.00161292473090875
10.2	-0.0196104732055027	0.00105219645630556	-0.000469464266455809	-0.00311260099133822	-0.000472878895749801	-0.00310983012719948	-0.0134871214280458	0.00228956019833324
10.3	-0.0201314561870495	0.0051710472004716	-0.000900117883378847	-0.00300985658165543	-0.00089199122528275	-0.00301890620455437	-0.0131075265235413	0.0029055585181609
10.4	-0.019962494737357	0.0094440387549193	-0.00129692370297407	-0.00285946355181035	-0.00129519923174684	-0.0028656594867338	-0.0125079693436065	0.00345129607763021
10.5	-0.0189317918232592	0.013938238942323	-0.00168999582143905	-0.00266568544515369	-0.00168694946770476	-0.00265264088154013	-0.011750684444901	0.00387801572529293
10.6	-0.0167763003748095	0.0182972545734137	-0.0020465946247414	-0.00240016696267003	-0.0020443807388954	-0.00240399129855795	-0.0109794401935733	0.00397012608619398
10.7	-0.0136333504401554	0.0221914851345398	-0.00236769475888982	-0.00210126402402287	-0.0023642109042013	-0.00209594034589847	-0.0104212019455216	0.00396052579285525
10.8	-0.00973360355338766	0.0253766913850349	-0.00264409411328293	-0.00174190345455354	-0.00263882206987394	-0.00175085835279388	-0.0101104221422451	0.00400529322907785
10.9	-0.00533563896124126	0.0279275660200273	-0.00285964428084451	-0.00136573818113547	-0.00286487190537682	-0.00136502197528196	-0.00986574741209014	0.00422621166706413
11	-0.000225044590860814	0.0297677435279272	-0.00302544922653483	-0.000944409792299482	-0.0030303140971051	-0.00095121783968086	-0.00938388973580282	0.00453204335367524
11.1	0.00549840932568949	0.0305908341144968	-0.00313860120508965	-0.000512395820388969	-0.0031276512533268	-0.000509496159003753	-0.00872802522017497	0.00458286508712235
11.2	0.0115424689786685	0.0299816455721058	-0.00316982062694001	-6.62191993812256E-05	-0.00317703810381018	-7.10983074121211E-05	-0.00811507150989085	0.0044009264799731
11.3	0.0173855929761024	0.0278007807286635	-0.00314185845802236	0.000391239231122189	-0.00315351853116613	0.000381132335271934	-0.00755402010891139	0.00414385456461951
11.4	0.0224054184078529	0.0245423770368202	-0.00306423316878448	0.00082668098487357	-0.00305925499703908	0.000834294692149767	-0.00715619103634489	0.003958339574109
11.5	0.0266613845951637	0.0204577402602274	-0.00291465484502406	0.00124787562252457	-0.00291740967838961	0.00125824021019366	-0.00679137420874584	0.0036782213862632
11.6	0.0301785463263919	0.0155552175918452	-0.00271275452285366	0.0016411459402347	-0.00271272003854776	0.00164410463741598	-0.00640277430091208	0.00316240371317854
11.7	0.0327312141237074	0.00993053156890679	-0.00244380794614042	0.00199579093374056	-0.00244432454912477	0.0020044426580478	-0.0061903412750325	0.00249639567584763
11.8	0.0340611360199978	0.00385837461209478	-0.00214186648045448	0.00232544841310266	-0.00214598680417244	0.00232717801998483	-0.00619416955860173	0.00204872262760916
11.9	0.0340751814602011	-0.00218002952913127	-0.00178784240692678	0.00259693539884786	-0.00180087033623694	0.00260132871690872	-0.00624188450731751	0.00215251505261291
12	0.0330607600414971	-0.00799530584003185	-0.00141229738084262	0.00281506320043856	-0.0014116931207872	0.00281647387125501	-0.00589483756546765	0.00224317721986746
