# GHZ S RI R 50
0.2	0.0068164984037258	-0.00169198604654569	0.00304832918732917	-0.000899727090750964	0.00305870315377716	-0.000892922760621968	-0.0131170565489173	0.00198976138892447
0.3	0.00622112446366192	-0.0021077312034206	0.00290321604708213	-0.00132432120537409	0.00289598144742323	-0.00131137391182305	-0.0132292730347017	0.0037212832890948
0.4	0.0061714356537276	-0.00232270653540333	0.00266991862199473	-0.00169689844246771	0.00267517329700718	-0.00170546618864211	-0.0125245359672511	0.00569869997973579
0.5	0.0064319137583266	-0.00296426232616306	0.00240871565525347	-0.00205361706272254	0.00242022446265672	-0.00206587405254924	-0.0110576356633387	0.00707871839493533
0.6	0.00649140355479266	-0.00422303209715544	0.00209361023926453	-0.00236688162869667	0.00209280785038959	-0.00237402224166017	-0.00950657156254009	0.00748445046541254
0.7	0.0057062489968673	-0.00581775807509216	0.00174427288159846	-0.00264208741766052	0.0017423197084513	-0.00264228086535977	-0.00862456606842351	0.0072141549287976
0.8	0.00399258874870057	-0.0071167732236182	0.00135775797448349	-0.00285580875517404	0.00134517803600702	-0.00286031348452664	-0.00861001490597981	0.00700122890953951
0.9	0.00157534302098512	-0.00740535072338101	0.000941179648240043	-0.00301508420785801	0.000942185455641748	-0.0030257498010414	-0.00916754318967382	0.00742517180571463
1	-0.00068818955127008	-0.0064982316747247	0.000518592091390822	-0.00311438555628811	0.000508770025414969	-0.00311510347241301	-0.00956324504579321	0.00876618790684554
1.1	-0.00213018168740304	-0.00486267411372491	6.7020808810333E-05	-0.0031400332798611	6.35090934840029E-05	-0.0031575939682684	-0.00920877632232328	0.010700344129513
1.2	-0.00264435172676256	-0.00356907661391769	-0.000369956666875679	-0.00312783210506618	-0.000370763444282018	-0.00312576642454277	-0.00761807034840345	0.0123464496668103
1.3	-0.00318490273051462	-0.00316944486016811	-0.000791529153597547	-0.00304515904858864	-0.000794750050471796	-0.00304715541927204	-0.00532811326506042	0.0130148763637381
1.4	-0.00407154823428305	-0.00286541078832375	-0.00120771908835761	-0.0028995836508617	-0.00120650315746318	-0.00290508494398008	-0.00334569203083308	0.0126630315082515
1.5	-0.00436589165401422	-0.00205688118640086	-0.00160476551880913	-0.00270810366739278	-0.00160313888664462	-0.00271655728651195	-0.00175473997511984	0.0119409804316578
1.6	-0.00417943394095691	-0.00121680924811242	-0.00196350762966552	-0.00246112604671171	-0.00196369948065086	-0.00246633837824871	-0.00099074862282753	0.0112171713619162
1.7	-0.0039807442106101	-0.000430754397564771	-0.00229227378017996	-0.00216985939517219	-0.00229326135544579	-0.00216362363367775	-0.000692613016747204	0.0107158983182118
1.8	-0.00379988994811737	0.000758582112678333	-0.00256574216612016	-0.00182316878428796	-0.0025766558603474	-0.00182883855751385	-0.000679640835435668	0.0106314285802139
1.9	-0.00316286204443631	0.00214486714471633	-0.00279486960463305	-0.00145570708822302	-0.00280731614791616	-0.00144961712504163	-0.000568405039717948	0.0110461514540662
2	-0.00187937699541112	0.0033704440077871	-0.00297498926253679	-0.00104941059311827	-0.00298462298385415	-0.00104474389114888	-2.55131690134909E-05	0.0117121804870561
2.1	-0.000142576996839691	0.0038951339447462	-0.00309260265974457	-0.000620388842615155	-0.00308851267415703	-0.000622366640825328	0.00103786653217503	0.0120430352172465
2.2	0.00147819562641002	0.00368319827251389	-0.0031529885091496	-0.000179964483499566	-0.00316428937025203	-0.000182831396385352	0.00222667324721919	0.0118254119163172
2.3	0.00259709957615721	0.0029428807038047	-0.00314967590455075	0.000266399856889573	-0.00314936113320983	0.00025951375442971	0.00297019074494882	0.0111923541009984
2.4	0.00321796051484132	0.00227612884225084	-0.00307675643396888	0.000707605301239023	-0.00307929460971704	0.000703344121898079	0.00328307581810067	0.0108077924652325
2.5	0.00379843176386998	0.00182215634339497	-0.00293763980811092	0.00112178813917471	-0.0029485284698921	0.00112816558509289	0.00366011916935106	0.0107952600906427
2.6	0.00469142197678283	0.00126136986995472	-0.00276079556818083	0.00152506598162388	-0.00275724630276641	0.0015127531029975	0.00447366901078971	0.010851633350809
2.7	0.00569132257023141	0.000214353099030875	-0.00251205639552024	0.0018947267976516	-0.00251732673365575	0.00189474086792884	0.00542090240044223	0.0105560347392318
2.8	0.00643916683069749	-0.00125069533479339	-0.00222733958032296	0.00221880142437308	-0.00221954365734498	0.00222855963216332	0.00615069322650742	0.0101471781496611
2.9	0.00692940191993457	-0.00286032787002964	-0.00189307583704909	0.00251439403019628	-0.00188938103346298	0.00251396891958564	0.00695682983561643	0.00995164430653867
3	0.00721093169892686	-0.00464186687248183	-0.00150925240949885	0.00274520515728215	-0.00152396954355812	0.00275126251449789	0.00809022271805681	0.00979981261636268
3.1	0.00722521405737315	-0.00676157998989959	-0.00112362199780013	0.0029187510549496	-0.00111900691615289	0.00292705980575961	0.00937462611571263	0.00924688306150115
3.2	0.00644876619829909	-0.00912045767052704	-0.000709525925357783	0.00305437441767572	-0.000711258872987086	0.00305376103169824	0.0102824369071668	0.00837965385763925
3.3	0.00484131117838836	-0.0113394273463036	-0.000278168740446838	0.0031254583802989	-0.000276510199543383	0.00312174556716882	0.0109225530642048	0.00738051464140852
3.4	0.0025706585636065	-0.0128905814279978	0.000162247796943194	0.0031237075652484	0.000155966821250691	0.00314015897296481	0.0113513143107937	0.00639920322092174
3.5	0.00015373146941733	-0.0138600153845928	0.000579376688818029	0.00308744958101849	0.000584952781859814	0.00308756646453368	0.0116282107281592	0.00540785604737689
3.6	-0.00236386177080093	-0.014403861310572	0.00100613705375633	0.00297664519912532	0.00101431504241902	0.00297639628440752	0.0119106211470676	0.00450640353133639
3.7	-0.00505306489894209	-0.0146011728594492	0.0014183846956729	0.0028043541135379	0.00140868282351894	0.00281794045879447	0.0121939456627897	0.0034463314375069
3.8	-0.00803403771857556	-0.0141794027389782	0.00180134604285813	0.00258475340088439	0.00180367332457705	0.00259393601525946	0.0121231403451144	0.00232479813382932
3.9	-0.0108684235854817	-0.0128871311348595	0.00215448480849284	0.00231688692348793	0.00214721300780762	0.00231504214780965	0.0117723946361753	0.00149556088890396
4	-0.0131654886820256	-0.0109152450926806	0.00244786453364584	0.00199765422244824	0.00245235078930962	0.00199524226302253	0.0115930376749391	0.00109506260823195
4.1	-0.0148088159694728	-0.0086935116816353	0.00270851778784236	0.0016363729123882	0.00270725377500365	0.00163710495620678	0.0118655004315198	0.000734106234313052
4.2	-0.0161038562186264	-0.00640153698727099	0.00291507043371995	0.00123069239849633	0.00291960557450949	0.00122194385964142	0.0122504023052033	4.29608185637733E-05
4.3	-0.0171895352422315	-0.00397416035771811	0.00306283705775874	0.000812066115216718	0.00306932625195867	0.000804233581833379	0.0124043026580963	-0.000928483610832003
4.4	-0.0180112924898193	-0.00112462361553998	0.00314079771324492	0.000370504878636366	0.0031431908194709	0.000368238340968439	0.0122025650897633	-0.00176490658423766
4.5	-0.0181615333685829	0.00205148692426515	0.00316216456707176	-7.43802079419372E-05	0.0031675563542417	-7.77703162528236E-05	0.0120776588759818	-0.00234114947578872
4.6	-0.0175780832457109	0.00511997809880698	0.00311425874680887	-0.000522357592660599	0.00311550137373807	-0.000509385708418685	0.0121112280612342	-0.00301384035460087
4.7	-0.0163716048744085	0.00785305151738682	0.00300386425174964	-0.000943679024664413	0.00301918900625833	-0.000953347313828065	0.0120915188730169	-0.00393205180877697
4.8	-0.0149266045885065	0.0102473075705491	0.00283763139118458	-0.00135751276814364	0.0028461179812011	-0.00136362591785063	0.0117814544107955	-0.00490637117350907
4.9	-0.012958512273707	0.0124970000063844	0.00261301284582999	-0.00173892755041605	0.00261718505790285	-0.00173602532820672	0.0113413434733713	-0.00560004920705472
5	-0.0103997063572854	0.0143263281769621	0.00235173525665647	-0.00208982495610553	0.00235535626801701	-0.00208716318284358	0.0112583672025823	-0.00602773639228072
5.1	-0.00724540380721924	0.0154245688083818	0.00204216975002497	-0.00239599204007591	0.00204446646047164	-0.00239463415355204	0.0114894412231524	-0.00672638757176158
5.2	-0.00421259595197046	0.0156185982321994	0.00168833733495197	-0.00264271582466069	0.00169005900458809	-0.00264784679690979	0.0115511707342193	-0.00776754226401544
5.3	-0.00151474289711644	0.015353677519921	0.00130710964135497	-0.00285733247246013	0.00131023036205864	-0.00285526134224972	0.0112088484536528	-0.00877156787073377
5.4	0.00101754786102955	0.0149366539713711	0.000888079964572798	-0.00300713401522777	0.000905289295192509	-0.00301824991037271	0.0107085722842076	-0.00962863987588418
5.5	0.00359995097385293	0.014236300658435	0.000479165387351519	-0.00311013668424024	0.000489280617492377	-0.00311950919927751	0.0101719731624739	-0.010369601565615
5.6	0.00613454598920006	0.0128923727994853	4.27994323917149E-05	-0.00315372833660581	3.42774633088591E-05	-0.00315701090038381	0.00957831610045731	-0.0110483715243888
5.7	0.00810544844616241	0.0109201648203596	-0.000389524724707233	-0.0031315394661363	-0.000406176511836214	-0.0031353280860837	0.00881124104050069	-0.0117344376151919
5.8	0.00934769598642536	0.00863357058404229	-0.000840475675253256	-0.00304440994009824	-0.000843940839951289	-0.0030585014862858	0.00780908490724007	-0.0125625163857604
5.9	0.00988482599291914	0.00652041963331206	-0.00125330814638181	-0.00290994691579774	-0.00126159994400975	-0.00290991027250169	0.00635351672575217	-0.013116007804399
6	0.0100755582210869	0.00459106589081265	-0.00166167968291241	-0.0027057945094264	-0.00165808641601095	-0.00270594792961951	0.00473092678420085	-0.0130659565358394
6.1	0.0101241505182112	0.00264527260597867	-0.00202721053808501	-0.00244928287567918	-0.00202887525847128	-0.00244524306501718	0.0036143448222868	-0.0125402589073152
6.2	0.00982307512961276	0.000433098466405272	-0.00234907033541898	-0.00213000374727252	-0.00235281461406534	-0.00214199761822479	0.00302455401073319	-0.0122226918339509
6.3	0.00896671949583244	-0.00182993006305785	-0.00263316920792684	-0.00178652091281395	-0.00264237973838338	-0.00178070653045059	0.00251378363565262	-0.0123184554770141
6.4	0.00764142820768935	-0.00383730581667967	-0.00286182895847278	-0.00138489976477825	-0.00285203076283387	-0.00138988686777194	0.00201972012323313	-0.0124418134830334
6.5	0.00619849716028396	-0.00556887758864006	-0.00301644060438907	-0.00096915319473078	-0.00302434230018563	-0.000964590304916876	0.0017859613037208	-0.0126222848092693
6.6	0.00447163558963699	-0.00712676310855859	-0.00311893180585362	-0.0005350924187158	-0.00312060351463176	-0.000539084908170354	0.00166026849280312	-0.0131289239364228
6.7	0.00220298144729558	-0.00827601624506815	-0.00316113864484598	-9.13218922633552E-05	-0.00316998837308823	-8.49444717348249E-05	0.00097753656265744	-0.0138341399424413
6.8	-0.000487036712689052	-0.00856244322056896	-0.00313003165541393	0.000352138954384736	-0.00314111858738658	0.000357288890994571	-0.00024727898311796	-0.0141743802650603
6.9	-0.00306010352198986	-0.00790187102697514	-0.00304575723077989	0.000783610534240877	-0.00304872991475612	0.000786026098345605	-0.00147892709278151	-0.0139743155825102
7	-0.00505015813106153	-0.00654355682125708	-0.00290234856773184	0.00119925408728474	-0.0029151868861093	0.00119714241626844	-0.00241144862242776	-0.013445176247581
7.1	-0.00654676732896564	-0.00504836635615	-0.00272119827626323	0.00158121368943393	-0.00271749517806898	0.00158984693584922	-0.00303728886149371	-0.0128661289996367
7.2	-0.00786180448335714	-0.00355860481307803	-0.00246499549945165	0.00194207848188197	-0.00247150360137669	0.00194417623819266	-0.00341577539513093	-0.0125016688636239
7.3	-0.00931583558592096	-0.00185125866659224	-0.00217308358488857	0.00225570210244369	-0.00218426327188138	0.00226076508865834	-0.00386070010924226	-0.012480941991777
7.4	-0.0107274198864891	0.000360558855620242	-0.00183707889485042	0.00253635260243389	-0.00184394861377223	0.00254994147039923	-0.00462669107762311	-0.012683911329112
7.5	-0.011559768885119	0.00323944552930791	-0.00147740319030936	0.00277662398533373	-0.00147042134395564	0.00278402433612029	-0.00552643306522518	-0.0125463355111278
7.6	-0.0112654322434261	0.00643183260666841	-0.00107568495774265	0.0029594310442602	-0.00107705258615545	0.00295472597881293	-0.00631994962780482	-0.0120533739019957
7.7	-0.010505828999681	0.00898554634196061	-0.000648884212371514	0.00308722766411138	-0.000650226144889561	0.00308616010842933	-0.00697914835130291	-0.0125397632343961
7.8	-0.00886804208942303	0.0112917048979116	-0.000221095720224282	0.00314327518233553	-0.000228950283950608	0.00314975065736378	-0.00802047871872506	-0.012535889854243
7.9	-0.00658175311194265	0.0132171968937083	0.000225735039984013	0.00315616031274861	0.000233726003358225	0.00315767275518962	-0.00895981632205863	-0.0121704334371316
8	-0.00322323025107214	0.0143058471882702	0.000676063884200073	0.00308678977994341	0.000676151051438239	0.00309172658720556	-0.00956044193160142	-0.01120619849111
8.1	2.41531123857588E-05	0.0144363053157139	0.00109624302397625	0.00296799750088762	0.00111555344489116	0.00296903531805242	-0.00999716466185629	-0.0107736612999545
8.2	0.0029647914114269	0.0136833432288812	0.00151010963723524	0.00278164820279384	0.0015193974275269	0.00277434416748802	-0.0103377716801041	-0.0103545524247085
8.3	0.00540605314992062	0.0125495120592016	0.00189327351746401	0.00253331826773156	0.00189171786641938	0.00254698889686752	-0.010874538017156	-0.0100028440294221
8.4	0.00754767709909955	0.0113235113003831	0.00223187805289061	0.00224389710642488	0.00222882480100114	0.00224369993177176	-0.0115987541644611	-0.00950069163119018
8.5	0.0096464488993718	0.00976948653033858	0.00251565184702089	0.00190081819924061	0.00251478603164923	0.00190402826835489	-0.0122997631275431	-0.00868949380317529
8.6	0.0115412805850887	0.00766084646908407	0.00275512377772834	0.00152922567272382	0.00276456977888353	0.00152254656064902	-0.012669791222523	-0.007832095674889
8.7	0.0128928619105567	0.00488567525737004	0.0029300884194987	0.00111855970160309	0.00293566064306043	0.00111921048603553	-0.0128491249646012	-0.00727013822024608
8.8	0.0133188146774591	0.00189582931053963	0.00305374140862696	0.000704186493278764	0.00305938511189425	0.000695369340791327	-0.0133481573590156	-0.00697502922493624
8.9	0.013101294391754	-0.000931705617834825	0.00311781652119371	0.000271857983734727	0.00311692205741734	0.000269631283286334	-0.013978723274311	-0.00635246022900879
9	0.0125420184098198	-0.00361831486737122	0.00311608417858177	-0.000164853739801671	0.0031192648860658	-0.000160812773677738	-0.014353389341423	-0.00532099902666274
9.1	0.0116464319811216	-0.00639857863583666	0.0030619636310211	-0.000596240561060835	0.00306493924934284	-0.000583471937385784	-0.0142550377916235	-0.00428144635960091
9.2	0.0100096209135769	-0.00924390250830712	0.00294933589426628	-0.00100222088090712	0.00295690639721703	-0.00100512299201824	-0.0139908072505528	-0.00359393572030576
9.3	0.00755597815567201	-0.0116264971479166	0.00278233869569188	-0.00139629309650886	0.00278159260376153	-0.00140123519751376	-0.0138136786051012	-0.00301469156478865
9.4	0.00467202487116803	-0.0132984340082523	0.0025654029624327	-0.00177766238600472	0.00257187611010036	-0.00177014449981292	-0.0137451547773535	-0.00245617893484386
9.5	0.00153974391054567	-0.0140933900934479	0.0022982508880831	-0.00210696108047102	0.00230560676828245	-0.00210830223269604	-0.0135289273586773	-0.00160218366856608
9.6	-0.00173344149493295	-0.0145511264240769	0.00198957801878219	-0.0024097517571994	0.00198990518327461	-0.00240877538593311	-0.0133152222122989	-0.00100722636095333
9.7	-0.00536248604837108	-0.0143911079359239	0.00162930946643371	-0.0026631945105629	0.00163483047016692	-0.00267046236693998	-0.0131431341958256	-0.000555882051245922
9.8	-0.00926254041510598	-0.0133196475932017	0.00124829352316198	-0.00287735201120998	0.00125396631076863	-0.00286886747230575	-0.0132233343913774	-0.000155666641612164
9.9	-0.0130229116732395	-0.0109758584800265	0.000843370075017329	-0.00302262951963115	0.000836044715722086	-0.00302140910068489	-0.0136362170294992	0.000536729141994751
10	-0.0160081951880788	-0.00774990613474129	0.000410142481202733	-0.00311683157599919	0.000402644147469191	-0.00312927456750276	-0.0138305671685468	0.00155641525925827
10.1	-0.0180884924355917	-0.0040174346006099	-3.76042515021812E-05	-0.00315059720193489	-4.78348438391319E-05	-0.00314517698507499	-0.0135942397244335	0.00255395498478668
10.2	-0.0194428793778061	-4.62536025081536E-05	-0.00049016043872153	-0.00311235224935231	-0.000493560102715185	-0.00310955664489648	-0.0131057608997142	0.00329659741012446
10.3	-0.0201189023897767	0.00429117854875261	-0.000928032951409088	-0.00300149475216398	-0.000919990269454943	-0.00301061971846055	-0.0126624688236653	0.00380166691280468
10.4	-0.0197918744198587	0.0089542239668262	-0.00132798742802456	-0.00283882092281034	-0.00132633888567575	-0.00284502530066661	-0.012193264812948	0.00420251461492472
10.5	-0.0182419224528091	0.0136075620918793	-0.0017182691031429	-0.00263036451335723	-0.00171506007748608	-0.00261742197321016	-0.0116682718773672	0.00469341543596929
10.6	-0.0155746783333793	0.017689793276377	-0.00206500229379372	-0.00235114321844206	-0.002062861755356	-0.00235496896361007	-0.0109709355416455	0.00503865329732498
10.7	-0.0122472192120802	0.0211115441131948	-0.00237022101234144	-0.00204229967669891	-0.00236670116560686	-0.00203708902143055	-0.0102730336779969	0.00521998041792197
10.8	-0.00839661649157909	0.0239608199991408	-0.00262625110434911	-0.00167974353727278	-0.00262117985357676	-0.00168862966600401	-0.00982480742041097	0.00526694759880031
10.9	-0.00399371884766481	0.0262514124958636	-0.00282062709798488	-0.00130827262256478	-0.00282574787176834	-0.00130751216883352	-0.00955868691478616	0.00544963485887598
11	0.00118971691983626	0.0277299469489981	-0.00296725078267876	-0.00090008419477484	-0.00297206374432205	-0.000906706209443303	-0.0091543302280934	0.00589990623010758
11.1	0.00675692177984467	0.0279404159893724	-0.00306668464227752	-0.000487807713327403	-0.00305598115941803	-0.000485020038958397	-0.00838217516219529	0.00622862159718255
11.2	0.0121616409154823	0.0267972151154799	-0.00309261131312745	-6.56129880068458E-05	-0.00309965148833376	-7.03755761372584E-05	-0.00740846335351958	0.00618640541782556
11.3	0.0171201086060367	0.0247098152016933	-0.00306836503275965	0.000367126953261074	-0.00307969815774032	0.000357207702542038	-0.00656786779431807	0.0058776784029196
11.4	0.0214649303733568	0.0218972802652924	-0.00300263841122718	0.000781200224045301	-0.00299783895054733	0.000788686561627155	-0.00598846344277741	0.00538050708786551
11.5	0.0254116323735324	0.0183469267539698	-0.00287174759572366	0.00118719257427829	-0.00287457456181032	0.00119731634431129	-0.00565256928677567	0.00476921761405967
11.6	0.0288386148632369	0.013891221673435	-0.00269182164532636	0.00157335597064926	-0.0026918317522766	0.00157626572233735	-0.0053150649840299	0.00414675867368431
11.7	0.0312459306412846	0.00872182155056391	-0.0024448124706506	0.0019296912532224	-0.00244546447964012	0.00193822197845624	-0.00508613197536665	0.00328671538333647
11.8	0.0325721502235443	0.00332147509056089	-0.00216136991639439	0.00226799609378632	-0.0021654815278482	0.0022696403877142	-0.0052188004897573	0.00246914201791675
11.9	0.0331281008080173	-0.00196941687890145	-0.00181991598795432	0.0025536623007353	-0.00183294279384056	0.00255782073681701	-0.0055349542265109	0.00239315438342129
12	0.0328462332191908	-0.00766643518131765	-0.00144951299680429	0.00278728610320059	-0.00144893077670985	0.00278870190020854	-0.00578668573751752	0.00233177235670852
