# GHZ S RI R 50
0.2	0.00565012326250179	0.00196887665803762	0.00304832300800731	-0.00089756292667206	0.00305869051561289	-0.000890753151683338	-0.0143305616930291	0.00558661048858974
0.3	0.00621474791963869	-0.000353113433604904	0.00290427092172547	-0.00132073176475168	0.00289702249676671	-0.00130779501796281	-0.0132880837290803	0.00542832552286974
0.4	0.00592297378265685	-0.00237365243845288	0.00267297662481956	-0.00169230014310265	0.00267824644252751	-0.00170085902833368	-0.012782332467804	0.00560637446346463
0.5	0.00495205332044677	-0.00396120719639236	0.00241461720943732	-0.0020489409532326	0.00242615992015314	-0.00206117672611981	-0.0124830326802713	0.00599011299236011
0.6	0.00364548421553668	-0.00494861072456833	0.00210264958865302	-0.00236360942387879	0.00210186650026744	-0.00237076030147214	-0.0122762929205585	0.00655664811118483
0.7	0.00223570207954106	-0.00537567711144274	0.00175600464263743	-0.00264184496345439	0.00175404821312279	-0.00264204491631349	-0.0120866847864206	0.00734059912579261
0.8	0.00103069431976344	-0.00546227806918584	0.00137087737627811	-0.00285995251454749	0.00135827448364822	-0.00286451065843072	-0.0117004968708011	0.00830986372648847
0.9	-0.000107633680420863	-0.00537656567342138	0.000953792563625557	-0.00302437577820525	0.000954833698696044	-0.00303508105979275	-0.0110884176100315	0.00920436270084196
1	-0.00125786660355768	-0.00525673197025102	0.000528554903291449	-0.0031286645322592	0.000518685630065876	-0.00312940929970062	-0.0103398143549698	0.00992259002459724
1.1	-0.0026405292600935	-0.0050181420388081	7.21306312410756E-05	-0.00315815154300499	6.86249423196834E-05	-0.00317581940139922	-0.0097273485229448	0.0105434527615123
1.2	-0.00418320499715293	-0.00462975658894485	-0.000371065625264945	-0.00314789216232129	-0.000371878361917772	-0.00314581365256389	-0.00891697199716439	0.0111851844553075
1.3	-0.00577986431852207	-0.0040971924584085	-0.000799343310266202	-0.00306457215916216	-0.000802587153341622	-0.00306657895616438	-0.00756525448176791	0.0117702936376776
1.4	-0.00704629269976546	-0.00338816646557257	-0.00122170958422695	-0.00291574731094616	-0.00122049752960654	-0.00292128675231573	-0.00596746773802031	0.0116939551358117
1.5	-0.00763385773333795	-0.00216815733856531	-0.00162336282084491	-0.00271892166168467	-0.00162175463593091	-0.00272743115228961	-0.00468525504614638	0.0112627072996031
1.6	-0.00755732478480101	-0.000480162874266776	-0.00198427041493539	-0.00246531019106395	-0.00198448580429598	-0.00247054854467679	-0.00419371131506857	0.0112254560788112
1.7	-0.00679916297458784	0.00116329028329831	-0.00231257050190085	-0.00216722341018797	-0.00231353077479781	-0.00216095714354314	-0.0035583059873183	0.0115592608823153
1.8	-0.00566300099409834	0.0025733198483416	-0.00258300479775201	-0.00181469257376723	-0.00259398071856163	-0.00182032022229591	-0.00275117715703164	0.0118199479967186
1.9	-0.00435217929048056	0.00349659948315156	-0.00280744826487148	-0.00144328014454466	-0.00281988366886458	-0.00143711323289381	-0.00194813065316091	0.0119394626563196
2	-0.00305223159399566	0.00411296999890865	-0.00298206988269219	-0.00103534284852394	-0.00299168659473608	-0.0010306254846492	-0.00125333302307823	0.0120386863130484
2.1	-0.00171551062560363	0.00446677974802867	-0.00309452333851438	-0.000607092822444125	-0.00309044271304408	-0.000609087555275795	-0.000507497230274336	0.0120850176047513
2.2	-0.00030182819822268	0.0046271263436692	-0.00315109887513987	-0.000169333703829936	-0.00316240035473434	-0.000172160760630056	0.000384010532925504	0.0121050690933598
2.3	0.00120255845211998	0.00432506021164795	-0.0031459861314029	0.000273338088244573	-0.00314568740659048	0.000266458002075539	0.00131447159950062	0.0119414591276715
2.4	0.00257605339234734	0.00358040072669625	-0.00307347660106787	0.000710914626807839	-0.00307601814856716	0.000706659944464617	0.00227927913728346	0.0116957341184846
2.5	0.00360736390969203	0.00241082315914738	-0.00293669296883371	0.00112261755513827	-0.00294757733573346	0.00112899765991434	0.0032534379014546	0.0112168685965357
2.6	0.00428061149280011	0.00109943775720012	-0.00276323522841629	0.00152540839549279	-0.00275967993835444	0.00151308752399794	0.00412913332011355	0.0105672929862352
2.7	0.00476725038758109	-0.000224862428611655	-0.00251778411779228	0.00189691117450467	-0.00252306432608785	0.00189692241498978	0.00474953337253094	0.00985998420933411
2.8	0.00520164293168875	-0.00168413241632776	-0.00223510013260014	0.00222488249216226	-0.00222728356158833	0.00223467398406848	0.00522975363346346	0.00934121082168353
2.9	0.00546553194539471	-0.00340031320619045	-0.00190058518520774	0.00252571385490422	-0.00189687457235115	0.00252528596237207	0.0059161010020078	0.00898266753472851
3	0.0052790812168406	-0.00527517616736951	-0.00151363141962292	0.00276175411748324	-0.00152841859597482	0.0027678630219886	0.00675013429006383	0.0085719416792751
3.1	0.00470772961381867	-0.00707984017527975	-0.00112229983194014	0.0029392580297477	-0.00111763436060421	0.0029476036683922	0.00748908111370074	0.00801386301990331
3.2	0.00369055693053685	-0.00877761499091038	-0.000700396832010772	0.00307632377806833	-0.00070214316473806	0.00307571427303495	0.00798479066793108	0.00753590578840485
3.3	0.00232906011202182	-0.0104409498210653	-0.00026052092814222	0.0031454405092333	-0.00025887558945654	0.00314169576891876	0.00862973318907357	0.00702312745329014
3.4	0.000436733151703526	-0.0118529349204469	0.000187532738635732	0.00313805800695714	0.000181349244941389	0.00315464089795083	0.00932868072798515	0.00624973861390623
3.5	-0.00188962737500747	-0.0129086743785761	0.000610096143412626	0.00309341429346892	0.000615693782198112	0.00309347996504975	0.00975295455782804	0.00515471528323338
3.6	-0.00452635096923338	-0.0133118823522981	0.00103869969519175	0.00297207830983425	0.00104689100227398	0.00297174481668104	0.00989960051212026	0.00422115063160618
3.7	-0.00712815781995681	-0.0130752621330819	0.00144864121934812	0.0027889223363022	0.00143908653738717	0.00280261303920219	0.010046324651655	0.00341833840851682
3.8	-0.0095778099644429	-0.0123475129972153	0.00182540521467387	0.00255989688169243	0.00182782654742241	0.00256903507331699	0.0101827237756232	0.0026714944022489
3.9	-0.0117919659588208	-0.0112623844360321	0.002169270288774	0.002285449157188	0.00216200946454639	0.00228368602610871	0.0103181949857174	0.00191953622938808
4	-0.0138754322528697	-0.00981176451213133	0.00245170837395624	0.00196373114461146	0.00245614648477297	0.00196129251620944	0.0104803916139683	0.00120742581753538
4.1	-0.015702484322936	-0.00791113778323872	0.00270138491452063	0.0016040673526709	0.00270013555651132	0.0016048036912081	0.0107179637754666	0.00050103450429987
4.2	-0.0171274135731942	-0.00559960919805092	0.0028986355240875	0.00120389330836539	0.00290308343713236	0.00119518922618223	0.0109306440536009	-0.000248375393872361
4.3	-0.0180481515881246	-0.00316775462575347	0.00304025387189692	0.000793394459671157	0.00304665825597895	0.000785602604578733	0.0111247768740628	-0.00111739038305614
4.4	-0.0186763489160547	-0.000643447634858425	0.00311590003418608	0.00036117932983744	0.00311826905655356	0.000358926494956313	0.0111808564221075	-0.00201966903340539
4.5	-0.0189980095215976	0.00203719714042056	0.00313871360022308	-7.49553985621394E-05	0.00314406423911621	-7.83223140903094E-05	0.011202131602008	-0.00295684707766455
4.6	-0.0189516361190164	0.00488292506243507	0.00309538563989988	-0.000516212563434884	0.00309660847164156	-0.000503320160048887	0.0110466735609287	-0.00400998594596826
4.7	-0.0182195892318816	0.00784893040956586	0.00299130918343578	-0.000934034255738703	0.00300657827006718	-0.000943630418769512	0.0106482637935612	-0.00501914921429562
4.8	-0.0168545843295411	0.0106133428698634	0.00283151824307162	-0.00134774313724153	0.00283999058078039	-0.00135382071725366	0.0101611791636347	-0.00581894240892272
4.9	-0.0148044156412572	0.0129679082196288	0.0026118648921938	-0.0017320930075707	0.002616026127766	-0.00172918845237206	0.00976916123282577	-0.00643742372979544
5	-0.012377530437788	0.0147809095559973	0.00235280554211104	-0.00208782145061117	0.00235642407399745	-0.00208515758449107	0.00965970294726359	-0.00701469259686264
5.1	-0.00945866318810687	0.0161574374728352	0.00204212899145409	-0.00239912968471762	0.00204442831595427	-0.00239777228708978	0.00960470759102406	-0.00776876539001402
5.2	-0.00628358896089751	0.0168547910273972	0.00168414004868771	-0.00264954666980199	0.00168585183375595	-0.00265468732404873	0.00943337743935061	-0.00851464301909243
5.3	-0.00302568061201174	0.0167755234043935	0.00129668834632308	-0.00286505252079075	0.00129982009738861	-0.00286299222263215	0.00925729905192143	-0.00913569201335641
5.4	-6.71190512308781E-05	0.016001951138239	0.000871035448120103	-0.00301203814519296	0.000888181221751586	-0.00302325094163895	0.00915811049320163	-0.00996186918784471
5.5	0.002400858244822	0.0148411943110304	0.000456836220842284	-0.00310879775071606	0.000466871145611576	-0.00311822648077685	0.00878791703122297	-0.0110237709397889
5.6	0.0045104702129674	0.0134723201145593	1.8239464308689E-05	-0.00314334906155547	9.72102512041457E-06	-0.00314655450440674	0.00794492469891998	-0.0119511967971645
5.7	0.0063579261898701	0.0119112163052982	-0.000412203266639467	-0.00311111393207164	-0.000428792914857925	-0.00311474951953539	0.0068562350140632	-0.0124765040297407
5.8	0.00796469858343707	0.00998180347473135	-0.000856651694545005	-0.00301459143798274	-0.000860195022437396	-0.00302854813137656	0.00580972868022119	-0.0128513938309915
5.9	0.00907419951452801	0.00771102954767529	-0.00125942909196313	-0.00287354844140983	-0.00126763950778125	-0.00287345976380926	0.00475556335865668	-0.0130701279255928
6	0.00949280175508813	0.00519479909688551	-0.0016550484016847	-0.00266702981939416	-0.0016514971504985	-0.00266719803751202	0.00367563699050872	-0.0131203681949408
6.1	0.00926565896439635	0.00275046972708274	-0.00200744106463183	-0.00241321413222769	-0.00200907476630415	-0.00240922157577284	0.00282918474544993	-0.0130001495997204
6.2	0.00858438716135032	0.000448984609844312	-0.0023178207579827	-0.0021017145605822	-0.00232151513404848	-0.0021135490350354	0.00220664223409135	-0.0129921849111576
6.3	0.0076102208621961	-0.00178275648866856	-0.00259380857022577	-0.00176966966600846	-0.00260291233479029	-0.00176395569042345	0.00170731084071379	-0.0132015504469084
6.4	0.00608032494618006	-0.00394159842511349	-0.00281928661829618	-0.0013820103298554	-0.00280958533014626	-0.00138688629433228	0.00128587402742809	-0.0135695326642111
6.5	0.00408646973584331	-0.00562688235339109	-0.00297618866684476	-0.000980048331846773	-0.00298403576963243	-0.000975592410364237	0.000832121065463783	-0.0141533230081084
6.6	0.00192982296194036	-0.00658286459240721	-0.00308574926921828	-0.000557755841984599	-0.00308737046484638	-0.000561726668375242	0.000149829042223991	-0.0147677269333559
6.7	-0.000123088085287325	-0.00699607374184063	-0.00313860117037505	-0.000121930505030181	-0.0031474533420837	-0.000115684171869784	-0.00093715964360002	-0.0151052537587538
6.8	-0.00217381987486966	-0.00706486191622638	-0.00311981666844274	0.000318599422592353	-0.00313090729807145	0.000323613335370666	-0.00207146715516482	-0.0149942476783912
6.9	-0.00437731204145212	-0.00672431734350987	-0.00304719009611263	0.000752043298542815	-0.00305018041257826	0.000754424652708933	-0.00297626660757882	-0.0146844097175314
7	-0.00656890819777168	-0.00574658652243258	-0.00291285609063501	0.00117378365270101	-0.00292567581773976	0.00117155935205933	-0.00373439324113798	-0.0144700894456047
7.1	-0.00854193726979571	-0.0040845760400365	-0.00273673684401365	0.00156415052585277	-0.00273308990930579	0.00157282365474152	-0.00465051012252285	-0.0141882496364052
7.2	-0.0099355669202889	-0.0018994143038736	-0.00248111777925398	0.00193398336563896	-0.00248765267534401	0.0019360523592782	-0.00553273265959443	-0.0136646320446984
7.3	-0.010741182803065	0.000404680335587139	-0.00218574528405245	0.0022547801181916	-0.00219696972982372	0.00225982140063752	-0.00616626481448615	-0.0130327639751967
7.4	-0.011149158699326	0.00262481242952245	-0.00184367854992214	0.00253930712764903	-0.00185057768145375	0.00255291525324287	-0.00668144203473049	-0.0124988112438288
7.5	-0.0113390603267444	0.004771911534656	-0.0014772693263814	0.00277932632773205	-0.00147027905909939	0.00278672906362263	-0.00689733487858009	-0.0121672475731498
7.6	-0.0111734848969798	0.00695733516864942	-0.00107022567686186	0.00295796244508109	-0.00107159881276265	0.00295326423920957	-0.00699529012131188	-0.0122653352059257
7.7	-0.0104423196205819	0.00914400677684879	-0.00064139433155948	0.00307885798707385	-0.000642734022426095	0.0030777961100894	-0.00744942826933574	-0.0127421036267321
7.8	-0.00900752643273765	0.0109362176838474	-0.000215745472951459	0.00312729127620631	-0.000223550693181489	0.00313374372138198	-0.00816836061161042	-0.013044871884533
7.9	-0.00711446017992236	0.0122386425094589	0.00022468710275793	0.00313377021393995	0.000232621741056215	0.00313527055172189	-0.00891569029013234	-0.0130493075863707
8	-0.00509863553498323	0.0132893665846129	0.000665214781969061	0.00306143337640645	0.000665293120187728	0.00306632800296314	-0.00977084536267625	-0.0131926764285402
8.1	-0.00254867959869099	0.0140407800304593	0.00107423853008375	0.00294414927695977	0.00109336182448684	0.00294525280503154	-0.010752602251179	-0.0129388832721613
8.2	0.000244285345761921	0.0142278578662744	0.00147748264250965	0.00276451252775933	0.0014867278661428	0.00275733931846642	-0.011708054053471	-0.0123993603067566
8.3	0.00305576297703102	0.0136213894095152	0.00185297711195988	0.00252747161376309	0.00185131123526279	0.00254100357027665	-0.0124494283935387	-0.0116811921740464
8.4	0.0054820918023755	0.0123980048595527	0.00218856759590589	0.00225223025987158	0.00218554038901957	0.00225199932629634	-0.0130277662601359	-0.011021795838404
8.5	0.00742789310766047	0.0107839309902321	0.00247521511705583	0.00192417382770087	0.00247431050472236	0.00192735357450204	-0.0136460083483935	-0.0104172353952588
8.6	0.00900502030702567	0.00905996730655631	0.00272319266002759	0.0015660934310795	0.00273270977698206	0.00155957865728436	-0.0143162519480796	-0.00982383922322712
8.7	0.0104393276392172	0.0070640011888491	0.00291165862388423	0.00116495195603432	0.00291721929591034	0.00116569128225688	-0.0150572989548267	-0.00913038400967999
8.8	0.0116271302769454	0.00460784215515438	0.00305143559875367	0.000754622511011178	0.00305723539535421	0.000745869233539593	-0.015823325462893	-0.00830300707848051
8.9	0.0123020447572595	0.00158076281358549	0.00313214693111536	0.000319979587023965	0.00313128041522595	0.00031772640958022	-0.0162230747680025	-0.00718369253541941
9	0.0121099768245006	-0.00174642401385306	0.00314477829524801	-0.00012513013006736	0.00314793273777144	-0.000121012795255687	-0.0161859963690389	-0.00607461163901518
9.1	0.0111877878491672	-0.00498896626244302	0.00310060016719306	-0.000569318213001842	0.00310346865812338	-0.000556383169213604	-0.0158954943575291	-0.00519718266122884
9.2	0.0095215006566968	-0.00803238633704323	0.0029919458269093	-0.000990166457891847	0.00299962836113336	-0.000993041485133575	-0.0156074857992259	-0.00452499512125723
9.3	0.00715161721136069	-0.010777869062829	0.00282297929012768	-0.00139873642331552	0.00282224970184446	-0.00140374177429041	-0.0152243100499935	-0.00386022687707976
9.4	0.00396694172372245	-0.0129546343993451	0.00259904294344188	-0.00179182904240668	0.00260557206887028	-0.0017842095313584	-0.0147868518841961	-0.00336738171860088
9.5	0.00016541748609783	-0.0141031654830148	0.00232163767830473	-0.00212804043984965	0.00232906795046222	-0.00212939450669062	-0.0144740690789152	-0.00307050633588059
9.6	-0.00379800515007482	-0.0141489301297756	0.0020020580641236	-0.00243259701795197	0.00200238944287174	-0.00243161317467867	-0.0145663979205208	-0.00284115249550217
9.7	-0.00752153246566725	-0.0132374779160487	0.00163247113241747	-0.00268299023708974	0.00163800714525231	-0.0026903147433256	-0.0148396499076399	-0.00233504544261648
9.8	-0.0109397641768321	-0.0117208369357152	0.00124569701996124	-0.00289092807208499	0.00125141152522352	-0.00288242671846748	-0.0150783094333125	-0.0015591725015696
9.9	-0.0141321774504779	-0.00956905937220061	0.00083943680046104	-0.00302878483985975	0.000832102185999717	-0.0030275498212346	-0.0152073404588153	-0.000598724124433762
10	-0.0170819338122748	-0.00669109241983887	0.000409198590706452	-0.00311663915278314	0.00040169740128438	-0.00312907872988289	-0.0151254086550549	0.000350755647626322
10.1	-0.0193451156694458	-0.00299800939569629	-3.23002662688355E-05	-0.00314711978232814	-4.25284148779038E-05	-0.00314172274213306	-0.01486760759846	0.00115263521018199
10.2	-0.0206011438020422	0.00114703615237271	-0.000477262570254922	-0.00310995839826598	-0.00048066849201981	-0.00310718001837869	-0.014513654429393	0.00192522971579118
10.3	-0.0209033330738967	0.00533503384468885	-0.00090855748764939	-0.00300477576395662	-0.000900464651911624	-0.00301384301249477	-0.0139832757967975	0.0026647989278996
10.4	-0.0205037258709065	0.0093936970577043	-0.00130502788384493	-0.00285138476367991	-0.00130332676431429	-0.00285757867203229	-0.0131257708519494	0.00310445338613724
10.5	-0.0195176407280266	0.0135419427237601	-0.00169647712526802	-0.00265441012672226	-0.00169338903843936	-0.00264140168771353	-0.0122943002401134	0.0032200105335339
10.6	-0.0176339193316595	0.0177362767720929	-0.00205004834592683	-0.00238623719429456	-0.00204785447139665	-0.00239005958387319	-0.0117066937750321	0.00307763714979125
10.7	-0.0146985116876305	0.0217015787297198	-0.00236706008660007	-0.00208569923009895	-0.00236356925540964	-0.0020804060726321	-0.0113635786867409	0.00305944331399543
10.8	-0.0108256075872068	0.0249479557048089	-0.00263868489656166	-0.00172626877399061	-0.00263346320487788	-0.00173520335505023	-0.0111143069214107	0.00316746648126512
10.9	-0.00647940447006719	0.0273912271251704	-0.00284958965594956	-0.0013516889601657	-0.00285479044012657	-0.00135096240801236	-0.0108638467214447	0.00331333368989537
11	-0.00163466124500008	0.0291330775920274	-0.00301136323857737	-0.00093356656357234	-0.0030162157284327	-0.000940329342581833	-0.0105426528095981	0.00346890578976283
11.1	0.00369806709188439	0.0301272437461443	-0.00312169052337228	-0.000505931112795607	-0.00311079829125986	-0.000503060205591963	-0.0102345126544244	0.00352898134783589
11.2	0.0095468370902301	0.0299804979112248	-0.00315179024392449	-6.48654905674355E-05	-0.00315896812352261	-6.97145904485175E-05	-0.00992011294761365	0.00364903152139035
11.3	0.015591496070934	0.0282641703793592	-0.00312442774363906	0.000387371031379592	-0.00313601697761713	0.000377314673123687	-0.00934019595207998	0.0038588385600623
11.4	0.0209439714781257	0.0251967192355369	-0.00304895352860682	0.000818281041028552	-0.00304401183574607	0.000825860588126117	-0.00870244718552569	0.00393946419581419
11.5	0.0254215234204152	0.021143595395542	-0.0029028040535152	0.00123607020611836	-0.00290556561356501	0.00124637861402991	-0.00814940618902269	0.00371045815273796
11.6	0.0290880093324997	0.0162907674986621	-0.00270500248444751	0.00162736963457779	-0.00270497540486718	0.00163031557235698	-0.00765147407899414	0.00324732772574707
11.7	0.0319093588703309	0.0107642209443236	-0.00244027409485644	0.00198163032073861	-0.00244081272808587	0.0019902485493262	-0.0072735203303128	0.00272208002278871
11.8	0.0336573384586499	0.0045900648861822	-0.00214202127078054	0.00231216524414412	-0.00214613398325526	0.00231387768670717	-0.00692859108508924	0.00232535959508857
11.9	0.0339529261175507	-0.00189070050206965	-0.00179070179936088	0.00258549018871646	-0.00180370979988129	0.00258983608012197	-0.00659413338684749	0.00214374705239073
12	0.0329025518391362	-0.00820464071320574	-0.00141668613452544	0.00280587937476876	-0.00141608667343179	0.00280728879308799	-0.00609624135901618	0.00182795474805585
