# GHZ S RI R 50
0.2	0.00508151145140767	0.00465297160931525	0.00304833056209022	-0.000895716429676616	0.00305869259129443	-0.000888901970865123	-0.0148396301561813	0.00831971301215078
0.3	0.00632530088438919	0.000847355688809217	0.00290514682135956	-0.00131763244596273	0.00289788658977841	-0.00130470490191889	-0.0131213434464457	0.00663704934726792
0.4	0.00575478292725276	-0.00237997181892435	0.00267562081473518	-0.00168830260688478	0.00268090375598042	-0.0016968537689185	-0.0129702476289516	0.00558162488211781
0.5	0.00396514218686467	-0.00450570217680734	0.00241977731606409	-0.00204492310262383	0.00243134962902557	-0.00205714069780346	-0.0136027925698196	0.00548024937140799
0.6	0.001872267199431	-0.00527708621114848	0.00211052732572646	-0.00236090753239564	0.00210976080479467	-0.00236806758394339	-0.0142488949949624	0.00640534027636
0.7	0.000173471296183163	-0.00502858209234966	0.00176613741920294	-0.00264186747948057	0.00176417804989208	-0.00264207298388132	-0.0143038706917922	0.00802785445342885
0.8	-0.00069593287771204	-0.00448457416584636	0.00138207422160681	-0.00286382597865172	0.0013694503218419	-0.00286842956744283	-0.0134449053164101	0.00970698690689827
0.9	-0.00113018960646565	-0.00424044526456387	0.000964386743278344	-0.00303269200174286	0.000965457192328221	-0.00304343231767935	-0.0120035791571485	0.0106995614542775
1	-0.00168121433827092	-0.00454514292360907	0.000536685744939317	-0.00314121549281334	0.000526775156980694	-0.00314198191677388	-0.0106648125954117	0.0108499542960534
1.1	-0.00297321927678098	-0.00504160261154872	7.59166090876665E-05	-0.00317385270330529	7.24125682956707E-05	-0.00319161264000526	-0.0101336346428229	0.010659048350024
1.2	-0.00496936192134468	-0.00521510183835982	-0.000372728970815723	-0.00316503117716981	-0.000373546354248743	-0.00316294146905862	-0.00997520409101523	0.010856268361113
1.3	-0.00711820853695443	-0.00474972041931599	-0.000806772268138735	-0.00308089835539341	-0.000810036155989278	-0.00308291320822239	-0.00922826618856476	0.0115850367782958
1.4	-0.00863083984117057	-0.00388374175435481	-0.00123435737505715	-0.00292902515862429	-0.00123315020030045	-0.00293459712801079	-0.00784688634048171	0.0118300397434523
1.5	-0.00935722661352428	-0.00246032829903188	-0.00163979857649764	-0.00272737556130912	-0.00163820870189557	-0.00273593216412926	-0.00664332739831537	0.0117682596218597
1.6	-0.00935479416944785	-0.000395946832844979	-0.00200231731854768	-0.00246787615108871	-0.00200255422197236	-0.00247313569635973	-0.00607152352399527	0.0122613964804721
1.7	-0.00839942849015503	0.00166301487087669	-0.00232989567371249	-0.00216381941927563	-0.00233083073760764	-0.00215752841856414	-0.0049653866020412	0.013005670562432
1.8	-0.00682562961066565	0.00325599556787409	-0.0025973513262085	-0.00180628059875708	-0.00260837822328143	-0.00181186794611303	-0.00355617204247699	0.0132480777573716
1.9	-0.0051451445234732	0.00402490961293793	-0.0028174034420099	-0.0014316140137834	-0.00282982355084599	-0.00142538142306585	-0.00243321785016202	0.0129987798068033
2	-0.00374453770428291	0.00433840738853009	-0.00298698880092188	-0.00102254736282307	-0.00299658640941073	-0.0010177875866641	-0.00182445058728569	0.0127440861236458
2.1	-0.00255762517975838	0.00451774873003524	-0.00309481632765576	-0.000595351944931837	-0.00309074557824891	-0.00059736041120172	-0.00134476368025712	0.0127620460452662
2.2	-0.00130471322797664	0.00477267884647253	-0.00314809363725556	-0.000160328722944559	-0.00315939055010627	-0.000163121032369524	-0.000517317812971758	0.0130505486354579
2.3	0.000273236173720195	0.00470461560012139	-0.0031416010566718	0.000278765402900297	-0.00314131530788658	0.000271893263840304	0.000717224247636514	0.0130977559049536
2.4	0.00196928374780017	0.00405444633494877	-0.00306975604295172	0.00071296695171314	-0.00307229887028317	0.000708718820900663	0.0021064903836572	0.0126717897223119
2.5	0.00332574641721972	0.00268364681351871	-0.00293530326188337	0.00112247335065786	-0.00294618222283974	0.00112885196830846	0.00321541334483758	0.0117142166005486
2.6	0.00408794387802089	0.00102626369710804	-0.00276500291815709	0.00152492398846211	-0.00276144115833263	0.00151259942988984	0.00383514138060367	0.0106831439711819
2.7	0.00446581455231602	-0.000538639317007127	-0.00252248149359011	0.00189816774142583	-0.00252776925894352	0.00189817594448333	0.00412041809480995	0.00991259073380221
2.8	0.00480194976027307	-0.00210713558451324	-0.00224147957753237	0.0022296055515339	-0.0022336471222167	0.00223942428451235	0.0044266666545971	0.00944900662499482
2.9	0.00501334580661467	-0.00396733160323247	-0.00190659261793347	0.00253490168470673	-0.0019028692446667	0.00253447145917325	0.00496028666220921	0.0090726932474973
3	0.00467448715919298	-0.00603402493478839	-0.00151683773071497	0.00277522281152103	-0.00153168049697747	0.00278137480792244	0.00550927593900078	0.00871554715878759
3.1	0.00380804204015532	-0.00790749984195155	-0.00112062479031149	0.00295578357463745	-0.00111591752432362	0.00296415751810172	0.00597980483430663	0.00846721276654261
3.2	0.00251992150089333	-0.00947982100408928	-0.000692243109812493	0.00309373422019869	-0.000694000119491157	0.00309312832513646	0.00648785193633874	0.00842850008538775
3.3	0.00104938309340027	-0.0109091548418116	-0.000245463466788229	0.00316088439479899	-0.000243830069260489	0.00315711438074511	0.00739902002808577	0.00818505165736597
3.4	-0.000787964123424868	-0.0121568870197268	0.000208608214222239	0.00314856965094908	0.000202509276285978	0.00316525467214189	0.00835654505024019	0.00740900310809649
3.5	-0.00306944615341146	-0.0132004428408364	0.000635266093420978	0.00309680912215281	0.000640878792345629	0.00309683229014382	0.00882630545713222	0.00621721836398684
3.6	-0.00576044716005982	-0.0135880788380315	0.00106492077992788	0.00296672074354001	0.00107311862652769	0.00296631786942562	0.00893108112349665	0.00537061453955394
3.7	-0.00846223185518616	-0.0131986622962006	0.00147243714781953	0.00277468826079672	0.00146300809744872	0.00278845586907606	0.00919609659510786	0.00477419897143584
3.8	-0.0108414395712346	-0.0122007310223705	0.0018435585048703	0.00253814520231517	0.00184605397950656	0.00254724144413217	0.00966964347767536	0.00407944971570318
3.9	-0.0127675714774343	-0.010955918155764	0.00217928843223032	0.00225872534609274	0.00217204201924919	0.0022570283374429	0.0100792809716106	0.00307286791480863
4	-0.0145459762909762	-0.00959504462994757	0.00245236680302774	0.00193561720893217	0.00245676345322116	0.00193316024192546	0.0101980879713832	0.00202243606586871
4.1	-0.0162570980674422	-0.00790403298669834	0.00269289143331118	0.00157811040793697	0.00269165446416968	0.00157884907967586	0.0101992261399569	0.00121018598988942
4.2	-0.0177086248953398	-0.00570337507789987	0.00288270552206517	0.0011833513842182	0.00288708575707907	0.00117469172449212	0.0103068326275201	0.00057416149177308
4.3	-0.0185857163694363	-0.00326169537852407	0.00301982403323713	0.000780324248907238	0.00302616282922691	0.00077257433667597	0.0106143919397623	-0.000273006213972643
4.4	-0.0190493805447907	-0.000786931115624331	0.00309443319326939	0.000356291803430886	0.00309678397409986	0.000354052887826736	0.0107288428362278	-0.00137069855812381
4.5	-0.0192260640539588	0.00166974397488791	0.00311942197268571	-7.25432045617903E-05	0.00312474173749745	-7.58860510287588E-05	0.0105469169194295	-0.00252990395155045
4.6	-0.0192287404295687	0.00421701465373613	0.00308076747573623	-0.000508589077334518	0.00308196318626301	-0.000495759070500528	0.0100514731525953	-0.00354262936094381
4.7	-0.0187164386230855	0.00700996969135185	0.00298252012561395	-0.0009241546447482	0.0029977548427933	-0.000933682913919152	0.0094596635987992	-0.00429389820431967
4.8	-0.0175218178799794	0.00980990559105773	0.00282829618120746	-0.0013385066362928	0.00283676341349901	-0.00134455209352694	0.00906051917650458	-0.00487503566621154
4.9	-0.0155126425204017	0.0122113542315063	0.00261263497891088	-0.00172592878783387	0.00261678738758253	-0.00172301940907714	0.00873831036254589	-0.00548438240584933
5	-0.0131052684235723	0.013957559818137	0.00235510861900278	-0.00208604435812845	0.00235872535548751	-0.00208337674454476	0.00852368833210486	-0.00605735768260247
5.1	-0.0103429049786599	0.0152650724097096	0.00204319416926948	-0.00240173782738209	0.00204549582599585	-0.00240037991842478	0.00837260226926246	-0.0065929687248654
5.2	-0.00736174197442005	0.0160839951089894	0.00168155490768094	-0.00265515607901186	0.00168326001831216	-0.00266030504433552	0.00838157052671147	-0.00707018569225757
5.3	-0.00409717942207316	0.0162645114274228	0.00128892333177053	-0.00287127208287889	0.00129206385181278	-0.00286921976873226	0.00854852289270396	-0.00769471457178088
5.4	-0.00090493411747597	0.0156199432410534	0.00085792057972579	-0.00301585802942617	0.000875017647274618	-0.003027145616256	0.00858632126908982	-0.0087914772376061
5.5	0.00178317632485327	0.0143198670434015	0.000439561206755313	-0.00310750263768262	0.00044953329712235	-0.00311697396854318	0.00802151294254154	-0.0100416292408842
5.6	0.00386298220270468	0.0126985066239008	-6.81594813616539E-07	-0.00313475893047829	-9.19570149474684E-06	-0.00313790436284133	0.0069213765855122	-0.010820961089406
5.7	0.00546138723627249	0.0110367679429133	-0.000429414861419072	-0.00309446473100021	-0.000445951511202908	-0.00309798206180937	0.00586814806755224	-0.0110100449868959
5.8	0.00685588327141869	0.0093143701937858	-0.000868406989214496	-0.00299050426754798	-0.000872007432677949	-0.00300435185764843	0.00518088332970452	-0.0111994324888213
5.9	0.00804178829349047	0.00735474765315064	-0.00126282864588738	-0.00284438517386283	-0.0012709723148217	-0.00284425842884671	0.00451090548273307	-0.0116303542379357
6	0.00877009039062619	0.004961712893901	-0.00164793232037684	-0.0026363680422858	-0.00164441533317223	-0.00263654611388797	0.00348602630594848	-0.0121142621508115
6.1	0.00881096332360426	0.00237890435325042	-0.00198962508842519	-0.00238533471822138	-0.00199123644917234	-0.00238138176361469	0.00237498255144633	-0.0122525610637262
6.2	0.00820092147061586	-0.000102982059398428	-0.0022909270670557	-0.00208086483324028	-0.00229457147306841	-0.00209257407085967	0.00152106569573971	-0.0122113840047256
6.3	0.00728678989639405	-0.0023854906922296	-0.00256093614211987	-0.00175879791267725	-0.0025699607846361	-0.0017531721773394	0.000999689730186175	-0.0123742842151656
6.4	0.00592236642620671	-0.0046549735337227	-0.00278480131150733	-0.0013828970695077	-0.0027751696838388	-0.00138767619275372	0.000412402939008528	-0.0128465336338511
6.5	0.00398051010467965	-0.00668577698777176	-0.00294470299839099	-0.000992092831676346	-0.0029525149141708	-0.000987727394000935	-0.000430045526307987	-0.0133124196372403
6.6	0.0015314582729189	-0.00796685953055915	-0.00306107395595742	-0.00057881681051914	-0.00306265273235034	-0.000582774616345738	-0.00129141758652988	-0.0134372997909789
6.7	-0.000943732013459792	-0.00836305573261411	-0.00312330983077585	-0.000148493718724047	-0.00313217581157837	-0.000142352200670967	-0.00207730167492802	-0.0133365969701939
6.8	-0.00317859108272025	-0.00815268326722494	-0.00311477690176632	0.000290792322035561	-0.0031258832192298	0.00029569768195731	-0.0027489256440608	-0.013228946468613
6.9	-0.00526201921336815	-0.00758778572947748	-0.00305137409221819	0.000726898681005507	-0.00305438182136339	0.000729254332261845	-0.00352131614615153	-0.0131909199278742
7	-0.00727307328242307	-0.00671486324877405	-0.00292382489691761	0.00115435673166555	-0.00293664084830232	0.00115204007708211	-0.00448729210690484	-0.0131557214361427
7.1	-0.00933973788000905	-0.00532299378622986	-0.00275107809597529	0.00155194345260767	-0.00274747250455499	0.00156065466872497	-0.00564925209377117	-0.0126506109003693
7.2	-0.01114490162903	-0.00321911307940632	-0.00249524959454305	0.00192911224543944	-0.00250180966380884	0.00193116057164559	-0.00640276766253291	-0.0116739433859836
7.3	-0.0123798071366318	-0.00057382295971203	-0.00219658099059602	0.00225555757895805	-0.00220784601020323	0.00226058599038132	-0.00646396585723351	-0.0108212664925566
7.4	-0.0128025377207164	0.00234685718552311	-0.00184932145024477	0.00254299803132475	-0.00185624483508596	0.00255662821429375	-0.00639685396378697	-0.0104733080408428
7.5	-0.0125531872454883	0.0049687857767942	-0.00147733041600369	0.00278263378130904	-0.00147033007484581	0.002790040125774	-0.00635711761240651	-0.0107868395469723
7.6	-0.011978205878889	0.007143875000148	-0.00106590399239615	0.0029577557090612	-0.0010672823662096	0.00295306173289006	-0.00665819359452743	-0.0116024511322578
7.7	-0.01078427398586	0.00919605660744227	-0.00063534332128627	0.0030729769446338	-0.000636681629084832	0.00307191944080881	-0.00734424652221142	-0.012212997261378
7.8	-0.00904871684001499	0.010849931454638	-0.00021140095987801	0.00311511489326379	-0.000219167992785973	0.00312155042402447	-0.00832431440455384	-0.0127661123865695
7.9	-0.00660315079707945	0.011702061880534	0.000223770040312681	0.00311629906491008	0.000231660662502256	0.00311779020421189	-0.00948000987556075	-0.0127966370671446
8	-0.0047030192287413	0.012257640278342	0.00065620530543442	0.00304158532903944	0.000656275940256674	0.00304644677917371	-0.0112289403620563	-0.0129299567261308
8.1	-0.00235630536620164	0.0123322645842115	0.00105600509063208	0.00292574297364799	0.00107498093064339	0.00292690423329267	-0.0124280615077221	-0.0119325292432377
8.2	-0.000157963957862716	0.0123357919111251	0.0014506013553272	0.0027519825198088	0.00145981735219871	0.00274491610035161	-0.0131969514449762	-0.0107685869173103
8.3	0.0022391806650788	0.011949210057659	0.00182014798056842	0.00252466910049076	0.00181838645782092	0.00253809429310403	-0.0135025837174514	-0.0098610927015925
8.4	0.00463170479403294	0.0109917150777409	0.00215397925559398	0.00226142773938589	0.00215097122124337	0.00226116800338872	-0.013878004483738	-0.00937977830184711
8.5	0.00670821989595237	0.00936772191154807	0.00244399844553939	0.00194568200866961	0.0024430604816102	0.00194883971963443	-0.0146732334319212	-0.00887898155682913
8.6	0.00820882910387482	0.00741084571176988	0.002700021814188	0.00159812621270968	0.00270960800198384	0.00159173909831586	-0.0155659093661765	-0.00799995539474853
8.7	0.00926824432379835	0.00533182565440479	0.00290032411762709	0.00120368299890985	0.00290588217088462	0.00120449446321141	-0.0161590172766529	-0.00683650719918884
8.8	0.0100558398319899	0.00316027185058148	0.00305352736626422	0.000795269990896688	0.00305945739628904	0.000786555763963632	-0.016392797834532	-0.00581119602075127
8.9	0.010689734607684	0.000625881932198973	0.00314744470493885	0.00035737075145608	0.00314659846240737	0.00035509415374078	-0.0163296067160762	-0.00497168188091181
9	0.0107943113427824	-0.00241537258465872	0.0031709257692978	-9.5634330732957E-05	0.00317406530613378	-9.14537687206171E-05	-0.0162342366685162	-0.004290577207444
9.1	0.0101725310068188	-0.00568752304509285	0.00313372667748011	-0.000550852255206743	0.00313652271002804	-0.000537775235521827	-0.016036378077674	-0.00361762485042941
9.2	0.00858756247499324	-0.00878199508686203	0.00302718973481026	-0.000983927986137551	0.00303496455945855	-0.000986790318238686	-0.0157907302948623	-0.00303290632361742
9.3	0.00635153134687167	-0.0114470544916608	0.00285566852287946	-0.00140407053250116	0.00285494706715175	-0.00140912843567435	-0.0154311639840839	-0.00260123339825733
9.4	0.00347823287610318	-0.0135970988406982	0.00262531010807302	-0.00180633337829256	0.00263189382504937	-0.00179863566101872	-0.015272568064574	-0.00230943769303417
9.5	-7.27773021953677E-05	-0.01513001240349	0.00233902778246872	-0.00214772094403177	0.00234651848841775	-0.00214909274551963	-0.0155149904517701	-0.00202473522634454
9.6	-0.00410192871256978	-0.0156089750086952	0.00201009446976443	-0.00245322111469487	0.00201043021589794	-0.00245223142960154	-0.0159191993654823	-0.00132490653947267
9.7	-0.00819869203569089	-0.014886699490525	0.00163253576275006	-0.00270050185973487	0.00163807710538573	-0.00270787728187603	-0.0160217121863665	-0.000293233623696763
9.8	-0.0119348319597813	-0.013166929017562	0.00124087353664828	-0.00290260732867837	0.0012466284929877	-0.00289409859483045	-0.0157924465223188	0.000632862808073747
9.9	-0.0150669613529313	-0.0107151095462198	0.000833668818354234	-0.00303360565840292	0.00082632964764197	-0.0030323534433686	-0.0155990256517435	0.00129310039918647
10	-0.0177450084209536	-0.00776686664871455	0.000406339178327607	-0.00311563377601998	0.000398830554353978	-0.00312806148214484	-0.0156111085553924	0.00198161300840177
10.1	-0.0198951447756063	-0.00427425401268309	-2.93808566954617E-05	-0.00314313553052201	-3.96008963884E-05	-0.00313775472785435	-0.0155218054538157	0.00283745554996556
10.2	-0.0213211445177397	-0.000225465066758639	-0.000467494365481128	-0.00310699819190167	-0.00047090364544736	-0.00310423366975929	-0.0150416685664804	0.00376722711518923
10.3	-0.0217412707314304	0.00418588663517441	-0.000893076916790246	-0.00300694372899577	-0.000884945668648335	-0.00301596421057162	-0.0142291459313709	0.00433556221364948
10.4	-0.0210977668269238	0.00850005819081497	-0.0012868584369837	-0.00286172640917987	-0.0012851151844398	-0.00286791265877072	-0.0134233262545354	0.00430936116202085
10.5	-0.0197061889768563	0.0125399903649139	-0.00167991111793295	-0.00267447161523756	-0.0016769174583339	-0.00266140593853209	-0.0130941042037306	0.0041645592883154
10.6	-0.0176865586988563	0.0163318940869612	-0.0020399692309993	-0.0024151163986902	-0.00203773250561588	-0.00241893896804342	-0.0130180812104802	0.0042420355569424
10.7	-0.0149596187954213	0.0200181164756469	-0.00236740311728558	-0.00212050965078399	-0.00236392997675224	-0.0021151488015703	-0.0128214593402548	0.00461579046428855
10.8	-0.0112718896561573	0.0232972192939784	-0.00265203028866521	-0.00176226604137652	-0.00264669281491788	-0.00177125032139208	-0.0125203694492812	0.00489801125555276
10.9	-0.00682028525768967	0.0258439131863424	-0.00287597037527057	-0.0013836378781719	-0.00288123708730036	-0.00138293163725475	-0.0124539705076404	0.00503973564949948
11	-0.0017680317130313	0.0273294851612912	-0.00304890212980864	-0.000956168659582831	-0.00305379764219324	-0.000963038824984706	-0.0124808493933491	0.00547435801725257
11.1	0.00344126618536233	0.0278138460199287	-0.00316643013866304	-0.000515346083251524	-0.00315538254750751	-0.000512426358814681	-0.0123215771905083	0.00621367741253479
11.2	0.00872997875630729	0.027361617990559	-0.0031981054121606	-5.90004020546536E-05	-0.00320539893601989	-6.39050216993252E-05	-0.0116104079798302	0.0070742766781556
11.3	0.0141000582926935	0.0257742500761419	-0.00316656250979863	0.000408372599804296	-0.00317836519091563	0.000398232061832496	-0.0101401258046293	0.00744670529626705
11.4	0.0192161965832969	0.0231878503694028	-0.00308191276918925	0.000851785498098756	-0.00307685046905344	0.000859425045462712	-0.00888197018455452	0.00733443475942507
11.5	0.0238103680977203	0.0194560706897681	-0.00292259528958321	0.00127771828329664	-0.00292528720501755	0.00128816625124584	-0.00799791912295652	0.00690626354638011
11.6	0.0274523461959992	0.0146796145830411	-0.00270988701438319	0.00167167424128284	-0.00270982662481926	0.00167464509491214	-0.00724154483200759	0.00623883281118561
11.7	0.0300849562686255	0.00940866117678048	-0.00243077265583376	0.00202267456490103	-0.00243121068577411	0.00203134999228808	-0.00644395879281087	0.00542956995307533
11.8	0.0318966424281079	0.00380130858934799	-0.00212086894058748	0.00234527875113457	-0.00212497393526294	0.0023470461926828	-0.00573733117509628	0.00437385621822351
11.9	0.0327801912620836	-0.00212055086055516	-0.00176259911348295	0.00260733035299914	-0.00177556608709707	0.00261182592889776	-0.00559327482572967	0.00343168177726941
12	0.0324245704484924	-0.00859153038992369	-0.00138694598452121	0.00281553263835178	-0.00138633358136675	0.00281693401733933	-0.00588091257156469	0.00240128890404112
