# GHZ S RI R 50
0.2	0.00511029291103386	0.00201379876467605	0.00304840228282532	-0.000897790594363899	0.00305877066837584	-0.000890981158083327	-0.0148141784654983	0.0056918553995048
0.3	0.00596448487936766	-0.000194990953971512	0.00290424662781891	-0.00132122204704308	0.00289699964244572	-0.00130828353017208	-0.0134812842839915	0.00561752813420468
0.4	0.00590979207823821	-0.00240062191396676	0.00267265402004046	-0.00169300206166693	0.00267792193785737	-0.00170156250060682	-0.0128007149654742	0.00559422292168047
0.5	0.00494305869517527	-0.00430539814970828	0.00241383850117748	-0.00204969171498477	0.00242537665975187	-0.00206193099351913	-0.0125895121560113	0.00571604348259549
0.6	0.00339912381276066	-0.00551743810495896	0.00210135993048878	-0.00236415971580228	0.00210057394768569	-0.00237130925611635	-0.0126652009142537	0.00619190878943417
0.7	0.00166648362203938	-0.00592330230175885	0.00175426893104949	-0.00264192187144014	0.00175231296081711	-0.00264212085001067	-0.0127372213342792	0.00714257413447482
0.8	0.000273779444525314	-0.00575809476179816	0.00136890909384653	-0.0028593140296907	0.0013563097156539	-0.00286386416697789	-0.0123919815873729	0.00841960670184053
0.9	-0.000777662772075025	-0.00537242066275231	0.000951928497134375	-0.00302288495802066	0.000952964493711159	-0.00303358398379033	-0.0115684808157702	0.00952786452978954
1	-0.00161584056770173	-0.0051424295792627	0.000527178676863018	-0.00312636812657015	0.000517316930900571	-0.00312710927775633	-0.0105314280446342	0.0101896168087825
1.1	-0.00269168811811102	-0.00510301636109116	7.16064418865297E-05	-0.00315527879164164	6.81013893539626E-05	-0.00317293001147671	-0.0098143617064057	0.0105251926431903
1.2	-0.00417702213319836	-0.00508409000347398	-0.000370527533224593	-0.00314478530571397	-0.000371339574501376	-0.0031427089043297	-0.00919034879077429	0.0109135753917872
1.3	-0.00594701710832523	-0.0047931973943938	-0.000797676927145969	-0.00306167257901462	-0.000800916907771843	-0.00306367823367216	-0.00810651334570655	0.0114890711660543
1.4	-0.00736710995868759	-0.00414360028097308	-0.00121902305323012	-0.00291351445723612	-0.00121780935648801	-0.00291904785172984	-0.00664277620413448	0.0115096334102147
1.5	-0.00811358663354714	-0.00296903591990859	-0.00161996567758449	-0.00271772441960937	-0.00161835271038517	-0.00272622529852166	-0.00548253300672824	0.0111845554383036
1.6	-0.00828538618150559	-0.00121537209523612	-0.00198061634757376	-0.00246535968799048	-0.00198082682043822	-0.00247059450886177	-0.00506685355277861	0.0113838988766046
1.7	-0.00768495789111253	0.000681072958528046	-0.0023091481257109	-0.00216854002065051	-0.00231011444117131	-0.00216227791141661	-0.00432481504639473	0.0119820148302129
1.8	-0.00648319977967786	0.00236257566689191	-0.00258030208114297	-0.00181708313199316	-0.00259126883386365	-0.00182272149129442	-0.00327736781762081	0.012344569987221
1.9	-0.00495285885857148	0.00339423473009215	-0.00280580466994396	-0.0014463788839926	-0.00281824674875526	-0.00144022587692559	-0.00228874140801603	0.0123697189680047
2	-0.00348060419063662	0.00391243919972154	-0.00298166585520543	-0.001038665135971	-0.00299128961234756	-0.00103395667909449	-0.00159120486715573	0.012320746410538
2.1	-0.00215942742643825	0.00410493785021437	-0.00309529636974967	-0.000610119138460736	-0.00309121222448291	-0.000612111069377452	-0.000965867395771981	0.0123435741865094
2.2	-0.000905090197385901	0.00423982187592454	-0.00315277335042132	-0.000171638675465054	-0.00316407927971369	-0.000174475262213928	-0.000133407210540262	0.0125013870785565
2.3	0.000497693738124656	0.00411674589475098	-0.0031481326849115	0.000272011104992602	-0.00314783048353626	0.000265126752507395	0.000924541842215855	0.0124873504190314
2.4	0.00199691177669348	0.00360463572294685	-0.00307560318655626	0.00071059745076331	-0.00307814528255481	0.00070633943538643	0.00212338697847797	0.0122135435308658
2.5	0.00332996635542374	0.00249261470682431	-0.00293836262197503	0.00112310703031938	-0.00294925327527026	0.00112949017354745	0.00322201082493702	0.0115109535276037
2.6	0.00424168899618437	0.00100350227034492	-0.00276418036209501	0.001526346763441	-0.00276062505293808	0.0015140204809504	0.00400342892260193	0.0106401947739051
2.7	0.00476960436569406	-0.000546381851250709	-0.00251792163169068	0.00189785223999525	-0.00252320297003682	0.00189786460327799	0.00444566195141474	0.00987318874832604
2.8	0.00516970633528896	-0.002128056758946	-0.00223457596105748	0.00222539829172919	-0.00222675712573882	0.00223518793742138	0.00481840582257316	0.00938102763954699
2.9	0.00545352500666064	-0.00394847622269599	-0.00189973806586655	0.00252548320156636	-0.00189602834011347	0.00252505477113807	0.00541567724641047	0.00901390524403499
3	0.00525679646052145	-0.00602387037354334	-0.00151294490008081	0.00276067860514088	-0.00152772593368065	0.00276678543981522	0.00607762278950496	0.00861937352591836
3.1	0.00451230250173913	-0.00804075321427515	-0.00112224542456004	0.00293748715658071	-0.00111758397601054	0.00294582921672449	0.00663258693736	0.0082213701850612
3.2	0.003220251033648	-0.00978720415061025	-0.00070133941699563	0.00307421236280747	-0.000703084457923854	0.00307360244691664	0.00709324665469517	0.00800947168888335
3.3	0.00165891738204414	-0.0113144280414569	-0.000262637787272111	0.00314352483705233	-0.000260990662112618	0.00313978333673775	0.00786616037409507	0.00769115362205538
3.4	-0.000249447309108979	-0.0125691187898191	0.000184351056069885	0.00313693499268369	0.00017815374051551	0.00315350485371121	0.00871509859906342	0.00695181637932313
3.5	-0.00251982778234836	-0.0136042638981685	0.000606210643758564	0.00309355902782795	0.000611807119903661	0.00309363150412483	0.00916633924857969	0.00583039916091069
3.6	-0.00520258115580441	-0.0140823318096839	0.00103469747275506	0.00297381824623468	0.00104289007890517	0.00297349604232572	0.009283854775028	0.00495802960068228
3.7	-0.00798088060985701	-0.0138156081105324	0.00144522689170448	0.00279229058191325	0.00143564794394031	0.00280597351779625	0.00949447309596891	0.00431269222666924
3.8	-0.0105365272294648	-0.0128672849152996	0.00182324343277577	0.00256462008694023	0.0018256536745461	0.00257376927526505	0.00984794861481315	0.00363618239600546
3.9	-0.0126246802389189	-0.0115426397482482	0.00216888690930993	0.00229098327116062	0.00216161973150512	0.00228920862215085	0.010184289043643	0.00274993917142478
4	-0.0144573886028956	-0.0100552405724622	0.00245334742568415	0.00196930162434762	0.0024577948440148	0.00196686399439701	0.0103543188432254	0.00182339338722328
4.1	-0.0161543545534669	-0.00829812971311169	0.00270499119377792	0.0016088792395401	0.00270373908753714	0.00160961596751698	0.0104619685540901	0.00103002284774523
4.2	-0.0176284756860141	-0.00608145450746976	0.00290380651141496	0.00120719931915122	0.00290826595544203	0.00119847999327701	0.0106085757233105	0.000333686799659612
4.3	-0.0185885923173552	-0.00357376871041011	0.00304630428855508	0.000794707954624124	0.00305272064448472	0.000786900235653435	0.0108650182747977	-0.000517349558616629
4.4	-0.0190768845106014	-0.000944441659682932	0.00312197621404458	0.000360301942503815	0.00312434859016772	0.000358043658648244	0.0109651509888503	-0.0015429116773566
4.5	-0.0191553807801971	0.00166210455771081	0.0031439875763274	-7.78369715786917E-05	0.00314934436373485	-8.12143099731519E-05	0.0108651426429733	-0.00263642704913545
4.6	-0.0189931012800529	0.00424101572399416	0.00309916561002132	-0.000520584212702876	0.00310040533576198	-0.000507674975221325	0.0104677756816323	-0.00370047142973361
4.7	-0.0183625221582855	0.00697207669989646	0.00299322286424788	-0.00093915601689304	0.00300849506528413	-0.000948783490520701	0.0099145383758552	-0.00454077257529416
4.8	-0.017157847362319	0.00969124857806208	0.00283149737880825	-0.00135282565054877	0.00283996665565183	-0.00135891985036173	0.00944502728713475	-0.00517538743412934
4.9	-0.0151323832161004	0.0120768701751941	0.00261019410952402	-0.00173640212580608	0.0026143608425146	-0.00173350264825411	0.00909836154742556	-0.00575917189923342
5	-0.0126672236745815	0.0137947400641946	0.00235003328245935	-0.00209084773146144	0.00235365521483104	-0.00208818864093328	0.00891862939118356	-0.00631522867625142
5.1	-0.00987760094764901	0.0150014172271164	0.00203896354026686	-0.0024006498514028	0.00204126367523741	-0.00239929531732204	0.00878884304587198	-0.00689689552103811
5.2	-0.00698133338616439	0.0157196861936894	0.00168128849345619	-0.00264968118049605	0.00168299544771575	-0.0026548208674038	0.00873996023699606	-0.00742037741486744
5.3	-0.00385917786536429	0.0159027297408056	0.00129467899203492	-0.00286420260628342	0.00129781011666038	-0.00286214483220411	0.00882422215562248	-0.0080174544022894
5.4	-0.000742708371382354	0.0153546392099835	0.000870169508326911	-0.00301080648975232	0.00088730574524016	-0.0030220168726002	0.00885100741575311	-0.009036174554663
5.5	0.00196980022121958	0.014138451934229	0.000457071086008476	-0.00310784310485039	0.000467104217193021	-0.00311726791789022	0.00835652610617532	-0.0102544336677791
5.6	0.00410547414898739	0.0125217084363801	1.92390490820795E-05	-0.00314324073387659	1.07219076566887E-05	-0.00314644878269558	0.00732551896556611	-0.011095880725127
5.7	0.00569817820185808	0.0108350608485445	-0.000411039055632157	-0.00311219624186832	-0.000427632065569571	-0.00311583974757961	0.00624179479310572	-0.0113815996897907
5.8	0.00704145241166355	0.00909740877869487	-0.000856042604467668	-0.00301686092027682	-0.000859582840470505	-0.00303082795809386	0.00545551166349335	-0.0116271218532559
5.9	0.00817167549945633	0.0072035741428078	-0.00126000298878579	-0.00287664584121282	-0.0012682214517456	-0.00287655895526088	0.00467707123020225	-0.0120083044033768
6	0.00891960301423831	0.0049161956929287	-0.0016572367697886	-0.00267030093864553	-0.00165368107575493	-0.00267046951995478	0.00362485625451785	-0.0123866252167448
6.1	0.00904914970691519	0.0023820459293027	-0.00201130282953675	-0.00241586820440794	-0.00201293726126652	-0.00241186924983014	0.00255940671817321	-0.0124706727353838
6.2	0.00850240625319791	-0.000140285365904248	-0.00232304636880997	-0.00210296096010509	-0.00232675608894856	-0.00211481018907527	0.00172356598732035	-0.0124509183881902
6.3	0.00755719597360911	-0.00247495416079233	-0.00259980030968878	-0.00176891826474942	-0.0026089099220051	-0.00176318446281869	0.00114116528530021	-0.0126302600464493
6.4	0.00619177142128593	-0.00474294606611087	-0.00282513311485949	-0.00137893513477519	-0.00281542807312634	-0.00138383363267607	0.000565317152719885	-0.0130506587961944
6.5	0.00430373721885472	-0.00679251008732177	-0.00298093356568761	-0.000974806704091803	-0.00298877865897171	-0.000970330520069905	-0.000188579592197081	-0.0135129563563712
6.6	0.00187908037776515	-0.00815304653471642	-0.00308855336669096	-0.000550846770786203	-0.00309018459469728	-0.00055481576223578	-0.00100975594789007	-0.0137223744458785
6.7	-0.000665027844332895	-0.00860834466815543	-0.00313888017572157	-0.000114188561255301	-0.00314771688010188	-0.000107920438113093	-0.00187217516090169	-0.0136820208908512
6.8	-0.00298895954627249	-0.00835422908252639	-0.00311737714137132	0.000326117300396478	-0.00312844953563224	0.000331155880141883	-0.00264238878992647	-0.0135250818160707
6.9	-0.00506613659876524	-0.00772886416495166	-0.0030422842140383	0.000758321277180652	-0.00304526590938551	0.000760707086009141	-0.0033957786129785	-0.0134289791641804
7	-0.00699585969742193	-0.00680087402930628	-0.00290613937041213	0.00117795880197356	-0.0029189445573118	0.00117576386480707	-0.00430711543730626	-0.0133391659283482
7.1	-0.00896885474244875	-0.0054634700892581	-0.00272914658645061	0.00156575910979794	-0.00272549214674682	0.00157441032988604	-0.00541184072036498	-0.01286477407609
7.2	-0.0107606347670994	-0.00347918283002099	-0.00247374530433031	0.00193288886341864	-0.00248026431042372	0.00193496121235105	-0.00618049122379736	-0.0119599265301658
7.3	-0.0120733060347024	-0.000915657086050352	-0.00217957678679155	0.00225138304375271	-0.00219077385368831	0.00225642089755234	-0.00634218912063321	-0.0111327252200869
7.4	-0.0126670026918969	0.00189318296437553	-0.00183944849260185	0.00253432321101792	-0.00184633114764741	0.00254790415778647	-0.00631875830673673	-0.0108686584458465
7.5	-0.0125461300497536	0.00459472284709742	-0.00147531310139138	0.00277370214258239	-0.0014683380481834	0.00278109306495977	-0.00633758710639657	-0.0110667888854757
7.6	-0.0118237328993917	0.00699461035476594	-0.00107047846871982	0.00295270469899192	-0.00107184645717619	0.00294801286437434	-0.00661507559415408	-0.0115185259487203
7.7	-0.0108089546872099	0.00914337711931173	-0.000643340310990962	0.0030747920463472	-0.000644677552083804	0.00307373021459033	-0.00727962141087653	-0.0122557298900112
7.8	-0.00903176375424602	0.0109167048241681	-0.000218569469047902	0.00312491014698325	-0.00022637539484043	0.00313135067967897	-0.00822294823367799	-0.0127575178993508
7.9	-0.00673451697583963	0.011987477149392	0.00022185736335012	0.00313315228166092	0.000229788607232338	0.00313465924506157	-0.00938074013642407	-0.0129936766837621
8	-0.00431293317758958	0.0124382542109756	0.000663241557305173	0.00306224308208661	0.000663316623662519	0.0030671383427562	-0.0108271174540509	-0.0128107045366398
8.1	-0.00199536831770686	0.0125037022098894	0.00107366520271131	0.00294568816744642	0.00109279574385787	0.00294679864042639	-0.0121326195261303	-0.0120934869266839
8.2	0.000268067567681822	0.012366071291695	0.00147846804801085	0.00276590816180048	0.00148771778857408	0.00275873044979919	-0.012965844893048	-0.0110076241640397
8.3	0.00266248989853437	0.0118858963340635	0.00185522757387213	0.00252788128022593	0.00185356760511799	0.00254142124468376	-0.013367420975241	-0.0100862892420634
8.4	0.00505448775015161	0.0108835547413855	0.00219142731887233	0.00225105945372667	0.00218839878948469	0.00225083119881198	-0.0137764034611418	-0.00951911550369592
8.5	0.00716104445303046	0.00920306498813644	0.00247779983856484	0.00192119722248125	0.00247689915694421	0.00192437832190728	-0.014518220779763	-0.00895109618341292
8.6	0.00867013217996951	0.00713097542356797	0.00272460088411396	0.00156149624774021	0.00273410503556623	0.0015549694949847	-0.0153384711816218	-0.00808377531826891
8.7	0.00964989652023064	0.00491627566844154	0.00291110791144912	0.00115935339610702	0.00291666516645148	0.0011600832575352	-0.015899523517188	-0.00696158546267663
8.8	0.0102900389503445	0.00270477999516471	0.0030484952848438	0.000748933488745484	0.00305427388177671	0.000740183075481292	-0.0161517796818267	-0.00594330776975276
8.9	0.0107998218799156	0.000237712434783944	0.00312681404265677	0.000315301185599973	0.00312594617486211	0.000313053276877193	-0.0160865294394441	-0.00506853203199049
9	0.0108627492913429	-0.00269691841730596	0.00313758109120643	-0.000127767387594601	0.00314073225264188	-0.000123662251726571	-0.0159532634211187	-0.00435320886329959
9.1	0.0101774442948174	-0.00587985316233611	0.00309245783648417	-0.000569208034580959	0.00309532461114675	-0.000556307172057676	-0.0157714497498714	-0.00367919244157397
9.2	0.0085959073503017	-0.00887696551057761	0.00298403372966825	-0.000987076297923236	0.00299169599490544	-0.000989942495387381	-0.015504065515838	-0.00308133326424937
9.3	0.00639158432926407	-0.011428614291635	0.00281649692719273	-0.00139289667407556	0.00281577302535314	-0.00139788922298821	-0.0151119980234833	-0.00263366704130477
9.4	0.00365916632042851	-0.0135621611167188	0.00259500972999322	-0.00178394922805025	0.00260151260423359	-0.00177633984383434	-0.0149101148562079	-0.00246387162034072
9.5	0.000267613231497997	-0.0149955395947251	0.00232062138397791	-0.00211930345041684	0.00232803843424866	-0.00212064108151191	-0.0150425292800266	-0.00215052196014865
9.6	-0.00365847798337272	-0.0156032062628059	0.00200416059985742	-0.00242420082520803	0.00200448926422304	-0.0024232178571258	-0.0154547151597714	-0.0015734222360894
9.7	-0.00776516427001122	-0.0150390056169728	0.00163726800025158	-0.00267612967848261	0.00164281595115352	-0.0026834328214515	-0.0156442483127565	-0.000638902247353043
9.8	-0.0116048888229095	-0.0134204123547559	0.00125234465049657	-0.00288643322119299	0.00125803514659016	-0.00287792159965026	-0.0155383796529833	0.00026893136566028
9.9	-0.0148881193118245	-0.0109258583705651	0.000846781676396209	-0.00302709582261941	0.000839443323850257	-0.00302587824329761	-0.0154568381238297	0.00102342172310549
10	-0.0176271376433823	-0.00792585023945168	0.000416082280866305	-0.0031177041942827	0.000408602894024068	-0.00313016745269338	-0.0154719601049727	0.00177613240358104
10.1	-0.0198029572941717	-0.00438541969042585	-2.69097812675811E-05	-0.00315039383793707	-3.71576905310667E-05	-0.00314500890491233	-0.0153717303460491	0.00264103666650471
10.2	-0.0212576701148534	-0.000295579587190149	-0.000474058406911969	-0.0031144964826689	-0.000477472062703535	-0.00311171874449444	-0.0149271793445879	0.00356492533320999
10.3	-0.0216980969076244	0.00419539677928736	-0.000907709648109846	-0.00300943742611023	-0.000899599700085662	-0.00301851128393573	-0.0141615542668216	0.00418793603770814
10.4	-0.0210022682285623	0.00862078267875914	-0.00130615068973344	-0.00285513512500377	-0.00130444640051892	-0.00286133639918808	-0.0133252808057598	0.00425611096236298
10.5	-0.0194594900571663	0.0127218657239886	-0.00169882659336214	-0.00265652633703395	-0.00169573204935025	-0.00264350613358488	-0.0128860793411671	0.00415796394914951
10.6	-0.0173086723809206	0.0164340312801224	-0.00205261111725114	-0.00238641113163226	-0.0020504182101922	-0.00239023698725888	-0.0126801678081648	0.00415321953746816
10.7	-0.0144409697367104	0.0200119725710568	-0.00236881800996791	-0.00208414851608067	-0.00236532295172149	-0.00207885743912882	-0.0124631259013853	0.00453038454436078
10.8	-0.0107728162262186	0.0231442500737014	-0.00263885214751457	-0.00172368102745206	-0.00263363896544916	-0.00173261572864691	-0.0121179578470323	0.00472772885058693
10.9	-0.00626647518408716	0.0255327275790981	-0.00284777830294433	-0.00134899543330725	-0.00285297410311812	-0.00134826679128417	-0.0119171561260594	0.00492452602801883
11	-0.00126660187239811	0.0268807761356909	-0.00300768529874952	-0.000931842185027702	-0.00301253279268116	-0.000938595474535925	-0.0118731448913918	0.00525374786539599
11.1	0.00382374478620647	0.0272243487118337	-0.00311672472429626	-0.000506072759439979	-0.00310585014557969	-0.000503203063815359	-0.0117035422381098	0.00584698695992846
11.2	0.00890740559174742	0.0266891287148776	-0.00314652908851761	-6.74411165175171E-05	-0.00315369098464123	-7.22883166532442E-05	-0.0110610145095323	0.00657322684569478
11.3	0.0140680886045268	0.0252977206324292	-0.00312004957479669	0.00038226753342273	-0.00313160604661481	0.00037221039868108	-0.00984638291166207	0.00705701537780247
11.4	0.0190255382695265	0.0228412637571835	-0.00304656461688484	0.00081110066572516	-0.00304164461328371	0.000818680090957315	-0.00864431880949193	0.00692258823654572
11.5	0.0234727270376646	0.0192135941380567	-0.0029032860831087	0.0012277796323017	-0.00290607072777897	0.00123807203494307	-0.00785200682365658	0.00634381659410925
11.6	0.0271084687475252	0.0146542189034319	-0.00270871626073679	0.0016192335364099	-0.00270869748245416	0.00162217860602179	-0.00721801358305709	0.00573260857010326
11.7	0.0297912049102418	0.00957805918576418	-0.00244699708785139	0.00197503149756341	-0.00244756156540656	0.00198365102602333	-0.00653545033183316	0.00500822928352148
11.8	0.0317023467220458	0.00413406870374916	-0.00215102987773375	0.00230822747273327	-0.00215515185394345	0.0023099295570897	-0.00592684617707684	0.00406135879354499
11.9	0.0328573804000565	-0.00179686012944289	-0.00180083797018874	0.00258522400042967	-0.00181388065933198	0.0025895424729887	-0.00569351360215668	0.00312775950481286
12	0.0326316154783537	-0.0081486485342433	-0.00142635383699242	0.00280893569618588	-0.00142575627659585	0.00281034967484285	-0.00593288218087051	0.00238512458671091
