# GHZ S RI R 50
0.2	0.00562648046045883	0.00186163212009866	0.00304831111022494	-0.000897660718569163	0.00305867887894581	-0.000890851225870761	-0.0143027859369383	0.00553326554578896
0.3	0.00617446369919469	-0.000388458605727211	0.0029042136884504	-0.00132088803037777	0.00289696590774595	-0.00130795085554537	-0.0132763187354877	0.00541925056945473
0.4	0.00593105300912954	-0.00235862879066103	0.00267283788348197	-0.00169249925739831	0.00267810702743128	-0.00170105851750224	-0.0127795242911983	0.00563180714221071
0.5	0.0050386077326457	-0.00395945226061342	0.00241436288376285	-0.00204914893729406	0.00242590412962378	-0.00206138565866642	-0.0124869326528146	0.00605171512056274
0.6	0.0037793753113553	-0.00502661468201896	0.00210226366675822	-0.00236377078802204	0.00210147971781519	-0.00237092126040146	-0.0122756751065714	0.00665993238735483
0.7	0.00234078900313212	-0.0055509305236608	0.00175549636188168	-0.0026418952165139	0.00175354005164899	-0.00264209487605136	-0.0120615065605406	0.00747952539705283
0.8	0.00104163850703459	-0.0056805546268388	0.00137029013880458	-0.00285983157230265	0.0013576880022793	-0.00286438729808999	-0.0116382001144451	0.00845869434517802
0.9	-0.000186480798648811	-0.00554371207186809	0.000953197106138597	-0.00302404247141338	0.000954236499408118	-0.0030347462288814	-0.0110034623260086	0.00932947866055699
1	-0.00133858857635148	-0.00531270205999415	0.000528037296072256	-0.00312811418059672	0.000518169880650211	-0.00312885749810977	-0.0102760567349357	0.0100112015944853
1.1	-0.00260972360742472	-0.00500164536671027	7.17824535261932E-05	-0.00315741892605735	6.827573298256E-05	-0.00317508227586968	-0.00973009989116675	0.0106274845527804
1.2	-0.00400644168407622	-0.00466071136457455	-0.000371186138476612	-0.00314704182932316	-0.000371998518453345	-0.00314496380787037	-0.00898727370461435	0.0113257778512921
1.3	-0.00554017135727974	-0.0042503910494984	-0.000799204870685655	-0.00306369358097532	-0.000802447862864529	-0.00306569972724702	-0.00765324380956731	0.0119929467463446
1.4	-0.00681288687992991	-0.00362828651066996	-0.00122131051342795	-0.00291493433471299	-0.00122009871098255	-0.00292047217133225	-0.00604476728699058	0.0119704879118919
1.5	-0.00742151775721631	-0.0024952724997182	-0.00162274170899464	-0.00271825996421082	-0.00162113345278288	-0.00272676697393719	-0.00474789072785121	0.0115922840729061
1.6	-0.00743891871423481	-0.000903110621819495	-0.00198350111692524	-0.00246486197450233	-0.00198371592288927	-0.00247009897338458	-0.00419821131751642	0.0116085199755549
1.7	-0.00683529688877327	0.000730881097458472	-0.00231173799916942	-0.00216701541919229	-0.00231269887038758	-0.00216075076125659	-0.00347824153558613	0.0119427318023821
1.8	-0.00580685200402909	0.00224010060416065	-0.00258220002215416	-0.00181471701646477	-0.0025931728417854	-0.00182034519421452	-0.00262221525232672	0.0121463417904528
1.9	-0.00448428662917848	0.00328689111174662	-0.00280674055721397	-0.00144349365568938	-0.00281917486939861	-0.00143732980563794	-0.00183987860834625	0.0122053882470614
2	-0.00309080586630889	0.00394364440404294	-0.00298150719189132	-0.00103568124513152	-0.00299112337620064	-0.00103096604589505	-0.00120641274540761	0.0122997380456805
2.1	-0.00169160592955583	0.00422975674890331	-0.00309411614519582	-0.000607477075312667	-0.00309003565296977	-0.000609471012832206	-0.000494104262775273	0.0124031079658751
2.2	-0.000329915661284858	0.004302088428734	-0.00315081782432333	-0.000169694584793802	-0.0031621180318389	-0.000172522752106755	0.000434862458079942	0.0124833439325375
2.3	0.00104563080778587	0.00401626983645819	-0.00314577294687508	0.000273042716385763	-0.0031454736436581	0.00026616317474538	0.00144247907630904	0.0123102967863133
2.4	0.00235220633981369	0.00342096618234236	-0.00307326219014003	0.000710688562814146	-0.00307580329641401	0.000706434092406946	0.00243737795443033	0.0119769697191682
2.5	0.00347594021398587	0.00241682346728398	-0.00293641458130478	0.00112242565694888	-0.00294729797277192	0.00112880481855877	0.00334209329623698	0.0114105330324388
2.6	0.00433264913779406	0.00114165508301399	-0.00276285786074854	0.00152518040998827	-0.00275930299973656	0.00151286127761304	0.00409946722379866	0.0107589509322084
2.7	0.00494352114529753	-0.000264765180700904	-0.00251731893155147	0.00189656522405401	-0.00252259816883651	0.00189657646853373	0.00464525617254808	0.0101200411867696
2.8	0.00542059355458292	-0.00179970717228452	-0.00223459736884378	0.00222434515839782	-0.00222678270169757	0.00223413443183206	0.00510140334188373	0.00966097101583776
2.9	0.00574513468222924	-0.00356152545319987	-0.0019001390436987	0.00252493371720453	-0.00189642946227344	0.00252450607755945	0.0057503702996091	0.00934451519446824
3	0.00564977714881815	-0.0055486974038094	-0.00151336156067065	0.00276073672149479	-0.00152814442840615	0.00276684245904843	0.00653086256085266	0.0090197163700136
3.1	0.00508801236395539	-0.00755407184759341	-0.00112231149557034	0.00293805334391904	-0.00111764885572574	0.00294639666168995	0.0072731264956256	0.00859899305967047
3.2	0.00394139442040726	-0.00942134318967829	-0.000700785756438069	0.00307503872009664	-0.000702531315043584	0.0030744290726455	0.00785861177267753	0.00823186038655375
3.3	0.00239790322701797	-0.0111148543081767	-0.000261327059787462	0.00314421593750572	-0.000259681249494381	0.00314047303769637	0.00862014310254572	0.0077397252141107
3.4	0.000410354396865276	-0.0124538700266687	0.000186329841060923	0.00313705412821115	0.000180142441476296	0.00315362911055424	0.00937590242826328	0.00692493827536986
3.5	-0.00190330050671438	-0.0134747747989659	0.000608569326636264	0.00309275905407957	0.000614165271082413	0.00309282714041237	0.00978900152431868	0.00581863005695417
3.6	-0.00454732421603444	-0.0139430056011163	0.00103698591600847	0.00297188894294225	0.00104517545167889	0.00297155957527908	0.00994149471706389	0.0049351563417469
3.7	-0.00727791527914727	-0.013768246962133	0.00144690774995827	0.00278925301314855	0.00143734723967431	0.0028029363731768	0.0101722262479002	0.00417873122854048
3.8	-0.00990141876457221	-0.0129519151715239	0.00182382645992215	0.00256072855755863	0.00182624246878223	0.00256986741501094	0.0104184323194489	0.00337992481968384
3.9	-0.0121529052564487	-0.0116564149065688	0.00216800440265422	0.00228670155346835	0.00216074448959518	0.00228493429937284	0.0105730961815637	0.00249960289854972
4	-0.0140980565654061	-0.0100639721143416	0.00245087448085832	0.00196525673730728	0.0024553143487189	0.00196282029266512	0.010641809091108	0.00170634176577029
4.1	-0.0157772604059511	-0.00819336318972746	0.00270103657752154	0.00160570312963883	0.00269978663516911	0.00160643896368031	0.0107818828165451	0.0010303291573387
4.2	-0.017189649493795	-0.00596533579406971	0.0028987575007509	0.00120546298986555	0.00290321031691547	0.00119675891364581	0.0109851686614696	0.000344536161691956
4.3	-0.0181677210493256	-0.00350364402887272	0.00304075175800439	0.000794759116835037	0.0030471607890959	0.000786967647707201	0.0112130386143493	-0.000533399875331711
4.4	-0.0187470984790867	-0.000855143757759438	0.00311664534591035	0.000362247653596491	0.00311901572086676	0.00035999493531192	0.0112343944244019	-0.00150384685514844
4.5	-0.0188741505557801	0.00187131127381315	0.00313956492898333	-7.41975488424404E-05	0.00314491782177792	-7.75640318412969E-05	0.0111284731647843	-0.00245661495358095
4.6	-0.0186405680075182	0.00457766297744918	0.00309621971019897	-0.000515723950395497	0.00309744028751486	-0.000502828256007698	0.0108526644441713	-0.00340662663690252
4.7	-0.0178864045077045	0.00732805638131889	0.00299205075600374	-0.000933725368322692	0.00300732442283694	-0.000943320903447796	0.010444067917332	-0.0042642172455308
4.8	-0.0166262226157158	0.00998372529246994	0.00283214651096683	-0.00134751584720535	0.0028406210384607	-0.00135359305335314	0.0100267723140313	-0.00498696011541285
4.9	-0.0146215021302141	0.0123455235523607	0.00261240938698764	-0.0017318573762711	0.00261657059127029	-0.00172895186090259	0.00966379077516043	-0.00560301749518156
5	-0.0121419702725278	0.0141072801632488	0.00235334225483135	-0.00208751560826344	0.00235696051959904	-0.0020848509011344	0.00951733503095522	-0.0061366885014385
5.1	-0.00925605951699224	0.0153124428290021	0.00204275580988876	-0.00239874678185239	0.00204505490553356	-0.00239738880531986	0.00948292332545976	-0.00676599243727824
5.2	-0.00629783182449798	0.0159148264598736	0.00168494424079681	-0.00264913789033939	0.00168665754334216	-0.0026542781964676	0.00945516500280715	-0.00743793135028383
5.3	-0.00325080065128938	0.0159761365253458	0.00129773621469139	-0.00286471156238515	0.00130086736916461	-0.00286265009399421	0.00941851807911657	-0.00814232241787618
5.4	-0.000270601220263662	0.0154374620649039	0.000872339087738271	-0.00301189693798392	0.000889490718751173	-0.00302310348177471	0.00930367160732084	-0.00911388323975329
5.5	0.00240088064783171	0.0143383915152585	0.000458356025847404	-0.00310898773509777	0.000468396685714237	-0.00311841297834831	0.00879770838682433	-0.0102041219330705
5.6	0.00463066407806839	0.0127946473613763	1.98549358347831E-05	-0.00314400254209343	1.13363438592576E-05	-0.00314721302837176	0.0078776818170171	-0.0110025201645616
5.7	0.00634075908062078	0.0110373664312288	-0.000410668933290377	-0.0031122954173127	-0.000427261765774637	-0.00311594098900931	0.00688325518358053	-0.0113882211578403
5.8	0.007665546033173	0.0091425288463525	-0.000855425255772056	-0.00301629577692814	-0.000858962729654983	-0.0030302601389873	0.00602832945205725	-0.0117808676083273
5.9	0.00863466952199008	0.00716613418595739	-0.00125868909311592	-0.00287565919146191	-0.00126690383374895	-0.0028755744586375	0.00506714954083838	-0.0121903344701446
6	0.00921213945738427	0.00495580098210184	-0.00165494807465927	-0.00266936668541051	-0.00165139456619539	-0.00266953351662998	0.00387657179950406	-0.0124363296285399
6.1	0.00929367262724638	0.00258097240171304	-0.0020080315007305	-0.00241554919094571	-0.00200966765521877	-0.00241155441195591	0.00282217556398164	-0.0123498404206105
6.2	0.00879978921321772	0.00015979274369639	-0.00231907494166203	-0.00210380532764759	-0.00232276940130584	-0.00211564946252843	0.00207591060033558	-0.0122522589867428
6.3	0.00788414327828005	-0.00213824484497304	-0.00259562167443779	-0.00177132191929866	-0.00260473310533387	-0.00176560451821008	0.00153448696277352	-0.0124115062366013
6.4	0.00652636955183949	-0.00432066605237514	-0.002821470362879	-0.00138305050312578	-0.00281176164383231	-0.00138793030775697	0.000995638902209627	-0.0127557628232942
6.5	0.00475437624272862	-0.00626106788636462	-0.00297850352763846	-0.000980418843872809	-0.00298635589785152	-0.00097595869898637	0.000394381664700596	-0.0131576582882421
6.6	0.00253117920001174	-0.00764994920194154	-0.00308797318708808	-0.000557478383079643	-0.00308959633533878	-0.00056145157257047	-0.000238608350591737	-0.0134736450374126
6.7	9.23977373131683E-05	-0.00828772857993796	-0.00314053963631977	-0.000121109203560789	-0.00314939539555889	-0.000114856556744445	-0.00106442710396461	-0.013656693394357
6.8	-0.00230572016605701	-0.00820403555473316	-0.00312133418181424	0.000319796400790669	-0.0031324289231236	0.000324816587652969	-0.00196894815916532	-0.0136429824471302
6.9	-0.00452434543558568	-0.00759040901458801	-0.00304824027878368	0.000753432403610472	-0.00305123105150078	0.000755815829093267	-0.00286497170451521	-0.0135099041495998
7	-0.00649731686435651	-0.00656378013155275	-0.00291346977696643	0.00117518245250821	-0.00292629471836778	0.001172961738348	-0.00377268193570567	-0.0133153671450939
7.1	-0.00837147008489955	-0.00516923370121642	-0.00273701744905232	0.00156542685653285	-0.00273336683396339	0.00157410127742314	-0.00475286899154116	-0.0128410731449466
7.2	-0.010040611886296	-0.0032864799024642	-0.00248118838806181	0.00193505956922663	-0.0024877242445451	0.00193713070774081	-0.00544472238210868	-0.0121058381364996
7.3	-0.0113744900391716	-0.0009379563741002	-0.00218575590508834	0.0022556548603753	-0.00219698165705097	0.00226069931194039	-0.00572041134730858	-0.0114990419370561
7.4	-0.0121538196611214	0.00174466458242809	-0.00184374943048108	0.00254005541938667	-0.00185064832704892	0.00255366719190355	-0.005976354961167	-0.0112850365031461
7.5	-0.0122742247440872	0.0044826423503638	-0.00147746541429454	0.00278008560781301	-0.00147047302272043	0.00278748973012228	-0.00624315396435117	-0.0113508557135011
7.6	-0.011735417778209	0.00701101935180111	-0.00107051433890004	0.00295887935236924	-0.00107188795455795	0.00295417972973144	-0.00660415918036308	-0.0116518530298836
7.7	-0.0107133592340406	0.00928743004972738	-0.000641647777598093	0.00308005191920148	-0.000642987986823525	0.00307898962814365	-0.00726044476117007	-0.0121997580012147
7.8	-0.00897763466388499	0.0111742785526649	-0.00021580342175282	0.00312879057406954	-0.000223612282791725	0.00313524621924222	-0.00819217867092887	-0.0125582620688362
7.9	-0.00661452695336554	0.0124401943012298	0.00022501392259579	0.00313553991475613	0.000232953173082363	0.00313704060299333	-0.00927367863400859	-0.0125421148499432
8	-0.00411315935440358	0.0130568697005086	0.000666107198384693	0.00306331897088175	0.000666186324361746	0.00306821676046596	-0.0104563023473565	-0.0123433989811618
8.1	-0.00151205506517584	0.0131601147000349	0.00107577724784606	0.00294593934458949	0.00109491431450526	0.00294703857421237	-0.011488701625027	-0.0116458197299771
8.2	0.000924224352270646	0.0128978692785312	0.0014796591940523	0.00276592577175012	0.0014889082513344	0.00275874366538779	-0.0121991760466663	-0.0107780703143894
8.3	0.00332916503152793	0.0122643716293213	0.00185565121178019	0.00252826252843764	0.00185399144834893	0.00254180496383262	-0.0126569713409619	-0.0100255595178641
8.4	0.00564735759450855	0.0112205110290045	0.00219152148771572	0.00225223866868796	0.00218849213532853	0.00225200961969882	-0.0131573407315779	-0.00947780156999699
8.5	0.00774603874929831	0.00960205518104078	0.00247817181302593	0.00192331451616735	0.00247726920786951	0.00192649681495624	-0.0138807189748814	-0.00885815595672042
8.6	0.00936890760830068	0.00755901503749074	0.00272587262129587	0.00156437236666678	0.00273538831229855	0.00155784598673472	-0.0145839454514302	-0.0080293645906431
8.7	0.0104726783578182	0.00523501746611299	0.00291376028357964	0.00116248589746978	0.00291932351499791	0.00116322002366501	-0.015090977659102	-0.00709051536842365
8.8	0.0111095330572508	0.00281739076931947	0.00305274406935177	0.000751639811160495	0.00305853595069055	0.000742879068536165	-0.015465756957338	-0.00627185766036094
8.9	0.0114648026747685	0.000217962779633387	0.00313253155127	0.000316786598618064	0.00313166271818502	0.000314534264557447	-0.0156304744088485	-0.0054381433895386
9	0.0113652958396521	-0.00269820227674976	0.0031442522514172	-0.000128200646369632	0.00314741033057446	-0.000124086935539949	-0.0156464262974108	-0.00460941546456723
9.1	0.0106259950901257	-0.00580950463636929	0.00309929297034855	-0.000571992178143652	0.00310217249082564	-0.000559063036295296	-0.0154819489181417	-0.00382234668070414
9.2	0.00901096288054195	-0.00879287342184623	0.00299009148425338	-0.000992248571742185	0.00299776898694999	-0.000995128828570435	-0.0152280830156678	-0.00318710784925468
9.3	0.00671698901234777	-0.0113216137793819	0.00282083633291602	-0.00140013364527492	0.00282010354502107	-0.00140513642086115	-0.0148986877216915	-0.00266728682474286
9.4	0.00388850444604302	-0.0133179818355039	0.00259686244125531	-0.0017925738816112	0.00260339319548116	-0.0017849615112445	-0.0147048069801612	-0.00230238584721916
9.5	0.000534760612307364	-0.0146108867429828	0.00231963380604138	-0.00212827088678114	0.00232706030514894	-0.0021296279807766	-0.014704103406212	-0.00187937223883053
9.6	-0.00324783213610058	-0.0151306208421166	0.00200031511822033	-0.00243247970547798	0.00200064676778614	-0.002431496370034	-0.0149149323864416	-0.00131423428770868
9.7	-0.00722404342601631	-0.0146193446074028	0.00163100482144099	-0.00268269188446039	0.00163653648159692	-0.00269001595331517	-0.0150064431188969	-0.000529953136835241
9.8	-0.0110509962002985	-0.0131079732057794	0.00124443970093688	-0.00289058603368513	0.00125015548552068	-0.00288208872239416	-0.0149636626933315	0.000245766983350917
9.9	-0.0144028334367298	-0.0106478602524747	0.000838285833430363	-0.00302848915787079	0.000830953006091391	-0.00302725196778977	-0.0149947609336038	0.000999199990186332
10	-0.0171796208787757	-0.00758987975330182	0.00040800635053535	-0.0031163909762587	0.00040050156851563	-0.00312882622152385	-0.0150342160290984	0.00183513309576661
10.1	-0.0193027866417924	-0.00401003085385701	-3.36628328846869E-05	-0.00314683388356196	-4.38877563980426E-05	-0.00314143287214888	-0.0148719867697338	0.0027225939279043
10.2	-0.020708994598261	2.38102102002317E-05	-0.000478855952731162	-0.00310947245837943	-0.000482260160343924	-0.00310669250448999	-0.01441546008828	0.00357765061087765
10.3	-0.0212090604571231	0.00443714526342453	-0.000910338543987968	-0.00300389967245619	-0.00090225219793036	-0.00301297103650317	-0.0137521292915967	0.00417174338858211
10.4	-0.0206358257971552	0.00889180897371112	-0.00130685945427063	-0.00284996333829808	-0.00130516308030528	-0.00285615742362291	-0.0130128081814711	0.00435315565637835
10.5	-0.0191385294374092	0.0131268403001176	-0.00169813691871212	-0.00265233503203394	-0.00169503927990893	-0.00263933258862365	-0.0125233887844283	0.00442038259283521
10.6	-0.0168711461371653	0.0169721796724032	-0.00205125052479417	-0.0023835333378181	-0.00204906078291123	-0.00238735605204068	-0.0121855746753612	0.00451950730041616
10.7	-0.0139450170450657	0.0205293966550301	-0.00236755305326421	-0.00208249381693751	-0.00236405957568482	-0.0020772066161635	-0.0118325209895296	0.00477459190603211
10.8	-0.0102721793874176	0.0236462288099003	-0.00263826857353304	-0.001722831063595	-0.00263305808084583	-0.00173176371142449	-0.0115100873943516	0.00489903919876028
10.9	-0.00576688459587203	0.0260727273949645	-0.00284816032304965	-0.00134829452970289	-0.00285335601342887	-0.00134756456321185	-0.0113033447554974	0.00512729522146646
11	-0.000687314728063381	0.0275052775776284	-0.0030089385655596	-0.000930589960877378	-0.0030137906928689	-0.000937342610741198	-0.0111434060809429	0.00548793938733704
11.1	0.00458575922181485	0.0278541951216193	-0.00311842334899188	-0.000503688471273681	-0.00310754192560348	-0.000500826642115619	-0.0108069950808629	0.00597412754163015
11.2	0.00983416915436757	0.0271685142199152	-0.00314797370147076	-6.36284567380571E-05	-0.00315514461665382	-6.84690108906453E-05	-0.0101134058936223	0.00645779632297919
11.3	0.0150147254244991	0.025485592466483	-0.00312041269988789	0.000387460688231985	-0.00313198916934815	0.00037741916802007	-0.00898455770923636	0.00666902557678741
11.4	0.0198482009352268	0.0228746601868751	-0.00304511683087197	0.000817232027618242	-0.00304018140910082	0.000824802054060915	-0.00800838369499287	0.00646937893817375
11.5	0.0241866376427197	0.0192324406331411	-0.00289953067271946	0.00123403940258758	-0.00290229081494549	0.00124433485785486	-0.00736955244989503	0.00598151579457805
11.6	0.0277476800991901	0.0146268465596295	-0.00270252590384164	0.00162464474795009	-0.00270249984202919	0.00162758740353939	-0.00680378966403848	0.00537814618856662
11.7	0.030317255517494	0.00946449715906847	-0.0024387153860049	0.00197855233812827	-0.00243925733629513	0.00198716168886345	-0.0062525420164833	0.00463543481064226
11.8	0.0320079975011255	0.00399376737263607	-0.00214134926118494	0.00230902836753965	-0.00214545926548266	0.00231073717330036	-0.005848430963632	0.00378218091087049
11.9	0.0328021143374487	-0.00178819258214038	-0.00179077527975526	0.00258257962008665	-0.00180377593037787	0.00258691515898125	-0.00581205801709457	0.00310352354235077
12	0.0326041716665696	-0.00787892696047574	-0.00141732290941142	0.00280334079379848	-0.00141672459368409	0.00280474965131217	-0.00589414843003121	0.00264459240422352
