# GHZ S RI R 50
0.2	0.00567909556328587	0.00395821355529394	0.00304837238820999	-0.000895756229939876	0.00305873464149599	-0.000888941747074571	-0.0142896804318432	0.00757515776360117
0.3	0.0065027975015988	0.000428630758425413	0.00290520114679736	-0.00131768792006809	0.00289794086426538	-0.00130476001875773	-0.0129924551700427	0.00619494871482766
0.4	0.00580814653247676	-0.00232981448931664	0.0026756536808089	-0.00168839665271518	0.00268093658469855	-0.00169694812904952	-0.0129114351034291	0.00562420985256388
0.5	0.00424046724627442	-0.00405263089471162	0.00241974480940512	-0.00204503971779547	0.0024313168822122	-0.00205725790948946	-0.0132414697279131	0.00587988238073234
0.6	0.00256125715857545	-0.00470955435686655	0.0021104074906756	-0.00236099250776554	0.00210964064368641	-0.00236815248663311	-0.013433271142768	0.00680618487768579
0.7	0.00119876479721125	-0.00467782083288402	0.00176595307030329	-0.00264185923364783	0.00176399375877596	-0.00264206463930557	-0.0132004811329989	0.00808852412287518
0.8	0.000371243217939738	-0.00451441322792639	0.00138187937062861	-0.00286368845336521	0.00136925613125351	-0.00286829128086933	-0.0124191247245562	0.00933716040445332
0.9	-0.000340975348860094	-0.00453810171072553	0.000964242686983457	-0.00303240856393738	0.000965312857055936	-0.00304314783820517	-0.0113579948970677	0.0101277903261581
1	-0.0012977989191665	-0.00478668597563402	0.000536675271816049	-0.00314078561092512	0.000526766022086743	-0.00314155212559008	-0.0104091087583924	0.0104659054708864
1.1	-0.00282607844773475	-0.00491011781118126	7.61460355819634E-05	-0.00317333683654806	7.26439100215113E-05	-0.00319109418571042	-0.00995579480078298	0.0107181164518667
1.2	-0.00471145153212495	-0.00465253408920058	-0.000372195404585067	-0.00316455137189666	-0.000373012960465038	-0.00316246213867932	-0.00949380230879917	0.0112559241070815
1.3	-0.00655905606299932	-0.00400178238234743	-0.000805950747530594	-0.00308061137246166	-0.000809213680796223	-0.00308262665794991	-0.00836902713013668	0.0119839127389648
1.4	-0.00787349176890764	-0.00314864340592809	-0.00123333046634663	-0.00292907254275685	-0.0012321217353064	-0.00293464352319128	-0.00680526276582784	0.0120790076532905
1.5	-0.00842823390481707	-0.00177806821641683	-0.00163869673091723	-0.00272786686947547	-0.00163710370990893	-0.00273642247963347	-0.00547161843853867	0.0118314455438665
1.6	-0.00824339331060621	9.29572880965909E-05	-0.00200134068818976	-0.00246885951902355	-0.00200157532212538	-0.00247411941244168	-0.00486125293564797	0.0120018316071576
1.7	-0.00727350504323024	0.00183809954344643	-0.0023292599848771	-0.00216524787257586	-0.0023301981243616	-0.00215895630519499	-0.00395771456140178	0.01242917806807
1.8	-0.00590909280555714	0.00320307550099954	-0.00259724035803504	-0.00180799638007833	-0.00260826775225802	-0.00181359042719831	-0.00289872960119141	0.0125907996253309
1.9	-0.00449898319976996	0.0039780075859663	-0.0028179054370683	-0.00143341250623866	-0.00283033322026093	-0.0014271828337994	-0.00201235256683034	0.0125158957934641
2	-0.00322688194160806	0.00447196902231852	-0.00298812627475897	-0.0010241983457199	-0.00299773057964062	-0.00101943976947536	-0.00138754199891858	0.012481279444549
2.1	-0.00196025505168002	0.00480597940540725	-0.00309651799857553	-0.000596624728437707	-0.00309244418854245	-0.000598633213786108	-0.00073997647208394	0.0125362535570861
2.2	-0.00055328347705988	0.00502307829948281	-0.00315020530722435	-0.000161032236778547	-0.00316150937924526	-0.000163828579215053	0.000156662941962476	0.0126502179910268
2.3	0.0010352794892678	0.00475452009297121	-0.0031438991961295	0.000278751068089343	-0.00314361276640423	0.000271873963668755	0.00121141135001537	0.0125242797954498
2.4	0.00251041461698802	0.00395629833301646	-0.00307198617160119	0.000713661602906909	-0.00307453111052847	0.000709410470886206	0.00230105617382453	0.012172804532731
2.5	0.00357387253633279	0.00266653839954824	-0.00293722319248693	0.00112379499065651	-0.00294810888185129	0.00113018010579139	0.00327197968593053	0.0115238449135662
2.6	0.00419720249731797	0.00126414552307206	-0.0027664383122475	0.00152672009793932	-0.0027628775893484	0.00151438625576943	0.00403038273821576	0.0107768460304589
2.7	0.00462222823279359	-8.6937194381204E-05	-0.00252332845942785	0.00190021105266175	-0.00252861941340194	0.00190022114239273	0.00454328286334227	0.0100813282915071
2.8	0.00502739665338357	-0.0015556465726672	-0.0022417599032136	0.00223168286135535	-0.00223391936625525	0.0022415036024375	0.00498267880619702	0.00959472917925376
2.9	0.00526192962771276	-0.00330674903448295	-0.0019063790328803	0.0025368567103137	-0.00190265415882658	0.00253642471046653	0.00563277366737442	0.00924302442110635
3	0.00501438108418927	-0.00520162055875115	-0.00151625183679081	0.00277692795615742	-0.00153109771550803	0.0027830885671721	0.00640236088844691	0.00886527906859221
3.1	0.00436778497065111	-0.00696966039964852	-0.00111982363067191	0.00295719957058596	-0.00111511150169381	0.00296557440608427	0.00708998208605629	0.00840431181059152
3.2	0.00332441118758033	-0.00860272900312153	-0.000691357454695648	0.00309491221942153	-0.000693115208650237	0.00309430676318127	0.00763287019209282	0.00805332585826446
3.3	0.00196460920690258	-0.0102149624327452	-0.000244562286659621	0.00316189690509286	-0.000242929566616833	0.00315812527033276	0.00837921552068993	0.00758443870384508
3.4	8.32970373411911E-05	-0.0115986159752729	0.000209500695367636	0.0031495094684693	0.00020340421114606	0.00316620136133102	0.00915200032901076	0.00677790546867451
3.5	-0.00225562755278026	-0.0126445817161242	0.00063618308850828	0.00309779041200083	0.00064179782641907	0.0030978123436279	0.00958504610243089	0.00562816107145546
3.6	-0.00489717704646861	-0.0129989142635855	0.0010659911127478	0.00296779424642963	0.00107419244520786	0.00296738952018744	0.00971731122494945	0.0047156953989541
3.7	-0.00748838289312072	-0.0126960736878817	0.00147380706291271	0.00277583292161144	0.00146437600184625	0.00278960979782087	0.00989822184066469	0.00394553093707785
3.8	-0.00987993468016726	-0.0119043308159853	0.00184536740293242	0.00253925300786228	0.00184786679229919	0.00254835428479019	0.0101094912236407	0.00318495175796999
3.9	-0.0120061964957016	-0.0107959154890744	0.00218162404127929	0.00225960922965834	0.00217437183863057	0.00225791346395429	0.0102843675348396	0.00235556924935139
4	-0.0140110928727067	-0.00936580261564595	0.00245521304121861	0.00193604171404154	0.00245961208090694	0.00193358077052638	0.0104054034666231	0.00156954575811509
4.1	-0.0157891352714125	-0.00750258510665816	0.00269614143071674	0.0015778177797338	0.00269490385760332	0.00157855783131803	0.0105699305936911	0.000858554127276665
4.2	-0.0171802900609773	-0.00522567439555724	0.00288611680395268	0.00118213069831385	0.00289049408515435	0.00117346014879604	0.0107539970128401	0.000153620812664679
4.3	-0.0180596501772613	-0.00283728300508255	0.00302308482910996	0.000778077575525479	0.00302942146707682	0.000770315136686032	0.0109748014201569	-0.000707648141249364
4.4	-0.0186636583064506	-0.000372025411156976	0.00309717477054256	0.00035305725222705	0.00309952479252823	0.000350813983149909	0.0110360060489345	-0.00164601290276882
4.5	-0.0189889950932093	0.00224018172094184	0.00312131927425671	-7.66101091785608E-05	0.00312663812551774	-7.99619456593668E-05	0.0110034631769881	-0.00261545246840759
4.6	-0.0189792828284643	0.00502915902798346	0.00308153382176661	-0.000513204454332072	0.00308274830782097	-0.000500369947762615	0.0107799799865609	-0.00362961669510928
4.7	-0.0183067554660749	0.00796940385750827	0.00298202570637582	-0.000928921164971949	0.00299725066238021	-0.000938475226553024	0.010357370339251	-0.00457078686433655
4.8	-0.0169741546931256	0.0107553470527426	0.00282652608226335	-0.00134302717876057	0.00283498486034147	-0.00134908638681351	0.00992604996626872	-0.0053190270657356
4.9	-0.0149461548069003	0.0131290056872169	0.00260974934050309	-0.00172981050419649	0.00261390588078756	-0.00172690777887213	0.00955718120598173	-0.00595104430679669
5	-0.0125260546142737	0.0149503925563979	0.00235136674960247	-0.00208901476275008	0.00235498651923278	-0.00208635326257337	0.00942714293198953	-0.00654310450542068
5.1	-0.00961746440566299	0.0163284847724634	0.00203894715147404	-0.00240361568651436	0.00204124976055265	-0.00240226159605727	0.00935223373491757	-0.00726915487704567
5.2	-0.00645228044367973	0.0170412702981964	0.00167719448863519	-0.00265590918071274	0.00167889198336309	-0.00266105758339682	0.00921169483433306	-0.00798029918267237
5.3	-0.00317866701082803	0.0169940280167007	0.0012847528994622	-0.00287100327592437	0.00128789387975023	-0.00286895592201515	0.00908595967393978	-0.00861345630933383
5.4	-0.000170687172537134	0.0162339101298516	0.000854201680740446	-0.00301476443852934	0.000871275664742927	-0.00302606244838596	0.00898748816402851	-0.00948686879724274
5.5	0.00234985434984286	0.0150384829753394	0.000436388640470822	-0.00310585791698832	0.000446345359786275	-0.00311533224151595	0.00856013143562665	-0.0105609530863809
5.6	0.00446512663317451	0.0136001499036705	-3.2883717197412E-06	-0.00313278821473921	-1.17997434674123E-05	-0.00313592458896004	0.00766415439117898	-0.0114312960176964
5.7	0.00626143460498734	0.0119721404600915	-0.000431526273008184	-0.00309235781827509	-0.000448056093076247	-0.00309586052319738	0.00659504163783643	-0.0118888862032159
5.8	0.00779025873539484	0.0100500240605988	-0.000870150435363432	-0.00298836288203668	-0.000873759163982029	-0.00300220086324204	0.00560813659645467	-0.0122149962577235
5.9	0.00885978714767855	0.0078316214957082	-0.0012643812675015	-0.00284223748950189	-0.0012725213551734	-0.0028421048049219	0.00462052430179792	-0.0124494369502843
6	0.00929040191563551	0.0053661472977201	-0.00164941142305992	-0.00263412114810832	-0.00164589584422759	-0.00263430192148338	0.00356259972611276	-0.0125489442785111
6.1	0.00909872341232111	0.00294219461896423	-0.0019910836104308	-0.00238282104923919	-0.00199269097996369	-0.00237886794597794	0.0026973364969645	-0.0124515068113759
6.2	0.00844380485048539	0.00064748779832197	-0.00229226077524535	-0.00207789549137114	-0.00229591570137574	-0.00208959726658444	0.00206933313848088	-0.0124229044208166
6.3	0.00752520140045318	-0.0015599791307147	-0.00256193750862499	-0.00175523165891545	-0.0025709523342403	-0.00174959789851527	0.001620214219309	-0.0126051568131441
6.4	0.00604762003123333	-0.00370833389243465	-0.00278514540246936	-0.00137873577523645	-0.00277552451728741	-0.00138352454684307	0.00119914890492248	-0.0129860696769456
6.5	0.00409965306668354	-0.0054411876563459	-0.00294409856881123	-0.000987498873017886	-0.00295189951205278	-0.000983125840996803	0.000705611101022436	-0.0135582445203464
6.6	0.00192475157210217	-0.00647996667265959	-0.00305926245061634	-0.000574079378642551	-0.00306084536509772	-0.000578031616537026	1.48530161337756E-05	-0.0141173239792401
6.7	-0.000201120552857643	-0.00693716388094909	-0.003120166542023	-0.000144027809307604	-0.00312901455038864	-0.000137880649473522	-0.00101147365603953	-0.0144207365481531
6.8	-0.00231447727122921	-0.00698650149463557	-0.00311037245504199	0.000294512743792101	-0.0031214579806329	0.000299426374184579	-0.00207407056519866	-0.0143481013314451
6.9	-0.00453167120936989	-0.0065709373245648	-0.00304593589665722	0.000729466539791908	-0.00304893630157253	0.000731822268623308	-0.00299993704939217	-0.0140790455378342
7	-0.00668659504624081	-0.00560268412012084	-0.0029177286521512	0.00115544882119988	-0.00293052551914137	0.00115314931851829	-0.00379730281135716	-0.0139050889088412
7.1	-0.0086657702147704	-0.00400091191995027	-0.00274478100114863	0.00155141391975394	-0.00274117470657526	0.00156010628699783	-0.00475649846721355	-0.0136004775588421
7.2	-0.0101505227536378	-0.00185869834886783	-0.00248930690541218	0.00192692622023842	-0.0024958531776934	0.00192897458776108	-0.00562819807536558	-0.0130244864165603
7.3	-0.0110868528498357	0.000493155115483502	-0.00219146430299039	0.00225193134837082	-0.00220270544082051	0.00225695397282949	-0.00619258118186273	-0.0123788337614813
7.4	-0.0115192727980295	0.00293623834847137	-0.0018454206754188	0.00253825345120795	-0.00185232898062509	0.00255185785751529	-0.00672233516667498	-0.0117786902108254
7.5	-0.0116193889153788	0.00522150855425908	-0.0014748574627294	0.00277720627759878	-0.00146787119831293	0.00278459942827666	-0.00690809778372949	-0.0115031688329203
7.6	-0.011432595742913	0.00736792935096008	-0.00106494065645895	0.00295214383326117	-0.00106631508491004	0.00294745779029124	-0.00699564721857387	-0.011868854951869
7.7	-0.0105048729297626	0.00953944700628948	-0.000635778766291718	0.0030676295166707	-0.000637114369732962	0.00306657310428542	-0.00745089237423688	-0.0122109589083103
7.8	-0.00900534184339527	0.0113069720286005	-0.000212949191759434	0.0031103941907212	-0.000220708611728094	0.00311681559205803	-0.00817773042651565	-0.0125519965436503
7.9	-0.00679618959922145	0.0124177267192968	0.000221432408916875	0.00311239014303432	0.000229311782259956	0.00311388452318859	-0.00892294332230732	-0.0123567378096453
8	-0.00501840998405009	0.013459550086177	0.000653423557167828	0.00303855484533691	0.00065349086155004	0.00304341079784168	-0.00998975305746818	-0.0127980031856321
8.1	-0.00240261449252352	0.0139745956319936	0.00105308723914943	0.00292346685156035	0.00107204323871203	0.00292463897131831	-0.010860029463769	-0.0123199466149133
8.2	0.000212154845981636	0.0140957279584936	0.00144771717506647	0.00275028799382848	0.00145692874761666	0.002743233252101	-0.0117658993327508	-0.0117320171799178
8.3	0.00286238590096043	0.0135448913420286	0.001817344306202	0.00252334167188563	0.00181557785940434	0.00253675429960081	-0.0124412406340915	-0.0110240111982322
8.4	0.00522871283963813	0.0124358140933842	0.00215116334799186	0.0022602827196813	0.00214815808667597	0.00226002201090244	-0.0129907729585216	-0.0104202193680922
8.5	0.00720453032853458	0.0108936367225209	0.00244099620238847	0.00194467008281117	0.00244005804305532	0.00194782445872937	-0.0136350188621045	-0.00986655469711512
8.6	0.00881055157714598	0.00916095152766576	0.00269662922357886	0.0015973456863238	0.00270620742706317	0.0015909685520497	-0.014351799444462	-0.00927776721622974
8.7	0.0101906327314775	0.00714242730618915	0.0028964516013749	0.00120338716274931	0.00290200281021936	0.0012041998172038	-0.0151191160173834	-0.00855017000300465
8.8	0.0112867940590961	0.00473572867938918	0.00304921457689317	0.000795740130870937	0.00305514124445267	0.000787040000635532	-0.0158661601893775	-0.00773129757062322
8.9	0.0119413357017298	0.00183303415687051	0.00314289278791501	0.000358886640980473	0.00314204915957405	0.000356612631355352	-0.0162726684496543	-0.00666129842304433
9	0.0118347347415628	-0.00140802371424494	0.00316646373095771	-9.28776358173687E-05	0.00316959531784548	-8.87004669275854E-05	-0.0162894865951441	-0.00559541215359186
9.1	0.0110573883767495	-0.00468970724717143	0.00312976457836658	-0.000546769189802123	0.00313254285191485	-0.000533708182591608	-0.0160393077177815	-0.00470536463263404
9.2	0.00940569916476563	-0.00779553457290127	0.00302418286214741	-0.000978633989522764	0.00303195039660163	-0.00098148225136875	-0.0157788690080981	-0.00401322987695967
9.3	0.0070283447917203	-0.0105422214428718	0.00285405140269302	-0.00139782899398152	0.00285333866892947	-0.00140288132150658	-0.0154096315757965	-0.00333654098747217
9.4	0.00387882980155013	-0.0126387654806413	0.00262543036247797	-0.00179955593543654	0.00263199269522028	-0.00179185558262433	-0.0149971782738744	-0.00275869672241017
9.5	0.00013519222872769	-0.013903136209407	0.00234105578036122	-0.00214097009176152	0.00234854197996017	-0.00214232560078188	-0.0147577758959422	-0.00249193470611122
9.6	-0.00381413826932453	-0.0140430167557354	0.00201402435632581	-0.00244710115936036	0.00201435770578478	-0.0024461114417522	-0.0148594257836154	-0.00217052128771045
9.7	-0.00761725987539541	-0.0131915005057698	0.00163812063649682	-0.00269564508826097	0.0016436767972826	-0.00270300474388412	-0.0150837596312191	-0.00158199214934567
9.8	-0.0111247259629771	-0.0116300679460535	0.00124767411295179	-0.00289947009543338	0.00125340850481912	-0.00289094828318148	-0.0152416937295578	-0.000774298266537148
9.9	-0.0142962183707084	-0.00941362944935376	0.000841053222694724	-0.00303247735732871	0.000833709072135407	-0.00303124210443583	-0.0152827099323371	0.000129319358849378
10	-0.0171698388908773	-0.00650247706754397	0.00041364063974348	-0.00311657807232039	0.000406155675701994	-0.0031290302271375	-0.0151894495633529	0.00104290063743884
10.1	-0.0193807293336654	-0.00287219474440306	-2.27765673307464E-05	-0.00314595800383171	-3.30169330608719E-05	-0.0031405940334237	-0.0149355600358783	0.00183134612322184
10.2	-0.020684548126328	0.00120532306560997	-0.000462078296961236	-0.0031113101661143	-0.00046549660609819	-0.00310854910888903	-0.0145731350588314	0.00260311295092672
10.3	-0.0210762666461555	0.00541951563965429	-0.000889137093279568	-0.00301222888670204	-0.000880980431294726	-0.00302124702124363	-0.0140302655390279	0.00332052635149997
10.4	-0.0206941631686941	0.00956978530496901	-0.0012844226802198	-0.00286745419955673	-0.00128266806925826	-0.0028736462396594	-0.0131962990045015	0.003718995498936
10.5	-0.0196538410932479	0.013758538575456	-0.00167887499778443	-0.00268024321096609	-0.00167589355772859	-0.00266715585379238	-0.0124353026652878	0.00381429787671893
10.6	-0.0177482669347933	0.0179150072630656	-0.00204011321976454	-0.00242058648808628	-0.00203786933709365	-0.00242441180313796	-0.0119229277451202	0.0037017474177488
10.7	-0.0149842480737004	0.0218348634743204	-0.00236844035726144	-0.00212556343672973	-0.00236496787004154	-0.00212019223932514	-0.0116356206136248	0.00365293431291159
10.8	-0.0110744376858677	0.0251947155200519	-0.00265373214203269	-0.00176683474492024	-0.00264837997481867	-0.00177582535910472	-0.0113766933563283	0.00387672650897947
10.9	-0.0066835093331961	0.0278149278747951	-0.00287814967911424	-0.00138782652014516	-0.00288342325485665	-0.00138712411246846	-0.0111902698704321	0.0040372050878947
11	-0.00166101976762785	0.0295963197969712	-0.00305155534088747	-0.000960085550190132	-0.00305645019904367	-0.000966968188501555	-0.0109108143909897	0.00424866472386438
11.1	0.00381037129927286	0.0304776327034685	-0.00316964864645294	-0.0005190814912989	-0.00315859093433157	-0.000516147413594225	-0.0106175269567942	0.00439633970435486
11.2	0.00965649135951614	0.0301827588848161	-0.00320203004004944	-6.24894298245501E-05	-0.0032093274200627	-6.74079541418555E-05	-0.0102660557539596	0.00460410348019271
11.3	0.0155563676361861	0.0283113844129543	-0.00317135422290717	0.000405313846571124	-0.00318316144406707	0.000395145977363243	-0.00953368429117678	0.00475242131720712
11.4	0.0208820201748076	0.0252999823040276	-0.00308765880524934	0.00084938672057221	-0.00308259792974953	0.000857044057849457	-0.00886910239347241	0.00484168592132645
11.5	0.0254739996184893	0.0212540607712608	-0.00292927721434189	0.00127634034574076	-0.00293198673385451	0.00128680323542353	-0.00828171174005243	0.00473082329509249
11.6	0.0291145552936819	0.0162751402691713	-0.00271735233021197	0.00167169944147899	-0.00271729545691837	0.00167467630966809	-0.0077032678097415	0.00426010007665733
11.7	0.0317918050941924	0.0106875855296123	-0.00243866035654837	0.00202447901147677	-0.00243910942213222	0.00203317373234346	-0.00723274440954269	0.00370589945167262
11.8	0.0334206212002921	0.00461755873676042	-0.00212873963879491	0.00234916106888611	-0.00213285703265859	0.00235092887271323	-0.00678925278881701	0.00325948117714836
11.9	0.0337646002095732	-0.00160850100475564	-0.00176978153422373	0.00261338809185651	-0.00178278941203279	0.00261788604430933	-0.00646151796931444	0.00311908293454949
12	0.0328236684914558	-0.00796169903488783	-0.00139275625697533	0.00282365721590039	-0.00139214265495589	0.00282506331195959	-0.00603736233600525	0.00250609725060563
