# GHZ S RI R 50
0.2	0.00631845082754083	0.0056322686173891	0.00304826959632548	-0.000893917965469426	0.00305862611716113	-0.000887099148090687	-0.013610885281995	0.00927718698914202
0.3	0.00702491317432867	0.000901039886881348	0.00290595727709413	-0.0013143720523493	0.00289868504103388	-0.00130145449455035	-0.0124339940057491	0.00666425523742454
0.4	0.0057233532924482	-0.0022742041377162	0.00267833139430828	-0.00168399064047489	0.00268362808714623	-0.00169253327435918	-0.0130135100181595	0.00565500476212836
0.5	0.00369673161670107	-0.00376098775969933	0.00242520090823534	-0.00204052174395789	0.00243680443979735	-0.00205271929171758	-0.0138827375490034	0.00617925159282397
0.6	0.00203142371834548	-0.00395451124204023	0.00211889379225306	-0.0023578397778303	0.00211814520109429	-0.00236500927027096	-0.0141113883972825	0.0076625938706815
0.7	0.00106964209624541	-0.00367551424424556	0.00177699930517588	-0.00264164274506269	0.00177503692104354	-0.00264185427234871	-0.0134565698021715	0.00930206161087577
0.8	0.000680092383398181	-0.00366178480935758	0.00139418919217797	-0.00286770453708511	0.00138154387675638	-0.002872357428953	-0.0121548378665446	0.0104602444772951
0.9	0.000122528247013111	-0.00407778766232492	0.000975942268272818	-0.00304134234563632	0.00097704498662311	-0.00305211947965811	-0.0108603478950401	0.0108313290107793
1	-0.00102483230665982	-0.00463734046459882	0.000545693625067361	-0.00315438007785158	0.00053573956499685	-0.00315517070650871	-0.0101018670829327	0.0107782246298237
1.1	-0.00287810106013228	-0.0047655861562319	8.04530134293863E-05	-0.00319039278814032	7.69537598358762E-05	-0.00320825040108181	-0.0100690928448724	0.0109812257678209
1.2	-0.00494293157103901	-0.00427882254654312	-0.000373793774852903	-0.00318323472688166	-0.000374616529687861	-0.00318113335746621	-0.00989540225064676	0.0118214450588283
1.3	-0.00673940500429725	-0.00341009896800513	-0.000813851693790512	-0.00309850831790786	-0.000817136388757996	-0.00310053263603503	-0.00873984458511519	0.0128919236346997
1.4	-0.00791080051959932	-0.002472953265464	-0.00124700408995132	-0.00294373284226567	-0.00124580031965423	-0.00294933943745409	-0.00701220957075317	0.0131824069942518
1.5	-0.00824895166916813	-0.00106150970075294	-0.00165661800976855	-0.00273731933425901	-0.00165504452878381	-0.00274592679472046	-0.00540847067718333	0.0130892935170263
1.6	-0.00781112707149234	0.000727669965707036	-0.002021183841912	-0.00247187998856631	-0.00202144193514274	-0.00247716344811309	-0.00445330793954115	0.0132673573113007
1.7	-0.00669637204899898	0.00223851033821997	-0.00234848432290908	-0.00216163194924427	-0.00234939475593173	-0.00215531275412781	-0.00322816338694946	0.0134486794348194
1.8	-0.00536586580723686	0.00336896806263646	-0.00261329168660193	-0.00179867478791496	-0.00262437616310896	-0.001804224093047	-0.00210229472298388	0.0132340684510463
1.9	-0.00411035348127343	0.00405745103688389	-0.00282906429699003	-0.00142026495884789	-0.0028414746847899	-0.00141396148112672	-0.00140902314124553	0.0129320696715918
2	-0.00292832335886769	0.00461056441416925	-0.00299352908720285	-0.00100963645678048	-0.00300311118517572	-0.00100483008395087	-0.000999756694059715	0.0129242158917232
2.1	-0.00160931269205807	0.00500893636112717	-0.00309654171540419	-0.000583200222443392	-0.00309247955505022	-0.000585224140043447	-0.000377617307471781	0.0131394694433459
2.2	-9.27805914826818E-05	0.00516158592459136	-0.00314633037067805	-0.000150754410961362	-0.00315762761811299	-0.000153510782098925	0.000689320833529603	0.0133029457735614
2.3	0.00149560657957121	0.00471822257181865	-0.00313833972552762	0.000284835951363014	-0.00313806802596925	0.000277969147553262	0.00189017634579482	0.0129879829922109
2.4	0.00280460104359796	0.00381673643292484	-0.00306714337981558	0.000715736805187817	-0.00306968909303476	0.000711493914093875	0.00287171699395898	0.0123531443214131
2.5	0.00367790240786726	0.00259781695916638	-0.00293504639013936	0.00112321769070928	-0.00294592384351884	0.00112959908534291	0.00352387324822942	0.0116033741196872
2.6	0.00425567698597489	0.00137247625260982	-0.00276788125016144	0.00152560284004969	-0.00276431317227949	0.00151326806172059	0.00401392670001461	0.0110173751301303
2.7	0.00476591662625416	0.000128601542687298	-0.00252816297941908	0.00190089701941358	-0.0025334611009078	0.00190090316928622	0.00446773134073097	0.010545962760218
2.8	0.00524821463424427	-0.0013274659393505	-0.00224862493068934	0.00223611771743015	-0.00224076985832708	0.00224596749221732	0.00493400954412896	0.0101811209135071
2.9	0.00552236826859171	-0.00306204950547115	-0.00191302169577341	0.00254618949054861	-0.00190928342014309	0.00254575558393413	0.00556080129531782	0.00993980459264737
3	0.00537742561595452	-0.00491808033509207	-0.00151999037162601	0.00279098280694268	-0.00153489581367755	0.00279718713449197	0.00636195933248485	0.00977201536414707
3.1	0.00489616878352737	-0.00671953851363708	-0.00111837221621175	0.00297464961717901	-0.00111361657296161	0.0029830550808919	0.00725009971221313	0.00952709955512486
3.2	0.00395522763896724	-0.00851111047065525	-0.000682992167315697	0.00311347873328303	-0.000684761285574251	0.00311287693456842	0.00809632661209882	0.00920700371804485
3.3	0.00255433652652437	-0.0102967990884064	-0.000228724624210803	0.00317850610737926	-0.000227104310134577	0.00317470744192136	0.0090570825157892	0.00857622739535908
3.4	0.000556157433668429	-0.0117432526260322	0.000231937284151655	0.00316092663927439	0.000225930300180707	0.0031777284250795	0.00985647022971694	0.00758623707083247
3.5	-0.00184880234453995	-0.0127590290151559	0.000663184760107902	0.00310158680590056	0.000668815922646558	0.0031015631970103	0.0102345777430868	0.00637536358762291
3.6	-0.00445621811340319	-0.0130976760139393	0.00109434514521805	0.00296209235746743	0.00110255377705084	0.00296161267586845	0.0104150088002703	0.00549611997701284
3.7	-0.00703260549642493	-0.0128697693650703	0.00149970665478501	0.00276034598209356	0.00149041230585058	0.002774206575982	0.0107422385694003	0.00465081834961485
3.8	-0.0095148321602256	-0.012147538320678	0.00186518613640077	0.00251531792592419	0.00186776666886102	0.00252437287595166	0.0110074504644147	0.0036505692761775
3.9	-0.0117663351252472	-0.0109807361741104	0.00219243476519504	0.00222995986653092	0.00218519915734571	0.00222833707076553	0.0110076135958301	0.00259905536361908
4	-0.0137780550828422	-0.0093989138759774	0.00245547325919743	0.00190468869284094	0.00245982576876946	0.00190220800386142	0.0108550374510666	0.00181104206996375
4.1	-0.0154298062210441	-0.00745689437834097	0.00268595289736894	0.00154885022680789	0.00268472930783526	0.00154959259499266	0.0108866127041898	0.00126720025116277
4.2	-0.0167100273966693	-0.00524493566471753	0.00286737200822801	0.00115937796234905	0.0028716740579446	0.00115076003232469	0.0111105871707975	0.000668586148104419
4.3	-0.0176038687021749	-0.00295650905959684	0.00299915570522845	0.000764004031742135	0.00300541912103348	0.00075629238272137	0.0113461202913557	-0.000264106739641213
4.4	-0.0182804705735973	-0.000482856741733643	0.00307212721400845	0.000348546745080207	0.00307445690598247	0.000346320512907871	0.0112561557381004	-0.00125297837676422
4.5	-0.0185938350897977	0.00221837916527229	0.00309893389620616	-7.25948857912842E-05	0.0031042181765358	-7.59166900958471E-05	0.0110179155953129	-0.0020904260818206
4.6	-0.0184655193891347	0.00504294144578877	0.00306470072302566	-0.000503136422693226	0.00306587867052376	-0.000490374142748224	0.0107670707069977	-0.00281051413730167
4.7	-0.01770017684083	0.00789854332263131	0.00297205561030291	-0.000916195079018295	0.00298724381228657	-0.000925663672712585	0.0104912573099852	-0.00355504823715747
4.8	-0.0163748237152395	0.0105894036096333	0.00282312936124148	-0.00133095730253689	0.00283158413063105	-0.00133697501297644	0.010246289857181	-0.0043030618205604
4.9	-0.0143980525080838	0.012953644489372	0.00261118580632062	-0.00172114115288309	0.00261533014250598	-0.00171823111137337	0.00990579970579582	-0.00498158236360574
5	-0.0119406936111908	0.0148016279473974	0.00235494366492484	-0.00208526018562919	0.00235855925674125	-0.00208259256851562	0.00977078260757626	-0.00551143848223011
5.1	-0.00894611565569903	0.0161043559417477	0.0020416415411746	-0.00240488318483437	0.0020439455992123	-0.00240352702828848	0.00983216148392218	-0.00615285764725054
5.2	-0.00580055640863663	0.0166610451434154	0.00167633771388907	-0.00266084978882635	0.00167803170781127	-0.00266600610558765	0.00990055093525351	-0.00695762074061727
5.3	-0.00266622957132485	0.0165505385706072	0.00127857165257244	-0.00287718679535173	0.00128172106443887	-0.00287514556745327	0.00981855884628866	-0.00783438555336361
5.4	0.000248143117245768	0.015880640516371	0.000842275835102869	-0.00301904803925225	0.000859308979307008	-0.00303041807211189	0.00953756020435299	-0.0088582866883519
5.5	0.00283919254846944	0.0147877255168903	0.000419728258852691	-0.0031052784470349	0.000429626202897256	-0.00311479615529326	0.00890835847264757	-0.00983749527984827
5.6	0.00509986078022118	0.0132959877406205	-2.22498184856784E-05	-0.00312482364345635	-3.07585971274557E-05	-0.0031279005254797	0.0080172445849124	-0.01048929717392
5.7	0.00694645161858112	0.0114559556831491	-0.000449285711135576	-0.00307583351774997	-0.000465764177760199	-0.00307921540850271	0.00718468762386144	-0.010857902295755
5.8	0.00828060447021184	0.00935579721364444	-0.000882611437229208	-0.00296362129099758	-0.000886280607422282	-0.00297734725466813	0.0063785523059192	-0.0113672932642874
5.9	0.00906953228739002	0.00717973791146173	-0.00126813057653116	-0.0028115841821768	-0.00127620068722765	-0.00281141106105319	0.00531714851012422	-0.0118880293030935
6	0.00936256145250172	0.00495043017142667	-0.00164177230118563	-0.0026013869500239	-0.00163829332515894	-0.00260157820114992	0.00396878936822654	-0.0120963435032222
6.1	0.00925515154282693	0.00274642991354556	-0.00197156212527894	-0.00235280490828536	-0.00197314566074665	-0.00234889485469476	0.00286889500108051	-0.0118447436279345
6.2	0.00874763009297056	0.000522134124537466	-0.0022624775946143	-0.00205549979008373	-0.00226607578725329	-0.00206706524373659	0.00222427495775742	-0.0116133556082148
6.3	0.00791162822709474	-0.00165543047100062	-0.002525323265624	-0.00174398992586652	-0.00253425268438955	-0.00173845563798894	0.00182678413695352	-0.011727231547041
6.4	0.00654489575374652	-0.00368943966379532	-0.00274669729201016	-0.00138078416992728	-0.00273715115306276	-0.00138546275630297	0.00129680411593028	-0.0120168848453853
6.5	0.0048606696144072	-0.00541299603039391	-0.00290912911715923	-0.00100219168650817	-0.00291689378756224	-0.000997921694458811	0.000769151440407516	-0.0122957128021712
6.6	0.00289802967683502	-0.00670762543875687	-0.00303214195060048	-0.000598954385880773	-0.00303367624907762	-0.000602893580758919	0.000354494849529984	-0.0125943500345304
6.7	0.000712662753938501	-0.00750054625574073	-0.00310380742541645	-0.000175075318268509	-0.00311267571995623	-0.000169047494740869	-0.000276846393571613	-0.0129706699749772
6.8	-0.00164180874243508	-0.0076914896591973	-0.00310575461792523	0.000262110191953898	-0.00311686304253081	0.00026689887464721	-0.00117888032602513	-0.0132157171807636
6.9	-0.00402183372490891	-0.00716726346897747	-0.00305193698551799	0.000700114911180752	-0.00305495895295771	0.000702441204349013	-0.0022647783591912	-0.0131310952432081
7	-0.00612442756461657	-0.0061126296847718	-0.0029316729910233	0.00113261962719103	-0.00294446913484865	0.00113020929456665	-0.00323080500223292	-0.012906242554161
7.1	-0.00798343234530689	-0.0046112813245931	-0.00276292296067472	0.00153689014567555	-0.0027593662452044	0.00154563102532558	-0.00413347388388383	-0.0124041639172601
7.2	-0.00951713312567731	-0.00272959739667099	-0.00250765800608868	0.00192106355310334	-0.00251423731854394	0.00192308602800609	-0.00469581432066111	-0.0117828813559787
7.3	-0.0107702553980043	-0.000577113787027709	-0.00220646592365313	0.00225309338057655	-0.00221776335859872	0.00225809849752072	-0.00493629619654436	-0.0114330508252933
7.4	-0.0115821439538744	0.00204983470143345	-0.00185468917882555	0.00254361279354341	-0.00186163786068549	0.00255725005430905	-0.00551219610307164	-0.0112376917183349
7.5	-0.0118780737743984	0.00469107497528217	-0.00147755374018789	0.0027831843222442	-0.00147055194268117	0.00279059192067936	-0.00603412495327658	-0.0113327066986978
7.6	-0.0117228804526375	0.0070804206146224	-0.00106190142620719	0.00295511103718851	-0.00106328239756159	0.00295042405949637	-0.00652860567223413	-0.0119468870633369
7.7	-0.0105251733676771	0.00942620788392807	-0.000629562586300189	0.00306475793252466	-0.000630898309180583	0.00306370524023284	-0.00723586485082904	-0.0120461420126376
7.8	-0.0088818246995773	0.0113166639230025	-0.000207273492739153	0.00310037157542385	-0.000214996808559567	0.00310678397229129	-0.00818127838488803	-0.0122915911452188
7.9	0.291012636438513	-0.112250397122349	0.000855896503972973	0.00256764007210892	0.000844136890878616	0.00247048707172889	0.440149534154344	0.236192057413304
8	0.347428860840243	0.169287302372429	0.0013290174134561	0.00402660836811652	0.000986505001715556	0.00609023747893207	2.88356358788358	1.60660117948306
8.1	-0.00135731640349201	0.0136422998133277	0.00103544792339192	0.00290343665363588	0.00105424879519424	0.00290465923745468	-0.0109758575868696	-0.0108020435394157
8.2	0.00116647566533379	0.0134020160244495	0.00141994684780633	0.00273587245200186	0.0014291228133625	0.00272892895587833	-0.0114190562944087	-0.0100885885935568
8.3	0.00353928654431009	0.0127210310725365	0.00178220248491352	0.00251930020233791	0.0017803367596533	0.00253259524548614	-0.0117985849986839	-0.00957900753754748
8.4	0.00573194624183108	0.0117379050012505	0.00211338065328277	0.00226959208593701	0.00211039680722452	0.00226930044908468	-0.0123644651363427	-0.00918350121114871
8.5	0.00778729169605299	0.0103361135397539	0.00240652028295082	0.00196793723921569	0.00240554576572535	0.00197106708653837	-0.0131331241339062	-0.00859437187820152
8.6	0.00957582149697276	0.00852418540698602	0.00267091278756293	0.001632650461333	0.00268056683243037	0.00162641461773845	-0.0137795863853305	-0.00780067215783011
8.7	0.0109502261045114	0.00627567986831042	0.00288389559975659	0.00124644926807901	0.00288944397670809	0.00124734210716731	-0.0142758735082963	-0.00701753496694383
8.8	0.0118235944082871	0.00368890312955939	0.00305172394275395	0.000841168745120256	0.00305779635495624	0.000832511718974999	-0.0147325482564822	-0.00644202290293233
8.9	0.0122200629784036	0.000845548495837472	0.00316031748968394	0.000400845268019122	0.00315949652167759	0.000398544800628612	-0.0151401803229724	-0.00575958413776004
9	0.0120370105990322	-0.00222312019200263	0.00319626639053677	-5.96431334791658E-05	0.00319938150608065	-5.53942638906604E-05	-0.0153963275842836	-0.00492055572172777
9.1	0.0113375800638729	-0.00546005609520597	0.00316772175342493	-0.000525887154517588	0.00317041816464115	-0.000512663510422993	-0.0153039315289275	-0.00408094953646746
9.2	0.00966136351351965	-0.00858209697118036	0.00306493262156765	-0.000971663332766385	0.00307280683995732	-0.000974497546736095	-0.0151611406521859	-0.00341183025922291
9.3	0.00721056374531764	-0.0112335692599179	0.00289229525938793	-0.00140434120062135	0.00289159162537678	-0.00140945514554711	-0.0149853134923252	-0.00279860728868061
9.4	0.00411602434477689	-0.0130935358821593	0.002656582178489	-0.00181716624588251	0.00266321054669824	-0.00180937327988711	-0.0148490299557104	-0.00203775754060659
9.5	0.000605078679266715	-0.0143680845414849	0.00236195301401695	-0.00216529325090252	0.00236951269538518	-0.0021666714387816	-0.0148631612545981	-0.00149557794173112
9.6	-0.00314385910258045	-0.0146603311567008	0.00202357933540078	-0.00247331436150361	0.00202391835016725	-0.00247231740354331	-0.0148478328611281	-0.000765560934766116
9.7	-0.00697654436532331	-0.014044394128581	0.00163740596721546	-0.00271875872347642	0.00164296683543068	-0.00272618581800756	-0.0147158816609727	-9.20676356116535E-06
9.8	-0.010690897295773	-0.0125506521460811	0.00123994876182402	-0.0029157579809826	0.00124574132552555	-0.00290722860792664	-0.0145860630464551	0.000645463219711287
9.9	-0.0139621299563531	-0.0102056926575573	0.000830994133119009	-0.0030400211097834	0.000823643887800808	-0.00303875673216488	-0.0145992408949221	0.00127479720193692
10	-0.0167317687011447	-0.00712960626630741	0.000406144750382211	-0.00311598589357505	0.000398634409331544	-0.0031284143115955	-0.0146710721448097	0.00214124499085376
10.1	-0.0187605357818443	-0.00356444121616741	-2.36516790786786E-05	-0.00314026445260083	-3.38719711740223E-05	-0.00313490719591962	-0.0144359957582899	0.00305297502928749
10.2	-0.0200928214565361	0.000319851386635181	-0.000454341755880849	-0.00310533172281091	-0.000457758349835715	-0.00310258421610119	-0.0139104667798441	0.00381813157890712
10.3	-0.0207060702173071	0.0045230693185523	-0.000873623362535134	-0.00301124074635756	-0.000865438648034961	-0.00302020563319809	-0.0133291538426319	0.004287466452494
10.4	-0.020423813935914	0.00890926975730424	-0.00126454441732606	-0.00287556918475751	-0.00126274791866324	-0.00288174782204595	-0.0127814776022612	0.00448519694278644
10.5	-0.0192188540827974	0.0132957003782288	-0.00165973186374294	-0.00269965753946737	-0.00165685427367709	-0.00268651914025422	-0.012406954528015	0.00471015705122648
10.6	-0.0170993891790229	0.0174096083252385	-0.00202756963084223	-0.00245051967101556	-0.00202528035383614	-0.00245434240334147	-0.0120408537004965	0.00494407750550329
10.7	-0.0143786354870804	0.0212401693110889	-0.00236724270202075	-0.00216278528734366	-0.0023637921648435	-0.0021573425340917	-0.0117229261307672	0.00506354517142046
10.8	-0.0104642071344729	0.0245663098283209	-0.00266694028513726	-0.00180592639065513	-0.00266146217042802	-0.00181496676603971	-0.0113266129426985	0.00541459131632809
10.9	-0.00599710209877717	0.0274069304230928	-0.00290592710270227	-0.0014228436496519	-0.00291127135623195	-0.00142216454400494	-0.0113212243966451	0.0056599827108617
11	-0.00063362956193708	0.0291805629913285	-0.00309187780795005	-0.000985104049623177	-0.00309681769932514	-0.000992103596173984	-0.0110817271212372	0.00621234431700147
11.1	0.00513977057055031	0.0297260242930147	-0.00321824199441804	-0.000529763464102165	-0.00320701569854453	-0.000526774747592269	-0.0105259198647026	0.00677530060654535
11.2	2.63595232018502	2.81014132061693	0.00896013369344679	0.00435315073173355	0.0162271427037726	0.02287263917174	-0.712742410333818	-0.882605451205234
11.3	0.71213944310882	0.304170526814601	-0.0103266621817868	-0.0133561838483959	-0.0108983313857261	-0.01035406484596	0.221635724696854	3.10620815588413
11.4	0.0214873714869832	0.0235986915677268	-0.00312429295855965	0.000886838681892945	-0.00311909745114356	0.000894562520985675	-0.0074384572979794	0.00661513714046353
11.5	0.0259511759002632	0.0196256609460995	-0.00295120325602942	0.00132347829160103	-0.00295383296222954	0.00133409787519753	-0.00684666017067128	0.0063335570849571
11.6	0.0294286257416142	0.0145766157448003	-0.00272214300921229	0.00172241445135943	-0.00272204762707683	0.0017254191967308	-0.00622243119528603	0.00565893637917652
11.7	0.0317722535332519	0.00897402776391367	-0.00242641664739912	0.00207182871235573	-0.00242674726717721	0.00208058682809162	-0.00566781769588232	0.00479305363151796
11.8	0.0330692366276771	0.0031942997879477	-0.0021022515387002	0.00238729659394145	-0.00210635730935551	0.00238912898903907	-0.0053052357612188	0.00392712964476017
11.9	0.0332407300676488	-0.00242455081762641	-0.0017345099637393	0.00263774126127157	-0.00174745835626898	0.00264241640583222	-0.00560186177806176	0.00350813957512154
12	0.0325912365191251	-0.00847755236456649	-0.00135527028741962	0.00283273725044832	-0.00135464152216469	0.0028341322429135	-0.00571306654901838	0.00285593720646126
12.1	0.0308792059236853	-0.0141964435133074	-0.000951470491806841	0.00298766742653515	-0.000955042326697033	0.00298688562990835	-0.00571625637681469	0.0026917232703647
