# GHZ S RI R 50
0.2	0.00680476878319792	0.00280857563065562	0.00304829370731771	-0.000895865934761232	0.00305865608859821	-0.00088905196308933	-0.0131281808972548	0.00646353712464898
0.3	0.00683704659253949	-0.00033153904346082	0.00290509391840529	-0.00131773081765593	0.00289783415561122	-0.00130480305056729	-0.0126215975544823	0.0054527472060159
0.4	0.00590211809875234	-0.00226262758699935	0.00267555751928279	-0.00168838836883443	0.00268084016022471	-0.00169693968740355	-0.0128211334821105	0.00569754513297767
0.5	0.0047803141515738	-0.00327250878911823	0.00241967282529063	-0.00204500844289445	0.00243124453646133	-0.0020572264271756	-0.0127651303540132	0.0067003109079456
0.6	0.00391085932093831	-0.00379779289914242	0.00211035317391398	-0.00236095378889492	0.00210958630945191	-0.00236811361708576	-0.0121772793117106	0.0078425150642952
0.7	0.00316008103672975	-0.00428182060496333	0.00176591491218821	-0.00264181912375993	0.00176395563367814	-0.00264202452006992	-0.0112964268485305	0.00870096594418146
0.8	0.00232529304294364	-0.00489957789125008	0.00138184853894548	-0.00286366240490756	0.00136922542208087	-0.00286826511375223	-0.010432890789253	0.00920539734156904
0.9	0.00100191950271307	-0.0053931180870015	0.000964190700593794	-0.00303239106901031	0.000965260710436905	-0.00304313024870421	-0.0099063762202808	0.00947643396796192
1	-0.000707563154455993	-0.00542821455014027	0.000536597942401559	-0.00314073953860946	0.000526688857941158	-0.00314150582627061	-0.00972252619366113	0.00992882897958831
1.1	-0.0025262237570373	-0.00478656550479533	7.60780052740702E-05	-0.00317324492083269	7.25756147742565E-05	-0.00319100167420351	-0.00967898467545982	0.0108935622452685
1.2	-0.00399865064025801	-0.00381325026045337	-0.00037222789252472	-0.00316442620908528	-0.000373045386738705	-0.00316233704285254	-0.00894998627716913	0.0122156509478085
1.3	-0.00518859295508244	-0.0030195964264296	-0.00080594888397982	-0.00308047933008932	-0.000809211705878484	-0.00308249450202931	-0.00722678820207105	0.0132263810369838
1.4	-0.00613941869167305	-0.00234896125955164	-0.00123329930098222	-0.00292894144583532	-0.00123209065932708	-0.00293451220168817	-0.00528864099166269	0.0132418723344085
1.5	-0.00640899820114867	-0.00122792935144176	-0.00163862823018666	-0.00272775423706322	-0.00163703527323298	-0.00273630949241673	-0.00363828283520135	0.0128433783324746
1.6	-0.00601747084000421	0.000124728315126073	-0.00200125972450818	-0.00246878024148368	-0.00200149432864666	-0.00247403994951945	-0.00271433365780223	0.0125933227846621
1.7	-0.00525043931338971	0.00125165804766672	-0.00232918907577681	-0.00216518980821665	-0.00233012719959804	-0.00215889842345063	-0.00185053971875961	0.0124067550570994
1.8	-0.00444062417424148	0.0023259847282754	-0.00259717828282847	-0.00180793491740657	-0.00260820540352505	-0.00181352876020109	-0.00123979700582579	0.0121678876451187
1.9	-0.00351199928102915	0.00328561555898294	-0.00281782518472058	-0.00143334224744365	-0.00283025250970505	-0.0014271126756763	-0.000858917434869895	0.0121519332418258
2	-0.00232624478235085	0.00415838873328271	-0.00298801874467926	-0.00102413861942504	-0.00299762264877898	-0.00101938015996636	-0.000427895807170279	0.0124664577921084
2.1	-0.000808329200392093	0.00464671280348173	-0.00309639161190748	-0.000596588629061359	-0.00309231797844091	-0.000598597046031761	0.000405543337321823	0.0127627990793313
2.2	0.000798262669848419	0.00462606067666524	-0.00315006963658032	-0.00016102482434714	-0.00316137322218826	-0.000163821044657439	0.00156494902055209	0.0127412656667622
2.3	0.00218937544559039	0.00399218650478659	-0.00314376676487377	0.000278729218598052	-0.00314348032541108	0.00027185240672979	0.00256421768501707	0.0122300679604638
2.4	0.00314538104142052	0.00315422566362828	-0.00307187367141144	0.000713619593585297	-0.00307441849342445	0.000709368609616144	0.00319622703892448	0.011673279735498
2.5	0.00381855164638094	0.00227718099773511	-0.00293711347170775	0.00112375439839859	-0.00294799875354601	0.001130139280485	0.00366176701122864	0.0112665108418295
2.6	0.00449400875696198	0.00139674375644156	-0.0027663126457933	0.00152666817944599	-0.00276275213480968	0.00151433484742996	0.00426555159296222	0.0110196015326043
2.7	0.00522231659610487	0.000291745888041878	-0.00252319512527703	0.0019001239909302	-0.00252848581321705	0.00190013409803496	0.00494760429203104	0.0106738658541406
2.8	0.00583843857164201	-0.00113756166996737	-0.00224164036390147	0.00223155770791807	-0.00223380026942605	0.00224137792272658	0.00555045491016925	0.0103183690790516
2.9	0.00622368570433532	-0.00278830505985728	-0.00190628728804609	0.00253670568536408	-0.0019025626180946	0.00253627372993325	0.00628054757685751	0.0101298834712411
3	0.006301251983541	-0.00458507315853208	-0.00151619226910562	0.00277675013365123	-0.0015310373456995	0.002782910230685	0.00727853337289492	0.00999353862256671
3.1	0.0060861660086635	-0.00652115680850044	-0.00111979739143838	0.00295698730695352	-0.00111508570622254	0.00296536166757482	0.00840134445926935	0.00959891274074532
3.2	0.00526977569498859	-0.00858620914545681	-0.000691394360303102	0.00309471637336101	-0.000693151997743804	0.00309411090845592	0.00932740753987859	0.00900445524598749
3.3	0.00379584178044424	-0.0106136921671912	-0.000244632262727805	0.00316170659923608	-0.000242999537163418	0.00315793522718814	0.0101653301483376	0.00815192762165419
3.4	0.00165730844117692	-0.0121433292802613	0.000209393509376042	0.00314931955828601	0.00020329690597231	0.00316601022924658	0.0107862258026309	0.00712141431079412
3.5	-0.000776008843325174	-0.013140471832901	0.000636011017435145	0.00309760732788686	0.000641625374563983	0.00309762949189547	0.0111095477079868	0.00599010549731421
3.6	-0.00334545111246003	-0.0135564001430018	0.00106577764012427	0.00296763977702658	0.00107397842590108	0.00296723546540788	0.0113302133096841	0.00508862770735811
3.7	-0.00595425509197038	-0.0135272216841588	0.00147354746455189	0.00277572552022516	0.00146411626914331	0.00278950091005607	0.0116404008832674	0.00411083407994562
3.8	-0.008664960102785	-0.0129690840320281	0.00184507065149388	0.00253920434056185	0.00184756925753442	0.002548305165876	0.0117221883911363	0.00301250997035308
3.9	-0.011214021483692	-0.0117541738951546	0.00218130299805759	0.00225963602534216	0.00217405140051823	0.00225793979336915	0.0115034920011871	0.00205444750354252
4	-0.0133781016812139	-0.00996513509093924	0.00245489755544834	0.00193615419408315	0.00245929656785597	0.00193369378983695	0.0112981339281886	0.00147886111513808
4.1	-0.015008691184238	-0.00786421268954061	0.00269586166399182	0.00157800756758061	0.00269462407628216	0.00157874746380069	0.0114411887849863	0.00105426748480677
4.2	-0.0162653128248562	-0.00562216950089478	0.00288588814809016	0.00118237827679921	0.00289026614189035	0.00117370849783651	0.011749052647137	0.000416472149211804
4.3	-0.0172545936677355	-0.00329626313814684	0.0030229031359108	0.000778374527316902	0.00302924039467345	0.000770613017672634	0.0119226825493383	-0.000543129448724319
4.4	-0.0180254093711709	-0.000652633489147068	0.00309706438996124	0.000353397432231581	0.00309941461053342	0.000351154478581613	0.0117492823346008	-0.00143604515981856
4.5	-0.0182803107213361	0.00229459161550474	0.00312129515288832	-7.62496255208995E-05	0.00312661433422612	-7.96008137195826E-05	0.0115590369451469	-0.0021020906712578
4.6	-0.0179313846698027	0.00525252487789716	0.00308158986500099	-0.000512859653852761	0.00308280291534984	-0.000500025017073626	0.0114726786671843	-0.002768011340362
4.7	-0.0169395281013111	0.00806533460020144	0.00298215960854388	-0.000928597453173155	0.00299738578561453	-0.000938149910643223	0.0113546480810502	-0.00358594473540836
4.8	-0.015546892173438	0.0106244951104095	0.00282672582028094	-0.00134275149474571	0.00283518541428844	-0.00134880991824377	0.011102877834126	-0.004444190781818
4.9	-0.0135678628954887	0.0129402994504848	0.0026099940341343	-0.00172959035945031	0.00261415038825586	-0.00172668713471562	0.010727682133093	-0.00513342120054756
5	-0.0110470836580489	0.0147889836217767	0.00235163906558813	-0.00208884885486671	0.00235525868468997	-0.00208618692477218	0.0106405045700888	-0.00562235739015925
5.1	-0.0079467152833419	0.0159922339380054	0.00203923630662976	-0.00240350074091034	0.00204153886163982	-0.00240214639233631	0.010806233865123	-0.0063216381585449
5.2	-0.00482563594844471	0.0163502557811085	0.00167748928378458	-0.00265584106878765	0.00167918730058919	-0.00266098948070301	0.0108696643336853	-0.00728458975520134
5.3	-0.0018912966305385	0.0161276297143709	0.00128505071155687	-0.00287097294697944	0.0012881916006656	-0.00286892524805228	0.0106323655595525	-0.00825035927162181
5.4	0.000824847235229254	0.0155500014665753	0.000854510891849682	-0.00301476990075589	0.000871586431115033	-0.0030260666204854	0.0102097958544014	-0.00919057557147862
5.5	0.00339296158347133	0.0146398087857303	0.000436715032356183	-0.00310591176148145	0.000446673018905438	-0.00311538538187644	0.00960742616207713	-0.0100303644010354
5.6	0.00578454503232805	0.0132224009004394	-2.95895265176144E-06	-0.003132906616577	-1.14703151322618E-05	-0.00313604400421353	0.00886672975651876	-0.0106750541655436
5.7	0.00771311801456178	0.0112913774863562	-0.000431189979806528	-0.00309252303298151	-0.000447720020696146	-0.00309602775335527	0.00809033596178503	-0.0112104445032625
5.8	0.00898462506510608	0.00905015704659055	-0.000869831654429204	-0.00298860508363017	-0.000873438887310894	-0.00300244413571578	0.00717032205080488	-0.0119020368245994
5.9	0.00958852142445639	0.00687194477858679	-0.00126409047741595	-0.00284256406533927	-0.00127223105330476	-0.00284243241553471	0.00586999431362657	-0.0124374895596452
6	0.00976112808914272	0.00480894778565427	-0.0016491847182482	-0.00263454304119643	-0.0016456688465199	-0.00263472335776306	0.00435711183125108	-0.0124742778068462
6.1	0.00969802980142605	0.00278414943329254	-0.00199096456994122	-0.00238331858741844	-0.00199257261980115	-0.00237936530780927	0.00326553788849837	-0.0120366942798821
6.2	0.0092934836810323	0.000607695613551539	-0.00229227454771486	-0.00207842491689832	-0.00229592845721565	-0.00209012852811337	0.00268450627805171	-0.0117425530447931
6.3	0.00846277475474242	-0.00158702325430914	-0.00256209832848604	-0.00175576513358472	-0.00257111504787304	-0.00175013159927033	0.0022662401749016	-0.0118397636377382
6.4	0.00710906929370652	-0.00355069411168632	-0.00278544685697263	-0.00137921967835704	-0.00277582400856886	-0.00138400826864018	0.00176146601931536	-0.0120136810888324
6.5	0.00558006690626379	-0.00520867533511439	-0.00294451972428246	-0.000987891671583856	-0.00295232232022962	-0.000983518500577015	0.00142453224741649	-0.0122102105893705
6.6	0.00381264883154752	-0.00661121899411494	-0.00305976406787841	-0.000574348944281535	-0.00306134703948014	-0.000578301959121141	0.00121928270378158	-0.0126302247867197
6.7	0.00165081175700321	-0.00762067363710915	-0.00312070258335046	-0.000144169871326222	-0.00312955235785442	-0.000138021976867364	0.000594988932432901	-0.0132309294781538
6.8	-0.000853413012224738	-0.00792054311697219	-0.00311091458443316	0.000294488513156418	-0.00312200213534374	0.000299402721753687	-0.000477131670854958	-0.0135754358615297
6.9	-0.00335434575454092	-0.00735415687890247	-0.0030464648389736	0.000729566071325262	-0.00304946577885762	0.000731922179109806	-0.00167137009686869	-0.0134387859946698
7	-0.00542411776122944	-0.00615746040313409	-0.00291821303062352	0.00115566151077033	-0.00293101206775065	0.00115336169978333	-0.00261853005728461	-0.0130692863384417
7.1	-0.00710625558012228	-0.00464996357191462	-0.00274519201219315	0.00155172292916796	-0.00274158495048776	0.00156041662569612	-0.00336906673776167	-0.0125514220069467
7.2	-0.00851138779543776	-0.0029673850940053	-0.00248961354577268	0.00192729745009937	-0.00249616072604556	0.00192934634341668	-0.00383657675774887	-0.0121040671134662
7.3	-0.00985264777438055	-0.00107959774396048	-0.00219166732029408	0.00225231259313893	-0.00220290974968012	0.00225733631135987	-0.00420726547241635	-0.0119791864807966
7.4	-0.0109965317935386	0.00131529871833758	-0.00184555555646267	0.00253860322162353	-0.00185246424033254	0.00255220941082454	-0.00500899289342736	-0.0119709124742062
7.5	-0.0116224742440636	0.00406930967193178	-0.00147496925136138	0.00277753654629933	-0.00146798209033573	0.00278493038124433	-0.00580943287384992	-0.0119170583074468
7.6	-0.0114836622540996	0.00676499033204349	-0.00106504066340127	0.00295248652598607	-0.00106641528105752	0.00294779996074238	-0.00637761253694512	-0.0120801352310882
7.7	-0.0104449997027685	0.00930948145657014	-0.000635845989560976	0.0030680168522258	-0.000637181764822515	0.0030669603127959	-0.00710043637624896	-0.0121690747927799
7.8	-0.00881080306249406	0.0113997136345489	-0.000212956618317362	0.00311082222141009	-0.000220717057405103	0.003117244557662	-0.00805166080500046	-0.0122601120549614
7.9	-0.0062985983493099	0.0129009816890439	0.000221513550134218	0.00311286140778547	0.00022939414781897	0.00311435589589938	-0.00901106155901604	-0.0116473661439376
8	-0.00379294588307233	0.014033363476808	0.000653638768634674	0.00303903772304596	0.000653706254338435	0.00304389448146908	-0.00988953610162361	-0.0114235125892232
8.1	-0.000605599192511831	0.0141959873756072	0.00105342385351561	0.00292392127294596	0.00107238321845986	0.00292509260453639	-0.0102566057000612	-0.0105772214217131
8.2	0.00214770350759406	0.013721446656312	0.00144817275318693	0.00275066347619376	0.0014573854213584	0.00274360682216682	-0.0106086610068968	-0.0100721760966212
8.3	0.00454479933070597	0.0128134902168036	0.0018178876734743	0.00252361762923036	0.00181612212524461	0.00253703275131441	-0.0110744924615342	-0.0096955523246694
8.4	0.00668489758724143	0.0117367870591453	0.00215178205354446	0.00226045107874771	0.00214877623621161	0.00226019064400141	-0.0117390838553697	-0.00926339197882031
8.5	0.00876256494808806	0.0103179157330417	0.00244167734013973	0.00194470144247789	0.00244073941896821	0.00194785649680545	-0.0124663037638958	-0.008566036963375
8.6	0.0106519646526757	0.00841018743563389	0.00269733918236897	0.00159720631753046	0.00270691805532653	0.00159082661271809	-0.0129502354175426	-0.00777013595190873
8.7	0.0120652959340599	0.00592765071199867	0.00289713056032297	0.00120306603477001	0.00290268280514379	0.00120387783384299	-0.0133107167302904	-0.00714125330228939
8.8	0.0127865367594429	0.00310987141142148	0.00304981225395687	0.000795245661907956	0.00305573803678146	0.000786543096159068	-0.0138190092471653	-0.00675681310423908
8.9	0.0129110124602	0.00021022699274563	0.00314335885020856	0.000358248602241607	0.00314251462396433	0.000355974494940962	-0.014389280417018	-0.00613254423798503
9	0.0125315571233063	-0.00272820017107026	0.00316676633919197	-9.36143711294873E-05	0.00316989920581047	-8.94374941250396E-05	-0.014753033020202	-0.00520427186764226
9.1	0.0117132691410981	-0.00579902082655058	0.00312987332912926	-0.000547566359216363	0.00313265496757946	-0.000534505017968113	-0.0147033763596625	-0.0042769864935076
9.2	0.0100248737000574	-0.00880660364758964	0.00302409854414646	-0.000979434949126169	0.00303186577908022	-0.000982285285747265	-0.0145427615791978	-0.00357665252445427
9.3	0.00753614634356065	-0.0113330549044165	0.00285377771307852	-0.00139857640721261	0.00285306370223795	-0.00140362868913779	-0.0143981215549349	-0.00292830502226885
9.4	0.00449322639014091	-0.0130630878057441	0.00262500098799239	-0.00180022754271817	0.00263156530088436	-0.00179252877086499	-0.0142833621391019	-0.00215787380855329
9.5	0.00116864555893104	-0.0141080058877631	0.00234053188908406	-0.00214150526619326	0.00234801770876409	-0.00214286253090251	-0.0141393056487424	-0.00146075189962314
9.6	-0.0023444516119051	-0.0144432065395803	0.002013414111567	-0.00244750981596156	0.00201374768130482	-0.00244652019815748	-0.0139767295141273	-0.000795862454025219
9.7	-0.00605711597115687	-0.0140333440983733	0.00163745076718444	-0.00269591468845636	0.00164300505812622	-0.00270327532514855	-0.0138044945543058	-0.000218307853723521
9.8	-0.0098506390805509	-0.0127490695086262	0.00124697378030716	-0.0028995928382103	0.00125270974120172	-0.00289107272564616	-0.0137948561278928	0.000291078538896436
9.9	-0.0133408422409367	-0.0104217738609983	0.000840388541039685	-0.00303245456923544	0.000833045104933497	-0.00303121791388609	-0.0140061551007966	0.000953431870444027
10	-0.0162173616410473	-0.00726188822925728	0.000413007869075846	-0.00311644761141715	0.000405520994488883	-0.003128897471509	-0.0141363547763752	0.00192457349344725
10.1	-0.0182481457738984	-0.00361969533425844	-2.33754157740183E-05	-0.00314573253722411	-3.36140380612783E-05	-0.00314036698913173	-0.0138685126361604	0.00288144940917502
10.2	-0.0195833623517088	0.00026625500931344	-0.000462636996297725	-0.00311099042052162	-0.000466054524614631	-0.00310822891705676	-0.0133529802291167	0.00360326856675024
10.3	-0.0202716183614078	0.00449383684838426	-0.00088964235756951	-0.00301181738599464	-0.000881488074950156	-0.00302083635891036	-0.0128779210356621	0.0040742868780504
10.4	-0.020040474815931	0.0090216322974319	-0.0012848644927667	-0.00286695793419365	-0.00128311122809871	-0.00287314977603193	-0.0124066883804555	0.0044077461438342
10.5	-0.0187226832953545	0.0135886505851384	-0.00167923899617886	-0.00267966104419819	-0.00167625528347308	-0.0026665755112267	-0.0119500768871316	0.00481131382331174
10.6	-0.0163607260036325	0.0177491324308385	-0.00204037800314247	-0.00241993040010013	-0.00203813511047984	-0.00242375575852204	-0.0113904482947806	0.00511050610717494
10.7	-0.0132658860799158	0.0214275750855734	-0.00236859124189425	-0.00212482323603431	-0.00236511807158422	-0.0021194533948617	-0.0108361305453125	0.00532344544652324
10.8	-0.00946948808360586	0.0246061625099786	-0.00265374952984117	-0.00176605287104055	-0.00264839992816669	-0.00177504341319629	-0.0104697967388171	0.00545312643031976
10.9	-0.00499048924706303	0.0272792127224814	-0.00287800605688256	-0.00138698308592714	-0.00288327866128535	-0.00138627963671387	-0.0103332121199147	0.00570813635372567
11	0.000369369770736303	0.0289797188024577	-0.0030511962103062	-0.000959255264273658	-0.0030560916352825	-0.000966135582712868	-0.00996435084342703	0.00622178322334657
11.1	0.00616758840814877	0.0293917694596079	-0.00316907255154006	-0.000518335406375171	-0.0031580166244123	-0.000515404172519268	-0.00924987764899701	0.00663348928829214
11.2	0.011925507107111	0.0283934551832901	-0.00320127034743766	-6.19001510144496E-05	-0.00320856685270273	-6.68161824984169E-05	-0.00830175802084716	0.00673725304090176
11.3	0.0172444266824301	0.0260588644623116	-0.0031704647046987	0.000405708420498254	-0.00318227045544547	0.000395545060190317	-0.00720750897196734	0.00637026089279805
11.4	0.0219680700611014	0.0230206309191839	-0.00308669043489531	0.00084954112835721	-0.00308163000008299	0.00085719568978461	-0.00655182231456231	0.00595326270984055
11.5	0.0261828827345317	0.0191509606447982	-0.00292832164010473	0.00127623707615746	-0.00293102944190967	0.00128669720561098	-0.00613532443318371	0.00554361767305766
11.6	0.0296003745708171	0.0142953870046345	-0.00271646157598285	0.00167138412413826	-0.00271640453425128	0.00167436012673521	-0.00566686726383489	0.00489502637395679
11.7	0.0319161745716813	0.00881768701663288	-0.00243787096207866	0.00202398552466471	-0.00243831955534921	0.00203267773228212	-0.00530006626527604	0.00403319234742654
11.8	0.0331187872622021	0.00316915287718331	-0.002128070546569	0.00234850400185113	-0.00213218669407836	0.00235027135454863	-0.00523760846538557	0.00322149450020913
11.9	0.0333613880909176	-0.00232297765956831	-0.00176927760354203	0.00261261209966825	-0.00178228169422266	0.0026171086601807	-0.0055673356188362	0.00300633177217552
12	0.0328464990379078	-0.00806364643388008	-0.0013924542709093	0.00282276924551775	-0.00139184090460678	0.00282417495004342	-0.00568953308569578	0.00279715999659209
