# GHZ S RI R 50
0.2	0.0059692329905444	-0.000789503108803471	0.00304844590721591	-0.000899449065322561	0.00305881934056441	-0.000892643685837301	-0.013946624329356	0.00290896471386396
0.3	0.0059664022432251	-0.00154400482436478	0.00290350062340654	-0.0013239930880621	0.00289626405503039	-0.00131104624109073	-0.0134672721025663	0.00429150124544533
0.4	0.00609571801014961	-0.00240129770021352	0.0026703698399542	-0.00169658752300923	0.00267562623664546	-0.0017051550109821	-0.0126048225647594	0.00562090953270804
0.5	0.00603260190071213	-0.00360040947021645	0.00240934269254251	-0.00205336887690356	0.0024208549560095	-0.00206562492507703	-0.0114927559468158	0.00646077243122521
0.6	0.00548884163796162	-0.00499592887423686	0.00209441398468232	-0.00236676874195003	0.00209361301147835	-0.00237391053902882	-0.0105615836155362	0.00677306074138987
0.7	0.00422382905435581	-0.00623874082091595	0.00174521691921618	-0.00264219271792139	0.00174326341559635	-0.00264238665301028	-0.0101419222026342	0.00690295507703946
0.8	0.00248420822384191	-0.00695540742559551	0.00135876333944923	-0.00285618998311211	0.00134618137422821	-0.00286069877889042	-0.0101073563457105	0.00729286876603379
0.9	0.000521831113903224	-0.00686681028100892	0.000942153456010454	-0.00301576803496685	0.000943162014529058	-0.00302643658110419	-0.010169678673719	0.00806874347686505
1	-0.00113787038815755	-0.00610792086799322	0.000519443457169875	-0.003115363149168	0.000509618110657405	-0.00311608342943268	-0.00996791428464658	0.00920963637780734
1.1	-0.0023153057535203	-0.00507841708313779	6.76500406457091E-05	-0.0031412693615652	6.41402984331494E-05	-0.00315883770861123	-0.00941207375173841	0.0105110501442825
1.2	-0.00312524895110411	-0.00436635610793865	-0.000369619856936355	-0.00312926842232077	-0.000370427319590903	-0.00312720196115157	-0.00818904243808442	0.0116146789152602
1.3	-0.00414965161773897	-0.00409666564157366	-0.000791525123479616	-0.00304669113962512	-0.000794747290229543	-0.00304868884907774	-0.00640673748079446	0.0122248638692155
1.4	-0.00527422177959083	-0.00369628115009459	-0.00120805170086674	-0.0029011233463201	-0.00120683467115799	-0.00290662724248141	-0.00465574577608213	0.0120168960875806
1.5	-0.00579178634598297	-0.00279249709156719	-0.00160542286844358	-0.0027095826036572	-0.0016037948996059	-0.00271804044220019	-0.00327782559465806	0.0114418408785833
1.6	-0.00583561580670165	-0.0016203201461905	-0.00196445146234504	-0.00246248799513093	-0.00196464322936208	-0.00246770307054332	-0.00269302009956316	0.0111021410713942
1.7	-0.00556399903194118	-0.000354866886579396	-0.0022934751633841	-0.00217106954263746	-0.00229446337660962	-0.00216483043052745	-0.00223450925734801	0.0110865662200108
1.8	-0.00500960206769193	0.00110125557990563	-0.00256717633470077	-0.00182419634788351	-0.00257809613399142	-0.00182986932306332	-0.00179136714384439	0.0112142051018018
1.9	-0.00398469722955448	0.00239735728757497	-0.00279653281449054	-0.00145653115658707	-0.0028089866152745	-0.00145043745902434	-0.00130288563923641	0.0114722523824314
2	-0.00258282065645059	0.00333771313016034	-0.00297687621549165	-0.00104997875031282	-0.00298651581222085	-0.00104530885562529	-0.000696579908633933	0.0118357725369804
2.1	-0.00100423400928597	0.00369594472102749	-0.0030946929829048	-0.000620642496525714	-0.00309060037692548	-0.000622621821723418	0.000173454688956422	0.0120440702200286
2.2	0.000437566686679468	0.00360641992016303	-0.00315524983864906	-0.000179831899618783	-0.00316655898851332	-0.000182699920340922	0.00121372250584149	0.0120018042733987
2.3	0.00163789367854096	0.0031426137722862	-0.00315203860953239	0.000266993279936537	-0.00315172445312099	0.000260101900605635	0.00211135952662924	0.0116384204629728
2.4	0.00262134518636859	0.00258774233286048	-0.00307911492822649	0.000708712211150489	-0.00308165589384844	0.000704448036908529	0.00282285718125472	0.0112813465637583
2.5	0.00356335991830842	0.00189084113105195	-0.00293989373999632	0.00112343490621074	-0.00295079023788906	0.00112982035684417	0.00350594179225252	0.010935970104663
2.6	0.00451761667369064	0.000923380170833551	-0.00276282103773422	0.00152729676578307	-0.00275927236291757	0.00151497165961153	0.00427341720142551	0.0105718960643504
2.7	0.00533789167074171	-0.000375619947910388	-0.00251366599398158	0.00189751548115425	-0.00251894129164445	0.00189753167036459	0.00496986672228397	0.0100802438418235
2.8	0.00593466672699082	-0.00191278949601498	-0.0022283768176135	0.00222206142846466	-0.00222056847074036	0.00223182514635364	0.00552821606766772	0.00965104545300566
2.9	0.00634650630828143	-0.00361892425004136	-0.00189338043735145	0.00251799474337727	-0.00188968230141691	0.00251756696267732	0.00622772839133139	0.0093901647862263
3	0.00644099989374802	-0.0055527729909748	-0.00150871318414251	0.00274893790146133	-0.00152344007362316	0.00275501174917417	0.00712576407606224	0.00915467818222359
3.1	0.00612032759144035	-0.00768258809597908	-0.00112222719254538	0.00292241686982594	-0.00111760084529257	0.00293072951370973	0.00807569970724914	0.00870592284005521
3.2	0.00508598469383045	-0.00980442581004205	-0.000707272537777123	0.00305773057909313	-0.000709007588204773	0.00305711828609659	0.00880323957792168	0.00817921064586331
3.3	0.00346974470754177	-0.0117222032855368	-0.000275168942212302	0.00312830396638208	-0.000273512877731222	0.00312458640145382	0.00954671743174485	0.00749888494478793
3.4	0.0013540008378969	-0.0131346460184706	0.000165837607487473	0.00312586575876069	0.00015957019653149	0.00314233645563278	0.0101896213744303	0.00660998827156075
3.5	-0.000980952683597009	-0.0141420544864935	0.000583398321889827	0.00308885105646468	0.000588978314051448	0.00308896146144887	0.0105465932813874	0.00555694987681112
3.6	-0.00357659983506644	-0.0146916792090433	0.00101038288589163	0.00297719434768339	0.00101856546244857	0.00297693527286643	0.0107502735099445	0.00468536953666488
3.7	-0.00633546343303245	-0.0147133005664701	0.00142266957825344	0.00280403931304491	0.00141297974766503	0.00281764504742403	0.0110395301990785	0.00383546863569156
3.8	-0.00916895053023977	-0.0140586337861751	0.00180551112818767	0.00258361785492486	0.00180785133287828	0.00259280169113103	0.0112180390871436	0.00289221122373919
3.9	-0.0116925593627119	-0.0127310597709283	0.00215839696686942	0.00231498521007558	0.00215111981827479	0.00231314925428382	0.0111990713436583	0.00197100572625562
4	-0.0137803813920718	-0.0109621198904698	0.00245139246929053	0.00199508146668976	0.00245587707182222	0.00199266266501255	0.0111445847154409	0.00127926098902275
4.1	-0.0154459881752101	-0.00895394985452778	0.0027115725276556	0.00163319271444318	0.00271030912242681	0.00163392670093169	0.0113005070765287	0.000717795834625453
4.2	-0.0168373561302099	-0.00670085213459851	0.00291756611909905	0.00122697900779013	0.00292209034287368	0.00121822181087644	0.0115715407006077	3.74979975353151E-05
4.3	-0.0178903786835206	-0.00421802304653665	0.00306472031386709	0.000807883943632417	0.00307119985547614	0.000800040292764261	0.0117851843905609	-0.000889775775755318
4.4	-0.0185576980361334	-0.00142998654667952	0.0031419598787494	0.000365939829805394	0.00314435010693908	0.000363669314673855	0.0117064249580623	-0.00185688171234335
4.5	-0.0186389838393482	0.00151256969692087	0.00316251941406619	-7.92343672587061E-05	0.00316790680828458	-8.26332361204661E-05	0.0115320310131662	-0.00269531376915556
4.6	-0.0182029028734981	0.00434372352878776	0.00311371346402606	-0.000527358948146767	0.00311497683764524	-0.000514387850916333	0.011290967124037	-0.00352467032683929
4.7	-0.0172366199873781	0.00704686243387681	0.00300236642117691	-0.000948673813024545	0.00301767549612537	-0.000958367688866285	0.0110075124404214	-0.00433852526225787
4.8	-0.0159073317191307	0.00956528811069828	0.00283511535815817	-0.00136230701794694	0.0028435908918289	-0.00136843437496069	0.0106404196049663	-0.00511093565590876
4.9	-0.0139051083750905	0.0118691296944972	0.00260948459146207	-0.00174329802112534	0.00261366128939906	-0.00174040371076459	0.0102595114901608	-0.00575030052415946
5	-0.0113701517166632	0.0136269147992727	0.00234723078152172	-0.00209355193965748	0.00235085565542578	-0.00209089757086058	0.0101125808511664	-0.00621742043599524
5.1	-0.00838257559539169	0.0147340054726867	0.00203681653804127	-0.00239881843886875	0.00203911483252716	-0.00239746543204198	0.0101827540823409	-0.00679430067345879
5.2	-0.00544584310812496	0.0151395414764784	0.00168236685058077	-0.00264441508128709	0.00168407781278349	-0.00264954640177341	0.0102716468348092	-0.00754749464335484
5.3	-0.00259090623308432	0.0150861492588471	0.00130075503137494	-0.00285773655700366	0.00130387741137877	-0.00285567283336764	0.0102165873197708	-0.00840763876696248
5.4	0.00020110996577661	0.014630714168847	0.000881692129941272	-0.00300613411958526	0.000898865552885229	-0.00301727227081243	0.00996683457954998	-0.00943532442722108
5.5	0.00285654112897927	0.013698020409437	0.000473050627656131	-0.00310778122222119	0.000483138450088513	-0.00311716230380522	0.00937755402518186	-0.010436571712913
5.6	0.00521413013301195	0.0122124284539724	3.73085257309106E-05	-0.00315010255421012	2.87908906263472E-05	-0.00315336656552577	0.0085327612897667	-0.0111356971177867
5.7	0.00698939740008082	0.0103619264166035	-0.000394141151795289	-0.00312688027002502	-0.000410777738899808	-0.0031306368149221	0.00766146568266094	-0.0115706844772477
5.8	0.00826493568818947	0.00833569011068508	-0.000843977261330907	-0.00303891457234266	-0.000847459221512185	-0.00305298133356209	0.00686962604459466	-0.0121468079909999
5.9	0.00907772206337016	0.00634658089261445	-0.00125562752326344	-0.00290390143900319	-0.00126390713907042	-0.00290385301602185	0.00578486842798345	-0.0127397935823742
6	0.00955129970560741	0.00426908189329769	-0.00166271139258074	-0.00269946267259207	-0.00165912382337759	-0.00269962060264334	0.00436571722768984	-0.0130178063606319
6.1	0.00967094665842554	0.00204259874490118	-0.00202698117761043	-0.00244295703007581	-0.0020286383695501	-0.00243892157767402	0.0031462690927544	-0.0128183429875813
6.2	0.00927206889720635	-0.000343954741917493	-0.0023476558881352	-0.00212395997028883	-0.00235140747692132	-0.00213593035744433	0.00234901857260977	-0.0126086863622727
6.3	0.00837034266625291	-0.00267151745955235	-0.00263069628057873	-0.00178090702708589	-0.00263988581269292	-0.00177509271514386	0.00175716696749762	-0.0127233910815429
6.4	0.00702235509630882	-0.00482103042060656	-0.00285841716970636	-0.00137990194254455	-0.00284863987364769	-0.00138489009751382	0.00114487146844441	-0.0129716764912644
6.5	0.00537248427640634	-0.00672888886734345	-0.00301226704999729	-0.000964874497442839	-0.00302015154367246	-0.000960312239394509	0.000579073598187975	-0.0131790018358235
6.6	0.00330281984994002	-0.00822631349925357	-0.0031141154609951	-0.000531600144851599	-0.00311578766513625	-0.000535584512110721	0.000151334066975498	-0.0133708974854741
6.7	0.000868306684210151	-0.00905968042355655	-0.0031557843453115	-8.86708393663228E-05	-0.00316461385008365	-8.22973833032559E-05	-0.000466566768264804	-0.013624911789561
6.8	-0.00167664801705606	-0.0090677902196822	-0.00312424444325083	0.000353870848389415	-0.00313530794214335	0.000359020034014802	-0.00133380384235773	-0.013777204416531
6.9	-0.00400712493238497	-0.00839757915123531	-0.0030396241936224	0.00078432868527675	-0.00304258972445577	0.000786741926610846	-0.00231880320794021	-0.0137416374756646
7	-0.0059343477895295	-0.00723473934156378	-0.0028960159843352	0.0011988376753861	-0.00290883109330463	0.00119673835996633	-0.00332841067319702	-0.0134420836132257
7.1	-0.00762740169706011	-0.00584377637396419	-0.00271484372226291	0.00157958071497648	-0.00271114316942109	0.00158819454414052	-0.00422372900921372	-0.0127998295542379
7.2	-0.00917006622767434	-0.00416302069093131	-0.00245892782187493	0.00193913192135469	-0.00246542129461837	0.00194122826018223	-0.00466794595015321	-0.0120455469574417
7.3	-0.0105814072872969	-0.00207397928959242	-0.00216759072904303	0.00225147840482911	-0.00217874429902509	0.00225653397405433	-0.00474456639822855	-0.0116557489746677
7.4	-0.0116457637012062	0.000403043886535938	-0.00183248571961003	0.00253092194843127	-0.00183933756219579	0.0025444812137096	-0.00497077331004041	-0.0118724721927138
7.5	-0.0120458138921313	0.00321388307990699	-0.00147400154591415	0.00277016059843789	-0.00146703599052717	0.00277754383751969	-0.00548208572506876	-0.0121516270637421
7.6	-0.0114883961274187	0.0060548890895215	-0.00107377203000195	0.00295224590302634	-0.00107513546043747	0.00294755161905448	-0.00616121240447657	-0.0122074121051814
7.7	-0.0106628680810711	0.00844805205301801	-0.0006486680566976	0.00307969336907254	-0.000650006381062455	0.0030786277543135	-0.00696861625715059	-0.012888746364494
7.8	-0.00894806313835414	0.0105252582854217	-0.000222597601615285	0.00313586283579619	-0.000230438144501299	0.00314231830142924	-0.00809119386192721	-0.0131808198626026
7.9	-0.00667619338825435	0.0120780897166746	0.000222546063674314	0.00314928373741578	0.00023051784467637	0.00315079958666593	-0.00938645162648838	-0.0131454014513045
8	-0.00364380448133855	0.0128124122325489	0.000671391091910059	0.00308090740630344	0.000671472907971878	0.00308583376563431	-0.0105274170761682	-0.0123183483368631
8.1	-0.000850034017086985	0.0129029002435783	0.00109044913394567	0.00296337609306129	0.00110971958713818	0.00296443522828327	-0.0114769465780575	-0.0114989737734516
8.2	0.00176892588806739	0.0124013066915381	0.00150354105524423	0.00277852011743408	0.00151282145979965	0.00277124221842517	-0.0119101884183641	-0.010553543229273
8.3	0.00418449029055584	0.0115535791702277	0.00188633044322644	0.00253176971177185	0.00188475741390331	0.00254541473316048	-0.0122099383946845	-0.00989901609265244
8.4	0.00644933510757436	0.0104152824469889	0.00222492433830829	0.00224388215862447	0.00222187613400598	0.0022436805439729	-0.0127273453385565	-0.00942681296509679
8.5	0.00856078077610645	0.00877138571137152	0.00250904890819161	0.00190223120023197	0.00250817910515899	0.00190543537048742	-0.013500825571902	-0.00872291582772581
8.6	0.0102664322757135	0.00663444658258015	0.00274911965586197	0.00153188115605497	0.00275856488081144	0.00152522613469213	-0.0140979185803375	-0.00771894869947061
8.7	0.0113990967722221	0.00407964438577565	0.00292488836854595	0.00112222507011154	0.00293045318804866	0.00112288449661137	-0.0142949625954689	-0.00672548247151813
8.8	0.0118783898987393	0.00145406552115134	0.0030493999091548	0.000708649083630666	0.00305505277877602	0.000699850600166777	-0.0143967762834962	-0.00609441520082304
8.9	0.0119765974750839	-0.00117790868556727	0.00311438987772211	0.000276956798871116	0.00311350008880358	0.000274730675267451	-0.0145159316275117	-0.00555948349858216
9	0.0117093288062687	-0.00395554114901331	0.0031136144625019	-0.000159253313792394	0.00311678528104357	-0.000155210357013775	-0.0146770733350742	-0.00489032377260996
9.1	0.010904786740339	-0.0069003116718082	0.00306050466766143	-0.0005902296378449	0.00306345481516532	-0.000577466216529988	-0.0146536144347971	-0.00408425780915159
9.2	0.00929851090783796	-0.00979380082792437	0.00294894430048309	-0.00099591648637753	0.00295651441646017	-0.000998802161199356	-0.0143986639508943	-0.0034559653342175
9.3	0.00697871115080916	-0.0122261993647844	0.00278313881907476	-0.00138982795727413	0.0027824029938378	-0.00139476806082853	-0.0141212581537071	-0.00304691429720271
9.4	0.0042089662273974	-0.0141075931329275	0.00256754116456976	-0.00177120371312136	0.00257399460733438	-0.00176367691827044	-0.0141494832255279	-0.00281406433499202
9.5	0.00101673636556965	-0.0152065185776402	0.00230174893002378	-0.00210081392457345	0.00230910405901524	-0.00210213813182492	-0.0142883468541953	-0.0021859181393271
9.6	-0.00253385077198134	-0.0157875478069608	0.00199450940842224	-0.00240422232031886	0.00199483416732978	-0.00240324553340609	-0.0144838148187967	-0.00141254303253902
9.7	-0.00639277981317159	-0.0154936220788032	0.00163560097043574	-0.00265869294407959	0.0016411389524975	-0.00266594585968206	-0.0143964046175823	-0.00055765851389908
9.8	-0.010293127293949	-0.0142023341952487	0.00125577743760446	-0.00287424047523942	0.00126142852760266	-0.00286574094343373	-0.0142220363068003	8.75164994834829E-05
9.9	-0.0138664593866458	-0.0117878887687764	0.000851667576822941	-0.0030212526323124	0.000844336855973162	-0.00302005138258115	-0.0143374063497214	0.000681959354250044
10	-0.0167566000562347	-0.00866988756401445	0.000418845967836442	-0.00311746792479373	0.00041137724693434	-0.00312993829213703	-0.0145246659734618	0.00149280462582766
10.1	-0.0188988474752982	-0.00502722923915591	-2.90294852579756E-05	-0.00315339087298735	-3.92836226731439E-05	-0.00314799397506344	-0.0144220994266594	0.00246674944078269
10.2	-0.0203191726715445	-0.000993205575629622	-0.000482323723433322	-0.00311726658341695	-0.000485734857213291	-0.00311447693142837	-0.0139049762123932	0.00334109852245083
10.3	-0.0208941267475066	0.00343957628174462	-0.000921507119268952	-0.00300827631048419	-0.000913428859699981	-0.00301739340712033	-0.0132294269209579	0.0038146069228483
10.4	-0.0203750048236772	0.00802059816189947	-0.00132317738215726	-0.00284705299329678	-0.00132151045951164	-0.00285326397107898	-0.0126483875818765	0.00389105962545165
10.5	-0.0187793996995048	0.0124230289259244	-0.00171550817837596	-0.00263962419913153	-0.00171232315980665	-0.00262664841116993	-0.0123712771942835	0.00405368806540967
10.6	-0.016285501477297	0.0163133518264396	-0.00206449267944951	-0.00236081480469153	-0.00206233912920531	-0.00236464439489325	-0.0120838201234891	0.00439781991381375
10.7	-0.0131660620288615	0.0197484932861295	-0.00237193285351291	-0.00205185630719794	-0.00236841472609046	-0.00204662621502052	-0.0115935815546985	0.00483076326868851
10.8	-0.00937334976437985	0.0226900800808708	-0.002630069334821	-0.00168862789928869	-0.00262496959490767	-0.00169752801302588	-0.011112079502278	0.00504174930020212
10.9	-0.00492944229043264	0.0249604527309293	-0.00282624266842531	-0.00131608851666345	-0.00283137840446508	-0.00131533379847618	-0.0108556818085825	0.00518403159907709
11	0.00015030803183299	0.0263138633906242	-0.00297433914845195	-0.000906457122067813	-0.00297915688029107	-0.000913103845896735	-0.0107220904183239	0.00565596661130395
11.1	0.00543896578099212	0.026524003890794	-0.00307485527811284	-0.0004925769431589	-0.00306412447505291	-0.000489769541506161	-0.0102392885249755	0.00635011715008697
11.2	0.0106034957553182	0.0256394812499193	-0.00310144104972833	-6.86833249507073E-05	-0.00310849702676402	-7.34661650095626E-05	-0.00919383372857684	0.00689557902501637
11.3	0.0155638574307528	0.0239471191184032	-0.00307756922291098	0.000365755231334489	-0.00308892738472999	0.000355798163644402	-0.00785151995859691	0.00700198226492628
11.4	0.0201545366307516	0.0213645904139884	-0.00301202042492587	0.000781461544390208	-0.00300721190664691	0.000788973212534779	-0.00673948039252704	0.00645874229238992
11.5	0.0243139844694902	0.0178266019923774	-0.0028810801874804	0.00118910225838265	-0.00288392152972501	0.00119925486533435	-0.0061749742509271	0.0056371434921182
11.6	0.0278490524952848	0.0133932195160051	-0.00270092826041773	0.00157692683980238	-0.00270093981020939	0.00157984560544999	-0.00568779455428788	0.00494304557608719
11.7	0.0304198943469808	0.0083343212279457	-0.00245341342041809	0.0019349668032219	-0.00245407078017486	0.00194352472347097	-0.00513842191656174	0.00403061533376431
11.8	0.0320899315910811	0.00296070118079467	-0.00216920465556375	0.00227506503748281	-0.00217333049365153	0.00227671381070535	-0.00486626573513511	0.00285951811056601
11.9	0.0330228922208524	-0.00257269375731323	-0.00182654377268312	0.00256246407625573	-0.00183961671778738	0.00256663591749577	-0.0050885225271874	0.00208985065031871
12	0.0328371865804564	-0.0086983269291665	-0.00145455539352457	0.00279764614201232	-0.00145397090085079	0.00279906707281584	-0.00575664321734041	0.00151852477018189
