# GHZ S RI R 50
0.2	0.00511218217761636	3.74183116017478E-06	0.00304837442887901	-0.000899619486472527	0.0030587481891715	-0.000892814750009954	-0.014817536329903	0.00368903481254493
0.3	0.00568797102708338	-0.000984570705739638	0.00290332776237104	-0.00132428139478827	0.00289609263465404	-0.00131133394310885	-0.0137589694917272	0.00484617245733971
0.4	0.00602731883447343	-0.00241668443320082	0.00267000978868885	-0.00169693373707211	0.00267526467471383	-0.00170550171114828	-0.0126697340401701	0.00560560536276914
0.5	0.00568269441046853	-0.00414946599337854	0.00240875883513196	-0.0020536673541504	0.00242026784092831	-0.00206592463484003	-0.0118145725386179	0.00589848474165456
0.6	0.00456005934751543	-0.00569006614944536	0.00209363366311124	-0.00236691901162508	0.00209283124688084	-0.00237405972107772	-0.0114489112379045	0.00603214326869619
0.7	0.00280873005376117	-0.00659708510655155	0.00174429034485256	-0.00264211911760139	0.00174233714932307	-0.00264231256571262	-0.0115287136299635	0.00646013272975595
0.8	0.00101261481076175	-0.00673058946850219	0.0013577685921853	-0.00285583140093591	0.00134518855407959	-0.00286033616542967	-0.0115861836795845	0.00741685646171808
0.9	-0.000527564892209757	-0.00623527567263386	0.000941197616265822	-0.00301509092748126	0.000942203478578084	-0.00302575655566075	-0.0112576379316959	0.00861864510146938
1	-0.00159476230531724	-0.00557497888967755	0.000518637798143844	-0.00311439317782047	0.000508815695356979	-0.00311511123377356	-0.0104585849672064	0.00970086654575241
1.1	-0.00248917107863997	-0.00510622137073893	6.70862853757492E-05	-0.00314007406906255	6.35748840124219E-05	-0.00315763506552174	-0.00957142732945948	0.0104620166230052
1.2	-0.00356488821113361	-0.0049552218552101	-0.000369908092913252	-0.00312791778457572	-0.000370714928893419	-0.00312585206692591	-0.00856017571864478	0.0109751137419449
1.3	-0.00505857745053903	-0.00481556226902306	-0.000791508766476475	-0.00304525477162073	-0.000794729725130086	-0.0030472512426937	-0.00722847274042694	0.0114009197743921
1.4	-0.00642459103461533	-0.00431226012834306	-0.00120771335941699	-0.0028996827313572	-0.00120649731797582	-0.00290518416404391	-0.0057230897281394	0.0112588863853705
1.5	-0.00716301943851666	-0.00330343774561488	-0.00160478806875718	-0.0027082009435819	-0.00160316130633213	-0.00271665480275237	-0.00457362491313372	0.0107477237555083
1.6	-0.00744941275634192	-0.00179877664374464	-0.00196354661162084	-0.00246121228440352	-0.00196373842963489	-0.00246642476927389	-0.00427026738323623	0.0107014233083056
1.7	-0.00712263007650886	-4.25112257279193E-05	-0.00229231361678818	-0.00216993297797556	-0.00229330126850805	-0.00216369706758889	-0.00382438069882518	0.0111704821858305
1.8	-0.00620873019744863	0.00170145286513796	-0.00256578342478234	-0.00182324534680844	-0.00257669732016862	-0.00182891539398165	-0.00306585671557866	0.0116278011425838
1.9	-0.00480223955257534	0.00293666481382175	-0.00279493240779183	-0.00145579482647768	-0.00280737942554463	-0.0014497048699517	-0.00218800706871569	0.0118765985817239
2	-0.00327861290707798	0.00361671674361586	-0.00297508497364943	-0.0010494917096022	-0.00298471911906489	-0.00104482497045109	-0.00141723597636665	0.0119931724988742
2.1	-0.00185439822256759	0.00382414528600127	-0.0030927272156122	-0.000620446842844284	-0.00308863703654511	-0.000622424682722167	-0.00067460006796194	0.0120172756042813
2.2	-0.000595396719750058	0.00386882586226506	-0.00315312995232773	-0.000179984501825537	-0.00316443131193995	-0.000182851586552257	0.000159879643513147	0.0120676724066334
2.3	0.000675255709036793	0.00369913480395741	-0.00314980831201217	0.00026641929738604	-0.00314949354519879	0.000259532903132496	0.0010719550080413	0.0120029774926053
2.4	0.00201258799026836	0.0032845975235903	-0.00307685401730849	0.00070764132958808	-0.00307939229384293	0.00070338002163244	0.00210900320840925	0.0118516735475802
2.5	0.00331591652881305	0.00237789962343826	-0.00293773440861801	0.00112181305193218	-0.0029486234284127	0.00112819065886658	0.00319627020502449	0.0113659584072984
2.6	0.00434015324422395	0.00103133906315833	-0.00276090845971128	0.00152509525077621	-0.00275735895401811	0.00151278196376768	0.00411646294903743	0.0106333310625563
2.7	0.00498960752349516	-0.00050057327862387	-0.00251218154090463	0.00189478436658118	-0.00251745210447564	0.00189479838822923	0.00469654878288129	0.00986527611597051
2.8	0.00544005268002359	-0.00209370567405763	-0.00222745956845658	0.00221889359787311	-0.00221966333341472	0.00222865231945117	0.00512407055855612	0.0093398306122955
2.9	0.00577401990174632	-0.003879860608274	-0.00189317404061808	0.00251451172186834	-0.00188947905619549	0.00251408659953422	0.00576670227759126	0.00897506819422332
3	0.00568696098404176	-0.00594653953163307	-0.00150931937505496	0.00274534763558721	-0.0015240372279133	0.0027514053433539	0.00651947877647874	0.00855382647537356
3.1	0.00504720297107726	-0.00806536459369743	-0.0011236658240032	0.00291892822210204	-0.00111905041468239	0.00292723742039238	0.0071495788145169	0.00802984799537065
3.2	0.00375983282664391	-0.00994704828664324	-0.000709512021070694	0.00305452940567497	-0.000711245059891596	0.00305391601763796	0.00756400253357029	0.00766277925065987
3.3	0.00213271645543352	-0.0115504147836704	-0.00027813834473922	0.00312560927864589	-0.00027647977746054	0.00312189626778097	0.0082093054297832	0.00728371156599861
3.4	0.000172667504261139	-0.0128070945775827	0.00016229674403978	0.00312386911067225	0.000156015652322678	0.00314032146158063	0.0089613210094835	0.00658672806754042
3.5	-0.0020782508870633	-0.0138315197841882	0.000579480470948843	0.00308763366123869	0.000585056921651071	0.00308775043140162	0.00940397048996238	0.00553538083564664
3.6	-0.00474394335601015	-0.0143810383196773	0.00100628072878935	0.00297682291543485	0.00101445926911158	0.00297657377759128	0.00953794307193365	0.00463832681500808
3.7	-0.00757105828475004	-0.0142187991418529	0.00141858649804489	0.00280450699705277	0.00140888440375291	0.00281809466878607	0.0097006386672055	0.00394677106175189
3.8	-0.010260227109845	-0.0133224723903136	0.0018016018263641	0.00258486411144352	0.00180392971034993	0.00259404730855075	0.00994489953956825	0.00328799268445287
3.9	-0.0124786453074374	-0.0119472404052534	0.00215478633183842	0.00231693192761031	0.00214751387258516	0.0023150874500568	0.0102155210381575	0.0025138085636429
4	-0.014361295055522	-0.0103663176446805	0.00244818233241766	0.00199761478264961	0.0024526687255513	0.00199520232561253	0.0104324875338863	0.00170296022469049
4.1	-0.0160514129557516	-0.0085573772220975	0.00270882151625227	0.00163625271873362	0.00270755748452669	0.00163698491215352	0.0106374784348841	0.000932456694064216
4.2	-0.0175419743617784	-0.00633018445447578	0.00291534610444365	0.00123050194894693	0.0029198807215189	0.00122175250758189	0.0108239199985458	0.000188553386287887
4.3	-0.0185662439098942	-0.00378269722035562	0.00306308091007927	0.000811801806809918	0.00306956966228133	0.000803968207035619	0.0110458707185799	-0.000665570822754757
4.4	-0.0190866239595647	-0.00104283238360656	0.003140969459109	0.000370171380960065	0.00314336241306166	0.000367904483217966	0.0111388633479526	-0.00162685512992244
4.5	-0.0191057398290717	0.00168209546853678	0.00316223725565173	-7.47541259550416E-05	0.00316762878288226	-7.81449558594828E-05	0.0111190564697166	-0.00266014852513403
4.6	-0.0188240479327519	0.00429888119760164	0.00311422825825385	-0.000522716572534926	0.003115472371821	-0.000509744709152587	0.0108230044787016	-0.00376624255949321
4.7	-0.0181041665516219	0.00698607517764557	0.003003744163774	-0.000944010039377353	0.00301906776335896	-0.000953679993579142	0.0103122177339023	-0.0046989995252861
4.8	-0.0168982821578946	0.0096351746053864	0.00283744211354022	-0.00135777984780018	0.00284592792695756	-0.00136389376005609	0.0097780369986424	-0.00540084194841276
4.9	-0.0148753275367425	0.0120135502254948	0.00261278921430646	-0.00173913565133829	0.00261696160694183	-0.00173623388966269	0.00940005971601612	-0.0059663876631021
5	-0.0123743841790109	0.0137256378397799	0.00235149237877313	-0.0020899820522682	0.00235511353714957	-0.00208732066517794	0.00925062631715646	-0.00650497349777967
5.1	-0.00956043081308018	0.0148686293199094	0.00204191789738896	-0.00239610498633214	0.00204421466565741	-0.00239474732649448	0.00914415043596712	-0.00713378189752538
5.2	-0.00672656045254332	0.0155129834273024	0.0016880842819745	-0.00264279599554935	0.00168980549440051	-0.00264792699623448	0.00903697778249454	-0.00770868621658677
5.3	-0.00372040704999627	0.0157028236710859	0.0013068483397781	-0.00285739025494948	0.00130996917720149	-0.00285531942170434	0.00903349133139389	-0.00827588229871873
5.4	-0.000667554071133924	0.0152451094574516	0.000887796785628815	-0.00300716375238511	0.000905004839881663	-0.00301828100124306	0.00905168676876509	-0.00920597815377656
5.5	0.00207091960656645	0.0141127741578401	0.000478860383463352	-0.00311012178969024	0.000488974525810518	-0.00311949508441579	0.00864022732890839	-0.0103876917225321
5.6	0.00426552195101539	0.0125098645499482	4.24896736530141E-05	-0.00315365876975433	3.39675823227734E-05	-0.00315694042261114	0.00768697588568823	-0.0112988248814923
5.7	0.0058662185471647	0.0108102482457739	-0.000389864329578827	-0.00313145614434894	-0.00040651631880129	-0.00313524288295121	0.00657027710602299	-0.0116834535714108
5.8	0.00718272107342209	0.00905889508477755	-0.000840832490247252	-0.00304425266966615	-0.000844299314507339	-0.00305834354001935	0.00568294720297159	-0.0119796143096258
5.9	0.00827686026641509	0.00721113378080464	-0.00125367420116814	-0.0029096865206864	-0.00126196574725446	-0.00290964872915901	0.0048029619527433	-0.0123041402022422
6	0.00904176212665541	0.00500248046519069	-0.00166200166687606	-0.00270539875518812	-0.00165840861465382	-0.00270555271200238	0.00373567337648351	-0.012575775488648
6.1	0.00924207652428183	0.00250792262566458	-0.00202741942215736	-0.00244877273451208	-0.00202908338906214	-0.00244473299921977	0.00272845658001516	-0.0126076403892573
6.2	0.00875239036036157	-4.48392493537034E-05	-0.00234912893620369	-0.00212943637216455	-0.00235287455494537	-0.00214142842282059	0.00192574775911888	-0.0126130496125856
6.3	0.00778676833650985	-0.00242613697601261	-0.00263306210862245	-0.00178593292526432	-0.00264227064787518	-0.00178011807356169	0.00129633567927848	-0.0128171859504108
6.4	0.00642045813612895	-0.0047081186841287	-0.00286155690649022	-0.00138435306476987	-0.00285176078556205	-0.0013893405613102	0.000739758669239195	-0.0132099577096114
6.5	0.00456769051626479	-0.00678371805536636	-0.0030160280246144	-0.000968702796436908	-0.0030239279613507	-0.000964139915869125	6.68131572979239E-05	-0.013699333870829
6.6	0.00215498511533622	-0.00821339352066229	-0.00311842912255918	-0.000534774463949844	-0.00312010082926032	-0.000538766139668564	-0.000735514557123724	-0.0140185001487209
6.7	-0.000451302735437682	-0.0087212257748596	-0.00316059852799937	-9.11351257963835E-05	-0.00316944638518783	-8.47583259527556E-05	-0.00170161403441873	-0.0140505637271982
6.8	-0.00285905178952722	-0.00843499435016899	-0.00312947848842149	0.000352210308941474	-0.00314056329640576	0.000357359827233979	-0.00259512381296054	-0.0138397765451545
6.9	-0.00494194141634416	-0.00775427183298269	-0.00304520252935538	0.000783556848322504	-0.00304817462655773	0.000785972071178168	-0.00333578070464773	-0.0136613337072058
7	-0.00681410460450648	-0.00676779543719666	-0.002901822450866	0.00119907414126508	-0.00291465852359799	0.00119696298503561	-0.00418275738729731	-0.0135109056072317
7.1	-0.00871111675399693	-0.00546191142923588	-0.00272073986741368	0.00158091550627443	-0.00271703748715189	0.00158954728695304	-0.00522558339531569	-0.013081882861259
7.2	-0.0104907265002507	-0.00356764565120366	-0.00246464879008434	0.0019416975404206	-0.00247115589475954	0.00194379478153369	-0.00602981826725185	-0.0122665891440188
7.3	-0.0118682994073283	-0.00106580503238787	-0.00217285503943645	0.00225529821886198	-0.00218403330910243	0.00226036006589925	-0.00632380624573954	-0.0114569724049239
7.4	-0.0125783187286057	0.00165973192323263	-0.001836933191139	0.00253596975138675	-0.00184380250484719	0.00254955666931952	-0.00634083063501181	-0.0112108251588656
7.5	-0.0125547490703172	0.00442261572574123	-0.00147730121913596	0.0027762629425403	-0.00147032037386175	0.00278366260731185	-0.00639451825221074	-0.0112681890308387
7.6	-0.0117210365397987	0.00706835598736603	-0.00107560998161386	0.00295908140771302	-0.00107697738300494	0.00295437685026788	-0.00669543168851651	-0.0113695168740448
7.7	-0.0108610139418509	0.00925320358084155	-0.00064885211560219	0.00308683708656411	-0.000650193866164986	0.00308576964164903	-0.0072938670684844	-0.0122341918169523
7.8	-0.0090474786165146	0.0111406376823679	-0.000221129765889526	0.00314286262976017	-0.000228983439021457	0.00314933710716771	-0.00819689690078478	-0.0126680849932932
7.9	-0.00682152295137995	0.0123347550391257	0.00022561032054157	0.00315573207129997	0.0002336001378551	0.00315724454233113	-0.00927412128216664	-0.0130273019229236
8	-0.00400918227544592	0.0127811063450443	0.00067582471292237	0.00308637273582731	0.000675911641901986	0.00309130883066776	-0.0104822341454392	-0.0126496093522465
8.1	-0.00168286420925463	0.0128153401903772	0.00109592419513886	0.00296762004069747	0.00111523172562558	0.00296865873264996	-0.0118525910848083	-0.0122163107892964
8.2	0.000635560598624521	0.0125552126799828	0.0015097111511235	0.00278133528589314	0.00151899804017538	0.00277403291349854	-0.0127655012562258	-0.0112352472617846
8.3	0.00303241559228467	0.0119893971685489	0.00189281019001872	0.00253307375818498	0.00189125380020606	0.00254674223122694	-0.0132844953517413	-0.0103090139122982
8.4	0.00542349148418233	0.0109403111395713	0.00223134636516742	0.00224372964747801	0.00222829360567307	0.00224353225383258	-0.0137397097798503	-0.00965509437920014
8.5	0.00755084424450539	0.00920770552795183	0.00251506052867048	0.00190075951076881	0.00251419453730569	0.001903968978512	-0.0144321411229597	-0.0090235180768764
8.6	0.00906580856990187	0.00703828895304567	0.00275450283312051	0.00152930121914294	0.00276394809541219	0.00152262428150916	-0.0151894811767868	-0.00818402797213647
8.7	0.00998571175359679	0.00469948520085988	0.00292947804318391	0.00111876956107047	0.00293504930074397	0.00111942097780042	-0.0157522105960086	-0.00713454768857382
8.8	0.0104964375130844	0.00244312506963932	0.00305316310780941	0.000704533468195092	0.0030588072535164	0.000695718524677211	-0.0160826982670902	-0.0061124406787438
8.9	0.010890293490982	2.51725339823303E-05	0.0031173018758354	0.000272344148811446	0.00311640792291745	0.000270117631891182	-0.0160539635156291	-0.00514840199928759
9	0.0109056839652135	-0.00282202637856934	0.00311567281717286	-0.00016423346086723	0.00311885229852984	-0.000160192459934569	-0.0158719591159774	-0.00434191647465393
9.1	0.0101650813632285	-0.00592355234646706	0.00306171677685392	-0.000595503399697225	0.00306468926102716	-0.000582735699346416	-0.015656442587579	-0.00364018906586811
9.2	0.00857403815946765	-0.00884297744022051	0.00294928212988601	-0.00100142091246152	0.00295685257308361	-0.00100432093753617	-0.0153558094701611	-0.00303104018579278
9.3	0.00637673864015111	-0.0112983061431086	0.0027825011902981	-0.00139549802366574	0.00278175639277841	-0.00140043997678875	-0.014931275015718	-0.00255208325736591
9.4	0.00375868116681267	-0.0133997212884544	0.00256576268446196	-0.00177690412654318	0.00257223355480442	-0.00176938485060041	-0.0146479896909885	-0.00245277765261253
9.5	0.00046739634844984	-0.0147160436137753	0.00229873555066033	-0.00210635698594014	0.00230609164304842	-0.00210769629257512	-0.014654119278327	-0.00210067233626265
9.6	-0.00336534135170532	-0.0154046297560009	0.00199017178994114	-0.00240928342542352	0.00199049872034561	-0.00240830696915743	-0.0150312670684948	-0.00166715508076272
9.7	-0.00746506972594489	-0.0149523600570886	0.00162997738484937	-0.00266287336905852	0.00163550023777915	-0.00267014009485158	-0.0152975590438347	-0.000859295426792766
9.8	-0.011372084287395	-0.0134055560704388	0.00124900511722143	-0.00287718531933834	0.00125467619594771	-0.00286869912734501	-0.0153211957267288	2.17292373301374E-05
9.9	-0.0147788051030456	-0.0108634406976524	0.000844056860308849	-0.00302262653995508	0.000836730819842465	-0.00302140759676885	-0.0153547018863529	0.000871408826665041
10	-0.0175477742370688	-0.00781110559635464	0.000410803692834874	-0.00311695529706406	0.000403307391912617	-0.00312940064098498	-0.015355064029317	0.00169268269512747
10.1	-0.0197200430368406	-0.00422530986241611	-3.69849865775086E-05	-0.00315084059358898	-4.72174152143632E-05	-0.00314542199106804	-0.0152261572553539	0.00255761202154267
10.2	-0.0211685029200868	-0.00010548162253288	-0.000489609355903307	-0.00311270640198227	-0.000493009836755774	-0.00310991121030178	-0.0148123515478027	0.00346279557251843
10.3	-0.0216002433186369	0.00443187516133327	-0.000927572469303372	-0.00300193325221036	-0.000919527409268631	-0.00301105758264492	-0.0140980356603324	0.00413925771111199
10.4	-0.0208512444306146	0.00892302081176809	-0.00132761825780344	-0.00283931239574393	-0.00132596848966071	-0.00284551705984931	-0.0132270553293886	0.00431359245515761
10.5	-0.0192154580920529	0.0130314591997625	-0.00171799259868718	-0.00263088873751643	-0.00171478541414907	-0.00261794448293638	-0.0126317171640305	0.00424051849659688
10.6	-0.016852192616589	0.0167324113833363	-0.002064795058844	-0.00235170021820842	-0.00206265368814873	-0.0023555259495753	-0.0123487536223885	0.00425365708575708
10.7	-0.0139367368637144	0.0201592032990557	-0.00237007746059808	-0.00204289368018616	-0.00236655820562148	-0.00203768194823697	-0.0120603144489438	0.00449673956728958
10.8	-0.0102400836844931	0.0231348687437758	-0.0026261985028665	-0.00168039660832043	-0.00262112510281607	-0.00168928267228005	-0.011672320526536	0.00467516990632085
10.9	-0.00576524951385701	0.0253979418344928	-0.00282069442151781	-0.00130900553391008	-0.00282581595936762	-0.00130824603785474	-0.0114125545256254	0.00483608056825422
11	-0.000821848592779702	0.0266221783399737	-0.00296749728317893	-0.000900834113951237	-0.00297230956895343	-0.000907458099960497	-0.0112879095468969	0.0050667503686171
11.1	0.00415706596574954	0.0268406990920559	-0.00306711947549658	-0.000488512511027438	-0.00305641469424885	-0.00048572218795912	-0.0111048510587238	0.00548833859549839
11.2	0.00905383689406537	0.0262277435062721	-0.00309321063345255	-6.62138415698115E-05	-0.00310025129602522	-7.09787101192626E-05	-0.0105675172041434	0.00605233758802545
11.3	0.0140031105774732	0.0249459708396261	-0.00306909125093941	0.000366649134632752	-0.0030804250123931	0.000356725695231711	-0.00961801504498684	0.00656036396674457
11.4	0.0188079422600414	0.0226030355787084	-0.00300348607863949	0.000780894384234818	-0.00299868669724938	0.000788383303493418	-0.00851113124326963	0.0064703417584498
11.5	0.0231293669480899	0.0190978038047953	-0.00287264733901146	0.00118710840081884	-0.00287547640557388	0.0011972343915055	-0.00779651973822044	0.00584703039088266
11.6	0.0267320885102647	0.0147238205679379	-0.00269272695160529	0.00157348032345922	-0.00269273738743427	0.0015763908619792	-0.00726900798789066	0.00528702178393046
11.7	0.02942646652288	0.00981931549412454	-0.00244567682249745	0.00193001904410692	-0.00244632977805374	0.00193855212562134	-0.00671106284069667	0.00464865692711399
11.8	0.031395024595135	0.00452728416215872	-0.00216215388742902	0.00226853419735192	-0.00216626682294191	0.00227017872195466	-0.0061871638493499	0.00384843018235597
11.9	0.0326503175492299	-0.00116356516186691	-0.00182054514588488	0.00255438562442582	-0.00183357603841157	0.00255854494132169	-0.00586251090220664	0.00327033434748021
12	0.0325848179399902	-0.00765827621488486	-0.00144993674826637	0.00278811769500892	-0.00144935435171928	0.0027895339111718	-0.00601694052278327	0.00238532402582091
