# GHZ S RI R 50
0.2	0.00635997093698978	0.00339761514869476	0.0030482474539859	-0.0008958260069481	0.0030586095996288	-0.000889012072188958	-0.0135601641444651	0.00706552410225667
0.3	0.00672251321618533	5.72872109609073E-06	0.0029050424251373	-0.00131765089330828	0.00289778263543046	-0.00130472356730256	-0.0127230195853504	0.00579576372213723
0.4	0.00585680388586676	-0.00231205823088144	0.0026755445783706	-0.00168825650355512	0.00268082736629227	-0.00169680742765803	-0.0128677439165932	0.0056493893349365
0.5	0.00452434873640937	-0.00362426400472505	0.00241974595644807	-0.00204484649763931	0.00243131814887268	-0.00205706366997963	-0.0130440081712248	0.00636167247295052
0.6	0.00331432579871042	-0.00419718885887678	0.00211054107583402	-0.00236082173693089	0.00210977472062117	-0.00236798168088744	-0.0128080091376255	0.00748606003063471
0.7	0.00232085076170452	-0.00446708943767041	0.00176620302293509	-0.00264179198838776	0.00176424367607587	-0.00264199755057324	-0.0121576665730549	0.00859146953961108
0.8	0.00150112173174824	-0.00477258071378249	0.00138217986461946	-0.00286380031246837	0.001369556028224	-0.00286840435625689	-0.0112480262058826	0.00942194211836225
0.9	0.000435682658712938	-0.00508665494567662	0.000964479533830885	-0.00303272880267826	0.000965550264930311	-0.00304346930587529	-0.0104367277557375	0.00985594209221253
1	-0.000960700829078567	-0.00522042284567728	0.000536734358838342	-0.00314126939203618	0.000526823589525215	-0.00314203595152348	-0.00994338078373045	0.010175901148796
1.1	-0.00265236659167853	-0.00490267726886304	7.5947355161324E-05	-0.00317389082077337	7.24434383535766E-05	-0.00319165100766376	-0.00981306680388841	0.0107986135660635
1.2	-0.00428342708588961	-0.0042389104643201	-0.000372691318269199	-0.0031650619926538	-0.000373508735301932	-0.00316297227787531	-0.00929062928181824	0.0118336025937592
1.3	-0.00573844783697759	-0.00352648095381657	-0.000806740468191361	-0.00308094242034854	-0.000810004364952463	-0.00308295733801022	-0.00785064177494753	0.0128101713058194
1.4	-0.00683758099809774	-0.00280060306426842	-0.00123434327906169	-0.00292907588331332	-0.00123313603132991	-0.00293464791261559	-0.00605648802072594	0.0129164184532348
1.5	-0.00722464580851033	-0.00159698256906457	-0.00163978752200748	-0.0027274398273735	-0.00163819750822179	-0.00273599654166701	-0.00451371035987505	0.0126366333124521
1.6	-0.00692556285063642	-5.18201313658784E-05	-0.00200233356289881	-0.00246796653574114	-0.00200257039893051	-0.00247322621738096	-0.00364471065258343	0.012611627915967
1.7	-0.00609420010048081	0.00131859270632019	-0.00232996657164319	-0.00216391365661321	-0.00233090171078543	-0.00215762243232064	-0.00266006186383773	0.0126686447634498
1.8	-0.00507098361776973	0.00251695316512664	-0.00259747233771398	-0.00180633449559427	-0.00260849973209358	-0.00181192198615139	-0.00179978587080222	0.0125152447620625
1.9	-0.00394127602066121	0.00341045743135976	-0.00281752657872505	-0.00143160791594704	-0.00282994698726832	-0.00142537487363453	-0.00122747042971982	0.0123886137989623
2	-0.00270329019219825	0.00412448652455883	-0.00298708341094784	-0.00102250332294993	-0.00299668113906682	-0.00101774321369553	-0.000782786925374059	0.0125339571269305
2.1	-0.00127685454127848	0.00452738632627061	-0.00309487953491776	-0.000595295641692513	-0.00309080876196909	-0.000597304227767994	-6.44221835475287E-05	0.0127760603507283
2.2	0.000238243619041581	0.00457785054241376	-0.00314813352194117	-0.000160275555406444	-0.00315943061681479	-0.000163067700229248	0.00102562272711073	0.0128617421508298
2.3	0.00168472506559436	0.00408720896380053	-0.00314163076865679	0.00027880750292908	-0.00314134510258266	0.000271935287722294	0.00213027097119427	0.0124866476326009
2.4	0.00284172667638945	0.00328718718342169	-0.00306979632248213	0.000712999435234968	-0.00307233921780167	0.000708751259810344	0.00298175842547037	0.0119088736814021
2.5	0.00369221980752617	0.00226654987651277	-0.00293534998031413	0.00112252094473838	-0.00294622909484514	0.00112889978155804	0.00358346425978024	0.0112991486992428
2.6	0.00438354499849599	0.00117299667190348	-0.00276503857685679	0.00152498659094716	-0.00276147689454415	0.00151266175002295	0.00412985965756552	0.0108315244192802
2.7	0.00501408166243336	-5.67188949401942E-05	-0.00252250797224536	0.0018982271633311	-0.00252779583297704	0.00189823541939171	0.00466633946286002	0.010397197889774
2.8	0.00555395426615978	-0.00152597843808466	-0.00224151770402486	0.00222966687532033	-0.00223368502323154	0.00223948578554297	0.00517552364720711	0.0100337331926004
2.9	0.00588963962288295	-0.00323527750579083	-0.00190664440348567	0.00253499758774428	-0.00190292090599165	0.00253456732859324	0.00583256888981308	0.00980933502948082
3	0.00585366333833475	-0.00510555781037409	-0.0015168724268772	0.00277535485489459	-0.00153171575107427	0.00278150726342747	0.00668349754745732	0.00965014486112518
3.1	0.00546912252635425	-0.00702316942510926	-0.00112061753524296	0.00295592903694649	-0.00111590991597127	0.00296430324705722	0.0076354099086081	0.00935988745022791
3.2	0.00453114913897037	-0.00896034084252982	-0.00069220799992035	0.00309392383930731	-0.000693965122361297	0.00309331795229417	0.00849591488027886	0.00895871644313441
3.3	0.00306243093852241	-0.0108338519924906	-0.000245349007128528	0.00316107825580055	-0.00024371566813353	0.00315730795592632	0.00941176217142356	0.00827128386899953
3.4	0.00100587846242012	-0.0122953555689865	0.000208799209763507	0.00314871813432757	0.000202700916862125	0.00316540435507396	0.0101516480466919	0.0072808495693574
3.5	-0.00138793522570759	-0.0133086695547562	0.000635483149897586	0.00309688701602768	0.000641096063182052	0.00309690983517811	0.0105080213864259	0.00611927646439306
3.6	-0.00398797023512873	-0.0137213061452662	0.0010651699212284	0.00296672223918233	0.00107336796049744	0.00296631874557983	0.0107045164624507	0.00524747816625053
3.7	-0.00661732866778654	-0.0135996428340633	0.00147268121478036	0.00277461108382344	0.00146325312911295	0.00278837965049575	0.011043632339593	0.00438375775622331
3.8	-0.00923463745646391	-0.0129312238932522	0.00184376815384719	0.00253798865372673	0.00184626438435688	0.00254708467739979	0.0112815616087084	0.00335824063076431
3.9	-0.0116151325011127	-0.0117175081241171	0.00217943225055114	0.00225850930849023	0.00217218582890301	0.0022568129151857	0.0112368997173063	0.00231722109418679
4	-0.0136763813320879	-0.0100506799294097	0.00245243263892872	0.0019353759700544	0.00245682897052076	0.00193291875605913	0.0110703231863507	0.0015705040166879
4.1	-0.0153279744613922	-0.00806556328622794	0.0026928812972264	0.00157786883598031	0.00269164442806767	0.00157860755730638	0.0111283803590038	0.00105300661765298
4.2	-0.0166346356168645	-0.00584237269937008	0.00288262231295721	0.00118313247680631	0.00288700184795257	0.00117447302176252	0.0113800949420549	0.000440586319837095
4.3	-0.0175936384252336	-0.00349584524810465	0.00301967303739562	0.000780153153170317	0.00302601113152336	0.000772403450660648	0.0116059042463958	-0.000501407018251076
4.4	-0.0182857556189809	-0.000908914798316928	0.00309425238208769	0.0003562014365776	0.00309660296987229	0.000353962605366207	0.011491384061262	-0.00148813573196288
4.5	-0.0185264366602264	0.00189841225934349	0.00311925836158343	-7.25610079897658E-05	0.0031245778250576	-7.59037165012239E-05	0.0112428584630455	-0.00229688685000509
4.6	-0.0182782768518291	0.00474242006234271	0.00308063604797729	-0.000508574151087486	0.00308183173531676	-0.000495744689610364	0.0109967969503724	-0.0030099472591954
4.7	-0.0174195649106963	0.00754730069972715	0.00298243145455801	-0.00092411166710006	0.00299766574156504	-0.000933639566719841	0.0107517865233594	-0.00374685362739083
4.8	-0.016083240760287	0.010166655202172	0.00282824868935751	-0.0013384714704698	0.00283671578692362	-0.00134451678463983	0.0104954166219164	-0.00450780559309365
4.9	-0.0141007997332547	0.0125028576032135	0.00261261656796865	-0.00172591426979762	0.00261676894382333	-0.00172300491012787	0.0101471298692353	-0.00518241875296817
5	-0.0116146164494811	0.0143243271641068	0.00235509396075845	-0.00208606170204796	0.00235871071709414	-0.00208339411410407	0.0100113551466832	-0.00567965747044684
5.1	-0.00860529577586117	0.0155579669084783	0.0020431617395211	-0.00240177868689511	0.00204546342566252	-0.0024004208109285	0.0101073023477568	-0.00628764772688671
5.2	-0.0055177227767034	0.0160399542892755	0.00168149229217458	-0.00265520699984427	0.00168319727667282	-0.00266035602422825	0.0102242574796797	-0.00710080552055536
5.3	-0.0024901704951568	0.0159220774213659	0.00128882087738839	-0.00287131575520783	0.00129196146793796	-0.00286926355353492	0.010156056072667	-0.00802493315095641
5.4	0.00035577300646133	0.0153217050029263	0.000857783587452206	-0.00301587206279206	0.000874880036066345	-0.00302716030265147	0.00984690006053362	-0.00907993552547473
5.5	0.00295712205982265	0.0143039670192125	0.000439399720141755	-0.00310747638987349	0.000449371184655237	-0.00311694807034898	0.00919371269792851	-0.0100476905942327
5.6	0.00526818463561094	0.0128299973318596	-8.6117235584603E-07	-0.00313467874784097	-9.37524150809206E-06	-0.0031378236119087	0.00832444045797451	-0.0106774035870972
5.7	0.00711503898608155	0.0109670300862612	-0.000429570581349422	-0.00309428984982446	-0.000446106628156847	-0.00309780606590108	0.00752016007634052	-0.0110646724242042
5.8	0.00842323660863898	0.00885596354705455	-0.000868508655102304	-0.00299025740113997	-0.000872109597383028	-0.00300410387044719	0.00674924252087332	-0.0116418546871974
5.9	0.00918204436507106	0.00672642862721396	-0.00126283651348473	-0.00284409672796658	-0.00127097949562425	-0.00284396966830283	0.00565575785634331	-0.0122466569807419
6	0.00949957281191165	0.00456902489640643	-0.00164783735966037	-0.00263609103939808	-0.00164432069861519	-0.00263626916958445	0.00421810224526779	-0.0124976285075032
6.1	0.00946277827056053	0.00239284830600986	-0.00198945301931966	-0.00238510378248745	-0.00199106421055692	-0.0023811511856621	0.00302714064498008	-0.0122307800408199
6.2	0.00900581227313713	0.000132338015360589	-0.00229069940874643	-0.00208069236905906	-0.00229434338349012	-0.00209240056036543	0.00232344667611683	-0.011968057258654
6.3	0.00815251675204972	-0.00209255031286998	-0.00256067496201534	-0.00175870725778642	-0.00256969896236195	-0.00175308221773903	0.00186265159504893	-0.0120725273479361
6.4	0.00679656673724982	-0.00414210657610355	-0.00278453240437493	-0.00138288954148324	-0.00277490135957873	-0.00138766793986702	0.00128126544627178	-0.0123254692280316
6.5	0.0051595848437368	-0.0059017755722598	-0.00294445723050382	-0.000992161503974657	-0.00295226881746974	-0.000987796723722566	0.00074108743043541	-0.0125175846711357
6.6	0.00321634424598272	-0.00727688328193892	-0.00306086681393288	-0.000578944410107279	-0.00306244529102002	-0.000582902070710244	0.000386128662454221	-0.0127314003192063
6.7	0.000976175145701568	-0.00813370705554138	-0.00312314984044462	-0.000148670700278357	-0.00313201575416611	-0.000142530002586781	-0.000161046901956386	-0.0130885569987649
6.8	-0.00145665602280097	-0.00831081946942702	-0.00311468575547803	0.000290580165210185	-0.00312579199878073	0.000295484631869254	-0.00102639255291476	-0.0133692834939131
6.9	-0.00384897244484929	-0.00775664756124084	-0.00305136185061039	0.000726691594617179	-0.00305436967161767	0.000729047010291121	-0.00210658476454888	-0.0133437097651343
7	-0.00590975197892821	-0.00665200860908899	-0.00292387401430018	0.00115418717873443	-0.00293668976875823	0.00115186981972677	-0.00312450308703634	-0.0130778969497609
7.1	-0.00769919649392197	-0.00517765212332386	-0.0027511555851741	0.00155182851227245	-0.00274755036247146	0.00156053991646497	-0.00401010571119265	-0.0124877911211071
7.2	-0.00921324727207657	-0.00338421942611276	-0.0024953195789891	0.00192904924700385	-0.0025018797435719	0.00193109739148415	-0.00447014878359499	-0.0118186869904937
7.3	-0.0105278697232758	-0.00129649373393649	-0.00219661690439774	0.00225551761742869	-0.00220788199688831	0.00226054583137658	-0.00460449451554477	-0.0115224066002089
7.4	-0.0114752008310545	0.00123337737006404	-0.0018493311172902	0.00254294001448056	-0.0018562545931435	0.00255656992636825	-0.00505699728624897	-0.011571364665594
7.5	-0.0118682397007911	0.00394716156480266	-0.00147733722155097	0.00278254992793268	-0.00147033714443533	0.00278995620651833	-0.005660161730157	-0.0118010513894666
7.6	-0.0116184550290965	0.00651148043906221	-0.00106591905113975	0.0029576544492044	-0.00106729731301886	0.00295296058637867	-0.00628976142007695	-0.0122318948026972
7.7	-0.0105333316399149	0.00890919418426434	-0.00063536572748788	0.00307286362007447	-0.000636703974762992	0.00307180613297728	-0.00708951772860256	-0.0124977096748973
7.8	-0.00886835693740659	0.010876164338585	-0.000211437761735061	0.00311497807106762	-0.000219204556035263	0.00312141321121513	-0.00814555073490691	-0.0127365969508036
7.9	-0.00640175945745138	0.0121899010054361	0.000223705500154948	0.00311614778557072	0.000231595704037011	0.0031176389858673	-0.00928571313739051	-0.0123019215166275
8	-0.00402632752585522	0.0131866849671407	0.000656107490389493	0.0030414249443296	0.000656178024643735	0.00304628611869149	-0.0105606640659953	-0.0119906026329177
8.1	-0.0010754123373217	0.0133155225096768	0.00105584154340174	0.00292558475427598	0.00107481609940001	0.00292674654841446	-0.0111561030463134	-0.0109310506846114
8.2	0.00153588617283276	0.0129657425667998	0.00145036766871893	0.00275185042192965	0.00145958332624709	0.00274478494538019	-0.0115063334097734	-0.0101177782766004
8.3	0.00393630274284526	0.0121915389504809	0.00181984406386909	0.00252460805588576	0.00181808176033243	0.00253803214893371	-0.0118052360711836	-0.00959846121623543
8.4	0.00614475302475969	0.011141912910922	0.00215364203135467	0.00226147825104756	0.0021506342089966	0.00226121826261266	-0.0123635088135954	-0.00921182446645909
8.5	0.00822357332143007	0.00966578963879102	0.002443684933192	0.00194585010751591	0.00244274668116327	0.00194900757826626	-0.0131573004725307	-0.00856392776441699
8.6	0.0100139680288622	0.00774319307362439	0.00269977045058393	0.00159839149811127	0.00270935711570985	0.00159200563768431	-0.0137606886057965	-0.00764817446442724
8.7	0.0113431500185039	0.00536634053933171	0.00290016176182647	0.00120402631262934	0.00290571968457305	0.0012048384435837	-0.014081601452583	-0.00678134777543536
8.8	0.012090992687674	0.00271097686619036	0.00305348645059679	0.000795658012224289	0.00305941765548306	0.000786944349623799	-0.014352162947841	-0.00624067732261208
8.9	0.0123557942500828	-0.000106515781014383	0.0031475390680115	0.000357750658632824	0.00314669305262825	0.000355473864736512	-0.0146568874957911	-0.00568672610796859
9	0.0121038820183061	-0.00308859894524561	0.00317113927652005	-9.53148420199348E-05	0.00317427858572826	-9.11336890456051E-05	-0.0149188662966602	-0.0049493436195993
9.1	0.0113277408184917	-0.00623299110214477	0.00313401660271383	-0.000550632841115466	0.00313681175838574	-0.00053755456995792	-0.0148771222182244	-0.0041495723458915
9.2	0.00965725036608964	-0.00927326293704094	0.00302751667680663	-0.000983827796435007	0.00303529236187997	-0.000986689900758308	-0.0147175998773023	-0.0035103291921797
9.3	0.00722552361882049	-0.0118425059499136	0.00285597446167897	-0.0014040885330011	0.00285525313082581	-0.00140914691224527	-0.0145543286521826	-0.00298468075247207
9.4	0.0042219906561257	-0.013689874361332	0.0026255575064907	-0.00180646110895956	0.00263214170955377	-0.00179876265239276	-0.0145290948951501	-0.00239089227585735
9.5	0.000823923386374115	-0.0148558695907161	0.00233921817494142	-0.00214788076407935	0.00234670947120203	-0.00214925264710895	-0.0146238241025661	-0.00173599967795155
9.6	-0.00282797503768858	-0.0152230421190647	0.00201020126917758	-0.0024534023378754	0.00201053704690715	-0.00245241259155037	-0.0146503553857429	-0.000918292480381783
9.7	-0.006638908940902	-0.0147263872646135	0.00163256278547711	-0.00270066885032546	0.00163810425522798	-0.00270804475028103	-0.0144617561952252	-0.000110311343900571
9.8	-0.0104124574241293	-0.0133265629856596	0.0012408414904074	-0.00290272794858763	0.00124659683276085	-0.00289421908979078	-0.0142682081181293	0.000495499068100333
9.9	-0.0138047623373917	-0.0109679266034118	0.000833638399134403	-0.00303365524082217	0.000826299152325436	-0.00303240291071455	-0.0143334337735583	0.00105899256932773
10	-0.0166209123129279	-0.00786364943017292	0.000406318130498223	-0.00311563244543883	0.00039880943417183	-0.00312806008595973	-0.014484767687027	0.00190155429012849
10.1	-0.0186717399599514	-0.00426429145894825	-2.93628605134835E-05	-0.00314309264508785	-3.95827904197868E-05	-0.00313771197320542	-0.0142992560960425	0.00286589896724109
10.2	-0.0200191753959552	-0.000344659738531072	-0.000467408639482166	-0.00310694252704735	-0.000470817913211002	-0.00310417814744711	-0.013738054526933	0.00366863973088674
10.3	-0.0206289506309972	0.00391769111834035	-0.000892916202771769	-0.00300692351199774	-0.000884784696976465	-0.00301594342169175	-0.013112102355357	0.00408493703829742
10.4	-0.0202861839586441	0.00837483038657255	-0.00128664581659398	-0.00286178771275064	-0.00128490214944685	-0.00286797377885164	-0.0126094612977843	0.00419761243348204
10.5	-0.0189488515805429	0.0127895375339321	-0.00167969170005019	-0.0026746429781563	-0.00167669915908896	-0.00266157692142057	-0.0123401290917868	0.00442925221397548
10.6	-0.0166792326029169	0.0168395026311707	-0.00203979915975519	-0.00241540060375463	-0.00203756197936134	-0.00241922308133649	-0.0120159913538585	0.00476782255813095
10.7	-0.0138000996669545	0.0205130232983738	-0.00236735885977809	-0.00212090269748499	-0.00236388601205655	-0.00211554110957349	-0.0115988159849118	0.00501681958621031
10.8	-0.00992477383610864	0.0237044024314171	-0.0026521098888041	-0.00176267349766665	-0.00264677109250222	-0.0017716581062421	-0.0111758650811618	0.00532806080674361
10.9	-0.00545943901901686	0.0263375966039733	-0.00287619916413366	-0.0013839886032296	-0.00288146651525374	-0.00138328264126099	-0.0111008227694296	0.00555699017343181
11	-0.000183503042167514	0.0279743742085572	-0.0030492331701775	-0.000956438852100564	-0.00305412894912992	-0.000963310113952933	-0.0109052950635013	0.00614705955260638
11.1	0.00545594039516114	0.0283968002555759	-0.00316683727271804	-0.000515519282372334	-0.00315578829808983	-0.00051259880350478	-0.0103149018885639	0.00683199980897649
11.2	0.0110847858164622	0.027533309776288	-0.00319856274100279	-5.90517774881392E-05	-0.0032058572438693	-6.3957197601485E-05	-0.00925481781523149	0.00728711969848308
11.3	0.0164082395499555	0.0253901620282713	-0.00316703240580534	0.000408481858041459	-0.00317883701465216	0.000398339973914148	-0.00782280548687741	0.00709854971799121
11.4	0.0212284707898083	0.0224627121027542	-0.00308232525045791	0.000852030802281425	-0.00307726191503608	0.000859671255322237	-0.00685514113017617	0.00663879020818834
11.5	0.0255337791159116	0.0186194755445069	-0.00292292103037561	0.00127806020306689	-0.00292561271450836	0.00128850975156453	-0.0062580813548001	0.00609811207889199
11.6	0.0289980563587028	0.0137813999899516	-0.00271008730582113	0.00167209636615931	-0.0027100266717267	0.00167506758081619	-0.00568056062279236	0.00536473232984953
11.7	0.0313846198072016	0.00835832819636745	-0.0024308168432292	0.00202312203714577	-0.00243125405141867	0.00203179838667152	-0.00512854056249858	0.00440296790288218
11.8	0.0327357330229286	0.00272340270805644	-0.00212075989628638	0.00234567943916363	-0.002124864986396	0.00234744745985372	-0.00488042402338383	0.00331258248974842
11.9	0.0331433677913853	-0.00287957187568381	-0.00176239584399826	0.00260763686964246	-0.00177536290906273	0.002612134046781	-0.00521859815168159	0.00268409916422653
12	0.0326560876588345	-0.00879564413564482	-0.00138670708454691	0.00281570161406144	-0.00138609454339465	0.00281710295721315	-0.00564545559751084	0.0022059494024974
