# GHZ S RI R 50
0.2	0.00681891404657126	-0.00133672135723957	0.00304830309224093	-0.000899441961719094	0.00305867614391546	-0.000892636989496401	-0.013115137135371	0.002342362383554
0.3	0.00626985843230703	-0.00196708598974393	0.00290332694544972	-0.00132381944417799	0.00289609055015679	-0.00131087372550247	-0.0131816421535194	0.00385821745167603
0.4	0.00615006815793008	-0.00231572766187422	0.00267031013144834	-0.00169623313971646	0.00267556685197408	-0.00170479953280667	-0.0125476433144471	0.00570081277111308
0.5	0.00630238692306744	-0.00298601293803677	0.00240951734975401	-0.00205292102707521	0.00242103079848213	-0.00206517481366634	-0.0111899635567079	0.00705062837276527
0.6	0.00628838717749777	-0.00418736344693425	0.00209487240761136	-0.00236636919509602	0.00209407280737688	-0.00237351115666082	-0.00971450200355903	0.00751226087803569
0.7	0.00550501189959563	-0.0056936290768273	0.00174594038652312	-0.00264199684621822	0.00174398678130511	-0.00264219123474454	-0.00883428161870562	0.00732991122836383
0.8	0.00386135934255956	-0.0069368946055757	0.00135964897012697	-0.00285634638304385	0.00134706597386928	-0.00286085883657052	-0.00875399160660911	0.00717473355260823
0.9	0.00153322678061742	-0.00724130839653148	0.000943019492245767	-0.0030163719969285	0.000944030500334875	-0.00302704315523499	-0.00922490375321949	0.00758790459713968
1	-0.000684926264378279	-0.00641152846842754	0.000520064898485717	-0.00311640905689125	0.000510236125206011	-0.00311713096750027	-0.00957310757025368	0.00885780760766615
1.1	-0.00215943436624414	-0.00485717487340168	6.77990335354205E-05	-0.0031426334672209	6.42884330137028E-05	-0.00316020959135481	-0.00924356275662445	0.0107135587174284
1.2	-0.00275217297149053	-0.00358517476570497	-0.000370083484605101	-0.00313073551717663	-0.000370891145456297	-0.00312866799096595	-0.00771864780484162	0.0123342154404873
1.3	-0.00334157548939298	-0.00314939568733328	-0.000792646527964423	-0.00304798551560064	-0.000795870747985939	-0.00304998342121167	-0.00547036466246265	0.0130304361076101
1.4	-0.00422912128957544	-0.00281854366871689	-0.0012097600563036	-0.00290194075226326	-0.00120854469181088	-0.00290744760922875	-0.00348883894894065	0.0127035565357969
1.5	-0.00452684333186709	-0.00199044594901645	-0.00160750065298301	-0.00270967015312943	-0.00160587677837799	-0.00271813193913333	-0.00190087214826059	0.0120048705923944
1.6	-0.00432574987323059	-0.0011065637800695	-0.00196657481895434	-0.00246169917136068	-0.00196677019144839	-0.00246691528709203	-0.00112641839413074	0.0113148946917557
1.7	-0.00408165742190923	-0.000290619060349775	-0.00229527540149099	-0.00216939967113687	-0.00229625882376395	-0.00216315947736718	-0.000786334340759678	0.0108429357050367
1.8	-0.00385188627141253	0.000889827655304235	-0.00256828203934816	-0.00182181430737768	-0.00257920483105405	-0.00182747746727351	-0.000728771898209304	0.0107511606679993
1.9	-0.00319023905419989	0.00224246404674077	-0.00279668305945671	-0.0014537398339685	-0.00280912737516015	-0.00144763831865088	-0.000594224645603148	0.0111342771843308
2	-0.00191385473947978	0.00343969062755787	-0.00297593807046258	-0.00104718576319955	-0.00298556869343234	-0.00104251146128216	-5.75151324174407E-05	0.011772601981317
2.1	-0.000194314985084268	0.00396102807709887	-0.00309272538656025	-0.000618283615838429	-0.00308863709125084	-0.000620263937634562	0.000988998866774526	0.0120985514586689
2.2	0.00142480346226978	0.00376396882894802	-0.00315248020789011	-0.000178284752940409	-0.00316378040662268	-0.000181145221003244	0.00217373270197571	0.0118941299564703
2.3	0.00256455169674294	0.00303258621066197	-0.00314884098091235	0.000267472656028912	-0.00314852876549817	0.000260588055559395	0.00293391503283383	0.0112714390647597
2.4	0.00321515754393457	0.00235251304944057	-0.00307594356877431	0.000708053643116883	-0.00307848202407008	0.000703793895128278	0.00327021194683247	0.0108749025178052
2.5	0.00380351851650898	0.00186361652648817	-0.00293716259686937	0.0011217651004926	-0.0029480493848512	0.00112814214055899	0.00365625056150724	0.0108343464818831
2.6	0.00467790391308682	0.0012759588615642	-0.00276084724800714	0.00152485577592926	-0.00275729723020237	0.00151254335267332	0.00445579864470165	0.0108669367992353
2.7	0.00565344966578958	0.000225030063773219	-0.00251267086792324	0.00189468404386072	-0.00251794198644862	0.00189469743926609	0.00538241006213541	0.010566675798654
2.8	0.00638914482995808	-0.00123419738210104	-0.00222836946917689	0.00221926282308548	-0.0022205721708588	0.00222902529804697	0.00610186381729023	0.0101632136711589
2.9	0.00687317636181451	-0.00284180955221545	-0.00189420697801929	0.0025156061146372	-0.00189051021540692	0.00251518098632253	0.00690837794301922	0.00997012700221107
3	0.0071395159276044	-0.00462579093510543	-0.00151005579731615	0.0027472220398306	-0.00152478253508079	0.00275328482025676	0.00803370481322102	0.0098157882295385
3.1	0.00713610431636885	-0.00673240614244833	-0.0011236875279693	0.00292142509751794	-0.00111906633943834	0.00292973921314002	0.00930423981795143	0.00927090131990243
3.2	0.00635289951777966	-0.00906635364676909	-0.000708505840234736	0.0030573664224978	-0.000710240597748334	0.00305675343485414	0.010206160652638	0.00842300217163851
3.3	0.0047582562323615	-0.0112689557524401	-0.000275906577793399	0.00312826415769997	-0.000274249626166017	0.0031245469525329	0.0108602319645897	0.00743683016609758
3.4	0.00249989584665213	-0.0128192166536988	0.000165660245873476	0.00312576580823255	0.000159392149504211	0.00314223558647278	0.0113043759132406	0.00645309952762282
3.5	8.1189523607458E-05	-0.0137918770090922	0.000583628321159253	0.00308831938461097	0.000589207473114068	0.00308842919640905	0.0115857979935228	0.00544991535521803
3.6	-0.0024409300603332	-0.0143264760274449	0.00101070245674287	0.0029759804126683	0.00101888225168739	0.00297571962116653	0.0118637950481005	0.00454649018449772
3.7	-0.00512460999780992	-0.0145054120432613	0.00142263426028432	0.00280208153518126	0.00141295355609018	0.00281568227840857	0.0121463885875393	0.00349092387250086
3.8	-0.00808458559038696	-0.0140719497065779	0.00180467996507322	0.00258107332970482	0.0018070205295105	0.00259024912529442	0.012083472717155	0.00237274409921093
3.9	-0.0108963867925574	-0.0127844575759617	0.00215642099240155	0.00231222304984219	0.00214915133264689	0.00231039005546715	0.0117415413208611	0.00153781177594796
4	-0.0131820163977334	-0.0108255212210538	0.0024481356278505	0.00199262793190162	0.00245261456576266	0.00199021246543764	0.0115620158971754	0.0011274113546762
4.1	-0.0148225339021983	-0.0086125895824619	0.00270710338374194	0.001631618415133	0.00270584160874142	0.00163235094349911	0.011826990437849	0.000762176941949611
4.2	-0.0161128257582766	-0.00632551371194752	0.00291221489882454	0.00122682162217369	0.00291673732266571	0.00121808100007275	0.0122058159450602	7.47605468219583E-05
4.3	-0.0171915186550813	-0.00390502107976114	0.00305901697360564	0.000809509396424054	0.00306549357512412	0.000801684553943463	0.0123597961013287	-0.000890847552784035
4.4	-0.0180086484401841	-0.0010722201734604	0.00313661987270314	0.000369483096341229	0.00313900937229679	0.000367219220504771	0.0121616410239719	-0.00172744998846073
4.5	-0.0181665104860372	0.00208414908784226	0.00315824229595764	-7.392921610202E-05	0.00316362776528673	-7.73144990303745E-05	0.01203687014805	-0.00230866559526314
4.6	-0.0176023916972954	0.00514101152788068	0.00311112902825343	-0.000520735443640382	0.00311236588984034	-0.00050777691544688	0.0120659442535075	-0.00298604531367842
4.7	-0.0164155044993764	0.00787915738989342	0.00300185879332679	-0.00094139494817176	0.00301717574931852	-0.00095104757984773	0.0120390417775003	-0.00390043448806088
4.8	-0.0149793077772288	0.0102866160734529	0.00283683260559933	-0.00135513361822553	0.00284531798251468	-0.00136123851204528	0.0117293381649296	-0.00486563297239568
4.9	-0.0130128385916343	0.0125436378982753	0.00261323101909797	-0.00173700152313121	0.00261740045984377	-0.00173409782758746	0.0112945766243023	-0.00555757858972226
5	-0.0104584770529985	0.014376276635149	0.00235255242956406	-0.00208873205615615	0.00235617215799571	-0.00208606881528308	0.0112144522302365	-0.00599115085952066
5.1	-0.00730993900635726	0.0154845823301664	0.00204303605358469	-0.00239587114467192	0.00204533278866786	-0.00239451251725456	0.0114412735669194	-0.00669485459501472
5.2	-0.0042713264674848	0.0156943888611271	0.0016887073733262	-0.00264341177859922	0.00169042937148416	-0.0026485440708889	0.0114990110885579	-0.00773341069467314
5.3	-0.00155391804166166	0.0154365107937105	0.0013065816469354	-0.00285844400699034	0.00130970377467548	-0.00285637329141393	0.0111607401175976	-0.00873198924646028
5.4	0.000995608781088013	0.0150091422930095	0.000886498912260108	-0.00300808767850605	0.000903704471850122	-0.00301921503330535	0.0106679298967165	-0.00959099256580003
5.5	0.003579444687563	0.0142927497798806	0.00047667050387024	-0.00311036455276956	0.000486777789344342	-0.0031197446447199	0.0101311541900664	-0.010339426402854
5.6	0.00610405228912297	0.0129429313280764	3.98041145204874E-05	-0.00315275256117479	3.12817881681618E-05	-0.00315602601055705	0.00952798650158751	-0.0110203617314587
5.7	0.0080721842681325	0.0109738561793888	-0.000392412610230382	-0.00312913885214052	-0.000409057504115264	-0.00313290835415249	0.00875550925889891	-0.0116991026505397
5.8	0.00931714190934725	0.00869122605241608	-0.000842560677369491	-0.00304063473700899	-0.000846035907996633	-0.00305470921480323	0.00775267356656045	-0.0125151325101154
5.9	0.00985981426943265	0.00657368110001677	-0.00125402653223524	-0.00290517737497466	-0.00126230758006104	-0.00290513411478583	0.00630534341345478	-0.0130597099166402
6	0.0100498162932197	0.00463492726152371	-0.00166060234750804	-0.00270063936896302	-0.00165701477575106	-0.00270079456363979	0.00469446920689036	-0.0130080324811795
6.1	0.0100910714501946	0.00268374887043484	-0.00202424630039298	-0.00244448942805002	-0.00202590711575063	-0.00244045630623967	0.00358725505145822	-0.012485732827301
6.2	0.00978336916063105	0.000474460420762906	-0.00234443849745697	-0.0021263363326867	-0.0023481743235679	-0.00213830837305383	0.00300383347046305	-0.0121710619035639
6.3	0.00892998325134629	-0.00178631215259256	-0.0026273547475193	-0.00178455397889943	-0.00263655114503249	-0.00177875514425228	0.00250522917296465	-0.0122705996321624
6.4	0.00760313522768213	-0.00378897886372519	-0.00285557106941607	-0.00138503819709917	-0.00284578557664794	-0.00139000777376539	0.00201512285021116	-0.0123975694629299
6.5	0.00615526684150561	-0.00551454114715177	-0.00301057855805864	-0.000971398521991759	-0.00301847370878765	-0.000966852484131674	0.001780006445405	-0.0125846306969797
6.6	0.00442611252663709	-0.0070617050080986	-0.00311422719207889	-0.000539157677619636	-0.00311589075573572	-0.000543147721104565	0.0016482453306938	-0.0130953664092814
6.7	0.00216534508211509	-0.00820158934239954	-0.00315818714711392	-9.66209629084185E-05	-0.00316703990116007	-9.02642443970312E-05	0.000962148643144712	-0.0137995676156462
6.8	-0.000510756092927949	-0.0084905108060207	-0.00312914175387438	0.000346412765947119	-0.00314023246079375	0.000351540530865086	-0.00025822315056413	-0.0141390932219574
6.9	-0.00307908280875486	-0.00783765206354881	-0.00304685942263722	0.000778282775360923	-0.00304983603480286	0.000780693003025932	-0.00149138718047488	-0.0139381431643032
7	-0.00507690826465632	-0.00649427686868249	-0.00290503984924362	0.00119505330848586	-0.00291787847612565	0.00119292097006404	-0.00242020805886524	-0.0134219911475524
7.1	-0.00659199554451466	-0.00499956169048021	-0.00272480256561947	0.00157858086664201	-0.00272110856882036	0.00158722384225158	-0.00305483764147635	-0.0128559879433925
7.2	-0.00791899504043423	-0.00349351572866944	-0.00246872177748723	0.00194116855699484	-0.00247523680110021	0.00194326162870355	-0.00344883805591943	-0.0124933618988213
7.3	-0.00936850067191707	-0.00176917132116783	-0.0021761901025824	0.00225624450526226	-0.00218738188478682	0.00226130496463223	-0.003901837402444	-0.0124646326352742
7.4	-0.0107608799257825	0.000472061448889994	-0.00183905121097978	0.00253780522063628	-0.00184592928198553	0.0025514025785954	-0.00469507004009512	-0.0126339714570863
7.5	-0.0115772689178511	0.00334894440729179	-0.00147805078356118	0.00277828031886913	-0.00147106453057461	0.00278568436784142	-0.00559341226767626	-0.0124865961458579
7.6	-0.011301002632763	0.00647909497101541	-0.00107515593138042	0.00296058703917977	-0.00107652528616226	0.00295588100784044	-0.00633395936167034	-0.0120629179123377
7.7	-0.010503182239666	0.00905438236163712	-0.000647661511723059	0.00308735194322622	-0.000649003802564818	0.00308628495135651	-0.00700959301861497	-0.0124845421294251
7.8	-0.00885892179070247	0.0113383570351539	-0.000219839141666536	0.0031421426560783	-0.000227688256902314	0.00314861855473886	-0.00802986943688133	-0.0124861294839469
7.9	-0.00656046207385968	0.0132348530404552	0.000226334779266939	0.00315386493993344	0.00023432043290531	0.00315537438420392	-0.00896245742852811	-0.0121087315484578
8	-0.00325745692757797	0.0143100141385364	0.000675415626258304	0.00308376874589453	0.000675502728721772	0.00308870072563405	-0.00956362742456801	-0.011209583555455
8.1	-2.57266328473348E-05	0.0144464570505633	0.00109403802861082	0.00296489127835288	0.0011133256777108	0.0029659339446641	-0.00999833898067012	-0.0107576679141445
8.2	0.00290280306236938	0.013715941484595	0.00150632627767475	0.00277922495044262	0.00151560752672344	0.00277193635942512	-0.0103481380316175	-0.010341849558921
8.3	0.00534123973485514	0.0125997080503164	0.00188825278194918	0.00253229903131797	0.00188668426431138	0.00254595146136047	-0.0108886081317636	-0.00998814504498424
8.4	0.00748293849389186	0.0113853490441268	0.00222624674803263	0.0022447880668605	0.00222319700579461	0.00224458664230079	-0.0116104161619362	-0.00948654042107827
8.5	0.00958006987403698	0.00984167697492368	0.00251025464959517	0.00190383411812978	0.00250938375506009	0.00190704010001732	-0.0123092413694184	-0.00868389264127627
8.6	0.0114739758962604	0.0077485493869841	0.00275081489388963	0.00153422586611287	0.00276027057480945	0.00152756897039243	-0.0126863891494383	-0.00783929232570016
8.7	0.0128237915449685	0.00500002428795634	0.00292766026827559	0.00112501473013255	0.00293323112065868	0.00112567777440126	-0.0128905490270851	-0.00727440476503307
8.8	0.0132743842724493	0.00202631452034452	0.0030536602555424	0.000711300501891429	0.00305932624981114	0.00070249159105489	-0.0134027379971788	-0.00697063313748056
8.9	0.0130864121513654	-0.000806788244114301	0.00312022552067368	0.000278656763996251	0.00311933487227962	0.000276426059904657	-0.0140353426958036	-0.00633771849176188
9	0.0125421927629029	-0.00351608119517186	0.00312067972732114	-0.00015934265536906	0.00312385737451015	-0.000155290266221457	-0.0144064786952889	-0.00530595955223336
9.1	0.0116518023549583	-0.00632409932154192	0.00306806770725901	-0.000592755934188851	0.00307102962965592	-0.000579961136621667	-0.0143081338441796	-0.00427734418183606
9.2	0.0100073715487453	-0.00918239636632601	0.00295599117952659	-0.00100112846540523	0.0029635791015742	-0.00100402840194538	-0.0140540856767295	-0.0035878613683981
9.3	0.00754924090940358	-0.0115744523845433	0.00278855433833054	-0.0013975504011689	0.00278780942174939	-0.00140250261565681	-0.0138803174415401	-0.00299512248593821
9.4	0.00464217095703893	-0.0132466496543812	0.00257032039090358	-0.00178081753952469	0.00257680514887305	-0.00177328515888964	-0.0138019351848999	-0.00239988486434462
9.5	0.00150384696617822	-0.0140752839385167	0.00230131861940584	-0.00211119019793755	0.0023086861277902	-0.00211253601589326	-0.013575106975131	-0.00157832170249215
9.6	-0.00179454402878287	-0.0145209310424689	0.00199065941873093	-0.00241416810152098	0.00199098762981568	-0.00241319065814294	-0.0133605007658623	-0.000988451490553402
9.7	-0.00543532704783885	-0.0143348068212374	0.00162866506679515	-0.00266694121274944	0.00163418529628552	-0.00267422015607306	-0.0131945815958486	-0.000535601713209926
9.8	-0.00932849859282346	-0.0132376898837333	0.00124652343308305	-0.00287984381888269	0.00125220615653337	-0.00287135973257907	-0.0132775880671479	-0.000124947547984325
9.9	-0.0130533014699278	-0.0108875944425475	0.000841254582334411	-0.0030236046689614	0.000833929252032355	-0.00302237873746835	-0.0136704235197456	0.000576905971923424
10	-0.0160244670008078	-0.00766453602105571	0.000408452814306652	-0.00311640214827443	0.000400949612985294	-0.00312883871997862	-0.0138528675199329	0.00159772011158903
10.1	-0.0180951497767493	-0.00393959547227634	-3.82374835492455E-05	-0.00314921428600713	-4.84624928309645E-05	-0.00314379432543086	-0.0136075607574832	0.00258908688868826
10.2	-0.0194434226903553	2.26312747837641E-05	-0.000489384462344794	-0.00311071149587463	-0.000492782700887145	-0.00310791798831791	-0.0131176297942879	0.00332584805463434
10.3	-0.0201170758706769	0.00434851612275421	-0.000925864939392601	-0.00300038228616557	-0.000917821556217999	-0.00300949784429301	-0.0126751058356046	0.00383121532686601
10.4	-0.0197949427300032	0.00899719937260006	-0.00132480450625649	-0.00283892056278529	-0.00132315083483412	-0.00284512091068381	-0.0122019209868075	0.00423448409118816
10.5	-0.0182623136206453	0.0136383756253593	-0.00171471822746302	-0.00263216864971795	-0.00171152595319592	-0.00261922384310855	-0.0116708685701595	0.00471964899830532
10.6	-0.0156216791527358	0.0177207797900163	-0.00206195851296734	-0.00235478556382231	-0.00205981174194477	-0.00235860899053534	-0.0109761473097175	0.00505180344767215
10.7	-0.0123187013412295	0.0211589439631631	-0.00236852950380801	-0.00204752392392288	-0.00236501569237874	-0.00204230402874947	-0.010291849994577	0.00522434474207397
10.8	-0.00847905817069119	0.0240341657126985	-0.00262663988549165	-0.00168588924876449	-0.00262154855492278	-0.00169477766865962	-0.00985653311804949	0.00527431801361466
10.9	-0.0040712054983977	0.0263569745842976	-0.00282342278684237	-0.00131441815684469	-0.00282855307207268	-0.00131366369479897	-0.00959940999820127	0.00546626272542192
11	0.00112140960428345	0.0278549006777219	-0.00297240848471573	-0.000905166659487992	-0.0029772242079156	-0.000911807590806942	-0.0091929667525309	0.00591511106514193
11.1	0.00670329497254199	0.0280846430434945	-0.00307367612257011	-0.000490900648747731	-0.00306294892131665	-0.000488099596696564	-0.0084267084243347	0.00623580364649917
11.2	0.0121345543337649	0.0269571313844631	-0.0031004783973306	-6.60536887105293E-05	-0.00310753607333117	-7.08290240019672E-05	-0.00746901016996844	0.00619257666887161
11.3	0.0171241517371179	0.024853064298773	-0.00307598761629891	0.000369548752397534	-0.00308735436517967	0.000359609781728096	-0.00662626317702978	0.00588137629888472
11.4	0.0214992118073026	0.0220244683321898	-0.00300894389206686	0.000786152121009636	-0.00300412533012057	0.000793651234167846	-0.00605466544577294	0.00539973041795005
11.5	0.0254664238501347	0.0184481391015603	-0.00287583867413668	0.00119393265646493	-0.00287865622153873	0.00120408137747674	-0.00571632802594865	0.00481372128862651
11.6	0.0288915807557484	0.0139602524126244	-0.00269324046960669	0.0015808580699594	-0.002693245216495	0.00158377251643675	-0.00537064384570767	0.00419449064274199
11.7	0.0312893723851491	0.00876656520663948	-0.00244355676073312	0.00193681768597101	-0.00244419203551578	0.00194535913850387	-0.00513706205490778	0.00334188068043052
11.8	0.0326005288083927	0.00334793197592383	-0.00215788441837672	0.00227381889200306	-0.00216199497347852	0.00227547271956137	-0.00525987314881424	0.00253941278030012
11.9	0.0331497440267787	-0.00197841991626222	-0.00181500952292336	0.00255748062603402	-0.00182802917958658	0.00256166521390701	-0.00555530681511937	0.00243837383487139
12	0.0328271458601839	-0.00763283971023595	-0.00144416999201376	0.00278886092224182	-0.00144358550616694	0.00279027522481523	-0.00578817647637851	0.00243069988550825
