# GHZ S RI R 50
0.2	0.00569362728447461	0.00411636799258582	0.00304829480979722	-0.00089576475173176	0.00305865689261427	-0.000888950521348819	-0.0142821659572255	0.00772541134841612
0.3	0.00653652904284794	0.000480201516818878	0.00290510378189639	-0.00131763692980877	0.00289784372390112	-0.00130470948735069	-0.0129657369983205	0.00624247189353394
0.4	0.00579826911597196	-0.00234330811565716	0.00267559345531409	-0.00168827783376161	0.00268087635300986	-0.00169682888692191	-0.0129198912687226	0.00560867824813824
0.5	0.00416849003426345	-0.00407081727293785	0.00241977295364268	-0.00204488451023911	0.00243134526625106	-0.00205710189912021	-0.0132997790794589	0.0058519816237991
0.6	0.00245427858183974	-0.00468399161513884	0.00211054841427974	-0.00236086518786426	0.00210978199694068	-0.00236802521044153	-0.0135209351876803	0.00680403492726687
0.7	0.00110679254944939	-0.00459869970325716	0.00176618961634748	-0.00264183458910494	0.00176423024999761	-0.00264204013163345	-0.0132816434882175	0.00812082040356272
0.8	0.000331638025450546	-0.00441332644538826	0.00138214988230363	-0.00286382823067638	0.00136952594116945	-0.00286843213663571	-0.012467376213295	0.00938444159403034
0.9	-0.000329943581654815	-0.00446389295820451	0.000964451552395776	-0.00303273996530303	0.000965522182813729	-0.00304348048589868	-0.0113717129515022	0.0101597972615142
1	-0.00127677640243286	-0.00476916866188611	0.000536713608275084	-0.00314128259347013	0.000526802803909016	-0.00314204908473228	-0.0104093009474088	0.0104630840994581
1.1	-0.00284571733591378	-0.00493547938989799	7.59162668567895E-05	-0.00317391139653657	7.24121515481335E-05	-0.00319167165949992	-0.00996945819735874	0.0106837160625254
1.2	-0.00479071306046774	-0.00467253591288725	-0.000372741613786268	-0.00316507698367581	-0.000373559004544487	-0.00316298724291734	-0.00953231118088792	0.0112104896003449
1.3	-0.00666945793216362	-0.003983609360307	-0.000806797779842301	-0.00308093633598781	-0.000810061721498677	-0.00308295120071485	-0.00842323334230235	0.0119443482843766
1.4	-0.00798392621593898	-0.0031001236871977	-0.0012343963566203	-0.00292904999223242	-0.00123318921348902	-0.0029346220382475	-0.00686181846070267	0.0120467236164295
1.5	-0.00852909414683245	-0.00169961638811712	-0.00163983674918786	-0.00272738957293253	-0.00163824692730818	-0.00273594627365357	-0.0055276544453819	0.0118093307185119
1.6	-0.00830653967058444	0.00020387247043463	-0.00200235982639494	-0.00246789097620546	-0.00200259677183882	-0.00247315058307614	-0.00490312551351095	0.0119897956817851
1.7	-0.00728057081943546	0.00195072851705576	-0.00232995423538315	-0.0021638298782628	-0.00233088925028924	-0.00215753876909128	-0.00397872791394013	0.0124173844752467
1.8	-0.00587554799146644	0.00327769537264454	-0.00259742507383207	-0.00180626799693359	-0.00260845224945839	-0.00181185525567983	-0.00290271036310653	0.0125646742025173
1.9	-0.0044655851020906	0.00400599421049182	-0.00281746735539812	-0.00143156839112092	-0.00282988746956729	-0.00142533545515609	-0.00201222745082915	0.0124692495232316
2	-0.00322265264945208	0.00447958324927916	-0.00298702437051282	-0.00102248315975744	-0.00299662190907669	-0.00101772314459958	-0.00139455947149361	0.0124203821072421
2.1	-0.0019772506277426	0.00482924308263066	-0.00309482213107964	-0.000595288883359474	-0.0030907514298663	-0.000597297427175854	-0.000754943213057474	0.0124724036310139
2.2	-0.000555254357176999	0.00507027162400824	-0.00314807824016128	-0.00016028023900469	-0.00315937513132599	-0.000163072361945291	0.000142559444289333	0.012588885751938
2.3	0.00107308870067895	0.00479380662440012	-0.00314157731128091	0.000278792923424614	-0.00314129162876236	0.000271920827929569	0.00120656760304497	0.0124598097308107
2.4	0.00257042984437912	0.00394728306648743	-0.00306973949761956	0.000712974090691902	-0.0030722823276849	0.000708725988059471	0.00230293186802585	0.0120944339654431
2.5	0.00360683547992624	0.00260483278513944	-0.00293530108703807	0.00112247468297603	-0.00294618003851662	0.00112885330445141	0.00327064586998331	0.0114291287256074
2.6	0.00417691827419327	0.00118847599272597	-0.00276501046523528	0.0015249270987584	-0.00276144869269839	0.0015126025095313	0.00401873465150093	0.0106725326989172
2.7	0.00456660956816016	-0.000142973579956723	-0.00252249868176438	0.00189817099459348	-0.00252778647349569	0.00189817918471694	0.00452377765751417	0.00997478777923048
2.8	0.00495909099464491	-0.00159518642791805	-0.00224151424406541	0.00222961703498668	-0.00223368175851015	0.00223943590986994	0.00496007666717174	0.00948576297983921
2.9	0.00517142929226305	-0.00333724199607516	-0.00190663965692102	0.00253494427180826	-0.00190291620892104	0.00253451405193436	0.00560642707677376	0.00912956339759528
3	0.00489555796876663	-0.00520179556844682	-0.00151687133837936	0.00277529786211423	-0.00153171447671808	0.00278145004851638	0.00636885436724569	0.00875031581834563
3.1	0.00425316282353839	-0.00691263384536421	-0.0011206268686195	0.00295587661630938	-0.00111591938975787	0.0029642507459836	0.00705514947246674	0.00830046132088962
3.2	0.00324615713006398	-0.00850455106711791	-0.00069221413723586	0.003093845491153	-0.000693971213634274	0.00309323960568757	0.00760277296249639	0.00794972448143427
3.3	0.00193648867888778	-0.0101111775373139	-0.000245382800756923	0.00316098954908482	-0.000243749457748719	0.00315721937216237	0.00835605539323139	0.00747925770552949
3.4	8.15608716965166E-05	-0.0115163623565189	0.000208733749423095	0.00314863871668251	0.000202635300437584	0.00316532437943484	0.00913274230211124	0.00666656204314659
3.5	-0.00225994652877219	-0.0125689221039816	0.000635406698159107	0.00309682780729283	0.000641019480728358	0.00309685073774853	0.00956177544285951	0.00551310779979712
3.6	-0.00489566377413659	-0.0129113205925685	0.00106507017697791	0.00296668817409535	0.00107326805574565	0.00296628490312643	0.00969744371263061	0.0045977673911971
3.7	-0.00744827541084885	-0.0125947108456419	0.00147257467514793	0.00277460482241929	0.00146314635638027	0.00278837287227779	0.00988233166920138	0.00382691649886924
3.8	-0.00978907149116193	-0.0118311337740404	0.00184366539495104	0.00253801280253681	0.00184616131073228	0.00254710878518606	0.0100997532639619	0.00306123195376128
3.9	-0.0119020038236106	-0.0107845400304115	0.00217934448189816	0.00225855803184071	0.00217209817243782	0.00225686142859348	0.0102770167498846	0.00222255686934378
4	-0.0139411129688868	-0.00939818056523471	0.00245236223266303	0.00193543921648952	0.00245675861497175	0.00193298214639214	0.0103945874770051	0.00142892485132595
4.1	-0.0157557036334547	-0.00753359749641073	0.00269282589347847	0.00157794518587178	0.00269158900574684	0.00157868386781272	0.0105547633957022	0.000715892649410807
4.2	-0.0171476835348562	-0.00524351970583744	0.00288258736380469	0.0011832238741532	0.00288696717398909	0.00117456455000655	0.0107386736956788	1.1325203674806E-05
4.3	-0.0180138809106814	-0.0028753456054721	0.0030196749262775	0.000780249071957665	0.00302601330247352	0.000772499493051015	0.0109612596382037	-0.000851925969098461
4.4	-0.018636709096575	-0.000453111109835982	0.00309428350138947	0.000356282895550049	0.00309663417515132	0.000354044093804767	0.0110238455215955	-0.00179576312283024
4.5	-0.0190210495801687	0.00214082923615821	0.00311930491462814	-7.25026836599256E-05	0.0031246245187751	-7.58453393242914E-05	0.0109895666854702	-0.00276924123774992
4.6	-0.0190651051525463	0.00496345507100082	0.00308069059356326	-0.000508533135586214	0.00308188609618331	-0.000495703461533078	0.0107678127019266	-0.00378340671933644
4.7	-0.0184053258974168	0.00795645508034781	0.00298247687136221	-0.000924095022183719	0.00299771143555127	-0.000933622895999524	0.0103481302488839	-0.00472459127152279
4.8	-0.0170541059234585	0.0107643213560601	0.00282827880202547	-0.00133846217723152	0.00283674600361351	-0.0013445074787291	0.00992171206261193	-0.00548033775903133
4.9	-0.0150249958324961	0.0131382360866757	0.00261263410681512	-0.00172590046733281	0.00261678647230866	-0.00172299107304861	0.00955545453132456	-0.00612017817738947
5	-0.0126245026891189	0.014980010255183	0.0023551091311949	-0.00208603671392562	0.00235872585715174	-0.00208336909733908	0.00942482716903358	-0.00671836309412777
5.1	-0.0097071067369498	0.0164091463128802	0.00204318385217619	-0.00240174135339227	0.00204548551035072	-0.0024003834535538	0.00935097002462944	-0.00744749742130781
5.2	-0.00648344567773479	0.0171496994373861	0.00168153373629307	-0.00265516115867573	0.00168323880935513	-0.00266031012364297	0.0092152821894682	-0.00816286824391123
5.3	-0.00315323731567657	0.0170693498266022	0.00128889090368938	-0.00287127671281318	0.00129203143522791	-0.00286922443597543	0.00909414779925045	-0.00880401452586042
5.4	-0.000146344387571349	0.0162528486047907	0.00085787295385642	-0.0030158574774499	0.000874969783099235	-0.00302714526440015	0.00899601340826347	-0.00968682250801908
5.5	0.00232981568947673	0.0150431314110434	0.000439494351977785	-0.00310748701293253	0.000449466170281981	-0.003116958472198	0.00856555690491877	-0.0107672450161698
5.6	0.00442213298725319	0.0136464074772146	-7.64787882801777E-07	-0.00313471016085305	-9.27884562219694E-06	-0.00313785531827608	0.00766728910794067	-0.0116399548073161
5.7	0.006258465780319	0.0120653543631292	-0.00042948519076816	-0.00309435801373283	-0.000446021427123557	-0.00309787478998104	0.00660047433291682	-0.0120988418637445
5.8	0.00786266991423081	0.0101276608888777	-0.000868432728676256	-0.00299035186270345	-0.000872033310089791	-0.00300419875609753	0.00561727427649841	-0.0124293754392388
5.9	0.00896757371059304	0.00782749513436719	-0.00126278417283335	-0.00284421790859055	-0.00127092739332772	-0.00284409109920757	0.00463192534694596	-0.0126722132523541
6	0.00935506718881506	0.00528098443764105	-0.00164782057940975	-0.00263622734918415	-0.00164430379290392	-0.00263640538766456	0.00357234955686174	-0.0127806316483471
6.1	0.00908520232138525	0.00284042557600689	-0.00198947168974958	-0.00238524181765119	-0.00199108303659314	-0.00238128910908889	0.00270377821806395	-0.0126885450859015
6.2	0.00838859605772183	0.000575681829232927	-0.00229075235462071	-0.00208082375829525	-0.00229439624634217	-0.00209253250465714	0.00207511987507135	-0.0126624837120985
6.3	0.00745744964348776	-0.0016249200739126	-0.00256075280998663	-0.00175881658045323	-0.00256977725995878	-0.00175319144583989	0.00162491353944462	-0.0128527033603262
6.4	0.00593615304803028	-0.00377500616942602	-0.00278463262633151	-0.00138297428467975	-0.00277500113861418	-0.00138775278187249	0.00120342482146686	-0.0132395115959077
6.5	0.00392989325764515	-0.0054479620164713	-0.00294456782567441	-0.000992217562287061	-0.00295237974616466	-0.000987852654342242	0.000707598155812775	-0.0138160874965802
6.6	0.0017720356029507	-0.00638135428172365	-0.00306098312575832	-0.000578974842636623	-0.00306256165305856	-0.000582932659713733	1.70369487799227E-05	-0.0143780582097489
6.7	-0.000256221117252848	-0.00678901325383865	-0.00312327100631897	-0.000148671765158081	-0.00313213725407233	-0.000142530816260821	-0.00100612742565937	-0.0146871184724025
6.8	-0.00228617938151419	-0.00688368054025584	-0.00311479880721165	0.00029061311576844	-0.00312590542596473	0.00029551784297893	-0.00206717001327161	-0.0146241629217422
6.9	-0.00449942154003377	-0.00654325076000295	-0.00305145601025218	0.000726741659288076	-0.00305446390992015	0.000729097178301698	-0.00299028930751403	-0.0143655626333515
7	-0.00671388442050449	-0.00558692285957869	-0.00292394931445443	0.00115424727730021	-0.00293676546514344	0.00115192996561267	-0.00379464725904107	-0.0141993048949852
7.1	-0.00871976934588543	-0.00391824433232809	-0.00275122193530913	0.00155188948478613	-0.00274761655578887	0.00156060110756215	-0.00476076998541711	-0.0138975379836456
7.2	-0.0101388886653829	-0.00170089971741629	-0.00249539074080901	0.00192911731835122	-0.00250195110232004	0.00193116554788385	-0.00563621503088259	-0.0133222780699495
7.3	-0.0109481705850557	0.000643536454625617	-0.00219669454800471	0.00225561562659384	-0.00220796006515633	0.00226064408481014	-0.00620250425806344	-0.0126795717176305
7.4	-0.0112785525577827	0.00296542714071954	-0.00184938798708321	0.00254309083404127	-0.00185631162001764	0.00255672151369885	-0.00671882938556543	-0.0120848568066317
7.5	-0.0113940014324318	0.00510160050500695	-0.00147733784325095	0.00278273525362127	-0.00147033719877179	0.00279014172581736	-0.00690800812247088	-0.0118146993553038
7.6	-0.0112953854700804	0.00719027264250189	-0.0010658548643734	0.00295783716818469	-0.00106723337472082	0.00295314313483536	-0.00702724650520092	-0.0121730235650629
7.7	-0.0104445882939672	0.00931603387177638	-0.000635256342185269	0.00307301155588978	-0.000636594687995907	0.00307195408589263	-0.00746244478189557	-0.0125285259697623
7.8	-0.00901159271704574	0.0110603125000321	-0.00021130551485579	0.00311508959684605	-0.00021907227616004	0.00312152529489118	-0.00819341749498693	-0.0128733347245286
7.9	-0.00696285736078044	0.0121484780967832	0.000223848234372192	0.00311621273942255	0.00023173869341964	0.0031177036277132	-0.00891437440073191	-0.0127093623590136
8	-0.00523700173156166	0.013343114306972	0.000656221355476441	0.00304145639343853	0.000656292054508999	0.00304631765097207	-0.0100252799414184	-0.013086019338566
8.1	-0.00266107120148193	0.0139950785073589	0.00105593689028963	0.00292560473888298	0.00107491178938846	0.00292676604638752	-0.0108801474139986	-0.0126383824406367
8.2	4.80606268031842E-05	0.0142211191272522	0.00145045761523818	0.00275188553076452	0.00145967334547021	0.00274481970117138	-0.0117818297908182	-0.0120510546727687
8.3	0.002799086982507	0.0136691613039254	0.00181996185211695	0.00252464550311516	0.00181819981007517	0.00253807006600304	-0.0124532848519957	-0.0113479381710627
8.4	0.00518774900055705	0.0125114959062693	0.00215378799117744	0.00226148296827605	0.00215078006005126	0.00226122306984969	-0.0130022420201458	-0.0107509241450495
8.5	0.00712312893738381	0.01097258300396	0.00244382844668343	0.00194580785748595	0.00244289029260968	0.00194896545189518	-0.0136489370447159	-0.0102023424567025
8.6	0.00872241677751097	0.00932173354835021	0.00269988957258801	0.00159831768937356	0.00270947618323558	0.00159193131735029	-0.0143680331808819	-0.00961568593741633
8.7	0.0101891256592692	0.0073792424197778	0.00290025735538113	0.00120393758387671	0.00290581540485044	0.00120474951894976	-0.0151329006221216	-0.008888066640144
8.8	0.0114231599637584	0.00496233577614948	0.00305356587920511	0.000795561275581982	0.00305949686890798	0.000786847254486083	-0.0158821668211528	-0.00807520126392012
8.9	0.0121611200620067	0.00195485940953769	0.00314760526536775	0.000357639369015464	0.00314675915093071	0.000355362568408523	-0.0162933599318406	-0.00701048125549087
9	0.0120424537537602	-0.00139192040093291	0.00317118080492982	-9.54462586625361E-05	0.00317432033059835	-9.12651745260354E-05	-0.0163154254931056	-0.00594684713341594
9.1	0.011224245854697	-0.00474133486773561	0.00313403064216462	-0.000550773110729185	0.00313682638913982	-0.000537694802204529	-0.0160646389252623	-0.00506145294047948
9.2	0.00954923736291268	-0.0078797847913482	0.00302749449723893	-0.000983967019190189	0.00303527011067033	-0.000986829483393263	-0.0158061506958417	-0.00436917254032311
9.3	0.00713228556419639	-0.0106872696094165	0.00285591883222096	-0.00140421944905169	0.0028551972738227	-0.00140927780852883	-0.0154388381293553	-0.00369129735444788
9.4	0.00389149612534278	-0.0128257798590513	0.00262546213196516	-0.00180655472584701	0.00263204659920433	-0.00179885660182114	-0.0150151660374519	-0.00312355961028665
9.5	2.08108214750767E-05	-0.0140285609939058	0.00233908669544744	-0.00214794511733446	0.00234657780712767	-0.00214931729871792	-0.0147797383366915	-0.0028394230079736
9.6	-0.00396974987111102	-0.0140455587891821	0.00201007248627704	-0.00245341879799357	0.00201040829131021	-0.00245242908461402	-0.0148747757504951	-0.00251561144699406
9.7	-0.00770673077600294	-0.0130940901307117	0.00163246032692397	-0.0027006540863626	0.0016380014946981	-0.00270802997335188	-0.0150894494031285	-0.00192848973088158
9.8	-0.0111123068996653	-0.0115313435160777	0.00124076640766117	-0.00290270944975672	0.0012465218320749	-0.00289420082900847	-0.0152382524516185	-0.00112703243087669
9.9	-0.0142511695410608	-0.00938694895094847	0.000833557360888397	-0.00303365365212651	0.000826218198943697	-0.00303240115000193	-0.0152770822792971	-0.00023186720269996
10	-0.0171600693433721	-0.00650991981267324	0.000406232195394193	-0.00311562791715728	0.000398723201776833	-0.00312805529385472	-0.0151782741500717	0.000675651252409684
10.1	-0.0193882528005524	-0.00284518058408803	-2.94532302974232E-05	-0.00314307927305686	-3.96729644737777E-05	-0.00313769832851206	-0.0149185893092358	0.00145821341917162
10.2	-0.0206336579219435	0.0012541804816913	-0.000467503759062657	-0.00310692073185806	-0.000470912939093432	-0.00310415625331137	-0.0145494188060687	0.0022222861371416
10.3	-0.0209627441117287	0.00539701837383893	-0.000893022385810568	-0.00300688980281717	-0.00088489120573181	-0.0030159099954112	-0.014001725934114	0.00292907285706834
10.4	-0.0206396589493755	0.00937367297901489	-0.00128676897253113	-0.00286173141528554	-0.00128502557292356	-0.0028679175551046	-0.0131543118353194	0.00326464640398824
10.5	-0.0197019679549131	0.0135917017178121	-0.00167982000560842	-0.00267454298965803	-0.00167682681093032	-0.00266147715431201	-0.0124096603223092	0.00340319979543667
10.6	-0.0178852889116938	0.0178200572523047	-0.0020399168288068	-0.00241524649839235	-0.00203767990715903	-0.00241906905931661	-0.0118999467786272	0.00328456704739187
10.7	-0.0150167450474311	0.0218458472920842	-0.00236741547251835	-0.00212067313526359	-0.00236394239427203	-0.00211531196244941	-0.0115953241946493	0.00331200678955784
10.8	-0.0111880580523587	0.0251982743797001	-0.00265211953925309	-0.00176242670709718	-0.00264678155367528	-0.00177141130618568	-0.0113581575429966	0.00344650182915552
10.9	-0.00683509939056341	0.0278158731756555	-0.00287612065307899	-0.00138375871633907	-0.0028813876846966	-0.0013830525059687	-0.0111759636449425	0.00360091051339891
11	-0.0018731774037644	0.0296725402097822	-0.00304909814574677	-0.000956236659678354	-0.00305399396241881	-0.000963107280465742	-0.0109003007266363	0.00380984909103005
11.1	0.00361423370844918	0.0307047060859105	-0.00316666079781353	-0.000515349660066375	-0.00315561239013139	-0.000512429843345134	-0.0106081873641899	0.00395697885075412
11.2	0.00960353319619846	0.030528269674325	-0.00319835418155023	-5.89164254481006E-05	-0.00320564840478715	-6.38212221998475E-05	-0.0102548207038451	0.0041630679074885
11.3	0.0156950003073168	0.0286394292519054	-0.00316678907588948	0.000408568180074474	-0.00317859320417599	0.000398427458898873	-0.00952710141462458	0.00430618652590023
11.4	0.0211374146985894	0.0255131139654677	-0.00308205814019051	0.000852079488937088	-0.0030769949097098	0.000859719170875594	-0.00885997568299359	0.00439279195159783
11.5	0.0257562620484438	0.0213503047012345	-0.00292261912738879	0.00127806068584459	-0.00292531018064967	0.00128850943131628	-0.008262474384785	0.00427237253115605
11.6	0.0294033373590443	0.01630635147425	-0.00270978072457982	0.00167200687905505	-0.00270972001720146	0.00167497780479702	-0.0076835723916543	0.00379673606731024
11.7	0.0321172069941515	0.0106303495630016	-0.00243055690200675	0.00202293865684479	-0.00243099399685258	0.00203161413990092	-0.00721069214905452	0.00323510985138535
11.8	0.0337327343893267	0.00439783136203831	-0.00212059015631884	0.00234543618202557	-0.00212469488523404	0.00234720398984471	-0.00676709155450539	0.0027735980876043
11.9	0.0339479160808961	-0.00199253326024596	-0.00176232474704937	0.00260737314000294	-0.00177529087470075	0.00261186958228887	-0.00642240410055375	0.00262059676261802
12	0.0327796843924696	-0.00835138343032006	-0.00138670415730932	0.00281549145691364	-0.00138609169348193	0.00281689273290997	-0.00601753483669329	0.00202535447722273
