# GHZ S RI R 50
0.2	0.00638042214009137	0.00102684251719226	0.00304834601350162	-0.000897679442513492	0.00305871392607874	-0.000890869893166765	-0.0135461819877584	0.0047014740069948
0.3	0.00639770813182381	-0.000924063417775975	0.00290426272690714	-0.00132089937863738	0.00289701479368824	-0.00130796202640331	-0.0130505254383575	0.00488502718892023
0.4	0.0059986649661118	-0.00232580596007924	0.0026729020657731	-0.00169252828454646	0.00267817135244743	-0.00170108771702982	-0.0127126526122096	0.00566526120569937
0.5	0.00540181036593765	-0.00344065265797456	0.00241441616471883	-0.00204921513538914	0.00242595765294253	-0.00206145223754671	-0.0121291013207013	0.00657406177749099
0.6	0.00468210566202807	-0.00440360251922596	0.00210226876947251	-0.00236385801223468	0.00210148468112105	-0.00237100862618535	-0.0113805108150814	0.00729329136643401
0.7	0.00366388233500323	-0.00525638766916565	0.00175544203938058	-0.00264196198737583	0.00175348570820451	-0.00264216159782205	-0.0107427818719633	0.00779180944177816
0.8	0.00238022414103759	-0.005908728990144	0.00137019218137196	-0.00285984006798636	0.00135759005041356	-0.00286439537830964	-0.0102963118543947	0.00825107689737427
0.9	0.000751496152970833	-0.0061070720563009	0.000953085649127481	-0.00302396070821658	0.000954124729968374	-0.0030346641160908	-0.0100556355301204	0.00878207406059418
1	-0.000923894753825935	-0.00575533137316772	0.000527967380872057	-0.00312791805082764	0.000518100594684692	-0.0031286612073912	-0.00985282146149029	0.00957569633288494
1.1	-0.00242670990087788	-0.00493084858371072	7.1836302684153E-05	-0.00315712388705105	6.83302468930098E-05	-0.00317478566125736	-0.00954927805988159	0.0107010602598196
1.2	-0.00357367016693107	-0.00408679240825896	-0.000370939528974444	-0.00314671308137805	-0.000371751953196921	-0.00314463534587841	-0.00856779053894475	0.0119075906612085
1.3	-0.0046792642708356	-0.00355431434087154	-0.000798746034425859	-0.00306343979156403	-0.000801988415736813	-0.00306544609798219	-0.00681165212807316	0.0127088907300053
1.4	-0.00572053933953281	-0.00302616940090727	-0.0012206706594457	-0.00291486283482993	-0.00121945799143491	-0.00292039990694069	-0.00497200291007355	0.0126004850310293
1.5	-0.0061332630923949	-0.00201172344729973	-0.00162198839835863	-0.0027184680608249	-0.00162037822279103	-0.00272697413028077	-0.00347931694362157	0.0121127663442691
1.6	-0.00596293474120252	-0.000731898226160363	-0.00198276410735112	-0.00246541216282661	-0.00198297738964786	-0.00247064916877454	-0.00273262200164055	0.011823331346993
1.7	-0.00543659218133213	0.000477472569276157	-0.00231117092537577	-0.00216790872091006	-0.00231213391165575	-0.00216164398829409	-0.00207665260838495	0.0117353375473492
1.8	-0.00474621145642925	0.0017489485098872	-0.00258194877945007	-0.00181587455845097	-0.00259292125187689	-0.00182150735142825	-0.00154944620116234	0.0116952016653839
1.9	-0.00376114309057718	0.0028731780208211	-0.00280689839332018	-0.00144479354779877	-0.00281933771718492	-0.00143863253239915	-0.00110547208024787	0.011821725060023
2	-0.00246616615625174	0.00377389096056999	-0.00298213165038999	-0.00103696919807321	-0.0029917524309252	-0.00103225556876115	-0.000578592244648406	0.0121576618962897
2.1	-0.000922481508271483	0.00419502820223955	-0.003095199126469	-0.000608575691876412	-0.00309111643539101	-0.000610569310230571	0.000273366799758797	0.0124027205239349
2.2	0.000597303470887616	0.00414493703932362	-0.00315228273540456	-0.000170438234842949	-0.00316358772984719	-0.000173270126331618	0.00136552728450872	0.0123690587815527
2.3	0.00189595943470377	0.00360460015075481	-0.00314748079058647	0.000272784428083528	-0.003147180445858	0.000265901266506705	0.00230787743770759	0.0119405118541283
2.4	0.00287936406430102	0.00290888784475823	-0.00307502942381241	0.00071098532633017	-0.00307757182396191	0.000706728355628023	0.00298425183000963	0.0114929108811027
2.5	0.00369327566216244	0.00211319658753065	-0.00293802652158559	0.00112326718444724	-0.00294891573888444	0.00112965073999124	0.00357096935741926	0.0111214208408395
2.6	0.00450450532834638	0.0011803666899894	-0.0027641388128254	0.00152647582425005	-0.00276058399388512	0.00151414929033331	0.00426722112196996	0.0108106343157831
2.7	0.00527173365217018	-2.23943287340631E-05	-0.00251813872490045	0.00189814539904719	-0.00252342064890519	0.00189815793693878	0.00495973958083406	0.0103842225683713
2.8	0.00587587457687665	-0.00150284195786184	-0.00223492554724909	0.00222602461560304	-0.00222710439033218	0.00223581591352784	0.00554078098228326	0.00998732842836659
2.9	0.00627427788569656	-0.00318030141435103	-0.00190000277640041	0.00252654735352929	-0.00189629192369192	0.00252611828368498	0.00626073539922039	0.00975841783115032
3	0.00635318866490125	-0.00504916965885338	-0.00151285669103207	0.00276213292876087	-0.00152764200787129	0.00276824580017308	0.00720820509080051	0.00956164144445215
3.1	0.00607661347446957	-0.00707825247872399	-0.00112158176181608	0.00293915577668542	-0.00111691512928781	0.00294749954184681	0.00823631741062488	0.00912830482571243
3.2	0.00514731256402268	-0.00916265168258043	-0.000699983429926807	0.00307587012293126	-0.000701729525437545	0.00307526088845617	0.00904909968098454	0.00856546641586713
3.3	0.00360553899878265	-0.0111277022150262	-0.000260551345336444	0.0031448264807058	-0.000258906228243512	0.00314108250567655	0.00982883669457818	0.00780447245901346
3.4	0.00148197817369576	-0.0125965840516162	0.00018701128211246	0.00313753947077983	0.000180826285106527	0.00315411850423746	0.0104571440851327	0.00685360693974176
3.5	-0.000902025602189023	-0.0135980117153251	0.000609146389786971	0.00309324598579225	0.0006147433904258	0.00309331324655354	0.0107991017390599	0.00576506801880917
3.6	-0.00348651941679489	-0.0140766351816979	0.00103754681371237	0.0029724812286548	0.00104573825016494	0.00297215091294558	0.0110115951481542	0.00487748894047136
3.7	-0.00616861139999334	-0.0140658819512201	0.00144757659585297	0.00278999791545709	0.00143801422837871	0.00280368625893118	0.0113040580395076	0.00396384160037077
3.8	-0.00893363292243153	-0.0134545661439908	0.00182475428711219	0.0025615976951237	0.00182717198482917	0.00257073998186093	0.0114271985282036	0.00295280917657576
3.9	-0.0114617613675171	-0.0121848184905197	0.00216932478008717	0.00228758561120514	0.00216206109964603	0.00228581829403604	0.0113118138692355	0.00202679587062212
4	-0.0135847449100627	-0.0104118369921914	0.00245265808248796	0.00196597600725217	0.00245710012271337	0.00196353735056905	0.0111933015750508	0.00139897636090625
4.1	-0.0152360297297472	-0.00836068861246944	0.00270328132458317	0.00160602606725818	0.0027020307526584	0.00160676273764966	0.0113506407464508	0.000902529938511868
4.2	-0.0165628187493677	-0.00611077742193362	0.0029013365699074	0.00120515659102494	0.00290578906682555	0.0011964444327506	0.0116396982470573	0.000240963149573195
4.3	-0.0175810043881827	-0.0036996742062763	0.00304344346773434	0.000793664790822969	0.00304985293292692	0.000785864004606798	0.0118341156922045	-0.000694748419344159
4.4	-0.0182939369235997	-0.000987147296195751	0.00311915929129484	0.00036029775690706	0.00312152978368953	0.000358041724884308	0.0117155296576938	-0.00161910559706927
4.5	-0.0184626811500725	0.00194919758918599	0.0031415998722947	-7.69642887477962E-05	0.0031469534305827	-8.03376552800986E-05	0.0115457796689673	-0.00237274047478415
4.6	-0.0180787956053322	0.00483799901491387	0.00309747356897193	-0.000519149400795668	0.00309870788149195	-0.000506247546664943	0.0113902419124829	-0.00313535046133449
4.7	-0.0171064940127679	0.00759868501544706	0.00299232259284182	-0.000937516458882002	0.00300759219634684	-0.000947133486386999	0.0111884138130855	-0.00396459547235341
4.8	-0.0157473202545205	0.0101433542139235	0.00283132379667525	-0.00135134320731729	0.00283979337832514	-0.0013574324537416	0.0108713044284144	-0.00478373732342826
4.9	-0.0137582000285866	0.0124523837020547	0.00261052879314674	-0.00173534647614947	0.00261469413501193	-0.00173244586706085	0.0104889758143071	-0.0054481924775635
5	-0.0112372630806297	0.0142558903506738	0.00235056766426968	-0.00209035463015072	0.0023541890672236	-0.00208769464599056	0.0103731893713033	-0.00592864901526436
5.1	-0.00819956411327927	0.0154192508966636	0.00203936935429627	-0.0024006927920648	0.00204166958394441	-0.00239933792533879	0.0104889336837187	-0.00657552633260309
5.2	-0.00516803579955863	0.0158117016980316	0.00168130001062454	-0.00265007842710603	0.00168300681803139	-0.00265521878394751	0.010552876157243	-0.0074388150102433
5.3	-0.00226526680683293	0.0156776762548638	0.00129415126736913	-0.00286467065083875	0.00129728304135167	-0.00286261341088599	0.0103937972527428	-0.0083425873863618
5.4	0.000492796118426146	0.0151587310873102	0.000869121342073766	-0.00301101722086643	0.000886253283524484	-0.00302223311254782	0.0100591053632709	-0.00930987786733194
5.5	0.00310226539058267	0.0142365874125237	0.000455667386002408	-0.0031075277413581	0.00046569483929967	-0.00311695529449211	0.00947775386651736	-0.0102245299566603
5.6	0.00547390687567333	0.0127897536265912	1.7765461789938E-05	-0.00314221409730248	9.24962913286425E-06	-0.00314541711329432	0.00869405134628026	-0.0109075089995295
5.7	0.00731987817504224	0.0109002118594552	-0.000412201333584214	-0.00311040455486593	-0.000428787368647978	-0.00311403884489703	0.0078526482360214	-0.0114107978024023
5.8	0.00859766938695641	0.00877636830526113	-0.000856527962785236	-0.00301447581276276	-0.000860070737227693	-0.00302843195898252	0.0069778743772439	-0.0120361738771023
5.9	0.00931522651898402	0.00669701892511269	-0.00125956069923813	-0.00287398838866524	-0.00126777230914582	-0.00287389984487392	0.00577981120034629	-0.0125767133035275
6	0.00964545171774308	0.00462355217383094	-0.00165576031349729	-0.00266780589854409	-0.00165220790180012	-0.00266797439357739	0.00432790340090963	-0.0127139622776316
6.1	0.00967337670269446	0.0024932502051087	-0.00200891790087185	-0.00241396013542605	-0.00201055155513838	-0.00240996530574615	0.00319276804903297	-0.0123915091533227
6.2	0.00926849275033701	0.000212836003791017	-0.0023200403501963	-0.00210198890098959	-0.00232374175598643	-0.00211382877137315	0.00251618144029428	-0.0121453934416856
6.3	0.00840684620567382	-0.0020474885759553	-0.00259656488938842	-0.00176908595948543	-0.00260567059716344	-0.00176336253748369	0.00202533443846151	-0.012255447833702
6.4	0.00706041941448055	-0.00410600119411956	-0.00282215223480514	-0.0013802757622497	-0.00281244973285134	-0.00138516324661754	0.00148181936503448	-0.0124728826446162
6.5	0.0054698883008399	-0.00589353934293555	-0.00297865119485798	-0.000977115722985671	-0.00298649680171076	-0.000972648875142509	0.00104338798904634	-0.0126979301934422
6.6	0.0035467189674343	-0.00734280606311277	-0.00308728614838524	-0.000553781259575712	-0.00308891305942919	-0.000557750942531039	0.000717495344874968	-0.013035068568845
6.7	0.00124844532457679	-0.00825976590537492	-0.0031387808683419	-0.000117307704601306	-0.00314762384030563	-0.000111048333055865	6.65915217986661E-05	-0.0134770391258722
6.8	-0.00127268138838555	-0.00841398009657793	-0.00311841493632029	0.000323292489011746	-0.00312949462846007	0.000328321949309422	-0.000930162986399674	-0.0137143560268807
6.9	-0.00368851052465986	-0.00780021460419369	-0.0030442315417439	0.000756213247683065	-0.00304721646407888	0.00075859771312169	-0.00202428278133821	-0.013605050443423
7	-0.00569491337431725	-0.00662199987789116	-0.0029086056875656	0.00117685589674705	-0.00292141715255096	0.00117465169236187	-0.00298869281952071	-0.0132631895783191
7.1	-0.0073905270436656	-0.00516617630567367	-0.00273166197844204	0.00156573581790459	-0.002728008515553	0.00157439448242651	-0.00380358393139088	-0.0126998946795203
7.2	-0.00886630676820593	-0.00347342062847121	-0.00247583792829011	0.00193383098574913	-0.00248236192362306	0.00193590367220838	-0.00428036820117742	-0.0121205797813321
7.3	-0.0102395647590705	-0.00147398230169158	-0.00218090839663219	0.00225295832631305	-0.00219211259393465	0.00225799998539497	-0.00454737418234236	-0.0118570545519367
7.4	-0.0113381092125502	0.000972948353735945	-0.00183987427138066	0.00253610522605462	-0.00184675760061958	0.00254969505532592	-0.00508616089529693	-0.0119174014152974
7.5	-0.0118409185815518	0.00375973069228312	-0.00147489136407635	0.00277527438757132	-0.00146791105580912	0.00278266564374587	-0.00573334064095139	-0.0119840580377215
7.6	-0.0115031849733224	0.00650886958567152	-0.00106942726565226	0.00295371470629737	-0.00107079750219694	0.00294902256883162	-0.00631510797417237	-0.0120773790594452
7.7	-0.010549728166063	0.00897727936793216	-0.00064200864160809	0.00307504793720578	-0.000643346331525208	0.0030739866901386	-0.00706624575968049	-0.0124538463349499
7.8	-0.00887710854300651	0.0110496965465214	-0.000217359674697982	0.00312437914351135	-0.000225161665065043	0.00313082132856086	-0.00808513689786748	-0.0126372938930651
7.9	-0.00651630908800054	0.0126041792306408	0.000222582665308349	0.00313199133934394	0.000230511500862206	0.00313349573780337	-0.00916231849408567	-0.012346708694671
8	-0.00372486631989845	0.0135139051519081	0.000663220538278859	0.00306077359682986	0.000663296024013165	0.00306566659974699	-0.0101486480876231	-0.0117951299289596
8.1	-0.000756374818241689	0.0136437985949063	0.00107280451911989	0.00294430344549578	0.00109192520502798	0.00294541539399632	-0.0107971580660823	-0.0110397784961016
8.2	0.00193917991529921	0.0131652907495051	0.0014768733512482	0.00276501932049044	0.00148612082249066	0.00275784803504528	-0.0112193935882839	-0.0103495468170138
8.3	0.00435480118519933	0.0122905021102543	0.00185318948758658	0.00252782510933256	0.00185152322968731	0.00254135881894666	-0.0116335304230069	-0.00983676307321747
8.4	0.0065641635750122	0.011179138947123	0.00218937364218137	0.00225199802100999	0.00218634599995591	0.00225176777161309	-0.0122350694975382	-0.00937291067557369
8.5	0.0086583112529295	0.00964185237623227	0.00247620829134837	0.00192307049030502	0.00247530514986365	0.00192625077280064	-0.0129781481772856	-0.0086720007535123
8.6	0.0104510301437237	0.00761883641721928	0.00272385978273145	0.00156404415419735	0.00273337118279219	0.00155752391028706	-0.0135171679684041	-0.00779323672182561
8.7	0.0117267851935944	0.00510584871865115	0.00291146870331987	0.00116215865481856	0.00291702781759568	0.00116289322143648	-0.0138197873148409	-0.0070053283413412
8.8	0.0123288150447837	0.00238408098290794	0.00305000665826643	0.000751517273700126	0.0030557950810063	0.000742765005961122	-0.0141745393704703	-0.006493480255391
8.9	0.0124381810328018	-0.000384218599551371	0.00312931817747558	0.000317174976661027	0.00312845072355069	0.000314924705872156	-0.014550357140386	-0.00587136801585194
9	0.0121104167398685	-0.00324135783407934	0.00314070329239351	-0.000126982294562318	0.00314385636074006	-0.000122872207525398	-0.0148019614739011	-0.00502833200567073
9.1	0.0112927320468168	-0.00624516558825726	0.00309569098054118	-0.000569688902313367	0.0030985602726378	-0.000556774534436888	-0.0147347445939083	-0.00415355936204935
9.2	0.00964806952867996	-0.00919274649114465	0.00298685203687953	-0.000988752370251408	0.00299452146437684	-0.000991623209349964	-0.0145199125685183	-0.00349249443589921
9.3	0.0072465900276362	-0.0116743252272558	0.00281843659553188	-0.00139549408362606	0.00281770969475084	-0.0014004908864732	-0.0143104078666276	-0.00295020004056553
9.4	0.00433030391044009	-0.0134826493903034	0.00259577611975414	-0.00178704834357498	0.00260228904569858	-0.00177943756837359	-0.0142428957331696	-0.00242397074252504
9.5	0.00106653474450581	-0.0145598548687505	0.00232018984168896	-0.0021223111252256	0.00232760985738761	-0.00212365541257881	-0.0142074587732629	-0.00177169335349638
9.6	-0.00247151587903761	-0.01500736166827	0.00200266831921298	-0.00242666485362266	0.00200299793232276	-0.00242568187374856	-0.0142025068521232	-0.00108625608651084
9.7	-0.00625581681294683	-0.0146434185233536	0.00163507116883289	-0.00267766892730289	0.00164061318135241	-0.00268497719249582	-0.0140871657386687	-0.0004035656159341
9.8	-0.0100953351292832	-0.0133477719339235	0.00124991264754388	-0.0028868790623074	0.00125560864763466	-0.00287837330878488	-0.0140251428101121	0.000169636719299982
9.9	-0.0136161299786412	-0.010982281129825	0.000844646845526876	-0.00302649606260791	0.000837311917534686	-0.00302527450704992	-0.0142010380148843	0.000816891176768137
10	-0.0164967573221446	-0.00784817923388565	0.000414639144429169	-0.00311633434785908	0.000407158490096537	-0.00312878849878778	-0.0143490536161882	0.00171970416184514
10.1	-0.0185866073335572	-0.00420717415224625	-2.74056982669922E-05	-0.00314866783845896	-3.76471344912864E-05	-0.00314328418705543	-0.0141563912821278	0.00267963061345862
10.2	-0.0199651723701524	-0.000242206927904108	-0.000473559174914638	-0.00311290916227929	-0.000476971273491378	-0.00311013314981161	-0.0136488378498008	0.00347392065951044
10.3	-0.0205899422630448	0.00409166224333698	-0.000906408142271557	-0.0030084573523861	-0.000898298804764097	-0.00301752493184157	-0.0130832730374457	0.00396219250608375
10.4	-0.0202073510978398	0.00864126784720608	-0.00130443700008333	-0.00285507903199702	-0.0013027300935521	-0.00286127796405406	-0.0125439700404064	0.00419316399207686
10.5	-0.0187508576014276	0.0131180436234274	-0.00169718751761082	-0.0026575174062486	-0.00169410092705321	-0.00264449552234981	-0.0121410145705325	0.00448333302653699
10.6	-0.0163276415557564	0.0171404008591662	-0.00205155770636215	-0.00238831957432774	-0.00204936178644623	-0.00239214493037817	-0.0116865054994457	0.00478027331609941
10.7	-0.0132230006712556	0.0206974241897622	-0.0023687575737307	-0.00208663501075461	-0.00236526394370031	-0.00208133914359062	-0.0111632969745484	0.00506704648749637
10.8	-0.00943024328139894	0.0237543216464962	-0.00263998392290295	-0.00172621256966331	-0.00263476263023328	-0.00173515139964678	-0.0107588965120827	0.00522051633085675
10.9	-0.00496894988446562	0.026208129303827	-0.00285006311694907	-0.00135104277554652	-0.00285526396863101	-0.00135031489168937	-0.0105580673111256	0.0054242373340121
11	0.000233706734919804	0.0277364009936323	-0.00301081780005363	-0.000932925872839516	-0.00301567016241902	-0.00093968643433348	-0.0102946594401471	0.00590410213306931
11.1	0.00576414071077553	0.0280585270584358	-0.00312025768094957	-0.00050590739629773	-0.00310937052041029	-0.000503037067728873	-0.00969741424207742	0.00641734609948668
11.2	0.0112217013883999	0.0271299229441912	-0.00314990723176572	-6.59418956716503E-05	-0.00315707916033412	-7.07906723671863E-05	-0.00874199905152828	0.00670404564658629
11.3	0.0163721733520049	0.0251346712119616	-0.00312273760618718	0.000384978476805384	-0.00313431266242865	0.000374920441706173	-0.00759706675088995	0.00657937288357489
11.4	0.0210229435237272	0.0223282158244273	-0.00304813531524443	0.000814638478292037	-0.00304320427504272	0.000822219036190336	-0.00675958329074774	0.00614353641556074
11.5	0.0252073866818925	0.0186300901446265	-0.00290351600009397	0.0012316122915845	-0.00290629091711743	0.00124191329910018	-0.00624959897830588	0.00556077344623459
11.6	0.0286886024306565	0.0139917428161257	-0.00270760884804685	0.00162282026238512	-0.00270758666118187	0.00162576614070125	-0.00576954247212936	0.00489781845159061
11.7	0.0311382922220073	0.00872494101798421	-0.00244478723745734	0.00197785369080561	-0.00244534190044588	0.00198647400770012	-0.00533031202890617	0.00402284540165884
11.8	0.0325751397401364	0.00320925362864589	-0.00214812949032541	0.00230993715142988	-0.00215224874382093	0.00231164313866391	-0.00517971998903601	0.00306817315656941
11.9	0.0331528334642257	-0.00243569975214729	-0.00179769193766893	0.00258545809109338	-0.00181072425611615	0.00258978560260172	-0.00539160808047224	0.00247978457215761
12	0.0328321510586995	-0.00819335219085092	-0.00142374782373524	0.00280830091823224	-0.00142314968059153	0.00280971372704708	-0.00572837509920694	0.00233313191095762
