# GHZ S RI R 50
0.2	0.00569925071243994	0.00183611684956485	0.00304830792398806	-0.000897667997842979	0.00305867570633771	-0.000890858533006727	-0.0142690354485343	0.00546737944623196
0.3	0.00621113112704224	-0.000408597295437443	0.00290420834256419	-0.00132089450066464	0.00289696059968588	-0.0013079573162949	-0.01327895844404	0.00538001686893396
0.4	0.0059334273242972	-0.00234712923276639	0.00267283175055449	-0.00169250550649445	0.00267810086828106	-0.00170106477588302	-0.0127726026926565	0.00563652640882917
0.5	0.00502759130577035	-0.00389496660820217	0.0024143558306953	-0.00204915601028027	0.00242589703516484	-0.00206139276484631	-0.0124282308871013	0.00607205768768812
0.6	0.00378898492821653	-0.00490753936459438	0.00210225526149702	-0.00236377910866457	0.00210147128570089	-0.00237092957954485	-0.0121632175782959	0.00664263144643194
0.7	0.00239973986855728	-0.00540319751018881	0.00175548616859732	-0.00264190593362646	0.00175352985543017	-0.00264210558447598	-0.0119396002625999	0.00738967758396894
0.8	0.00115108757958187	-0.00554808297959233	0.0013702755125029	-0.00285984666627855	0.00135767331867983	-0.00286440232420354	-0.0115649654712173	0.00831284474884421
0.9	-6.27648965344268E-05	-0.00546126293669513	0.000953171938013765	-0.00302406095907169	0.000954211234787529	-0.00303476476021105	-0.0110011039014228	0.00918973579453534
1	-0.00125821068135579	-0.00527535079613141	0.000527996503437198	-0.00312812904851976	0.000518129053529689	-0.00312887223506563	-0.0103024739711118	0.00993776652418643
1.1	-0.0026107704820173	-0.00495573462048795	7.17275076902857E-05	-0.00315741968432066	6.82204803746188E-05	-0.00317508297037537	-0.00970330761256576	0.0106206273604547
1.2	-0.00406799594145296	-0.00454028569020211	-0.000371248164196136	-0.00314702126159881	-0.000372060498824645	-0.0031449432323669	-0.00885995495526498	0.0113140893484261
1.3	-0.00560066981971185	-0.004045558229659	-0.000799265086418669	-0.00306364987901526	-0.000802508094760785	-0.00306565593714651	-0.00746497480271838	0.0119109659549369
1.4	-0.00685032676246418	-0.00337718666176802	-0.0012213614071571	-0.00291486858154246	-0.0012201497471968	-0.00292040637409889	-0.00584685259592612	0.0118277759894333
1.5	-0.00743107835499878	-0.00220011967847429	-0.0016227749047292	-0.00271817525474323	-0.0016211668700949	-0.00272668215128142	-0.00454992819816628	0.0113867913581806
1.6	-0.00738013572100064	-0.000574901566661339	-0.00198351105347831	-0.00246476640245992	-0.00198372596680272	-0.00247000328381176	-0.00404682688013542	0.0113228274399408
1.7	-0.00669514225115814	0.00103383184235558	-0.00231172269874926	-0.00216691688605085	-0.00231268342470681	-0.00216065236478878	-0.00342750465200148	0.0116244262687906
1.8	-0.00563387555290672	0.00247083918749047	-0.0025821603213576	-0.00181462237773161	-0.00259313293624027	-0.00182025021068214	-0.00265750562723341	0.0118752251876358
1.9	-0.00434668002865391	0.00345796789031103	-0.00280667684892332	-0.0014434076168397	-0.00281911069035445	-0.00143724376763663	-0.00188575040591356	0.0120146227468766
2	-0.00301577026026467	0.00411671310290505	-0.00298142084279948	-0.00103561101013022	-0.00299103665159043	-0.00103089585137077	-0.00119702561149417	0.012145526146673
2.1	-0.00164109080025189	0.00445819155533251	-0.00309401219996177	-0.000607429629880599	-0.00308993186833543	-0.000609423531458806	-0.000436094691982958	0.0122095767018183
2.2	-0.000236608576785509	0.00457641428332197	-0.00315070379987814	-0.000169674596244845	-0.00316200360818089	-0.000172502611025486	0.000468047181525375	0.0122230816102448
2.3	0.00120696516472533	0.00426531202316672	-0.00314565793365762	0.000273034108095883	-0.00314535864435761	0.000266154817590581	0.00138748957994238	0.012043925123962
2.4	0.00252566155124042	0.00358011221412574	-0.00307315407108194	0.000710654109947636	-0.00307569507382511	0.000706399784669339	0.00232069613279575	0.0118005802083754
2.5	0.00357003363168781	0.00250203928340574	-0.00293631880765987	0.00112237032352848	-0.00294720185650233	0.0011287492029572	0.00326892511129638	0.0113520768662957
2.6	0.00431603713310201	0.00123894049991344	-0.00276277651539519	0.00152510817320041	-0.00275922168052125	0.0015127894820456	0.00414476144392377	0.0107414502099318
2.7	0.00486709681818719	-9.77852264904996E-05	-0.00251725403550184	0.00189648019532125	-0.00252253310036785	0.00189649139109075	0.00478183615889752	0.0100576541630312
2.8	0.00532949700533208	-0.00157881647541559	-0.0022345491620744	0.00222425163293851	-0.00222673484334632	0.00223404067543288	0.00527391528573916	0.00954914478971503
2.9	0.00562442872511321	-0.00330153970965921	-0.00190010562357387	0.00252483567143412	-0.00189639615333632	0.00252440808296598	0.00596732406047284	0.00920413994542702
3	0.00549014612379	-0.00520769281585906	-0.00151334057408147	0.00276063399540029	-0.00152812303155552	0.00276673939323969	0.00681757189978465	0.00880909408295744
3.1	0.00494710509706553	-0.00709195204273988	-0.00112230327403871	0.00293794475590249	-0.00111764087134618	0.00294628784285046	0.00758208619371094	0.00825301143171182
3.2	0.00389466810071152	-0.00887270520908364	-0.000700791647028506	0.00307491997447756	-0.000702537136070695	0.00307431033136989	0.00809421630539527	0.00775943172975668
3.3	0.00245918195128308	-0.0105654447997608	-0.000261354148334207	0.00314408726370636	-0.000259708359093727	0.00314034453300014	0.00873521623653507	0.00722978533671834
3.4	0.000517834241743392	-0.0119532398683595	0.000186273527370783	0.00313692008897608	0.000180086143227835	0.00315349425295404	0.00941994088474398	0.0064542828372148
3.5	-0.00180742721613522	-0.0129882585433057	0.000608479213111481	0.00309262738829597	0.000614074895957729	0.00309269558330324	0.00983737221733622	0.00537114768917208
3.6	-0.00444132586453743	-0.0134159703337552	0.00103685858293618	0.00297177263111914	0.00104504773230229	0.00297144349244022	0.00999002240161208	0.00444300995786624
3.7	-0.00709125044117447	-0.0132149831762118	0.00144674763742267	0.00278916348615921	0.00143718715386156	0.00280284587204771	0.0101398093262487	0.00363337137226211
3.8	-0.00962371035362127	-0.0124648310408189	0.00182363996401213	0.00256067505441182	0.00182605550488734	0.00256981356356285	0.0102625573325358	0.00287785928596887
3.9	-0.0118765540888413	-0.011292591072814	0.00216780046203537	0.00228669223879694	0.0021605409672395	0.00228492474097331	0.0103747291684242	0.00213384836028756
4	-0.0139191192423614	-0.00976563821808494	0.00245066583447797	0.00196529634760036	0.00245510563250427	0.00196286023812964	0.0105245307595284	0.0014461311951005
4.1	-0.0156846939080385	-0.00785865600038716	0.00270083549374547	0.0016057948849322	0.00269958555896681	0.00160653061722928	0.0107675893716532	0.000761506895537403
4.2	-0.0170989362721601	-0.00557526460862376	0.00289857922691524	0.00120560749697034	0.00290303244802969	0.00119690400962916	0.0109888441067268	1.89168703993945E-05
4.3	-0.0180482209931676	-0.00313056788455049	0.00304061437015933	0.00079494860196548	0.00304702376851043	0.000787157788261251	0.0111791088297804	-0.000847820243711908
4.4	-0.0186685396266199	-0.000544905927874292	0.00311656364394075	0.000362468088050619	0.00311893414079027	0.000360215582302949	0.0112244435419266	-0.00173703185447252
4.5	-0.0189146350774838	0.00217701736490185	0.00313954537134154	-7.39679257884714E-05	0.00314489846714601	-7.73339915178018E-05	0.0112446163456017	-0.00264931483600539
4.6	-0.0187798768270556	0.00498599972074541	0.00309625756857323	-0.000515506878157663	0.00309747724128745	-0.000502611091193662	0.0111039862028107	-0.00368290682049378
4.7	-0.018021202607986	0.00786973231918077	0.00299213100149215	-0.000933534190091248	0.0030074053959595	-0.000943128779574329	0.0107242850175905	-0.0046873328282028
4.8	-0.0166917139286127	0.0105847087748561	0.00283225634329146	-0.00134735571895169	0.00284073132448326	-0.00135343246576238	0.0102426894104247	-0.00549274086685461
4.9	-0.0146617374089451	0.0129432145713474	0.00261253911371574	-0.0017317257227878	0.00261670019680132	-0.0017288199337753	0.00984776327723321	-0.00610850008955805
5	-0.012209855793605	0.0147438456748686	0.00235348581388855	-0.00208740922242757	0.00235710397286906	-0.00208474428301282	0.00974160174450265	-0.00667456322759722
5.1	-0.00929218004858527	0.0160517641474573	0.0020429101951949	-0.00239866079944029	0.00204520924142301	-0.00239730268152932	0.00969916633145985	-0.00742524949799216
5.2	-0.00620039105965914	0.0166982188539249	0.00168511246471196	-0.00264907022733902	0.00168682607722304	-0.00265421049052589	0.0095326500726899	-0.00818137696893947
5.3	-0.00304110987293797	0.0166660479854056	0.00129792317066325	-0.0028646682673026	0.00130105423934172	-0.00286260658685301	0.0093434823034007	-0.00880987059726887
5.4	-9.20125089705606E-05	0.0159958938598286	0.00087254007242968	-0.00301188789686087	0.000889692660707323	-0.00302309353972724	0.0092271370488969	-0.00962508253004423
5.5	0.00245414146050404	0.0148802982378762	0.000458562766515362	-0.00310901523706361	0.000468604211048828	-0.00311844001168472	0.00885520551780143	-0.0106651872752386
5.6	0.00462448823665737	0.0134533268873441	2.00606510196493E-05	-0.00314406562690368	1.15420942557222E-05	-0.00314727673519666	0.00802668885074766	-0.0115805263680752
5.7	0.00642773570187307	0.0118080610418851	-0.000410464585406427	-0.00311239401540107	-0.000427057543019905	-0.00311604080854966	0.00694865989210245	-0.0121128079102528
5.8	0.00791655470001008	0.00987977057652601	-0.000855223938311699	-0.0030164381638424	-0.000858760469099517	-0.0030304031537315	0.005896735015266	-0.012501970417556
5.9	0.0089498339641178	0.00772620803083418	-0.00125850008610749	-0.00287585676699924	-0.00126671510887515	-0.00287577269175959	0.00481988335318429	-0.0127228960407888
6	0.00941512329145643	0.00535042265767189	-0.00165479664575318	-0.00266962595601154	-0.00165124296414908	-0.00266979249450053	0.00371836962743127	-0.0127544326072078
6.1	0.00931087419957886	0.00295762808819913	-0.0020079427828741	-0.00241585812017882	-0.00200957936946334	-0.00241186324958674	0.00286721789042889	-0.01260725777091
6.2	0.00871326465620016	0.000621708451554153	-0.00231906579999339	-0.00210414095560352	-0.00232275955417705	-0.00211598621844003	0.0022510185695225	-0.0125821821382751
6.3	0.00776467473312369	-0.00163072317576933	-0.00259569611885302	-0.00177166202422427	-0.00260480871866761	-0.0017659448553226	0.00175184440924052	-0.0127832026566647
6.4	0.00630546737163296	-0.00378556635482833	-0.00282163175174566	-0.00138336936995164	-0.00281192181696177	-0.00138824895242147	0.00133012291935863	-0.0131342654124766
6.5	0.00441592747717742	-0.00555906965698055	-0.00297874055325244	-0.000980691305305202	-0.00298659396328147	-0.000976231181517931	0.000891659240185641	-0.0136992845475701
6.6	0.00225491604083807	-0.00669200196662604	-0.00308827024039352	-0.000557686365749824	-0.00308989336662912	-0.000561660050747921	0.000233638429458735	-0.0143135853569447
6.7	5.49545071347613E-05	-0.00721353810135148	-0.00314087836457008	-0.000121240349552561	-0.00314973532652467	-0.000114987351777669	-0.000844486268574104	-0.0146681372078421
6.8	-0.00214733307973408	-0.00723329155754962	-0.00312169228084246	0.000319750459181643	-0.00313278839674062	0.00032477091785356	-0.00199216523376054	-0.0145681842946256
6.9	-0.00437142961104491	-0.00677795438439429	-0.003048596619887	0.000753469060429533	-0.00305158776835665	0.000755852707618978	-0.00291081894288604	-0.0142503626134825
7	-0.00647726800966814	-0.0057628684984085	-0.002913802637554	0.00117529822676525	-0.00292662900382744	0.00117307719377138	-0.00367189660923864	-0.0140147095311311
7.1	-0.00839626699989353	-0.00419910562275745	-0.00273731332279681	0.00156560767755373	-0.0027336622787102	0.00157428304032899	-0.00457305527983312	-0.0137202391184152
7.2	-0.00988638822463393	-0.00214610078928779	-0.00248143674431393	0.00193529483681787	-0.00248797328654136	0.00193736626756502	-0.00544003978324681	-0.0132053000204878
7.3	-0.0109092138480908	0.000154075202400641	-0.00218595051733146	0.00225593597891524	-0.00219717738513233	0.00226098117188644	-0.00607890583193587	-0.0125942732172152
7.4	-0.0114930415581748	0.00254319475035232	-0.00184387886680977	0.00254037437012794	-0.00185077813959071	0.00255398777337898	-0.00660996801531358	-0.0120776628600742
7.5	-0.011686881221117	0.00493908343819617	-0.001477519294029	0.00278042477887555	-0.00147052591865919	0.0027878294171711	-0.00685682413189127	-0.0117356615107469
7.6	-0.0113833270571364	0.00729648987260101	-0.00107049276186981	0.00295921721632811	-0.00107186671500133	0.00295451718917049	-0.00698488877225393	-0.0117899317615937
7.7	-0.0105428696033345	0.00953764403193723	-0.000641563092926947	0.00308036642285444	-0.000642903475601777	0.00307930409630757	-0.00743828700854954	-0.0122595943418996
7.8	-0.00898821470386708	0.0113902835146285	-0.000215669638203987	0.00312907669077402	-0.000223478871780171	0.00313553328588522	-0.00816517483112555	-0.0125388235141583
7.9	-0.00691301967559208	0.0127062143001975	0.000225190315605238	0.00313579175174039	0.000233130307751866	0.00313729216710195	-0.00890413750168009	-0.0125282496405687
8	-0.00465839533925642	0.0136122677236396	0.000666308320532361	0.00306353496916812	0.000666387688256485	0.00306843315147349	-0.00974551072132517	-0.0126112977306363
8.1	-0.00206157125337843	0.0141047415416511	0.00107599711466665	0.00294613031542624	0.00109513578554633	0.00294722877385141	-0.0106993086396228	-0.0123661079812494
8.2	0.000610469140697559	0.0140936102065474	0.00147990943761757	0.00276610193395246	0.0014891589859948	0.00275891879608214	-0.0116365892523933	-0.0118357641276997
8.3	0.00325936002641598	0.0134588021530182	0.00185595156600407	0.00252841295503745	0.00185429230556726	0.00254195676254014	-0.0123794692121853	-0.0111279310966313
8.4	0.00563445589228548	0.0123051868268523	0.0021918763639931	0.00225233501990937	0.00218884669282489	0.00225210612825904	-0.0129683563997445	-0.0104640757418123
8.5	0.00764333862435929	0.0106973121239451	0.00247856003703782	0.00192333016381159	0.00247765756980372	0.00192651284839369	-0.0135878766357207	-0.00984228734266214
8.6	0.00925260944441411	0.00884537297933149	0.00272626668060224	0.00156430078304368	0.00273578276229064	0.00155777298553951	-0.0142442007920607	-0.00923623328130126
8.7	0.0105646713758276	0.00670178531040163	0.00291413992221819	0.00116233420480641	0.00291970374515684	0.0011630679010316	-0.0149685280310277	-0.0085476009265825
8.8	0.0115221186389816	0.00423958989773145	0.00305310194144743	0.000751408313808239	0.00305889349620463	0.000742646185364566	-0.015735309266112	-0.00773343416880664
8.9	0.0120440393622787	0.00137713420528104	0.00313284950011882	0.000316467615883677	0.00313198033868544	0.000314215174894667	-0.0161502207213817	-0.00661692656077873
9	0.0118686728783744	-0.00177319896407135	0.00314449727509294	-0.000128605028981454	0.0031476561316228	-0.00012449137204431	-0.0161255825899879	-0.00549441318207912
9.1	0.0110081026519214	-0.00494894959619453	0.00309943730348136	-0.000572459427780576	0.00310231880866478	-0.000559529751661667	-0.0158363723511785	-0.00460372852075922
9.2	0.0093580516648176	-0.00795691453793413	0.00299011697978822	-0.000992748561342923	0.00299779449872004	-0.000995630121158904	-0.0155478862732235	-0.00392344433341742
9.3	0.0070101917488636	-0.0106019757261457	0.00282073195657389	-0.00140063228084242	0.00281999835559824	-0.00140563514538018	-0.0151716594454667	-0.00325009694091472
9.4	0.00396841736045493	-0.0126873944475836	0.00259662539041647	-0.00179302623354591	0.00260315749565901	-0.00178541476308639	-0.0147363367281547	-0.00274605122581193
9.5	0.000355572131821912	-0.0138669627329948	0.00231929760324806	-0.00212863813969955	0.0023267238889882	-0.00212999640851287	-0.0144173416384252	-0.00241755433829264
9.6	-0.00351566622270764	-0.0140959094477795	0.00199991688922083	-0.00243274211979462	0.00200024868156813	-0.00243175884993176	-0.0144902232368257	-0.00217954135959711
9.7	-0.00732840694591137	-0.0133531478076299	0.00163058372366722	-0.00268285057349095	0.00163611420564954	-0.0026901752274937	-0.014749600614063	-0.00168131965418112
9.8	-0.0109139997121168	-0.0118483084534068	0.00124401676021219	-0.00289065770390391	0.00124973348610654	-0.00288216142343544	-0.0149910159763368	-0.000917243764747039
9.9	-0.014185209356035	-0.00957005673542529	0.000837871319131709	-0.00302848916867419	0.00083053890716599	-0.00302725108990504	-0.0151382404559678	4.37916062642796E-05
10	-0.0170700337702985	-0.00660701933735149	0.000407605210371242	-0.00311631982029078	0.000400099184074311	-0.00312875365273069	-0.0150638897660579	0.00100664621776135
10.1	-0.0192718328419012	-0.00294976425181594	-3.40389487412739E-05	-0.00314669450867438	-4.42627844479481E-05	-0.00314129250276945	-0.0148029673438246	0.00182019567118611
10.2	-0.0205847504812052	0.00115047271964725	-0.000479195615091072	-0.00310927551345017	-0.000482599344881262	-0.00310649529024477	-0.0144462797903564	0.00259383793928031
10.3	-0.020973782004237	0.00542944258476269	-0.000910640233739273	-0.00300365764794212	-0.000902555296275771	-0.00301272952017626	-0.0139252523255364	0.00333358735292077
10.4	-0.0205144089533853	0.00966023853860041	-0.0013071290653626	-0.00284968042809649	-0.00130543348690563	-0.00285587442383943	-0.0130820139345612	0.00378748219969855
10.5	-0.0193204273351377	0.0138650154420994	-0.00169837431079961	-0.00265200253074545	-0.00169527525599217	-0.00263900108797908	-0.0122518370389071	0.00392917349198958
10.6	-0.01726603922346	0.0179339902498863	-0.00205144400746592	-0.00238314462542956	-0.00204925486944542	-0.00238696741357743	-0.0116492255133521	0.00380668270852675
10.7	-0.0143843328598464	0.021707999909234	-0.00236769108248491	-0.0020820474093352	-0.00236419710187877	-0.00207676100148657	-0.0112939193221869	0.00373845586124479
10.8	-0.0105587319200904	0.0249145450103338	-0.00263830135072787	-0.00172232881399701	-0.00263309250978182	-0.00173126148606324	-0.0110503953417528	0.00384255140286886
10.9	-0.00610389706192806	0.02735994000144	-0.00284808054516929	-0.00134776612837058	-0.00285327564118178	-0.00134703549967405	-0.0107800766679023	0.00405907905939258
11	-0.00115781290216704	0.0289821853585872	-0.00300873205388566	-0.000930070633306846	-0.00301358457374745	-0.000936821860773121	-0.0104463533492332	0.00422665230391125
11.1	0.00416663734810458	0.0297136061768419	-0.00311809550193237	-0.000503210599408305	-0.00310721507585911	-0.000500350577482005	-0.0101162721553728	0.00428776930685064
11.2	0.0097844223148006	0.0293313511720565	-0.00314754009513504	-6.32204274962669E-05	-0.00315471061787881	-6.8059393364971E-05	-0.00978550329634752	0.00439168770345022
11.3	0.0154718698068366	0.0276093154556387	-0.00311988208762944	0.000387772940245889	-0.00313145795848198	0.000377734360305087	-0.0092180744178932	0.00458150893445724
11.4	0.0205947209472725	0.0247135863814573	-0.00304450656249033	0.000817433697485918	-0.00303957113408357	0.000825001881748102	-0.00859368172935674	0.0046536727687321
11.5	0.0249948965486112	0.0208264816665962	-0.00289885940720465	0.00123409936592235	-0.00290161798989055	0.0012443931585241	-0.00804792298863646	0.00442010353672429
11.6	0.0286059262115546	0.016080702272516	-0.00270184067930806	0.00162453409078187	-0.00270181438186045	0.00162747614297933	-0.00756094483935042	0.00395765396333432
11.7	0.0313114384880478	0.0107040737399169	-0.00243807855780044	0.00197826574338764	-0.00243861990177781	0.00198687327415524	-0.00719858746288969	0.00342905926368864
11.8	0.0330120710329739	0.00482193425367671	-0.00214081712831171	0.00230858760820209	-0.00214492618948799	0.00231029616032003	-0.0068790602860441	0.0030337327446244
11.9	0.0334905111473943	-0.00135981416961884	-0.00179039319573473	0.00258203084909612	-0.0018033910784009	0.00258636547081855	-0.00654990624730289	0.00285734735913652
12	0.0327796042363157	-0.00753729970294404	-0.00141709891647213	0.00280275413289247	-0.00141650074877825	0.00280416272260442	-0.00607360623656594	0.00258763624433145
