# GHZ S RI R 50
0.2	0.00666834318266033	0.00454502053909733	0.00304813692295655	-0.000894799562623799	0.00305849573359835	-0.000887983365766809	-0.0132981228019674	0.00815578000142664
0.3	0.00703377143357914	0.000385607918434086	0.00290539808136083	-0.00131576332264703	0.002898131767211	-0.00130284209039792	-0.0124610560988029	0.00613937117795299
0.4	0.00579367312306189	-0.00226375883067791	0.00267698697566034	-0.00168571132995404	0.00268227743085539	-0.0016942570005097	-0.0129316720762683	0.00567156729628842
0.5	0.00409546944268435	-0.00346888075854319	0.00242279066900603	-0.00204219553635854	0.00243438049289166	-0.00205440050358291	-0.0134024274704672	0.00644184963501811
0.6	0.00279229078657615	-0.00370310720051949	0.00211536082598855	-0.00235892446023012	0.002114605019122	-0.00236608964472285	-0.0132302767693877	0.0077929270421229
0.7	0.00201010047408955	-0.00369523736437491	0.00177254220562199	-0.00264157978207779	0.0017705811437186	-0.00264178888274318	-0.0124283246434072	0.00905928871683264
0.8	0.00152783894945317	-0.00397945036466224	0.00138928627092961	-0.00286605232887696	0.00137664996952891	-0.00287068530262443	-0.0113090231679531	0.00987323071874621
0.9	0.000679555788778736	-0.00452002774435206	0.00097124891117105	-0.00303786422987824	0.000972338498337202	-0.0030486265270442	-0.0103842916958235	0.0101623856383633
1	-0.000766497030884293	-0.00494149116814045	0.000541935188482245	-0.00314914867496288	0.000531998454824261	-0.0031499291295382	-0.00991612671305329	0.0103411258928177
1.1	-0.00272627345828033	-0.00474416729574806	7.83659814842006E-05	-0.00318380687220161	7.48632591548585E-05	-0.00320162524518356	-0.00987615833809865	0.0109199520286325
1.2	-0.00463257610013467	-0.00395036450495177	-0.000373775372487289	-0.00317591639189746	-0.000374595713365797	-0.0031738195748773	-0.00940495314509742	0.0119955137937027
1.3	-0.00617092796027429	-0.00299231804660018	-0.000811562972578706	-0.00309128610486539	-0.000814839669905405	-0.00309330603016702	-0.00793989718573855	0.0130139646020742
1.4	-0.00720329576820291	-0.00210581150150898	-0.00124258016310879	-0.00293743716117992	-0.00124137638812065	-0.00294302995464256	-0.00608893041726413	0.013138833487825
1.5	-0.00745834140030223	-0.000773461099696647	-0.00165051510349872	-0.00273262784424833	-0.0016489376389825	-0.002741214633453	-0.00444972670436151	0.0128604152069812
1.6	-0.00694156260276606	0.000855275686270385	-0.00201413547784946	-0.00246924364773007	-0.00201438677800739	-0.002474516653726	-0.00352312992628746	0.0127799948631287
1.7	-0.00587040303985413	0.00215293432961497	-0.00234128690097967	-0.00216116116505586	-0.0023422046968239	-0.00215485437688475	-0.00251365784926099	0.0127524816747702
1.8	-0.00472611420716238	0.00315322413022182	-0.00260674645216337	-0.00180013309827677	-0.00261780638701489	-0.0018056915816806	-0.0016813262673548	0.0125340878182294
1.9	-0.00366182315273236	0.00387718699333304	-0.00282369225205922	-0.00142311588193258	-0.00283609870531451	-0.00141683885528782	-0.00114860502083136	0.0124013003657246
2	-0.00255812245290411	0.00456928124593014	-0.00298959576392192	-0.0010132194763622	-0.00299917710832198	-0.00100843114208019	-0.000700590335328831	0.0125628019449264
2.1	-0.00117843188053356	0.00507201776438322	-0.00309395683456386	-0.000586819494731159	-0.0030898944936194	-0.000588837008998241	5.32354990044697E-05	0.0127876724240215
2.2	0.000435789464176647	0.00519423257138659	-0.00314467945272298	-0.000153891364919816	-0.00315596851341878	-0.000156657945599584	0.00115118150187799	0.0128112474006984
2.3	0.0020176110603114	0.00462018498827571	-0.00313702407825431	0.00028239235170014	-0.00313674746685909	0.000275529083937764	0.00219630261002313	0.012386550496093
2.4	0.00317120866484626	0.00363059427626851	-0.00306556280237939	0.000713832846918325	-0.00306810490784218	0.000709591403917669	0.00296351426116101	0.0118406732879057
2.5	0.00385018679428224	0.00247818879021856	-0.00293277159755285	0.001121388928124	-0.00294364125224368	0.00112776158388289	0.0035468533479922	0.0113302318969832
2.6	0.00433903393911305	0.00142759219938887	-0.00276480372125823	0.00152315881696471	-0.00276123746234085	0.00151083990135668	0.00416465371816418	0.0109350329797722
2.7	0.00487943692887948	0.000328520412244306	-0.00252460564578432	0.00189717260174397	-0.00252989525740319	0.00189717733644481	0.00478687257760169	0.0104960589459177
2.8	0.0054035956371159	-0.00105466643088114	-0.00224521105658648	0.00223065395092826	-0.00223737607987422	0.00224048787436366	0.00534394955229528	0.0101040227477251
2.9	0.00568949844288295	-0.00270187920549877	-0.00191063157379857	0.00253883308243667	-0.00190690154525372	0.00253840311659329	0.00605590431125401	0.00987067109508331
3	0.0056075049132404	-0.00443097621625515	-0.00151954452973074	0.00278206936484351	-0.0015344198162507	0.00278823983602614	0.00700602318785449	0.00966600390320461
3.1	0.00528538781265002	-0.00615624229645703	-0.00112055189920277	0.00296483332802372	-0.00111582339138365	0.00297322474062161	0.0080269601042071	0.00925228776671353
3.2	0.0045164991805948	-0.00798509104903019	-0.000688299698618768	0.00310371926329429	-0.000690062783624687	0.00310311501167221	0.00886487041842005	0.00870328080607606
3.3	0.00320797150132863	-0.00988935082763339	-0.000237186558589928	0.00316997289061545	-0.000235559472367388	0.00316618824962999	0.00968628034130393	0.00793146479423354
3.4	0.00119893826578553	-0.0114342229538454	0.000220776624845827	0.00315479606155755	0.000214726148834765	0.00317154085964909	0.0103502718966828	0.00693988924530789
3.5	-0.00122832740634177	-0.01245852105691	0.000650125973563017	0.00309866834206903	0.000655747311702847	0.0030986663639314	0.0107046763202407	0.00577653591285261
3.6	-0.00380025067465363	-0.0127942600058435	0.00108059619152436	0.00296306494747066	0.00108879681923758	0.00296262025272616	0.0109005684769394	0.00484946163936481
3.7	-0.00629461322781319	-0.0126382046883912	0.00148663781596234	0.00276531237072024	0.0014772878867134	0.00277912370142872	0.0111609775497462	0.00389679646469437
3.8	-0.00877905555261416	-0.0120780454439886	0.0018540795455564	0.00252382349922814	0.00185661980915869	0.00253289060260702	0.0112459943030042	0.00287484440309902
3.9	-0.0111739121144537	-0.0110344566560533	0.00218432902850058	0.00224111359901681	0.00217709522399165	0.00223945815851339	0.0111049677156224	0.00196509978205423
4	-0.0133658771774793	-0.0094291655745757	0.00245098194538053	0.00191716802739806	0.00245535026609823	0.00191470173184104	0.0109825825890515	0.00135782548508666
4.1	-0.0150941225563939	-0.00737354562156706	0.00268513939732539	0.00156135824599535	0.00268391092839171	0.00156209750499162	0.0111419178975595	0.000866504896039803
4.2	-0.0163517529783939	-0.00510086993973053	0.00286976344572127	0.00117069145723763	0.00287410120530182	0.00116206887513196	0.0114170600155712	0.000208284307266764
4.3	-0.0172593833355976	-0.00284323242504603	0.00300380119610362	0.000773322529746217	0.00301009802054597	0.000765609886079255	0.0115905854218214	-0.000721277467945437
4.4	-0.0180434641949165	-0.000378502070580519	0.00307793964393559	0.000355544935623924	0.00308027881711486	0.000353318722710989	0.011482684731362	-0.00159711171004108
4.5	-0.0184796458558822	0.00243031958841053	0.00310492285334522	-6.76808953464988E-05	0.00311022255902279	-7.10003786717099E-05	0.0113697431359917	-0.0023195551590866
4.6	-0.0183608261107419	0.00543166336313543	0.00307017670771637	-0.000499720990640872	0.0030713389998685	-0.000486937164552443	0.0113046769102794	-0.00307839756209985
4.7	-0.0174931726220431	0.00840900139922758	0.00297675334519015	-0.000913475576484514	0.00299197168375554	-0.000922935948794824	0.0111342439482015	-0.0039677123053411
4.8	-0.0160781748728593	0.0110939079552164	0.00282727140764669	-0.00132823219579333	0.0028357413360661	-0.00133424342741163	0.0108464519307032	-0.00483088364844979
4.9	-0.0140944018809824	0.0134439374813878	0.00261530274433448	-0.0017179482928985	0.00261944471827639	-0.00171503015276735	0.0104790217471997	-0.00552310605390733
5	-0.0116414454108594	0.0153562798345964	0.00235976274495115	-0.00208149212010496	0.00236337451070401	-0.00207881664678607	0.0104041224603236	-0.00607409514115261
5.1	-0.00855122850390953	0.0167349084371581	0.00204784760260772	-0.00240086662713356	0.00205014920646016	-0.00239950470622833	0.0105085464650787	-0.00684818925661725
5.2	-0.00526407724875221	0.0172431934209425	0.0016843767009146	-0.0026572774621283	0.00168608564906979	-0.00266243115953693	0.0104708481173171	-0.00780007227244448
5.3	-0.00210215290284198	0.0169796287973446	0.00128862796403762	-0.00287497493185987	0.00129177289875036	-0.00287292227580738	0.0102040274905753	-0.00867198181169845
5.4	0.000690454394127837	0.0162204079972865	0.000854000108198712	-0.00301922452505999	0.000871092091934838	-0.00303054549095119	0.0098530461714665	-0.00955230057068555
5.5	0.00315226146056886	0.0152015791174198	0.000432439748540415	-0.00310861978590759	0.000442390432556579	-0.00311811434668153	0.00932749521709295	-0.010436018968687
5.6	0.00542991018223328	0.013864088602382	-9.69910043389725E-06	-0.00313194945175272	-1.82146305630182E-05	-0.00313506757342762	0.00856758077489825	-0.0111711485546576
5.7	0.00743143727674697	0.0120924879867476	-0.000438257404732381	-0.00308679455326403	-0.000454771321303853	-0.00309025275686329	0.00770594345919472	-0.0117310483212635
5.8	0.0089182713738328	0.00986408789488793	-0.000874603493051854	-0.00297803913169044	-0.00087823401326984	-0.00299183027515158	0.00669126130724013	-0.0123281275258498
5.9	0.00967517422542	0.00747313059724891	-0.00126422412554943	-0.00282840213591067	-0.00127233073413527	-0.00282825565385494	0.00542237986057969	-0.0127120385489633
6	0.00976790361400733	0.00514117343165636	-0.00164286757221771	-0.0026191298796541	-0.00163937043427327	-0.00261931243778966	0.00406375426670103	-0.0126718440527404
6.1	0.00947427219213789	0.00301715248915967	-0.00197774478566184	-0.00236969607580893	-0.0019793448310167	-0.00236576762487989	0.00312791073455212	-0.0122863975031604
6.2	0.00891700308518047	0.000913583641964477	-0.0022731581938084	-0.00206976239068601	-0.00227676421402077	-0.00208139801339959	0.00261452676616051	-0.012083621882443
6.3	0.00805806660521862	-0.00123530182445376	-0.00253931667447704	-0.00175442153301112	-0.00254829798180179	-0.00174885762971201	0.00223339944803835	-0.0122197691585976
6.4	0.00657698760024358	-0.00321275419162465	-0.00276239077407937	-0.00138655700161123	-0.00275279592188632	-0.00139126674452382	0.00181337508911952	-0.0124489919941756
6.5	0.00483369982528239	-0.00471518646040854	-0.00292477437186778	-0.00100339861493178	-0.00293257187427336	-0.000999097569754826	0.00151929021018886	-0.0128108722125351
6.6	0.00304343236199986	-0.00578202712810244	-0.00304636910951177	-0.000596228844979837	-0.0030479169963889	-0.000600182459721971	0.00120411227885197	-0.013407779477594
6.7	0.00113607826432352	-0.00657058612477002	-0.00311568017712889	-0.000169471569184149	-0.0031245692421434	-0.000163403505142054	0.000395087921556213	-0.0140434007775684
6.8	-0.00108937418339938	-0.00694172272303991	-0.00311485882950842	0.000269356940868967	-0.00312599184086483	0.000274183505686051	-0.000768506126135419	-0.0142955265427299
6.9	-0.00353978200053284	-0.00656401861046416	-0.00305845585472422	0.000707900955069683	-0.00306148107929556	0.000710239179523027	-0.00192894535561989	-0.014074538897452
7	-0.00576730753647796	-0.00544807319813247	-0.00293613148869621	0.00114013127453824	-0.00294895972882919	0.00113773766298497	-0.00279223613918814	-0.0137694173210808
7.1	-0.00758092461505561	-0.00376782572419411	-0.00276610942590566	0.00154371264414971	-0.00276253364575579	0.00155246542682862	-0.00358370347218124	-0.0134033590709449
7.2	-0.00886309122516762	-0.00181203079816638	-0.00251026128261883	0.00192718397784526	-0.00251685055437861	0.0019292169808264	-0.00424653715152203	-0.0130326665609182
7.3	-0.00983585998959005	0.000156704776316709	-0.00220910052844763	0.00225887607270822	-0.00222041593399207	0.00226389842385356	-0.00483429701074763	-0.0127968101745569
7.4	-0.0105838665255944	0.00235310292730522	-0.00185761149699903	0.00254970020332042	-0.00186456952878892	0.00256336893528719	-0.00575771889630313	-0.0124516587567007
7.5	-0.0111239007337012	0.00467003701208862	-0.00148066711470955	0.00279031251921127	-0.00147364669045063	0.00279773703352659	-0.00642242792771182	-0.0121481531930608
7.6	-0.0112477265481418	0.00704999620587556	-0.00106463855360882	0.00296388740475687	-0.00106602414954246	0.00295918688994647	-0.00679890795161956	-0.0123957135589457
7.7	-0.0103342979831183	0.00943933041262875	-0.000631002698972241	0.00307550316858572	-0.000632343291920807	0.00307444715824806	-0.00731707095313709	-0.0123789314420245
7.8	-0.00888271026655609	0.0114130092934103	-0.000206359688762031	0.0031129026739407	-0.000214110323733625	0.00311934509124463	-0.00809408044732906	-0.0125022701705891
7.9	0.288964740195732	-0.124403935764263	0.000902673048485759	0.00262886440895702	0.000901987690164688	0.00251736543140787	0.449307232165623	0.246699671632041
8	-0.00463929499512418	0.0142082267159153	0.0006547781096351	0.00303153823732072	0.000654849645460507	0.0030363838564408	-0.00968630364371409	-0.012126542339187
8.1	-0.00155520644498855	0.0147214883467372	0.00104861450333727	0.00291504566458263	0.00106751241287999	0.00291622248447383	-0.0100279363359614	-0.0114629568324856
8.2	0.00133358508234229	0.0146189458586081	0.00143706414845811	0.00274383014076616	0.00144625864723357	0.0027368186569154	-0.0105883341875381	-0.011104442611642
8.3	0.00396351553384922	0.0138090379917396	0.00180192797151924	0.00252208247025449	0.0018001164405183	0.00253544514244377	-0.011217251285177	-0.0106926919181808
8.4	0.00616580217930173	0.0126646859227657	0.0021338317621925	0.00226639117722578	0.0021308351479388	0.00226611494948709	-0.0118854739937862	-0.0101927370060704
8.5	0.00812511827603596	0.0112883744947658	0.00242547513231345	0.00195873275335081	0.00242451709641197	0.00196187750248308	-0.0125422655780401	-0.00956084484130621
8.6	0.00996358667177765	0.00965194689055059	0.00268646036073929	0.00161824713962116	0.00269609151558197	0.00161193692776683	-0.013071217761604	-0.00895153619099411
8.7	0.0115848777723005	0.00746591074991561	0.00289447312355526	0.00122838145402431	0.0029000318942142	0.00122923831461118	-0.0136656338099341	-0.00842609886783438
8.8	0.0127228141305361	0.00472310629593201	0.00305667420292289	0.000821272441800802	0.00306268957460576	0.000812577505156536	-0.0144338685140654	-0.0079678136958288
8.9	0.0131734591721884	0.00158839347526595	0.00315954800970376	0.000381031875719066	0.00315871375657322	0.000378738800500217	-0.0151154484969866	-0.0071362575872991
9	0.0128467361695336	-0.00166479201787718	0.00319038485008401	-7.76217756524984E-05	0.00319351859921537	-7.33978990029654E-05	-0.0154262675505215	-0.00606074829843767
9.1	0.0120015131126648	-0.00495348696639203	0.0031578382001119	-0.000540769728737771	0.00316059559742015	-0.00052758988721588	-0.0153210309851543	-0.00508758961306766
9.2	0.0102579415633968	-0.00809191985582851	0.00305251964218849	-0.000982717952206047	0.00306036046841025	-0.000985579674593949	-0.015155123261647	-0.00434021484264026
9.3	0.00768267568045185	-0.0108190447522663	0.0028787772989981	-0.00141138583450763	0.00287805618209964	-0.00141648265292165	-0.0149473498905177	-0.00357096986453587
9.4	0.0043712376490368	-0.0126773598010789	0.00264321861944832	-0.00182054067870268	0.00264985320713433	-0.00181279107933539	-0.0146232857798116	-0.00270618256152937
9.5	0.000658747291140237	-0.0136803358957057	0.00234977522967922	-0.002165844001249	0.00235731089693986	-0.00216723886088087	-0.0143100334274597	-0.00216110361645599
9.6	-0.00305102498762513	-0.0136777666028396	0.00201300626050967	-0.00247205621237463	0.00201334676604184	-0.00247106243060082	-0.01412350016785	-0.00169601381935902
9.7	-0.00664185900427766	-0.0129241603152939	0.00162838024259612	-0.00271671536141919	0.00163391425831156	-0.00272413916269222	-0.0140907652123563	-0.00122321653301449
9.8	-0.0101424989305879	-0.0115458611873356	0.00123181091466958	-0.00291369712759076	0.0012376121774985	-0.00290519364947574	-0.0142137688297949	-0.000633231416536943
9.9	-0.0134499086900972	-0.00939331348188345	0.000822856161749945	-0.00303821203214418	0.000815517948872304	-0.00303693201981254	-0.0143835427746881	0.000167096455809179
10	-0.0163812109769346	-0.00635445500993826	0.000397066394871736	-0.00311399534853068	0.000389528988347461	-0.0031263904180654	-0.0143655503585369	0.00117391388166845
10.1	-0.0184613748617532	-0.00265075521336781	-3.42407737126518E-05	-0.00313707686512784	-4.44328468237126E-05	-0.00313169037066668	-0.0140164599398258	0.00202549016328444
10.2	-0.0196506924708323	0.00128981945263226	-0.000466300904478318	-0.00309959664354226	-0.000469702119313469	-0.00309683880307511	-0.0135690532603731	0.00268189553402127
10.3	-0.020166006991167	0.00532005831667335	-0.000885995742257302	-0.00300172706637954	-0.000877867433884489	-0.00301071362306325	-0.0131498555486682	0.00325238703062222
10.4	-0.0200449256405391	0.00951028397497993	-0.00127580170919279	-0.00286160409290334	-0.00127404125545017	-0.00286777560776352	-0.012553761098654	0.00371538859674343
10.5	-0.0191169036279543	0.0139496781307251	-0.00166792361446198	-0.00268117381587942	-0.00166498736106417	-0.00266809803707792	-0.0118768090715371	0.00406422248880029
10.6	-0.0170995674919118	0.0183110204149597	-0.00203072174763909	-0.00242860269271103	-0.00202846289001236	-0.00243241934905663	-0.0112281674746946	0.0041443119836708
10.7	-0.0140951245716743	0.0222828061855212	-0.00236401461322871	-0.00213909232914733	-0.00236055784311548	-0.00213369722781502	-0.0107587557396615	0.00418417078900801
10.8	-0.0102753588582878	0.0256196572612841	-0.00265666737879152	-0.00178287988202734	-0.0026512631051277	-0.00179188277211325	-0.0104780625678755	0.00428060802674206
10.9	-0.00591585255168778	0.0284378224699353	-0.00288902788224982	-0.00140268267377837	-0.00289433018224306	-0.00140199098148279	-0.010349998342902	0.00450773432182444
11	-0.000671794905456551	0.0304249647428923	-0.00306939998304394	-0.000970063364051613	-0.00307431651355212	-0.000976995436658287	-0.00992777587783083	0.00486474631601955
11.1	0.00521871010345626	0.0313234364826103	-0.00319198424566604	-0.000521350213472884	-0.00318084813372034	-0.000518400384785914	-0.0093257702612142	0.00501521143224353
11.2	0.01144110700223	0.0307339490556527	-0.0032251720395467	-5.5442571888237E-05	-0.00323253334028323	-6.03793366819661E-05	-0.00870227777329025	0.00496886067442657
11.3	0.822729198643408	0.23342482996009	-0.0125721429080474	-0.0123040395459418	-0.013186628067901	-0.00900143282077426	0.480949204188698	2.83704905354321
11.4	4.78503692356437	7.33372288602786	0.00333529442623915	-0.028547991934525	0.00218060181571643	-0.0274986577742452	-0.605379094627422	0.576766639588737
11.5	10.0079035769	-4.07571422204816	0.0437023340998726	-0.0312123983525335	0.0428490550782483	-0.0319605731351663	-0.179766825928827	-2.37866143759867
11.6	0.030411811121281	0.0154764794956936	-0.00270958749753544	0.00170047501924054	-0.00270950380829133	0.00170345927578181	-0.00650720978402777	0.00364543859850356
11.7	0.0329017907875127	0.00975375100078159	-0.00242025135652155	0.00204893532121034	-0.00242061675095292	0.00205763837119218	-0.00620855021921707	0.00315317641791502
11.8	0.0340761184729222	0.00359975641189534	-0.00210190231461906	0.00236524699546067	-0.00210599467173886	0.00236705125481297	-0.00602973827085564	0.00265101502120111
11.9	0.0337914285069937	-0.00250410738114862	-0.00173871337225808	0.00261829002026517	-0.00175162560505809	0.00262288627756716	-0.00602446431905104	0.00229076829514416
12	0.0327304448182916	-0.00829463158460774	-0.00136236601314999	0.00281632415009933	-0.00136174558946637	0.00281771662573121	-0.0056025304408932	0.00239277197823225
12.1	0.0307400635651907	-0.0136459620017808	-0.0009599010558444	0.00297427883583261	-0.000963458256548043	0.00297348580320043	-0.00535882156785379	0.00217707263874015
