# GHZ S RI R 50
0.2	0.00562930596417882	-0.000159089884462594	0.00304834187874085	-0.000899356441057167	0.00305871477371293	-0.000892551137467501	-0.0142981178534928	0.00352645153181176
0.3	0.00589785349677903	-0.00118996492286292	0.00290341515936779	-0.00132377535955589	0.00289617831231157	-0.00131082956340809	-0.0135473031740748	0.00463835016948236
0.4	0.00604993234562048	-0.00239000738088763	0.00267039137270473	-0.00169623727887023	0.0026756483193646	-0.00170480379708506	-0.0126490658658322	0.00562770193937841
0.5	0.00577974755129487	-0.00382378591700263	0.00240957417521288	-0.00205293377551084	0.00242108791643577	-0.002065187662796	-0.0117251441292891	0.00622061340868087
0.6	0.00494098198832343	-0.00522315261309447	0.00209492636546614	-0.00236637288472432	0.00209412684126562	-0.00237351494294574	-0.0110801894953657	0.00650034484667847
0.7	0.00348469145620115	-0.00625145895862154	0.00174600426810863	-0.00264199968880633	0.00174405064290941	-0.00264219411154141	-0.010865895602406	0.00681365339668697
0.8	0.0017844581679375	-0.00668530456500986	0.00135972438548973	-0.00285635297907257	0.00134714132975096	-0.00286086574693612	-0.0108248383228791	0.00747499119714811
0.9	6.65407423939604E-05	-0.00644713272330457	0.000943112988957142	-0.00301638737826911	0.000944124296498036	-0.00302705865332909	-0.0106705635816108	0.00842078215613733
1	-0.00132061249842989	-0.00579083535161747	0.000520181456354479	-0.00311644963051926	0.000510352523611149	-0.0031171718915662	-0.010190460904742	0.00949738903903067
1.1	-0.00241380599509483	-0.00504834960243654	6.79251780652267E-05	-0.00314272146900778	6.44151707866123E-05	-0.0031602982390386	-0.00950395031770552	0.0105311069156578
1.2	-0.00339404912744334	-0.00457406939345261	-0.000369978389969485	-0.00313087996186059	-0.00037078616398092	-0.00312881238074869	-0.008395421135506	0.0113691701577842
1.3	-0.00464656140820225	-0.00432623834038009	-0.000792579941250419	-0.0030481609174783	-0.000795804249010388	-0.00305015903132461	-0.00681942496628622	0.0119052852213762
1.4	-0.00587284707444147	-0.00385992288743127	-0.00120973113611205	-0.00290213570896225	-0.00120851552820484	-0.00290764282232301	-0.005173506853825	0.0117316775405297
1.5	-0.00648235316697171	-0.00288960726564911	-0.00160752170119193	-0.00270987274349829	-0.00160589750225314	-0.00271833498238571	-0.00389312088599643	0.0111934733395058
1.6	-0.00660577441977736	-0.00154197867574783	-0.00196663854909491	-0.00246189607523803	-0.00196683381258777	-0.00246711251608248	-0.00342331173658394	0.0109882811049592
1.7	-0.00627035369777307	-5.46512771220508E-05	-0.00229537325100327	-0.00216958276106461	-0.00229635686476413	-0.00216334219883771	-0.0029593245436657	0.0111889623920924
1.8	-0.00552958238958733	0.00151014062103723	-0.00256841370805039	-0.00182198380931466	-0.00257933710094698	-0.00182764755400469	-0.00236968304428836	0.0114604765407458
1.9	-0.00433289263877637	0.00275435735405886	-0.00279685647886223	-0.00145389182192465	-0.00280930178510287	-0.00144779008957684	-0.00170435656006202	0.0117103530985604
2	-0.0028901527319828	0.0035694076966883	-0.00297615186297743	-0.00104730211189363	-0.00298578327692541	-0.00104262757226744	-0.00102179860004689	0.0119600255842812
2.1	-0.00138901663404897	0.00386834707863674	-0.00309296774061178	-0.000618352231734176	-0.00308887910735308	-0.000620332685513249	-0.000206932948577655	0.0120803647772401
2.2	-2.15857707297015E-05	0.00384913021062649	-0.00315273655194856	-0.00017829635136906	-0.00316403767155484	-0.000181157041495489	0.000737997238056908	0.0120732452459262
2.3	0.00122555246247592	0.00351346442956975	-0.00314908720535642	0.000267517365324571	-0.00314877501694335	0.000260632219791121	0.00163316241862977	0.0118430368326563
2.4	0.00237592527387548	0.00300486256271361	-0.00307615659536714	0.000708134409780816	-0.00307869527389796	0.000703874382041361	0.00248272783878724	0.0115866679729989
2.5	0.00346666379987514	0.00219741212752121	-0.00293736581033556	0.00112185873821973	-0.00294825334095507	0.00112823628294856	0.00335019310675245	0.0111934162186722
2.6	0.00443150329989356	0.0010609800925647	-0.0027610556094023	0.00152497556040709	-0.00275750533713784	0.00151266219443939	0.00419956890391105	0.010671631006737
2.7	0.00516393206240431	-0.000329034704662371	-0.00251287556871984	0.00189484698555852	-0.00251814712522724	0.00189486039355303	0.00485573696516585	0.0100526520170346
2.8	0.0056938875723084	-0.00188079380627556	-0.00222855724876455	0.00221947265460086	-0.00222075920320541	0.00222923596209574	0.00536101600152618	0.00957544660613643
2.9	0.00606685970309027	-0.00361726868721574	-0.00189436407337317	0.00251586173804462	-0.00189066696387036	0.00251543653619052	0.00604408161830624	0.00926564672238818
3	0.00607342261820406	-0.00560150652130642	-0.00151016334121722	0.0027475261527819	-0.00152489147323591	0.00275358979421885	0.00689017501807558	0.00893702597329621
3.1	0.00561469206151232	-0.00770637614767569	-0.00112373895506543	0.00292178065902772	-0.00111911703775514	0.00293009558757432	0.00770434730651351	0.00843943452236162
3.2	0.00447729062128301	-0.00971084056058646	-0.000708467648021323	0.00305772635213948	-0.00071020261771549	0.00305711336317074	0.0082812157436174	0.00795924534581048
3.3	0.00286817393529359	-0.0114873775751457	-0.000275793955861952	0.00312863050037671	-0.000274136987794764	0.0031249127987958	0.00896200303758117	0.0074065446196639
3.4	0.000824246106775098	-0.01283412527073	0.000165857083992573	0.00312612697104531	0.000159589178227122	0.00314259905708643	0.0096418510447631	0.00661006305405417
3.5	-0.00147859908475837	-0.0138452287107919	0.000583929980745777	0.00308866226038894	0.000589509838327225	0.00308877167276764	0.010037736549725	0.00556054178212809
3.6	-0.00410436704907773	-0.0143831840005372	0.0010110923773555	0.00297626404115706	0.00101927317453858	0.00297600249344205	0.0102125161858999	0.00466949158450956
3.7	-0.00688218570975661	-0.0143125266675524	0.00142310855267432	0.0028022748934877	0.00141342810741672	0.00281587834529846	0.0104296938293863	0.0038779383788584
3.8	-0.00963679136183586	-0.0135506643226235	0.00180521527464935	0.0025811517008867	0.00180755726211655	0.00259032828463712	0.0106108237255164	0.00306869229793098
3.9	-0.0120178072421935	-0.0122088518952239	0.00215698626889563	0.0023121641571128	0.00214971555875387	0.00231033200705076	0.0107082940227499	0.00224150241708425
4	-0.0140146758646767	-0.0105263588755799	0.00244868228588515	0.0019924241981506	0.00245316125790454	0.00199000779181938	0.0107869720920142	0.00152251208600827
4.1	-0.0156891835640148	-0.00860390502561132	0.00270758777387535	0.00163128359021952	0.00270632602666403	0.00163201638897781	0.0109835363116431	0.000872456505049795
4.2	-0.0171165307190149	-0.00636293058218808	0.00291260937556415	0.00122638137071356	0.0029171305292693	0.00121763941604181	0.0112200517271768	0.000158405873675579
4.3	-0.0181508438424568	-0.00386027319756104	0.00305931038771347	0.000808981486275389	0.00306578584576517	0.00080115507815129	0.0114289295032994	-0.000729122768200888
4.4	-0.0187569613306077	-0.00110803327485498	0.00313677740130325	0.000368897016371267	0.00313916653696435	0.000366632623230488	0.0114308228354771	-0.0016713030348483
4.5	-0.0188254592084023	0.0017300860235461	0.00315825269053977	-7.45299619826671E-05	0.00316363755824038	-7.79162945280416E-05	0.0113523022138772	-0.00258021741646842
4.6	-0.0184727779957097	0.00447199158402334	0.00311100270148067	-0.000521297380422589	0.00311224191307843	-0.000508339208460537	0.0111251630818726	-0.0035412388031476
4.7	-0.0176245754109879	0.00717751432222803	0.00300161941409526	-0.000941898115222246	0.00301693429824381	-0.0009515531942996	0.0107530343867123	-0.00443722778935634
4.8	-0.0163536194164493	0.00976058993835882	0.00283650883178385	-0.00135555058384266	0.00284499290370089	-0.0013616566515018	0.010302349060275	-0.00519869838511767
4.9	-0.0143492269812392	0.0121034323198773	0.00261285968509115	-0.00173733736737913	0.00261702941101263	-0.00173443443075529	0.0099171693518802	-0.00580566660181669
5	-0.0118376097996364	0.0138528377787401	0.00235214824676817	-0.00208900099347367	0.00235576823032258	-0.00208633839746841	0.00978106163231276	-0.00631168923228924
5.1	-0.00892615348907207	0.0149935014508184	0.00204260428138229	-0.00239608118874599	0.00204490112927732	-0.00239472295231761	0.00977548841451939	-0.00694249916252921
5.2	-0.00602240303801142	0.0155161751639803	0.00168825101865943	-0.00264356919609393	0.00168997218689746	-0.00264870156112271	0.00974669156167688	-0.00764268419638768
5.3	-0.00308766379974423	0.0155699956703623	0.00130608924276919	-0.00285855013321159	0.00130921158719279	-0.00285647997767255	0.0096749339302212	-0.00835876399366662
5.4	-0.000177262245981287	0.0151092142583779	0.000885960266817471	-0.00300812412070938	0.000903163312910264	-0.00301925395061292	0.00953885316579405	-0.00930383214204867
5.5	0.00251263060771868	0.0140907731922188	0.000476090458002815	-0.00311030607691309	0.000486195592768559	-0.00311968754794945	0.0090588749357959	-0.010367665382818
5.6	0.00480069167119612	0.0125612221369287	3.92083591483717E-05	-0.00315257635973436	3.06859130516085E-05	-0.00315584801438004	0.00818876770268476	-0.0111847988262894
5.7	0.00651357550524763	0.0107803632939449	-0.000393022598979455	-0.00312886128902059	-0.000409667204800534	-0.00313262717593012	0.00719360732853619	-0.0116276959879669
5.8	0.00781246693357828	0.00886741627811513	-0.000843147882619791	-0.00304020522117493	-0.000846625866193961	-0.00305427780259737	0.00631003379407172	-0.0120785969997566
5.9	0.00874438519472737	0.00692995645617909	-0.00125455599029441	-0.00290457932795946	-0.00126283614076821	-0.00290453418004169	0.00528444108338332	-0.0125043742334489
6	0.0093332743574237	0.00479136654341152	-0.00166099967112698	-0.00269986506911523	-0.00165741264702569	-0.00270002108355504	0.00404050151086919	-0.0127207585283852
6.1	0.00947702267332207	0.00245447741282917	-0.00202443796399364	-0.00244358557505546	-0.00202609755911039	-0.00243955280347597	0.00296759373364233	-0.012599248114862
6.2	0.00903559538145683	7.51473712317301E-06	-0.00234438457909391	-0.00212538354725765	-0.00234812213517015	-0.00213735222497577	0.00220946433779673	-0.01249456534748
6.3	0.00810742919226235	-0.00233460302353742	-0.00262704350679295	-0.00178361463037155	-0.00263623653121992	-0.00177781548570644	0.0016214585011567	-0.0126591583037622
6.4	0.0067531409104111	-0.00453201146821487	-0.00285501349360923	-0.00138419931664592	-0.00284523147729315	-0.00138916911134447	0.00106777077923084	-0.0129733545965216
6.5	0.00501858953481141	-0.00650015516154807	-0.00300982060483028	-0.000970733193078289	-0.00301771286989729	-0.000966187485897316	0.000497841697857582	-0.0133454364713021
6.6	0.00281124316658304	-0.00795885019068416	-0.0031133390348139	-0.000538714088334987	-0.00311500245846361	-0.000542702781042271	-9.68435935390937E-05	-0.0136703631477457
6.7	0.000317014359989808	-0.00865390150433551	-0.00315724492439491	-9.64074879205221E-05	-0.00316609465006305	-9.00521600518507E-05	-0.00092824914120067	-0.0138779951514575
6.8	-0.00216224605719603	-0.00854866892235458	-0.00312820357722485	0.000346410318166647	-0.00313929083397974	0.000351536919026384	-0.00187158632698112	-0.0138580547393882
6.9	-0.00439208304647466	-0.0078843257872779	-0.00304596508684527	0.000778074746686945	-0.00304894081482147	0.000780484289563085	-0.00276397376983218	-0.0137120187063879
7	-0.00631087313246322	-0.0068000603104218	-0.00290423512661498	0.00119466335852136	-0.00291707006840272	0.00119253140338953	-0.00366638130321473	-0.0134665045763201
7.1	-0.00810416123769002	-0.00543506114051209	-0.00272412320557338	0.00157804319867591	-0.00272043055661379	0.00158668396742559	-0.00460550086128536	-0.0129664985522792
7.2	-0.00975068033349905	-0.00364801590491615	-0.00246820344722485	0.00194053309116684	-0.00247471693005033	0.00194262525789533	-0.00525627981367097	-0.0122486634860674
7.3	-0.0111443032889012	-0.00137449195704767	-0.00217582657714123	0.00225557339781639	-0.00218701606343583	0.00226063194078488	-0.00553142737500724	-0.0116788456168197
7.4	-0.0120463635955978	0.00122499382058126	-0.00183880781975332	0.00253713627440154	-0.0018456852365063	0.00255073023374237	-0.00575531258861356	-0.0115956969717475
7.5	-0.0122640103249751	0.00401820744623215	-0.00147789267828763	0.00277761294743875	-0.00147090830718675	0.00278501582147573	-0.00607085785674219	-0.0116630262325005
7.6	-0.0116217756098719	0.00676146509885361	-0.00107507127663136	0.00295991253270712	-0.00107644011811033	0.00295520742628214	-0.00652241963329201	-0.011703776431379
7.7	-0.0107465006352343	0.00907026527594927	-0.000647666304887591	0.00308663435061292	-0.000649008245892067	0.0030855675312707	-0.00718686419713496	-0.0124085375525286
7.8	-0.00898734008852504	0.0110580065950912	-0.000219958323359744	0.00314139461671181	-0.000227805951588369	0.00314786857192095	-0.00815628459460154	-0.0127332950386986
7.9	-0.00673017244416185	0.0124492075837199	0.000226065424809273	0.00315309819177029	0.000234048996225235	0.00315460780165667	-0.00925556159882159	-0.0128490762416836
8	-0.00381899746858859	0.01307425392725	0.000674966903031492	0.00308302344198199	0.000675053547072496	0.00308795414200021	-0.0103450886717447	-0.0123075505655625
8.1	-0.00122150849152817	0.0131479809111175	0.00109342806355925	0.00296420782621144	0.00111271039992893	0.00296525225982087	-0.0114338204844681	-0.0117604024526651
8.2	0.00127638109044252	0.0127593711629173	0.00150555112882102	0.00277865195794527	0.00151483075613551	0.00277136657925925	-0.0121306911164187	-0.010893523191686
8.3	0.00368594783085463	0.0120353440717477	0.00188732931727067	0.00253187459286975	0.00188575913964517	0.00254552292483032	-0.0126005384427329	-0.0101381215477435
8.4	0.00600125363956351	0.0109397402997885	0.00222519260926819	0.00224455428073279	0.00222214378039918	0.00224435235083395	-0.0131175704590514	-0.0095591879606043
8.5	0.00811584963177444	0.00926898580484082	0.00250911824369699	0.00190384567357881	0.00250824688935358	0.00190705054881855	-0.0138310534788168	-0.00888584683223139
8.6	0.00974394673757821	0.00713414577825982	0.00274966645172404	0.00153451382449239	0.00275912125648859	0.00152786118646309	-0.0144857105124816	-0.00801328021068669
8.7	0.0107979739101055	0.0046865484571825	0.00292658248737326	0.00112557396170884	0.00293215171700148	0.00112623844958815	-0.0149084626724085	-0.00706721695004904
8.8	0.011307774716876	0.00221839635760677	0.00305271385111771	0.000712114900912318	0.00305838134519611	0.000703309881913854	-0.0152285604057869	-0.00626862897733953
8.9	0.0115411742305694	-0.000333685867614724	0.00311947859127442	0.000279693631247211	0.00311858891089451	0.000277463078728403	-0.0153642161275437	-0.00546246620326687
9	0.0113921742954045	-0.00315332499653452	0.00312019086794389	-0.000158137940735018	0.00312336642816619	-0.000154085066257555	-0.0153685523509959	-0.00464344526826678
9.1	0.0106139353720616	-0.00617682991774339	0.00306789017606593	-0.000591449424110356	0.00307084658370362	-0.000578655171049921	-0.0152169279856617	-0.00385733103732735
9.2	0.00900715677007545	-0.00908928031769697	0.00295613601782175	-0.000999814274857398	0.00296372444819892	-0.00100271080782387	-0.0149400276987383	-0.00322885664027624
9.3	0.00672923111699727	-0.0115395807723	0.00278901387804382	-0.0013963250318035	0.00278827106060483	-0.00140127733762245	-0.0146010204856566	-0.00273970530455271
9.4	0.00399723471353001	-0.0135106359500124	0.00257104732731839	-0.0017797374068805	0.00257752891275672	-0.00177220236869606	-0.0144298200549362	-0.00248871522159202
9.5	0.000746225182183513	-0.0147084837043105	0.00230221164416444	-0.00211034954454451	0.00230957989144732	-0.0021116925153552	-0.0144204725500883	-0.00200301955136991
9.6	-0.00293957332674543	-0.0153100737766334	0.00199167100977617	-0.00241355689410078	0.00199199887384442	-0.00241257927396145	-0.0146408247161982	-0.0014551021836118
9.7	-0.00690147155989093	-0.0149201928522316	0.00162973749440153	-0.0026665572592185	0.00163526073096101	-0.00267383477057194	-0.0147397158355877	-0.000697225338305445
9.8	-0.0107940115954372	-0.0134972359897969	0.00124761898821033	-0.00287967293426003	0.00125329931460712	-0.00287118615174478	-0.0147222526198316	4.61279162975878E-05
9.9	-0.0142703821040295	-0.0110196579567615	0.00084231331728295	-0.00302363414626924	0.000834986863392897	-0.00302241045535438	-0.0148261253092724	0.000807839243302246
10	-0.0170939907822577	-0.00792322262105892	0.000409474934407408	-0.00311659963918371	0.00040197485725561	-0.0031290398695991	-0.0148967918545297	0.00166159648802509
10.1	-0.0192325087568003	-0.00430329059382612	-3.72624727485239E-05	-0.00314957130419533	-4.74902877614881E-05	-0.00314415392914717	-0.0147473167076014	0.00257160047748283
10.2	-0.0206482956234687	-0.000238424393339749	-0.000488475612291365	-0.00311122485393376	-0.00049187511289024	-0.00310843207698522	-0.0142920800811851	0.00343528581571635
10.3	-0.0211520833077317	0.00422462940543104	-0.000925043037642886	-0.00300104156944298	-0.000916995817367844	-0.00301015574330883	-0.0136345436997259	0.00403012435060081
10.4	-0.0205377522860041	0.00875012576593744	-0.00132407955932193	-0.0028397139557825	-0.0013224237062636	-0.00284591459604815	-0.0129033785989084	0.00422091038111143
10.5	-0.0189274998431766	0.0130269477100283	-0.00171410818972801	-0.00263310279638675	-0.00171091966605404	-0.00262015509886392	-0.0124079446058486	0.00431552799447355
10.6	-0.0165503071598703	0.0167989670363769	-0.00206150931841466	-0.00235584629354693	-0.00205936093671381	-0.0023596696222802	-0.0120169431604926	0.00441120591719334
10.7	-0.0135050189760796	0.0202696189687769	-0.00236824269988743	-0.0020487208772405	-0.00236473007590553	-0.00204349881165223	-0.0116364379006504	0.00471358925539956
10.8	-0.0097884917535293	0.0232237150420842	-0.00262660095633301	-0.0016872018485944	-0.0026215053169105	-0.00169609035775779	-0.0112233600175728	0.00484903034371893
10.9	-0.0053195822873718	0.0255311422524941	-0.0028236707723449	-0.00131581677245118	-0.00282880268195445	-0.00131506402898552	-0.0109843627939818	0.00503785615419723
11	-0.000296719266664687	0.0268546089880994	-0.00297300755229648	-0.000906538646759733	-0.00297782235086838	-0.000913183420778211	-0.0108099027919015	0.00537052666877801
11.1	0.0048764530016979	0.0270937387210613	-0.00307462239952702	-0.000492140721461391	-0.00306389227148448	-0.000489334946614834	-0.010452054168923	0.0058401329385797
11.2	0.00995769279093391	0.0263366614597277	-0.00310172228101471	-6.70553963743091E-05	-0.003108781334418	-7.18348983555999E-05	-0.00972374350616406	0.00629063813364046
11.3	0.0149481606304962	0.0247900862634764	-0.00307745772187944	0.000368852707060987	-0.00308882674176804	0.00035890614131203	-0.00868862325860864	0.00654766747001059
11.4	0.019641970445883	0.0222859107284529	-0.0030105683423538	0.000785823796664493	-0.00300574922998922	0.00079332762798802	-0.00768789490826802	0.00628752965722364
11.5	0.0238729056667976	0.0187460313955381	-0.0028774957966674	0.00119401504277953	-0.00288031658039045	0.00120416834883388	-0.00707664317704858	0.00564918959501106
11.6	0.027427022802338	0.0143125081708113	-0.00269482911812063	0.00158132983289042	-0.00269483423826668	0.00158424578023281	-0.00658074265345614	0.0050480798122619
11.7	0.0300301445110439	0.00929669621681252	-0.00244497645998943	0.00193764033483297	-0.00244561271525916	0.00194618618663465	-0.00607758683989254	0.00430531177751184
11.8	0.0317910175677445	0.00394547391704613	-0.00215906479125862	0.00227494827379108	-0.00216317752758606	0.00227660285894219	-0.00572753744604225	0.00342110285336012
11.9	0.032832396845084	-0.00167400328558931	-0.00181587082415974	0.00255883345926361	-0.00182889702299425	0.00256302051882473	-0.00562977117881176	0.00285981928279874
12	0.0326513691586297	-0.00788051823685015	-0.0014446835007015	0.00279031815523134	-0.00144409863366453	0.00279173310702963	-0.00591364344907783	0.00225912814621753
