# GHZ S RI R 50
0.2	0.00565663007908567	-0.000482708535028491	0.00304837874984267	-0.000899610865991608	0.00305875249537781	-0.000892806094902832	-0.0143306266651304	0.00314415625383876
0.3	0.00588290984413013	-0.00132548152807656	0.00290333137114904	-0.00132423283952407	0.00289609609635575	-0.00131128555983709	-0.0136214012099476	0.00447726139347363
0.4	0.006067270883937	-0.002412128001282	0.00267004477917354	-0.00169684948252889	0.0026752998825946	-0.00170541726490034	-0.0126236207272544	0.00559939200764723
0.5	0.00584517695303481	-0.00379311035464091	0.00240884119794835	-0.00205356907035441	0.00242035069631166	-0.00206582588060778	-0.0115513938217355	0.00618973201457772
0.6	0.00504555904222655	-0.00517414512504068	0.00209376600771011	-0.00236682371774542	0.00209296395400523	-0.00237396450525423	-0.0108140622368862	0.00634839086152557
0.7	0.00361876728123968	-0.00620223169303619	0.00174447925881223	-0.00264204213586394	0.00174252605091546	-0.00264223570983518	-0.010627743431249	0.00650635467472923
0.8	0.00193812847318225	-0.00665424849776837	0.00135801483610918	-0.00285580069619605	0.00134543482327184	-0.00286030650897287	-0.0107170046001558	0.00708428207566608
0.9	0.000214521277249217	-0.00645309760280601	0.000941480945852332	-0.00301513656566891	0.000942487716265428	-0.00302580254422636	-0.0106993799257029	0.00807662488402251
1	-0.00122423615021245	-0.00583062280026668	0.000518924576692343	-0.00311452345856843	0.000509101987039473	-0.00311524236790616	-0.0102496164611122	0.00928921895913492
1.1	-0.00240805564389422	-0.00507395131016221	6.73507638870251E-05	-0.00314028201378786	6.38405773822079E-05	-0.00315784449489197	-0.00944906034629397	0.0104244946309782
1.2	-0.00346258967860981	-0.00451322186429438	-0.000369675960017008	-0.00312819906516958	-0.00037048303342163	-0.00312613324971369	-0.00818000804781932	0.0112249515000037
1.3	-0.00472073760641321	-0.00416219280704961	-0.000791333361112502	-0.00304561169628474	-0.000794554463537948	-0.00304760862424815	-0.00653356833220376	0.0116342930171621
1.4	-0.0059302030462318	-0.00363520263357551	-0.00120762769674665	-0.00290009987414394	-0.00120641109958308	-0.00290560183086571	-0.00489293629536501	0.0113697637298373
1.5	-0.00651799686856473	-0.00259909147292629	-0.00160480372531354	-0.00270865283078933	-0.00160317617539188	-0.0027171076433115	-0.00362060129911092	0.0107330320666421
1.6	-0.00656291572574392	-0.00119239733377375	-0.0019636749616362	-0.00246167380956657	-0.0019638664960943	-0.00246688703564582	-0.00323815856646564	0.0104129068435793
1.7	-0.00610664008967205	0.00027683713407816	-0.0022925632599102	-0.00217037458118511	-0.0022935513578594	-0.00216413775950638	-0.00293496321154785	0.0105786514954947
1.8	-0.00530272271998345	0.00174177965152703	-0.00256614648002325	-0.00182362432335987	-0.00257706198502084	-0.00182929564105115	-0.00246320043040723	0.0109297481091201
1.9	-0.00414620864758592	0.00288669261351189	-0.00279537974623307	-0.00145607851280874	-0.0028078289354796	-0.00144998771387454	-0.00180194330596437	0.0112968830070042
2	-0.00279992855158447	0.00368935238726807	-0.00297558085927848	-0.0010496665168305	-0.00298521661018979	-0.00104499899957042	-0.00103585720427538	0.0115898793020435
2.1	-0.00134905569595835	0.00406792627473459	-0.0030932403905567	-0.000620515784834607	-0.00308914956238228	-0.000622493991979029	-0.000157271116340893	0.0116483364878105
2.2	7.70009379168626E-05	0.00413033307828254	-0.00315364022533007	-0.000179959069580402	-0.00316494345218669	-0.000182826420587138	0.000748413425625924	0.0115505352567941
2.3	0.00144282390784936	0.00376861084872228	-0.00315030610519739	0.000266528006903441	-0.00314999143268569	0.00025964050547968	0.00152672799952891	0.0113170613064924
2.4	0.00263887093927173	0.00311188219210677	-0.00307733568454573	0.000707827121266936	-0.00307987447063551	0.00070356518230192	0.00230437032902852	0.0111840472538468
2.5	0.00361967632982293	0.00215594072690347	-0.00293819181581051	0.00112207521906442	-0.00294908247334232	0.00112845416534602	0.00324363629335802	0.0109380827537979
2.6	0.00439710206168903	0.00100581999776765	-0.00276133663156347	0.00152543527217211	-0.00275778687278221	0.00151311977821852	0.00425654329440077	0.0104524061468289
2.7	0.00501221950256327	-0.000285079552053283	-0.00251257121304441	0.00189519999574275	-0.00251784271651848	0.00189521418264428	0.00503007212739932	0.00975630457417831
2.8	0.0055078024936294	-0.00175170552806314	-0.00222780831002756	0.00221939016694267	-0.00222001026534249	0.00222915048108443	0.00557467691964767	0.00920130509356249
2.9	0.00582773851223411	-0.00343450927550019	-0.00189346461068155	0.00251510942575889	-0.00188976887777098	0.00251468406579523	0.00630303969136162	0.00884501560444814
3	0.00575110585448254	-0.00529530866962349	-0.00150951191403875	0.00274604753985154	-0.00152423275825318	0.00275210740433676	0.00722979419084332	0.00842051134805233
3.1	0.00529319657976751	-0.00719152433040583	-0.00112371978486944	0.00291971692540551	-0.00111910264185156	0.00292802778678705	0.00806362427369581	0.00774337077776777
3.2	0.00430664299499069	-0.00902583001163019	-0.000709392774271122	0.003055387959294	-0.000711126321082222	0.00305477458450418	0.00853802001736138	0.00710273571032532
3.3	0.00289325725847289	-0.0107839181093807	-0.000277799080740105	0.00312648668002469	-0.000276140559310017	0.00312277245092202	0.00905948097489147	0.00650884890757612
3.4	0.000946489089772995	-0.0122183059404126	0.000162874224465956	0.00312469022111544	0.0001565942351779	0.00314114811493419	0.00965299649049161	0.00576763857140071
3.5	-0.0013711718752566	-0.0132696943269767	0.000580279595142575	0.00308832944265433	0.000585857545787694	0.00308844507737075	0.0100581892373867	0.00474674575397902
3.6	-0.00399131464507338	-0.0137436895348381	0.00100727571445697	0.00297732483645854	0.00101545625966124	0.00297707360070572	0.010236828648278	0.00379203846778191
3.7	-0.006632611285694	-0.0136177052586729	0.00141971887944601	0.00280475297056141	0.00141001841833995	0.00281834657756019	0.0103508444351676	0.00293280944058305
3.8	-0.00921184763306823	-0.012963411807171	0.00180279766066835	0.0025848148189462	0.00180512896150198	0.00259399914546401	0.0103822102964653	0.00217935828464745
3.9	-0.0115709687072251	-0.0118523171118183	0.00215595731417152	0.0023165742295175	0.00214868298215732	0.00231473197053892	0.0104373437001095	0.00151752977363282
4	-0.0137332963473723	-0.0103187087078826	0.00244923597039998	0.00199697436420039	0.00245372206036209	0.00199455994268382	0.010625372664444	0.000917147818632062
4.1	-0.0155800042516194	-0.00835768211725729	0.00270968423640133	0.00163537075014019	0.00270842036973175	0.00163610348860892	0.0109524274816341	0.000242955993552147
4.2	-0.0170342576405029	-0.00601744272426505	0.00291595707702353	0.00122944774826269	0.00292048857094827	0.00122069615173963	0.0112135785119791	-0.000552411896178485
4.3	-0.0180167510295823	-0.00352752630635718	0.00306341833385279	0.000810657244159988	0.00306990420479486	0.000802821120445578	0.0113806404383924	-0.00144293155764196
4.4	-0.0186742809474251	-0.000889800791997951	0.00314103935937793	0.000369022583015415	0.00314343144049972	0.000366754862467702	0.0114114307867207	-0.00230004403069349
4.5	-0.0189447884569949	0.00191201100185328	0.00316207449843953	-7.58500416386542E-05	0.00316746461386017	-7.92425989133369E-05	0.0114844003114365	-0.00317287777988797
4.6	-0.0187927284789931	0.00481490686513068	0.00311387117020864	-0.000523727457940391	0.00311511954907256	-0.000510756769890014	0.0114184813839372	-0.00424807642606556
4.7	-0.017953990801457	0.00776284127284307	0.00300322833226609	-0.000944906413072545	0.00301854774354375	-0.000954580595799999	0.0110719404488746	-0.00533524756152788
4.8	-0.0165526335689062	0.0104673238029258	0.00283679996838625	-0.00135855441276991	0.00284528322435082	-0.00136467048162179	0.0105318641828099	-0.00620739827642962
4.9	-0.0144826149794748	0.0127920505026397	0.00261205225186827	-0.00173978121366964	0.0026162251788343	-0.00173688094569229	0.0100979956666418	-0.00681233626503261
5	-0.012025627652785	0.014582790363507	0.00235067751050868	-0.00209051192802507	0.00235429916597622	-0.0020878518373468	0.0100089786607762	-0.00735357132246804
5.1	-0.00908476995225962	0.0159048527166225	0.00204102955269089	-0.00239652281111681	0.00204332654105741	-0.0023951659536157	0.00999498762187085	-0.00813233296940059
5.2	-0.00594688940295602	0.0165328213387412	0.00168712562895301	-0.00264309563732326	0.0016888451109184	-0.00264822673878057	0.00979557424735304	-0.00893646967029204
5.3	-0.0027816107926468	0.0164277629581691	0.00130580896932978	-0.00285755950421043	0.00130893019959842	-0.00285548986315417	0.00953796136207519	-0.00955776493120536
5.4	9.45927687638124E-05	0.0157005173008177	0.000886675466715672	-0.00300717153263275	0.000903877998551445	-0.00301829359643506	0.00940959466042314	-0.0103111977701455
5.5	0.00254138344278254	0.0146171237351903	0.000477656626812632	-0.00310992892246389	0.000487766111266496	-0.00311930483333566	0.00910679805056287	-0.011324690706338
5.6	0.00468648364629543	0.0132977884782862	4.12406723490776E-05	-0.00315319838345418	3.27185773680877E-05	-0.00315647618197119	0.0083532339256733	-0.0123036793149426
5.7	0.00655827425694838	0.0117470520222205	-0.000391076285134009	-0.00313066641648895	-0.000407726489331222	-0.00313444553304431	0.00724660277586507	-0.012931818910996
5.8	0.00817572471536586	0.00980341314453289	-0.000841888485561679	-0.00304312573837409	-0.000845360306015213	-0.00305721156982771	0.00612752873476829	-0.0133842438850898
5.9	0.0092705637975621	0.00754532585523094	-0.0012544727932103	-0.00290826906269785	-0.00126276174397581	-0.0029082278955881	0.00496898932808006	-0.0135929894205449
6	0.00969360976887863	0.00506787035095023	-0.00166244774269412	-0.00270376880331913	-0.0016588560575532	-0.00270392409963381	0.00383428519320565	-0.0135674471447219
6.1	0.00949978518439679	0.00264425572000118	-0.00202746682200703	-0.00244703011168304	-0.00202912864352941	-0.00244299144280227	0.00300151725818324	-0.013387964891425
6.2	0.00884146065596727	0.00032075630721647	-0.00234874563611817	-0.0021276921971185	-0.00235249344942458	-0.00213967752062373	0.00239510711637152	-0.0133838124186015
6.3	0.00782638392918018	-0.0019432966079181	-0.00263224549339563	-0.00178429673022606	-0.00264144778122577	-0.00177848219984635	0.00185000557803488	-0.0136131634653292
6.4	0.00628322068270678	-0.00410565719154903	-0.00286034573012117	-0.00138295627824412	-0.0028505559888408	-0.00138794335915331	0.00142442989496002	-0.013955031425816
6.5	0.00431076208980047	-0.00578834496195235	-0.00301451249389012	-0.000967640428671139	-0.00302240723256903	-0.000963078727800477	0.0010290121578129	-0.0145339976204839
6.6	0.00218226899227369	-0.00676518142785465	-0.00311670717644284	-0.00053411469500938	-0.00311837838067274	-0.000538103899137273	0.000382649705971796	-0.0152136130786542
6.7	0.000123286221330984	-0.00720495323662415	-0.00315878953711286	-9.09148574183747E-05	-0.0031676319776996	-8.45412470255818E-05	-0.000766651181715444	-0.0156130023516304
6.8	-0.00195635208461163	-0.0072696518803726	-0.00312771722621335	0.00035199625268102	-0.00313879581518094	0.000357142814482405	-0.00200662313768876	-0.0154688088119222
6.9	-0.00416598060660292	-0.00693278687932513	-0.00304360223215024	0.000782961815066942	-0.00304657286061592	0.000785375565768658	-0.00290777168888985	-0.0150885251352122
7	-0.00634129046359037	-0.00590951800525215	-0.00290046117802865	0.00119818710682453	-0.00291329052087367	0.00119607579799002	-0.0036152117529756	-0.0147897605198964
7.1	-0.00825694582163563	-0.00423450933934581	-0.00271964349694333	0.00157983652305107	-0.00271594391804224	0.00158846466584688	-0.00444520391959726	-0.0145164139823116
7.2	-0.0095863219190564	-0.00209352584219259	-0.00246382593201022	0.00194051592276608	-0.00247033045977261	0.00194261137414243	-0.00530655583727666	-0.0140727089503625
7.3	-0.0103682260253233	0.000127180107698438	-0.00217226043953169	0.00225408549706311	-0.00218343478731886	0.00225914379078781	-0.00601847359034421	-0.0134896122641794
7.4	-0.010879240493506	0.00216978989863207	-0.00183651649190045	0.00253474751615392	-0.00184338474469984	0.00254832824599717	-0.00652099564615305	-0.0130669794709275
7.5	-0.011192314215339	0.00430147823761132	-0.00147701523407651	0.00277501532258451	-0.00147003791682355	0.00278241282025646	-0.00678510243625367	-0.0126701902963723
7.6	-0.0109470651382214	0.00667483110338559	-0.00107544969128167	0.00295778487789701	-0.00107681610295206	0.00295308209607955	-0.00696080492456009	-0.0123503123766302
7.7	-0.0104059347960936	0.00889817495192359	-0.000648854685853451	0.00308545833000283	-0.000650195765869434	0.00308439121980256	-0.00740835746608268	-0.0130510278400403
7.8	-0.00898319012613067	0.0107659521246666	-0.000221332874518156	0.00314139956424756	-0.000229183572527203	0.00314787031078223	-0.00814158526043773	-0.0132739956652093
7.9	-0.00733309510672035	0.0122362536146496	0.000225130795199678	0.00315419346764309	0.000233116474257304	0.00315570611948779	-0.0088116293787724	-0.0134490504465364
8	-0.00490453201397366	0.0133196099246629	0.000674992062447062	0.00308482989950805	0.000675078189901187	0.00308976337480307	-0.00948908963280006	-0.0132016085787157
8.1	-0.00237863925587139	0.0141684012102977	0.00109468170432965	0.0029661646986497	0.0011139780584334	0.00296720683757663	-0.0105177194061286	-0.0132531589550701
8.2	0.000541637353783496	0.0142956098128664	0.00150805705457964	0.00278011966251826	0.00151734050908602	0.00277282414049699	-0.0115091011097682	-0.0127960619599895
8.3	0.00343353171039495	0.0136040728660588	0.00189080407056499	0.00253223442271982	0.00188924382801367	0.00254589425518026	-0.0123342960220676	-0.012093510542569
8.4	0.0058955265737859	0.0122958609879168	0.00222908503403941	0.00224336542317999	0.00222603414602568	0.00224316684602352	-0.0129675812262574	-0.0113743507653998
8.5	0.00785059057385791	0.0106065672119918	0.00251267458773257	0.00190095194583287	0.00251180746654217	0.00190415915649164	-0.013564346130599	-0.0106940547116365
8.6	0.00942159973129442	0.00881156894898286	0.0027521332537194	0.00153010490554192	0.00276157740143552	0.0015234370864665	-0.0141655577725122	-0.0100832698127339
8.7	0.0108613189970419	0.00674736413265927	0.0029273203488453	0.0011202029773484	0.00293288849571624	0.00112085782831593	-0.0148548149331516	-0.009454077112179
8.8	0.0120133227793548	0.00421289311025626	0.00305140956429127	0.000706523404422117	0.003057058002178	0.000697716211851192	-0.0156567021180374	-0.0086393173583787
8.9	0.0126030329562642	0.00113105671933344	0.0031161238015371	0.000274740795989355	0.00311523189609406	0.000272514254341116	-0.0160776241079435	-0.00745868719343673
9	0.0123033902479702	-0.00218133469544943	0.00311515927419192	-0.0001616388894351	0.00311833477297287	-0.00015759611677626	-0.0159891049363961	-0.00627092423572898
9.1	0.0112297885633457	-0.00531145186033776	0.00306187190173832	-0.000592913623911677	0.00306483353262179	-0.000580144873338027	-0.0156327694727932	-0.00538931617081735
9.2	0.00956817904315425	-0.00823888234748335	0.0029500363398056	-0.000999026485128273	0.00295760898451921	-0.00100192035812473	-0.0153063098567295	-0.00474302292680299
9.3	0.00724069863115489	-0.0109120899969921	0.0027837372382616	-0.00139344500637084	0.0027829961898859	-0.00139838782412256	-0.014920274924232	-0.00409360202386147
9.4	0.0041327246144736	-0.0131442308685745	0.00256734191554306	-0.00177526874403459	0.00257380814193363	-0.00176774393183084	-0.0144507746747795	-0.00369749183964288
9.5	0.000379277504393206	-0.0141618431945259	0.0023005101600401	-0.00210512171446953	0.00230786827671232	-0.00210645624741807	-0.0140669019201227	-0.00330745020698867
9.6	-0.0035317760654699	-0.0142224606881559	0.00199205098895545	-0.00240844586736247	0.0019923773575858	-0.00240746903174007	-0.0141161994167222	-0.00318330599801963
9.7	-0.00721028375074527	-0.0133630330936057	0.00163187919775988	-0.00266240827461942	0.00163740744567387	-0.00266967308939337	-0.0144269870832231	-0.00279867866057365
9.8	-0.0106294214069456	-0.0119256752387546	0.00125087934941527	-0.00287704305467845	0.00125654673672997	-0.00286855198576338	-0.0147683046551315	-0.00209002991921023
9.9	-0.0139210436363977	-0.00979095387559252	0.000845865889493628	-0.00302274318062643	0.000838537786284739	-0.00302152799904625	-0.0150470384654313	-0.00108450112328934
10	-0.0169293181813584	-0.00690828130449504	0.000412550119555961	-0.00311730421048297	0.000405059123237581	-0.00312975584685542	-0.015002752625881	-8.05000760728149E-05
10.1	-0.0192316386515234	-0.00317649374213912	-3.52813609180999E-05	-0.00315140808046697	-4.55185081486938E-05	-0.00314599408997883	-0.0147489582310225	0.000753227438568241
10.2	-0.0204957575462149	0.00101384915491093	-0.000487934862043427	-0.00311351603386276	-0.000491337504222043	-0.00311072228441116	-0.0144097957754003	0.00153052524386627
10.3	-0.0207785370921386	0.00524009589442044	-0.000925943065271784	-0.00300303409108035	-0.000917891079171926	-0.00301215526067706	-0.0139138945771795	0.00229709474409206
10.4	-0.0203410177674114	0.00932468606136422	-0.00132608028842676	-0.00284075214207144	-0.00132442621161846	-0.00284695704412223	-0.0130561272719136	0.00280670664254625
10.5	-0.0192955957263741	0.0134895706817662	-0.00171662973222934	-0.00263272629724641	-0.00171343057770683	-0.00261977658391196	-0.0121491647860402	0.00298849209814397
10.6	-0.0173346031458532	0.0176391762338967	-0.00206377484369087	-0.00235390484965373	-0.0020616300846548	-0.00235773026349444	-0.0114394923512657	0.00282120137084105
10.7	-0.0142878405049542	0.0215980733973432	-0.00236949350088614	-0.00204545062319297	-0.00236597672676095	-0.0020402342401999	-0.0110393074493212	0.00277539653592286
10.8	-0.0103625946287236	0.024662615032052	-0.0026262059866525	-0.00168318060960959	-0.00262112346256975	-0.00169206715863672	-0.0107439980796605	0.00280908951289157
10.9	-0.00597729941061163	0.0269417308413416	-0.00282137189852806	-0.00131186317545236	-0.00282649699312525	-0.00131110703490193	-0.0104349316282964	0.00299508273305782
11	-0.00125990974098044	0.028550632807003	-0.0029689034670153	-0.000903567836488285	-0.00297371435807226	-0.000910199817836623	-0.0100422230263381	0.00310833397149687
11.1	0.00391280548427201	0.0295004531892074	-0.00306923861061166	-0.000490919860443822	-0.00305852714746259	-0.000488120271639549	-0.00967655238991032	0.00306872476033222
11.2	0.00962418790241975	0.0293701505519041	-0.00309594127654947	-6.80613296430073E-05	-0.00310298548700473	-7.28345338057841E-05	-0.00937471350009117	0.0030604594009821
11.3	0.0155904459211494	0.0278729137363152	-0.00307226912880204	0.000365549143941128	-0.00308360926530839	0.000355610605628616	-0.00903179856948659	0.00328536389153478
11.4	0.0208585368019769	0.0248298159480144	-0.00300686677809067	0.000780653004331403	-0.00300206504715021	0.000788151349638498	-0.00843112899971063	0.00337151526222111
11.5	0.0251481178258416	0.0208499886889056	-0.00287593377096012	0.00118772503194553	-0.00287876804877855	0.00119786106094603	-0.00787357996001251	0.00300026345239172
11.6	0.0288227013947513	0.0162223118105834	-0.00269570835238735	0.00157486037343329	-0.00269571909093712	0.00157777396296707	-0.00747348478109243	0.00253038246502977
11.7	0.031766425988339	0.0108587498745091	-0.00244816778857455	0.00193201204899121	-0.00244882135414155	0.0019405538723095	-0.00721722368648588	0.00201923020091578
11.8	0.0336647633753616	0.00472068609615456	-0.00216406054859068	0.00227097903839447	-0.00216817737231809	0.00227262558435895	-0.00698665431550836	0.00167441535341792
11.9	0.0342044547843143	-0.00172883710315507	-0.00182181590960551	0.00255708859980726	-0.00183485830212199	0.00256125403151674	-0.00655955582355016	0.00174410215302613
12	0.0330543023410279	-0.00822016434635059	-0.00145060001221	0.00279092152615708	-0.00145001678015747	0.00279233887055807	-0.00616509395852372	0.00129580067954195
