# GHZ S RI R 50
0.2	0.00659686172502735	-0.00134246801017066	0.00304842755470311	-0.000899497283262389	0.00305880108527872	-0.000892692080139373	-0.0133850979862937	0.00228935988332694
0.3	0.00618439154047459	-0.00191272142285846	0.00290345479118503	-0.00132402695183072	0.00289621848767042	-0.00131108010405038	-0.0133149330885586	0.00389137013074382
0.4	0.00614331532725373	-0.00235185950615425	0.00267032207147508	-0.00169660213467463	0.00267557831142932	-0.0017051695977331	-0.0125497020435011	0.00565879735734059
0.5	0.00624140622101284	-0.00313816873498245	0.002409299524905	-0.00205338189319445	0.00242081155283551	-0.00206563798471289	-0.0111677342750791	0.00684929855166881
0.6	0.00608527698848597	-0.00436142373546611	0.00209436405083224	-0.00236678623438378	0.00209356297199188	-0.00237392797387878	-0.00979255991095663	0.00717962857437749
0.7	0.0051891042214836	-0.00576352181663271	0.00174515386506591	-0.00264220913801005	0.00174320037063797	-0.00264240303377574	-0.0090704317743159	0.00697902155220303
0.8	0.00355622236188275	-0.00685359323743137	0.00135868523891083	-0.00285620214064445	0.00134610325547345	-0.00286071060290236	-0.00909788393902952	0.00692587088577227
0.9	0.0013542414739794	-0.00708162738829527	0.000942054140674454	-0.00301577071866394	0.000943062367752773	-0.00302643920393246	-0.0095460100068502	0.00748216228982742
1	-0.000736094739594453	-0.00632252670199804	0.000519317834437441	-0.00311534180091522	0.000509492590261543	-0.00311606169709097	-0.00974893677049707	0.00881605460393642
1.1	-0.00221201063886002	-0.00492724087136753	6.75076008951546E-05	-0.00314120195298407	6.39971492532186E-05	-0.00315876974860039	-0.00925879543422132	0.0105817230697189
1.2	-0.00294955374931424	-0.00374819802711151	-0.000369753781733755	-0.00312914209258959	-0.000370561119322918	-0.0031270756655141	-0.007691944780811	0.0120120502503949
1.3	-0.00368162376750671	-0.00326506671391671	-0.000791627877994584	-0.00304651856741232	-0.000794849990879366	-0.00304851604103844	-0.00552595252444142	0.0125746146748792
1.4	-0.00462613948417306	-0.00285484155673857	-0.00120811405203959	-0.00290091620274017	-0.0012068973273785	-0.00290641985908639	-0.00361933041250044	0.0122078572280752
1.5	-0.00497234465556337	-0.00193891238886137	-0.00160543061178504	-0.00270935339966651	-0.00160380307448168	-0.00271781078308239	-0.0021027862485659	0.0114684806136101
1.6	-0.00476669951796303	-0.000906019060627625	-0.00196440315622831	-0.00246225534739462	-0.00196459508800736	-0.00246747006529184	-0.00145427225702609	0.0107876872687577
1.7	-0.00439836219518316	3.15737589770965E-05	-0.00229337466759108	-0.00217084939962656	-0.00229436263123194	-0.00216461070226093	-0.00121171403260813	0.0104238748736366
1.8	-0.00400838736161081	0.00120570217163238	-0.00256702895300364	-0.00182399838155835	-0.00257794807498172	-0.00182967067025123	-0.00113771484679386	0.0104676973407229
1.9	-0.00327007160136013	0.0024491185546557	-0.00279633996294558	-0.00145636162932655	-0.00280879266042767	-0.00145026817171574	-0.000898342591546153	0.0109130494809182
2	-0.00204176993675041	0.00355518052795226	-0.00297664278087084	-0.00104985155282872	-0.0029862815135545	-0.00104518191725528	-0.000267539768765817	0.0115047817409194
2.1	-0.000410555209341894	0.00409766862399939	-0.00309443072875296	-0.000620568248657005	-0.00309033848844827	-0.000622547431000002	0.00078082985346905	0.0117407667701233
2.2	0.00120688835049116	0.00400715225014849	-0.00315497328179116	-0.000179818476516196	-0.00316628143878576	-0.000182686254346959	0.00188721431216003	0.0115069616715312
2.3	0.00247206817675165	0.00333515353632957	-0.00315176858832104	0.000266945758740129	-0.00315145440553813	0.000260054976730662	0.00258698338329036	0.0109615160789638
2.4	0.00326610140484573	0.00256067502664219	-0.00307887007500423	0.000708617027938915	-0.00308141078050959	0.000704353174112113	0.00297281964513935	0.0106839493236685
2.5	0.0038653824471691	0.00187616710973305	-0.0029396678668974	0.0011233077355577	-0.0029505635545562	0.00112969253386062	0.00351307181914692	0.0106827868334608
2.6	0.00459851145755488	0.00116070163680156	-0.00276260946252009	0.00152713386673658	-0.00275906092749473	0.00151480983637609	0.00444927717302793	0.0106290569549868
2.7	0.00542392789964439	0.000122115449276349	-0.00251347640417373	0.00189731253175591	-0.00251875124384668	0.00189732863957788	0.00541319073168407	0.010203738041465
2.8	0.00608816393341675	-0.00128597974385664	-0.00222821660574088	0.00222182089789311	-0.00222040913925253	0.0022315838787796	0.00612211071321712	0.00972338025247117
2.9	0.00650419731439059	-0.00287746139828151	-0.00189325494675195	0.00251772046552712	-0.00188955714792942	0.00251729280060165	0.00694040324175917	0.00946560149904808
3	0.0066439576872633	-0.0046004882273356	-0.00150863240226137	0.00274862737352562	-0.00152335798295181	0.00275470024958035	0.00806982386970299	0.00919965476210699
3.1	0.00654161643926165	-0.00653292519237692	-0.00112219902816648	0.00292206978813651	-0.00111757343525485	0.00293038168985162	0.00926208772423377	0.0085167386505167
3.2	0.00581039835747247	-0.00865253022532002	-0.00070731557183537	0.00305736428362699	-0.000709050406051763	0.00305675198954776	0.0100161963174686	0.00762430425507105
3.3	0.00437783958817195	-0.0107507775247268	-0.000275289715246005	0.00312792258891311	-0.000273633663550502	0.00312420554225797	0.0105530830429811	0.00669256521765172
3.4	0.00224481455315227	-0.0123327652720051	0.000165623201962335	0.00312548810936377	0.00015935554752233	0.00314195637353389	0.0109775718302359	0.00578743840849545
3.5	-0.000162289282435097	-0.0133483132382405	0.00058307963107276	0.00308850008290274	0.000588658897337835	0.00308861091395346	0.0112930268921623	0.00479629158013621
3.6	-0.00270240882163462	-0.0138263975322855	0.0010099671268771	0.00297691071469627	0.00101814868158893	0.00297665246045318	0.0115487895561927	0.00384541994818523
3.7	-0.00528953684052654	-0.0139060916971467	0.00142217314239558	0.00280385382883592	0.001412482961242	0.00281745676982828	0.011739403410237	0.00278969930701852
3.8	-0.00805782032505965	-0.0134952753486529	0.001804960634526	0.00258355255600855	0.00180729935960248	0.00259273562473101	0.0116111534711208	0.00177519489629272
3.9	-0.010761260970361	-0.0123921683167674	0.00215782495820732	0.00231505667464524	0.00215054885723891	0.00231321984083564	0.0113264801477526	0.00106687220579876
4	-0.0131271624019745	-0.0106169029594047	0.00245084197735977	0.00199529227080231	0.00245532655393895	0.00199287441907265	0.011283914871679	0.000682090379136013
4.1	-0.0149212449307919	-0.00843120734487897	0.00271108054132055	0.00163353392018675	0.00270981710740936	0.00163426763180101	0.0116349477097358	0.000237291264880547
4.2	-0.0162632297722476	-0.00606796429876334	0.00291716359453885	0.0012274334336214	0.00292168913048583	0.00121867759774065	0.0120031242115079	-0.00052020195687438
4.3	-0.0172879146760069	-0.00363776329218234	0.0030644321676382	0.000808429302087426	0.00307091291065354	0.000800587224998142	0.0121372738120144	-0.00147446658433906
4.4	-0.0181024734509691	-0.000916136574108568	0.0031418191671523	0.000366540164436462	0.00314420978191141	0.000364270162665451	0.0120014846495092	-0.00227098938826134
4.5	-0.018409948468523	0.00214554582578005	0.00316253446937034	-7.863075635012E-05	0.00316792251218777	-8.202859688629E-05	0.0119999891986365	-0.00289520543152186
4.6	-0.0180543458653287	0.0052727390376443	0.00311386660420569	-0.000526805497068272	0.0031151276549382	-0.000513833930751498	0.0120963278369967	-0.00372438313519607
4.7	-0.0169397890815198	0.00820932709229315	0.00300262087565124	-0.000948194513176044	0.00301793207122843	-0.000957886096572191	0.0120154531768584	-0.00478379017956074
4.8	-0.0154218593177012	0.0107568725159	0.00283543597507429	-0.00136191511499521	0.0028439127886725	-0.00136804137832552	0.0116050281322522	-0.0057894237940221
4.9	-0.013385832208331	0.0130117643508769	0.00260984246462123	-0.00174298109272974	0.00261401889788405	-0.00174008605497129	0.011139251191751	-0.0064636284466167
5	-0.0108816793374099	0.0148561559781515	0.00234761452608837	-0.00209329309874588	0.0023512391528827	-0.00209063811664946	0.0110799608872288	-0.00693798931868403
5.1	-0.00775353482881549	0.0161171855463527	0.00203722600564758	-0.00239860417612316	0.00203952418057175	-0.00239725079632518	0.0112510178800552	-0.00773753497428418
5.2	-0.00454320707435445	0.0164718436930598	0.00168281215648088	-0.00264424052820099	0.00168452393727697	-0.00264937174264689	0.0111604273228195	-0.00878483845427316
5.3	-0.00158805202293755	0.0161350041338472	0.00130125437215896	-0.00285761462631371	0.00130437651558392	-0.00285555033744445	0.0107337294117494	-0.00965286531990687
5.4	0.00100177913925365	0.0154688079274406	0.000882245426761798	-0.0030060954201416	0.000899421426158364	-0.00301723102271963	0.0103182777428631	-0.0103814576216364
5.5	0.00339657391404742	0.0146316905465053	0.000473640719538833	-0.0031078475392441	0.000483730748469689	-0.00311722724135792	0.00992887514352646	-0.0111533282509055
5.6	0.00574711621182004	0.0134204938117429	3.79085908988834E-05	-0.00315028680980291	2.93910579120623E-05	-0.00315355263569883	0.00936251375348959	-0.0119846607073026
5.7	0.00778584895445892	0.0116760552544786	-0.000393538493551569	-0.00312717645064517	-0.000410175477065351	-0.00313093660770711	0.00845224206399653	-0.0127641675117188
5.8	0.00930589358507175	0.00944683685272752	-0.000843396923745637	-0.00303935779560197	-0.000846876160895681	-0.00305342651708864	0.00729451281097192	-0.0135036337130759
5.9	0.0100644538546779	0.00709926658178969	-0.00125510565247307	-0.00290451318377008	-0.00126338620658076	-0.00290446664427783	0.0058345687626681	-0.0138553371642333
6	0.0101967386092105	0.00483520702116608	-0.00166232479768416	-0.00270024934681162	-0.00165873666283199	-0.00270040646082443	0.00438608078738778	-0.0136731838388414
6.1	0.00997289151036804	0.00273197842058614	-0.0020268017439107	-0.00244387028962471	-0.0020284601597093	-0.00243983446598985	0.00347125840251026	-0.0131899383198092
6.2	0.00945210973108639	0.000580302880797361	-0.00234772314104022	-0.00212491970941598	-0.00235147303147865	-0.00213689350968379	0.00296814395226094	-0.0129956747630554
6.3	0.00852129376651022	-0.00162944668709102	-0.00263101411807641	-0.00178184513172391	-0.00264020702842849	-0.00177603110734262	0.00249584865903228	-0.0131569041647512
6.4	0.00703037063782912	-0.0036431570190649	-0.00285897596436695	-0.00138073826052184	-0.00284919519636975	-0.00138572620611439	0.00209202396877429	-0.013347317750781
6.5	0.00532226558657009	-0.00518106469418827	-0.00301301963998883	-0.000965540146486473	-0.00302090700961571	-0.000960977569763997	0.00192049233030387	-0.0137359090049467
6.6	0.00355796917409869	-0.00630588505654911	-0.00311499857245171	-0.000532051208847441	-0.00311667090422547	-0.000536036926491762	0.00165078113079426	-0.0144822943526913
6.7	0.00161296613240062	-0.00713743518293381	-0.0031567305823832	-8.88930609640677E-05	-0.00316556314480962	-8.25182297534775E-05	0.000689603370409285	-0.0152302807763372
6.8	-0.000686282465395353	-0.00748524696253482	-0.00312519192101733	0.000353873951503564	-0.00313625890344273	0.000359024315089131	-0.00070072143660743	-0.015399710470554
6.9	-0.00316674882593979	-0.00709648241623769	-0.00304052518399364	0.000784538195665964	-0.00304349160556929	0.00078695212684931	-0.00187642558597045	-0.0150258146573949
7	-0.00536060227168565	-0.00585770736439951	-0.00289682295722764	0.0011992291595143	-0.00290964176250655	0.00119712946132383	-0.00264926763172856	-0.0145223308271422
7.1	-0.00703118319129	-0.00412932402090317	-0.00271552986918861	0.00158011233700167	-0.00271182798881919	0.00158872839096952	-0.00325889681398576	-0.0141412872245078
7.2	-0.00815173796930978	-0.00227110756658516	-0.00245947261001614	0.00193976442325707	-0.0024659676753055	0.00194186164095104	-0.00386115220970856	-0.0139164340889483
7.3	-0.00907026780344063	-0.000485274739638209	-0.00216799723881505	0.00225217615906516	-0.00217915329977934	0.00225723367940917	-0.00460730643888445	-0.0137695637182828
7.4	-0.0100304810927329	0.00136697157663211	-0.00183275783728829	0.00253166300717561	-0.00183961041659041	0.00254522603934892	-0.00551600799746695	-0.0136194225594292
7.5	-0.0108031549089122	0.00366384801604094	-0.00147414036126007	0.00277092847762325	-0.00146717259598357	0.00277831293648302	-0.00625205314821342	-0.0131576244449892
7.6	-0.0107956714403746	0.00636982259372577	-0.00107378052429279	0.00295302508646731	-0.00107514465984524	0.00294832981607518	-0.00667568233841131	-0.0125799749046256
7.7	-0.0102579251278706	0.00883068242551294	-0.000648553215333642	0.0030804659908854	-0.000649891943090469	0.00307940024365943	-0.00720452076027107	-0.0130392062974649
7.8	-0.00888374916188252	0.010952304064695	-0.000222359256852397	0.00313662186607617	-0.000230201047371682	0.00314307957873514	-0.00803061275872111	-0.013034154301823
7.9	-0.00709133631760562	0.0128137844771808	0.000222920171226302	0.00315001175019741	0.000230894007010697	0.00315152714808881	-0.00866931375092094	-0.0127995978356937
8	-0.00430397520258257	0.0141769379185665	0.000671896762541537	0.00308157628169823	0.000671979147756741	0.00308650382116025	-0.00904525434395643	-0.0122264602153589
8.1	-0.00125150903209396	0.0149588205472198	0.00109106410946543	0.00296397810647796	0.00111033943052739	0.00296503524901376	-0.00956735626366393	-0.0122069498577162
8.2	0.00194074975726419	0.014734981980433	0.00150428505403026	0.00277904438585216	0.00151356692058111	0.002771763419741	-0.0102143197576563	-0.01202020221546
8.3	0.00477967370173975	0.0137295712020974	0.00188722220513759	0.00253217758512968	0.00188565078476033	0.00254582655759405	-0.0110138645771167	-0.0116313436791662
8.4	0.00708341567107707	0.0123604970660362	0.00222595707734104	0.00224410840055	0.00222290798000223	0.00224390728300408	-0.0117855807071594	-0.0110128439474529
8.5	0.00905108890528199	0.0107720417295166	0.00251016074854628	0.00190220976550315	0.00250929140528627	0.00190541501448662	-0.0124029301281773	-0.0102362116733631
8.6	0.0108417203073398	0.00895301999460977	0.0027502277505791	0.00153159224332672	0.00275967378427954	0.00152493309622665	-0.0128005312828071	-0.0095882792902543
8.7	0.0124483068864664	0.00658301014829633	0.00292591919495083	0.0011216954597542	0.00293148556882505	0.00112235351465197	-0.0132560100367748	-0.00918996147896216
8.8	0.0134461444024891	0.00365645628498257	0.00305031897094068	0.000707893254978399	0.00305597049433323	0.000699091031455639	-0.0141000420304691	-0.00877313438473482
8.9	0.0136388946888326	0.000437515207086708	0.00311514328266236	0.000275984671379288	0.00311425256777202	0.000273758369339938	-0.0148523214878166	-0.00781632071539039
9	0.0130450298454544	-0.00270225272872872	0.00311413150415163	-0.00016040811025888	0.00311730436918432	-0.000156365553456599	-0.0150769988916728	-0.00653997528372172
9.1	0.0119396185705671	-0.00562970387078622	0.00306072833207356	-0.000591497698452172	0.00306368383995072	-0.000578733532960252	-0.0148025048629689	-0.00548230878885951
9.2	0.0102652524152108	-0.00850691719061636	0.00294885359399049	-0.000997212636313447	0.00295642334422509	-0.00100010167321928	-0.0144970007196829	-0.00479479659005895
9.3	0.00781086504200135	-0.0110992861481674	0.00278272912742829	-0.00139106213375084	0.00278199121439201	-0.00139600222644115	-0.014249614278539	-0.00410974708744065
9.4	0.00461757822854656	-0.0130372075505056	0.00256683500982977	-0.00177228925617697	0.00257329164907993	-0.00176476505491206	-0.0139381678840811	-0.00346060391429649
9.5	0.00104287222714913	-0.0138147137661854	0.00230084859914617	-0.00210165922497319	0.00230820298030669	-0.00210298629796597	-0.0134680187436806	-0.00281085594469683
9.6	-0.00251709811081913	-0.0138383955686715	0.00199349205213932	-0.00240481497331509	0.00199381715398545	-0.00240383836770566	-0.013214725978614	-0.00255743068269673
9.7	-0.00597748053364116	-0.0132224770147127	0.0016345457323919	-0.00265904849370463	0.00164008074940788	-0.00266630275332504	-0.0132691633869323	-0.00233056549416731
9.8	-0.00946879096470448	-0.0120571451111239	0.00125472048914008	-0.00287439818839733	0.00126037387264946	-0.00286590127034625	-0.0136101408045901	-0.00187969272042057
9.9	-0.0129842226433935	-0.00999048016003408	0.000850635270480814	-0.00302124015303929	0.000843305610670341	-0.00302003670251738	-0.01407447038886	-0.000988266539228271
10	-0.0160927781008802	-0.00698599569961272	0.000417836771321139	-0.00311729338516223	0.000410364907034795	-0.00312976021413012	-0.0141537243632824	0.000111257482851606
10.1	-0.0183333422204667	-0.00319423785832788	-2.99976799320296E-05	-0.00315305299482937	-4.02490854662147E-05	-0.00314765350163075	-0.0138562788974516	0.00102795388345896
10.2	-0.0195854819730464	0.000897323317193513	-0.000483225324762324	-0.00311677392562257	-0.00048663522646079	-0.00311398353729037	-0.0134696686081229	0.00172780460196833
10.3	-0.0200530493768829	0.00506039398289867	-0.000922327176458486	-0.00300764502602323	-0.000914252657821356	-0.00301676355759804	-0.0131113119482145	0.00238769099827906
10.4	-0.0198300235320117	0.00932502507876625	-0.00132391467221972	-0.00284629041015238	-0.0013222499103185	-0.00285250116033925	-0.0124902530098474	0.0029956140599144
10.5	-0.0187619064962292	0.0138120259392483	-0.00171614876465338	-0.00263871260049839	-0.00171295990491168	-0.00262573957033021	-0.0116518026469885	0.00347147507672153
10.6	-0.0165388481091956	0.0181805803447453	-0.00206499831437119	-0.00235974888644975	-0.0020628464082856	-0.00236357864652363	-0.0107706878270633	0.00355727859765974
10.7	-0.0132844057157889	0.0219819323382973	-0.00237227598626517	-0.00205061558270228	-0.00236875653924609	-0.00204538771579332	-0.0101179780512523	0.00346438706068069
10.8	-0.00926553566210297	0.0250617806275507	-0.00263014257432263	-0.00168726600006012	-0.0026250473105837	-0.00169616612844278	-0.00979265737667281	0.00347856324359189
10.9	-0.0048878292950509	0.0273320011751217	-0.00282599145324737	-0.00131465417992557	-0.00283112552763957	-0.00131389769609353	-0.00947363045816184	0.00367228137940407
11	2.5637589780424E-05	0.0290291843104844	-0.00297372768431457	-0.000905056199540253	-0.00297854636062414	-0.000911698999861146	-0.00894639855213666	0.00392609685332027
11.1	0.00553251107322511	0.029852574954328	-0.00307389844228968	-0.000491312855654771	-0.00306317059507392	-0.000488510265559658	-0.00825729977485824	0.00388430793943406
11.2	0.0114280073407979	0.0293205758689845	-0.00310019333252561	-6.76491134540176E-05	-0.0031072479717427	-7.24277060952068E-05	-0.00767348575846047	0.00358854939145461
11.3	0.0172330355771605	0.0273730689933595	-0.00307608347262396	0.000366487926285318	-0.00308743944520464	0.000356538629825437	-0.00733130117812086	0.00335925607640435
11.4	0.0221595184896206	0.0241566038526087	-0.00301036580795981	0.000781852799427294	-0.00300555769546619	0.000789359611230391	-0.00698318551227102	0.00319070523967396
11.5	0.0262406687228708	0.0202104686934347	-0.00287933339945922	0.00118909437653132	-0.0028821711199737	0.00119924231500956	-0.00661998643955108	0.00280963122336436
11.6	0.0297987926541828	0.0155688172726298	-0.00269921161298877	0.00157649219164963	-0.00269922269904253	0.00157940937108756	-0.00631172451712171	0.00229232684563835
11.7	0.03253476444064	0.010119397364006	-0.00245186308541185	0.00193412253025774	-0.00245251926522288	0.00194267574706759	-0.0062095968297165	0.00163551610999838
11.8	0.0340718676713455	0.00404679429729557	-0.00216793208033757	0.00227387062977819	-0.00217205558046081	0.00227551861603386	-0.00632412830393665	0.00122912658054342
11.9	0.0343112243251933	-0.002047626292254	-0.00182564474385018	0.002561034815023	-0.00183871081534906	0.00256520401636655	-0.00630807694064191	0.00151124545660406
12	0.0332115639230456	-0.00808099522121452	-0.00145404402850523	0.00279613328422484	-0.00145345993840415	0.0027975535491098	-0.00601552840250209	0.00150040479863517
