# GHZ S RI R 50
0.2	0.00510272533017945	0.00303405635872248	0.00304839048890902	-0.000896950650085607	0.00305875634396818	-0.000890139128547032	-0.0148292070105189	0.00669840645859838
0.3	0.006102872905493	0.000217935496729956	0.00290463494883667	-0.00131978761349622	0.00289738256303165	-0.00130685340279856	-0.0133522343211391	0.00601699001557662
0.4	0.00585036884757041	-0.00237321159635802	0.00267386222333494	-0.00169113755141841	0.00267913619055365	-0.00169969435315593	-0.0128650629077074	0.00560689474490837
0.5	0.0045692577921853	-0.00435823754120086	0.00241621771642538	-0.00204780226446383	0.00242776954565456	-0.00206003296681755	-0.012961823939165	0.00563919961614381
0.6	0.002814622212447	-0.0053977066518747	0.0021050124650001	-0.00236286286920789	0.0021042342381663	-0.00237001659581548	-0.0132492936308351	0.00627030239827983
0.7	0.00109392535752954	-0.00554757029340659	0.0017589950189179	-0.00264187555504298	0.0017570377086825	-0.0026420771393549	-0.0133249654443937	0.00746119962920043
0.8	-9.73592889348074E-05	-0.00523082192813113	0.0013741661677366	-0.00286105908170254	0.00136155723582912	-0.00286563058702946	-0.0128042285942899	0.00888978215304517
0.9	-0.000909264213457231	-0.00489505488636803	0.000956938143469882	-0.00302671654208199	0.000957988072528217	-0.0030374317996887	-0.0117600012139421	0.00997060359589863
1	-0.00163594559685923	-0.00486903908595221	0.000531065117476282	-0.00313220078849278	0.000521184140867821	-0.00313295233896485	-0.010602831226298	0.0104621302853896
1.1	-0.00279772733758672	-0.00503341929749307	7.34840453477097E-05	-0.00316261784506576	6.99803640910309E-05	-0.00318031223780194	-0.00993033072379203	0.0106104851113597
1.2	-0.00448152140060248	-0.00507911258531438	-0.000371187100017958	-0.00315284202745905	-0.000372001401656189	-0.00315076040248826	-0.00944879161673506	0.0109153023656313
1.3	-0.00639315901336908	-0.00471262995457539	-0.000801045217516383	-0.00306940121533195	-0.000804294557680783	-0.00307141080694577	-0.00847700695851357	0.0115225044448799
1.4	-0.00784446159371298	-0.00397895149498408	-0.00122486862278846	-0.00291986271973428	-0.00122365696342784	-0.00292541145851748	-0.00704471128506691	0.01160604188827
1.5	-0.00859156211267165	-0.00271046333385602	-0.00162763288147402	-0.00272184899592545	-0.00162602812792065	-0.0027303722226892	-0.00588504548587061	0.011361231646574
1.6	-0.0086952202841717	-0.000829939779885727	-0.00198910083572454	-0.0024667475477749	-0.00198932124434798	-0.00247199257338867	-0.0054327984650059	0.0116517647112565
1.7	-0.00795923350049101	0.00113491904963181	-0.0023173690694038	-0.00216712882708669	-0.00231832375958083	-0.00216085475058205	-0.00459175140211194	0.0123123623628243
1.8	-0.00661688715745996	0.00278900226948873	-0.00258720142659304	-0.00181329022160015	-0.00259819283048366	-0.00181891017679825	-0.00343353157045862	0.0126649651229809
1.9	-0.00502762349782399	0.00372460324760702	-0.00281070237863711	-0.00144099754681572	-0.00282313819979842	-0.00143481316203021	-0.00238615197300133	0.0126205142542939
2	-0.00358218235307355	0.00416856322427402	-0.00298423355031378	-0.00103267106218355	-0.00299384898732082	-0.00102794210212768	-0.00169562350798341	0.0125043630963205
2.1	-0.00231232718327864	0.00436015930562932	-0.00309569300546643	-0.000604526409076529	-0.00309161326951939	-0.000606525105514986	-0.00110975065214877	0.0125081822577376
2.2	-0.00105897487030031	0.00454560122904419	-0.00315158354898815	-0.000167239693151973	-0.00316288825596562	-0.00017005950109256	-0.000294936274468544	0.0126955809401286
2.3	0.000410781541640066	0.00444916968044137	-0.00314622077480521	0.000274798577332923	-0.00314592514170491	0.000267917570709606	0.000795631272629034	0.0127152360688118
2.4	0.00198880547762379	0.00388979367012002	-0.0030739078651799	0.00071182825389881	-0.00307645098650028	0.000707573366012647	0.00205124038396501	0.0124274817331554
2.5	0.00333330538543129	0.00268165681774566	-0.00293766671002521	0.00112328900664302	-0.00294855448863436	0.00112967241134806	0.00318363788810869	0.0116740945907879
2.6	0.00418810016755307	0.00112952867802035	-0.00276489538173995	0.00152631184651517	-0.00276133791823853	0.00151398361005295	0.00395479349798105	0.0107509599044018
2.7	0.00465642700189653	-0.000423021698390453	-0.00251998670666089	0.00189855439943247	-0.0025252715177877	0.00189856562804226	0.00436919701544844	0.00996124079524791
2.8	0.00503043149282252	-0.00199408544447483	-0.0022374559403161	0.00222766087135088	-0.00222962941926521	0.00223746287149757	0.00472756954044556	0.00946331430261828
2.9	0.00528484262314038	-0.00382339639968012	-0.0019024964597545	0.00252981764748126	-0.00189878077575974	0.00252938805163097	0.00531976629146723	0.00908202489446173
3	0.00503255094813055	-0.00589287523947282	-0.00151443622037002	0.00276704211072831	-0.00152924342511942	0.00277316937990748	0.00596251550699428	0.00867020790750545
3.1	0.00424107397145611	-0.00785153963837901	-0.00112146442024639	0.00294533607427459	-0.0011167831494432	0.00295369161195049	0.00648456344342867	0.00827540683361925
3.2	0.00294642703577095	-0.00952646080455775	-0.000697494560740116	0.00308254364590922	-0.000699244707100946	0.00308193542433257	0.0069211125271414	0.00808788555658706
3.3	0.00141968654029527	-0.0110091832315843	-0.000255482015130873	0.00315097786923773	-0.00025384051687923	0.00314722421882471	0.00769729399555684	0.00779714736506885
3.4	-0.000460958864971127	-0.0122554372837386	0.000194425821482838	0.00314207472728804	0.000188268664751417	0.00315869400104185	0.00856381968617478	0.0070685303875182
3.5	-0.00273454460782056	-0.0132886219014219	0.000618298141864997	0.00309531941733484	0.000623902076455253	0.0030953715292492	0.00902891466223276	0.00593107522013854
3.6	-0.00542251261915051	-0.0137264411299355	0.0010473573218998	0.00297139144940705	0.0010555534837231	0.00297103586881525	0.00913746434998503	0.00505503549538396
3.7	-0.00817175516459648	-0.0134061051215702	0.00145679707993617	0.00278558937728906	0.00144727818322434	0.00279931024814628	0.00933358642696866	0.00441552023698004
3.8	-0.0106587874673257	-0.0124319212993911	0.00183217759811998	0.00255426443780452	0.0018346239583302	0.00256339396373394	0.00968691742023368	0.00376107252077625
3.9	-0.0126827427061924	-0.01113180283995	0.00217397451738015	0.00227816186336249	0.0021667136936164	0.00227641929981082	0.0100442218436145	0.00288968103996083
4	-0.0144923713965507	-0.00968825147977165	0.00245397034478168	0.00195570307608787	0.00245839789681702	0.00195325612248806	0.0102350275114779	0.0019555092212117
4.1	-0.0161935197721112	-0.00795268951323018	0.00270120045764573	0.00159618363890166	0.00269995433004806	0.00159692165508465	0.0103425511693229	0.00114669948373379
4.2	-0.0176587549549525	-0.00573825797382213	0.00289635911544199	0.00119697583155076	0.00290078499467835	0.00118827712158042	0.0104756856940126	0.000452373602623353
4.3	-0.0185892166180282	-0.00324912108500579	0.00303654910261647	0.000787983642991414	0.00304293273193595	0.00078019530103174	0.0107334916251252	-0.000382644729461468
4.4	-0.0190666669131753	-0.000673458369899228	0.003111538921147	0.000357495405977428	0.00311390208380649	0.000355243602581317	0.0108533913092845	-0.00139830152645176
4.5	-0.0191813292677794	0.00187998917208821	0.00313441558834992	-7.70657930756643E-05	0.00313975661779838	-8.04319252133838E-05	0.0107759831999832	-0.00250278245314657
4.6	-0.0190796506626966	0.00444829677584352	0.00309170160053007	-0.000517161589002588	0.00309292941258618	-0.000504284074136045	0.0103925437673712	-0.0035886847940528
4.7	-0.0184949105011205	0.007207414420557	0.00298850458577043	-0.000934449312223143	0.00300375745798589	-0.000944043659666666	0.00982707388735684	-0.00445104313675706
4.8	-0.0172969640782922	0.00996419039594553	0.00282949516809467	-0.00134822659237757	0.00283796060082474	-0.00135430456327142	0.00935083819778767	-0.00508554612435693
4.9	-0.015275640449627	0.0123620816775668	0.00261023920209147	-0.00173312157402369	0.00261440102068875	-0.00173022007878269	0.00900354569625032	-0.00567131254100147
5	-0.0128302743501279	0.0140946265480072	0.00235099002172485	-0.00208959731445091	0.00235461049276187	-0.00208693651435084	0.00882751655127894	-0.00624584382024883
5.1	-0.0100499739397234	0.0153430324615928	0.00203950337887556	-0.00240151341028954	0.00204180431317978	-0.00240015855062818	0.00868076890047324	-0.00685543143398546
5.2	-0.00712011610352558	0.0161034869897395	0.00168021944797597	-0.00265206433299097	0.0016819236155824	-0.00265720756308212	0.00859463529754567	-0.00738423802087509
5.3	-0.00394148464350518	0.0162884446327918	0.00129121266164208	-0.00286699924836498	0.00129434772456406	-0.00286494503460987	0.00865444609651197	-0.00795048951911414
5.4	-0.000795027914717192	0.0157044739683756	0.000864161163821367	-0.003012584940103	0.000881275208046389	-0.00302382972772946	0.00869277666330912	-0.00893397696449495
5.5	0.00190668090225645	0.0144572718862156	0.000449039892671539	-0.00310728257424723	0.000459043925220344	-0.00311672733520109	0.00822625084985253	-0.0101475879015361
5.6	0.00401804865847648	0.0128417916806852	1.03562263233907E-05	-0.00313926528068982	1.84096317224777E-06	-0.00314244521408284	0.00719864434806472	-0.0110117438448887
5.7	0.0056105997967455	0.0111676647355382	-0.000419172545277471	-0.00310440386617969	-0.000435740893721688	-0.00310799162750525	0.00608543127553	-0.0113126181983848
5.8	0.00697102013773395	0.00944073700079872	-0.00086163859908699	-0.00300552829425376	-0.000865206007015001	-0.00301944400917815	0.00525582770909949	-0.0115209242293544
5.9	0.00812099145537164	0.00752740366668812	-0.00126167515875179	-0.00286288551148339	-0.00126986219778437	-0.00286278049978991	0.0044797762282357	-0.0118325336134056
6	0.00886081256104227	0.00520512767269904	-0.00165395971995782	-0.0026557966521598	-0.00165042018502817	-0.00265596998278245	0.00348507729206311	-0.0121610639345566
6.1	0.00895571272319304	0.0026572075637741	-0.00200297679986448	-0.0024026236873326	-0.00200460052935075	-0.00239864337907736	0.00248947503175886	-0.0122447436713316
6.2	0.00838309629179875	0.000155816311779907	-0.00231039985837226	-0.00209296969352659	-0.0023140864559252	-0.00210475939278118	0.00169719255703714	-0.0122466907571244
6.3	0.00745155539750594	-0.00215448776753373	-0.00258424709036019	-0.00176359144742911	-0.00259331869293328	-0.00175789914483509	0.00115935189254044	-0.0124334976373525
6.4	0.00608605872240306	-0.00441580170045332	-0.0028087006877801	-0.00137916881755706	-0.00279902935978946	-0.00138402156498919	0.000628971761287292	-0.012874492663338
6.5	0.00417759953668416	-0.00645120176065867	-0.0029658048325933	-0.000980391719968089	-0.00297363258690685	-0.000975958621811257	-9.48169561576979E-05	-0.013405679656239
6.6	0.00174432072445519	-0.007774633090238	-0.00307657826876829	-0.000560842720749877	-0.00307818917021507	-0.000564805228061308	-0.000949219089825592	-0.0137004745663262
6.7	-0.000771779886675394	-0.00820143744420262	-0.00313136888683725	-0.000126971630771174	-0.003140211818632	-0.000120754268000456	-0.00188897308499798	-0.0136957872712474
6.8	-0.00305975402640241	-0.00796009207402769	-0.00311485056378921	0.000312587201445787	-0.00312593031754266	0.00031757287102916	-0.00271538054365095	-0.0135128649206454
6.9	-0.00513773453404566	-0.00735166641299887	-0.00304433607158868	0.000745976294612628	-0.00304732631331904	0.000748349483155131	-0.00348300877961899	-0.0133589665380783
7	-0.00709873756325132	-0.00644303484094326	-0.00291163869710697	0.00116836716325185	-0.00292444231463856	0.00116612644551617	-0.00435451554894909	-0.0132770015703282
7.1	-0.00910913888532937	-0.00508109570762291	-0.00273643632794012	0.00155974249451231	-0.00273280234536706	0.00156841314250411	-0.00545604010739447	-0.0128636791802878
7.2	-0.01090632624137	-0.00304620460209094	-0.00248103769197582	0.00193058643540255	-0.0024875698482845	0.00193264855083162	-0.00629692018745889	-0.0120114259526455
7.3	-0.0121885250778979	-0.000448873061743918	-0.00218529259608855	0.00225201863154919	-0.00219651139232042	0.00225705051678409	-0.00656547775553693	-0.0111591488922242
7.4	-0.0127152665004197	0.00242070079536881	-0.00184258189258252	0.00253657144370647	-0.00184947786226885	0.00255016559266106	-0.00664809151052576	-0.0107186606894425
7.5	-0.0125443767034571	0.00509797227771604	-0.0014755994218385	0.00277593031482448	-0.00146861783564806	0.0027833244196455	-0.00662790897344053	-0.0107871293454607
7.6	-0.0118965288845468	0.00738806656112765	-0.00106844153528238	0.0029533384856727	-0.00106981266424753	0.00294864772624731	-0.00678940633341185	-0.0113142607630941
7.7	-0.0107938358774872	0.00951946504991859	-0.000640245425046551	0.00307271819837123	-0.000641582412618241	0.003071658375721	-0.00738568968727359	-0.0119441498853561
7.8	-0.00903387256032923	0.0112462667679342	-0.000216069932467299	0.00311976584934174	-0.000223858247377916	0.00312620079146977	-0.0082523648051446	-0.0124386198150285
7.9	-0.00668886475331355	0.0122491312726433	0.000222053140753584	0.00312535630769392	0.000229965141205604	0.0031268576632272	-0.00927888651066476	-0.012606104408574
8	-0.00446191698408188	0.0127258500836101	0.000659737857350839	0.00305311320650678	0.000659810361584125	0.00305799340324549	-0.0106958292500664	-0.0126706396009994
8.1	-0.00213897582215281	0.0128102239224325	0.00106585841647057	0.00293700147689809	0.00108492130161622	0.00293813471597284	-0.0119404508272817	-0.0120203842241639
8.2	0.000102154632253776	0.0127317890273127	0.00146654874079319	0.00275973941500492	0.00147578326673467	0.00275260943909892	-0.0128497568485454	-0.0110338660438952
8.3	0.00249792356135775	0.0122918001766973	0.0018403759214413	0.00252606367005252	0.00183867432237553	0.00253955359364896	-0.0133310254896532	-0.0101245419248228
8.4	0.00488990320452039	0.0113116802027992	0.00217553019154995	0.00225472446654854	0.00217251083390834	0.0022544833811164	-0.0137577491745114	-0.0095372134017349
8.5	0.00698522024108916	0.0096580569221923	0.00246321221174492	0.0019306011082532	0.00246229657744115	0.00193377165495312	-0.0144753482478881	-0.00899574172212032
8.6	0.00849153919276872	0.0076348281467144	0.00271352792263659	0.00157593383017102	0.00272306220269666	0.00156946669779689	-0.0153100260186247	-0.00821591846024069
8.7	0.00949567039677612	0.00547699446462819	0.00290542170344779	0.00117714980421911	0.00291097692612729	0.00117791302243699	-0.0159801401585874	-0.00716757743871332
8.8	0.0101920161365299	0.00328729756552598	0.00304909155171008	0.000767878045540866	0.00305493042141969	0.0007591470238359	-0.0163847888516996	-0.00613643362439657
8.9	0.0107494876505622	0.000799995735305607	0.00313372507734165	0.000332908602612972	0.00313286685764318	0.000330649865508494	-0.016416339155194	-0.00515399118654926
9	0.0108276938366944	-0.00217057930237546	0.00314976951785009	-0.00011379319790722	0.00315291342809718	-0.000109658375598318	-0.0162788019343249	-0.00433287287000799
9.1	0.0101692161207028	-0.00538097341008384	0.00310809884547999	-0.000560461300523077	0.0031109312912588	-0.000547493398402183	-0.0160428019431443	-0.00361287689343045
9.2	0.00858766691271575	-0.00840898520089814	0.00300077309715277	-0.000984219633741027	0.00300847918580667	-0.000987080078181936	-0.0157694051342237	-0.00299528058528751
9.3	0.00637440306060691	-0.0109985399713471	0.00283202513082072	-0.00139566197941687	0.00283130473882461	-0.00140067960723393	-0.0153648898273043	-0.00248667909557552
9.4	0.00357439346696091	-0.0131228934824364	0.00260739262349211	-0.00179117626429349	0.00261392246417116	-0.00178353014169381	-0.0150858151416309	-0.00219502759013001
9.5	0.000133161866176111	-0.0146208346369451	0.00232865821920359	-0.00212902164408006	0.00233610399434429	-0.00213036873544278	-0.0151304917227592	-0.00196890078788773
9.6	-0.00383820188433371	-0.0151727218874032	0.00200760981155175	-0.00243433689894941	0.00200794070945454	-0.00243335119963971	-0.0154938908958864	-0.0014739219942327
9.7	-0.00794468418837033	-0.0145378934829482	0.00163680771933408	-0.00268470486008264	0.00164235684931665	-0.00269203308011838	-0.0157256720493609	-0.000606362072659576
9.8	-0.0117438933275968	-0.0128697795628826	0.00124946156466148	-0.00289212690857512	0.00125517271749429	-0.00288361314349311	-0.0156869483067583	0.000318305323364355
9.9	-0.0149530261944363	-0.0103925952184643	0.000843371106532724	-0.00302939654111959	0.000836031238692356	-0.00302816934451504	-0.0155927105217478	0.00112512810973084
10	-0.0176697418453357	-0.00741155766646096	0.000413990510422659	-0.00311705258436251	0.000406505443343956	-0.0031295074616815	-0.0155562703626541	0.00190473886670679
10.1	-0.0198398884699623	-0.00388761691231413	-2.62640032782867E-05	-0.00314808585560988	-3.65054575402211E-05	-0.00314270691312279	-0.0154228859459184	0.00273494616540931
10.2	-0.0212887868724971	0.000191624288769685	-0.000470066043683653	-0.00311239987296856	-0.000473480004416896	-0.00310962842698801	-0.0150109888684787	0.00363365265929478
10.3	-0.0217249325552125	0.0046594755536768	-0.000900783507350085	-0.00300952058991784	-0.000892659303012354	-0.0030185717336817	-0.014284736425168	0.00430537311740457
10.4	-0.0210513273000438	0.00904911065538177	-0.00129760842201424	-0.0028589287318525	-0.00129588572952889	-0.00286512472758536	-0.0134109012569958	0.00445329238857342
10.5	-0.0195699583422147	0.013133385284506	-0.00169061721496241	-0.00266490917528268	-0.0016875672861569	-0.00265186685383183	-0.012872213624977	0.00436433678979594
10.6	-0.0174493631659462	0.01689987640209	-0.00204704592624958	-0.00239915571771777	-0.00204483358695291	-0.00240298017713572	-0.0126306207030646	0.00432944874687558
10.7	-0.0146629683342884	0.0205164189118551	-0.00236787710792991	-0.0021000690270515	-0.00236439226957703	-0.00209474757020952	-0.012410105675405	0.00457069087781445
10.8	-0.0109598452099654	0.0237251091230537	-0.00264392950901506	-0.00174063037863978	-0.00263866161131269	-0.00174958452655049	-0.0121245469052264	0.00481234929296163
10.9	-0.00649390455047039	0.0261763580594736	-0.00285912894966084	-0.00136452399503536	-0.00286435474655267	-0.00136380657133293	-0.01193621943358	0.00495707106226715
11	-0.00147206791412767	0.0275879977598007	-0.003024609804427	-0.000943339174202103	-0.00302947461336966	-0.000950143630225644	-0.0118509642586345	0.00524514833079929
11.1	0.00366945478573338	0.0279981308717737	-0.00313747515068644	-0.000511548146350278	-0.00312652889837802	-0.000508651878627772	-0.0116969602943153	0.005722564045145
11.2	0.00884315028230513	0.0275050167808332	-0.00316847386336484	-6.5688881434025E-05	-0.00317568902248022	-7.05647573762108E-05	-0.0111842667044062	0.00635486569151247
11.3	0.0140975800392518	0.0260490006204295	-0.00314038655451459	0.000391360259221096	-0.00315204226760111	0.000381259090362738	-0.010107586143487	0.00680689144926721
11.4	0.0191265394874431	0.0235418674972024	-0.0030627908773812	0.000826389403871388	-0.00305781478306092	0.000833999440730099	-0.00902694063050496	0.00680080102787774
11.5	0.0236369396583178	0.0198652916390665	-0.0029133696200374	0.00124722797472823	-0.00291612349802693	0.0012575877890001	-0.00823251267690991	0.00638802769401032
11.6	0.0272800617794176	0.0152179608648586	-0.00271172133860457	0.00164020922984574	-0.0027116871180246	0.00164316665252721	-0.00758157239861172	0.00582196490900508
11.7	0.0299452878724973	0.010062054466245	-0.00244309515596391	0.00199467666144354	-0.00244361268334081	0.00200332487180037	-0.00692702336364759	0.00516439455888147
11.8	0.0318143612370898	0.00455367645252534	-0.00214148213235201	0.00232427563757307	-0.0021456012724871	0.00232600396302735	-0.00630780221288645	0.0043743018358306
11.9	0.0327892320745458	-0.00136284304812857	-0.00178771801500574	0.00259579690991544	-0.00180074253477834	0.00260018657871301	-0.00602178529172315	0.00365659590168507
12	0.0325854504217326	-0.00773086508064747	-0.00141239229201881	0.00281402702193062	-0.00141178844759768	0.00281543740240093	-0.00599151867400905	0.0029174972317727
