# GHZ S RI R 50
0.2	0.00636188647596088	0.00323943192279372	0.00304832581526748	-0.000895818852039577	0.00305868813742515	-0.000889004665917864	-0.0135668663151155	0.00689869949388985
0.3	0.00669950278078836	-4.69120634470424E-05	0.0029051395257442	-0.00131770466683892	0.00289787952014651	-0.00130477687227998	-0.0127549524728246	0.00573936526751925
0.4	0.00586671440458245	-0.00229575391988763	0.00267560325966521	-0.00168837893686395	0.00268088604433178	-0.00169693029230454	-0.0128573491590769	0.00566506949413668
0.5	0.0045864013547766	-0.00358996074667565	0.00241971455827334	-0.00204500584845395	0.00243128649128356	-0.0020572238435676	-0.0129672475424652	0.00638781514998633
0.6	0.00341099696767301	-0.00418644987410469	0.00211039487776564	-0.00236095297886177	0.00210962807824427	-0.00236811287618751	-0.0126890392902539	0.00746928982034682
0.7	0.00241572462733908	-0.00449324154440515	0.00176595933499983	-0.00264181963490477	0.00176400004337926	-0.00264202505543459	-0.0120481485198201	0.00851633356632293
0.8	0.00156369697191594	-0.00481885344971277	0.00138190063032201	-0.0028636622844277	0.00136927749200782	-0.00286826521234799	-0.0111908284825461	0.00931742250287556
0.9	0.000459340882031821	-0.0051211474048717	0.000964260215042927	-0.0030323976872916	0.000965330450909436	-0.00304313693776839	-0.0104359678972043	0.00977353077005881
1	-0.000956636101949402	-0.00521806987893177	0.000536683234629508	-0.00314077030080249	0.000526774030169304	-0.00314153684457728	-0.00996024654404545	0.0101519632449669
1.1	-0.00263662682402503	-0.00486176195159007	7.61625649709234E-05	-0.00317330945849465	7.26605652908223E-05	-0.00319106667570975	-0.00979292955437632	0.0108249648939007
1.2	-0.00423626926259504	-0.00418163573082685	-0.000372158851878633	-0.00316452332251965	-0.00037297642116805	-0.00316243411883985	-0.00920945812440423	0.0118625599181401
1.3	-0.00566744002052097	-0.00347564788948036	-0.000805903373777031	-0.00308059906071589	-0.00080916625551978	-0.00308261437484423	-0.00773469086544193	0.012803228613779
1.4	-0.00676152841632192	-0.00275864422803251	-0.00123328216363786	-0.00292907664428441	-0.0012320733574663	-0.00293464758094182	-0.00593810783745202	0.012877889589869
1.5	-0.00714861417790518	-0.00156419129998458	-0.00163864621013241	-0.00272789340620095	-0.00163705303758471	-0.00273644897903752	-0.00440097279789067	0.0125650384957625
1.6	-0.00686059982494794	-3.40089467415052E-05	-0.00200130650504607	-0.00246891204607835	-0.00200154104170272	-0.00247417197578336	-0.00356710013760659	0.0125047706878095
1.7	-0.00605085154774745	0.00132973918335086	-0.00232925859029069	-0.00216531184107156	-0.00233019683685633	-0.00215902020362673	-0.00264040634153805	0.012555297494897
1.8	-0.00504988330201515	0.00253907396737829	-0.00259727016642909	-0.00180804773978644	-0.00260829770368	-0.00181364196955998	-0.00182528969704793	0.0124376978109755
1.9	-0.00392992219911515	0.00345334767098794	-0.00281794510109516	-0.00143344111341403	-0.00283037308897688	-0.00142721137534005	-0.0012561071549301	0.0123608477847195
2	-0.00268740377628723	0.00418485494158773	-0.00298816422873934	-0.00102421158223567	-0.00299776865612748	-0.00101945294618838	-0.000781565317519569	0.0125303603441737
2.1	-0.00125219921092552	0.00459319765032371	-0.00309655324750705	-0.00059662878820622	-0.00309247939351616	-0.000598637299638178	-3.90136698957032E-05	0.0127576603189728
2.2	0.000263645820559051	0.00464075696489612	-0.00315023828153971	-0.000161029498930708	-0.00316154247505157	-0.000163825854634289	0.00103759222063298	0.0128168705069706
2.3	0.00170028867854567	0.00415078109521832	-0.00314393153678062	0.000278759393308532	-0.00314364511594806	0.000271882216605636	0.00210007738310664	0.0124469692978328
2.4	0.00284354076672646	0.00336253583973988	-0.00307202351812066	0.000713677455507995	-0.00307456849873719	0.000709426275260592	0.00292676397500197	0.0119192859255398
2.5	0.00369239677376485	0.00236140328949568	-0.0029372543247531	0.00112382868248232	-0.00294814011515229	0.00113021395149424	0.00355369758816543	0.0113674697551706
2.6	0.00439253667550535	0.00128248840780539	-0.0027664506589446	0.00152676398825006	-0.00276289002672867	0.00151442998449604	0.00415650163920731	0.0109195311003852
2.7	0.00503279562318604	5.83251168499338E-05	-0.00252332417798286	0.00190024885418536	-0.00252861516430552	0.00190025899887933	0.00473382207437891	0.0104676269823504
2.8	0.00557765034674371	-0.00140774425993892	-0.00224175207612052	0.0022317113508389	-0.00223391142334001	0.00224153207341966	0.00525968672115531	0.0100869009862803
2.9	0.00592006481749375	-0.00311260443244579	-0.0019063753479726	0.00253688550792431	-0.00190265045229063	0.0025364534815304	0.00593813213848609	0.00985231766957411
3	0.00589306739604427	-0.00498018473381544	-0.00151624846540351	0.00277695751192645	-0.00153109442493715	0.00278311825068735	0.00681968387326561	0.0096632368960057
3.1	0.00551015147963325	-0.00690422094452873	-0.001119814839882	0.00295722239027931	-0.0011151026405688	0.00296559724978173	0.00777574273000318	0.00930993624020723
3.2	0.00457187246125051	-0.00884510416631408	-0.000691357325897476	0.00309495759972444	-0.000693115106295898	0.00309435214059516	0.00859936896389144	0.00886306649880575
3.3	0.0030968041352297	-0.0107208978845916	-0.000244542826675864	0.00316195141400428	-0.000242910107498773	0.00315817970424328	0.00946208108793717	0.00816631887499797
3.4	0.00103406756883307	-0.0121787560612651	0.000209542455895554	0.00314955656670814	0.000203446079372853	0.00316624879718228	0.0101722192590658	0.00719765204504219
3.5	-0.00136049996857486	-0.0131896047135231	0.000636227355826056	0.00309782148712605	0.000641842163849088	0.00309784335313705	0.0105334625721623	0.00604824529422787
3.6	-0.00396208780608499	-0.0135986919349181	0.00106605038709965	0.0029678084447488	0.00107425179988061	0.0029674035816189	0.0107240457740262	0.00516247618295415
3.7	-0.00659685786839041	-0.0134787470652258	0.00147386801145961	0.00277582975147953	0.00146443711551965	0.00278960690670401	0.0110267907828714	0.00428304631105436
3.8	-0.00922570387530075	-0.0128078258911823	0.00184542283517482	0.00253923094076686	0.00184792240390522	0.00254833221438907	0.0112140342636822	0.00328378337550321
3.9	-0.0116171679822643	-0.0115834136306838	0.00218166603764743	0.00225957395315076	0.0021744137967033	0.00225787831173409	0.0111565413530291	0.00230528790994145
4	-0.013682710292082	-0.00990201593808043	0.00245524213147705	0.00193600188875953	0.00245964112981838	0.00193354087733451	0.0110288260168211	0.00160293230747912
4.1	-0.0153333733805021	-0.00790504918323423	0.00269616167413717	0.00157777365184783	0.002694924114376	0.00157851372143039	0.0111303598675185	0.00107969768632433
4.2	-0.0166398384030587	-0.00567293116890465	0.00288612469092153	0.00118207960697661	0.00289050181543628	0.00117340902045486	0.0113865520194882	0.000444365255901215
4.3	-0.0175999623942781	-0.00331562538250453	0.0030230677786446	0.000778027487103101	0.0030294042476919	0.000770265030532419	0.0115964869149254	-0.000489037727292305
4.4	-0.018290596077456	-0.000713106900446044	0.00309714145943874	0.00035302280406179	0.0030994914316107	0.000350779538652422	0.0114938981234099	-0.0014396569590674
4.5	-0.0185222188518053	0.00210966023485054	0.00312128255075517	-7.66250289541259E-05	0.00312660132310962	-7.99768533602263E-05	0.011297710996293	-0.00223398768226251
4.6	-0.0182602212755189	0.00496138329932362	0.00308149840527006	-0.000513209454311536	0.00308271292221176	-0.000500375092073271	0.011098326612555	-0.00298354631807916
4.7	-0.0173885805123032	0.00776716294167412	0.00298200275435849	-0.000928910649263873	0.00299722759811241	-0.000938464618576366	0.01085753150517	-0.00377675973024839
4.8	-0.016045050091996	0.0103870826911319	0.00282651857327364	-0.00134301631747083	0.00283497733316312	-0.00134907548555118	0.0105715244680377	-0.00455914711664804
4.9	-0.0140562732050432	0.012723121749024	0.00260975309943394	-0.00172980676198605	0.00261390963631059	-0.00172690402876896	0.0102110193501401	-0.00522765223863267
5	-0.0115624541612901	0.0145428005733914	0.00235137327558722	-0.00208902250614019	0.00235499305797848	-0.00208636099915178	0.0100892586218465	-0.00573576242632776
5.1	-0.00854798299903391	0.0157686486897379	0.00203894908516182	-0.0024036348137025	0.00204125171048993	-0.00240228072439828	0.0101751296471163	-0.00638687754905554
5.2	-0.00546420412747797	0.0162411025045718	0.00167718293469223	-0.0026559360041793	0.00167888039885646	-0.00266108444693624	0.0102322382960661	-0.00722231577381499
5.3	-0.00244754830962436	0.016119728014907	0.00128472202356021	-0.00287102644905524	0.00128786303688404	-0.00286897912716849	0.0101054994548401	-0.00810616403110337
5.4	0.000388981340701793	0.0155239705123641	0.000854159357554777	-0.00301477208057788	0.000871233164430342	-0.00302607030855223	0.00979928587120664	-0.00909503079615916
5.5	0.00298707338604777	0.0145129137181436	0.000436344910508848	-0.00310585144653248	0.000446301462099413	-0.00311532586789799	0.00919868111730926	-0.0100416917819624
5.6	0.00529790877052766	0.01304182365978	-3.33315941230046E-06	-0.00313277202213822	-1.18445321019888E-05	-0.00313590825841267	0.00836180242329749	-0.0107139388255049
5.7	0.00714070456374515	0.0111783485992464	-0.000431560872328417	-0.00309231601745471	-0.0004480905433914	-0.00309581846922462	0.00752009360825719	-0.0111533724939859
5.8	0.00844183846212047	0.00906936729135441	-0.000870177342396192	-0.00298830776761077	-0.000873786201635188	-0.00300214549908755	0.00667064454542963	-0.0117183539464272
5.9	0.00919350249792657	0.00694756140505635	-0.00126439019902918	-0.00284217115498762	-0.00127253013594774	-0.00284203838086443	0.00553681489445235	-0.0122386242355781
6	0.00950826962647858	0.00480084162733831	-0.00164939828276987	-0.00263405523204775	-0.00164588277622878	-0.00263423602873454	0.00414245337584772	-0.0124014233036909
6.1	0.00947242859324816	0.00263301185030472	-0.00199105496235334	-0.00238276324893886	-0.00199266228008666	-0.00237881021777087	0.00303436758740586	-0.012113553892383
6.2	0.00901525828176407	0.000377336742340191	-0.00229222050333632	-0.00207784618182628	-0.00229587539089268	-0.00208954770778128	0.00237681411131702	-0.0118799129910961
6.3	0.00816356049004391	-0.00183945558056354	-0.00256189338074677	-0.00175519905835574	-0.00257090804360846	-0.00174956539179454	0.00193105518337216	-0.0119904984069914
6.4	0.00680692870310368	-0.00388116607601196	-0.00278509823319596	-0.00137871588080828	-0.00277547750139281	-0.00138350456414389	0.00139824115288979	-0.012240014909685
6.5	0.00517293591486891	-0.00563463405724676	-0.00294405417989636	-0.000987490428671949	-0.00295185501925835	-0.00098311747513081	0.000923681569717352	-0.0124950556000084
6.6	0.00323152519096041	-0.00700692209900633	-0.00305921920461698	-0.000574077857157236	-0.00306080208913919	-0.000578030044119334	0.000553930944217949	-0.0128226813710275
6.7	0.000989126134552805	-0.00786004307737984	-0.00312012036363368	-0.000144037381218056	-0.00312896826564438	-0.000137890344503462	-9.63908132454219E-05	-0.0132355484762879
6.8	-0.00144633199658839	-0.00802908574686011	-0.0031103316818484	0.000294486145235739	-0.00312141709018581	0.000299399627449736	-0.00105256249950161	-0.0134701249411095
6.9	-0.0038411302383995	-0.00746126630881333	-0.00304590871235197	0.000729436361383708	-0.00304890910261132	0.000731792042928588	-0.00213964552394727	-0.0133678927861625
7	-0.00589306132670033	-0.00634812407640892	-0.00291771267569317	0.00115542033570931	-0.00293050942435	0.00115312076754085	-0.00309805394850423	-0.0130854414257588
7.1	-0.00767134067725795	-0.00487291014871284	-0.00274476600146827	0.00155139308250275	-0.00274115976331689	0.00156008539777763	-0.00395539648292569	-0.0125612783402488
7.2	-0.00917812590647234	-0.00308619774687746	-0.0024892798305429	0.00192690548390231	-0.0024958260318531	0.00192895382961853	-0.0044836610950017	-0.0119682934424197
7.3	-0.010492647649007	-0.00100797073330696	-0.00219142390504954	0.00225188943715716	-0.0022026648351042	0.0022569119675972	-0.00475297095378544	-0.0116601714306596
7.4	-0.0114557192977078	0.00152279150992448	-0.00184539011102017	0.00253816946907937	-0.00185229833405408	0.00255177344871522	-0.00532127490544362	-0.0115841941361542
7.5	-0.0118581143111957	0.00424270841481136	-0.00147486688117537	0.0027770951919124	-0.001467880966969	0.00278448825654849	-0.00590921861694148	-0.0116501704902164
7.6	-0.0116079555931253	0.00679611300784071	-0.00106499699637133	0.00295203644678619	-0.00106637125541276	0.0029473504869341	-0.00641546045770817	-0.0119982960822829
7.7	-0.0105296399729083	0.00922026204561538	-0.000635865127645905	0.00306755240267187	-0.000637200672573658	0.00306649596711615	-0.00714925096991934	-0.0122217577096942
7.8	-0.00887194439597046	0.0111984299185492	-0.000213046005382758	0.00311034704297792	-0.000220805530309807	0.00311676811264653	-0.00811957993824332	-0.0124341438834712
7.9	-0.00636253270247887	0.0125400367167631	0.000221336399926994	0.00311237926367722	0.00022921568316765	0.00311387387525432	-0.00915362217398129	-0.0119742373247266
8	-0.00403071728483209	0.0135112176674577	0.000653360019251306	0.00303856809354044	0.000653427222221803	0.00304342404681685	-0.0102628355943224	-0.0118450695983106
8.1	-0.00105099657972861	0.0136554869127201	0.00105304419773766	0.002923484308948	0.00107200019100546	0.00292465671252253	-0.0108483084265096	-0.0109247898367027
8.2	0.00155781195758047	0.0133027382644985	0.00144768520466368	0.00275028826359392	0.00145689679828789	0.00274323363934514	-0.0112921481328123	-0.0102340008833182
8.3	0.00395342160770852	0.0125285408975076	0.00181729744664972	0.00252333388910824	0.00181553087460876	0.0025367463524468	-0.0117000600489189	-0.00972118465469358
8.4	0.00615776578561911	0.0114828753392001	0.00215110144391063	0.00226029183727823	0.0021480962216092	0.00226003108226928	-0.0122853887410936	-0.00928452239574057
8.5	0.00823546604572544	0.0100112710514602	0.00244094064341532	0.00194470394844404	0.00244000242903972	0.0019478582833992	-0.0130350733450896	-0.0086385506704276
8.6	0.0100252422549288	0.00809005274931801	0.00269659329673517	0.00159739103061571	0.00270617159301326	0.00159101408739486	-0.0136246624723073	-0.00781050558450223
8.7	0.0113458865730104	0.00571042763441637	0.00289643066548378	0.0012034322128435	0.00290198185784093	0.00120424495461439	-0.0140313401185708	-0.00703483502712208
8.8	0.012083618184409	0.00305810770270851	0.00304920190006167	0.000795780525181668	0.00305512868047775	0.000787080480176816	-0.0144471638436059	-0.0064894249881569
8.9	0.0123387627100094	0.00025245684542816	0.00314288435599073	0.000358927332461918	0.00314204075840097	0.000356653314502709	-0.0148423094393009	-0.00582866525497486
9	0.0120837304214633	-0.00271187598798226	0.00316646512208915	-9.28324277944266E-05	0.00316959664939744	-8.86552141053498E-05	-0.0150923060487084	-0.00498198853659829
9.1	0.0113179268910756	-0.00583039403899679	0.00312977178540751	-0.000546727153498834	0.00313254988351194	-0.000533666109543705	-0.0150123874635752	-0.0041247658196759
9.2	0.00965797336392482	-0.00886034350606755	0.0030242008819045	-0.000978596954245844	0.00303196846694764	-0.000981445121576348	-0.0148329680336948	-0.00345805659306427
9.3	0.00723642426054829	-0.0114225568277994	0.00285407649399487	-0.00139779706286601	0.00285336382148682	-0.0014028494128265	-0.0146367777460185	-0.00287552983861609
9.4	0.00423690136746832	-0.0132595750138484	0.00262546870283841	-0.00179954872065326	0.00263203102556012	-0.00179184824434529	-0.0145296447132015	-0.00223139105714454
9.5	0.00086025710117843	-0.014436928340157	0.00234111138008475	-0.00214097073703157	0.00234859769328578	-0.0021423261765637	-0.0145028405228493	-0.00163992561381527
9.6	-0.00278422266838669	-0.0148130054596415	0.00201406961859852	-0.002447125927127	0.00201440296683665	-0.00244613619278586	-0.0144933002293208	-0.000947832460588674
9.7	-0.00659611126881322	-0.0143270794136728	0.0016381407110587	-0.0026956810460555	0.00164369694038429	-0.00270304080049645	-0.0143823125037987	-0.000239078988210538
9.8	-0.0103769875322758	-0.0129344838471106	0.00124767047671621	-0.00289949614674506	0.00125340494585231	-0.00289097429848062	-0.0143020087999677	0.000376209509207433
9.9	-0.0137757410478181	-0.0105769057370124	0.000841057878601824	-0.00303247749339353	0.000833713722835405	-0.00303124225018886	-0.0144038561955679	0.00102579123176823
10	-0.0166042377962449	-0.00747367385331904	0.00041365083297265	-0.00311657108281778	0.00040616592576521	-0.0031290232416062	-0.0145136244777566	0.00191734929580926
10.1	-0.0186691360051455	-0.00387189371769698	-2.27606469888098E-05	-0.00314594834332546	-3.30010080010448E-05	-0.00314058444105455	-0.0142991595001859	0.00285400435837972
10.2	-0.0200321004250032	5.51837335349249E-05	-0.000462054273144914	-0.00311129740163438	-0.00046547258396854	-0.00310853638225028	-0.0137877286721481	0.0036347386472112
10.3	-0.0206558137962153	0.00433127507809971	-0.000889098107496349	-0.00301221737272203	-0.000880941404817279	-0.00302123535509455	-0.0132191091414247	0.00412243493770629
10.4	-0.0203214448278417	0.00880718080235118	-0.00128436580794559	-0.00286745567227778	-0.00128261110562716	-0.00287364763980048	-0.0126697397283693	0.00434894899407876
10.5	-0.0190718691413046	0.013181114941449	-0.00167880484413954	-0.00268028065073653	-0.00167582373731682	-0.00266719324158663	-0.0122449588676642	0.00452265091694817
10.6	-0.0167109726775785	0.017309240487379	-0.00204004447323487	-0.0024206505550132	-0.0020378004736525	-0.00242447580928254	-0.0118445012898898	0.00486676399620917
10.7	-0.0137109596062018	0.0209909674588765	-0.00236839041292636	-0.0021256478331837	-0.00236491806693662	-0.0021202764985957	-0.011380744659213	0.00513671351956494
10.8	-0.00994257514257387	0.024197357147238	-0.00265372713845604	-0.00176695768832193	-0.00264837456729282	-0.00177594830668061	-0.0110255943609764	0.00531063604167903
10.9	-0.00546996462278259	0.0268411216207857	-0.0028781978606149	-0.00138793106539149	-0.00288347159901906	-0.00138722875939511	-0.0109116536251137	0.00553771702987484
11	-0.000186671921333982	0.0284881068787394	-0.00305162836505174	-0.000960170166865058	-0.00305652324223812	-0.000967053099866352	-0.0106522877968461	0.0060436355510717
11.1	0.00546224519619477	0.0289193891915144	-0.00316973547230789	-0.000519148792748812	-0.00315867747570712	-0.000516214446557945	-0.0100766842394973	0.00656371159130729
11.2	0.0111010912380463	0.0280622600044682	-0.00320212752489918	-6.2543664518541E-05	-0.00320942504910301	-6.74624593630672E-05	-0.00916568068438016	0.00688147234211931
11.3	0.0164363357065052	0.0259193237878606	-0.00317146928253194	0.000405282653701501	-0.00318327676580038	0.000395114265964356	-0.00793928846318755	0.00670111228769205
11.4	0.0212637144665233	0.0229995156199308	-0.0030877845736978	0.000849368074334596	-0.0030827236371327	0.000857025770879578	-0.00710984328049672	0.00634378552952108
11.5	0.0255810739815754	0.0191685772645887	-0.00292942680232212	0.00127633840168455	-0.00293213663896266	0.0012868016857001	-0.0065700965948614	0.00591389192125077
11.6	0.0290629398100141	0.0143316365256196	-0.00271750810981642	0.00167174760112407	-0.0027174512715978	0.00167472461739302	-0.00602490748910273	0.00524984225779563
11.7	0.03146617559234	0.00890361184126169	-0.00243878751516604	0.00202458203780254	-0.00243923660928583	0.0020332772073265	-0.00553972110686012	0.00438812093620865
11.8	0.0328316925610643	0.00326174733394917	-0.00212880775881929	0.00234929365943742	-0.00213292531819427	0.00235106159364163	-0.00531041418811965	0.00349034374618481
11.9	0.0332388656599036	-0.00234414725300558	-0.00176979063437197	0.00261352480181559	-0.00178279890122077	0.00261802320772943	-0.00554537247067518	0.00306264929631412
12	0.0327721908232728	-0.00828870497522157	-0.00139273182363486	0.00282374315376634	-0.00139211818194258	0.00282514926774742	-0.00573654651522534	0.00262619123530731
