# GHZ S RI R 50
0.2	0.00682122326046858	0.000594842911261257	0.00304832252785556	-0.000897720194208458	0.00305869050247279	-0.000890910817658644	-0.0131096293431184	0.00426520351189762
0.3	0.00653508613601668	-0.00120835124550898	0.00290422194820248	-0.00132092454357553	0.00289697423698448	-0.00130798720922365	-0.0129173276619615	0.00459877189990492
0.4	0.00603491783401184	-0.00229366774892409	0.00267286042118839	-0.00169253735911926	0.00267812957632901	-0.00170109675942348	-0.0126756369649952	0.00569673068849401
0.5	0.00559522463118451	-0.00312505096232877	0.00241437868580403	-0.00204922007666946	0.00242591997326759	-0.00206145718288533	-0.0119276179354477	0.00688476613104373
0.6	0.00518062767975841	-0.00401529148275883	0.00210222850341146	-0.00236386413572937	0.00210144434334507	-0.00237101469107376	-0.0108702053349231	0.00766634151212182
0.7	0.00440894757147573	-0.00504434561022314	0.00175539414500186	-0.00264196653802614	0.00175343782515868	-0.00264216612088899	-0.00999039329774553	0.00797724739657226
0.8	0.00314447139141285	-0.00599182636791671	0.00137013384984713	-0.00285984059488114	0.00135753174125324	-0.00286439565971769	-0.00953579282766742	0.00813682233297983
0.9	0.00129342771269949	-0.00638571569024531	0.00095301280245944	-0.00302395021462461	0.000954051648940326	-0.00303465353650834	-0.00952689429186658	0.00847853449204121
1	-0.000682534554332374	-0.00597051194746561	0.00052788259548598	-0.00312788470904501	0.000518015937171051	-0.00312862761180559	-0.00962297445448458	0.00934803468000969
1.1	-0.00232527248317676	-0.0048525371835914	7.17516730958932E-05	-0.00315705933668858	6.82452261136357E-05	-0.00317472064689499	-0.00944414562513494	0.0107733345050053
1.2	-0.00333661922090807	-0.00371400120541943	-0.000371009852899884	-0.00314661588475011	-0.000371822201222344	-0.00314453818632419	-0.00830876437975307	0.0122652177758524
1.3	-0.00419905239240965	-0.00310295570649467	-0.000798792263073024	-0.00306332016309356	-0.000802034585251616	-0.00306532632681513	-0.00630292720117411	0.0131275003019315
1.4	-0.00510676265095546	-0.00262255714780546	-0.00122068873655183	-0.00291472836587194	-0.00121947623368566	-0.00292026525921679	-0.00433148073962669	0.012959300326536
1.5	-0.00540297427685314	-0.00166967432092955	-0.00162197236233253	-0.00271832855551475	-0.00162036240694783	-0.00272683431032419	-0.00272564821219359	0.0123979794135561
1.6	-0.00512074594830383	-0.000563713746792147	-0.00198271811327323	-0.00246527702972587	-0.00198293146737706	-0.00247051381034365	-0.00188004834981185	0.0119218658573601
1.7	-0.00463218037652557	0.000403647886504222	-0.0023110988287121	-0.00216778274117302	-0.00231206168865227	-0.0021615182699603	-0.0012823712202147	0.011591158334141
1.8	-0.00413144991270952	0.00153659891206033	-0.00258185119887491	-0.00181576047372686	-0.00259282323201971	-0.00182139287792608	-0.000958231991965145	0.0114260211103121
1.9	-0.00334106987140126	0.00270381857892342	-0.0028067733576757	-0.00144469675105804	-0.00281921201261781	-0.00143853592548433	-0.000706137692840591	0.0116112726815088
2	-0.00210540867990616	0.00374622135238826	-0.0029819832992275	-0.00103689980269882	-0.00299160355823823	-0.00103218636539052	-0.000225391692066651	0.012092862997972
2.1	-0.000480168544158631	0.0042490129539535	-0.00309503637782893	-0.000608538934228616	-0.00309095390558577	-0.000610532453236011	0.00071643337247597	0.0124088272055505
2.2	0.00113154126481953	0.00413262913710649	-0.00315211406189158	-0.000170436689820232	-0.00316341844611943	-0.000173268457237817	0.00189282075833037	0.0122963325538204
2.3	0.00238785263062625	0.00344769376219602	-0.0031473173898741	0.000272751799190291	-0.00314701702081776	0.000265869000174203	0.00277519631609034	0.0117254263822012
2.4	0.0031855242381169	0.00269535446881988	-0.00307488202099261	0.000710927142405859	-0.00307742426323169	0.000706670364171352	0.00325767742957221	0.0112414663728998
2.5	0.00381829911137575	0.00202064915087393	-0.00293788695737653	0.00112319405782451	-0.00294877567045135	0.00112957723187561	0.00367702928914165	0.011012427572664
2.6	0.00459986682519946	0.00128909015592274	-0.00276400120449544	0.00152638181727169	-0.00276044651079558	0.00151405594875588	0.00436942942398244	0.0109060802231175
2.7	0.00545588674687953	0.000209495631043589	-0.00251800882306171	0.00189802344024698	-0.00252329045045634	0.00189803594529038	0.00516783229742805	0.0105898695594628
2.8	0.00613382180567863	-0.00123482527358809	-0.00223481009661791	0.00222587398049544	-0.00222698948450242	0.00223566475718148	0.00582825776534913	0.0102173327014013
2.9	0.00657454692758104	-0.00286079961495093	-0.00189990825367693	0.00252636775037914	-0.0018961976317715	0.00252593874577739	0.00659889266063361	0.0100319797364679
3	0.00675357995727826	-0.00465663740109425	-0.001512794381854	0.00276192238094853	-0.00152757878146584	0.00276803461755674	0.00765860539837337	0.00989096313439065
3.1	0.00664535499807055	-0.00669089749282483	-0.00112155962344735	0.0029389149569868	-0.0011168935092508	0.00294725820114945	0.00885505439391947	0.00942330829131419
3.2	0.00584239141582984	-0.00889749556531823	-0.000700017899671502	0.00307562063796401	-0.000701763847582151	0.00307501139974707	0.00977516335922952	0.00871434214857664
3.3	0.00430442322106175	-0.0110168382430646	-0.000260641999830566	0.00314457233965053	-0.000258996878790003	0.00314082871427622	0.0105325298276824	0.0077945709334902
3.4	0.00210350571285306	-0.0125590774821985	0.000186857388033037	0.00313729439601408	0.000180672157049665	0.00315387181715877	0.0110698670156709	0.00678046073776931
3.5	-0.000321712895087974	-0.0135461493275801	0.000608923329376472	0.00309302517398374	0.000614519865113471	0.00309309274200311	0.0113715643734785	0.00571105282359911
3.6	-0.00287048155583913	-0.0140271235647957	0.00103726488001708	0.00297230876842857	0.00104545567305111	0.00297197902423926	0.0116185414921136	0.00481170182550335
3.7	-0.00552186606461541	-0.0141075551457068	0.00144724533814302	0.00278989323877493	0.00143768264689952	0.0028035797653521	0.0119232642790579	0.0037984567569011
3.8	-0.00836556295813717	-0.0136133859709348	0.00182439157221127	0.00256157483647657	0.00182680827364019	0.00257071667426567	0.0119434839319645	0.00268331283625423
3.9	-0.0110524528109262	-0.012358566023893	0.00216895333070988	0.00228765512743264	0.00216169030085435	0.00228588719406278	0.0116647099333077	0.00177231019179347
4	-0.0132787866218192	-0.0104803266877259	0.00245230849210885	0.00196613799378627	0.00245675055772441	0.00196369995772607	0.0114630936163886	0.00126973033204753
4.1	-0.0149142218712691	-0.00832255869108939	0.00270297999352673	0.00160627019420831	0.00270172938981697	0.00160700668843076	0.0116581373122172	0.000875512804360672
4.2	-0.0161905840100694	-0.00605817785033198	0.00290110185735902	0.00120546463186303	0.00290555525310416	0.00119675327776037	0.0120003916652608	0.000215990790489781
4.3	-0.017230751648004	-0.00367755958207259	0.00304328302429595	0.000794020181581808	0.00304969330919148	0.000786220341294157	0.0121659357428864	-0.000746573178402628
4.4	-0.0180228145888164	-0.000929592192182058	0.00311908835767246	0.000360678076621631	0.00312145910711939	0.000358422355245999	0.0119762710423841	-0.00161924722612291
4.5	-0.0182202048187082	0.00212808853861462	0.00314161898110592	-7.65858300797181E-05	0.00314697296278199	-7.99585618326928E-05	0.0118061828067765	-0.00224653448152296
4.6	-0.017754276656679	0.00512989885224529	0.00309757189690407	-0.000518798976768204	0.00309880473826414	-0.00050589682000758	0.011760203343001	-0.00291740597233811
4.7	-0.0166589641036375	0.00790086318454592	0.00299248530996582	-0.000937205447582155	0.0030077562761948	-0.000946820984026103	0.0116847283498782	-0.00376854799127572
4.8	-0.0152440094931492	0.0103828248623883	0.00283153452792728	-0.00135108260383048	0.00284000495261123	-0.00135717112153398	0.0114081776315402	-0.00466701817288285
4.9	-0.0132667447035358	0.0126657348664729	0.00261076929971152	-0.0017351343311969	0.00261493446497805	-0.00173223323376692	0.0110076340343619	-0.00535756922473117
5	-0.0107248354398346	0.0144994036491953	0.00235083034553788	-0.00209018286705793	0.00235445158691128	-0.00208752246469805	0.0109207144118646	-0.00581609341573962
5.1	-0.00760050377186035	0.0156461305796569	0.00203965255167332	-0.00240055750633832	0.00204195270940578	-0.00239920238352729	0.0111186613575323	-0.00650519737708304
5.2	-0.00452532667241462	0.0159239317806621	0.00168160297859143	-0.00264997870337251	0.0016833103349771	-0.00265511901994076	0.011195458966024	-0.00749781502576258
5.3	-0.00170414513677442	0.0156819215631414	0.00129447969884802	-0.00286460896708931	0.00129761133902554	-0.0028625513519182	0.0109249895260855	-0.0084906018815053
5.4	0.000926547202867756	0.0151788932998349	0.000869477816155242	-0.00301100582274305	0.000886611475202045	-0.00302222013945646	0.010466328381716	-0.00940983833682284
5.5	0.00350126517115844	0.0143640557385309	0.000456047635727252	-0.00310758063042954	0.000466076538535823	-0.00311700732950722	0.00988004203154831	-0.0102099606646227
5.6	0.00595737115769283	0.0129782291322273	1.81539292267692E-05	-0.00314234547805936	9.63812983382141E-06	-0.00314554968091056	0.00919818106807524	-0.0108589704146218
5.7	0.00789309524462975	0.0110196250445378	-0.00041181363773501	-0.00311061334701728	-0.000428400020686744	-0.00311424999442485	0.00842575696624989	-0.0114606920963793
5.8	0.00914607316581815	0.00876226285915866	-0.000856165876248484	-0.00301478268409299	-0.000859706947760256	-0.00302874019268437	0.00748508152911043	-0.0122154396368128
5.9	0.00971805272273617	0.00662216239915886	-0.00125924872132559	-0.00287439791162358	-0.00126746099763491	-0.00287431053870097	0.00612151032653547	-0.0127765335673952
6	0.00990355312828279	0.00462784608295739	-0.00165554162677127	-0.00266831494890015	-0.00165198883168211	-0.00266848294705926	0.00454683796530978	-0.0127918534588042
6.1	0.00989853321603699	0.0026409351630574	-0.00200883061654806	-0.00241453788093447	-0.0020104650281304	-0.00241054278460409	0.0034222211504032	-0.0123175917258918
6.2	0.0095445603515018	0.000445194171916067	-0.00232010532252016	-0.00210258792104743	-0.00232380574683468	-0.0021144299679347	0.00282188650923868	-0.0120047490284228
6.3	0.00870778747831647	-0.00178872438579957	-0.00259678708548379	-0.0017696674050369	-0.00260589492162893	-0.00176394408222574	0.00236373939267452	-0.0120981417835187
6.4	0.0073683849727866	-0.00377203012617396	-0.00282252260592279	-0.00138078821303038	-0.00281281791807222	-0.00138567564615871	0.00185130216092768	-0.0122440223681973
6.5	0.00588341306519843	-0.00546706584294905	-0.00297914010431975	-0.000977517454378992	-0.00298698751399483	-0.000973050340150982	0.00154990239550672	-0.012413355350389
6.6	0.004135350000696	-0.00694760870968774	-0.00308785266542933	-0.000554044683529251	-0.00308947968829601	-0.00055801521372312	0.00138944317324575	-0.0128437298441373
6.7	0.001920353883743	-0.0080244330129363	-0.00313938006797597	-0.000117425789515561	-0.00314822492874024	-0.000111165485164777	0.00076659349155903	-0.0134777270929823
6.8	-0.00067159500396794	-0.00831645173257506	-0.00311900789776283	0.000323313366045568	-0.00313008974670865	0.000328343633242504	-0.000350142767968921	-0.0138314079220194
6.9	-0.00320315735655156	-0.00770537937642621	-0.00304479007931513	0.000756362368658179	-0.00304777554407108	0.000758747283048267	-0.00156138288077848	-0.0136858090190755
7	-0.00523353955548933	-0.00643656333948752	-0.00290910180416954	0.00117711443065213	-0.00292191558058242	0.00117491005382977	-0.00251831475430246	-0.0132477025992024
7.1	-0.00682963075507447	-0.00493945122646461	-0.0027320786381681	0.0015660790924668	-0.00272842430855948	0.00157473911537888	-0.00321975489348443	-0.0126826698390906
7.2	-0.00819503551341359	-0.00334976032065398	-0.00247615919316362	0.00193423045748622	-0.00248268414771557	0.00193630371631665	-0.00362634843640711	-0.012250889659544
7.3	-0.00959147378403378	-0.00154654031949885	-0.00218113981501176	0.00225338241837326	-0.00219234546932699	0.00225842528602517	-0.00399276117069327	-0.0121777307387223
7.4	-0.0108705813539991	0.000765543118141826	-0.00184003153691444	0.00253653567531655	-0.00184691529025989	0.00255012769200551	-0.00476384107479779	-0.0123053157545754
7.5	-0.0115959668711416	0.0035850667156296	-0.00147499054042064	0.0027757108404975	-0.00146800899705337	0.00278310285212209	-0.00562305773506191	-0.0122545001285708
7.6	-0.0113809016441409	0.00647832660856438	-0.00106947278463862	0.00295416036234025	-0.00107084337340889	0.00294946762333674	-0.00627851603944227	-0.0121576910923745
7.7	-0.0104625169479325	0.00905576670167611	-0.000641994033387308	0.00307551344076496	-0.000643331953046557	0.00307445208736579	-0.00701833129299625	-0.0124126116285944
7.8	-0.00882352251924414	0.0112392554935161	-0.000217273633617596	0.00312486093976588	-0.00022507656109095	0.00313130439828497	-0.00802915890413072	-0.0124717571377954
7.9	-0.00645217870076612	0.0129697571302051	0.000222760858231175	0.00313248355555403	0.000230691033942044	0.00313398783457581	-0.00901927159607632	-0.0120128246020978
8	-0.00350414619761833	0.0140432516472443	0.000663507139922844	0.00306125359928695	0.000663582917232633	0.00306614742565542	-0.00979052142686233	-0.0113592391778581
8.1	-0.000313232210072663	0.0141944050824699	0.00107319747153902	0.00294474802118004	0.00109232160404528	0.00294585884151993	-0.0102047715042604	-0.0106795899665116
8.2	0.00253500565976873	0.0135924240366401	0.00147737761604829	0.00276539682928706	0.00148662615978928	0.00275822345110735	-0.0105273564183309	-0.0101794250049833
8.3	0.0049574942257539	0.0125782670005334	0.00185379737013981	0.00252810480809464	0.00185213220403458	0.00254164121629484	-0.0109959519532373	-0.00981038987655098
8.4	0.00710289561126496	0.0114290940066728	0.00219007039082653	0.00225214684451766	0.00218704214854472	0.00225191693326166	-0.0116791397438645	-0.00935785797319717
8.5	0.00919348295212752	0.0099415821028557	0.00247695709672961	0.00192305213538283	0.00247605426872539	0.00192623314283611	-0.0124045058545957	-0.00860677991053007
8.6	0.0110848238543485	0.00793340868592012	0.00272461204012823	0.00156384003631133	0.00273412396282166	0.00155731697883154	-0.0128379713735974	-0.00775787490813041
8.7	0.012462717612738	0.00531405604891734	0.00291216844578178	0.00116177202919681	0.00291772860326443	0.0011625056177311	-0.0130858312121141	-0.00712408677017583
8.8	0.0130457373607045	0.00241540218886654	0.00305061015796282	0.000750962372755356	0.00305639751237395	0.000742207583342304	-0.0135398908775963	-0.00678365336090664
8.9	0.0130108718826483	-0.000452538234517617	0.00312977914820499	0.00031647903633965	0.00312891105854063	0.000314228691422769	-0.0141064293167801	-0.00619810543724735
9	0.0125462930694845	-0.0032758777878223	0.00314098565307567	-0.000127776327542429	0.00314414005911395	-0.000123666614069141	-0.0144804696638282	-0.00526044438707028
9.1	0.0116808186161633	-0.00621340857719336	0.00309576993856987	-0.000570533014739461	0.00309864278814364	-0.000557618445185658	-0.0144302531734419	-0.0042996285516507
9.2	0.0100151613727116	-0.00913887991984559	0.0029867262649226	-0.000989586771987352	0.00299439528172106	-0.000992459768682086	-0.0142268459763063	-0.00360904470700147
9.3	0.0075469025843025	-0.0115912146627563	0.00281811764758161	-0.00139626084369269	0.00281738941763838	-0.00140125754145318	-0.0140717796555449	-0.00300820364039273
9.4	0.00457679613108713	-0.013291368753063	0.0025952954244087	-0.0017877088653217	0.00260181027835857	-0.00178009982951526	-0.0140070737297046	-0.00234978349579843
9.5	0.00135908436874995	-0.0142321231845537	0.00231960683340807	-0.00212282406501364	0.00232702632089044	-0.00212417013820799	-0.0138590342876379	-0.00158482975628041
9.6	-0.00204139389324315	-0.0146293849219151	0.00200201827600807	-0.00242702958318807	0.00200234810433479	-0.00242604672166713	-0.0136905204498308	-0.00091969732549569
9.7	-0.00571625163019194	-0.0143404153133444	0.00163439264054438	-0.00267788964525137	0.00163993274410566	-0.00268519875177536	-0.0135028814916931	-0.000371845711333348
9.8	-0.00956168520298298	-0.0131587376272044	0.00124922909251553	-0.00288697018279483	0.00125492654596248	-0.00287846613885581	-0.0135074281629387	8.6218319678773E-05
9.9	-0.0131736729290931	-0.0108316338836267	0.00084398757166622	-0.00302647297026401	0.000836653353592102	-0.00302525002430985	-0.0137966564899777	0.000737893979889427
10	-0.0161055802321505	-0.00764590450618064	0.000414002698648999	-0.00311621339197924	0.000406520093226208	-0.00312866527207572	-0.013971281408977	0.00171686611137003
10.1	-0.0181662333654111	-0.00396484809957507	-2.80172759118924E-05	-0.003148454581564	-3.82569871143329E-05	-0.00314306929047259	-0.0137307136649414	0.00269952655023744
10.2	-0.0195184210720699	-3.86162852773113E-05	-0.000474140347168537	-0.00311260294573549	-0.000477551665262926	-0.00310982645050166	-0.0132190204532539	0.00343843197456461
10.3	-0.0202064515974366	0.00424605194465272	-0.000906950157730292	-0.00300805640523825	-0.000898843238938068	-0.00301712496590146	-0.0127458310918111	0.0039086263513103
10.4	-0.0199294957913868	0.00884432219251562	-0.00130493149602483	-0.00285458040006577	-0.00130322602172137	-0.0028607791995233	-0.0122889215016555	0.00424443645849506
10.5	-0.0184970914986724	0.0134550376299724	-0.00169761538801182	-0.00265690890121709	-0.00169452623218531	-0.00264388885780961	-0.0118383115002903	0.00468219614992384
10.6	-0.0159867979693828	0.0175771575224611	-0.00205188607663164	-0.00238760386534004	-0.00204969125535112	-0.00239142932082882	-0.0112426218774406	0.00502890546317813
10.7	-0.0127809706500355	0.0211328873971376	-0.00236895601616274	-0.00208581724463904	-0.00236546157005045	-0.00208052285892047	-0.0106210031843778	0.00525759841550506
10.8	-0.00895748287333128	0.0241556396095671	-0.00264000762445075	-0.0017253142776586	-0.00263478928011363	-0.00173425303682595	-0.0102058456254886	0.00535906097999668
10.9	-0.00449711852879303	0.0266301030867814	-0.00284987316234113	-0.00135010054478727	-0.00285507288785604	-0.00134937152401586	-0.00999426061734438	0.00558604187340162
11	0.000773548505472986	0.0282176208536601	-0.00301038863056131	-0.000932014551550389	-0.00301524154129489	-0.000938772510771026	-0.0096265991709723	0.00608448256399792
11.1	0.00645318770670856	0.0285297490337772	-0.00311959746787323	-0.000505095633693588	-0.00310871236776379	-0.000502228410766485	-0.00888477249370029	0.00649912251667827
11.2	0.0120349638312037	0.0274634160685032	-0.00314905151617736	-6.52992297094706E-05	-0.00315622242791551	-7.0145247181288E-05	-0.00788410890426846	0.00657231167312522
11.3	0.0171789256090594	0.0252691789861565	-0.0031217341829648	0.000385402698837275	-0.00313330750485106	0.000375349681948568	-0.00686475519256748	0.00624693871274715
11.4	0.0217182664185627	0.0223437995260997	-0.00304704307572565	0.000814808846611274	-0.00304211254290447	0.00082238627695585	-0.00620881582423648	0.00575465261638443
11.5	0.025801129982645	0.0186213541371628	-0.00290241447963334	0.00123150867957614	-0.00290518737550508	0.00124180653746016	-0.00581291384057057	0.0052053433034127
11.6	0.0292268078276498	0.0139649246323802	-0.00270656789846525	0.001622456125684	-0.00270654551126322	0.00162540099450551	-0.00540078817431332	0.00455251268976592
11.7	0.0315956234593669	0.00864062711341276	-0.00244387706115759	0.00197725970369239	-0.00244443123006272	0.00198587707626426	-0.00507845973167892	0.00366528574745209
11.8	0.0328676378553706	0.00310870367243142	-0.00214739737724324	0.00230915351745564	-0.00215151522896923	0.00231085892792702	-0.00510315455106105	0.00278818828290128
11.9	0.0332748771242934	-0.00242360216080126	-0.00179718157728015	0.00258455898116506	-0.00181020976440275	0.00258888468774209	-0.005414233898563	0.00241461299432421
12	0.0328985896568049	-0.00797491322482119	-0.00142346517510866	0.00280734063800792	-0.00142286730067867	0.00280875303975322	-0.00568960938269683	0.00250065560631436
