# GHZ S RI R 50
0.2	0.00606983517140623	0.00206732611438543	0.00304835025960164	-0.000896999939367957	0.00305871615985144	-0.000890188662028829	-0.0138529579077808	0.00574120330334259
0.3	0.0064036056977255	-0.000434958755131713	0.00290458332778663	-0.00131976401525792	0.00289733107047724	-0.00130683003496361	-0.0130421978285565	0.00536830295407879
0.4	0.00592925647486421	-0.00234102801410307	0.00267384645392112	-0.0016910573218957	0.00267912048802283	-0.00169961387262277	-0.0127870288503006	0.00564011494578308
0.5	0.00499406205684844	-0.0037140430709421	0.0024162569114392	-0.00204769838709638	0.00242780900862973	-0.00205992856411087	-0.0125529632045493	0.0062927023715607
0.6	0.00390899866246516	-0.00460542159636004	0.00210510663241333	-0.00236275816485501	0.00210432872578572	-0.00236991189074676	-0.0121787579448894	0.00709273642890851
0.7	0.00272706862563955	-0.00515251139963731	0.00175914990716828	-0.00264178833383877	0.00175719260001822	-0.00264199002829912	-0.0117070309768315	0.00790948183312395
0.8	0.00157613474409786	-0.00549037991694089	0.00137437684945633	-0.00286102459386719	0.00136176797372125	-0.00286559699955097	-0.0111237394638535	0.00869297999595832
0.9	0.000279257929256804	-0.00558967666799501	0.000957167959394751	-0.00302675945659979	0.000958218620892234	-0.00303747501797098	-0.0105452991596873	0.00932639616442435
1	-0.0011007084307448	-0.00543539767914766	0.000531279857057849	-0.00313230557634353	0.000521398493412717	-0.00313305776374796	-0.0100447094884485	0.00992119128581648
1.1	-0.00256780753838267	-0.00497280065946461	7.36812057089678E-05	-0.00316276801785917	7.01784360855002E-05	-0.0031804634903859	-0.00970772937500396	0.0106835828809922
1.2	-0.00396078816211119	-0.00438516922809742	-0.000371004658779044	-0.00315304310443349	-0.000371819140390477	-0.0031509614150113	-0.00897139303796466	0.0116394055938506
1.3	-0.00534233319445835	-0.00384988814087043	-0.000800904285120733	-0.00306966519735392	-0.000804153721856084	-0.00307167513619271	-0.00748346077933867	0.0124499651875389
1.4	-0.00649476009751058	-0.00322951214995492	-0.00122479809703264	-0.00292017360888238	-0.00122358601369274	-0.00292572273132406	-0.00574970830583704	0.0124452585423881
1.5	-0.00698563990012547	-0.00211409797293003	-0.00162763391941355	-0.00272219258047087	-0.00162602854485692	-0.00273071651238005	-0.00432687032867098	0.0120725976855676
1.6	-0.00685156502737201	-0.000627049340078964	-0.00198919377034463	-0.00246711097045367	-0.00198941394484128	-0.00247235657169769	-0.00361089325929174	0.0119947556502725
1.7	-0.00620250607577585	0.000802477248223638	-0.00231757269873052	-0.00216747973857343	-0.00231852773752774	-0.00216120492924103	-0.00281512236019814	0.012122349884973
1.8	-0.00527621508753531	0.00214738286725868	-0.00258750681383377	-0.00181357853054321	-0.0025984995551634	-0.00181919943652492	-0.00204578014192512	0.0121384873405558
1.9	-0.00411034925127736	0.00316993460292324	-0.00281106679908653	-0.0014411929365861	-0.00282350426280324	-0.00143500777234196	-0.00142719067729362	0.0121490040366512
2	-0.00279203923536309	0.00391454782759375	-0.00298461977595768	-0.0010327751319889	-0.00299423638603156	-0.00102804548936587	-0.00089067336708546	0.0123256690686548
2.1	-0.00134165212697251	0.00427414116672918	-0.00309607987451527	-0.000604551845120033	-0.00309199967232561	-0.000606550848985824	-0.000140780391235006	0.0125186941196619
2.2	0.000113057546138643	0.00430261477068977	-0.00315196131661635	-0.000167198903530416	-0.00316326742144695	-0.000170018829050034	0.000890629794811676	0.012574978276861
2.3	0.00148811449503766	0.00387919526307968	-0.00314658713204195	0.000274896811728897	-0.00314629160780055	0.000268014985118301	0.00192182654820476	0.0122634712797431
2.4	0.00265887316884516	0.00319057900181866	-0.00307426768864188	0.000711981103365964	-0.00307681121165719	0.000707725750856125	0.00278693675157708	0.0118055707218912
2.5	0.00361022606148789	0.00223904757105599	-0.00293800933411461	0.00112350774288941	-0.00294889832475335	0.00112989223932877	0.00349818491177952	0.0112654630198162
2.6	0.00440351410889682	0.00111543737125769	-0.002765205962558	0.00152659673774755	-0.0027616484254178	0.00151426679052544	0.00415599383774755	0.0107646087761218
2.7	0.00506553828661275	-0.000180681259557042	-0.00252025677042995	0.00189889222378354	-0.0025255422830773	0.00189890363360438	0.00473020162209224	0.0102572710359313
2.8	0.00559878838786258	-0.00168223904609434	-0.00223769266312402	0.00222805278699634	-0.00222986469719504	0.00223785589199517	0.00523609665757657	0.00985216772908627
2.9	0.00594744986818963	-0.00340591524629704	-0.00190269201531841	0.00253028746652186	-0.00189897576976253	0.00252985765580293	0.00590517369269531	0.00959269245448624
3	0.00591897208813799	-0.00532802106284021	-0.00151455228540214	0.00276758957234965	-0.00152936169330601	0.0027737186385519	0.00674781633845009	0.00936353649818292
3.1	0.00549373372029537	-0.00731565739027648	-0.00112146398488832	0.00294593764776614	-0.00111678131066323	0.00295429435699358	0.00763626167316809	0.00899759289613075
3.2	0.00447179281619895	-0.00926988992519484	-0.000697369123923706	0.0030832066949047	-0.000699119664777404	0.00308259850299468	0.00838455187740261	0.00857895739235041
3.3	0.00294939991972882	-0.0110997623839998	-0.000255174501215757	0.00315165020459197	-0.000253533096355299	0.00314789560062496	0.0092179452879089	0.00794948985518589
3.4	0.000898269040251276	-0.0125157454265079	0.000194926155385275	0.00314268267319873	0.000188770189530642	0.00315930621667646	0.00994161569446836	0.00703127453807157
3.5	-0.00146542540412276	-0.0135292778085421	0.00061895157604541	0.0030958047538439	0.000624556591852457	0.00309585590689231	0.0103135817456098	0.00590487017365436
3.6	-0.00408014837468408	-0.0139833170321702	0.00104815169461766	0.00297170783081753	0.00105634924699534	0.00297135051134354	0.0104991383133572	0.00503005802715891
3.7	-0.00676828468409716	-0.0138710331837295	0.00145767245975731	0.00278569851597435	0.00144815520680503	0.00279942377540073	0.0107937337568757	0.00419857005481504
3.8	-0.0094324733094791	-0.0131571912095746	0.00183307242571233	0.00255414345132126	0.00183552143189014	0.00256327358574774	0.0110186162573018	0.00325705039619567
3.9	-0.0118037007390856	-0.0118917926968747	0.00217481822977093	0.00227781391318139	0.00216755617268558	0.00227607312788859	0.0110369280709444	0.00229012781433591
4	-0.0138349711768916	-0.0102224580372275	0.00245470026952389	0.00195516216008791	0.00245912746669992	0.00195271378551509	0.0109641223467062	0.00154174880518867
4.1	-0.0154963930004775	-0.0082631415204262	0.00270177328032445	0.00159548593315633	0.00270052730767136	0.00159622433615142	0.0110671814606851	0.000966430473788792
4.2	-0.0168500833318089	-0.00602881603649117	0.00289673741644501	0.00119617171239288	0.00290116089191416	0.00118747163089733	0.0113062899890919	0.000316601851490994
4.3	-0.0178317125046805	-0.00361417977449816	0.00303671555027443	0.000787135526640379	0.00304309693208158	0.000779345558022283	0.0115262340890858	-0.000600331050289147
4.4	-0.018479959441192	-0.000965311111433025	0.00311150904251437	0.000356675349344353	0.00311387152885219	0.000354423022448466	0.0114584981752644	-0.00157543189849247
4.5	-0.0186493299700578	0.00184566039816258	0.00313423194107488	-7.78174927690292E-05	0.00313957187760222	-8.11847354576746E-05	0.0112688914252998	-0.00243141782499031
4.6	-0.0183629804971933	0.00464381287489124	0.00309139867599216	-0.000517838692753328	0.00309262936355079	-0.000504962227527033	0.0110170776696646	-0.00324288589586434
4.7	-0.0175098907951582	0.00741118601230646	0.00298811698990045	-0.000935033163947271	0.00300336684690392	-0.000944630189716855	0.0107146177932302	-0.00403315090271646
4.8	-0.016194133124499	0.0100220925209047	0.00282904604985396	-0.00134873333202464	0.00283750971449113	-0.00135481269671967	0.0103860813671369	-0.00478195160504605
4.9	-0.0141970028039403	0.0123562639330984	0.00260973980595646	-0.00173355662591442	0.00261390198301044	-0.0017306561414249	0.0100263602832655	-0.00543134267585199
5	-0.0117013528323631	0.0141430700163264	0.00235043555141053	-0.00208997458631798	0.00235405638404921	-0.00208731467333315	0.00988560719893149	-0.00593406153373109
5.1	-0.00873264935998316	0.015339605264381	0.00203888326744269	-0.00240182940746497	0.00204118437570749	-0.002400475111398	0.00993682839394699	-0.0065447292669322
5.2	-0.00571287197266039	0.0158391056528103	0.00167952647606556	-0.00265230352414052	0.00168122938334968	-0.00265744686489832	0.0100014308705114	-0.00730626182973228
5.3	-0.00271350655090955	0.0157830402353064	0.00129043637370299	-0.00286713549813919	0.0012935717416298	-0.00286508217297205	0.00994005934088141	-0.00815143821229244
5.4	0.00015974984106444	0.0152251243306429	0.00086331479398238	-0.00301257959822862	0.000880424622139596	-0.00302382796459716	0.00969733257992651	-0.00917207950775135
5.5	0.00278924505500061	0.0141972562967303	0.000448142607197585	-0.00310710998130331	0.000458143089242944	-0.00311655659335086	0.00910121545353613	-0.0101789974289574
5.6	0.00508223302404536	0.0126990490968621	9.44113966472286E-06	-0.00313889051555333	9.25975614591607E-07	-0.0031420675874053	0.00822331467177701	-0.0108722333495631
5.7	0.00686921764319829	0.0108659738032461	-0.000420038152468703	-0.00310377896205768	-0.000436604916270723	-0.003107361167337	0.00734431700358325	-0.0112730458891599
5.8	0.00817130434662269	0.00883614431698852	-0.000862379293782164	-0.00300466175591762	-0.000865950215919519	-0.00301857358694734	0.006537625801146	-0.0117920608778979
5.9	0.00899939022054161	0.0067816659734146	-0.00126221292246119	-0.00286181129057809	-0.00127039792540606	-0.00286170388309063	0.005481515548525	-0.0123275729149449
6	0.00942222299839901	0.00462679363320677	-0.00165422316086008	-0.0026545810566356	-0.00165068468350333	-0.00265475531772307	0.004124016659939	-0.0125727821156846
6.1	0.00944914274000665	0.00238421327144948	-0.0020029397781025	-0.00240134860912491	-0.00200456198395779	-0.00239736916821406	0.00297465460424268	-0.0123677666896804
6.2	0.00899053795431771	5.47174786075796E-05	-0.0023100494299288	-0.00209171852467021	-0.00231373734389981	-0.00210350324669382	0.00224531936311596	-0.0121626731519654
6.3	0.00811170198166196	-0.0022100163889704	-0.00258359647165971	-0.00176245005602113	-0.00259266360241053	-0.00175675823158965	0.00174597822126591	-0.0122850614282552
6.4	0.00675852319914356	-0.0043128573725081	-0.00280778632421678	-0.0013782213699069	-0.00279811951760144	-0.0013830735798006	0.00117834788937118	-0.0125620937976553
6.5	0.00508232394597123	-0.00615124063010679	-0.00296470128167298	-0.00097969726613596	-0.00297252541979053	-0.000975265180067775	0.000623218495819226	-0.0128228183267926
6.6	0.00303427504088438	-0.00755213614712066	-0.00307535652091237	-0.000560434604664944	-0.0030769669966158	-0.000564395402470724	0.000173431341954528	-0.0130707922615606
6.7	0.000699999396591004	-0.00833812920149083	-0.00313010575461389	-0.000126867294199105	-0.00313894500801241	-0.000120652294038264	-0.000475077622795274	-0.0133614430101006
6.8	-0.00174160833285319	-0.00840533956086087	-0.00311363904923601	0.0003123948736859	-0.00312471458070233	0.000317378343577789	-0.0013575962107552	-0.0135291274350783
6.9	-0.00406936031459457	-0.0078098100151859	-0.00304324942865413	0.000745540775081058	-0.00304623868916043	0.000747912929080115	-0.00237175654315734	-0.0134629019520417
7	-0.00607607745858707	-0.00671904415534058	-0.00291071760355839	0.00116775146845488	-0.00292351663366449	0.00116551059285079	-0.00335072271327228	-0.0132094810856243
7.1	-0.00787001434653415	-0.00528654106404677	-0.00273568099245077	0.00155901210505318	-0.00273204890154094	0.00156768025142149	-0.0042615387604887	-0.0126474124736036
7.2	-0.00943357196652064	-0.00349176194040958	-0.00248044015654578	0.00192978424397023	-0.00248697048401224	0.00193184517389065	-0.00478878877988403	-0.0119491251582312
7.3	-0.0107724609420073	-0.00133138524705828	-0.00218482546981202	0.00225116382496242	-0.00219604132687631	0.00225619327518912	-0.00496213738507208	-0.0115446731190067
7.4	-0.0116981655966931	0.0012420498594973	-0.00184224185689947	0.0025356555554035	-0.00184913689821905	0.00254924504593886	-0.00533960698976338	-0.0115363292982143
7.5	-0.0120130493014154	0.00398403300517741	-0.00147539329311448	0.00277495764428361	-0.00146841447485159	0.00278235011117763	-0.00582626989029497	-0.0117109073300441
7.6	-0.0116254171370433	0.00656226223111437	-0.00106837846077437	0.00295232442604057	-0.00106974873740719	0.00294763499816883	-0.00634532307167121	-0.0120403989743492
7.7	-0.0105982465257634	0.0089378002660305	-0.000640330005512674	0.00307167755028178	-0.00064166646683546	0.00307061794011238	-0.00711267822341142	-0.0124522270657332
7.8	-0.00890745462779346	0.0108934468331552	-0.000216311843835264	0.00311869665993375	-0.000224098192546917	0.0031251286566201	-0.00813476282814407	-0.0127393083766466
7.9	-0.00652854227488799	0.0122659287504168	0.000221617347130264	0.00312427530937218	0.000229526375150526	0.00312577703766215	-0.0092777020659806	-0.0125202437813017
8	-0.00397608485070487	0.0130710919118052	0.000659082785835121	0.00305206136672005	0.000659154609714915	0.00305693975070456	-0.0104807128055821	-0.0121316769143776
8.1	-0.00117305876982427	0.0131979441513535	0.00106494691650904	0.0029360210391495	0.00108400209197296	0.00293715701820346	-0.0112688999760576	-0.0112478476765119
8.2	0.00139075299124501	0.0128461785333913	0.00146536708185087	0.00275890914749248	0.0014745992946149	0.00275178404141681	-0.0117477689390096	-0.0104059045253114
8.3	0.00379546919871024	0.0121006293474057	0.0018389365955572	0.00252548684684092	0.00183723215662359	0.00253897065147877	-0.0121006593856089	-0.00979528600090798
8.4	0.00604649146957741	0.0110370748471759	0.00217389954070072	0.00225449927561327	0.00217088150861596	0.00225425730961352	-0.0126350480550299	-0.00934459435173809
8.5	0.00813601518785705	0.00948880736288026	0.00246150995973118	0.00193079561514525	0.00246059346340672	0.00193396457410595	-0.0134008897713391	-0.00869832591226317
8.6	0.00985938394073292	0.00749310195826566	0.00271187546495355	0.00157656551318329	0.00272140920335692	0.00157010485316789	-0.0140317407911419	-0.0078013699980329
8.7	0.0110815352181294	0.00510409534522652	0.00290395006684139	0.00117820097165571	0.0029095032002344	0.00117896665963414	-0.0143916764182345	-0.00689335953805686
8.8	0.0117466747551839	0.00252933754408369	0.00304791449358418	0.00076928890656567	0.00305375648075812	0.000760563171984913	-0.0146726062805264	-0.0062573908611759
8.9	0.0120074811300723	-0.000183753250238853	0.00313294497081919	0.000334580060761503	0.00313208816467536	0.000332321278025964	-0.0149109953419416	-0.00562043015591618
9	0.0118000098492737	-0.00310143584377729	0.00314944385974459	-0.000111995016406921	0.00315258503856841	-0.00010785892543447	-0.0150846306133053	-0.0048629194055326
9.1	0.0110374449465617	-0.00619370448651539	0.0031082237461371	-0.000558674403322638	0.00311104870610242	-0.000545705701517278	-0.0150071849006987	-0.00406652773004897
9.2	0.00940497125540901	-0.00918797660732314	0.00300130666152985	-0.000982566679730878	0.00300901430355407	-0.000985422878483428	-0.0148035638039804	-0.00343208801654888
9.3	0.00704448070151651	-0.0117227231832524	0.00283289060963066	-0.00139423858024199	0.00283217282125568	-0.00139925682054283	-0.0145730799027796	-0.0029280914633043
9.4	0.00412797835422188	-0.0136211508505039	0.00260850909599431	-0.00179005480504157	0.00261503576326496	-0.00178240478012435	-0.0145114448202276	-0.00245344462994485
9.5	0.00079609468628156	-0.0148395986353558	0.00232992860883578	-0.00212818406848933	0.00233737589266005	-0.00212952783756996	-0.0145804429657142	-0.00189725368745311
9.6	-0.00287809871201524	-0.0152982866444895	0.00200894188311989	-0.00243379730362046	0.0020092723976331	-0.00243281132617342	-0.0146933527992018	-0.00116867703857076
9.7	-0.00675132342765127	-0.0148408025525334	0.00163812775548256	-0.00268443081285572	0.00164368064401236	-0.00269175784836928	-0.0146140382524235	-0.000364690086735926
9.8	-0.0105706112604863	-0.0134323060698854	0.00125073835988991	-0.00289206048978848	0.00125644708108394	-0.00288354334853459	-0.0144799468177065	0.000299806042310072
9.9	-0.0139782295278499	-0.0110420248361975	0.00084461480707822	-0.00302947850850108	0.000837273517090026	-0.00302825389605175	-0.0145434609378842	0.00093381632437703
10	-0.0168073818655966	-0.00795427078538128	0.000415202425357528	-0.00311728411785172	0.000407721069753801	-0.00312974332334986	-0.0146689345736918	0.00177218271593979
10.1	-0.0189099656595053	-0.0043535961613618	-2.50673015963165E-05	-0.00314846519731661	-3.53120074612786E-05	-0.00314308952683617	-0.0145082444351682	0.00271568270309606
10.2	-0.0203012222009817	-0.00037430518832106	-0.000468871230898015	-0.00311294869762627	-0.000472286699077507	-0.0031101783010764	-0.0139924606974644	0.00354998760997753
10.3	-0.0208813620392518	0.0039732306222526	-0.000899597142001773	-0.00301028474539717	-0.000891468018222656	-0.00301933351221697	-0.0133501164970888	0.00403808974498627
10.4	-0.0204428113833708	0.00846252055264181	-0.00129646679828185	-0.00285995943257985	-0.00129474095739441	-0.00286615554514754	-0.0127592770175273	0.00417373519393687
10.5	-0.0190129166133292	0.0128311409480855	-0.00168960113730637	-0.00266625858859684	-0.0016865571663069	-0.00265321227981324	-0.0124154740491938	0.00434741486115563
10.6	-0.0167036639032518	0.0168000225810322	-0.0020462769118548	-0.00240082319374583	-0.00204406201080979	-0.00240464741655197	-0.0120882792042407	0.00461332325830412
10.7	-0.0137075900197942	0.020401576799078	-0.00236747456203277	-0.00210201294472675	-0.00236399152924844	-0.00209668793025568	-0.0116532760970949	0.00495157271169575
10.8	-0.00994723793643416	0.0235351866645595	-0.00264401491241579	-0.00174274200900473	-0.0026387401072804	-0.00175169678640112	-0.0112705444112568	0.00515163002388917
10.9	-0.00548246963139098	0.0260396538130584	-0.00285975748803775	-0.00136663875513133	-0.00286498609392035	-0.00136592369857717	-0.0111148837746183	0.00534853455443466
11	-0.000301383674238586	0.0275730579665109	-0.00302578144758401	-0.000945304197787156	-0.00303064559270755	-0.00095211465742621	-0.010938493796526	0.00584368696236604
11.1	0.0051685742278475	0.0279457030376567	-0.00313914624065505	-0.000513223808107018	-0.00312819464242213	-0.000510321023305447	-0.0104432351644211	0.00646186168316797
11.2	0.0106079691150568	0.027140936608234	-0.00317055222553793	-6.69277582792218E-05	-0.00317777033453033	-7.18095925507819E-05	-0.00950221497745285	0.00693239102450307
11.3	0.0158439084994971	0.0252470936855017	-0.00314275542863258	0.00039068998714894	-0.00315441643615891	0.000380578051168497	-0.00820879686516286	0.00694113556211994
11.4	0.0206368588318137	0.0224793208559402	-0.00306526923559838	0.000826327300575746	-0.00306029110591836	0.000833944145419516	-0.00722311408739612	0.00654959016390867
11.5	0.0249331385545268	0.0187390503504628	-0.00291578492013953	0.0012477700456264	-0.00291854239131512	0.00125813742273761	-0.00661219141533443	0.00596284644210568
11.6	0.0284586810966371	0.0140409158444224	-0.00271390624771495	0.00164132210477201	-0.00271387216736489	0.00164428181147439	-0.00605509452756374	0.00528266403280751
11.7	0.0309509222562302	0.00875225353632527	-0.00244488672991383	0.00199625633943152	-0.00244540440056409	0.00200491110936678	-0.00550710320471488	0.00440210725110555
11.8	0.0324721042910427	0.00320223118802077	-0.00214278647580812	0.00232617733064326	-0.00214690841061109	0.00232790733349011	-0.00521710249877251	0.00338198535959128
11.9	0.0330769643741204	-0.00247904618239895	-0.00178851899861032	0.00259785257499104	-0.00180155168675217	0.00260224732662629	-0.00544208701784415	0.00270324369833866
12	0.0327603210532847	-0.00843392415469185	-0.00141271038934736	0.00281607379622963	-0.00141210588281702	0.00281748493847361	-0.00576000207406681	0.00232000088254173
