# GHZ S RI R 50
0.2	0.00668042721382325	0.00297549496011334	0.0030483135645522	-0.000895824881899817	0.00305867587373632	-0.000889010747473433	-0.0132918667838169	0.00658897301954966
0.3	0.00681624288180254	-0.000232979947671759	0.00290512964736391	-0.00131768588992558	0.00289786962712911	-0.00130475819288845	-0.0126823987790772	0.00553156418518337
0.4	0.00588770419523827	-0.00228355030947002	0.0026756089235349	-0.00168834107509042	0.00268089177717612	-0.00169689233035286	-0.0128310942531294	0.00566951746563602
0.5	0.00467129273917574	-0.0033695151560277	0.00241974433749621	-0.00204495890143052	0.0024313164553059	-0.00205717666620953	-0.0128037897932465	0.00655822000846089
0.6	0.00367833367526405	-0.00386466998081073	0.0021104520566517	-0.00236090776816999	0.00210968542057533	-0.00236806769305995	-0.0123063287710555	0.00763729675794373
0.7	0.0028704732883341	-0.00422994080192165	0.00176604581541907	-0.00264178842978527	0.00176408651592756	-0.00264199390676629	-0.011522989945486	0.0085127608857588
0.8	0.00209131732107669	-0.00472818057314227	0.00138200990131554	-0.00286366153314084	0.00136938672008465	-0.00286826492081511	-0.0107031848885342	0.00909589939995401
0.9	0.000893789628896542	-0.00519551616489799	0.000964374546350777	-0.00303243638513997	0.000965445134413514	-0.00304317584430407	-0.0101356829000319	0.00944864959878344
1	-0.000725696881234523	-0.00532275800031365	0.000536786864903044	-0.00314084318281326	0.000526877404358038	-0.00314161002756506	-0.00984796263791661	0.00991882689216981
1.1	-0.00257908594522746	-0.00481640083850102	7.6247693415143E-05	-0.00317340912191937	7.2746044271497E-05	-0.00319116699918622	-0.00970693837070537	0.0108063507087052
1.2	-0.00419368709099621	-0.00389887971268842	-0.000372095253406945	-0.00316464455846455	-0.000372912902383136	-0.00316255530054712	-0.00895850615925143	0.0119969613210693
1.3	-0.00550513799491237	-0.00304330142701033	-0.000805868091280203	-0.00308073859169295	-0.0008091310582419	-0.00308275405676421	-0.00729115844732179	0.0129150042890893
1.4	-0.00649643686669014	-0.00229093524542939	-0.001233283593572	-0.00292922707388955	-0.0012320746344433	-0.00293479823283919	-0.00540552321194063	0.0128988599338596
1.5	-0.00678352072217727	-0.00108251326300807	-0.00163868519358117	-0.00272804608455377	-0.00163709182393116	-0.00273660204060236	-0.00380722584740871	0.0124793553876214
1.6	-0.00635461947709625	0.000392261632864316	-0.00200138622236805	-0.00246905823290029	-0.00200162072124579	-0.00247431843584798	-0.00296392414896335	0.0122425148740974
1.7	-0.00546373201856803	0.00159789877203116	-0.00232937889927588	-0.00216543818013232	-0.00233031721821034	-0.00215914620130983	-0.00215618784547715	0.0121298904016819
1.8	-0.00451804526811979	0.00264051781877282	-0.00259742159737166	-0.00180813814459284	-0.00260844976943648	-0.00181373264243714	-0.00152747120121141	0.0119804742139417
1.9	-0.00354115875841024	0.00349735504198859	-0.00281810923777873	-0.00143348884069046	-0.00283053782296317	-0.00142725864641418	-0.00107180876560563	0.0120006441773446
2	-0.002407982727217	0.00429935026186198	-0.00298832539720237	-0.00102422088632458	-0.00299793023185372	-0.00101946188396433	-0.000574690918898702	0.0122773691476424
2.1	-0.000961513859422135	0.00481581864958628	-0.00309670267938539	-0.000596609204644778	-0.00309262867089469	-0.000598617868562278	0.000259799547372209	0.0125053040571457
2.2	0.000657179776660631	0.00488290763504898	-0.00315037378629637	-0.000160991685779908	-0.00316167849749019	-0.000163787999625536	0.00136139195474952	0.0124585433123914
2.3	0.00215894398770106	0.0042804818975574	-0.00314405822947842	0.000278807337493372	-0.00314377187649687	0.000271929873273927	0.00231395687382646	0.0120008982345212
2.4	0.00321898408755517	0.00334500857469048	-0.00307215050632059	0.000713734974972516	-0.00307469563404779	0.0007094836324705	0.00298208134170661	0.0115298858977915
2.5	0.00387455212671223	0.00230896207267773	-0.00293738285968761	0.00112390325563573	-0.00294826910971232	0.00113028890458314	0.00355728028265015	0.0111527842628923
2.6	0.00442054868980389	0.00134379656733215	-0.00276657983022101	0.00152686035431352	-0.00276301910381698	0.00151452570261034	0.00426034469864763	0.0108454284249915
2.7	0.00502997414222043	0.000264411102864531	-0.00252345256171856	0.00190037127694879	-0.00252874384313029	0.00190038145665144	0.00497212228578957	0.0104106948728387
2.8	0.00559085654890633	-0.00111965413051118	-0.00224187654401833	0.00223186982819728	-0.00223403531941357	0.00224169111104955	0.00557210406237403	0.00999905124583067
2.9	0.00591455848279593	-0.0027505376523778	-0.00190648018450149	0.00253709185082859	-0.00190275502673723	0.00253665974627814	0.00631889570717056	0.00976128586089452
3	0.00589232082527849	-0.00447906153352101	-0.00151631224978541	0.00277720699140988	-0.00153115925640231	0.00278336851436431	0.00732444788752002	0.00953502869952096
3.1	0.00562328884159908	-0.00625788289451701	-0.00111982046538556	0.00295750505308395	-0.00111510761800349	0.00296588047664622	0.0083894319365351	0.00903830183081366
3.2	0.00486977861121149	-0.00815861728422733	-0.000691290287115093	0.00309526244200921	-0.000693048249500065	0.0030946570019712	0.00920671565831243	0.00839981379397833
3.3	0.00353276866679636	-0.0101172053360447	-0.000244388471051047	0.00316224984616933	-0.000242755815213213	0.00315847770562048	0.00995475676285429	0.00758055976952345
3.4	0.00148994494584044	-0.0116784405232319	0.000209781750311071	0.00314981723911381	0.000203686011897056	0.00316651135675564	0.0105554253663869	0.00660457076889575
3.5	-0.000939752574229343	-0.0127042600073111	0.000636538702307879	0.00309802162441037	0.000642153971436694	0.00309804302221848	0.0108988493392911	0.00547836801830394
3.6	-0.00350916481063736	-0.0130722474092122	0.00106641773955696	0.00296792482448285	0.00107461972083655	0.00296751913452059	0.0111023352729176	0.00454348040952727
3.7	-0.00602817219200785	-0.0129725122903537	0.00147426487945769	0.00277584441592619	0.00146483489258698	0.0027896234749787	0.0113401783802844	0.00356222736241169
3.8	-0.00858521654537135	-0.0124505376203881	0.00184581729721308	0.00253913650055318	0.00184831807594142	0.00254823792675937	0.0113656108729455	0.00254193405857091
3.9	-0.011063190588629	-0.0113929817575835	0.00218202389191728	0.00225937554346607	0.00217477119323862	0.00225768075754469	0.0111848491057981	0.00168606827620949
4	-0.0133065386195849	-0.00974095448708755	0.00245553286600039	0.0019357197571267	0.00245993162369643	0.00193325813854924	0.011084267460914	0.00113728435546154
4.1	-0.0150555008608356	-0.00764420576489234	0.00269636487513014	0.00157743234942585	0.0026951274082812	0.00157817257707631	0.0112950955361746	0.000654686816990209
4.2	-0.0163339439060885	-0.00534045301297042	0.00288622862512635	0.00118171232871835	0.0028906046348589	0.00117304132952277	0.0115922904103582	-3.45615595441051E-05
4.3	-0.0172703364837216	-0.00303318101211251	0.00302307965935374	0.000777666421067457	0.00302941509218612	0.000769903443865624	0.0117483826598634	-0.000972794623965839
4.4	-0.0180601397704965	-0.000496189898098884	0.00309708175796966	0.000352694838073336	0.00309943142778655	0.000350451401522733	0.0116304545199418	-0.0018252109975902
4.5	-0.0184597740257821	0.0023853239663623	0.00312117472877582	-7.6915226823232E-05	0.00312649301535195	-8.02674418775244E-05	0.0115472354831805	-0.00252155842201396
4.6	-0.0182736830673278	0.00542415291962321	0.00308135645326986	-0.000513465445642041	0.00308257206534883	-0.000500631593136043	0.0115213983482784	-0.00330372629141939
4.7	-0.0173309572608501	0.00839789046783253	0.00298183505517169	-0.00092913518126022	0.00299705863565802	-0.000938690153166239	0.0113707247490469	-0.00423761684228838
4.8	-0.0158745169702396	0.0110514166020304	0.00282632823951022	-0.0013432162792547	0.00283478625880447	-0.00134927598962438	0.0110503116475918	-0.00513060451024341
4.9	-0.0138637511350279	0.0133710583816994	0.00260953951434422	-0.00172998205015	0.00261369618829358	-0.00172707974281748	0.0106596658294136	-0.00581635742685551
5	-0.0113891567579667	0.0152573186335877	0.00235113304840305	-0.0020891737047069	0.0023547529703371	-0.00208651257841287	0.0105904285724115	-0.00635115758270448
5.1	-0.00828255053958995	0.0165973328129817	0.00203868000023214	-0.00240375657201288	0.00204098268821707	-0.0024024027250461	0.0107082878265975	-0.00713624765015738
5.2	-0.00500801552900181	0.0170553037544597	0.00167688653231909	-0.00265602107844061	0.00167858346461137	-0.00266116953967989	0.0106508223647136	-0.00811287237438858
5.3	-0.0018963006358202	0.0167559567253771	0.00128439742412874	-0.00287106817419963	0.00128753854702447	-0.00286902122670945	0.010338977932416	-0.00898167798972777
5.4	0.000836783152187251	0.0160028072958234	0.000853807999551913	-0.00301476026071869	0.000870880015270854	-0.00302605992677287	0.00996839785494131	-0.00982195802278705
5.5	0.00326617279827818	0.0150214283565515	0.000435965938480861	-0.00310577224493987	0.00044592097331313	-0.00311524742645895	0.0094734546625134	-0.0106755604898891
5.6	0.00555005743984181	0.0137178840325645	-3.7260204846865E-06	-0.00313259916976236	-1.22373181629592E-05	-0.0031357341655134	0.00875953566091838	-0.0114317342469345
5.7	0.0075568706780655	0.0119541960365605	-0.000431932663280899	-0.00309202696674398	-0.000448461548690578	-0.00309552699405467	0.00788389468270183	-0.0120472628746915
5.8	0.00905248679550842	0.00972158099505716	-0.000870478395811614	-0.00298790516325151	-0.000874088689953507	-0.00300174108461875	0.00682955765798244	-0.0126781795347629
5.9	0.00980405767069642	0.0073326176948634	-0.00126458336870393	-0.00284168448785441	-0.00127272233150884	-0.00284155074982774	0.00550969329625724	-0.0130480031358124
6	0.00989295966261985	0.00501320443656356	-0.00164946049580745	-0.00263352468885752	-0.00164594547992235	-0.00263370583940595	0.00413048312695327	-0.0129645529649772
6.1	0.00960234385099562	0.00289892300397287	-0.00199098500574289	-0.00238222527091013	-0.001992591715677	-0.00237827267161616	0.00320503462735014	-0.0125513892047901
6.2	0.00904538506164705	0.000791879782262415	-0.00229201760826602	-0.00207733484072746	-0.00229567283000261	-0.0020890342126414	0.00269614014195219	-0.0123515245628973
6.3	0.0081701789832646	-0.00136469498294987	-0.00256156408047326	-0.00175475071697144	-0.00257057688581869	-0.00174911746955323	0.00229702246775936	-0.0124903952777696
6.4	0.00667824002434256	-0.00334110879096991	-0.00278466753018918	-0.00137836768171434	-0.00277504865797211	-0.00138315590675486	0.00188325732269286	-0.0127023564409057
6.5	0.00494071375251129	-0.00483353607489581	-0.00294355932060976	-0.000987260770504875	-0.0029513587128491	-0.000982888428895821	0.0016281457978911	-0.0130660478811759
6.6	0.00316773760253263	-0.00589518777625943	-0.00305869290175133	-0.000573975514906252	-0.00306027551808122	-0.000577927019348188	0.00133152664028974	-0.0137009738798902
6.7	0.00127055433075195	-0.00668618812654458	-0.00311959823615325	-0.000144062850445012	-0.00312844476147052	-0.000137916978199724	0.000487643939629477	-0.0143656078352392
6.8	-0.000957084386270264	-0.00705643914703579	-0.00310985050407415	0.000294345399286046	-0.00312093431466723	0.000299257770985244	-0.00072927919610328	-0.0145965893288865
6.9	-0.00341249754561359	-0.00668108061393375	-0.00304549651449225	0.000729202263515789	-0.00304849656754187	0.000731557476394653	-0.00189531204058459	-0.0143374097670258
7	-0.00563125063023672	-0.00553733373469068	-0.0029173812836051	0.00115512610748419	-0.00293017622305977	0.00115282622647139	-0.00273213058173786	-0.0139848356926577
7.1	-0.007403099187151	-0.00384055312957554	-0.00274451399125711	0.0015510677014258	-0.0027409086262647	0.00155975915258489	-0.00347486761214081	-0.013617504191681
7.2	-0.00862652586110456	-0.00190817451226483	-0.00248910137438153	0.00192657387776939	-0.00249564695969019	0.00192862168143029	-0.0041192121118834	-0.0132862855026477
7.3	-0.00956240410837732	1.44940693299058E-07	-0.00219129868008282	0.00225156867947387	-0.00220253868947516	0.00225659022364889	-0.0047455819257263	-0.0130777832436807
7.4	-0.0103590252506697	0.00207853467782114	-0.00184529636112153	0.00253786164638043	-0.00185220437071707	0.00255146407613834	-0.00568826417045829	-0.0127872316894052
7.5	-0.0109718349335283	0.00436214553738698	-0.00147478393380786	0.00277678615541668	-0.00146779888096984	0.00278417864614835	-0.00637860115570027	-0.0124398676549283
7.6	-0.0110823395306886	0.00677694924555624	-0.00106492322700078	0.00295170352219047	-0.00106629727285713	0.0029470180482425	-0.00671365035328058	-0.0125006153027036
7.7	-0.0102815591497374	0.00920545837057414	-0.000635820370066755	0.00306717390717129	-0.000637155741994698	0.00306611758559101	-0.00725790148262766	-0.0125716454080305
7.8	-0.00887367729505082	0.0112099868569357	-0.000213054118570487	0.00310991767688031	-0.000220812655823263	0.00311633777226368	-0.00803867642870693	-0.0126672568428582
7.9	-0.0066975014955225	0.0126769690290219	0.000221246084282743	0.0031118979829848	0.000229124112267558	0.00311339250281982	-0.0087680302419318	-0.0121149409126116
8	-0.00460421878355127	0.0141277453498472	0.000653135222823047	0.00303806052468272	0.000653202237375712	0.00304291563126831	-0.00945347890542453	-0.0122148125360146
8.1	-0.00152117043039505	0.0147563857139148	0.00105266200485563	0.00292299191865227	0.00107161430927315	0.00292416527418824	-0.00985336233829444	-0.0116945903252933
8.2	0.00145999886680745	0.0146498347546319	0.00144714362972476	0.00274988141822742	0.00145635406632482	0.00274282904243719	-0.0104338312835193	-0.0113875116510077
8.3	0.00416021428459118	0.0137947272030083	0.00181662980450253	0.00252307018384969	0.00181486190366322	0.00253647982108799	-0.0111062931755807	-0.010987142613474
8.4	0.00639255580591801	0.0125888208443857	0.00215035458976183	0.00226020270452906	0.00214734996561454	0.0022599415360626	-0.0118001567248587	-0.0104602261981486
8.5	0.00834828635303055	0.0111621775588629	0.00244016344633262	0.00194480941062585	0.002439224822098	0.00194796302723978	-0.0124439749250423	-0.00979527164312775
8.6	0.0101743041222956	0.00949495832515057	0.00269583443316125	0.00159770812901783	0.00270541257004007	0.00159133420112699	-0.0129360527740559	-0.00918209893394802
8.7	0.0118018480772088	0.00727692070492407	0.00289576518322753	0.00120396477007093	0.00290131545596056	0.00120477872788024	-0.0134952082454024	-0.0086932090029387
8.8	0.0129273300078092	0.00448918934607624	0.00304870292536935	0.000796491870854556	0.00305463138366592	0.000787794194297163	-0.0142770742381817	-0.00825425076422307
8.9	0.0133286593030526	0.00132053013747054	0.0031426061569467	0.000359746997590086	0.00314176321639295	0.000357472885875949	-0.0149759499278385	-0.00740469259079435
9	0.0129361866170069	-0.00191618772033315	0.0031664210500684	-9.19883874573558E-05	0.00316955139858314	-8.78104317433466E-05	-0.0152725853468821	-0.00629027712468503
9.1	0.0120299701143745	-0.00511663868132379	0.00312994706658437	-0.000545931299348435	0.00313272184904998	-0.000532869396692724	-0.0151379740150783	-0.00530133797959221
9.2	0.0103092675180308	-0.00819250638856848	0.00302455007176259	-0.000977907788999447	0.00303231863405321	-0.000980754198879286	-0.0149417793313779	-0.00456873718087535
9.3	0.00776815604949025	-0.0108960631057149	0.00285454409244892	-0.00139725069154938	0.00285383248672322	-0.00140230348325613	-0.0147252073329537	-0.00382193378126392
9.4	0.00447262205305855	-0.0127759208471164	0.00262600025812543	-0.0017991494139665	0.00263256149550995	-0.00179144712449696	-0.0144167423839617	-0.00300749719385878
9.5	0.000794339482186395	-0.0137331218835746	0.00234166264920304	-0.00214069513119093	0.0023491497293174	-0.00214204930726654	-0.014058715976196	-0.00245495870613458
9.6	-0.00287717402484941	-0.0137312627705635	0.00201462132940846	-0.00244695861891353	0.0020149545347089	-0.00244596875949582	-0.0138645362483463	-0.00204769669547414
9.7	-0.00642420877310563	-0.0130148028664529	0.00163867805596346	-0.00269560900656239	0.00164423582706916	-0.00270296839376066	-0.0138646356527169	-0.00163890286735873
9.8	-0.00991481104690013	-0.0117088679494949	0.00124818356315893	-0.00289950246573898	0.00125391714559877	-0.00289097920266377	-0.0140546378770842	-0.00108284498542217
9.9	-0.0132762464044823	-0.00960516564530896	0.000841544249234102	-0.00303253805693588	0.000834199476278167	-0.00303130379582854	-0.0142991229793467	-0.000254442043118663
10	-0.0162832099407471	-0.00659212114498457	0.000414118747910685	-0.00311667215679468	0.000406635240090504	-0.00312912602894111	-0.0143146206392126	0.000780412468351142
10.1	-0.0184343046165273	-0.0028608086932218	-2.22869829803129E-05	-0.00314608792421827	-3.25285964418743E-05	-0.00314072533485872	-0.0139843852230346	0.00165294387911616
10.2	-0.0196554130760553	0.00113018161939327	-0.000461555887146815	-0.00311149887791171	-0.000464974793688756	-0.00310873831579386	-0.0135586248152666	0.00232397209603085
10.3	-0.0201704724867819	0.00519807736897749	-0.000888579202150313	-0.00301251906196777	-0.000880420455280499	-0.00302153593907493	-0.0131614694557174	0.00292294959477661
10.4	-0.0200461007536485	0.00941159425761398	-0.00128385427332248	-0.00286789030917002	-0.00128209819611798	-0.0028740822864173	-0.0125616596834909	0.00343094074489046
10.5	-0.0191090536826255	0.0138848508799125	-0.00167835010114016	-0.00268086142880288	-0.0016753716285415	-0.00266777232791483	-0.0118420862099856	0.00381888972195385
10.6	-0.0170509627813428	0.0182849550469675	-0.00203970877754462	-0.00242139020953477	-0.00203746364429012	-0.00242521536596289	-0.0111316318242361	0.00390454662957214
10.7	-0.0139715541517167	0.0222615110683298	-0.00236823057220496	-0.00212650818179927	-0.00236475898991978	-0.00212113526289468	-0.0106170456300107	0.00392126928720658
10.8	-0.0100929730385485	0.0255429238591381	-0.00265379209801844	-0.00176787927632742	-0.00264843651687888	-0.00177687026001428	-0.0103179811090359	0.00399308091365052
10.9	-0.00570632389358367	0.0282340613309417	-0.00287849452297655	-0.00138884854565053	-0.00288376951339501	-0.00138814724451383	-0.0101236666638523	0.00421698178673401
11	-0.000536213144489382	0.0301730621147376	-0.00305216910154374	-0.000961016524136309	-0.00305706376874682	-0.000967902100351935	-0.00967043126621886	0.00454292196811779
11.1	0.00528379725017654	0.0310838416749148	-0.00317050658400101	-0.000519853658831962	-0.00315944609691352	-0.000516916547677315	-0.00904372393006532	0.00463944656771379
11.2	0.0114714280764487	0.0305273784856313	-0.00320308179969904	-6.30266427265096E-05	-0.00321038080630482	-6.79479751789309E-05	-0.00842799676922366	0.00452419263825274
11.3	0.0174354607099411	0.0282103025389878	-0.00317253275383037	0.000405082691150231	-0.00318434297966253	0.000394909798760925	-0.00773339515868146	0.00423488591046119
11.4	0.0225903383886273	0.0248791975778321	-0.00308885925109658	0.000849470226547089	-0.00308379708024006	0.000857130760378487	-0.00730193842708962	0.00405550077230887
11.5	0.0269772672171567	0.0206930275179499	-0.00293040769214958	0.00127672038558249	-0.00293311855702297	0.00128718707847755	-0.00694334407802381	0.00385944226585574
11.6	0.0304905805531472	0.0156324147018232	-0.0027183259320848	0.00167234808511771	-0.00271826899846343	0.00167532604343487	-0.00650619559337632	0.00334101826199441
11.7	0.0330021211612734	0.00988069444788629	-0.00243940077539122	0.00202532432527436	-0.00243984951136028	0.00203402211530766	-0.00622824207873381	0.00267191781343411
11.8	0.0342752777813372	0.00370495719298634	-0.00212921403679506	0.0023501129385793	-0.0021333326000949	0.00235188168694752	-0.00614152137598756	0.00220487165709553
11.9	0.0341859744961744	-0.00235792835348729	-0.00177000875596458	0.0026143551706735	-0.00178301995431937	0.00261885590528129	-0.00618929230519103	0.00231357999727392
12	0.033042397776575	-0.00830298290070926	-0.00139277440108958	0.00282455588477348	-0.00139216047016833	0.00282596227005569	-0.00586030666620155	0.00213035099844055
