# GHZ S RI R 50
0.2	-0.000272371510122776	-0.000177942276840125	0.949233905856168	-0.307941712346828	0.94901161348608	-0.307916287104316	-0.000258218455034713	-9.14266323180436E-05
0.3	-0.000395438163422837	-9.41414213001072E-05	0.889295937616096	-0.451621237869939	0.889139711803316	-0.451525857179772	-0.000447930134055798	-0.000208498357321713
0.4	-0.000280103044278893	-5.18124586370736E-06	0.807865293295289	-0.583931028776991	0.807877089285535	-0.583956149177002	-0.000465105203039218	-0.000175293760319469
0.5	-0.00030144743061186	5.01921790270372E-05	0.707142138885869	-0.702325837698588	0.706987079741263	-0.702224352415655	-0.000455455644421162	-0.00012192796161121
0.6	-0.000275958442355147	0.000125911565126216	0.589152174173638	-0.803385894226656	0.589032892607238	-0.803224163269918	-0.000500038540383675	-0.000147109612283693
0.7	-0.000226826573790327	0.000348675903130702	0.457054643662564	-0.884767313638574	0.457035868154048	-0.884654799962922	-0.000478699959014167	-0.000149659856745392
0.8	1.86160675422781E-05	0.000381354826596133	0.314004299827267	-0.944798893185047	0.313972924513441	-0.944609126497331	-0.000515581388397491	-8.58401387687967E-05
0.9	0.000176574353122554	0.000466137699062366	0.163414496569131	-0.981805414897372	0.163349445706222	-0.981713487089814	-0.00062411330020903	-0.000112105508515638
1	0.000401027904174309	0.000329215577692835	0.00893687506267027	-0.994921486790748	0.00888522087415375	-0.994890014800491	-0.00066822386757307	-9.83350382244686E-05
1.1	0.000535336810803238	7.1832773967695E-05	-0.145528769816073	-0.984150197674585	-0.145544520600047	-0.984019741180869	-0.000869764427891419	-8.81138257988806E-05
1.2	0.000751163482964781	-0.000853290151499787	-0.296682705884613	-0.949363314811777	-0.29660632321835	-0.949337221120682	-0.000638450551312947	0.000303500275398246
1.3	0.000791531407375563	-0.00245601614980951	-0.440411420774882	-0.89154402508486	-0.440388385698237	-0.891537412121296	0.000556905640345921	0.000864332757633341
1.4	0.000565880666256409	-0.00433211640866589	-0.573168384968676	-0.812209821142779	-0.573144206629254	-0.812188188768008	0.0022265763827897	0.00051435701693381
1.5	0.000155083023717695	-0.00523833458127459	-0.692325902767588	-0.713226907431439	-0.692224131532959	-0.713141950881592	0.00371673417383511	-0.000547769708187294
1.6	-0.000351559418196639	-0.00550975379138873	-0.794513103682285	-0.596882673333058	-0.794439023457623	-0.596822654679808	0.0036554380060138	-0.00180045331946424
1.7	-0.000798933930995942	-0.00531982756096121	-0.876996480445065	-0.466694866653824	-0.877160653283045	-0.466178683387003	0.00330232592379632	-0.00268112831751215
1.8	-0.00137956126985461	-0.00510945747475882	-0.938851713270662	-0.32442098485611	-0.938740454789415	-0.324419650173084	0.00250587008942228	-0.00349565233694041
1.9	-0.00194866745343403	-0.00473241814061556	-0.977580408975168	-0.175154787989713	-0.977673159281741	-0.174667186769677	0.00157520607225222	-0.00392457820366767
2	-0.00255836489608082	-0.00438114544748351	-0.992660204657362	-0.02068324503365	-0.99267212021744	-0.0206373864037145	0.000783918935124509	-0.00421391790029752
2.1	-0.00318857589914869	-0.00386045967585214	-0.983646084109689	0.133648893449371	-0.983684169997201	0.133686003535834	-0.00015852135527439	-0.00426594834294794
2.2	-0.0039309361057236	-0.00332965765888747	-0.950925830908014	0.284593885851665	-0.950850712360308	0.28465664768946	-0.000815779846316827	-0.0041058925696842
2.3	-0.00462006749202752	-0.0025897457798212	-0.895295894055627	0.428101470800446	-0.894913451510775	0.428614472240302	-0.00150632373996965	-0.00408479998159107
2.4	-0.00534340334153146	-0.00175708313629892	-0.817061440783477	0.562869419643526	-0.817328386436995	0.562283775140214	-0.00233413145331729	-0.0039677794874182
2.5	-0.00579595359364721	-0.000618415331285489	-0.71996118375497	0.682691446914978	-0.720175130675362	0.682181787299753	-0.00282949108073905	-0.00397850319751101
2.6	-0.00600015663945022	0.000595648475211756	-0.60557811556926	0.785710482499728	-0.605472132286272	0.785527711222198	-0.00325628301411289	-0.00379859340111877
2.7	-0.00565736588223536	0.0017933504988964	-0.475696371319995	0.87028036029849	-0.476145678236558	0.869873829740711	-0.00355943490494691	-0.00354415182966189
2.8	-0.00479628804394655	0.00268281398740118	-0.336074539010531	0.932966352392239	-0.335406844917611	0.933124606686854	-0.00383452395610396	-0.00320518294246475
2.9	-0.00336357985221423	0.00317450940188177	-0.186606749763935	0.973769924065593	-0.186638065665627	0.973682601806171	-0.00351907333385461	-0.00246910158374941
3	-0.00186921376346038	0.00314852074058592	-0.0324187094800554	0.990879916682323	-0.0331197711888312	0.990722053320615	-0.0029035010539618	-0.00182232682627161
3.1	-0.000327854276104621	0.00283042417469805	0.120304589855599	0.983801536005794	0.120895090858392	0.983783117911643	-0.00194253809409297	-0.00141992974649201
3.2	0.000853630324832705	0.00201502588185109	0.272070578781479	0.952967045590524	0.272015727070387	0.952906811448045	-0.00128901899868742	-0.00135039774177607
3.3	0.00194941646914174	0.00100953407545006	0.416812318362185	0.899022845841248	0.416675172565301	0.899008809151467	-0.000464839139865293	-0.00140008256391431
3.4	0.00257220081203595	-0.000261853660488167	0.55123066948856	0.823349312931363	0.551068632044478	0.823467407843092	0.000436101228619229	-0.00195499081970698
3.5	0.00300019147355219	-0.00158071993640061	0.672208966678318	0.72785445638642	0.672129453722059	0.727893311063544	0.00102790888309329	-0.00266203503100877
3.6	0.00284654877030768	-0.00289127866942039	0.776527198046774	0.615107591451868	0.776767400955159	0.614658728795673	0.00127635976877547	-0.00345461947163372
3.7	0.00249563108940446	-0.00417292681157639	0.862817223451616	0.48647795122679	0.862699206361306	0.486621190769219	0.00133987447403547	-0.00419132089814938
3.8	0.00165198706683967	-0.00531217633369285	0.927566505574471	0.347158406846725	0.92762263471197	0.346779287521414	0.00114212105490643	-0.00502449783607318
3.9	0.000748954833601316	-0.00626224759697031	0.970272736578753	0.19779805169519	0.970035600309864	0.198465596272698	0.000323009206903789	-0.00606413515754671
4	-0.000655896301539219	-0.00694886785924737	0.9891047954624	0.0455894955540731	0.989066049240027	0.0456923757144761	-0.000498803285055444	-0.00679552964663082
4.1	-0.00218493656554806	-0.00741661757756396	0.984185434331378	-0.108438314224374	0.984001278333255	-0.108310909892349	-0.00155721771269826	-0.00745287466273781
4.2	-0.00413652883980294	-0.00747507279552464	0.954993547374539	-0.260486810940052	0.955029764408148	-0.259833576350926	-0.00275870022411538	-0.00789812975650507
4.3	-0.00605380308711933	-0.00725813277856285	0.903208945102048	-0.40486153782601	0.903073397023771	-0.404750260757573	-0.00410704873577826	-0.00835865317173429
4.4	-0.00816355409159701	-0.0064966084632277	0.829365105298941	-0.540010479085355	0.829200288257707	-0.539876976215978	-0.00568597279030815	-0.00857120679102778
4.5	-0.0100370821736534	-0.00534183311572908	0.735517037097929	-0.662146989314489	0.735328688580837	-0.661973678704623	-0.0072865363009625	-0.00858183887694697
4.6	-0.0118614580303866	-0.00364328526446996	0.623318163311986	-0.768618264889949	0.623660817699379	-0.767921508962063	-0.00905686442996978	-0.00841798923468832
4.7	-0.0132103210320191	-0.00170688924800406	0.496859956333845	-0.855713032747919	0.496876910888243	-0.855357536443707	-0.0109021754359565	-0.00806198400876202
4.8	-0.0141631240546304	0.000761334847685416	0.357767335087092	-0.922229631005377	0.357989117393364	-0.921913790346916	-0.0125679996650987	-0.00732175460551955
4.9	-0.0141812590485647	0.00323681474703436	0.210752101052663	-0.965971219653674	0.210532285908849	-0.965978712222942	-0.0137710827049157	-0.00620746069344785
5	-0.0134689247312348	0.00564655770581094	0.0581368767241893	-0.986830163323848	0.0583142226358195	-0.986585282369798	-0.0143154110610343	-0.00462507695964673
5.1	-0.0118917345881436	0.00767142114932415	-0.0954715402732484	-0.983946896819946	-0.0951399283330467	-0.983722198942812	-0.0143159280492536	-0.00305446796122722
5.2	-0.00991194119754385	0.00944517159504066	-0.247092238321458	-0.957180510280386	-0.246600746667488	-0.95715425423827	-0.0141297378561965	-0.00148125599379211
5.3	-0.00760148693248125	0.0106117317369887	-0.392559523042928	-0.907236763680227	-0.392219367308602	-0.90745312934167	-0.0135632762111888	-6.66751231936455E-05
5.4	-0.00513856999532598	0.0115910891702575	-0.528619787340122	-0.835357789249275	-0.528407402280132	-0.835558571169582	-0.0129714050492229	0.0011677435721185
5.5	-0.00258819591526445	0.012009063286441	-0.651856094831612	-0.743131352700567	-0.651617519466139	-0.743326120366882	-0.012436435412957	0.00216462921162851
5.6	-2.91197600865692E-05	0.0122542876175149	-0.759105366965551	-0.632871443919831	-0.758915963363569	-0.633043294991552	-0.0120059086509927	0.00317814079160887
5.7	0.00242316044355037	0.0118624874037543	-0.84810309246037	-0.507363269864846	-0.847974034330031	-0.507582969561987	-0.0115638747052965	0.00436529844550552
5.8	0.00468620654606595	0.0111827615065259	-0.916390577447411	-0.36947360766836	-0.916322951502161	-0.369758322213929	-0.0110121697526467	0.0055989153124119
5.9	0.00669121634463296	0.00994449631463363	-0.962541056649023	-0.222902626459984	-0.962555549917958	-0.222986159103134	-0.0104324539075799	0.00678300886645607
6	0.0083879868037846	0.00847537833086114	-0.985473526565071	-0.0709122103245994	-0.985354429520567	-0.0709702249841765	-0.00981505509683988	0.00805464175645182
6.1	0.00965540804621576	0.00663032306080814	-0.984374348791972	0.0828451044666007	-0.98424791623334	0.0826967837611332	-0.00884105135262838	0.00921134033423699
6.2	0.0103866008812272	0.00460361754565931	-0.959438605555539	0.234591358426822	-0.959424977738123	0.234388820322852	-0.00770086484675218	0.00994801010066544
6.3	0.0104977836873848	0.00222623553965705	-0.911377827296778	0.380555762059953	-0.911373352795811	0.38037069866449	-0.006446505033206	0.0101266424741643
6.4	0.0100462773346767	-0.000222944427988044	-0.841260784696118	0.517329622201267	-0.841229195610154	0.517119275930371	-0.00544177535710831	0.00976088450441167
6.5	0.00895877496131652	-0.00268613172805919	-0.750700230673545	0.641544635715233	-0.750724379853148	0.641340869899487	-0.00470051288554867	0.00917258203480457
6.6	0.007578123472263	-0.00469115886843756	-0.6420267752238	0.750245377661998	-0.642100593760834	0.74999363973647	-0.00410235111937621	0.00871432547972165
6.7	0.00581305352302298	-0.00636512945680263	-0.517739690734061	0.840701515105913	-0.517842401526777	0.840480717189015	-0.00372945686202651	0.00834994081884706
6.8	0.0040081258161145	-0.00746983410133138	-0.380977986059229	0.910812267023055	-0.381119441054063	0.910641832542778	-0.00343321644643333	0.00829053986101356
6.9	0.00206309385027388	-0.00821646833746851	-0.234987011638565	0.958773473909995	-0.235213299927684	0.958663284527571	-0.00288079989129146	0.00838564321045173
7	0.00033150333042594	-0.00845078941096098	-0.0834103496951413	0.983485265528083	-0.0836198444363634	0.983395639922735	-0.00212150668955257	0.00831172729438215
7.1	-0.00138820714378993	-0.00838999638226949	0.0702109108060435	0.984477089666268	0.0700092319397822	0.98434409388993	-0.00134079677804457	0.0082380934255443
7.2	-0.00286688025130434	-0.0080039836477568	0.22212516031176	0.961540105599684	0.221843509269886	0.961505635533668	-0.000319628031997987	0.00820826345767887
7.3	-0.00433313606971906	-0.00746868539048416	0.368541752135325	0.91533531762628	0.368306087699753	0.915361526044341	0.0007375277800871	0.00793651048436998
7.4	-0.00546943295071852	-0.00663374620116671	0.506033796445828	0.846966896759311	0.505820745080281	0.847017950530068	0.00163294798512609	0.00740532951621107
7.5	-0.00638523294573383	-0.00579261331159325	0.631219178795346	0.758135562073241	0.631049907350269	0.75820510220837	0.00260328290508788	0.00682703097050793
7.6	-0.00684590539320281	-0.00483448555477885	0.74117353903856	0.650924112912775	0.740916374775659	0.651006360271436	0.00367687841672543	0.00576773197368555
7.7	-0.00713900716833406	-0.00375193269760029	0.833031988597091	0.527991125938036	0.832846712148543	0.528207929998643	0.00429952833266631	0.00449686287854731
7.8	-0.00692221237285688	-0.00260790730958457	0.904845456487628	0.392258426901992	0.904742490275364	0.392483488597365	0.00469508499062764	0.00305994131990071
7.9	-0.00656930920573754	-0.0015236717485295	0.954694458898295	0.247221638389296	0.954556470831828	0.247401013414043	0.00461492802627215	0.0017084409769746
8	-0.0057627753527397	-0.000576975173916089	0.981318488299814	0.0960818583667241	0.981295281662612	0.0963442893686618	0.00389913152630902	0.000557385523096848
8.1	-0.00503979287383107	0.000242137446228357	0.984364861027131	-0.0573098689175266	0.984393528856532	-0.0570545160849131	0.00288884917541244	-0.000163816909344143
8.2	-0.00409754624611401	0.00089823528728614	0.963466162723903	-0.209351742345908	0.963514131186337	-0.209034889530361	0.00164867004768419	-0.000493969680742846
8.3	-0.00323287939574125	0.00149223337863576	0.919277572916086	-0.356272570759813	0.919328559511658	-0.35598557688851	0.000413173306189055	-0.000313933840388195
8.4	-0.00212004437106831	0.00193198435007944	0.852857603243818	-0.494603133686722	0.852955088650318	-0.494401157850316	-0.000605211910573889	0.000209688831865228
8.5	-0.00102391888661786	0.00219229609963018	0.765772443277697	-0.620864469148048	0.765823609036437	-0.62071375008032	-0.00128803938487076	0.00100124809300628
8.6	0.000325043357390568	0.00220694307418647	0.659970013872289	-0.73215882106737	0.660138127617806	-0.731921568571741	-0.00148936604253245	0.00204221867815912
8.7	0.00159824200991922	0.00199216069145433	0.53823115777936	-0.825595414249601	0.538489994169686	-0.825379690519289	-0.00116363873960847	0.00310932155577592
8.8	0.00308105960904352	0.00149051913714632	0.403669772334821	-0.899014127723133	0.403854829935505	-0.898874835329683	-0.00045069400420463	0.00388274662239658
8.9	0.00452916641107003	0.000609814466824187	0.259293458024423	-0.950760562944683	0.259472290376254	-0.950590292392833	0.000883541414765158	0.00452158070355104
9	0.00613910957395554	-0.000895028201562137	0.108524918778945	-0.979283000736928	0.108833092385118	-0.979236032828166	0.00277351187630244	0.00462936572003535
9.1	0.00745259391556447	-0.00276427993005001	-0.0446556963772393	-0.984215875271839	-0.0443466462170839	-0.984174479757165	0.00501472397260294	0.00402430466322183
9.2	0.00843159230965615	-0.00495074117304793	-0.196924063971933	-0.965257885239258	-0.196576545101057	-0.965235129160294	0.00726645828987858	0.00258465102867283
9.3	0.00878523339443323	-0.00702063576478637	-0.344295473598185	-0.922937353625957	-0.343943604763743	-0.922911337867661	0.00916414058314194	0.000476619301879961
9.4	0.00878329059039176	-0.00902668252657069	-0.483214929982043	-0.858303789314431	-0.482891630318162	-0.858394192160853	0.0103564367910849	-0.00228657523770555
9.5	0.00811307845304998	-0.0105261488904829	-0.610404547210502	-0.772838502556463	-0.610167521142088	-0.772888434279405	0.0102546662392855	-0.00529291885940619
9.6	0.007405433456723	-0.0117357967054425	-0.722910606258503	-0.668657826562877	-0.722598749343785	-0.668796072265983	0.00922213277721168	-0.00791358656860868
9.7	0.00644840796837208	-0.0123970324760954	-0.817790114110926	-0.548360528093563	-0.817502171569312	-0.548593078768526	0.00713793603008243	-0.0103313871955263
9.8	0.0055266889014749	-0.0128440565771184	-0.8928950019527	-0.414856271352643	-0.892641361010405	-0.415024870484633	0.00421470084487715	-0.0119913407679772
9.9	0.00457020422736139	-0.0127977107457736	-0.946424637457123	-0.271312004457233	-0.946171852538382	-0.271520467467028	0.000875487169608858	-0.0126856872781965
10	0.00374537016894263	-0.0127135146227024	-0.977000901086818	-0.121151874409385	-0.976846571476943	-0.121514143864143	-0.00265876888223093	-0.0123773943915151
10.1	0.00297377678886625	-0.0123568459186999	-0.983833068422401	0.0319171496141263	-0.983768844748762	0.0314854933393912	-0.00602818994483606	-0.0110188667289809
10.2	0.00245637441331678	-0.0120949356290259	-0.967000835288589	0.184209045866482	-0.966878249841574	0.183777762554164	-0.00890572902919202	-0.00888325249153071
10.3	0.00190135582230467	-0.011762445544427	-0.926634227434708	0.332081104560597	-0.92665089355968	0.331539225511714	-0.0112495408711318	-0.00629959935676117
10.4	0.00144832555422656	-0.0117943377473856	-0.86378047578091	0.47173690104524	-0.863916618603551	0.471225068977384	-0.0128561806396688	-0.00350976385247559
10.5	0.000882302504523558	-0.0117513322773066	-0.780076037586411	0.60000185957876	-0.78024873211775	0.599569386052779	-0.0135538722472603	-0.000695134379282972
10.6	0.000268617185040778	-0.0118509908126662	-0.677455072205198	0.71364904112684	-0.67772745312118	0.713318706432761	-0.0136061774954314	0.00209813391504215
10.7	-0.000319826017195088	-0.0117055947297077	-0.558480791743507	0.810059253245708	-0.558781382714636	0.809749591359181	-0.0127465850008117	0.00497304055143659
10.8	-0.000691245182101395	-0.0118434541568407	-0.425982128352829	0.886776704061125	-0.426332935927987	0.886478249628001	-0.0110558247700963	0.00756080080868188
10.9	-0.00128882885647994	-0.0117544509398651	-0.283273930424234	0.942057034576155	-0.283664263473788	0.941933971012474	-0.00898517344562994	0.00964255386029268
11	-0.00172455004114907	-0.0119176667262431	-0.13362635942741	0.974560846947756	-0.134063475956517	0.974470141921105	-0.00626461968625802	0.0111060966573909
11.1	-0.00218970193927062	-0.0119476277131544	0.0192445404470788	0.983293416627856	0.018755719190914	0.983306843420159	-0.00320555111101872	0.0118640609451294
11.2	-0.00265518597624592	-0.0122518731710087	0.171524540958743	0.968345106483365	0.171067378062744	0.96841815522187	0.000132559404433699	0.0117865242519238
11.3	-0.00324245501091587	-0.0124719577062679	0.319600111850591	0.93000234718442	0.319141025930731	0.930138969453723	0.00355401385122236	0.0109547114896477
11.4	-0.00407921187126522	-0.0127640533764987	0.460032726006121	0.869151326917008	0.459628880339641	0.86926453019764	0.00661730612772303	0.00949402736190117
11.5	-0.00507947213003485	-0.0126549094503689	0.589227343464147	0.787063581192119	0.588908814710984	0.787365878351448	0.00911525390269699	0.00741694954252737
11.6	-0.00617560943265041	-0.0126170218879374	0.704047760065415	0.686090682306846	0.703832517285844	0.686418384433755	0.0109176620765727	0.00492025332463075
11.7	-0.00734978587872826	-0.0120775184357273	0.801922836365282	0.56854211488535	0.801719718040463	0.568848596414487	0.0120312836711645	0.0021623722878947
11.8	-0.00861639826566277	-0.0114371402258756	0.880453947846765	0.43706254875111	0.8802722833307	0.437513264707328	0.0122689853808107	-0.0007565119836306
11.9	-0.00962069544120486	-0.0102823558541087	0.937529744671443	0.295149923885118	0.937424066858085	0.295599717698361	0.0116873323994953	-0.00337449055305014
12	-0.0109526086533943	-0.00909830359366413	0.971917503920176	0.146225013519249	0.971888841131851	0.146589366122972	0.0104738318728965	-0.00578579297861354
12.1	-0.0117147703628248	-0.00760677369682798	0.982735940702371	-0.00637752634247398	0.982665139751267	-0.00599291265256047	0.00889301953029764	-0.00791847763540482
12.2	-0.012552854551926	-0.00623223083298585	0.969758840824669	-0.158833266856911	0.969776459360043	-0.158535300498703	0.00661533419220623	-0.00957013993618058
12.3	-0.0132238351852582	-0.00448993667168616	0.933117370306265	-0.30732064420843	0.933237000748077	-0.307014102818966	0.00406315495786988	-0.0106091461550089
12.4	-0.0137477665858269	-0.00268235460518945	0.874261238543797	-0.448316314771481	0.874324509714692	-0.447946759395012	0.00141781104041745	-0.0109515479920134
12.5	-0.0136544667719398	-0.000622547070995541	0.793986582675682	-0.578519765700326	0.794327144381557	-0.578129472149276	-0.00115415055815952	-0.0106863288777289
