# GHZ S RI R 50
0.2	-0.000286293303337782	-0.000156153029979269	0.949232104771474	-0.307942624712697	0.949009812756556	-0.307917199189547	-0.000237024519232854	-0.000108967126882775
0.3	-0.000411943473669213	-5.10270200025376E-05	0.889293181649867	-0.451621152302365	0.889136956340072	-0.451525771667382	-0.000420014320833107	-0.000250918461963194
0.4	-0.000289025186169471	5.75853628778276E-05	0.807862357374612	-0.583929538053246	0.807874153313447	-0.583954658377352	-0.000443430056569571	-0.000242924689256157
0.5	-0.000306442447563357	0.000113668687461359	0.707139717897736	-0.702323066226678	0.706984659297677	-0.702221581358054	-0.000439232325471854	-0.000195867785178342
0.6	-0.000302719085981998	0.000208688974728711	0.58915070463521	-0.803382248346898	0.589031423367164	-0.803220518124819	-0.000465721707751807	-0.000244857325047457
0.7	-0.000253381782301204	0.000474551672882903	0.457054251896828	-0.884763250500668	0.457035476288266	-0.884650737281834	-0.000449615805332445	-0.000293423565992783
0.8	1.89925622446917E-05	0.000551123875838184	0.314004910856256	-0.944794778672149	0.313973535301331	-0.944605012751104	-0.000519122064722161	-0.000274520398651321
0.9	0.00024578838040279	0.000666183284985356	0.163415921660373	-0.981801463522458	0.163350870846903	-0.981709536187499	-0.000702109249629176	-0.000329843949718105
1	0.000572394640801235	0.000462059593739994	0.00893897782139744	-0.994917802353595	0.00888732375543506	-0.994886330590053	-0.000852111217907011	-0.000244949823690543
1.1	0.000683180264871339	7.71621079753987E-05	-0.145526260035445	-0.984146976437149	-0.14554201102712	-0.984016520441251	-0.00102879633838701	-0.000100631040596212
1.2	0.000819537136410161	-0.000918612109277719	-0.296680159734426	-0.949360141932538	-0.296603777398172	-0.94933404822678	-0.000704480556351235	0.000369130343755762
1.3	0.000743134327010111	-0.00253358709242133	-0.440409053283133	-0.89154017368444	-0.440386018313536	-0.891533560740906	0.000639042129344954	0.000940788852572154
1.4	0.000419518922222479	-0.00433218793194423	-0.573165673329495	-0.812204694042057	-0.573141495113205	-0.812183061810047	0.00243895463634414	0.000491475273566265
1.5	-8.58374909890016E-05	-0.00511202927364556	-0.692322037798102	-0.713219672726234	-0.692220267175133	-0.713134717081719	0.00402902291658447	-0.000729513046967288
1.6	-0.000555779988772105	-0.00515130926779406	-0.794506701164367	-0.59687386656541	-0.794432621519819	-0.596813848779143	0.00390875421399561	-0.00223965974212378
1.7	-0.000840850404649737	-0.00486942220997398	-0.876985823734199	-0.466684555622739	-0.877149992085601	-0.466168379084683	0.00335705172887498	-0.00322143821533381
1.8	-0.0012821398251417	-0.00467647042442355	-0.938834012610815	-0.324410765086426	-0.938722756368969	-0.324409430866343	0.00238213878194933	-0.00400967423049728
1.9	-0.00175948156813647	-0.00440363042932835	-0.977553967731944	-0.175149438670343	-0.977646715221543	-0.174661850637851	0.00132991242050044	-0.0043069692044972
2	-0.00245661575652376	-0.0041818018955194	-0.992627230443789	-0.020689135899749	-0.992639145911737	-0.0206432788687037	0.000615191956351795	-0.00442952989102258
2.1	-0.00317224159042428	-0.00355440018826999	-0.983613897447708	0.133627585353883	-0.983651982628704	0.133664693493779	-0.000233252583892679	-0.004554128877039
2.2	-0.00382457281448837	-0.00295114185739393	-0.950903287137706	0.284559703806698	-0.950828172628986	0.284622465645915	-0.000960231093219027	-0.00444314773200779
2.3	-0.00438954943370803	-0.00224217462932951	-0.895287223495906	0.428061657497614	-0.894904807219929	0.428574658414812	-0.00175100987905295	-0.00437705123468239
2.4	-0.00500303102610821	-0.00155995436283208	-0.817065597454109	0.562831173140101	-0.817332518209467	0.562245530314674	-0.00266122011446714	-0.00410313179069315
2.5	-0.00553925615968309	-0.000697923158403105	-0.719974206370963	0.682658498944793	-0.720188133557394	0.682148839034302	-0.00304008197046145	-0.00383534959156182
2.6	-0.00602471114282916	0.000477203114894163	-0.605596425650516	0.785683030890582	-0.605490437735659	0.785500264901111	-0.00314890922332149	-0.00362743685181815
2.7	-0.00583463098176562	0.00180151507268744	-0.475718045274893	0.870257973937744	-0.476167335802463	0.86985143369142	-0.00326648970682833	-0.00352567268810937
2.8	-0.00501166266123744	0.00283574121707955	-0.336098426896716	0.932948286121023	-0.335430743357473	0.933106558248497	-0.00348383263348096	-0.00337001301624301
2.9	-0.00355929161533524	0.00342821569256611	-0.186631848267974	0.973755771782116	-0.18666316147227	0.973668449465984	-0.00318546481087851	-0.0027770710363071
3	-0.00205744071408992	0.00350239937446182	-0.0324453516723852	0.990867982142789	-0.0331464012592778	0.990710101434573	-0.00259160677600195	-0.00227208011136656
3.1	-0.000422810751347238	0.00328815649770726	0.120275648497781	0.983793348170238	0.120866143081058	0.98377494681449	-0.00175644026733728	-0.00201421254907116
3.2	0.000863045337048789	0.00247109536178379	0.272039938665286	0.952961313399007	0.271985089419716	0.952901078558743	-0.00124355054161382	-0.00196604474875189
3.3	0.00201315432897484	0.0014156122651698	0.416779304534592	0.899020306845454	0.416642161387353	0.899006266387508	-0.000521202369927322	-0.00198274627887591
3.4	0.0026202609117604	6.16537790214609E-05	0.551194581102946	0.823350500149955	0.551032543127909	0.82346858777422	0.000340463368619375	-0.0024598201914643
3.5	0.00290497390511825	-0.00125410147297012	0.672169734257215	0.727860432842295	0.672090221795495	0.727899284009305	0.00101572455408335	-0.00315845662790072
3.6	0.00273777128895898	-0.00240523288947174	0.776482810735036	0.615120610820119	0.77672302427931	0.614671769423803	0.00120893907406523	-0.00407541522711
3.7	0.00247646771921708	-0.00362554144300835	0.862768023503955	0.486502553239897	0.862650003486841	0.486645782899571	0.00112181913437821	-0.00480497589842756
3.8	0.00171791739162302	-0.00477387873928407	0.927516221943635	0.347200426153032	0.927572371058041	0.34682132244585	0.000803126052965356	-0.00552150260044914
3.9	0.000872193829073733	-0.00581483588136408	0.970230457745738	0.197862003159378	0.969993280402407	0.198529511392707	-5.346932191788E-05	-0.00633038063038549
4	-0.000665333991973526	-0.00661544344865914	0.989083717797906	0.0456725559369545	0.989044963527892	0.0457754310221784	-0.000636561570975887	-0.00681438083108844
4.1	-0.00230516822795552	-0.00692897023092979	0.98419539801129	-0.10834848046334	0.984011230370918	-0.108221092933465	-0.0013996360474983	-0.0075629672037216
4.2	-0.00416746771543806	-0.00688202798451432	0.95503404727976	-0.260407252763867	0.955070207292763	-0.259754003007711	-0.0024894551981725	-0.00816865266597402
4.3	-0.00596600265652657	-0.00667358118221436	0.903268884128798	-0.404804235619262	0.903133323134691	-0.404692965554645	-0.00381889979575613	-0.00877393215479562
4.4	-0.00796500640066956	-0.00603506794695845	0.829431033119618	-0.53997671035796	0.82926620127526	-0.539843213224209	-0.00547492106155866	-0.00905196782283917
4.5	-0.00992312919544635	-0.00515015974673408	0.735579493786734	-0.662131983236616	0.735391129074232	-0.6619586763306	-0.00704147391120618	-0.00895589758938932
4.6	-0.0120504374128237	-0.00347361443632813	0.623374253883138	-0.768614351486188	0.623716887040701	-0.767917556883657	-0.00861124636747636	-0.00888520276362558
4.7	-0.0135768143244201	-0.00139048474341519	0.496909878150747	-0.855716392061445	0.496926818278748	-0.855360884995553	-0.0103996679891497	-0.00873622816038198
4.8	-0.0146059970080888	0.00126251266213956	0.357812313184486	-0.922237539222375	0.358034088314071	-0.921921682254191	-0.0121109218600453	-0.00818963519930825
4.9	-0.0146093632238248	0.00391375234941594	0.210793795506774	-0.965981810106747	0.210573976377297	-0.965989311375535	-0.0134335452599403	-0.00721840583946421
5	-0.0138671676366228	0.00650182000790441	0.0581783032751311	-0.986842387224225	0.0583556417463656	-0.986597495352854	-0.0140816263523382	-0.00574932768761244
5.1	-0.0120881828709521	0.00875039713957263	-0.0954282847429748	-0.983963906990419	-0.0950966786844888	-0.983739191220793	-0.0143231328037972	-0.00432406785001251
5.2	-0.00978876806255463	0.0105311341371451	-0.247047594765719	-0.957204204205271	-0.246556098559212	-0.957177923413486	-0.0144657193357322	-0.00267883844603603
5.3	-0.0072529430228593	0.0114952919546827	-0.392514357209532	-0.907269775823431	-0.392174185279543	-0.907486125414291	-0.0141118059386348	-0.000992648176274411
5.4	-0.00480852886926994	0.0121551036552295	-0.528576937149489	-0.835402617584726	-0.528364536650596	-0.835603389613833	-0.0134773044661387	0.000617239231030134
5.5	-0.00263060988407196	0.0125096581875649	-0.65181985062691	-0.743187937674583	-0.651581258040759	-0.743382693429505	-0.0125402945222877	0.00172250997193779
5.6	-0.000100444103118855	0.0130854687230042	-0.759076478149992	-0.632939875166586	-0.758887058042355	-0.633111716380708	-0.0120503864177398	0.00244639000403253
5.7	0.00257109340448745	0.0127687574307725	-0.848087639701802	-0.50744869450435	-0.847958559508319	-0.507668390395236	-0.0117883863915884	0.00358833562609399
5.8	0.00503009291362343	0.0119767365972448	-0.916399495162342	-0.369572792655223	-0.916331840555598	-0.369857514209592	-0.0113725354419211	0.00498847030239408
5.9	0.00711201459293691	0.0104168449749317	-0.962586487553974	-0.223006504773664	-0.962600974113673	-0.223090044486976	-0.0107596280979067	0.00653535261076562
6	0.00840501498676224	0.008615193804049	-0.985563707771648	-0.0709985477653706	-0.985444594451549	-0.071056558491517	-0.00957273197568807	0.00811059464941649
6.1	0.00926921608310657	0.00703914820307415	-0.984493288044693	0.0828035366744212	-0.98436683304664	0.0826552052523507	-0.00805379238110547	0.00884171688886082
6.2	0.00995152770745091	0.00530804634011457	-0.959556545124281	0.234601848886679	-0.95954291204487	0.234399287009124	-0.0068669519448504	0.00904738523637543
6.3	0.0101586045184687	0.00314750788931644	-0.911467956877912	0.380604937854338	-0.911463483917548	0.380419855269152	-0.00586808878073677	0.00884738099122746
6.4	0.00988497188766815	0.000808976801779688	-0.841314543886391	0.51739364619817	-0.841282957886258	0.517183282184709	-0.00525555859405086	0.00840692453897558
6.5	0.008955076390477	-0.00162835136306977	-0.750721262104271	0.641603903619908	-0.75074541909737	0.641400127326133	-0.00476937267962827	0.00794371044624
6.6	0.00778618935777517	-0.00367558429887477	-0.64203012311251	0.750286841800078	-0.642103950394031	0.750035097111527	-0.00436242061315281	0.00766005977401238
6.7	0.00612489341427468	-0.00554518224360143	-0.517739607660874	0.840727564388506	-0.517842323829068	0.840506762947493	-0.0040216952747446	0.00755173100364834
6.8	0.00425596647021563	-0.00682737204140411	-0.380981203457462	0.910829246881266	-0.38112266149435	0.910658809994044	-0.00359382123247694	0.00766665546399143
6.9	0.00214762756911133	-0.00764637160536273	-0.234996749930177	0.958789133733859	-0.235223041597277	0.9586789410786	-0.00283260338939615	0.00779461057193631
7	0.000254670433478295	-0.00778986695940735	-0.0834210796331921	0.983504024700178	-0.0836305777063417	0.983414395377591	-0.00189816434448904	0.00757226964423916
7.1	-0.0014645301763769	-0.00761374739199497	0.0702006195102865	0.984496749683268	0.0699989383564896	0.98436374897371	-0.00112735027439994	0.00732519407518598
7.2	-0.00293398443165162	-0.00718024358361869	0.222113013827393	0.961562444043291	0.221831357939438	0.96152796849602	-0.000142252107936057	0.00718770257340704
7.3	-0.00439709239276163	-0.00659715631412346	0.368528724759957	0.915364431719513	0.368293054423419	0.91539063524121	0.000863970322322218	0.00680766589042435
7.4	-0.00552919353849618	-0.00572628988556625	0.506023748435358	0.84700676892959	0.505810689285478	0.847057817926393	0.00167996592192467	0.00618259057498344
7.5	-0.00649681111359169	-0.00479507762725909	0.631221920530214	0.75818723773793	0.631052639787667	0.758256775484226	0.00258953275252318	0.00547429063133137
7.6	-0.00684461433404715	-0.00363163351919473	0.741199432392581	0.650978395750516	0.740942251743142	0.651060641539036	0.00340856380482646	0.0042297465409971
7.7	-0.00688729945495393	-0.00252667058226946	0.833077387878281	0.528039509834071	0.832892095719491	0.528256324905404	0.00363888948625936	0.00301892501537495
7.8	-0.00647027406235919	-0.00155058394679077	0.904913404819142	0.392288556203703	0.904810430705444	0.392513634794266	0.00373127788862233	0.00191105974459415
7.9	-0.00607857587394568	-0.000845933226443415	0.954774077907835	0.24721646211991	0.954636083778983	0.247395854419002	0.00361072120911053	0.00116901866250277
8	-0.00577601200522382	-0.000215032402180209	0.981386324167111	0.0960310462785726	0.981363131274338	0.096293495274306	0.00343611040247638	0.000587633032468509
8.1	-0.00550998054383163	0.000964054750851229	0.984398042117522	-0.057396781696915	0.984426733024365	-0.0571414214456807	0.00313903727290536	-0.000268447865677591
8.2	-0.00455781394286687	0.00203382601345691	0.963445807474277	-0.209443929468044	0.963493806259198	-0.209127081346919	0.00224034855547622	-0.000943280487956794
8.3	-0.00347912966404561	0.00287238907273207	0.919211988359581	-0.356337289608484	0.919262997467297	-0.356050311076476	0.0011384754845151	-0.0011530043570889
8.4	-0.00204892595135033	0.00330662859999212	0.852774491104351	-0.494623762155088	0.852871982622799	-0.494421804814872	4.77380883539546E-06	-0.000929391699209366
8.5	-0.000959078344580138	0.00322979272934281	0.765694983035601	-0.620846603033306	0.76574615042375	-0.620695896696428	-0.00065662912095316	-0.000133269611748765
8.6	6.93465522728693E-05	0.00340979151045956	0.659913741224724	-0.732113040866231	0.660081845427162	-0.731875807525013	-0.000665730334433163	0.000475729784387665
8.7	0.00142767281097747	0.00356301953701234	0.538201385896912	-0.825538800511818	0.538460204251978	-0.825323089151172	-0.000619176146909684	0.00101848378392109
8.8	0.00326544490761442	0.00330229264151931	0.403661677084601	-0.898958425234742	0.403846722338484	-0.898819137593354	-0.000477144096545939	0.00149826752895982
8.9	0.00522323984746946	0.00239060460504952	0.259300131661399	-0.950711859796997	0.25947895248031	-0.950541593565639	0.000155191073330728	0.00220948529910767
9	0.0071603917488888	0.000514969364296634	0.108542069875586	-0.979243217707278	0.108850230683819	-0.979196244892509	0.00158396305672928	0.0028003732536101
9.1	0.00857435516267194	-0.0016953152848127	-0.0446345190574419	-0.984187481985687	-0.0443254789314604	-0.98414608147193	0.00365754479359886	0.00267836001666381
9.2	0.00950412624383606	-0.00430357698413493	-0.196904622043049	-0.965235382379236	-0.196557112659262	-0.965212621766694	0.00596322478503764	0.00178725048460951
9.3	0.00954347254287948	-0.00672067712757539	-0.34427781071745	-0.922916796083135	-0.343925951216931	-0.922890777648993	0.00821389081051971	0.000116863835323047
9.4	0.00903481774286964	-0.0089307975129633	-0.483195883250903	-0.858281143114066	-0.482872592620999	-0.858371541484529	0.00995752205407527	-0.00238848273183442
9.5	0.0076272501309394	-0.0101331220565781	-0.610384526163239	-0.772815440570675	-0.61014750734562	-0.772865370409271	0.0106377825439552	-0.00566510240989987
9.6	0.00688021849193894	-0.0105793347714924	-0.722889952808864	-0.668630506913922	-0.722578107400155	-0.668768749818816	0.00967004991759058	-0.00902535734585137
9.7	0.00628922206051391	-0.0109284045973191	-0.817763821648947	-0.548325036200147	-0.817475894771957	-0.548557581420171	0.00724729249776104	-0.0117375105656888
9.8	0.00573359336809483	-0.0113773909221904	-0.892854498271412	-0.414811044658893	-0.892600875807691	-0.414979640438486	0.00398446357326839	-0.0133769693932414
9.9	0.00501552641417453	-0.0116795796020445	-0.946358948098473	-0.271261936049246	-0.946106189299452	-0.271470390498656	0.000441654823552056	-0.0136973987510135
10	0.00379672617143939	-0.0119549516646708	-0.976898985822904	-0.121110237552655	-0.976744683464194	-0.121472472435933	-0.00264104799445652	-0.0130299587494323
10.1	0.00277524127162105	-0.0112215104281851	-0.983690991731962	0.0319228736940616	-0.983626781851204	0.0314912789142936	-0.00571091093347348	-0.0120893196816327
10.2	0.00248168510602944	-0.0107624602023878	-0.966841640404893	0.184149592050283	-0.966719063297945	0.18371838568094	-0.00881910506420301	-0.0102240203815462
10.3	0.00219559564757031	-0.0104994869028486	-0.926499881257701	0.331949867796643	-0.926516501447563	0.331408081418112	-0.0115151093620615	-0.00759486228488066
10.4	0.00193655067047831	-0.0108494531192916	-0.863706099823387	0.471560024584033	-0.863842159711166	0.471048254017204	-0.0133912625719836	-0.0043990396729214
10.5	0.00114232155719573	-0.011284097545567	-0.780065844011195	0.599814534522557	-0.780238454571305	0.599382089785086	-0.0138199598666307	-0.000966628063265689
10.6	0.000124782950450749	-0.0114370104976894	-0.677506898764494	0.713472439595665	-0.677779200662653	0.713142091885562	-0.0132050282001218	0.00197724999121674
10.7	-0.000771221683465574	-0.0110846975552672	-0.558571421313383	0.809916601343576	-0.558871943135797	0.809606912724818	-0.0118720520066496	0.00459735302830171
10.8	-0.00133618488117476	-0.0108917180602121	-0.426089228302227	0.886673884359984	-0.426439976547725	0.886375393687017	-0.0100018197127832	0.00674544200056929
10.9	-0.00193710375473892	-0.010564127443445	-0.283390787151922	0.941984137790738	-0.28378108919969	0.941861026018995	-0.00785807821649975	0.00844943351955937
11	-0.0023814678366725	-0.0104873083480284	-0.13374088311923	0.974513119728809	-0.134177974462758	0.974422364310875	-0.00511948846562124	0.00951780480177399
11.1	-0.00267879508253374	-0.0102502995614087	0.0191352359708136	0.98326077342571	0.0186464305181346	0.983274145718679	-0.00227627690079503	0.00985148955641437
11.2	-0.00290333236818949	-0.0104426629844882	0.171414612417598	0.968322376205444	0.170957461083054	0.968395373370447	0.000719620272125556	0.00953041445974747
11.3	-0.0032689838698327	-0.0106902078590622	0.319483934914234	0.9299880854227	0.319024858291609	0.930124651445423	0.00376849753462873	0.00864089627881611
11.4	-0.00400734731708833	-0.011174304275303	0.459908039204018	0.869151313636165	0.459504204809971	0.869264464949382	0.00657348990107359	0.00732659073962522
11.5	-0.00526565427009896	-0.0110519968470071	0.589101367153087	0.787084229743653	0.588782822691849	0.787386472092241	0.00917886855871551	0.00522805179746294
11.6	-0.00621238101605514	-0.0106225385761447	0.703919506347719	0.686127502870474	0.70370423942253	0.686455157574659	0.0106535802742514	0.00238946703549936
11.7	-0.00696264337165074	-0.0100690802186679	0.801788838902598	0.568600122296691	0.801585697315598	0.568906554418625	0.011181251275734	-0.000284201591342372
11.8	-0.00787282170266958	-0.00972947266550234	0.880317445771832	0.43715023727944	0.880135732804164	0.437600889323825	0.0109191759613423	-0.00275444537832909
11.9	-0.00880224617418376	-0.00922085818763381	0.93738843571275	0.295270699719853	0.937282696356669	0.295720431502249	0.0100645492121869	-0.00443416346578801
12	-0.0108496941634272	-0.00863563208959903	0.971787429957201	0.146390318049445	0.971758702429399	0.14675462675474	0.00958484285802233	-0.00598948815776239
12.1	-0.0122963270248606	-0.0067058103116832	0.982645171860925	-0.00615756044475639	0.982574291691558	-0.00577299864135548	0.00874797134249112	-0.00807564042946753
12.2	-0.0132389000254975	-0.00482411891760321	0.969740810793373	-0.158571224333862	0.969758350715252	-0.158273271627619	0.00698418578681274	-0.0098378045202697
12.3	-0.0137106272418231	-0.00272882190370527	0.93319456023976	-0.307057834013655	0.933314104170359	-0.306751262058749	0.00488786383651105	-0.0111222484752325
12.4	-0.0138684617568515	-0.000908393451865154	0.874424108523994	-0.448103175971398	0.87448728347291	-0.447733585660925	0.00249841051488445	-0.0118051777872192
12.5	-0.0138082843676784	0.000780124109512256	0.794189315718528	-0.578389813581905	0.794529818535517	-0.577999407539159	0.000250379385028203	-0.011816809936603
