# GHZ S RI R 50
0.2	-0.00027291978133454	-0.000176632356795129	0.949232652748594	-0.30794255830281	0.94901036061622	-0.307917132818639	-0.000258772211100901	-9.0116739350623E-05
0.3	-0.00039488326971944	-9.1883343621936E-05	0.889293809971087	-0.451621463129505	0.8891375845508	-0.451526082428643	-0.000447380913789276	-0.000206238559003626
0.4	-0.000278201763041947	-2.84676947599877E-06	0.807862840369388	-0.583930154396757	0.807874636311681	-0.583955274742391	-0.000463213581813661	-0.000172955214237234
0.5	-0.000298517822991241	5.22896129290895E-05	0.707139986059361	-0.702323852713381	0.706984927381066	-0.702222367711524	-0.000452539549240148	-0.000119823003570123
0.6	-0.000272003234273698	0.000128116196358553	0.589150763267878	-0.8033830780847	0.589031481987582	-0.80322134769526	-0.000496103903418988	-0.000144890859496396
0.7	-0.000220899641047913	0.000351611847344449	0.45705420375497	-0.884764042332848	0.457035428179527	-0.884651529029336	-0.00047280784343764	-0.000146697209719097
0.8	2.91063226007219E-05	0.000385266729951307	0.314004909269851	-0.94479555372005	0.313973533738779	-0.944605787651162	-0.000505146048886401	-8.1873078889468E-05
0.9	0.000196949064333471	0.000469229127699373	0.163416132192754	-0.981802415140734	0.163351081311085	-0.98171048771933	-0.000603822920981525	-0.000108901382862974
1	0.000439911726791416	0.000322962763635525	0.00893936588698564	-0.994919329185626	0.00888771172978894	-0.994887857393216	-0.000629460996425949	-0.000104345066333679
1.1	0.000598335394942998	3.09980157024024E-05	-0.145525989374325	-0.984149517020686	-0.145541740488942	-0.984019060710478	-0.000806821677060801	-0.000128501169949057
1.2	0.000812185998560946	-0.000971291320598466	-0.296680848594942	-0.949364381094956	-0.296604465947875	-0.949338287230917	-0.000579741735553645	0.000185496576800964
1.3	0.000765244277087897	-0.00263716900075837	-0.440412516338912	-0.891545458250227	-0.440389481218579	-0.891538845282809	0.000527544343884407	0.000684453015493661
1.4	0.000444895695541448	-0.00444889702970191	-0.573172468916165	-0.812208449740661	-0.573148290456251	-0.812186817439547	0.00210324336553056	0.000400313452109608
1.5	5.72918478390576E-05	-0.00525275069595717	-0.692330941903281	-0.713220261849755	-0.692229170091779	-0.713135306251514	0.00362064854891645	-0.000562383649085554
1.6	-0.000398091101626921	-0.00549570837824162	-0.794514514431203	-0.596870938650777	-0.7944404340279	-0.596810921117269	0.00360960856156973	-0.00178412300093616
1.7	-0.000818138019420751	-0.00530958032875793	-0.876991788736444	-0.466679512722017	-0.877155953797319	-0.466163333479456	0.00328399769245681	-0.00266948455790736
1.8	-0.00139201202529201	-0.00510321546260484	-0.938838104525174	-0.324404944937965	-0.938726848053376	-0.324403611481014	0.00249350335837243	-0.003490110692237
1.9	-0.00196112505334058	-0.004721091804992	-0.977556688128045	-0.175143559739407	-0.977649432693976	-0.174655970316549	0.00156274533203584	-0.00391384584166872
2	-0.00256396553208331	-0.00435879598035841	-0.992629329167104	-0.0206834605441461	-0.992641244395178	-0.0206376033536321	0.000778221633760495	-0.00419207757309703
2.1	-0.00317610649975388	-0.00383008085191845	-0.983615899553173	0.133633809735732	-0.983653984622597	0.133670918207393	-0.000146222854241882	-0.00423595498730988
2.2	-0.00389177198773038	-0.00330312518608969	-0.950904778692897	0.284566982881207	-0.950829663504774	0.284629744447658	-0.000776812022722479	-0.00407963159228465
2.3	-0.00455203247251929	-0.00258660541190993	-0.895287791738851	0.428070338069517	-0.894905369900963	0.428583338264435	-0.00143851246108378	-0.00408186213002225
2.4	-0.00526112713973516	-0.00180494344594354	-0.817064354282837	0.562841725632576	-0.817331281919178	0.562256082406316	-0.00224912678449423	-0.00401577356129938
2.5	-0.00574596693949898	-0.000736415210946494	-0.719969378977003	0.682670519927587	-0.720183313378428	0.682160860165012	-0.00277620959878462	-0.00409775575633999
2.6	-0.00605218134498866	0.000453950320968669	-0.605585602636486	0.785694565289434	-0.605479617328724	0.785511797165204	-0.00330552276017693	-0.00394311065579133
2.7	-0.00579245418721695	0.00174270804531497	-0.475702161912268	0.87026385330949	-0.476151458197084	0.869857321661447	-0.00369345538648348	-0.00359826469449175
2.8	-0.00489073880126434	0.00274448534463465	-0.336082909959317	0.932947165998242	-0.335415228405809	0.933105427545677	-0.00392925989527451	-0.00314627218814844
2.9	-0.00336439895691418	0.00325786476736597	-0.186620076530725	0.97375017095113	-0.18665139041983	0.973662849649728	-0.00352011279297618	-0.00238664795922619
3	-0.00181152669013941	0.0031906386875698	-0.0324367195291815	0.990862083833082	-0.0331377660921657	0.990704210075877	-0.00284608188438415	-0.00178086606261854
3.1	-0.000258819369587134	0.00282056860811633	0.120283886115638	0.983787375365383	0.120874377596932	0.983768968799685	-0.00187415081472262	-0.00143285382727639
3.2	0.000910906552234948	0.00196640852555963	0.272047322124603	0.952955434207037	0.271992472550388	0.952895200070236	-0.00123213224713268	-0.00139982262817321
3.3	0.00198029650210574	0.000934899549441828	0.416786467410296	0.899013443112327	0.416649324575103	0.898999403999003	-0.00043432762150378	-0.00147541448453818
3.4	0.00256974391703658	-0.000349603421605188	0.551201418289551	0.823342158865665	0.551039382056236	0.823460247805174	0.000433376596907272	-0.00204338185700612
3.5	0.00296071674098125	-0.00166947135441945	0.672175160803402	0.727850436448972	0.672095649057873	0.727889288336602	0.000988985281018357	-0.00275039563276665
3.6	0.00276740339147801	-0.00296415922156813	0.776487167758079	0.61510833115313	0.776727374694403	0.614659488674149	0.00119719304765228	-0.00352806071962234
3.7	0.00238102788540342	-0.00421208882227739	0.862769974209416	0.486487395772918	0.862651956924749	0.486630626289059	0.00122537670689621	-0.00423111191215889
3.8	0.00151552477331462	-0.00529742716630143	0.927512846965361	0.347182743452571	0.927568989662858	0.346803642456438	0.00100573137931884	-0.00501043951468163
3.9	0.000618014785627946	-0.00617672930870953	0.970218845773674	0.197845560954378	0.969981681238797	0.198513062606083	0.0001920658015519	-0.00597949623803003
4	-0.000738807001672786	-0.00679202803461188	0.989065805715699	0.0456642181092836	0.989027052940616	0.0457670915891307	-0.000581986043601649	-0.00663961229439831
4.1	-0.00217436469985343	-0.00722090560331392	0.984179547100528	-0.108347403103094	0.983995382498079	-0.108220017492035	-0.00154739802093586	-0.00725797715604848
4.2	-0.00401931658710251	-0.00730481031538327	0.955024146617772	-0.26040266057294	0.955060305032823	-0.259749417850777	-0.00264262165593053	-0.00772788637589014
4.3	-0.00586480316633119	-0.00716965062259841	0.903262762726968	-0.404800486925667	0.903127202604841	-0.404689217786996	-0.00391714845001882	-0.00827043488381818
4.4	-0.00795957293109093	-0.00650677405773375	0.829425762204906	-0.539974219299661	0.829260931429003	-0.539840722813774	-0.00548105409163285	-0.00858150059636908
4.5	-0.00986496277096209	-0.0054357610606381	0.735574476726682	-0.662129449283338	0.735386113304586	-0.66195614304661	-0.00711327348411981	-0.00867596186090457
4.6	-0.011749473556217	-0.00379250211807007	0.623369189987015	-0.768611391163167	0.623711822700512	-0.767914601141082	-0.00894460949110795	-0.00856689806285227
4.7	-0.0131698447795709	-0.00187649931348677	0.496904880927003	-0.855712115313743	0.496921821729925	-0.855356610514723	-0.0108613577179801	-0.00823176863555297
4.8	-0.0141929342507565	0.000607273361643649	0.357808250834808	-0.922231172267908	0.358030024778623	-0.921915317996401	-0.0125975247439747	-0.00747531817157719
4.9	-0.0142628146501666	0.00313196600386066	0.21079215287855	-0.965973433453444	0.210572335648353	-0.965980934697507	-0.0138521473474663	-0.00631203636125957
5	-0.0135630214014629	0.0056164483450815	0.0581798367771029	-0.986833260935388	0.0583571731182286	-0.986588370927158	-0.0144087799581055	-0.00465531533592239
5.1	-0.0119388738808024	0.00771059185270515	-0.095421600590179	-0.983953845258939	-0.0950899993981644	-0.983729130006003	-0.0143622074457793	-0.00301575984249039
5.2	-0.00986526601765806	0.00948915447518848	-0.247033262407613	-0.957198804250964	-0.246541770912888	-0.957172517464298	-0.0140821418153693	-0.00143814686952508
5.3	-0.00750306498289476	0.0105649796199151	-0.392497647671124	-0.907276093608559	-0.392157472120043	-0.907492436875888	-0.013464192064506	-0.000114576798173359
5.4	-0.00510874955975361	0.0114565736107938	-0.528568666664508	-0.835418987046019	-0.528356260940734	-0.835619757607335	-0.0129409892982879	0.00103215851863474
5.5	-0.00266335353640281	0.0118938110286586	-0.65182265264267	-0.743205157791712	-0.651584054657674	-0.743399914236627	-0.0125109920999234	0.00204819721433315
5.6	-0.000149295990284993	0.0122198870461	-0.759088065236622	-0.632952352316536	-0.758898641511913	-0.63312419606304	-0.0121254493214506	0.00314243614629892
5.7	0.0023164000337644	0.0118993815071907	-0.848101630696898	-0.507453329013817	-0.847972549335531	-0.507673028532966	-0.0116692127685529	0.00439954504509939
5.8	0.00462359066046047	0.0112792644937005	-0.916412722516116	-0.369570624415241	-0.91634506913099	-0.36985534975938	-0.0110741885191068	0.00569278207123343
5.9	0.00670044182933341	0.0100781123265606	-0.962595606138342	-0.222998745691621	-0.962610093620817	-0.223082285878673	-0.0104230393893826	0.00691352911886184
6	0.00849280222407655	0.00860329512521361	-0.985564252324231	-0.0709903869298568	-0.985445139498868	-0.071048398646479	-0.00971130006393769	0.00817969054132918
6.1	0.00984378236250929	0.00668822936251777	-0.984490667682452	0.0828052360652105	-0.984364213296556	0.0826569047676616	-0.00865435447173857	0.00926678246189234
6.2	0.0105880854042784	0.00455343795198656	-0.959555623687207	0.234598294259139	-0.959541989976002	0.234395732785467	-0.00750214481084187	0.00989548716256233
6.3	0.010640622989165	0.00210684455891338	-0.91147285420734	0.380598450270389	-0.911468379767417	0.380413367347247	-0.00630479945020821	0.0100080912794178
6.4	0.0101257574537348	-0.000317498110626036	-0.841327502292146	0.517387158250825	-0.841295913428343	0.517176793010824	-0.00536283754429051	0.00966688304039748
6.5	0.00905495863666645	-0.00273608193629918	-0.750746575582272	0.641605041463276	-0.750770729851068	0.641401260675248	-0.0046047055493132	0.00912245376043903
6.6	0.00772081048457662	-0.00477839922395228	-0.642058385406828	0.750309524573857	-0.642132213632491	0.750057770319515	-0.00396069563456943	0.00862656593017067
6.7	0.00591458177486899	-0.00653845786626564	-0.517752018645454	0.84076843529919	-0.517854741528653	0.84054762576398	-0.00362986192136794	0.00817682336557089
6.8	0.00400223235193753	-0.00765273927108623	-0.380970795396116	0.91087106358112	-0.381112262814013	0.910700624421036	-0.00344094456114586	0.0081090746679987
6.9	0.0019906909016394	-0.00833685992685221	-0.234970370034565	0.958818275825278	-0.235196670375561	0.958708088175606	-0.00295161488393875	0.0082656172952485
7	0.000253995997261997	-0.00850972654136621	-0.0833933731898232	0.983519659642834	-0.0836028766959452	0.983430035260021	-0.0021978973751283	0.00825269836099254
7.1	-0.00144806220989927	-0.00841568363054932	0.0702258972598406	0.984507213883629	0.070024210311971	0.984374216529383	-0.00140001295646171	0.00821221523866913
7.2	-0.00290928163244975	-0.00801772403172797	0.222139622639147	0.961570476206051	0.221857961970056	0.961536007062511	-0.000361685944549441	0.00819447701748257
7.3	-0.00436511156116645	-0.00748067148600638	0.368558907898749	0.915368413620471	0.368323234695056	0.915394623872412	0.000705621027926693	0.00792500930679431
7.4	-0.00549842670867676	-0.00664676688649589	0.506057788832758	0.847003427036383	0.505844728134436	0.847054483468186	0.00160513422216873	0.00739381895313817
7.5	-0.00641161239190787	-0.00579987287046908	0.631255003561261	0.758173781742617	0.631085723360083	0.758243326091883	0.0025787501934811	0.00682022095246761
7.6	-0.00685693797692696	-0.00483458959284532	0.741226407591252	0.65095916888856	0.74096922765409	0.651041423716331	0.00366666561360517	0.00577148588415385
7.7	-0.0071264378351406	-0.00375823586417823	0.833106656342224	0.528014248416268	0.83292137021459	0.528231072901876	0.00431479876882097	0.00449012586866216
7.8	-0.00688628835907459	-0.00266279278221126	0.904941179027616	0.392253553492614	0.904838213557228	0.392478639229867	0.0047345508590759	0.00300462301718235
7.9	-0.00654567951238218	-0.00165275472796538	0.95478505158681	0.247169710307948	0.954647066344835	0.247349109127821	0.00460477939352452	0.00156990334846706
8	-0.00593658305331135	-0.000743367544074413	0.981385758560291	0.0959776796643468	0.981362579926521	0.0962401283777848	0.00374213494085384	0.00038188059704624
8.1	-0.00532012050907648	0.000249325200052517	0.984381182930694	-0.0574406908666914	0.984409885030907	-0.0571853356149134	0.00259681873801395	-0.000153431611312901
8.2	-0.00431863095738744	0.00112829077292667	0.963420833717896	-0.209475255082189	0.96346884318231	-0.209158414414074	0.0014226212597753	-0.000260561463007104
8.3	-0.00326250157856147	0.0018163052478521	0.91918600249977	-0.356359073574517	0.919237019408001	-0.356072101340988	0.00038090681150154	1.29228268198531E-05
8.4	-0.00197754138740881	0.0022096090893115	0.852747792105209	-0.494639412367575	0.852845287633552	-0.494437460813646	-0.000464031658944225	0.000489546326934319
8.5	-0.000792545774999996	0.00236600276692341	0.765670174043217	-0.620856463958584	0.765721344313339	-0.620705760826733	-0.00105713943473989	0.00117666283266751
8.6	0.000578584437897176	0.00228881508819477	0.659888858001043	-0.732122160038964	0.660056966435923	-0.731884933270737	-0.00123584019635096	0.00212540028859031
8.7	0.00185577717408321	0.00201896845026291	0.538173224760923	-0.825545354823235	0.538432046466965	-0.825329652762928	-0.000906011829004931	0.00313427269466657
8.8	0.00335555113619996	0.00148997642342053	0.40363035602057	-0.898960589953214	0.403815403400643	-0.898821309379248	-0.000177246247043176	0.00388118939709559
8.9	0.00486014420159153	0.00057471513918205	0.259265940887686	-0.950707561659418	0.259444764823944	-0.95053730347998	0.00121239921858074	0.00448697098841535
9	0.00655306511615483	-0.00102964568640918	0.10850358711909	-0.979229271254781	0.108811744015868	-0.979182310783566	0.00318523030390634	0.00449867529493987
9.1	0.00789104808046681	-0.00309677894162069	-0.0446686776181112	-0.984155826683051	-0.0443596454300841	-0.98411443858442	0.00545278895531485	0.00369135599655282
9.2	0.00870361994869755	-0.00555554543189971	-0.196924014910745	-0.965188597730703	-0.196576519669015	-0.965165848087989	0.00753859465088714	0.00198033201074651
9.3	0.0086446367697251	-0.00771039314027762	-0.344272095052877	-0.922867197831514	-0.343920252539646	-0.922841184963404	0.00902491382366386	-0.000213363155286054
9.4	0.00828968069992109	-0.0094309728907109	-0.483169504942846	-0.858246021451414	-0.482846228078353	-0.858336413953886	0.00986249419322636	-0.00268928484914021
9.5	0.00761356681453499	-0.0105398890106352	-0.610358501746506	-0.772801101551792	-0.610121488956153	-0.772851027232226	0.00975505049374888	-0.00530641586939523
9.6	0.00707931824821762	-0.0115391319731136	-0.722873094170355	-0.668626434157898	-0.722561252390773	-0.668764672236732	0.0088959127158778	-0.00771615737224491
9.7	0.00629024303099754	-0.0121374606171981	-0.817755659761125	-0.548321308593257	-0.817467735137041	-0.548553851261902	0.00697970030675085	-0.0100706454391067
9.8	0.00549063823557288	-0.0125790183415819	-0.892850211212017	-0.414803492338969	-0.892596591423889	-0.414972088171687	0.00417902938876939	-0.0117246570422626
9.9	0.0046286272689191	-0.0125426804140132	-0.946352984106029	-0.271251157409883	-0.94610022937759	-0.271459612231541	0.000935596144884768	-0.0124306181896292
10	0.00390057909452272	-0.0124849059765409	-0.976887718013551	-0.121097699615858	-0.976733421714614	-0.121459931527588	-0.00250122772685607	-0.0121491050533094
10.1	0.00322321700363702	-0.012190027866108	-0.983675323838263	0.0319345924651115	-0.98361112030299	0.0315030036132724	-0.00577563226564046	-0.0108533929281649
10.2	0.00277188748920047	-0.0120322061237833	-0.96681985238588	0.184158070251262	-0.966697283163711	0.183726871034932	-0.00858689137122099	-0.00882365672660228
10.3	0.00223273018796204	-0.0118277395967782	-0.926472540345524	0.3319504981953	-0.926489165486727	0.331408726040822	-0.0109159255146427	-0.00636987109523708
10.4	0.00173898087636717	-0.0119966200360976	-0.863677704772646	0.471546478082735	-0.86381376118707	0.471034724086634	-0.0125657654856885	-0.00371820338712819
10.5	0.00103993449730231	-0.0120837730570332	-0.78005120388129	0.599786638384661	-0.780223803601039	0.599354203887467	-0.013400543867968	-0.0010326538088133
10.6	0.000158535968076285	-0.012207094970424	-0.677510857314451	0.713444867640733	-0.677783147080072	0.71311451962684	-0.0137113363574263	0.00173780192727269
10.7	-0.000620450495119769	-0.0118108602188704	-0.558597514209553	0.809904005312553	-0.558898028404919	0.809594306481174	-0.0130453259697269	0.0048612345439544
10.8	-0.000863800049309108	-0.0116889946634891	-0.426117088893767	0.886681217119707	-0.426467837192763	0.88638271292963	-0.0112227089354037	0.0077204327003445
10.9	-0.00123477287798421	-0.0115198673990005	-0.283401972988644	0.942008859331828	-0.283792285310863	0.941885742773845	-0.00893684806444541	0.00987463025838106
11	-0.00151281060334626	-0.0117900036491951	-0.13373987972711	0.974536636366416	-0.134176981785512	0.9744458807005	-0.0060576184752837	0.0112329895151993
11.1	-0.00193255959003257	-0.0119631601639551	0.019141369486577	0.983281963127682	0.0186525535186616	0.983295338584366	-0.00295283174541954	0.0118488402847604
11.2	-0.00242721124891162	-0.0123884641696629	0.171426546385441	0.968341914999407	0.17096938577037	0.968414917640021	0.000356991761858795	0.0116508433563557
11.3	-0.00310142349757666	-0.012690457492359	0.319506447540334	0.930007690881435	0.319047360925213	0.930144267460874	0.0036927897340077	0.0107237668769807
11.4	-0.00402295632960216	-0.0130269115618049	0.459934830681863	0.869163767373426	0.459530988677317	0.869276928726001	0.00667050424126079	0.00922153319163367
11.5	-0.0051024565806658	-0.0129361660984423	0.589122731268127	0.787087428016192	0.588804186499905	0.787389680007114	0.00909019218251475	0.00713807096924339
11.6	-0.00629043608234477	-0.0128816005333284	0.703936651332693	0.686131675394441	0.703721384077116	0.686459337125089	0.0108013973034072	0.0046581959198852
11.7	-0.0075483156775964	-0.0123039006815327	0.801807768331837	0.568608795306895	0.801604623728149	0.568915234600661	0.0118315429463045	0.00194096213460472
11.8	-0.00889465795162938	-0.0116085013331461	0.880345860301563	0.437164225451911	0.880164141531595	0.437614892028615	0.0119966469557961	-0.000917127742161804
11.9	-0.0100244294486004	-0.0103308653132525	0.937436345009975	0.295280932535709	0.937330602531766	0.295730687125146	0.0112788838194811	-0.00342052964018091
12	-0.0114043578770181	-0.00899541254442422	0.971855740970141	0.146378504643421	0.971827019632875	0.146742838364591	0.0100331087323753	-0.00567027673695574
12.1	-0.0121336367070541	-0.00719842976827907	0.982706980835173	-0.00620302201347375	0.982636113834887	-0.00581843267647628	0.00847153122956437	-0.00750875890167192
12.2	-0.0127276240098881	-0.00559442067296517	0.969775819966462	-0.158635255396114	0.969793378139096	-0.158337290121156	0.00643962265967048	-0.0089293118310363
12.3	-0.0130317690252363	-0.00380787919358572	0.933205462524995	-0.307122041396188	0.933325028125777	-0.306815466962647	0.00425579994411671	-0.00992404638869
12.4	-0.0132303148285851	-0.00219274037689284	0.874416646659834	-0.448160283334923	0.874479843250798	-0.447790689216391	0.00193674764237699	-0.0104588971374072
12.5	-0.0129466321994701	-0.0005597470560848	0.794168815536975	-0.578423497179844	0.794509335099464	-0.578033103461183	-0.000410530130194206	-0.0106116168085333
