# GHZ S RI R 50
0.2	-0.000283647479838704	-0.000183748236501685	0.949241742926117	-0.307914291045329	0.949019450054194	-0.307888872177242	-0.000269499326460634	-9.72305825501607E-05
0.3	-0.00040807858978021	-9.98911199909189E-05	0.88932023323198	-0.451585695386267	0.88916400246444	-0.451490320850398	-0.00046056825365863	-0.000214247120508677
0.4	-0.000295060982513908	-9.19060728519923E-06	0.807909739105178	-0.583896107465417	0.807921536648997	-0.583921227614617	-0.000480059477459035	-0.00017930796102235
0.5	-0.000309548953580417	4.79062808392026E-05	0.707199731302482	-0.702298549179209	0.707044662688096	-0.702197071019885	-0.0004635494418317	-0.000124214221003134
0.6	-0.000287854665172556	0.00011452889978486	0.589230449463072	-0.803364974582634	0.589111152118932	-0.803203247888613	-0.00051191417205958	-0.000158502741671175
0.7	-0.000243079910895663	0.000338106463945101	0.457149865111144	-0.884767739651123	0.457131079235271	-0.884655222586284	-0.000494907818145394	-0.000160251457915639
0.8	-4.67436139716244E-07	0.00036981426695439	0.314108080360419	-0.944825687917342	0.314076686053264	-0.944635912981586	-0.000534623501894664	-9.74272739353333E-05
0.9	0.000148675167972056	0.000455832735713409	0.163517289647788	-0.981860612763514	0.163452225595097	-0.981768684402875	-0.00065195659480461	-0.00012248519953171
1	0.000374512464432865	0.000336103910796181	0.00903626787166432	-0.99500072432167	0.0089846064020324	-0.994969254919528	-0.00069471830093141	-9.15703027906341E-05
1.1	0.000516255081632203	7.77354106846234E-05	-0.145441477777005	-0.98426467606112	-0.145457243671174	-0.98413420802365	-0.000888879527233917	-8.2405651187814E-05
1.2	0.000743700859002218	-0.000836578928776443	-0.29662100383477	-0.949504000364793	-0.2965446149156	-0.949477895888269	-0.000645780033950583	0.0003200917390055
1.3	0.00081191716495686	-0.00244696267312609	-0.440380706781535	-0.891704224413	-0.440357669347501	-0.891697608302873	0.000577258614952832	0.00087373159078043
1.4	0.00059565582653475	-0.0043473922559579	-0.573172174555946	-0.812381676494197	-0.573147994836322	-0.812360038681047	0.00225628263843463	0.000500162736298101
1.5	0.000177696141846228	-0.00527824179311887	-0.692368747001912	-0.713409313314843	-0.69226696754059	-0.713324333166394	0.00373993293441349	-0.000586649575774631
1.6	-0.000357591319953965	-0.00555352187972295	-0.794604315775021	-0.59705621662336	-0.794530227411599	-0.596996181010181	0.0036500368505282	-0.0018427298487558
1.7	-0.000819155201126038	-0.0053597721064789	-0.877125651941498	-0.466849349062653	-0.877289894942615	-0.46633308134788	0.00328282414291921	-0.0027200855905676
1.8	-0.00141750534955695	-0.00514363819689737	-0.939014129258821	-0.324550482489188	-0.938902848935702	-0.324549139777124	0.00246858814065665	-0.00352924728303439
1.9	-0.00199914527962395	-0.00474664710111818	-0.977771701810283	-0.175256773919611	-0.977864504101714	-0.174769077650291	0.00152543120320018	-0.00393846335183078
2	-0.00259991005376182	-0.00438317268439819	-0.992882311931457	-0.0207479189000716	-0.992894232944204	-0.0207020506753298	0.000743117760382469	-0.00421577706526239
2.1	-0.00323676625842308	-0.00385073773830877	-0.983884821275987	0.133626344995099	-0.983922918160417	0.133663461718163	-0.000206065843310139	-0.00425614579310112
2.2	-0.00396809004696479	-0.00330366060619799	-0.951183168968344	0.284617964388716	-0.9511080344489	0.284680746087433	-0.000852144178055597	-0.00407977232078747
2.3	-0.00464437568283724	-0.00255630961313605	-0.895562646749134	0.428185114735167	-0.895180118034519	0.42869827449689	-0.00152963314267166	-0.00405136426209271
2.4	-0.00535453322727291	-0.00171546865619021	-0.817321049463415	0.563022986626611	-0.817588063791988	0.562437158907479	-0.00234402619058364	-0.00392668663455659
2.5	-0.00577594393135441	-0.000573367683592269	-0.720185966600688	0.682914075252601	-0.720399985261023	0.682404254647232	-0.00280809682359427	-0.00393450985366141
2.6	-0.0059625733984362	0.000622949881696951	-0.605758289222666	0.785987642147079	-0.605652275616562	0.785804807330216	-0.00321718352853986	-0.00377286614998261
2.7	-0.00560815494106	0.00180541468788936	-0.47581442438287	0.870608359096782	-0.476263909356692	0.870201711702627	-0.00350895712019704	-0.00353435522938753
2.8	-0.00474126590650881	0.00267798535776933	-0.3361155859554	0.933328378603142	-0.335447639745824	0.933486632867278	-0.00377883841388819	-0.00321268485041547
2.9	-0.00330598410486607	0.00315179234901139	-0.186559189308612	0.974145262504582	-0.18659052690523	0.974057912276239	-0.00346212351979205	-0.00249379930943677
3	-0.00181790473439205	0.00310370846633389	-0.032285052048304	0.991241433642911	-0.0329863893240245	0.991083616267486	-0.00285301826537628	-0.00186855373318012
3.1	-0.000295326993778311	0.00276797705178647	0.120522758774192	0.984139502618814	0.12111347215986	0.984120973219331	-0.00191001440796785	-0.00148944253039334
3.2	0.000874065690452476	0.00194014300641364	0.272370948956631	0.95325337771302	0.272316064665905	0.953193133460152	-0.00126967542199581	-0.00142627651860836
3.3	0.00194568221122097	0.000923440770991223	0.417179292173298	0.899237284580438	0.417042094650328	0.899223276542766	-0.000469696643331566	-0.00148669024081344
3.4	0.00254089488590625	-0.000350543866282857	0.551643396062422	0.823476207120791	0.551481336287169	0.823594386508335	0.000403926014611822	-0.00204395548215417
3.5	0.00293796630141739	-0.00167072513314492	0.672646460265351	0.727892347360055	0.672566932849847	0.727931238499148	0.00096543459295618	-0.00275155749249318
3.6	0.002743387338555	-0.00296072735224198	0.776973512080308	0.615042783790656	0.777213641474988	0.614593701332927	0.00117286367869198	-0.00352419429726092
3.7	0.00236278763503599	-0.00420592346893608	0.863240643145285	0.486313682648839	0.863122642487769	0.48645700568837	0.00120702375615617	-0.00422453291613263
3.8	0.00150090760022749	-0.00529099446281114	0.927947067658153	0.346907268338844	0.928003070908376	0.346528025387023	0.000991265756387764	-0.00500380979926466
3.9	0.000608937104558432	-0.0061683658491361	0.970597237411912	0.19747523085952	0.970360297375597	0.198143037586889	0.000183037401071408	-0.00597097726703022
4	-0.000735355153491701	-0.00679372034466917	0.989371131220417	0.0452008322510191	0.989332416901882	0.0453037538685011	-0.000578336086236885	-0.00664136825398953
4.1	-0.00217963545072196	-0.00723518174533728	0.984373394058198	-0.108885112534416	0.984189248707121	-0.10875759909487	-0.00155223254883994	-0.00727258401932739
4.2	-0.00403351302180686	-0.00732079706325076	0.955094337222378	-0.260981209715214	0.955130859831431	-0.260327841583537	-0.00265612305811322	-0.00774496655353566
4.3	-0.00588653807400955	-0.00718041912351463	0.903204539518804	-0.405391183335692	0.903069016861035	-0.405279815928943	-0.00393947238917898	-0.00828312113804673
4.4	-0.00798347199958761	-0.00650694945383305	0.829239020000601	-0.540551573373173	0.829074241834896	-0.540417957956554	-0.00550626056055954	-0.00858435016166524
4.5	-0.00987410236368453	-0.0054282446515124	0.735255183590782	-0.662664936060543	0.735066904250309	-0.662491492239968	-0.00712491513989945	-0.00867147324664671
4.6	-0.0117506809356428	-0.00379196332652753	0.622936435070874	-0.769070160257405	0.623279536894054	-0.768373527712182	-0.00894964066950685	-0.00856839007919191
4.7	-0.0131601031751184	-0.00188473235596093	0.496374793827483	-0.856077697954489	0.4963919661322	-0.855722186199811	-0.0108565523678834	-0.00824151338343109
4.8	-0.0141721967823637	0.000580000768138177	0.357198893873459	-0.922482061783955	0.357420881211957	-0.922166350914163	-0.0125822915370503	-0.0075043196304511
4.9	-0.0142432222288449	0.00307374991872779	0.21012592481449	-0.966091784839216	0.209906108326507	-0.966099135557682	-0.0138392720905523	-0.00637062879291816
5	-0.013568014122972	0.00551658966184152	0.0574907853965861	-0.986801234454913	0.0576682786617782	-0.986556485470781	-0.0144211122099557	-0.004753813729018
5.1	-0.0120120929651539	0.00758597726514144	-0.0961054589854709	-0.983776903563632	-0.0957737361202273	-0.983552447388236	-0.0144428955069468	-0.00313716971182715
5.2	-0.0100325749424284	0.00940300150536306	-0.247684244878211	-0.956866844514118	-0.247192813345912	-0.956840916578751	-0.0142566720778776	-0.00151883325451322
5.3	-0.00771082497724346	0.0106050837564208	-0.393074065237335	-0.906790307227153	-0.392734122351291	-0.907006851433205	-0.0136780205539282	-6.70801733591962E-05
5.4	-0.00522891536624972	0.011610827973103	-0.529024049566414	-0.834798653351431	-0.528811849678917	-0.834999520841325	-0.0130660235248211	0.00119532715662719
5.5	-0.00266264475437125	0.0120375274337655	-0.652127196207877	-0.742495857891025	-0.651888815719093	-0.74269071697819	-0.0125137055686344	0.00220218648866201
5.6	-9.89767616991783E-05	0.0123067183163365	-0.759234241536101	-0.632182978718263	-0.759045009743707	-0.632354887499387	-0.0120768071633718	0.0032410067905693
5.7	0.00237527478220073	0.011929701840086	-0.848075054982519	-0.506661085442413	-0.847946177816144	-0.506880776467121	-0.0116086948180228	0.00444163948899979
5.8	0.00466989616502218	0.0112771219057641	-0.91621172185925	-0.368793888858819	-0.916144287028894	-0.369078520944325	-0.0110235280350077	0.00570271136770856
5.9	0.00673397592772286	0.0100620910832799	-0.96222683558684	-0.222276854653977	-0.962241367826789	-0.222360341594197	-0.0103823831134344	0.00690891665335489
6	0.00852354925156501	0.00856657197756593	-0.985046005439078	-0.0703526051467197	-0.984926995598508	-0.0704106560159573	-0.00967042051484647	0.00815332312740411
6.1	0.00985009362760014	0.00663414063938622	-0.983831544645977	0.0833237723770737	-0.983705254626704	0.0831754599597522	-0.00863507063399005	0.00922061287836182
6.2	0.0105727588085339	0.004489823314207	-0.958789639725269	0.234964919622977	-0.958776125405337	0.234762485445666	-0.0075026247441654	0.00983669784101076
6.3	0.0106021423130867	0.00203702158231497	-0.910634301578273	0.380793382543508	-0.910629924547043	0.380608428258879	-0.0063271896709533	0.00994210059017513
6.4	0.0100422439176719	-0.000387367288669396	-0.840453544381366	0.517398430266611	-0.840422078687156	0.517188207373752	-0.00542975920159524	0.00959780821046183
6.5	0.0089089454968583	-0.00277041911055988	-0.749868335846691	0.641421480944743	-0.749892559810465	0.641217873064727	-0.00473394534108151	0.0090858606686826
6.6	0.00754293254069933	-0.00470629781357074	-0.641233276642332	0.749920884650881	-0.641307138093111	0.749669370403319	-0.00412202737011977	0.00869329790022896
6.7	0.00581755653269942	-0.00635255730472856	-0.517032384390649	0.84019741396886	-0.517135087518304	0.839976830141515	-0.00371102647544862	0.00835392329831257
6.8	0.00404580229953234	-0.00746177940548203	-0.380395573385372	0.910153384997543	-0.380536957952468	0.909983134806925	-0.00338338623575082	0.00828780270937456
6.9	0.00211869255302413	-0.00822450674927695	-0.234559880099686	0.957991008392014	-0.234785996386027	0.95788096759517	-0.00281767714609618	0.0083634320744274
7	0.000394097307033237	-0.00848707613550417	-0.0831707880624479	0.982612580787226	-0.0833801089195815	0.982523070996413	-0.00205438629600354	0.00826023768085875
7.1	-0.0013280668930559	-0.00845396941314524	0.0702496402456886	0.983569529867996	0.0700481318929366	0.983436676793862	-0.00127919584830367	0.00815851424279173
7.2	-0.00281815986648592	-0.00809980103080478	0.221961783018505	0.960637376911893	0.221680391963605	0.960602951412723	-0.000272585545054505	0.00809686196869047
7.3	-0.00430857416763508	-0.0075969072250267	0.368179088873105	0.914482455412359	0.367943645262546	0.914508634949979	0.00075727735360145	0.00779346427336433
7.4	-0.00548221152236949	-0.00678955447898953	0.505484116501876	0.846208242370318	0.50527126236845	0.846259229980206	0.00161054584491105	0.00723698667831856
7.5	-0.00645641266960663	-0.00596816796322056	0.630510124135201	0.757520158908115	0.630341001031656	0.757589607790514	0.0025225852048161	0.00664008222046854
7.6	-0.0069915659544714	-0.00499984076717234	0.740347514953739	0.650473865672928	0.740090572712504	0.650555982603225	0.0035211134372429	0.00559234165475376
7.7	-0.00735327798128457	-0.00387254040955716	0.832124156893286	0.52772979231242	0.831938992459497	0.527946347228405	0.00407393373330093	0.00436911633007422
7.8	-0.00718630987948305	-0.00264758321955655	0.903901343320119	0.392197593785195	0.903798397114317	0.392422418901299	0.00441834675551836	0.00301463812141596
7.9	-0.00682819613280465	-0.00145321244315958	0.953753666167429	0.247360080215076	0.953615733404669	0.247539244145679	0.00434863266432139	0.00179711818768181
8	-0.00599063863538739	-0.000379593120808758	0.98042040491648	0.0964018563973891	0.980397110526244	0.0966640482519563	0.00365334755029247	0.000747844720159022
8.1	-0.00515123249387744	0.000539706473976816	0.983530828237574	-0.0568133934659902	0.983559355219022	-0.0565582507302247	0.0027726008403352	0.000136572972982146
8.2	-0.00403986156833827	0.00122842782296424	0.962726012370384	-0.208675283200555	0.962773776726745	-0.208358684467751	0.00170279548930842	-0.00016089162551518
8.3	-0.0030083315526412	0.00174961382513055	0.918677316439118	-0.355420971636477	0.918728090170956	-0.355134200426265	0.000635944833593254	-5.39675203304063E-05
8.4	-0.00180033297090568	0.00204258177666529	0.852453874158152	-0.493605019338321	0.852551140127593	-0.493403152284588	-0.000285711589379896	0.000321872929277229
8.5	-0.000691823238530779	0.00214017999246411	0.765602646460792	-0.619771339456	0.765653656176866	-0.619620707283576	-0.000954958639839665	0.000949326175959766
8.6	0.000586565910572551	0.00202098986195727	0.660068164264244	-0.731032349308656	0.660235947431976	-0.730795141320391	-0.00122631119008526	0.00185443592873854
8.7	0.00175990334442818	0.00173565123627858	0.538595184599267	-0.824512772443609	0.538853638843823	-0.824296968341518	-0.000999676069040413	0.00284877940032933
8.8	0.00313647741754119	0.00121446404264105	0.40427773182207	-0.898038236668749	0.404462534116409	-0.897898855697428	-0.000395364904066223	0.00360024549413637
8.9	0.00449178073466793	0.000361263436143537	0.260109782401616	-0.949943849491154	0.260288337543933	-0.949773496056657	0.000842627470671539	0.00426544158127356
9	0.00604285905076879	-0.00108322017918006	0.109513253784584	-0.978664389758298	0.109821219054422	-0.978617117408861	0.00266984154417495	0.00443428067983606
9.1	0.00732944003672286	-0.00287925732950077	-0.0435476967846859	-0.983837747586965	-0.0432388266544424	-0.983796028225311	0.00488331828278162	0.00390394334843393
9.2	0.00831966298866901	-0.00500508243585854	-0.19575746071939	-0.965134518007784	-0.195410092586536	-0.965111375580574	0.00714496562267764	0.00252764103980317
9.3	0.00869597239460597	-0.00703712167670813	-0.343126338129471	-0.92307403517838	-0.342774599706916	-0.923047618483617	0.00906574834987107	0.000460360322974648
9.4	0.00871152164521428	-0.00901979529876924	-0.482097812777557	-0.858693789718142	-0.481774474543567	-0.858783791137128	0.0102769838083405	-0.00227670153233113
9.5	0.00806493345511763	-0.0105116252333554	-0.609397279929179	-0.773472311795593	-0.609160224411426	-0.773521952281577	0.0102005544903032	-0.00527589087213431
9.6	0.00736534930705695	-0.011705752426252	-0.722068521184194	-0.669493750703885	-0.721756513850518	-0.669631613873727	0.00917787142798052	-0.00788135119035132
9.7	0.00642362116972105	-0.01235696631602	-0.817145763263879	-0.549357769344328	-0.81685753441559	-0.549589977624764	0.00711073781229069	-0.0102903558310232
9.8	0.00551434718619694	-0.012795225395183	-0.892475311572377	-0.415967866018052	-0.892221445089679	-0.41613617491839	0.0042011565068672	-0.0119434586826567
9.9	0.00457489786684181	-0.0127348715874836	-0.946244152313892	-0.272491031649187	-0.945991078000263	-0.272699222955078	0.000881635075769838	-0.0126277074737962
10	0.00378590901415545	-0.0126570148317586	-0.977064802777972	-0.122345060756882	-0.976910007365085	-0.122707223194532	-0.00261784362150182	-0.012329838363778
10.1	0.00303090184629452	-0.0123238211467238	-0.984127717229621	0.0307408034787538	-0.984062957060829	0.0303091121173086	-0.00597293445326144	-0.0109983823076748
10.2	0.00250805119100968	-0.0120943210679663	-0.967540429845472	0.183078986430325	-0.967417274127181	0.182647714346236	-0.00885995447178443	-0.00889857198271668
10.3	0.00191165918542795	-0.0117692731434237	-0.927433398998937	0.331051177532723	-0.927449389824381	0.330509054627467	-0.0112506739680463	-0.00632452519047821
10.4	0.00142530142953745	-0.0117522471499004	-0.864832828948276	0.470886998363388	-0.86496839295668	0.470374724878253	-0.0128973655481654	-0.00348565312886212
10.5	0.000887397375721867	-0.0116409188978117	-0.781326729721762	0.599408645607086	-0.781498993037048	0.598975679048404	-0.013572880860676	-0.000600113732220792
10.6	0.00042620441036845	-0.0117339294760257	-0.678841397047631	0.713357759397043	-0.679113578829996	0.713026841383159	-0.0135140676269661	0.00227954386773203
10.7	-8.59479569071444E-05	-0.0116219713279153	-0.559911162408248	0.810103949694558	-0.560211650014223	0.809793668702006	-0.0125714397158642	0.0051356759813396
10.8	-0.000479474543905695	-0.0117743207623827	-0.427368608170235	0.887158580510631	-0.427719423587779	0.886859452838568	-0.0108803027410464	0.00763488843038932
10.9	-0.00104562777429579	-0.0117622781479526	-0.284539116080024	0.942748774689499	-0.284929729885451	0.942625180973142	-0.00877299686988974	0.00965292488244166
11	-0.00148170639430918	-0.0120047185664962	-0.134710222579896	0.975519531336878	-0.13514773958543	0.97542830585607	-0.0060490961608165	0.0110438226958936
11.1	-0.00197332482993729	-0.0121071151444802	0.0184014866923738	0.98447979240555	0.0179120722600325	0.984492804684829	-0.0030107993128129	0.0117349781027054
11.2	-0.00248479490969392	-0.0124744443373965	0.170967872840618	0.969692088178255	0.170510080339242	0.969764864198267	0.000288219177192264	0.0115986602104991
11.3	-0.0031361119041506	-0.0127352313763946	0.319355541147528	0.931440270976135	0.318895760433585	0.931576744984679	0.00364778596051378	0.0107280432775669
11.4	-0.00404738602143151	-0.0130552971031715	0.460108211667067	0.870608466976618	0.459703751824939	0.870721570040784	0.00664657723820799	0.00924120000916431
11.5	-0.00512997716276148	-0.0129621028827142	0.589620573201332	0.788477850994226	0.589301437494423	0.788780396101781	0.00907524414561052	0.00714928210811843
11.6	-0.00631844440119364	-0.0129039125359605	0.704743092918305	0.687382428152225	0.704527397091601	0.687710500502077	0.0107940336173211	0.00467070644723909
11.7	-0.00757764472213453	-0.0123208735520064	0.802877798821038	0.569653359847415	0.802674276289676	0.569960211453057	0.0118305851639627	0.00195411926515695
11.8	-0.00892282699333811	-0.0116109188829829	0.881622495566086	0.43794792995669	0.881440439462684	0.438399255813072	0.0120032598622982	-0.000894155397677729
11.9	-0.0100362983283728	-0.010300896836717	0.938850700103524	0.295774142277909	0.938744775715819	0.29622457710269	0.0112970239673041	-0.00338458697209376
12	-0.0113649596368817	-0.00899041803851279	0.973349418584708	0.146566635820612	0.973320666760384	0.14693152853937	0.010107181188825	-0.00565997218696074
12.1	-0.0120994919912977	-0.00724268822456707	0.984225685195586	-0.00632319601178794	0.98415475189904	-0.00593800405533115	0.00853845476566609	-0.00755877482729791
12.2	-0.0127309528582668	-0.00566706095131928	0.971269409995907	-0.159082246090303	0.971287056447641	-0.15878381554988	0.00646649097663068	-0.00901367429946343
12.3	-0.0130744312983085	-0.00386951185400011	0.934594221575153	-0.307901853494265	0.934714073065678	-0.30759482865195	0.00423918111150728	-0.010003128517729
12.4	-0.0132894901416959	-0.00222200611713898	0.875618860525421	-0.449249857343574	0.875682316366237	-0.448879700955516	0.00189804671360394	-0.0105101245343375
12.5	-0.0130536872984556	-0.000478792989778906	0.795109271989998	-0.579780299179898	0.795450547671549	-0.579389474211172	-0.000525306273342423	-0.0105732507562921
12.6	-0.012537661610752	0.00096215650328178	0.695383656118892	-0.69601052353618	0.695635782996448	-0.695767747262218	-0.00283415020201021	-0.0101771255302007
