# GHZ S RI R 50
0.2	-0.000251789615125821	-0.000140705036306572	0.949230521445271	-0.30794182245911	0.949008229814045	-0.30791639704167	-0.000237623511440109	-5.41995357886633E-05
0.3	-0.000353951079683515	-4.87210750657035E-05	0.889291605195888	-0.451619142235223	0.88913538014584	-0.451523761990145	-0.000406442105693551	-0.000163081642845892
0.4	-0.000215396930853772	3.94078568135766E-05	0.807861420639279	-0.583926280056781	0.807873216599648	-0.58395140028772	-0.000400390427407737	-0.000130685927108909
0.5	-0.000214735293739306	8.48139151007951E-05	0.707139979194093	-0.702318850102573	0.706984920705071	-0.702217366009319	-0.000368746458507429	-8.72939883778522E-05
0.6	-0.00017237355870899	0.000142319670620538	0.589152539023613	-0.803377599360178	0.58903325739032	-0.803215870073026	-0.000396451697165823	-0.000130685250113334
0.7	-0.000115931351051308	0.000341137561852236	0.457057823088045	-0.884758830117199	0.457039046939067	-0.884646317249713	-0.000367818516581636	-0.000157176671533305
0.8	0.000122148394242904	0.000349413730248142	0.314010095407965	-0.944791318091365	0.313978718765889	-0.944601552667664	-0.000412046939039789	-0.000117758895337115
0.9	0.000252677718363585	0.000419595261869133	0.163422287415919	-0.981799697221367	0.163357236050586	-0.981707770374196	-0.000548001791224695	-0.000158604828335893
1	0.000425580466553564	0.000296853502172424	0.00894571620149691	-0.994918227403559	0.008894061908255	-0.994886755969498	-0.000643693168561446	-0.000130584066436147
1.1	0.000486994207588645	0.000114777787979324	-0.145520040557044	-0.984149631382784	-0.145535792422836	-0.984019175263299	-0.000918121743345447	-4.5051516228808E-05
1.2	0.000634732581284242	-0.000636918692833728	-0.296674769061708	-0.949366067800952	-0.296598386586407	-0.949339973458331	-0.000754652458423547	0.000520148623682114
1.3	0.000678862368875594	-0.00199254860298032	-0.440405972960505	-0.891549160457805	-0.440382937873205	-0.891542547315579	0.000444555518481918	0.00132800515366204
1.4	0.000568034992075306	-0.00372557060719477	-0.573166471481449	-0.81221593183751	-0.573142293149873	-0.812194299257551	0.00222906698391924	0.00112126744745139
1.5	0.000287296059647099	-0.00470049340192658	-0.692326590963522	-0.713231313810003	-0.6922248195651	-0.713146356690867	0.00384953533473391	-9.65224164489976E-06
1.6	-0.000157266353988409	-0.00513857119835488	-0.794513595935138	-0.596882512883923	-0.794439515649267	-0.596822494253733	0.0038501935413693	-0.00142945311632912
1.7	-0.000607837803763585	-0.00510091305209934	-0.876993355699875	-0.466689993166643	-0.877157526217734	-0.466173812066943	0.00349357019497117	-0.00246228728682153
1.8	-0.00122295350214574	-0.0049946934607588	-0.938841226384642	-0.324413318351975	-0.93872996927785	-0.32441198412859	0.00266263622391184	-0.00338096776441412
1.9	-0.00183467728286305	-0.00467744465757036	-0.97756042289389	-0.175149838429625	-0.977653170613028	-0.17466224718596	0.00168928389472896	-0.00386988338855212
2	-0.00247982403342021	-0.00435407706931636	-0.992632928175382	-0.0206879921239162	-0.992644843651596	-0.0206421348260496	0.000862413251827349	-0.00418710984950744
2.1	-0.003133907184765	-0.00384397128757141	-0.98361879436773	0.133630407442603	-0.983656879670105	0.133667515853164	-0.000104008673842566	-0.00424961467582276
2.2	-0.00389221398152099	-0.00331598549578989	-0.950906688533832	0.28456382260206	-0.950831573502297	0.284626584493363	-0.000777247645319759	-0.00409217402587658
2.3	-0.00459537011111859	-0.00257211980466037	-0.895288959932833	0.428066260439497	-0.894906540529386	0.428579261879863	-0.0014817825946311	-0.00406695770981804
2.4	-0.00533344934963578	-0.00172510764564667	-0.817066016292242	0.562835550625946	-0.817332939796301	0.562249907037399	-0.00232402165643055	-0.00393575800145186
2.5	-0.00579961158184567	-0.000553653011164069	-0.719974091671043	0.682661940344616	-0.720188020672579	0.682152279817339	-0.00283297856983036	-0.00391372597374986
2.6	-0.00600871898768193	0.000713922065628125	-0.60559630375384	0.785686490235736	-0.605490315959423	0.785503723521828	-0.00326463961064982	-0.00368034762265446
2.7	-0.0056508903927688	0.0019797962281018	-0.475717532486858	0.870261761573386	-0.476166825334447	0.869855221096613	-0.00355274651762596	-0.00335782311795065
2.8	-0.00474755953406239	0.00293399563302492	-0.336097109535948	0.932952522778056	-0.335429423181375	0.933110793674873	-0.00378560219284919	-0.00295426746998142
2.9	-0.00324821405695828	0.00346698768828211	-0.186629692890261	0.973760115787935	-0.186661006468044	0.973672793229721	-0.00340346729743264	-0.00217711660862085
3	-0.00167710256831953	0.00344391589544619	-0.0324415285788381	0.99087331901106	-0.0331425824792846	0.990715440302411	-0.0027112077972357	-0.00152745127353736
3.1	-7.12742011223258E-05	0.00308813205665016	0.120281711563485	0.983796134866599	0.120872208132033	0.98377773006396	-0.00168622123647223	-0.00116465994681151
3.2	0.00116575894762082	0.00221131721450789	0.272047470285442	0.952964449016693	0.271992620372935	0.952904214221935	-0.000976837912628881	-0.00115471990231819
3.3	0.00228518781133883	0.00112473504734539	0.416787953982395	0.899021521187536	0.416650810076046	0.899007481678414	-0.000129031160151103	-0.00128547567715256
3.4	0.00290104956280534	-0.000231891794083911	0.551203656976253	0.823349408621375	0.551041619295092	0.823467498072342	0.000764989945813306	-0.00192561495482609
3.5	0.00329492337357387	-0.00162790716055638	0.672177121532031	0.727857236185383	0.672097609154208	0.727896088066633	0.00132299792227832	-0.0027089952414983
3.6	0.00307983874289168	-0.0029940495338548	0.776489826892841	0.615115358671352	0.776730037140321	0.614666514206257	0.00150981700386562	-0.00355800660462546
3.7	0.00265733576626132	-0.00430206791806575	0.862773614010072	0.486495529382712	0.862655595105552	0.486638760304063	0.00150180710147073	-0.00432120161378424
3.8	0.00174679936911729	-0.00543322096142975	0.927519627233095	0.347191954080039	0.927575772865919	0.346812849771611	0.00123713260626085	-0.00514635309059297
3.9	0.000801639067306965	-0.006345510535654	0.97023112521831	0.197852757054517	0.969993954358296	0.198520266685138	0.000375718159783629	-0.00614838150661622
4	-0.000602575267407459	-0.0069848692250222	0.989081580606971	0.0456638128757776	0.989042827333761	0.0457666880350995	-0.000445809461717891	-0.00683252556839579
4.1	-0.00209016823209247	-0.00742842487993101	0.984191497434554	-0.108356115496328	0.984007331391446	-0.108228726866876	-0.00146321623634227	-0.00746550863875113
4.2	-0.00398929877266046	-0.00750875164708882	0.95502879384686	-0.260413803276153	0.955064958820275	-0.25976055600878	-0.0026126041489337	-0.00793189983016005
4.3	-0.00588043074427372	-0.00734907938399546	0.903262454234162	-0.40480919330313	0.903126894570029	-0.404697922690344	-0.00393331397062196	-0.00844945782768324
4.4	-0.0080029855207874	-0.00664907260886486	0.829423683966773	-0.539979774739662	0.829258853756597	-0.539846277115743	-0.00552495440986091	-0.00872353300100587
4.5	-0.00991584225832087	-0.00553506667732477	0.735572541493642	-0.662132699854307	0.735384178580608	-0.661959392782888	-0.00716475448245596	-0.00877503249576939
4.6	-0.0117858986990349	-0.0038510060494116	0.623367357611633	-0.768613849186869	0.623709992678185	-0.767917059662913	-0.00898125872195138	-0.00862540213619939
4.7	-0.0131750932457898	-0.00190948448703608	0.496903986554983	-0.855714668121668	0.496920928126357	-0.855359162726846	-0.0108668050264676	-0.00826469360054577
4.8	-0.0141608344948166	0.000575302695042877	0.357807742231485	-0.922235023983077	0.358029517535898	-0.921919169042841	-0.0125657096231415	-0.00750744494606364
4.9	-0.0142074049168314	0.0030723604976941	0.210790385132334	-0.965979351128517	0.210570566678897	-0.96598685174934	-0.0137971042265194	-0.00637172128073643
5	-0.0135252627839411	0.00551010864196777	0.0581745055888621	-0.986841059083706	0.0583518447038219	-0.986596168262149	-0.0143714289087781	-0.00476156375561984
5.1	-0.0119795914279545	0.00757312843021758	-0.0954334828714635	-0.983961243369686	-0.0951018762968733	-0.98373652991054	-0.0144033782507459	-0.00315301268059
5.2	-0.0100258878565999	0.00939602098038118	-0.247053076027702	-0.957199513839888	-0.246561581222354	-0.957173236355202	-0.0142432179028168	-0.00153067268042742
5.3	-0.00772838426012861	0.0106179745815633	-0.392519124456005	-0.907262111938532	-0.392178955912556	-0.907478462959765	-0.0136895382278736	-6.07474481342873E-05
5.4	-0.00526154305001177	0.0116510753057007	-0.528578821183266	-0.83539176615375	-0.528366423929072	-0.835592538119456	-0.0130935767312425	0.00122727768577768
5.5	-0.00269217989254252	0.0121152476176605	-0.651816515979647	-0.7431765959549	-0.651577926942651	-0.743371350807246	-0.0125395166048567	0.00227002687983709
5.6	-0.000103056552105247	0.0123972780098746	-0.759071031721212	-0.632930620570626	-0.75888161415107	-0.63310246073943	-0.0120787107766078	0.00331994090285731
5.7	0.002388843419976	0.01202700256069	-0.848080199648752	-0.507441636191429	-0.847951121217975	-0.507661330181881	-0.0115965719692594	0.00452690058306352
5.8	0.00470406431727209	0.0113715681932469	-0.916390143221084	-0.369565600713239	-0.916322490257727	-0.369850319261256	-0.0109932543877584	0.00578513076911368
5.9	0.00678531291344946	0.0101476805368938	-0.962573446770555	-0.222998942895078	-0.962587933446321	-0.223082481392976	-0.0103377549082823	0.00698246278829104
6	0.00858625634162052	0.00865765934341789	-0.985543331258618	-0.0709947380572823	-0.985424220522991	-0.0710527479324263	-0.00961769732921853	0.00823377606237215
6.1	0.00995599138930795	0.00673080242534253	-0.98447158939205	0.0827977284508264	-0.984345136606334	0.0826494007840067	-0.00854195438120019	0.00930898006811043
6.2	0.0107320182835776	0.00457803545965195	-0.959538425505282	0.234588687318495	-0.959524790965286	0.234386129746968	-0.00735843221238873	0.00991952402345362
6.3	0.0108189369534443	0.00209431416012735	-0.911454230282801	0.380587847212926	-0.911449755448714	0.380402768238986	-0.00612648320869445	0.00999563270585883
6.4	0.0103027615471933	-0.000382529798603381	-0.841307246718859	0.517374056194285	-0.84127565851464	0.517163696069302	-0.00518576298642155	0.00960203656796648
6.5	0.00917475035618845	-0.00282626903441329	-0.750723027424015	0.641584728838313	-0.750747180913997	0.641380954428569	-0.00448437727696973	0.00903285656434302
6.6	0.00777746929079645	-0.00481336803355532	-0.64203696985919	0.750274717432837	-0.642110793465398	0.750022972960424	-0.003902684389996	0.00859213101373181
6.7	0.00599706564075348	-0.00648514430143074	-0.517746163886045	0.840720875849906	-0.51784887780339	0.840500073954489	-0.00354528276621969	0.00822969120212655
6.8	0.00416825274750938	-0.00759423395050585	-0.380985799241536	0.910825385435064	-0.381127256048475	0.910654948027728	-0.00327315821928912	0.00816583804384114
6.9	0.00219336735208331	-0.00834042623861777	-0.234998087572083	0.958785099732778	-0.235224378175067	0.958674906959225	-0.00275100679736137	0.00826120023991936
7	0.00043410245068244	-0.00857166065148997	-0.0834245715567542	0.983498301382978	-0.0836340681308693	0.983408671714094	-0.0020195000208176	0.00819051868560556
7.1	-0.00130793719662165	-0.00850526639539187	0.0701950310028158	0.984494282926048	0.0699933511594646	0.98436128150548	-0.0012611994304137	0.00812255879185803
7.2	-0.00280354482008867	-0.00811629292406629	0.222109928939416	0.961563208884781	0.221828273151831	0.961528732434177	-0.00025710914824187	0.00809577326898928
7.3	-0.00428608090334063	-0.0075854087092042	0.368530011332325	0.915365185509025	0.368294340742843	0.915391389282277	0.000783627049596307	0.00781985824963249
7.4	-0.00544757706066095	-0.0067642934010306	0.506028743798334	0.847003439395576	0.505815685025547	0.847054489672175	0.00165494284079348	0.00727487555324227
7.5	-0.00640716683010665	-0.00593742941363853	0.631224324053201	0.758176866606375	0.631055045013313	0.758246405354859	0.00258193095103286	0.00668156956480883
7.6	-0.00692637420779941	-0.00497688925807958	0.741194352045971	0.650966923781006	0.740937174804708	0.651049169993365	0.00359516772212466	0.00562649671864299
7.7	-0.00729827958597673	-0.00386710012190925	0.833069988494964	0.528028487442533	0.832884699794848	0.528245300848153	0.00414113516517246	0.00438054785983274
7.8	-0.00713933126539677	-0.00265271837792512	0.904901474689373	0.392280467301631	0.90479850266586	0.392505542940657	0.00447783434422811	0.00301248298119282
7.9	-0.00679061101796213	-0.00147266975564894	0.954757335379906	0.247215395623725	0.954619342982086	0.247394784484844	0.00439703292527154	0.00177672268633776
8	-0.00596171669192244	-0.000394025300662511	0.98137161460741	0.0960390894327412	0.98134841953102	0.0963015345201278	0.00369127245566102	0.00073099810922888
8.1	-0.00511882758015943	0.000522115833825132	0.984393371416334	-0.057383347879891	0.984422058765359	-0.0571279886560775	0.00281192377440998	0.000116817115378888
8.2	-0.00400769983355819	0.00120713939121781	0.963447152764096	-0.209432577821167	0.9634951478409	-0.209115729499651	0.00173939380817365	-0.000185479026291424
8.3	-0.00298011433863795	0.00173029903420232	0.919215681553899	-0.356328772983587	0.919266687980718	-0.356041793866262	0.000666349335889264	-7.61928989385125E-05
8.4	-0.00177586962155393	0.00203079974545703	0.85277774462067	-0.494616302694183	0.852875234390721	-0.494414344744887	-0.00026085891475367	0.000308274480824267
8.5	-0.0006778392442292	0.00214996475195316	0.765701027369635	-0.620837641428397	0.765752193062217	-0.620686934677859	-0.000941707216106719	0.000958804011836748
8.6	0.000614222981410988	0.00207133366066681	0.659921768864727	-0.732106905544931	0.660089870783013	-0.731869670289558	-0.00119983775406951	0.00190659958348712
8.7	0.00181707360009478	0.00182333601641139	0.53820895872451	-0.825533773543985	0.538467775071226	-0.825318059813323	-0.000943377799731496	0.00293999465924861
8.8	0.00324405700109017	0.00133592955481828	0.403669849016137	-0.898954187492508	0.403854892874267	-0.89881489820023	-0.000287445567231764	0.0037271779646998
8.9	0.00466478718091916	0.000491921628902161	0.259309663569891	-0.950708708405662	0.259488482558544	-0.950538440448286	0.00101807703562363	0.00440285675005998
9	0.00626864386429263	-0.000978861133365647	0.108550766064921	-0.979242009209728	0.108858926378426	-0.979195033660619	0.00290082624528032	0.0045460228549971
9.1	0.00757483787472878	-0.00282672545450777	-0.0446234965272143	-0.984184924423647	-0.0443144578164563	-0.984143520620373	0.00513693209575817	0.00396251526317388
9.2	0.00853967558297858	-0.00500647262310984	-0.196891190633511	-0.965236546370146	-0.19654368210251	-0.965213781070028	0.00737465404768108	0.00253007719130267
9.3	0.00886396882857463	-0.00707183981838518	-0.344264887351011	-0.922923152916373	-0.343913027715433	-0.922897129330483	0.00924339303559232	0.000426677388950908
9.4	0.00882162510084402	-0.00906717759846712	-0.48318855834927	-0.858292908794777	-0.48286526442764	-0.858383303793933	0.0103950651574576	-0.00232573290596773
9.5	0.00812118197472269	-0.0105443615603159	-0.610381961425633	-0.7728273924253	-0.610144940275503	-0.772877320385046	0.0102634674873574	-0.00531024725492052
9.6	0.00738717266533722	-0.0117225116079371	-0.722890127775259	-0.66864136299555	-0.722578278898264	-0.668779604435602	0.00920454902812384	-0.00789964320960498
9.7	0.00641723944372066	-0.0123441790451659	-0.817766483741607	-0.548334301017017	-0.817478553226579	-0.548566846121029	0.00710716640675047	-0.0102779124119039
9.8	0.00549936284931381	-0.0127458002797425	-0.89285896585953	-0.414818214734	-0.892605340744232	-0.414986810502032	0.00418804389916121	-0.0118918518642076
9.9	0.0045692357134521	-0.0126457502330684	-0.946363573892688	-0.271268135593097	-0.946110812479674	-0.271476590130431	0.000875664033236635	-0.0125334633118585
10	0.0037988526367888	-0.0125218645524511	-0.976902616954642	-0.121116001241442	-0.976748311948617	-0.121478236882138	-0.00260386539530798	-0.0121858379562289
10.1	0.00309699951527594	-0.0121509863091727	-0.983696553838499	0.0319175236705005	-0.983632341155264	0.0314859268903116	-0.00590307280175209	-0.0108133120496738
10.2	0.00263836961566597	-0.0118978807542882	-0.966848462972344	0.184145680400044	-0.96672588285629	0.183714472044133	-0.00872136321928953	-0.00868741071988787
10.3	0.00212185748103208	-0.011566910650929	-0.926507928156749	0.331947766964387	-0.926524545863974	0.331405976710992	-0.0110266193945306	-0.00610653091676199
10.4	0.00171868200416742	-0.0115758105152415	-0.863715711951446	0.471559340034744	-0.863851770245445	0.471047564509136	-0.0125840239953343	-0.00329469426084015
10.5	0.00115170144614956	-0.0115056795407477	-0.78007835551369	0.599821503601816	-0.780250967641725	0.599389052236721	-0.0132354809036188	-0.000517776296821342
10.6	0.00082222302048649	-0.0116815052461001	-0.677516685633849	0.713485352963579	-0.677788992610516	0.713155000310295	-0.01308721199458	0.00233860535020101
10.7	0.000319318264461776	-0.0116518379140731	-0.558574711771945	0.809929390844907	-0.558875238850433	0.809619699682446	-0.0121325345218294	0.00510557409027649
10.8	-0.000101151468195409	-0.0118860283228899	-0.426090341847446	0.886683974661992	-0.42644109457771	0.886385482261199	-0.010466562643207	0.00751488935484681
10.9	-0.000729824130626878	-0.0119285675909219	-0.283388135361469	0.941994214937802	-0.283778441671546	0.941871104206655	-0.00842934245633555	0.00946847729258769
11	-0.00124474943471345	-0.0122037793357046	-0.133740173761407	0.974521804511376	-0.134177269107374	0.974431049161439	-0.00578734054852449	0.010820424977734
11.1	-0.00181743490753339	-0.012307617627609	0.0191339055162411	0.983273262146976	0.0186450938334122	0.983286633855219	-0.00283597962980827	0.011504235007745
11.2	-0.00240049036680685	-0.0126465490761995	0.171417751424679	0.968339944383109	0.170960591799904	0.968412942901042	0.00038440478018656	0.0113924427384673
11.3	-0.00310647861959975	-0.0128700505301098	0.31949686447919	0.930006750885604	0.319037778514453	0.930143322822446	0.00368633149417671	0.0105523725866674
11.4	-0.00404645879144691	-0.0131413340503881	0.459931049122278	0.869165199780604	0.459527206861869	0.869278359429112	0.00664658878944761	0.00911396954436791
11.5	-0.00513258312738757	-0.0129943115937353	0.58912555267665	0.787088056213804	0.588807007776254	0.787390309490861	0.00906163705904162	0.00707969254585184
11.6	-0.00631211280331766	-0.0129117748066571	0.70394223182565	0.686125878766846	0.703726967262536	0.686453542245257	0.0107809771334783	0.00462774397766442
11.7	-0.00756538572881164	-0.0123160988612679	0.801810841573487	0.568592443569585	0.801607703117314	0.568898883823612	0.0118161189030206	0.00192786831448678
11.8	-0.00890606467320609	-0.0116010698618867	0.880335656965524	0.437136765302349	0.880153951334687	0.437587425802554	0.0119866406317538	-0.000912463446214972
11.9	-0.0100079179184624	-0.0102994202219397	0.937400254192943	0.295254374540006	0.937294522899532	0.295704111291803	0.0112948666643002	-0.00338807374039242
12	-0.0113455745924232	-0.00898205160934561	0.971797401543647	0.146378325568762	0.971768678727366	0.14674263765686	0.0100908313655448	-0.00565842454257977
12.1	-0.012066608553243	-0.00723343431007341	0.982656500663576	-0.00616692660333094	0.982585623315547	-0.00578235967497115	0.00853805293955982	-0.00754341856493821
12.2	-0.0126984938991313	-0.00565875257816593	0.969752831098002	-0.158583106386557	0.969770374239801	-0.15828514968118	0.00646859716966198	-0.00899344011650311
12.3	-0.0130457067187133	-0.00385798959175452	0.933205465060117	-0.307073705810309	0.933325014500677	-0.306767130501717	0.00424207972266711	-0.00997416549881015
12.4	-0.0132688654880253	-0.00220217495283466	0.874428851784784	-0.448121950275105	0.874492033028209	-0.44775235609752	0.00189850081860617	-0.0104688109436318
12.5	-0.013053012339387	-0.000433278160855353	0.794190743291862	-0.578403774273956	0.794531253509972	-0.578013368130946	-0.000539336398588922	-0.0105050900680746
