# GHZ S RI R 50
0.2	-0.0143445166228665	0.00429569492180617	0.00305074259654804	-0.000883291099304883	0.00306121999506488	-0.000883126589416635	0.005569746951647	-0.000109260303702265
0.3	-0.01345607152473	0.00512536854804141	0.00290649152259679	-0.00129993653459969	0.00290020947742763	-0.00131161272733031	0.0059638732505473	-0.00204394348206867
0.4	-0.0126890990001016	0.00631562725236434	0.0026943991712188	-0.00169598106947051	0.00269229099714844	-0.00169790179683658	0.00554388702204492	-0.00341286036457577
0.5	-0.0110179798857981	0.0068871428938862	0.00242476871276101	-0.00205687817558803	0.00242759601662633	-0.00206061368564899	0.00556141634591754	-0.00509559870261954
0.6	-0.0110291007337333	0.00664944814146694	0.00211073398981021	-0.0023779904876332	0.00210999093813127	-0.00238084226571889	0.00357739293585016	-0.00724450847513023
0.7	-0.0110735105328658	0.0076662787119227	0.00176027431431641	-0.00264981594391886	0.00176650601193345	-0.00265391666999008	0.00136515911633458	-0.00773154948816948
0.8	-0.0106946646285072	0.00872251265333441	0.00136581745107822	-0.00287242799109546	0.00137412071554185	-0.0028708181159909	-0.000681184985913864	-0.00772802448291648
0.9	-0.0104834130517105	0.0100674525247603	0.000958678061920845	-0.00302688079472691	0.00095866223336544	-0.00303633598997486	-0.00282766736384508	-0.00701912397773366
1	-0.00873335471452857	0.0120729447659981	0.00052252626014854	-0.00313412506642009	0.000522377185237531	-0.00313950125289998	-0.00350402596609956	-0.00526046844541018
1.1	-0.00713894628706966	0.0112749051036308	7.53911645784949E-05	-0.00317507249593611	7.62851172277098E-05	-0.00317981715953281	-0.00426890600875115	-0.00560713083173174
1.2	-0.00704582180349558	0.0109291033937985	-0.000366368528215792	-0.00314976935346591	-0.000365132909705631	-0.0031666397466267	-0.00582248250657925	-0.00477310630845896
1.3	-0.00710774202587723	0.0103721744597874	-0.000801089082100032	-0.00307549997194812	-0.000806052360613817	-0.00308319048536142	-0.00641095388639896	-0.00368956994511876
1.4	-0.00734113673654821	0.0101518545800493	-0.0012298173451481	-0.00292847915706854	-0.0012322481552743	-0.00293563990933345	-0.00655362352930909	-0.002616284912981
1.5	-0.00611323482000278	0.010048881827844	-0.00162134680920354	-0.00273023025716195	-0.00161936559829196	-0.00273579697890909	-0.00557197874770952	-0.00202128193163721
1.6	-0.00620591290995084	0.0100155609362176	-0.0019895168960083	-0.00247475254131389	-0.00199300758816091	-0.0024756355739613	-0.00647775561668718	-0.00119572705557539
1.7	-0.00536897752110817	0.0111703689287991	-0.00231825786086677	-0.00217676964709174	-0.00232032977036535	-0.00218540534312266	-0.00622501701180474	0.000874920218090274
1.8	-0.00416969922856306	0.0120626325866856	-0.00259677429727437	-0.0018237257277784	-0.00260199016265672	-0.00182920867331328	-0.00540582128559887	0.00250710234378387
1.9	-0.00279212756057779	0.0129571554960161	-0.00282294086465565	-0.00145204982801374	-0.00281939907831492	-0.00144583127289072	-0.00418175729135376	0.00415195326572576
2	-0.000186078638669947	0.0129538592798913	-0.00300249870893947	-0.00103813604183608	-0.003005244023956	-0.00103123934540056	-0.00165154943270925	0.0048487407148223
2.1	0.000363792002229759	0.0114162130730684	-0.00311820841212915	-0.000597381101204421	-0.00312034872024727	-0.000604114255399674	-0.000795823526637044	0.00407519966119169
2.2	0.00047133327118083	0.0113148597666948	-0.00316883226392569	-0.000161665895284014	-0.00317061625841308	-0.000151872558468861	0.000196239577119787	0.00429578038162797
2.3	0.000699761145281609	0.0113391125451308	-0.00315820869153347	0.000284095080586078	-0.00316501836717349	0.000281197779041452	0.00145413121139616	0.00409907016860366
2.4	0.000878042521098742	0.01190828439086	-0.00309653731477454	0.000722799986603447	-0.00309528249527882	0.000738010309288151	0.00266365345428869	0.00388748490970124
2.5	0.00263336777634927	0.0127537742649118	-0.00295590513225319	0.0011623955655058	-0.00296898311705343	0.00116379161474861	0.00507287280535685	0.00334963790955683
2.6	0.00385825506661657	0.0114971210203163	-0.00275698240859042	0.00155717323855956	-0.00277797845716477	0.00156125582321181	0.00645136919861361	0.000599759351540303
2.7	0.00430202066290343	0.0109584444136759	-0.00252063143413673	0.00192575635493458	-0.00252087524432521	0.00193086825043899	0.00664436136545266	-0.0015986008476423
2.8	0.00480338876608975	0.0106410898224939	-0.00222068213350554	0.0022510450191491	-0.00223047617583834	0.00226236763025017	0.0063846416378887	-0.00354971605518298
2.9	0.00559397138107799	0.0107447451534888	-0.00187720457034428	0.00254399898136714	-0.00187519037474428	0.00255293037993646	0.00602127107784235	-0.00489510634799606
3	0.00760628147241177	0.0101682325722368	-0.00149803161506152	0.00278041155398754	-0.00151327265369424	0.0027674823641532	0.00644478688741015	-0.00664582274445255
3.1	0.00797844040505104	0.00858236823252478	-0.00109956931949928	0.00295870851811224	-0.00111650708276206	0.00296426663529578	0.00506941140262792	-0.00909708798378349
3.2	0.00822551761156891	0.00802334216081524	-0.000677063241359927	0.00308111826738491	-0.000672690146640896	0.00309191375932558	0.00336850206353927	-0.0102980346240703
3.3	0.00856424025457224	0.00744546976465997	-0.000244116545340233	0.00314754520687948	-0.000240852561479895	0.00314312653292438	0.00163185482936457	-0.0113734392248201
3.4	0.00890546028838527	0.00724763665872307	0.000203071016300333	0.00314774626044527	0.000193647386613625	0.00314891720886377	-0.000249693849089399	-0.0120216380053071
3.5	0.0104589694896095	0.00661150867412214	0.000631463337994598	0.00308576605724368	0.000636459840495318	0.00308439504783228	-0.0013960134466739	-0.0129741046164784
3.6	0.010355342713334	0.00466499291561475	0.00105271939635731	0.0029649275031845	0.00105935354678064	0.00296836555916594	-0.00441957400630501	-0.0144349205156046
3.7	0.00981206541523432	0.0041382954202708	0.0014691864618909	0.00278210817889827	0.00146759397405621	0.00279849718645035	-0.0076201955428282	-0.0140745992394691
3.8	0.00967279425859248	0.00402991297726078	0.00183405231493645	0.00254980118967063	0.00184470491831545	0.00255604859077834	-0.0104523724824459	-0.0130752795198557
3.9	0.0100766624685302	0.00440236149016048	0.00217588303489814	0.00226870715384625	0.00217129038332297	0.00226865155841086	-0.0128723571731926	-0.0112500723992474
4	0.0122304084103059	0.00396505143927094	0.00246665273979301	0.00194983868234583	0.00247814434802633	0.00195587876733181	-0.0137328422579931	-0.00960864552401453
4.1	0.0125631680424843	0.00163263544031921	0.00271533495989163	0.0015755068215953	0.00273198083185806	0.00158510241229644	-0.0159222118110534	-0.00873245775599008
4.2	0.0122195181294592	0.000522363245029712	0.0029090692883833	0.00117603200201534	0.00291032266437363	0.00117829970350474	-0.0179386219902777	-0.00629721795307334
4.3	0.0119523493397462	-0.000229870861373567	0.00304530887137491	0.000768344983337522	0.0030465748492327	0.000776890489132922	-0.0192326048899337	-0.00353408263820054
4.4	0.0117559630553332	-0.000475695661051522	0.00312025647898793	0.00033422502232755	0.0031281087678408	0.000329526946988052	-0.0199708600543194	-0.00018590283373282
4.5	0.0131302636153114	-0.00099142723670346	0.00313773781864963	-0.000114688751645545	0.00313458455468095	-0.000112398814448028	-0.0187786054683483	0.00287250927999621
4.6	0.0128300911613187	-0.0033916791445416	0.00307230727793849	-0.00055552573127818	0.00308538895739978	-0.000543758318604474	-0.0186581081570639	0.0043403810071476
4.7	0.0119099154569818	-0.0043797646123661	0.00296564532552809	-0.000961536948205291	0.00296545890862993	-0.000970907043559838	-0.0184883159318605	0.0069081571398004
4.8	0.0111045170495163	-0.00506570728436542	0.00281335944213834	-0.00135861178796715	0.00280557543329332	-0.00137857626182876	-0.0175673493937404	0.0095866599188346
4.9	0.0105648072554979	-0.00513550616351346	0.00259340900593458	-0.00175129026688225	0.00258746584818392	-0.00174285434652219	-0.0159666037500405	0.0124196188117701
5	0.0116075175494773	-0.00578081718969205	0.00231118268796193	-0.00207208582634328	0.0023137860270388	-0.00208440596851071	-0.0124814453882291	0.0142970868771283
5.1	0.0107747508522685	-0.00772751264357956	0.00199515846030605	-0.00238419606585491	0.00200826251581625	-0.00238183288832876	-0.0104697238196408	0.0147936270550896
5.2	0.00987140942555922	-0.00816245681565056	0.00165589415763663	-0.00263587838088944	0.00165636377909911	-0.0026399996639546	-0.0079340613567577	0.0160510681211558
5.3	0.00948137932046299	-0.00844236185199807	0.00126875396622001	-0.00284074091171351	0.00126503467929042	-0.00284326233772485	-0.0048364502177059	0.0166635285068389
5.4	0.009434183509195	-0.00839389056806188	0.000861906109460709	-0.00299107459436248	0.000861015446665106	-0.00299349840385497	-0.0015316767951744	0.016740721027617
5.5	0.0109868669899614	-0.00954099171365426	0.000436352725742153	-0.00307919691860116	0.000448769801468642	-0.00307921064513089	0.0026867174502192	0.0150211061317432
5.6	0.00936095998589305	-0.0121883547734556	9.18624730454271E-06	-0.00311257148195532	5.93386313821037E-06	-0.00310914466335409	0.00362897847669905	0.0120780132413974
5.7	0.00733665282211853	-0.0125204648747083	-0.000418815274425613	-0.00308466646576288	-0.00042249772187466	-0.00308830428874962	0.00438835734046332	0.0108062860818724
5.8	0.00582407780612012	-0.0123343994599366	-0.000845744892117838	-0.00299325261906775	-0.000845036354625123	-0.00300084405260599	0.00532877007910387	0.00926834199465376
5.9	0.00449987088092227	-0.0111677660256993	-0.00125237218443027	-0.00284301770295645	-0.00125079162927278	-0.00284711782727247	0.00585176667663601	0.00804503308875788
6	0.00593848176706866	-0.00990741946563873	-0.00163734215892628	-0.00264677653724955	-0.00163141157460136	-0.00265008632522566	0.00793443613557978	0.00660804825126754
6.1	0.00606220354299185	-0.0120254282542648	-0.00199332545773009	-0.00239471093321273	-0.00198923087469324	-0.00239942642856531	0.00796996345459477	0.00262171592166529
6.2	0.00482424747914901	-0.0129901960427554	-0.00230564942184694	-0.00208264492883625	-0.00230211184963285	-0.00209120489996694	0.00672326889138247	0.000160034181797445
6.3	0.00359190663402628	-0.0135673093417285	-0.00256787762165639	-0.00175083505907399	-0.00257756278592624	-0.00175851736935284	0.00539976540918324	-0.00186461484858981
6.4	0.00256711297140471	-0.0133553629373927	-0.00279455537502227	-0.00137458169594064	-0.00279257262196252	-0.00138030890071195	0.00418225589617154	-0.00311715228900264
6.5	0.00333988003870418	-0.0144875344409143	-0.00296060385369921	-0.00097308597824703	-0.0029610046183237	-0.000971976080946341	0.00410553225716232	-0.00551280780359845
6.6	0.000990336469993814	-0.0160807433207149	-0.00305784240536266	-0.000555368358568316	-0.00306836873811126	-0.000558359648872436	0.000987782584955705	-0.00770580239923929
6.7	-0.000654293105712985	-0.0156850889729915	-0.00310411166322411	-0.000131772755726329	-0.00310310627635537	-0.000125606947942148	-0.00157091387471939	-0.00792828187405717
6.8	-0.00191062542442	-0.0151723314487763	-0.00309398192115461	0.000308923049165922	-0.00309310866868806	0.000313632262005232	-0.00408710890344265	-0.00774137895355981
6.9	-0.00280881355351463	-0.0137606684796578	-0.00301572613732478	0.000735585501185451	-0.0030161663840775	0.000740511539454172	-0.00630641845501644	-0.00624918648340152
7	-0.00091052960084086	-0.0135556499698108	-0.00288353705052797	0.0011449544655838	-0.00288494893418845	0.00114812045012238	-0.00619466236933463	-0.00551677841460697
7.1	-0.00262482556758152	-0.0158117281517949	-0.00269772668309136	0.00153236868794181	-0.00270020703886077	0.00154322798821453	-0.00915610954974337	-0.00578376930190022
7.2	-0.00489520068810951	-0.0155050417638874	-0.00246772670850695	0.00189204032933832	-0.00246795866687823	0.00189786672270452	-0.0114649546528385	-0.00329389192100349
7.3	-0.00688132806084762	-0.0146606851021951	-0.00218517565625531	0.00221614755655249	-0.00218245732842371	0.00221763028704423	-0.0125785797429275	-0.000513309483200178
7.4	-0.00892709249781536	-0.0125556884325597	-0.00185029502698656	0.00249742243491342	-0.00184322668230143	0.00250394014743271	-0.0130827076704648	0.0029013463358281
7.5	-0.00764780559769198	-0.0099939046551239	-0.00148984046817819	0.002731169174609	-0.00149084185673185	0.00272916280330222	-0.0104679966569031	0.00595653370037169
7.6	-0.00784451923123775	-0.0110879360377636	-0.00110610128140893	0.00291978150159407	-0.00109566851446576	0.00293018994332438	-0.0093364119971737	0.00581844930056326
7.7	-0.00895125179369098	-0.0105372264782075	-0.000681440872879425	0.00305045296938141	-0.000675913546081932	0.00305017993654887	-0.00876168148050879	0.00691788700597903
7.8	-0.00942393467319992	-0.00988092057567908	-0.000241180192463253	0.00311802784273463	-0.000254631022630047	0.00311081275303083	-0.00771280734017578	0.00818233358041719
7.9	-0.00913827790411828	-0.0088812141428565	0.000175326127215285	0.00311349178962844	0.000186351126440454	0.0031133564405193	-0.00587574180042167	0.00980789934104113
8	-0.00701591405000823	-0.0102240953616987	0.000610593936352671	0.00307577834499858	0.000618894796554585	0.00307383693510205	-0.00259933537343854	0.00959964775833878
8.1	-0.00903582007789405	-0.0121476784485725	0.00104854756251018	0.00295770252528519	0.00104631698328541	0.00295442633346574	-0.00231722411781536	0.00902372809734968
8.2	-0.0107700681069813	-0.0116878880998816	0.00144079074040469	0.00278231946619311	0.00143980733226353	0.00279386502520122	-0.000818575954327769	0.00990663486031968
8.3	-0.0121282622040414	-0.0108321527577922	0.00181616072691988	0.00255948888992216	0.00182126744919065	0.00255698283362298	0.00119361756307467	0.010155167201034
8.4	-0.0131045422164523	-0.00881049962100655	0.00217103520169442	0.00228931266657737	0.00215985902769387	0.00228954463148434	0.00336685106833952	0.010421808626468
8.5	-0.0110314274791809	-0.00772638765957839	0.00247969033707626	0.00195271943107651	0.00247968280641087	0.00195407226484287	0.00747034847405069	0.00902997709410573
8.6	-0.012129785026579	-0.00934200193905667	0.00271101574025119	0.00159477606397807	0.00270683483272806	0.00159241214961428	0.00807918750443366	0.00544162695664832
8.7	-0.0138945641617979	-0.00852418054848536	0.00290854830745336	0.00120194660984874	0.00290738996099632	0.00120151881833518	0.00825280779154934	0.00369371994785295
8.8	-0.0151552117422659	-0.00708741246572146	0.00304817691496042	0.000785266060149135	0.00305921410501909	0.000783307293640615	0.00843648584129321	0.00178777659611194
8.9	-0.015906737036877	-0.0045990269581178	0.00313151430742719	0.000350538450868399	0.00314098995845205	0.000343492252547801	0.00846189253389685	0.000377992022458151
9	-0.0134424159671769	-0.00267046356008215	0.0031438056132572	-9.88638307942946E-05	0.00315051993789845	-9.31671925907023E-05	0.0101311423807439	-0.00175751927034066
9.1	-0.0130151642746118	-0.00361796794525472	0.00310864311018823	-0.000526928946222446	0.00310886444725429	-0.000527118735462883	0.00906450330481497	-0.00563452250876439
9.2	-0.0128709567702153	-0.00324210903691483	0.00300452492941362	-0.000954628347694869	0.00300836131152666	-0.000954348122206117	0.00751342617871426	-0.00800315152656264
9.3	-0.0125217822878218	-0.00310658358156833	0.00283841296658216	-0.00137184243737137	0.00285657209137586	-0.00137203374170519	0.00559669868169644	-0.0102516113134569
9.4	-0.0121855720373258	-0.00242122736103181	0.00262263559758337	-0.0017494905352298	0.00262612280771668	-0.00176053195526988	0.00316656077004303	-0.0116026439278487
9.5	-0.0102326141645425	-0.00339025549784457	0.00236284054336373	-0.00210748107407421	0.00237774547064658	-0.00210790820800183	0.00149500465220856	-0.0138100808890846
9.6	-0.0121692037721705	-0.00516209027624675	0.0020500809252346	-0.00242697434589981	0.00205030077300664	-0.00241988460577386	-0.00382081324872519	-0.0154636715938311
9.7	-0.0138669418950969	-0.00440036840224666	0.00168570781394304	-0.00269309453074152	0.00169411442882646	-0.00269458595910612	-0.00839788012270026	-0.0142875305437969
9.8	-0.0150534938531257	-0.0031485349516629	0.00129932922894991	-0.00289802380359795	0.00129759800904896	-0.00290679191630763	-0.0123132370216018	-0.0123292155567736
9.9	-0.0157575861181258	-0.000796879581193993	0.00088969032479771	-0.00305326776741023	0.000877704399958256	-0.00305608471399284	-0.0157268710869608	-0.00906161255095379
10	-0.0134119596304561	0.000600465063631475	0.000449724283158491	-0.00315166200313727	0.000448992154622847	-0.00315910852582865	-0.0166303206145599	-0.00621010144537579
10.1	-0.0138667311240294	-0.000483676672499548	-1.09324447052202E-06	-0.00319380276466435	-5.7843905788755E-06	-0.00319666125351432	-0.0197585185552223	-0.00424090964060416
10.2	-0.0147901407945314	0.000450617280858923	-0.000450630399539005	-0.00315681930564791	-0.00046339853258115	-0.00316075298274042	-0.0220443304174309	3.93285520152687E-05
10.3	-0.0152675391137322	0.00196292819230312	-0.000892835949776232	-0.00305861568151644	-0.000892502380503757	-0.00307222669378547	-0.0230236004385487	0.00486887033889221
10.4	-0.0149220842716888	0.00450866418684669	-0.00131628819771857	-0.00291598527024188	-0.00131953265430206	-0.00291383813213561	-0.0224883856244628	0.0102883559651763
10.5	-0.0115060354299897	0.00560360587439428	-0.00172039653770193	-0.00268815994008405	-0.00172666575992582	-0.00269556751564469	-0.0190855049004236	0.0142858551343452
10.6	-0.0106898957638426	0.00447885285406317	-0.00208280870238333	-0.00242139494701982	-0.00208432355072055	-0.00242659416927177	-0.0175879360331326	0.0167715889001725
10.7	-0.0101235376433718	0.00443390600938601	-0.00239653028192506	-0.00210445679222437	-0.00239976666414943	-0.00212076240096618	-0.0151218347047788	0.0203025054029967
10.8	-0.00982893994572039	0.00433566611324852	-0.00267208711509332	-0.00174925687405993	-0.00266909709350737	-0.0017514596414572	-0.011959844949148	0.023389971513175
10.9	-0.00951845366299073	0.0054590242603887	-0.00289619269679122	-0.00135764818727045	-0.00289547131137874	-0.00136286421232949	-0.00807375345273469	0.0267809434487841
11	-0.00641449465103227	0.00529051956171435	-0.00305198816773916	-0.000929929169897344	-0.00304487851287988	-0.000934299826393439	-0.00159437222371636	0.0281048881831224
11.1	-0.00681362104967074	0.00309030045225435	-0.00315044044675363	-0.000511638483705115	-0.00314256820017409	-0.000503224040024831	0.00221551713502407	0.0276709820360869
11.2	-0.00744791478220351	0.0029842222171908	-0.00319338121046285	-5.87552127888567E-05	-0.0032000776476959	-5.54754231030007E-05	0.00696821224907772	0.0280555929678544
11.3	-0.00783969829302833	0.00335092047438706	-0.00316727113823483	0.000394305905533543	-0.00317049589458733	0.000392120892237484	0.012215965002076	0.0274355083335171
11.4	-0.0078403553120485	0.00459727282760796	-0.00307127599838284	0.000832862613320786	-0.0030759708007519	0.000833042834008426	0.0176627089132556	0.0259446282371328
11.5	-0.00508405307740242	0.00433665711124556	-0.00293828297986097	0.00124032352335453	-0.00293064351370426	0.00124512376265134	0.0244010833949174	0.0217640550880437
11.6	-0.00585328837091586	0.00219923727998246	-0.00273370494082513	0.00164879777870883	-0.00274190587302502	0.00165870471035194	0.027231507433424	0.0156764061033215
11.7	-0.00684512383476114	0.00240657776569083	-0.00246814921014005	0.0020241314462931	-0.00246990064524872	0.00202789492342235	0.0295273299075166	0.0106262675631469
11.8	-0.00715575934637766	0.00336176107006563	-0.00215800393409951	0.00235071696812015	-0.00216726920173754	0.00236073828692435	0.0312383298310902	0.0052755671729178
11.9	-0.00596804876557375	0.00536025931700473	-0.00181182029816169	0.00262278045204093	-0.00181180285542108	0.00262943774292036	0.0325289648530184	0.000390100527496609
12	-0.00183188441973269	0.00463376890764593	-0.0014240409788317	0.00285817517836021	-0.00142858700442648	0.00286105291189243	0.034519575953668	-0.00671696722293828
