# GHZ S RI R 50
0.2	-0.01393363055981	0.00565392043248804	0.003043017145801	-0.000885610817915306	0.00305347241930172	-0.000885461097331666	0.00581635291325596	0.0011216309992286
0.3	-0.0131802247288845	0.00602349981531482	0.00289646207413237	-0.00130151811565163	0.00289017650794105	-0.00131315217365911	0.00607574297771139	-0.00126893855636921
0.4	-0.0124399652838187	0.00659594672531826	0.00268174056633088	-0.00169540833840496	0.0026796359123955	-0.00169731827436596	0.00566865573905656	-0.00322871119181559
0.5	-0.0121439757995405	0.00727125196907509	0.00241170362061117	-0.00205122828761216	0.00241451394814956	-0.0020549514829193	0.00450893921839241	-0.00483114747818699
0.6	-0.0113170456920726	0.00855502589205371	0.00209973655912253	-0.00237093687359618	0.00209899326917463	-0.00237377654481625	0.00345506081801209	-0.00575733307780723
0.7	-0.0103272814868109	0.00931083788729356	0.001749096871589	-0.00264062698675972	0.00175529601289892	-0.00264471815174988	0.00214417264330823	-0.00672171768499129
0.8	-0.00932715258411095	0.00996868640877552	0.00135572872672202	-0.0028598361722608	0.00136399286930446	-0.00285824391538947	0.00052134541852708	-0.00721664017780407
0.9	-0.008288124434189	0.0104364322975162	0.000951897789550962	-0.00301096728061697	0.000951877106766241	-0.00302037119320797	-0.00105498238372177	-0.00730743708397917
1	-0.00766794505647429	0.0103319793252723	0.000520282819092696	-0.00311930628493554	0.000520134826482467	-0.00312465712546214	-0.00287770546728189	-0.00726677934601993
1.1	-0.00754885545036004	0.0111256957596669	7.26104838712624E-05	-0.00315923094644643	7.3496369023989E-05	-0.00316395252854624	-0.00473012555172511	-0.00590612633602941
1.2	-0.0068177487354088	0.0115008394776854	-0.000365603504449333	-0.00313146920277681	-0.00036438220935103	-0.00314824294488006	-0.00537623725926284	-0.00443466105485238
1.3	-0.00652624053882433	0.0114358764280228	-0.000795736494636121	-0.00305705177106488	-0.000800668504056598	-0.00306469664668995	-0.00537252692071386	-0.00310861507028961
1.4	-0.00624465426635757	0.0113395878040275	-0.00122079013319482	-0.0029124294430378	-0.00122320218921732	-0.00291955056778848	-0.00499856795259574	-0.00227929662615067
1.5	-0.00597473223171048	0.0115457177249864	-0.00161290549609053	-0.00271434289403231	-0.00161093699474517	-0.00271987864496933	-0.00496416400541423	-0.00166876271481084
1.6	-0.00467487213720247	0.0122739995224648	-0.00197457502759042	-0.00245713355486361	-0.00197804016362818	-0.00245801083161431	-0.00480631852881682	-0.000568859869821361
1.7	-0.00336565168443759	0.0122879798014281	-0.00229814726874695	-0.00216348506755818	-0.0023001926180379	-0.00217205891633651	-0.00453488593528924	0.000375960557402079
1.8	-0.00229781388188994	0.0123252237080346	-0.00257439548336423	-0.00181527414504949	-0.00257956298903212	-0.00182072682639757	-0.00409253638840594	0.00137441643108175
1.9	-0.00134283897589719	0.0120462562619072	-0.00279997337084979	-0.00144672506810945	-0.00279646839268442	-0.00144054485466338	-0.00333857545604682	0.00219821494808902
2	-0.00122995723589193	0.011850855731978	-0.00297410587759855	-0.00103491378822479	-0.00297684062436462	-0.00102808301747353	-0.00285552657464946	0.00295981593163686
2.1	-0.000470952686116376	0.0125890013697034	-0.0030884013095827	-0.000605180923449507	-0.00309049473206175	-0.0006118640512802	-0.00148321411240234	0.0040231054148911
2.2	0.000674126042394821	0.0127095006274515	-0.00314266004265262	-0.000175653891692067	-0.00314447697543975	-0.000165947635326963	0.000340127338913518	0.00413633793543769
2.3	0.00167524910742309	0.0125201240424401	-0.00313494076273856	0.000265684960862869	-0.00314168228017381	0.000262775440536334	0.00200900567816859	0.0036683658619052
2.4	0.00268160747350295	0.0120317756284995	-0.00307477803114189	0.000699478048034514	-0.00307361864510885	0.000714568662853882	0.00366721083260198	0.00273826676646909
2.5	0.00280795645549074	0.0110226060481721	-0.00294012253087103	0.00112891308744699	-0.00295310074395579	0.00113019277898396	0.00465972940538919	0.00108381183567847
2.6	0.00270889008854884	0.0113060840395532	-0.00275284400295761	0.00152390463417653	-0.00277374239216115	0.00152778288935333	0.00540588340039474	-9.84566394337249E-05
2.7	0.00327430119675348	0.0115857351050143	-0.0025216737689403	0.00189340592105585	-0.00252195857971344	0.00189848547665314	0.0060781079168837	-0.00176556971414933
2.8	0.00420895923025042	0.0118117990638967	-0.00222741518677502	0.00221828181058488	-0.00223725118685819	0.00222945172181002	0.00638787088294611	-0.00349504269268037
2.9	0.00546248014343951	0.011548238234259	-0.00189238195462732	0.00251077202052879	-0.00189046928234321	0.00251967369692616	0.00654062067085162	-0.00536565793425347
3	0.00608856091019845	0.0110215816979479	-0.00152417300725974	0.00275531881794157	-0.00153922434377962	0.00274226080795955	0.00597548930395863	-0.00726504994937011
3.1	0.00725757037691827	0.0111388106409365	-0.0011246505779592	0.00294050239557563	-0.00114159621677843	0.00294588565521536	0.00549813364107841	-0.00872170656547788
3.2	0.00852815840226654	0.010516160071022	-0.000705619331070352	0.00306562061945782	-0.000701365550466054	0.00307642856043268	0.00447759608437312	-0.0105123251093896
3.3	0.00956303726401455	0.00961639214136356	-0.000277167590087408	0.00313788405169658	-0.000273863755764409	0.00313351012353784	0.00302056949147375	-0.0121463260968116
3.4	0.0104186298454114	0.00842198637040728	0.000167749214624175	0.00314800416914123	0.000158318518441071	0.00314906901225332	0.00125836716301467	-0.013733867577612
3.5	0.0103077746805743	0.0071519728437349	0.000603615884118559	0.00309321151944603	0.000608627626478804	0.00309188541155118	-0.00148263034148371	-0.0151147305012819
3.6	0.0106354174782617	0.00703572269902678	0.00102372817073522	0.00297182817069077	0.00103032320240206	0.00297532520818587	-0.00402699613189354	-0.0152020001910092
3.7	0.0114511890056955	0.00629688042055076	0.0014395753229451	0.00279649767758447	0.00143781199345847	0.0028128642834023	-0.00643151594065697	-0.0152949457584053
3.8	0.0121549034378068	0.00522613444608438	0.00180838309731248	0.00257121121089955	0.00181897749734464	0.00257757644589923	-0.00903399385194999	-0.0150014440645067
3.9	0.0126558654426679	0.00371939683981943	0.00215737669967457	0.00229354623704471	0.00215277711253568	0.00229344591787115	-0.0116626447687567	-0.0142961692497951
4	0.0119099276922738	0.00222075784788591	0.00244810628921558	0.00197255227379313	0.00245953987686309	0.00197869862599184	-0.0146814541402148	-0.0129393165623916
4.1	0.011676668854658	0.00223597576985311	0.00269872166221089	0.0016086988320409	0.00271526643009583	0.00161849785465412	-0.0167122794405679	-0.0102091034430678
4.2	0.0121325790959535	0.00164856300262276	0.0029022613388391	0.00121332598052994	0.00290349094496527	0.00121561405247736	-0.0179808391726919	-0.00769465144103607
4.3	0.0124770563928574	0.000737009205751499	0.00304654332817918	0.000805341796728281	0.00304771665411365	0.000813929523112496	-0.0188735350049839	-0.0051790173388594
4.4	0.0126461479046232	-0.00062062967725078	0.00312580292501004	0.000369669031994455	0.00313373033654303	0.000365043755467063	-0.0193479478919489	-0.00266011896169668
4.5	0.01155665658751	-0.00208584246911651	0.0031493960992722	-7.2192987986817E-05	0.00314620141100463	-6.99387627336458E-05	-0.0199782811324229	-0.000229565281243438
4.6	0.0107051977644763	-0.00197287000240574	0.00310047750022092	-0.000518208007054472	0.00311349020819165	-0.000506186272967478	-0.019805000746425	0.00308790236627709
4.7	0.010572206567222	-0.00214087098099867	0.00300016036447435	-0.000933175340867708	0.00300008558734361	-0.000942620074446959	-0.0189006088938461	0.00579626945605237
4.8	0.0105128207990923	-0.00244579274460303	0.00285204698662195	-0.00133704988640421	0.00284443112269199	-0.00135726735698932	-0.0175779239904093	0.00841372752880118
4.9	0.0107975466924711	-0.00304104814312928	0.00263764146750103	-0.00173487249145689	0.00263154273188274	-0.00172643537338638	-0.0156228291054614	0.0106409870013256
5	0.0103050433115856	-0.00388756179517484	0.00236540873081132	-0.00206969451144511	0.0023681953332655	-0.00208213671653561	-0.0135946092930348	0.0124770923151094
5.1	0.0107721217205822	-0.00380049572877789	0.00204216466060918	-0.00239770930246472	0.00205541874315369	-0.00239519992121301	-0.0104205041036733	0.014379324530402
5.2	0.0115642246756675	-0.00495258250749472	0.00169826942287437	-0.00265582064277746	0.00169877845423541	-0.00265999031425536	-0.00700322036814308	0.0148445944402003
5.3	0.0117358158635877	-0.00656742595782176	0.00130808060230324	-0.00286851120886417	0.00130433175427106	-0.00287109556983572	-0.00390056273763326	0.0146724095356045
5.4	0.0112886736124803	-0.00834558673663805	0.000896769476636046	-0.00303017536156377	0.000895882956327585	-0.00303264243128481	-0.000986706583535788	0.0138107132069823
5.5	0.00926321238949286	-0.00942852631020655	0.000453568955580705	-0.00312753220056178	0.000466186799654369	-0.00312750516764879	0.000853451541980753	0.0126132323921949
5.6	0.00875096099352867	-0.00862953846318763	1.76956546781982E-05	-0.00315510017918461	1.43895757213968E-05	-0.00315163527135996	0.00338684211752824	0.0119245271995354
5.7	0.00895578039041013	-0.00904761468348018	-0.00041564557937282	-0.00312904237844201	-0.000419368891365087	-0.00313274186740974	0.00563641863971971	0.00995476841456206
5.8	0.00898990973997728	-0.00991782687774973	-0.000851961666876321	-0.0030394175112833	-0.000851226589389828	-0.00304712000017971	0.00720235659338261	0.00751044312049598
5.9	0.00892085735729363	-0.0114347607486939	-0.00127173745279286	-0.00288638889752379	-0.00127013304587844	-0.0028905518296492	0.00822665282634861	0.00465971129542017
6	0.0068220910916517	-0.0138699386478986	-0.00166093799400324	-0.00267690732319931	-0.00165493940883033	-0.00268026559432029	0.00751705025866367	0.00129173284118277
6.1	0.0041883235698735	-0.0136029654248367	-0.00201696279514582	-0.0024271911533029	-0.00201281157886822	-0.00243196388316382	0.00650936669450706	-0.000218614881811367
6.2	0.0025647772183258	-0.0132592661988482	-0.00233890385877496	-0.00211205280362807	-0.00233531703258539	-0.00212073560476722	0.00581505078901107	-0.00203053060237484
6.3	0.00150136299583233	-0.0126839236121073	-0.00260806794221813	-0.00177170589175826	-0.00261790656365092	-0.0017794825270541	0.00498041536690229	-0.00373194067477831
6.4	0.000990656186080708	-0.0127300124484187	-0.00283537460438516	-0.00138429804699704	-0.00283338290031787	-0.00139010641675372	0.00420212568788053	-0.00568728062939424
6.5	-0.000629892669762162	-0.0126953601709682	-0.00299880933176671	-0.000983704050109543	-0.00299921453396992	-0.000982579808814657	0.00235105397501215	-0.00745372003016492
6.6	-0.000506491710676858	-0.0116124344090729	-0.00310745247275758	-0.000557724414182832	-0.00311815185735506	-0.000560740915714304	0.00126331317045816	-0.00853382263611127
6.7	-0.00048380693298781	-0.0119276435504072	-0.0031531484424785	-0.000119920001878833	-0.00315209973559794	-0.000113662468754974	-0.000798272256362964	-0.00991546113909518
6.8	-0.000881532337772864	-0.0120993430057297	-0.00313756687025891	0.000330760830504173	-0.00313665447621846	0.000335534126423542	-0.00333322209587325	-0.0102074078394359
6.9	-0.00127818986066872	-0.0126839692016582	-0.00305424686739876	0.000761227776174618	-0.00305466823573231	0.000766225083964331	-0.00550795172002522	-0.00996865278095656
7	-0.00365148992158313	-0.0130265473190639	-0.00292712260998429	0.00118078984616839	-0.00292854137277027	0.00118401849977378	-0.00858234263751544	-0.00915711188564377
7.1	-0.00432401532336077	-0.0108307868153723	-0.00272691878637691	0.00158428520841093	-0.00272933239641607	0.0015953476631637	-0.0100298919917409	-0.00645871121117588
7.2	-0.00388398144775835	-0.0101177280963088	-0.00248340949518599	0.00194653723151416	-0.00248358170131246	0.00195245158796701	-0.0107479419439093	-0.00452534565672188
7.3	-0.00356583306078775	-0.00991483819718134	-0.00219125545805969	0.00227178642495154	-0.00218848224992074	0.00227325972519793	-0.0111569558960227	-0.00243739714085238
7.4	-0.00303885052587652	-0.0105882922130639	-0.00184829410888259	0.00255726596111101	-0.00184104104773593	0.00256379733564876	-0.0108307506032235	-0.000700301888980007
7.5	-0.00471665856761361	-0.0127005606399262	-0.0014656865757533	0.00279603200917479	-0.00146673627621829	0.0027940131983138	-0.0111060451801856	0.000291254769292682
7.6	-0.00682213014375581	-0.0118843812434946	-0.00106718813994716	0.00296880364620722	-0.00105646905404773	0.00297913933416612	-0.0106373891881218	0.00292702258303284
7.7	-0.00809475997733873	-0.0116018589693386	-0.00063689525748283	0.00309026124768961	-0.000631320957361092	0.00308989344316444	-0.00952708238682991	0.0041965758193186
7.8	-0.00923316315125379	-0.0112873152883728	-0.000189252707552128	0.00315004892971957	-0.000202948769801177	0.00314300272167985	-0.00822721355286517	0.00549658705759122
7.9	-0.0103337191910787	-0.0112229660162968	0.000237609896081373	0.00313500941801075	0.000248720583031717	0.00313465740931877	-0.00659706726884097	0.00648831375324578
8	-0.0130247423550665	-0.0101749999398546	0.000674620929048813	0.00307244697613632	0.000682906858929824	0.00307033190996725	-0.00559011277943837	0.00747025863304184
8.1	-0.0126624020580202	-0.0074872638497264	0.00110203474313018	0.00294709653919716	0.00109974223393659	0.00294385047820239	-0.00262739645798972	0.00900479892126814
8.2	-0.0120217724387663	-0.00662969200053669	0.00149381613383832	0.00276475131323607	0.00149303324535599	0.00277634654961037	0.000262160597606313	0.00884106372187751
8.3	-0.0117043030803215	-0.00612291545617104	0.00186705097386566	0.00253014719464489	0.00187211997893732	0.0025275415673324	0.00289487279484929	0.00820780228684773
8.4	-0.0114691724972216	-0.00618708823725577	0.00221244797315429	0.00224531711430741	0.00220128837219076	0.00224576251076314	0.00546082092435983	0.00673838534083153
8.5	-0.0134393870551495	-0.0062324961331017	0.00250304881251275	0.00191021562010997	0.00250306180781513	0.0019115651629408	0.00637113041162978	0.0047508083748247
8.6	-0.0137729761887886	-0.00336578287262343	0.00273652941410187	0.00155136371986448	0.00273231068910552	0.00154906675486611	0.00817240004454289	0.00385797762141599
8.7	-0.0126646737588184	-0.00199750655327269	0.00292585008424711	0.0011494781260665	0.00292468573819751	0.0011490711649397	0.00978224910811425	0.00138254226942117
8.8	-0.0114144019240318	-0.00136395898074231	0.00305212862817087	0.000729190506704234	0.00306309577881499	0.000727044199425716	0.0104851071698166	-0.00145122803362446
8.9	-0.00997609225835054	-0.00193276657089876	0.0031223047197761	0.00029963951609707	0.00313162500232373	0.000292477416821546	0.0108315321352375	-0.00451117136002137
9	-0.0107218116873061	-0.00349232162894734	0.00313707598376407	-0.000147007110211348	0.00314386671358598	-0.000141423084341556	0.00962767200838988	-0.00788578528097861
9.1	-0.0111659514554569	-0.00303690360902751	0.00308677604023342	-0.000583341547355151	0.00308699295785268	-0.000583534767150899	0.00849739264967627	-0.00998803696668284
9.2	-0.0115333737141192	-0.00342018463620913	0.00296745082672676	-0.00100296094244515	0.00297126711408384	-0.00100275227377973	0.00681326524969446	-0.0126105970269039
9.3	-0.0124564461926411	-0.00338115560354735	0.00279351620929146	-0.00140898383252502	0.00281153237376283	-0.00140947882275356	0.00433679273569839	-0.014553623475339
9.4	-0.0133297139512567	-0.00320353335097593	0.00257692003152645	-0.00177954512122058	0.00258020720770774	-0.00179056747688255	0.00165547438670286	-0.0160578289576203
9.5	-0.0154605402302297	-0.00202103321218085	0.0023027352142673	-0.00213835348065525	0.00231751721502687	-0.00213907413787583	-0.00220369196089251	-0.0166092748839094
9.6	-0.0150553665586703	0.000877672172452161	0.00197985265526217	-0.00243452384102436	0.00198020036287752	-0.00242752641450096	-0.00480004559619016	-0.0158616236980853
9.7	-0.0139112195627624	0.00199842887912695	0.001619316675119	-0.00268474875260919	0.00162758702910271	-0.00268635751225701	-0.00771947839355151	-0.0155764875610629
9.8	-0.0129322543139985	0.00257868835383842	0.00123655373180055	-0.00287910867394019	0.00123470914195351	-0.00288773122814865	-0.0109336881966122	-0.0144560441370084
9.9	-0.0119694843783276	0.00229632956016488	0.000825877639075519	-0.00302437397770112	0.000814016437683581	-0.00302695010638116	-0.0139743354632639	-0.0126840663860688
10	-0.0133777000229129	0.00173055485037772	0.000390635950442546	-0.00309656638005085	0.000389799666440404	-0.00310385413746951	-0.0176968442887557	-0.0102317129062418
10.1	-0.0134745240900116	0.00387108610092565	-3.70486284889065E-05	-0.00313072845513429	-4.16793466384562E-05	-0.00313347765917761	-0.0196074564771864	-0.00581935781859302
10.2	-0.012438706579717	0.00472829259014085	-0.000474952891272413	-0.00309150897187394	-0.000487516994476573	-0.00309523376662752	-0.0204793878302583	-0.00204236384710217
10.3	-0.0113640921273489	0.00505327145079319	-0.000905984471857403	-0.00298792129252038	-0.000905796160777327	-0.0030012615468759	-0.0206607893322736	0.00199524330242509
10.4	-0.0102602231368762	0.0042362672860357	-0.00131246932770699	-0.00283666399493324	-0.00131561930782714	-0.00283453686564431	-0.0196534637044091	0.00552152788611995
10.5	-0.0117329710831413	0.00323836829897404	-0.0016866702124372	-0.00261866506894533	-0.0016928097591879	-0.00262587680587841	-0.0191878294661203	0.00871168834781635
10.6	-0.0122438177710905	0.00457613130718212	-0.00204511237882245	-0.00236765773561926	-0.00204660676858251	-0.00237274755759364	-0.0172183813085493	0.0126823642312976
10.7	-0.0124610321321412	0.00558501211085238	-0.00235130515235057	-0.00205613954891147	-0.00235450775051556	-0.00207210186759509	-0.0148175205429242	0.0159596457823959
10.8	-0.0120499499260386	0.00712950757665934	-0.00261588209100779	-0.00170979978358205	-0.00261295786245601	-0.00171195729779708	-0.0115829602441166	0.0193223165838936
10.9	-0.0108184458845969	0.00783155818373614	-0.00282985138560521	-0.001335857078101	-0.00282913188897037	-0.00134095816511654	-0.00724144584976274	0.021635462694039
11	-0.0114144064724287	0.00820409240577542	-0.00299724735075053	-0.000926101976936315	-0.00299024002617344	-0.000930371977974727	-0.00348160393174129	0.0231432848092283
11.1	-0.00993287518729815	0.0107055986655326	-0.00309352260762184	-0.000505901264493339	-0.0030858003238184	-0.000497628823660722	0.00207569401113179	0.0247546901791936
11.2	-0.0074915019824406	0.0112206237215212	-0.00313136814021303	-6.58673621906973E-05	-0.00313794332962336	-6.26684087717956E-05	0.00781293233776601	0.0241830075129093
11.3	-0.00513547987219768	0.010718571934858	-0.003108386427998	0.000371484477685069	-0.00311153877405624	0.000369325866332699	0.013348517929999	0.0226689169220625
11.4	-0.00320865817076693	0.00917143925640422	-0.00302517414414562	0.000799450424903421	-0.00302979154316194	0.000799597856041499	0.0186329820769357	0.0198237047230872
11.5	-0.0038397280419382	0.00766134465422843	-0.00289312530760599	0.00121243261780901	-0.00288562371646398	0.00121717339868678	0.0220491459614497	0.0159279685765434
11.6	-0.00281602864656692	0.00824619912699076	-0.00268677757195376	0.00160216409616448	-0.00269486211502997	0.00161183126390503	0.0261342325378803	0.012316435791052
11.7	-0.00112224477178683	0.00700246038866488	-0.00243571531552475	0.0019655025527658	-0.00243746179102166	0.00196917903764276	0.0295440531751726	0.00686092355570001
11.8	9.9636017866273E-06	0.00491460628223943	-0.00214028249382303	0.00228892614203021	-0.00214947103297522	0.00229868345125968	0.0317639112845949	0.000747425662673955
11.9	0.000319226028806699	0.00149011699332614	-0.00180146365044136	0.00256329014559337	-0.00180149932650398	0.00256983306047776	0.0328375828429945	-0.00609858624651321
12	-0.00365919652256628	-0.000624117966308233	-0.00141927385001324	0.00278329723200278	-0.00142374768464271	0.00278607118963441	0.0303544636471354	-0.0125463372951409
