# GHZ S RI R 50
0.2	-0.0145128441902701	0.00400547029811898	0.00305307472258964	-0.000882943561895153	0.00306355914127389	-0.000882775700107295	0.00534404764768508	-0.000463687703722808
0.3	-0.0135169603658547	0.00503241243208248	0.00290934557706713	-0.00129990981049887	0.00290306277563912	-0.00131159786476241	0.00585940431417379	-0.00220256835052219
0.4	-0.0127285908689292	0.00642236155921736	0.00269787165111133	-0.00169662294070346	0.00269576209289564	-0.00169854651246011	0.00550079725286984	-0.00336681565589173
0.5	-0.0106596430601536	0.00703176611248695	0.00242823928467952	-0.00205912830435605	0.00243107085779887	-0.00206286816317248	0.00604278833508747	-0.00505584912408373
0.6	-0.0109068940043423	0.00639496912027247	0.00211321863077613	-0.00238063338734364	0.00211247482485532	-0.00238348844174916	0.00386562283885068	-0.00779828930722024
0.7	-0.0112265203793647	0.00757562643252749	0.00176259816820193	-0.00265289733304993	0.00176883770992839	-0.00265700257341524	0.00129530944670421	-0.00826604341949054
0.8	-0.0109497949536688	0.00880430930359553	0.00136765791971349	-0.00287632559278658	0.00137597244243041	-0.00287471356621875	-0.000982600337817463	-0.00816870026672806
0.9	-0.0108983676283421	0.0103876553650067	0.000959378180104856	-0.00303157499342194	0.000959360095000931	-0.00304104414107476	-0.00346614548378188	-0.00718956355409698
1	-0.00881217755516854	0.0129789762908544	0.000521623871572842	-0.00313809469922725	0.000521472009363377	-0.003143477187355	-0.00384620057079167	-0.00459086068581853
1.1	-0.00684206501348251	0.0116815333691219	7.48343453363902E-05	-0.00317889655186101	7.57284033149106E-05	-0.0031836470893279	-0.00399690393630304	-0.00535896149880111
1.2	-0.00703397853786455	0.0113013959057082	-0.000367881901997135	-0.00315406257643748	-0.000366649912213749	-0.00317095698031883	-0.00567559165188465	-0.00462938792040841
1.3	-0.00710828909464326	0.0108732974088724	-0.000803864594326406	-0.00307949693043523	-0.000808839067454935	-0.00308719587534427	-0.00614615505915561	-0.00355951794108639
1.4	-0.00727767940787983	0.0107081159808485	-0.00123349211342134	-0.00293132930143104	-0.00123593117416719	-0.00293849743740575	-0.00622769559346987	-0.00262656776595118
1.5	-0.00570501499341609	0.0104393469094748	-0.00162423706867911	-0.00273265378943654	-0.00162225582409432	-0.00273822752984052	-0.00487943327571481	-0.00238846264829933
1.6	-0.00625218695479805	0.0101049801553177	-0.00199398184858239	-0.00247777047481577	-0.00199747864371161	-0.0024786531926809	-0.00644570221458653	-0.00215553851440996
1.7	-0.00554407566748516	0.0115767990775384	-0.00232391450611028	-0.00217829919824698	-0.00232599727130772	-0.00218694713951765	-0.00661630233194121	0.000232237456933953
1.8	-0.0043138638121489	0.0126338818539372	-0.00260255877168526	-0.00182367963306003	-0.00260778818390492	-0.00182916518558297	-0.00592776674762297	0.00216706479676344
1.9	-0.00289915470077497	0.013798689582912	-0.00282816186903804	-0.00145112850750699	-0.00282460908981904	-0.00144490526162838	-0.00469189794483984	0.00430755068070829
2	0.000311808502834236	0.0138764830839202	-0.00300878472031651	-0.00103715314015331	-0.00301152841571371	-0.0010302416661467	-0.00127291699188318	0.00523402421496446
2.1	0.000714467412507657	0.0117758644902799	-0.00312459252543507	-0.000593295099437809	-0.00312674760017741	-0.00060003640531328	-0.000388621028426042	0.00362484366480925
2.2	0.000569950111837627	0.0117403725580647	-0.00317354203745038	-0.000156212666837437	-0.00317531097012721	-0.000146402472729627	0.000223188272446527	0.00371091589709199
2.3	0.000695302810440903	0.0118442452384939	-0.00316168273374756	0.000290134644340981	-0.00316850621371228	0.000287245936380243	0.00115627032629297	0.00355549078028349
2.4	0.000706429389540456	0.0125997318621346	-0.00309948247227905	0.000729468428823246	-0.00309819806204784	0.000744697423081063	0.00196335946549825	0.00371895835617479
2.5	0.00283153933654133	0.0138475832370795	-0.00295726707333551	0.00117166123871787	-0.00297036066773936	0.00117309278745785	0.00484988584444252	0.00402203698847621
2.6	0.00422863013232563	0.0121391517412766	-0.00275451913087293	0.0015655866594636	-0.0027755173863553	0.00156972842313748	0.0068181273740461	0.000858271855455628
2.7	0.0045094513760973	0.011543489586497	-0.00251697034191854	0.00193286218414626	-0.00251720157879348	0.00193797694820486	0.00706564468569845	-0.00157655739898746
2.8	0.004881326255178	0.0112333115612043	-0.00221596707887781	0.00225751959814465	-0.00222573684009749	0.00226887133704584	0.00674432248095196	-0.00373020342061108
2.9	0.00555162047563658	0.0115593916697984	-0.00187074532327751	0.00255017631254798	-0.00186870536054908	0.0025591052708544	0.00623289655919384	-0.00494365122804216
3	0.00798235967288431	0.0110918292858936	-0.00148864210986464	0.00278362187460565	-0.00150391536787946	0.0027707465849405	0.0072811593106235	-0.00664370646502755
3.1	0.00814048206543084	0.00914637662529559	-0.0010918549752901	0.00295927344533906	-0.00110876807963869	0.00296486762200451	0.00577626824913352	-0.00992085835251855
3.2	0.008227458778308	0.0087442804451902	-0.000669379989498317	0.0030810798229306	-0.000664983580810711	0.00309185915202213	0.00368541954706378	-0.0112383855015785
3.3	0.00853054716614938	0.00824901187933134	-0.000235922072322623	0.00314599435736545	-0.00023267160934509	0.00314157041160078	0.00163790852401593	-0.0123408787962862
3.4	0.00879295687541251	0.00823226190003164	0.000211211126988506	0.00314341722983001	0.00020180195706184	0.00314461187033463	-0.000567110991866216	-0.0127096897519591
3.5	0.0107642903488504	0.00772234767260486	0.000636019365462527	0.00307945942116666	0.000641005022415281	0.00307808161721588	-0.00117194757609294	-0.0133838868973593
3.6	0.0104480250005243	0.00531137839848416	0.00105676838118221	0.00296003873699186	0.00106340163089642	0.00296346174456648	-0.00440868480150189	-0.0156086755885242
3.7	0.00959243876600879	0.00497163159608206	0.00147296569432264	0.00277586188269869	0.00147140771138954	0.00279223447893168	-0.00827647576296504	-0.0151620632002752
3.8	0.00935572023724511	0.00511820441437657	0.00183615191158976	0.00254239304134117	0.00184680027069943	0.0025486104667491	-0.0115524631223264	-0.0137026698651777
3.9	0.0097723389883066	0.00587853059574633	0.00217531262391568	0.00226148406386017	0.00217072808431723	0.00226143527079204	-0.014090530788458	-0.0110058616349248
4	0.0126271636146623	0.00565166360726681	0.00246617476163136	0.00194518058720368	0.00247766089249648	0.00195120213046061	-0.0138062041021494	-0.00870305965234676
4.1	0.0129515046242356	0.00270561843947203	0.00271521830300603	0.00156875307450697	0.00273186334421443	0.00157830733237614	-0.0155369002665455	-0.00865987135162969
4.2	0.0123640554124101	0.00159021606245266	0.00290660262063563	0.00116903922362775	0.00290785805346441	0.00117130115790804	-0.0177424898595407	-0.00648871483456274
4.3	0.0119873691577549	0.000933641046268371	0.00304130596217494	0.000762445324894859	0.00304258269371219	0.000770974432241211	-0.0192228719368365	-0.00370449937447721
4.4	0.0116966668576207	0.000925638679081387	0.00311623783694366	0.00032970391735528	0.00312407283317434	0.000325002367439396	-0.0200990167773016	2.94774297135145E-05
4.5	0.0136235196983143	0.000649556997660107	0.00313370287096509	-0.000121345539644895	0.0031305583714236	-0.00011905153710683	-0.0179299344417141	0.00359004884279713
4.6	0.0133039729691639	-0.00233903109012823	0.0030638264682649	-0.000560759258887873	0.00307690218006439	-0.000549047692037363	-0.0173186840305585	0.00401318412187377
4.7	0.0121759871584174	-0.00333751124278801	0.00295640717020948	-0.000963765659330467	0.00295620630236982	-0.00097311111153067	-0.0173566727857564	0.00606907178991352
4.8	0.0112860885972166	-0.00404042779883932	0.00280427670990818	-0.00135887795575147	0.00279648601927241	-0.00137878046601563	-0.0167131794178969	0.0084038225219574
4.9	0.0105840746231173	-0.00400247964691195	0.00258419621127949	-0.00175071200324489	0.00257828077516737	-0.00174228865570063	-0.0155419339094276	0.0112693936436739
5	0.0120046951162642	-0.00457622897124837	0.00229945979578509	-0.00206830225163055	0.0023020338174014	-0.00208058192562878	-0.0115527463526023	0.0132330844797894
5.1	0.0107299245052284	-0.006944788180264	0.00198701088254803	-0.00237600162551871	0.00200006716156562	-0.00237365137042486	-0.0101263955787533	0.012789538432131
5.2	0.00951341883277662	-0.00701402028688444	0.00165025280677641	-0.00262727455946507	0.00165072061144027	-0.00263138225392218	-0.00845924421561025	0.0143286218500922
5.3	0.00916112324052894	-0.00698148306254255	0.0012644845518288	-0.00283149424326264	0.00126077733600641	-0.00283400726347198	-0.00569419039266176	0.0155541655308756
5.4	0.00922200082501043	-0.00664198431876283	0.000858849693161081	-0.00297994777281342	0.000857962443907179	-0.00298236263923445	-0.00231015349313309	0.0164082550340933
5.5	0.0115543629298346	-0.0078735361125691	0.000438987855270075	-0.00306628735134104	0.00045135539283859	-0.00306628337393288	0.00331044727954889	0.0148327409954483
5.6	0.00932669609308337	-0.0113125142889171	1.42663532225705E-05	-0.00310383644696842	1.10174593477503E-05	-0.00310042456388007	0.00387430162670107	0.0104151861992544
5.7	0.00670870317186186	-0.0112977519646693	-0.000413290951893712	-0.00307709225191397	-0.000416958435536013	-0.00308072570555194	0.00355745193578284	0.00913206974152779
5.8	0.00494756366996138	-0.0106688305696029	-0.00083880259184481	-0.00298641532635384	-0.000838084215154319	-0.00299398499586473	0.00365025191982925	0.00814158776449586
5.9	0.00341337308376894	-0.00878663056868018	-0.00124286487735536	-0.00283788920626205	-0.0012412799054681	-0.0028419747033669	0.00344956579336787	0.00830052459927781
6	0.00581262689298341	-0.00647118501714007	-0.00162817796126294	-0.00264708823336786	-0.00162224759627351	-0.00265037801280394	0.00692788205569393	0.00908148616630717
6.1	0.0067626813102946	-0.00908611583700343	-0.00198697730487838	-0.00239433125275266	-0.00198288142590157	-0.00239903406738719	0.00887998640644284	0.00467028276836338
6.2	0.00598115301602829	-0.0103380884005999	-0.00229822160885962	-0.0020824745710036	-0.00229467707360545	-0.00209101351647776	0.0086538768388239	0.00151674933172713
6.3	0.00498468081008307	-0.0115233979989841	-0.00255983535913362	-0.00175257313439116	-0.00256948811978011	-0.00176026003350349	0.00775776965204858	-0.00159382162330937
6.4	0.00371499879284752	-0.0116514947854622	-0.00278785784067804	-0.00137908268673402	-0.00278586478518623	-0.00138479803939129	0.00626053905352656	-0.00342703798050467
6.5	0.0047391879820166	-0.0131801091390819	-0.0029567918045418	-0.000975862386014755	-0.00295719357821338	-0.000974753962029929	0.00685697453745688	-0.00653880674527261
6.6	0.00141432791911037	-0.0151703279237021	-0.00305095228936655	-0.000558738222372532	-0.00306145332423089	-0.000561738967587787	0.00251864137745009	-0.0101052217953306
6.7	-0.000523032712375458	-0.0142861923880871	-0.00309810590552746	-0.000138299506955286	-0.00309711581727625	-0.000132142865271444	-0.00104484653388593	-0.010127429830762
6.8	-0.00181711240838524	-0.0136394383076787	-0.00309050103496408	0.000300979632081482	-0.00308964042412767	0.000305684526530669	-0.00413125384175676	-0.00969858679702108
6.9	-0.00291344510247458	-0.0119235674157125	-0.00301447076455816	0.000728710213439968	-0.00301492073502524	0.000733630825642673	-0.00684281271177105	-0.00744251041208836
7	-0.000139429745760795	-0.0115538081853974	-0.00287972171308022	0.00113770823951266	-0.00288113620187669	0.00114086545249979	-0.00517861434982353	-0.00616027857693396
7.1	-0.00246484656307936	-0.0147891231966847	-0.00269775149798064	0.00152123311761767	-0.00270026140709975	0.00153206549283444	-0.00845239920205888	-0.00837103605517159
7.2	-0.00536093567695352	-0.014123878250852	-0.00247127476504277	0.00188218904017933	-0.0024715251793792	0.00188800873414783	-0.0121020938447112	-0.00615434602160582
7.3	-0.00757136712886929	-0.012938936246107	-0.00219017797952947	0.00220791041415924	-0.00218746615916335	0.00220940018581179	-0.0144585490243054	-0.00310569499017908
7.4	-0.00992689239550145	-0.010355121133626	-0.00185542722492126	0.00248925887361942	-0.00184838568766617	0.00249578966763493	-0.0164159578101436	0.00156273102453141
7.5	-0.00788666963837458	-0.00684158736557232	-0.00150017322358708	0.00272156433875695	-0.00150116467493623	0.00271955581385942	-0.0130588351913936	0.0071598565316745
7.6	-0.00768888354869189	-0.00849975390894423	-0.00111948718186003	0.00291643298160763	-0.00110909471655529	0.00292689258362281	-0.0108761786302538	0.00698790076172634
7.7	-0.00878135031638726	-0.00780445998159792	-0.000693842187226349	0.00305034572741158	-0.000688309205043996	0.00305009391159674	-0.0098627469227058	0.00854626099034173
7.8	-0.00902949843466883	-0.00723328047202084	-0.000253052573788469	0.00311999353446816	-0.000266488811868717	0.00311272155127117	-0.00806159374586506	0.00999956651453127
7.9	-0.0086698092727976	-0.00617684368685799	0.000162521288795834	0.00311748620044952	0.000173558407060923	0.00311739670256484	-0.00524505660653574	0.011899612535489
8	-0.00581657878215091	-0.00788147066065395	0.000599314880214185	0.0030869634395677	0.000607647166066181	0.00308505164797651	2.86077481324291E-05	0.0109128951477503
8.1	-0.00867979679519413	-0.0105600216982278	0.00104363317604535	0.00296898111092004	0.00104140497814438	0.00296568956400422	-9.89039665108783E-05	0.00785794423863984
8.2	-0.0107727468033553	-0.00966896753702498	0.00143747546175516	0.00279256282091791	0.00143646147215626	0.00280413387789682	0.000416697133475609	0.00829068167786276
8.3	-0.0121335560109887	-0.00860931939671803	0.00181389412115726	0.0025703570911533	0.00181901962991096	0.00256785824640067	0.00177761219086573	0.0084681780374953
8.4	-0.0132101373230687	-0.00628310416378402	0.00217147959687914	0.002302367331758	0.00216026814837071	0.00230256933687641	0.00339104116670181	0.00932548564902158
8.5	-0.0101767280289306	-0.00504328894840062	0.00248645810551703	0.00196277567310582	0.00248644895600201	0.00196413344343904	0.00907343012315243	0.00842200969327506
8.6	-0.0117598073682352	-0.00774295229196877	0.00271553749015278	0.0016016602601203	0.00271134949864516	0.00159928595367548	0.00949784252262337	0.00265838667344159
8.7	-0.0141564180154907	-0.00664345656115421	0.002913890383896	0.00120978177665651	0.00291272982589679	0.00120935099289589	0.00821935899379408	0.000386958977245194
8.8	-0.0156042273645153	-0.0048629444007151	0.00305609302846624	0.000792562322229543	0.00306716664844484	0.000790615502923104	0.00704216544981827	-0.00128447081535523
8.9	-0.0165404746599982	-0.00185811562136847	0.00314212136500829	0.000354428214847602	0.00315163602158765	0.000347365553241564	0.00573638029350036	-0.00138179115482573
9	-0.0131347028508326	0.000670123027828344	0.00315022320280567	-9.82130983849466E-05	0.00315694963408695	-9.25030606523219E-05	0.00847377623994018	-0.00147037283801392
9.1	-0.0126882295328358	-0.000827668714429043	0.00311726650308664	-0.000523070030052584	0.00311748870722797	-0.000523259924022173	0.00806907715621024	-0.00561723789852767
9.2	-0.012373978553945	-0.000251273854046407	0.00301595478455173	-0.000953905631532497	0.00301980378760767	-0.000953619406737546	0.00699902163342345	-0.00753572785476873
9.3	-0.0116804094201722	-0.000350407396706308	0.00284950841178397	-0.00137517916194593	0.00286773355487903	-0.00137536065411333	0.00590387157496715	-0.00984862896916317
9.4	-0.0113842936870262	0.000135686669832293	0.00263025255596102	-0.00175494410372368	0.00263374903826588	-0.0017660186595446	0.00395408958018908	-0.011232383188222
9.5	-0.00889333872868108	-0.00134833457970313	0.00237187718197133	-0.00210992145288344	0.0023868220663756	-0.00211032997632146	0.00405669442918938	-0.014246032448899
9.6	-0.0120178890326304	-0.00389359970764656	0.00206055031311335	-0.00243553516023513	0.00206076555882264	-0.00242841557497037	-0.00219848409684889	-0.0182352715101244
9.7	-0.0143914487502659	-0.00260692074582872	0.00169225377842471	-0.00270444411050004	0.00170069481647056	-0.0027059429351964	-0.00825870019208639	-0.017379457881682
9.8	-0.0158296647749553	-0.000931574943012092	0.00130265778105382	-0.00290946960947675	0.00130091558444034	-0.00291826941817194	-0.013391306032983	-0.0151254918633405
9.9	-0.0168285007543588	0.00205124863016657	0.000892446967296725	-0.00306365831768626	0.000880420308590749	-0.00306648380285774	-0.0179218959986326	-0.0106006137435137
10	-0.013568511362413	0.00399424835278205	0.000451830610625399	-0.00316743693732164	0.00045109448742607	-0.00317492065110391	-0.0174485947081936	-0.00626556315685566
10.1	-0.0142341212198699	0.00237077851039343	-6.79463031873785E-06	-0.00320853484200821	-1.15125169713757E-05	-0.0032113981504186	-0.0203329331780598	-0.00525285849104215
10.2	-0.0152431808878282	0.00370444297116922	-0.000458289654546506	-0.00316818510499212	-0.000471114545193768	-0.00317211006803915	-0.023078615148241	-0.000798072710536811
10.3	-0.0155447263370252	0.00537483334097749	-0.000901136691982089	-0.00306875716375601	-0.000900823758559325	-0.00308242023601688	-0.0243946972137616	0.00447394885126409
10.4	-0.0152283958802123	0.00824647955509407	-0.00132681520331605	-0.00292749382084503	-0.00133007142902438	-0.00292533180796502	-0.0241279027124202	0.0111953845906258
10.5	-0.0108549635382377	0.00967457126937494	-0.00173923491894695	-0.00269569414716159	-0.00174556395467451	-0.00270311683045338	-0.0185375245447273	0.0164477259243661
10.6	-0.0100310240546869	0.00793917031071702	-0.00209962793895117	-0.00242109799389828	-0.00210116895448861	-0.00242630856439175	-0.0158022080939334	0.0177673454036451
10.7	-0.00918292758180943	0.00782721230334615	-0.00241183242249491	-0.00210188185178137	-0.00241514026026384	-0.00211822534951858	-0.0125814924041497	0.020426897898138
10.8	-0.00887962098134491	0.00724588041950475	-0.00268731047004367	-0.00174421782310357	-0.00268431976669831	-0.00174643922502301	-0.00945770983928658	0.0222175608524282
10.9	-0.00899437270463048	0.00824110993130335	-0.00291184785720109	-0.00134761416182795	-0.00291114988676891	-0.00135284990478372	-0.0060796465134685	0.0252233036029937
11	-0.00527059596166911	0.00804307656374286	-0.00305961928719081	-0.000914059993940104	-0.00305252751430373	-0.000918473096879325	0.00167378033785763	0.0262537908476895
11.1	-0.00655382172351638	0.00505236440949898	-0.00315522264708076	-0.000500050449603567	-0.00314731116418363	-0.000491658561857571	0.00459783586301499	0.0234102971802154
11.2	-0.00773553467681886	0.00543438806691343	-0.00319786756541759	-4.59627358716713E-05	-0.00320455969504699	-4.26515919627657E-05	0.00764285302474449	0.0232503505816519
11.3	-0.00812762521633344	0.00620662629962961	-0.00316902191781327	0.00040916928457167	-0.00317226023383735	0.000406996508463814	0.0111988160521847	0.0228221053942509
11.4	-0.00818327670075158	0.00789220306777954	-0.00306713827170266	0.000848143292317109	-0.00307183218661701	0.000848346869296917	0.0152419616005108	0.0225628081731842
11.5	-0.00443832181781618	0.00767340425598981	-0.00293281464720499	0.0012483340910774	-0.00292516547805776	0.00125310866539411	0.0232325602154903	0.0194378849850315
11.6	-0.00587898845550511	0.00467342021687872	-0.00273045066139126	0.00165962788020151	-0.00273862480888817	0.00166957166276977	0.0251580456474805	0.0122287890089901
11.7	-0.00735907515681733	0.00523868946828616	-0.00246086913076708	0.00203553371420848	-0.00246260560648737	0.00203930644991231	0.0259906081377942	0.00799595846628408
11.8	-0.00790843707880253	0.00657125539841447	-0.00214725117516912	0.00235949743303408	-0.00215647058661139	0.0023695564681685	0.0268001775912167	0.00432190680239361
11.9	-0.00694547149137896	0.0093976007302361	-0.00180097817063202	0.00262664324813206	-0.00180093752939449	0.00263329424643405	0.0281115847881839	0.00237091653168614
12	-0.00115944418713353	0.00908173201921397	-0.00141565754042482	0.00286494006570645	-0.00142019738278671	0.00286783486389105	0.0342123123637963	-0.00306389624774423
