# GHZ S RI R 50
0.2	-0.014078426646538	0.00533357387487442	0.00304459483148961	-0.000885247846343162	0.00305505473046878	-0.000885095454871682	0.00578728797764248	0.00090419515440304
0.3	-0.0132249644674	0.00586990589356691	0.00289840455172921	-0.00130126249132871	0.00289211945693842	-0.00131290469447536	0.00613449547575536	-0.00132071261407534
0.4	-0.012460576784137	0.00659511280142475	0.00268421614014359	-0.00169544271301873	0.00268211086479954	-0.00169735477794682	0.005702805114768	-0.00314259018771867
0.5	-0.0117111767352027	0.00737670465927118	0.00241449584278594	-0.00205240488676757	0.00241730980831905	-0.00205613066952615	0.00481368338234129	-0.00459557306564256
0.6	-0.0108905974993907	0.00806114276822685	0.00210179890477959	-0.00237248787903322	0.00210105548370731	-0.00237532993831848	0.00367695900823184	-0.00584232868950788
0.7	-0.0102451797316038	0.00871169896464642	0.00175119377863483	-0.00264239003348207	0.00175739906352278	-0.00264648307665982	0.00214181373737126	-0.00670445181761657
0.8	-0.0095097862719793	0.00939003827173541	0.00135774297417018	-0.00286223719296474	0.00136601463662525	-0.00286064134350656	0.000439912463236325	-0.00707340599847192
0.9	-0.008877041864684	0.0100442696232051	0.00095331664281224	-0.00301421714725076	0.000953297048330694	-0.00302363156367586	-0.00129431430628721	-0.00703599553066538
1	-0.00820792333172945	0.0108495734252243	0.000520282687974143	-0.0031222915354498	0.000520133726268215	-0.00312764733517372	-0.00303469068959712	-0.00644824059269125
1.1	-0.00735086562806617	0.0115062434061702	7.30670264900018E-05	-0.00316186026847809	7.39542431675284E-05	-0.00316658568270375	-0.00449708355649858	-0.00533008548586357
1.2	-0.00657700252070395	0.0118078938196185	-0.00036556073725877	-0.003134752980562	-0.000364335928604023	-0.00315154388531138	-0.00533630223685451	-0.00384409963526242
1.3	-0.00596148775777702	0.0117135175936924	-0.000796599115817546	-0.00306047159236009	-0.000801536567163024	-0.0030681250448409	-0.00521498972669156	-0.00233252008258173
1.4	-0.00552985074588067	0.0112740198160544	-0.00122247674281035	-0.00291521674891723	-0.00122489233810588	-0.00292234477552998	-0.00469544540555175	-0.0015310174011249
1.5	-0.00492442789698351	0.0111016724982343	-0.00161371292679654	-0.00271674392479772	-0.00161174194795894	-0.00272228368587635	-0.00434040843487259	-0.00101737267040622
1.6	-0.00424502359371699	0.0110418970605294	-0.0019764432474479	-0.00246094486708382	-0.00197991267657213	-0.00246182431992881	-0.00450303541651517	-0.000273031219839321
1.7	-0.00352003617039273	0.0112513433793298	-0.00230152424648233	-0.00216666928759387	-0.0023035725934141	-0.00217525574703679	-0.00439380759384545	0.000861500882349758
1.8	-0.00270571690840201	0.0115736423030996	-0.00257839119202232	-0.00181741494495744	-0.00258356703573409	-0.00182287450720016	-0.00396961872753953	0.00194125497550742
1.9	-0.00188561665833601	0.0117890493046008	-0.00280380944618187	-0.00144827573815676	-0.00280029913476087	-0.00144208787217912	-0.0033082628315773	0.00293372130383117
2	-0.000922516369193123	0.0120556972708209	-0.0029792843282146	-0.00103716173496696	-0.00298202487773144	-0.00103031911845817	-0.00238189786342114	0.00392630839268958
2.1	5.45541796875733E-05	0.0118407015681416	-0.00309500048355843	-0.000604636685054446	-0.00309710197311567	-0.000611332143405451	-0.00106540920549107	0.00443209341099792
2.2	0.00070085762127822	0.0117001470224186	-0.00314834913678429	-0.000173425319242123	-0.00315016143603464	-0.000163700462340141	0.000443249107283136	0.00458331093489875
2.3	0.00122318532638562	0.0115425485568911	-0.00313994334999534	0.000268707378708155	-0.0031466984898112	0.000265798560574061	0.0019593513781693	0.00420581291816456
2.4	0.00161786963217361	0.0115169883103644	-0.00307990982219823	0.000703149526926072	-0.00307873661204533	0.000718267088342255	0.00335814943494084	0.00344469144894076
2.5	0.00211213164260239	0.0117841195426313	-0.00294497571001806	0.00113576592931155	-0.0029579808233121	0.00113706765391633	0.0045388565433725	0.0024054382727977
2.6	0.00301336231488556	0.0118538361855311	-0.00275404073548965	0.00153115377301607	-0.00277496229475253	0.00153507592028921	0.00566315987260347	0.00097574216259947
2.7	0.00390731869733437	0.0117683892369381	-0.00252178221074012	0.00189993253249278	-0.00252205908113593	0.0019050190059645	0.00634784987014347	-0.000789655758062708
2.8	0.00487086197331606	0.0115737003718184	-0.00222672717356661	0.00222492442140293	-0.00223655786571568	0.00223612550176643	0.00658201666429921	-0.00264410012936488
2.9	0.00590637428130298	0.011299123782114	-0.00189010425821396	0.00251826195734528	-0.00188817086762603	0.00252717283801428	0.00649825199979392	-0.00439486534690979
3	0.00719116196541868	0.0109200345947805	-0.00151806697170539	0.00276123252103608	-0.00153316294397983	0.00274820453136909	0.00624583856642213	-0.00600044859868053
3.1	0.0083829449178336	0.0100369973265502	-0.0011194525058629	0.00294364842553498	-0.00113639374250376	0.00294906571667857	0.00570241732502663	-0.00779723632883874
3.2	0.00919387150784382	0.00909581355298103	-0.000700217765847727	0.00306870566374489	-0.000695941095510002	0.00307951171749863	0.00454382068786475	-0.009459340379505
3.3	0.00980979385816503	0.00808549271809135	-0.000270559366171866	0.00314013923570214	-0.000267263201065516	0.00313575588373434	0.00306151624041938	-0.0110139665766599
3.4	0.0101851293269117	0.00713844373771576	0.000175538421972763	0.00314778624321128	0.000166109768106843	0.00314887445611355	0.00117783556619751	-0.012443140157393
3.5	0.0106068191002803	0.00637862231323275	0.000608516120302647	0.00309009137481361	0.000613522210047552	0.00308875756194398	-0.00112167259865155	-0.013508424934023
3.6	0.01094504543527	0.00528303361645905	0.00102803543763342	0.00297069771308322	0.00103463611063024	0.00297418580503269	-0.00367219872544913	-0.0141767376852295
3.7	0.0108953290275807	0.00440919060644467	0.00144480638922292	0.00279423254253513	0.00144307244292067	0.0028106043158283	-0.00643344345760435	-0.014225031238037
3.8	0.010867086660293	0.00380244317445169	0.00181299309921109	0.00256726097525539	0.0018235977847455	0.00257360467011432	-0.00922968334016527	-0.0137347281204372
3.9	0.010987931397134	0.00342291288633021	0.00215977536991174	0.00228884067615105	0.00215517823049809	0.00228874767560595	-0.0119871759663624	-0.0126119904954941
4	0.011636952920594	0.00312783917529965	0.00245058788128826	0.00197065511514983	0.00246203009962426	0.00197679188318502	-0.0142813571038806	-0.0107774231532491
4.1	0.012357634703738	0.00201389925359679	0.00270320752543143	0.00160391348533444	0.00271977966532788	0.00161368314266679	-0.0160612659062557	-0.00878775290432631
4.2	0.0125252162840122	0.000825163190786167	0.00290460582852453	0.00120676106383192	0.00290584035376329	0.00120904614624787	-0.0176381703720013	-0.00648241408242034
4.3	0.0124345078774584	-0.00019269963626917	0.00304703936616771	0.000798935228485438	0.003048229486096	0.000807517446312709	-0.0188195762385172	-0.00397527153047261
4.4	0.0121503479908444	-0.00102219851655795	0.00312617683810155	0.000364298830581828	0.00313409569512677	0.000359660392987963	-0.0196782422191064	-0.00118244441977366
4.5	0.0121260558943515	-0.00146930020638179	0.00315077986016218	-8.10051697509563E-05	0.00314758984562688	-7.8740907995449E-05	-0.0198899339330192	0.00193570436629174
4.6	0.0121777968266283	-0.00248497358694292	0.00309620038632096	-0.000527735432962738	0.00310924076679625	-0.000515765644357623	-0.0194511152411178	0.00477202348195698
4.7	0.0118982021064346	-0.00334079593335268	0.00299378728984482	-0.000940284849430081	0.00299368651042568	-0.000949717430681144	-0.0186796942749299	0.00746523566569541
4.8	0.011533670724168	-0.00413638553933529	0.00284491744050292	-0.00134265609639435	0.00283725942606551	-0.00136282781732384	-0.0173786815906846	0.0100489486760021
4.9	0.0112322645862536	-0.00476039315968245	0.0026294549357564	-0.00174050982004446	0.00262338803818828	-0.00173206491292952	-0.0156160045951572	0.0123592283636303
5	0.0113140196626566	-0.00530579029875849	0.00235208922759421	-0.00207286286829063	0.00235482463274602	-0.00208528354127221	-0.0131210638728741	0.0144533513164675
5.1	0.0113334776582749	-0.00649272823719995	0.00203067151719964	-0.00239472930638577	0.00204389012323388	-0.00239225635995893	-0.0102157788859352	0.0157245284151632
5.2	0.0109194371406945	-0.0074361491026643	0.00168868797655882	-0.00265161399414856	0.00168918792259142	-0.0026557730879486	-0.0072381518073275	0.0165041741792224
5.3	0.0105750736006145	-0.00817746070297877	0.00129888043459706	-0.00286299000417995	0.0012951371150563	-0.00286555988829937	-0.00412020058716372	0.0167462300337336
5.4	0.0102582398411832	-0.00882956399872232	0.000887337216033887	-0.00302157115002237	0.000886448606399229	-0.00302402783665081	-0.00105335511278645	0.0162506378948403
5.5	0.0102784697340645	-0.00939849079661327	0.000449578767678511	-0.00311408629272237	0.000462141213081174	-0.00311406744012918	0.00182284879465365	0.0151837317417234
5.6	0.0099061994117061	-0.0108410465454005	1.76347252341968E-05	-0.00314521997587834	1.43390052262157E-05	-0.00314176591258889	0.00409504028602031	0.0133167035626845
5.7	0.00875938565993592	-0.0117925915534905	-0.000415409227316207	-0.00311962581381905	-0.000419122670581211	-0.00312331313972976	0.00569374097895291	0.0113852700902283
5.8	0.00757090794898446	-0.0123749279920824	-0.000850088541235214	-0.00302929144055479	-0.000849358119931077	-0.00303696912008594	0.00692206057642779	0.00909315670939584
5.9	0.00619913668190009	-0.0125330307716259	-0.00126594710815799	-0.00287629220892582	-0.00126434696805735	-0.00288043924055716	0.00738237708135069	0.00661289787055297
6	0.00530870054102564	-0.0120268347791315	-0.00165334524659967	-0.00267294714004432	-0.00164735603993283	-0.00267628924756242	0.00720647578486464	0.00452595692289439
6.1	0.00495553713195498	-0.0123166620557728	-0.0020127679359548	-0.00242235279934057	-0.00200862493877478	-0.00242711567018116	0.00691335881293066	0.002379024798242
6.2	0.00412887714916072	-0.0127018394693848	-0.00233251898566627	-0.00210642211223087	-0.00232894157223985	-0.00211508134535087	0.00618168526893183	0.000425336202779511
6.3	0.00336566795486402	-0.0130360207968489	-0.00259954199149724	-0.00176786633511538	-0.00260934788976707	-0.00177562529282207	0.00534839240864729	-0.00144483350074275
6.4	0.00248259575630724	-0.0133224694656473	-0.00282702021652402	-0.00138424045711666	-0.00282502661504464	-0.00139003267923107	0.00426939306920015	-0.00325320131373762
6.5	0.00220983220960549	-0.0136007910701744	-0.00299437488979008	-0.000981820479284126	-0.00299477933040496	-0.000980697895874088	0.00318001582966603	-0.00484117466122082
6.6	0.00135091589128354	-0.0145601397979246	-0.00309783920405721	-0.000555088395409	-0.00310850580004355	-0.000558092373790231	0.00152743255801005	-0.00653850219824735
6.7	0.000184726473130816	-0.0148184243157585	-0.00314251696332792	-0.000121497290887527	-0.00314147569433323	-0.000115260048926648	-0.000655615478025349	-0.0074666537321394
6.8	-0.000881677444548963	-0.0148219947296465	-0.00312864814975916	0.000326412820867526	-0.00312774358017606	0.000331172987935477	-0.00307009866637754	-0.00778233588193583
6.9	-0.0020374094273573	-0.0145102943855497	-0.00304747282641169	0.000757404916419925	-0.0030478964795367	0.000762390043877835	-0.0056130438374013	-0.00732595776619938
7	-0.00234485044911293	-0.013776942184178	-0.0029155594326003	0.00117665104495025	-0.00291697218062568	0.00117986736485996	-0.00761930740302402	-0.00595610381178152
7.1	-0.0028636545725667	-0.0142841046169106	-0.00271792788295848	0.00157289803701284	-0.002720349859741	0.00158390907822811	-0.00930022880291193	-0.00458672825221457
7.2	-0.00414368110596569	-0.014317563292771	-0.00247863778178982	0.00193433265748004	-0.00247882185888226	0.00194022549895109	-0.0106949357428097	-0.00251681866911195
7.3	-0.00555312015792873	-0.0140027518946344	-0.00218841538766857	0.00225980832766352	-0.00218565441384196	0.00226128219364814	-0.0113446650852469	-0.000265209974968828
7.4	-0.0072614018461206	-0.0133061901081858	-0.00184539589755742	0.00254378935583722	-0.00183818332512807	0.00255030735416708	-0.0116292699668619	0.00182135116350169
7.5	-0.00832810958373697	-0.0115817173400828	-0.00146901236553357	0.00277667587308163	-0.00147004924829469	0.00277466307023747	-0.011258061347201	0.00426316282856021
7.6	-0.00852440511009991	-0.0108903376042493	-0.00107759153129028	0.00295508855218371	-0.00106695161497796	0.00296544251299891	-0.0100985504104686	0.0059786312876745
7.7	-0.00930145959874933	-0.0102304357111314	-0.000648102012659722	0.00308001327906255	-0.000642539927855889	0.00307966942683419	-0.00903060648562048	0.00717928830758294
7.8	-0.00965095232286867	-0.00962217562018219	-0.000201829342286474	0.00314130761918529	-0.000215461607036461	0.00313422244953631	-0.00775735514246022	0.00840883687468456
7.9	-0.00974475449152214	-0.00898990560483066	0.00022124116357072	0.00312761408231147	0.000232323183705773	0.00312731874324001	-0.0062184248822653	0.00973363416979219
8	-0.00883561145704437	-0.00877351762025029	0.000655197250834651	0.00307476363716548	0.000663491258574117	0.00307270113271687	-0.0039097470813999	0.0108281523666694
8.1	-0.00897235110419902	-0.00973884320913715	0.00108926602030312	0.00295232245122406	0.00108698743026141	0.00294906590650309	-0.00165220511867985	0.0110032418833515
8.2	-0.00985114131565704	-0.00999436459447995	0.00148179553031631	0.00276998788188086	0.00148096471073784	0.00278157577880184	0.000616304377774585	0.0109836995183469
8.3	-0.0108372833225242	-0.00981405941223024	0.00185484686479956	0.00253777840994284	0.00185992597894979	0.00253519683370006	0.00288942668205232	0.0104413309361428
8.4	-0.0119294584694828	-0.00901092962109701	0.00220227789910384	0.00225819450394087	0.00219110879491877	0.00225858254378732	0.00481687357615725	0.00945660750860149
8.5	-0.0119928852587576	-0.00764999953715782	0.00250179078798152	0.00192197535363356	0.00250179947471522	0.00192332756734306	0.00679283962126263	0.00841151459519537
8.6	-0.012070695228611	-0.00758920817889451	0.00273252214531585	0.00155941077511875	0.00272830932790779	0.00155710141903845	0.00848836484830253	0.00630695278709381
8.7	-0.0128348918284636	-0.00710202786821281	0.0029219956248909	0.00116040062058879	0.00292083262686529	0.00115998931936758	0.00947294064287744	0.0040472556414697
8.8	-0.0135245835958096	-0.00628081232279155	0.00305155566920483	0.000741861610707493	0.00306253968316119	0.000739757208314744	0.00997452958263133	0.00148811044437604
8.9	-0.0141565320929286	-0.00512543673090462	0.00312639585125376	0.000310162725634366	0.00313575424773029	0.000303018996741427	0.00986721628649902	-0.00111144320747427
9	-0.013764285359082	-0.00353664427100557	0.00313698911840387	-0.000140239451424851	0.00314376696280634	-0.000134641534513408	0.009486872147814	-0.00335091888574835
9.1	-0.0130764086886466	-0.00326066752859128	0.00308881197217943	-0.000570338722257355	0.00308902967018484	-0.000570531008365032	0.00870000298179695	-0.00598046369894675
9.2	-0.0128054303045381	-0.00289785481853739	0.00297484989611158	-0.000991330097438201	0.00297866929409109	-0.000991104899245822	0.00725445840560919	-0.00827261701050628
9.3	-0.0124244148355711	-0.00266304401513769	0.00280291680027255	-0.00140103696041882	0.0028209624807852	-0.00140146747729764	0.00540057136168212	-0.0103480824739976
9.4	-0.0122547775066126	-0.00251379372538327	0.0025839052912888	-0.0017738400436474	0.00258722559108526	-0.00178486212540437	0.0028358970110563	-0.0121311807914368
9.5	-0.0116230253691415	-0.00218213479036553	0.00231265836222561	-0.0021266997537532	0.00232744077176409	-0.00212734832715443	3.36057328331822E-06	-0.0130420999201938
9.6	-0.0118339272548998	-0.00292264031451577	0.00199666364235511	-0.00242944589898394	0.00199697585987208	-0.00242243180462903	-0.003528467855609	-0.0137698204161769
9.7	-0.0126655507891227	-0.00276121558930538	0.00163483114042722	-0.00268471435688133	0.00164312937890527	-0.00268629212195941	-0.00729751796821622	-0.0132498636955399
9.8	-0.0134035173653616	-0.00219451890342174	0.00125066756195253	-0.00288085322937441	0.00124885254131694	-0.00288950274993361	-0.0108412464733525	-0.0119524964099385
9.9	-0.0141655362471541	-0.00105752201948019	0.000841811650207201	-0.00302614171111713	0.000829940364956831	-0.00302877908265731	-0.0144108625090124	-0.00982898414204738
10	-0.0138073088350945	0.000474461943070049	0.000410385808700639	-0.00310800638424806	0.00040958823029547	-0.00311533128257558	-0.0171646084864389	-0.00666527799100561
10.1	-0.0134783117926304	0.000653688017720385	-2.65141414874701E-05	-0.00314663061456671	-3.11587786393975E-05	-0.00314940952897099	-0.019371920521324	-0.00350546034747866
10.2	-0.0137986957539142	0.00127343522438284	-0.000467589461330397	-0.00310662708292226	-0.000480197696142077	-0.00311040679794522	-0.0210475129797604	0.000399356014338327
10.3	-0.0140093858300876	0.00228023431328373	-0.000899958097215451	-0.00300447641118153	-0.00089972377033382	-0.0030178762470671	-0.0217802695343285	0.00471647296131385
10.4	-0.0139964937878464	0.00373989333803546	-0.001309487749426	-0.00285849195924494	-0.00131266451179755	-0.00285636416459991	-0.0215772760231007	0.00912190811258706
10.5	-0.0126245526339681	0.00548421031511793	-0.00169736111846168	-0.00263978972857941	-0.00170354140580962	-0.00264706081888767	-0.0200575691642631	0.01377316434574
10.6	-0.011065652921117	0.00572037514083689	-0.00205648572213729	-0.00237970459421733	-0.00205798920909064	-0.0023848209942881	-0.0176265896628383	0.0175496085177239
10.7	-0.0098344550549495	0.00581344368769887	-0.00236253927457315	-0.00206655422204991	-0.00236575530172294	-0.00208259525053514	-0.0144492073621873	0.0210081822373401
10.8	-0.00890279359627263	0.00550200054955324	-0.00262943352145241	-0.00171885324556222	-0.00262649393217118	-0.00172102185716673	-0.0107988320857771	0.0236616622175087
10.9	-0.00858718130195173	0.00550361383358824	-0.00284774932498606	-0.001339991479138	-0.00284703206259075	-0.00134512272328499	-0.00702235747865201	0.0258163879664524
11	-0.00726588117164648	0.00594695225867289	-0.00300872149786059	-0.000921135722200079	-0.00300170402996049	-0.000925436813159148	-0.00231123493282492	0.0277824014797302
11.1	-0.00636421328068615	0.0049420093588869	-0.00310214277171043	-0.000506227280828309	-0.00309439657782971	-0.000497934884631539	0.00274670139142045	0.0282905695194753
11.2	-0.00619243159363682	0.00439034468541514	-0.00314289249003012	-6.49881856351592E-05	-0.00314949068314044	-6.17751290809582E-05	0.0080291398685452	0.0281125490712983
11.3	-0.00601182204146649	0.0040453088495289	-0.00312001456187833	0.00037659237053992	-0.00312318169052201	0.000374429097513053	0.0136094924935194	0.0267933792008352
11.4	-0.00610428682211467	0.00398991035498522	-0.00303154452458632	0.000808107010035395	-0.0030361739582609	0.000808264784010049	0.0187034867727306	0.024200282449983
11.5	-0.00525069459284436	0.00420363703887081	-0.0028975964008272	0.00121315926373286	-0.00289008587568614	0.00121790923102572	0.0234650260233098	0.0207192133004391
11.6	-0.00490897539488472	0.00297190291279546	-0.00269783997590037	0.00160726071915768	-0.00270595980179017	0.00161696198615149	0.0272911253831765	0.0156026957770101
11.7	-0.00546155302110586	0.00243199255686918	-0.00244386498402534	0.00197552144925296	-0.00244561536242227	0.00197921426961639	0.0298735106337031	0.0100300754659663
11.8	-0.00596216784389529	0.00260155706971605	-0.00214417482722645	0.00229958985388077	-0.00215338017505716	0.00230939271252941	0.0313382525152024	0.00417651321784083
11.9	-0.00591680020967311	0.00353505406971812	-0.00180460692845239	0.00257030179129517	-0.00180463964159442	0.00257686047744861	0.0315689050323198	-0.00131708514939744
12	-0.00411904730745945	0.0043840273524488	-0.00142820858702005	0.00279664274444563	-0.00143270694283707	0.00279942814501029	0.0315903351806091	-0.00649170620328436
