# GHZ S RI R 50
0.2	-0.0142323631665055	0.00461463561420807	0.00304912190438598	-0.00088375484940076	0.00305959463923747	-0.000883593369885369	0.00556401449805856	0.000105141372254972
0.3	-0.0133756553118705	0.00536189441383543	0.00290438988629426	-0.0013002330823267	0.00289810724811554	-0.00131190045646749	0.00593810212260557	-0.00191068044140907
0.4	-0.012632234048988	0.00642494770015935	0.00269175552640666	-0.00169580575112599	0.00268964813557764	-0.00169772423811679	0.00554418978995453	-0.00339059335129177
0.5	-0.0113146629983369	0.00705715558920999	0.00242207699643746	-0.0020556285088981	0.00242490083023805	-0.00205936135866173	0.00539552231410378	-0.00505701070397953
0.6	-0.0111540829910769	0.00724508043891051	0.0021084827014164	-0.00237646091375912	0.00210773966688642	-0.00237931016929974	0.00365953260108368	-0.00706459292310173
0.7	-0.0109288286423748	0.00828138054119383	0.00175800014512313	-0.00264782752325143	0.00176422510965119	-0.00265192604763501	0.00159453262551382	-0.00774178010027208
0.8	-0.0103418264939465	0.00929410527106097	0.00136380238136282	-0.00286972407847213	0.00137209734540261	-0.00286811759694443	-0.000431472811344976	-0.0078883940186027
0.9	-0.00985532333621468	0.0104307811836196	0.0009573967630459	-0.00302349567196505	0.000957380358687663	-0.00303294010390883	-0.00255451360209227	-0.00732952692924463
1	-0.00833494913274469	0.0118617711162975	0.000522203660541628	-0.00313101605275635	0.000522055058627395	-0.00313638696969409	-0.00349828497099751	-0.00577482043759922
1.1	-0.00716464823338656	0.0113818651307014	7.49745491351885E-05	-0.00317173339734882	7.58670554876846E-05	-0.00317647315408087	-0.00432918057178873	-0.00569316837788757
1.2	-0.00701207060992506	0.0112340875386569	-0.000365986976214674	-0.00314595763364605	-0.000364753176897512	-0.00316280767280473	-0.00557743865141607	-0.00475177952779017
1.3	-0.00705509183687872	0.0108960320698756	-0.000799729064675398	-0.00307172013103629	-0.000804685216182877	-0.00307940153104351	-0.00593942755619056	-0.0036732958932212
1.4	-0.00715477366413518	0.0108317996398112	-0.00122770382327722	-0.00292526716526113	-0.00123013015122263	-0.0029324199355988	-0.0059523448805089	-0.00276145500623867
1.5	-0.00611557860530731	0.0108954398654124	-0.00161937503625808	-0.00272706920932517	-0.0016173960066929	-0.00273262935055153	-0.00514056661098156	-0.00227973975119265
1.6	-0.00578193623130343	0.0111451838015139	-0.0019861781073665	-0.00247132332268356	-0.00198966343551345	-0.00247220552897964	-0.00592780265376837	-0.00161854428989367
1.7	-0.0046905410556705	0.0120087367520878	-0.00231391209364947	-0.00217432658034368	-0.0023159776077788	-0.00218294990964007	-0.00585246517030927	0.000170192241799282
1.8	-0.00344287189621631	0.012605707219023	-0.00259204152480165	-0.00182233739114211	-0.00259724697557918	-0.00182781486931018	-0.00521897499218383	0.00171385156920693
1.9	-0.00216619906244163	0.0130883243405852	-0.00281817416072476	-0.00145132960825759	-0.00281464048765781	-0.0014451182838767	-0.00413699720170422	0.00327865470002605
2	-0.000278281350372808	0.0129470941943376	-0.00299669019891209	-0.00103788101652429	-0.00299943429531678	-0.00103099785026862	-0.00190626935242385	0.0040671508756741
2.1	0.000181360510130242	0.0120253309617253	-0.00311225357037463	-0.000599371202524217	-0.00311438366695593	-0.000606094820710249	-0.000867036704237915	0.00350154888476096
2.2	0.000536029919913718	0.0120965664375234	-0.00316369171983642	-0.000164844211569525	-0.00316548352438745	-0.000155068152607412	0.000180185250223434	0.00359176340584163
2.3	0.00102993514386642	0.0121253550512438	-0.00315369130413333	0.000280066240234989	-0.00316048724594109	0.000277165631381379	0.00136977378048235	0.00334366007573497
2.4	0.00150355261671121	0.0123901633468242	-0.003092358713606	0.000717789640245613	-0.00309112474517404	0.000732976600738875	0.00252417955392864	0.00312491578678707
2.5	0.00285303015699561	0.0126334628091432	-0.00295302979709635	0.00115535572958256	-0.00296608857333336	0.0011567268277233	0.00470576957711525	0.00265413888072279
2.6	0.00358895629104546	0.0116987753025806	-0.00275649803024417	0.00155028529866469	-0.00277747624593858	0.0015543247825049	0.00622854872588279	0.00026463878043043
2.7	0.00394783948238406	0.0114314578498869	-0.00252119978545417	0.00191910209346761	-0.00252145239706958	0.00192420777364633	0.00666272985071212	-0.00193263828122511
2.8	0.00450149089430625	0.0113429628589507	-0.00222242824926445	0.00224436286149911	-0.00223223261063165	0.00225565444449777	0.00656545507597199	-0.00396290640566777
2.9	0.00538955040406636	0.0114266393984733	-0.00188067675972676	0.00253730221147259	-0.00187868380876906	0.00254622852460428	0.00629987390555116	-0.00547059391014978
3	0.00699320217805629	0.0109293635760388	-0.00150369335451988	0.00277547661024527	-0.00151889640023081	0.0027625188632671	0.00665027607143078	-0.0072781262769906
3.1	0.00750856000523241	0.00996435255195459	-0.00110495785541047	0.00295515058377619	-0.00112189887205285	0.00296067237839473	0.00552700211382063	-0.00979161684807725
3.2	0.00812058643496447	0.00955367490861154	-0.000683188997627892	0.00307814977003915	-0.000678840754286229	0.00308894901648038	0.00384808093739393	-0.011286881210072
3.3	0.00877715516374339	0.00897775440223425	-0.000251147014704731	0.00314585507240991	-0.000247874217351627	0.00314144537814119	0.0020252384228484	-0.0125483384793995
3.4	0.00938577036262059	0.00852114677980411	0.000195653700361278	0.00314816372678631	0.000186227494928996	0.0031493124585903	3.95386053101364E-05	-0.0133510154709517
3.5	0.0105681201480798	0.00767647975786085	0.000625667344786347	0.00308762046495567	0.00063066751942442	0.00308625876802744	-0.00135420185276581	-0.0143021040263604
3.6	0.0105866196911852	0.00623539820144636	0.00104669230381737	0.00296674841070511	0.00105331894807394	0.00297019939891028	-0.00424050461496132	-0.0156860357219279
3.7	0.0105303300526329	0.00568765188659219	0.00146317284049601	0.00278551549679471	0.00146154426017613	0.00280190207429405	-0.00748524655705268	-0.0155269414072911
3.8	0.010763199393342	0.00523793264864634	0.00182899186933695	0.0025546025777125	0.00183963392270352	0.00256087529602606	-0.0104921467714859	-0.0145873715962138
3.9	0.011261379392976	0.00492215109601945	0.002172376121523	0.00227409626003968	0.00216778144474192	0.00227403149098676	-0.0130578723509839	-0.0127256026004069
4	0.0125648400105808	0.00398192275543952	0.00246314983491423	0.00195475350079389	0.00247463095922593	0.00196081619264344	-0.0140913266630797	-0.0108768166585109
4.1	0.0125043036563412	0.00220739121908722	0.00271233915385589	0.00158243907013793	0.00272896681053046	0.00159207713999846	-0.0159796119219323	-0.00982505029371047
4.2	0.0122407368246645	0.00131014390495254	0.00290802515305851	0.00118364341721178	0.00290927389923063	0.00118591545582175	-0.0178918239793161	-0.00756960420757517
4.3	0.0120681554712806	0.000557522978059992	0.00304581197501587	0.00077584068398331	0.00304705944852423	0.000784395386328802	-0.0192372619540414	-0.00489583325881775
4.4	0.0118961274045005	3.30625973273056E-05	0.00312158349228106	0.000341420345849247	0.00312945149962021	0.000336736696168356	-0.0200194953973112	-0.00157929303808785
4.5	0.0124905417094582	-0.00073641555428309	0.00314033199735216	-0.000106081325875973	0.00313717010313626	-0.000103798460932497	-0.018978768516637	0.00157081226188025
4.6	0.011813240481286	-0.00231767825163444	0.00307821689983568	-0.000548039258878251	0.00309128563430034	-0.000536219675261085	-0.0185664874137924	0.00320221126171988
4.7	0.0110549754754695	-0.00281700921077813	0.00297280326047297	-0.000955861378612	0.00297263940267325	-0.000965247132342234	-0.0182516771203434	0.00556762292920126
4.8	0.0105289589195221	-0.0031995617564197	0.00282137154517985	-0.00135433584667173	0.00281362106313297	-0.00137435281701185	-0.0173439270295697	0.00810092797687283
4.9	0.0103437321583138	-0.00329708149002105	0.00260253566064132	-0.00174813245804026	0.00259656067098262	-0.00173969558238762	-0.0157974622737432	0.0108075029265053
5	0.0110569863189306	-0.00397980234781307	0.00232221728470899	-0.00207185046102453	0.00232485731467363	-0.00208419626468423	-0.0125048739658226	0.0127275953625569
5.1	0.0106030009332655	-0.0052458811994352	0.00200461073877037	-0.00238711773210974	0.00201774572282695	-0.00238472558873941	-0.0102752609610243	0.0132177830175602
5.2	0.0103655176500785	-0.00578681081745963	0.00166438028183417	-0.00264006920181084	0.00166485768190079	-0.00264420041205681	-0.00786102717353001	0.0142595269384151
5.3	0.0103158740260238	-0.00650148219270105	0.00127655130774768	-0.00284650302594849	0.00127282579556628	-0.0028490369948066	-0.00495530543503046	0.0149047144775383
5.4	0.0102392083312175	-0.0070963212406787	0.00086868036785991	-0.0029990586231999	0.000867790320422508	-0.00300149109704197	-0.00170142812881646	0.015099973569873
5.5	0.0107545250190387	-0.00836397631124003	0.000439509829368644	-0.00308879851270971	0.000451966638434849	-0.00308880518140136	0.0024982150911548	0.0136378603637859
5.6	0.00930349486957462	-0.00996232193911707	1.07599486955367E-05	-0.00312092495194836	7.49712565914867E-06	-0.00311749055007055	0.00399934188390028	0.0106709690314311
5.7	0.00806529085858044	-0.0101823722667058	-0.000418307881189164	-0.00309336126154275	-0.000421998485169697	-0.00309701105168631	0.00483300956178384	0.00895518326258732
5.8	0.00725079369354704	-0.0103876595185963	-0.000847078112456351	-0.0030022006685722	-0.000846364724058873	-0.00300981374096393	0.00559137311334643	0.00716917981542191
5.9	0.00645327281077041	-0.0103234315489003	-0.00125620146705237	-0.00285129254444016	-0.00125461649619906	-0.0028554047861868	0.0059014083081987	0.00582869839828157
6	0.00680384031596244	-0.0106411544989719	-0.00164179456227702	-0.0026524387006099	-0.00163585119769378	-0.00265575763930389	0.00755942858439361	0.00449824059133818
6.1	0.00549911797336333	-0.0124503476931021	-0.00199769305244673	-0.00240092656747043	-0.00199358758151152	-0.00240565270713001	0.00776957902132214	0.000920676941248863
6.2	0.00353231346775054	-0.0128273670373467	-0.00231182143875364	-0.00208835752126073	-0.00230827401036877	-0.00209694054435604	0.00664744451982867	-0.00155900610896638
6.3	0.00205982977097282	-0.0126141095738737	-0.00257537826836024	-0.00175501349166139	-0.00258509199060737	-0.0017627145296618	0.00536987170418084	-0.00353220397595865
6.4	0.00120926746030158	-0.0120396241934176	-0.00280223231401687	-0.00137673965972518	-0.00280024723899236	-0.00138248220885971	0.00426419997271095	-0.00480251283903353
6.5	0.00144566268328134	-0.0126029448347129	-0.00296796492215204	-0.000975488972462176	-0.00296836667693015	-0.000974376315427819	0.0042496709897193	-0.00710880967348664
6.6	-0.000111943543093668	-0.0131030869909265	-0.00306751054080919	-0.000556047092560773	-0.00307807052320974	-0.000559044065609081	0.00154308481895731	-0.00965551290938962
6.7	-0.000934704410967278	-0.0127085095433643	-0.00311364757544039	-0.000129637554457173	-0.00311263409851069	-0.000123453840219447	-0.00125965721163411	-0.0103044365917634
6.8	-0.00166495672793755	-0.0124167556327426	-0.00310245111685666	0.000313009984285009	-0.00310157049870541	0.000317731669559088	-0.00404890807657472	-0.0101676151320395
6.9	-0.00226192330419965	-0.0116744983891524	-0.0030232319695791	0.000740425030396211	-0.00302366877443746	0.000745364875010838	-0.00640510103569792	-0.00866082452213656
7	-0.0015707904084572	-0.0117925439049028	-0.00289201303923207	0.00115185643223659	-0.00289342631273715	0.00115503455048913	-0.0064939212639629	-0.00766912285431666
7.1	-0.00318893668604213	-0.0126146513865779	-0.00270324936504448	0.0015423535906571	-0.00270571666144571	0.0015532517197914	-0.00890247064754158	-0.00791500170697305
7.2	-0.00446328287890774	-0.0118851207285479	-0.00247062444523673	0.00190240834981562	-0.00247084493275394	0.00190825135421485	-0.0112644424788654	-0.00593319803014509
7.3	-0.005346911849083	-0.0111551834305095	-0.00218623993488323	0.00222667119547459	-0.00218351125038902	0.00222815206038023	-0.0127785438280191	-0.00335456699161875
7.4	-0.00615675871490283	-0.0100839233359939	-0.00184980049965902	0.00250872784615271	-0.00184269722043713	0.0025152477812587	-0.0137508842971927	0.000100052333335003
7.5	-0.00542311571277106	-0.00943059548062363	-0.00148498877585711	0.00274319047841775	-0.00148599927278099	0.00274118202348122	-0.0116640077281504	0.00364047346185881
7.6	-0.00641058363156574	-0.0106099809425767	-0.00109862502708276	0.00292864320448621	-0.00108813964785324	0.00293903659166395	-0.0102039352936625	0.00418120681538552
7.7	-0.00787174151763087	-0.0103871802704103	-0.00067303981096473	0.00305753270376457	-0.000667504355590113	0.00305724199894773	-0.0094179387586711	0.0054169841759174
7.8	-0.00891487694611356	-0.00993806176577789	-0.00023153610650687	0.00312358438279377	-0.000245030737744597	0.00311640142685218	-0.00812465769062768	0.00685942770703281
7.9	-0.00943241106200156	-0.00915623721434137	0.000186778401991489	0.0031170607656876	0.000197817787990303	0.00311688551859593	-0.00593097085607597	0.00855075776778975
8	-0.00904158719836018	-0.00971323134252743	0.000622023667836517	0.00307472994816243	0.000630320630059594	0.00307275757980119	-0.00219580843619066	0.00830805384335297
8.1	-0.0108039439309618	-0.00975368889108127	0.00105793777365578	0.00295562130226599	0.00105569639240315	0.00295235066800791	-0.00124083107785583	0.0071731660337787
8.2	-0.0117576259933309	-0.00874302174006903	0.00145017460122322	0.00277915249305863	0.00144922679322463	0.00279070666216338	0.000120188809911318	0.00728841418774811
8.3	-0.0124934235021496	-0.00778319362754278	0.00182529222052738	0.00255424363542228	0.00183039221020486	0.00255171971830867	0.00177823751391449	0.007201651892786
8.4	-0.0130326131355886	-0.00626115151692007	0.00217851610766665	0.002281345620126	0.00216734297877079	0.00228161618652254	0.00366270866183958	0.00735804941886797
8.5	-0.0121191940499999	-0.00548719511869202	0.00248389667046282	0.00194510742075	0.0024838928218736	0.00194645967309404	0.00745096962533485	0.00617650784930922
8.6	-0.0131994560826344	-0.00548213505566005	0.00271587656056727	0.00158685145536143	0.00271168843908312	0.0015844997673444	0.00853268815741786	0.00259249753360772
8.7	-0.0138316874706229	-0.00403549284878091	0.00291182566751497	0.00119209709737871	0.00291066618322971	0.00119167321662581	0.00858164116427503	0.000277951470104061
8.8	-0.0138101837975902	-0.00268692553882687	0.00304881386721488	0.000774636587682495	0.00305983741755425	0.000772642437300536	0.00826004974852144	-0.00185583261539344
8.9	-0.013370495569576	-0.00132522315361178	0.00312951835060667	0.000340878955001261	0.00313896383617892	0.000333811395794294	0.0077506025304363	-0.0031443671216706
9	-0.0116262172380238	-0.00101181248080341	0.00314225305985162	-0.000108008697271459	0.00314898132821126	-0.000102333964788913	0.00896591765609258	-0.00474437280771471
9.1	-0.0117379293835578	-0.00189351133329008	0.00310388735549355	-0.000537607074365868	0.00310410780708681	-0.000537797483633444	0.0082384486131151	-0.0081812944144147
9.2	-0.0119416562940931	-0.00185090683313517	0.00299679532383052	-0.000963435542397192	0.00300062694082521	-0.000963168797406341	0.00675959485937782	-0.0104636094135656
9.3	-0.012175863704684	-0.00179486868337904	0.00282931040597485	-0.00137824484910048	0.00284743778106682	-0.00137849184510973	0.00496594059523715	-0.0124828317842296
9.4	-0.0123858149704211	-0.00126467878493909	0.00261357989099794	-0.00175439001150282	0.00261702990069382	-0.00176542463651149	0.00282761574584159	-0.0136963232370329
9.5	-0.0119169064289044	-0.00154633197418721	0.00235108013769874	-0.00211245014676525	0.00236595776371732	-0.00211293085143747	0.0014942060584121	-0.0156882333314008
9.6	-0.0134258407015701	-0.00149761222806326	0.00203670421476097	-0.00242724571873745	0.00203694667528853	-0.00242017549916079	-0.00301949784276342	-0.0177615335428327
9.7	-0.0140224288596204	-0.000212639338837963	0.00167340753619055	-0.00269035526773944	0.00168178652756366	-0.0026918662847299	-0.0076412071134179	-0.0172980523608932
9.8	-0.0141395821232797	0.000916006989120575	0.00128800011916819	-0.00289336771435685	0.00128625046077958	-0.00290210670534617	-0.0118899091208349	-0.0156622606463893
9.9	-0.0139674819433139	0.00225873578655586	0.000878382427939459	-0.00304686989862142	0.000866423544792094	-0.00304964443186778	-0.0156496505094283	-0.0124487625248535
10	-0.0126431599204207	0.00255672912400339	0.000439659131939131	-0.00314043630639047	0.000438910288576763	-0.00314785158244211	-0.0168255359112989	-0.00927695391250135
10.1	-0.0133903046707449	0.00218041476053575	-6.6729306738634E-06	-0.00318160402301326	-1.13511589806103E-05	-0.00318444339382169	-0.0195297073978957	-0.00727699905575971
10.2	-0.0139260012346574	0.00314520898601193	-0.00045423818927136	-0.00314448207939558	-0.000466966017231514	-0.00314838003776291	-0.0219753549105721	-0.00333306477014841
10.3	-0.0140042248414265	0.00432150766648902	-0.000894543290284459	-0.00304528182654327	-0.000894233972886341	-0.00305884076805731	-0.0233088800645347	0.00155672602942716
10.4	-0.0134843181006811	0.00577635538695858	-0.00131478659126044	-0.00290089579243792	-0.00131801322611374	-0.00289875339117993	-0.0229329575535194	0.00730459123443776
10.5	-0.0117597888472849	0.00605538958965057	-0.00171307541624698	-0.00267502422803232	-0.00171931727568268	-0.0026823951685482	-0.0194198314578261	0.0118241671707096
10.6	-0.0119026385623578	0.00580913604474481	-0.00207468003774142	-0.00241133937822423	-0.0020761893991064	-0.0024165173747133	-0.0171148839826561	0.0143216015652627
10.7	-0.0117724764593191	0.0065181015373863	-0.00238684737114078	-0.00209557251663048	-0.00239007188715645	-0.00211181066662488	-0.0143918295688737	0.0174037335699493
10.8	-0.011479558515808	0.00731998152423373	-0.00266027578184872	-0.0017423422679198	-0.00265729808588941	-0.00174453496674135	-0.0112751837881689	0.0201565744995004
10.9	-0.0107781349516629	0.00855924656665204	-0.0028825051910645	-0.00135443414692967	-0.00288178218012959	-0.00135962708322951	-0.00733398039790399	0.0232133892560005
11	-0.00871365471047256	0.00870289128343848	-0.00304087913830197	-0.000930271103884076	-0.00303378805821466	-0.000934619394931087	-0.000944256531709871	0.0245317662956311
11.1	-0.00864905813056519	0.00838396872120042	-0.00313882324898525	-0.000511630722569573	-0.00313098417702974	-0.000503241938283568	0.00331259397197602	0.0235693538008788
11.2	-0.00792817030225134	0.00898714557785025	-0.00318093960692071	-6.15315472783199E-05	-0.00318761315551236	-5.82707790238869E-05	0.00761810616276618	0.0231697449362237
11.3	-0.00674902658116146	0.00933545369403049	-0.00315573347607224	0.0003883145894401	-0.00315894282246897	0.000386133353909437	0.0120326086348344	0.0222629139840077
11.4	-0.00552527996652649	0.0095120999494153	-0.00306257738170004	0.000824769676410102	-0.00306725698654316	0.000824941136915304	0.0167256113104829	0.0209787301728196
11.5	-0.00353082791946788	0.00837061519621449	-0.0029299289487357	0.00123338779948143	-0.00292231910602938	0.00123817991881054	0.0229946605804147	0.0174582823747748
11.6	-0.00373775086348727	0.00685628998621472	-0.00272548808427009	0.00163808585024197	-0.0027336720253818	0.00164794111690772	0.0260332163540983	0.0116538564179295
11.7	-0.00361758115464294	0.00639896490170422	-0.00246320091247634	0.00201137884487823	-0.00246495373752015	0.0020151245874476	0.0280041952272646	0.00673337550924261
11.8	-0.00328901370212323	0.00592318405374289	-0.00215616478936372	0.00233772411142741	-0.00216542199459957	0.00234768988798762	0.0294423975517772	0.00194715316648549
11.9	-0.00238995399557195	0.00557111014926444	-0.0018115214774652	0.002610637905212	-0.00181151798995296	0.00261727401349338	0.0309286790470351	-0.00216045558208827
12	-0.00125756954503228	0.00375991879718467	-0.00142505814380393	0.00284324070116543	-0.00142959260764348	0.00284609601971294	0.0334307797883371	-0.00849072544043718
