# GHZ S RI R 50
0.2	-0.0141126357596787	0.00453861124101865	0.00304904875164161	-0.000884022643486032	0.00305952151475763	-0.000883862079437695	0.00570064317265625	4.3545456669982E-05
0.3	-0.0132280117065165	0.00528435804254013	0.00290415037351144	-0.00130053788378455	0.00289786654221419	-0.00131220417056726	0.00609910376232106	-0.00197419843494669
0.4	-0.0125112254401027	0.00631053196214965	0.00269136935272806	-0.00169604618433758	0.00268926184663266	-0.00169796428047047	0.00566896583516986	-0.00349280331943584
0.5	-0.0111998363144912	0.00698610848871835	0.00242168744258428	-0.00205584782041951	0.00242451064585501	-0.00205958086062833	0.00548379240047503	-0.00510745568215003
0.6	-0.0110125159581877	0.00707702852868619	0.00210785097557162	-0.00237667979401485	0.00210710744673444	-0.00237952867588318	0.00376115187396101	-0.00716608409808733
0.7	-0.0108787316758633	0.00806933027852707	0.0017572458919378	-0.00264784438347158	0.00176346924454306	-0.00265194363694283	0.0016234361877341	-0.00785182610440861
0.8	-0.0103662977098574	0.00908118911405808	0.00136301975261364	-0.00286956307093291	0.00137131378247024	-0.00286795849775549	-0.000446956616824901	-0.00798027610841247
0.9	-0.00997104974883494	0.0102144440680673	0.000956614247645088	-0.00302322515697281	0.000956595867476733	-0.00303266811400725	-0.00262002227034709	-0.00743275212446627
1	-0.00855578004632463	0.0117736467757478	0.000521221785443724	-0.00313056614263534	0.000521071698412316	-0.00313593599346467	-0.00366260820385969	-0.00580868208616989
1.1	-0.00726685445146671	0.0112959801394911	7.41561383134407E-05	-0.00317085907593026	7.50472019500118E-05	-0.0031755977222792	-0.0044320223871804	-0.00574015656731041
1.2	-0.0071411090609528	0.0110410645963608	-0.000366617055907355	-0.00314495477301938	-0.000365387562472702	-0.00316180018883879	-0.00574521266496597	-0.0048897133713259
1.3	-0.00717927678881352	0.0105814240003846	-0.000800231370351726	-0.00307057245666979	-0.000805187861403311	-0.00307825026470038	-0.0061357304483793	-0.00389742994958751
1.4	-0.00731334903082533	0.010355182816944	-0.00122807565758723	-0.00292389801885563	-0.00123050309772777	-0.00293104759976828	-0.00618313223045222	-0.00309627785379346
1.5	-0.00629804085446552	0.0104312658634122	-0.00161925624767137	-0.0027253689537286	-0.00161727951103445	-0.00273092690369627	-0.00539754425540224	-0.00255440674512179
1.6	-0.00607133945654631	0.0106537628047542	-0.00198565692085437	-0.00246989391422552	-0.00198914080146747	-0.00247077518185585	-0.0062388935729699	-0.00184782517765379
1.7	-0.00509449021593491	0.0116997706876314	-0.00231323022256967	-0.00217291288177238	-0.00231529631354259	-0.00218153186593986	-0.00620743080044743	0.000120576646130847
1.8	-0.00386554096962634	0.0124855555326245	-0.00259103565991634	-0.00182089112298957	-0.00259623943755709	-0.00182636474741032	-0.00555379145502519	0.00181794718729882
1.9	-0.00257220043477795	0.0131755956721917	-0.0028166336105109	-0.00144997172395147	-0.00281310117384122	-0.00144376486088626	-0.00444801029022208	0.00353650502945202
2	-0.000457344236218555	0.0132817364006132	-0.00299474208516687	-0.00103720343721303	-0.00299748439097196	-0.00103032474533647	-0.0020563207128483	0.00453497601007218
2.1	0.000251477615285862	0.0122276906158359	-0.00311040004378322	-0.000598943211628484	-0.00311252901071933	-0.000605662750180295	-0.00081226445273259	0.00390146671609864
2.2	0.000639990782974753	0.012179056868395	-0.00316159189595783	-0.000164744524035815	-0.00316338254152282	-0.000154974957659475	0.000299145834994912	0.00392088880697111
2.3	0.00110630005988071	0.0121139749854481	-0.00315150288655336	0.000279632877931008	-0.00315829384904169	0.00027673379019823	0.00151451458352247	0.00358902784458929
2.4	0.00145987184577975	0.0123515746949882	-0.00309035050855173	0.00071674536692972	-0.00308912008644686	0.00073192205843225	0.00260641328099267	0.00329558203596472
2.5	0.002787181682238	0.0128118223641637	-0.00295154360326348	0.00115422137841677	-0.00296459520036193	0.00115558957904085	0.00473659591346246	0.00293374624100557
2.6	0.00374785450605636	0.0118643339155972	-0.00275474640619808	0.00154892317491823	-0.00277571048509756	0.00155295767616444	0.00638138637001405	0.000527950098404929
2.7	0.004215150169221	0.0114866141881259	-0.00251971641507008	0.00191713056524425	-0.00251996991755255	0.00192223236582737	0.0068739943420809	-0.00173302137447624
2.8	0.00479529766546882	0.0112300036367302	-0.0022214666281957	0.00224204221109992	-0.00223126716539776	0.00225332253265667	0.00678993716211878	-0.00388108991432285
2.9	0.00558339062190352	0.0112170439095877	-0.00188028102707169	0.00253496839931682	-0.00187829243719587	0.00254388942367001	0.00642466665472126	-0.00546596864582741
3	0.00721940302397119	0.0107549837953353	-0.00150323862567536	0.00277307020859918	-0.00151842737356462	0.0027601184408797	0.006751350980091	-0.00721485759734058
3.1	0.00772009839616818	0.00957524972761659	-0.00110530470835425	0.00295218933320124	-0.00112223386732108	0.00295769917253235	0.00560264944365331	-0.00982830917530187
3.2	0.00815320924180298	0.00909549001826861	-0.000684267728823599	0.00307543639788191	-0.000679928436683065	0.00308622963538328	0.00380584301984874	-0.0113242587028875
3.3	0.00865158132974028	0.00851111649396385	-0.000252653967603025	0.00314343396063595	-0.000249381180524324	0.00313902922873756	0.00189409482835044	-0.0125668326718001
3.4	0.00906966460111277	0.00812191844299291	0.000193905495779149	0.00314586545497475	0.000184485885869769	0.00314700852360566	-0.00021959365374768	-0.013321604967373
3.5	0.0102461052770723	0.00748757099218147	0.000622979123427165	0.00308512677503713	0.0006279754963809	0.0030837697608812	-0.00163440193878546	-0.0140924146703314
3.6	0.010259501395371	0.00594333773495167	0.00104325026610269	0.0029653691398712	0.00104986870109304	0.00296882331564585	-0.00452050439941339	-0.0155234458481979
3.7	0.00999813802408102	0.0054407840657536	0.00145962667310331	0.0027848483718752	0.0014579845176595	0.0028012218207976	-0.00788446488515375	-0.01529765787276
3.8	0.0100586866309495	0.00517182248722657	0.00182522233057754	0.00255453465716266	0.00183585072374122	0.00256081313182766	-0.0109748629567504	-0.0142294609725972
3.9	0.0104508127132337	0.00518891199350216	0.00216820269688214	0.00227482448946286	0.0021636115349646	0.00227475462515585	-0.0136067544869017	-0.0121596713226234
4	0.0120440272906717	0.00471134386588467	0.00245905874573428	0.00195724842790421	0.00247052516124179	0.0019633243522588	-0.0144624736022258	-0.00997783906352178
4.1	0.012386006994531	0.00286183040980052	0.0027095536409323	0.00158559286347597	0.00272616430402062	0.0015952502836234	-0.0160732349569232	-0.0089456327103703
4.2	0.0122835364115199	0.00187397535213853	0.0029058778952196	0.00118715486185604	0.00290712343751247	0.00118942803472916	-0.0178355249862251	-0.00672053517317194
4.3	0.0122309331568011	0.00104183049478213	0.00304436953992397	0.000779806208047871	0.00304560541880349	0.000788361436634715	-0.0190453804715083	-0.00411639689619286
4.4	0.0121019624614686	0.000466567746876451	0.00312116711413695	0.000345871486799275	0.0031290419640444	0.000341198932639325	-0.0197838782264839	-0.000894227337168584
4.5	0.0129359753851594	-0.000201015111089446	0.00314154499052126	-0.000102206955784026	0.00313837916494009	-9.99272428202618E-05	-0.0186216174280825	0.00230570281264103
4.6	0.0125278447876235	-0.00214859508158888	0.00307931534496055	-0.000544899286056748	0.00309237388497396	-0.00053306396870763	-0.0180511228425142	0.00368492899868663
4.7	0.0117327462941948	-0.00295646922938525	0.00297429976263115	-0.000952616538552857	0.00297414654373213	-0.000962003775064319	-0.0177750018102742	0.00585433287116346
4.8	0.0110798648961104	-0.00358583644286191	0.00282360362913661	-0.00135123693977471	0.00281587553163509	-0.00137126751389183	-0.0169545456841184	0.00821642251584326
4.9	0.0106452327647739	-0.0038159880476989	0.00260557786631462	-0.00174574476850932	0.00259959070236955	-0.00173731168991382	-0.0155999207215151	0.0108128807464618
5	0.0113172715761167	-0.00441630821748429	0.00232481590482314	-0.00207023282346992	0.00232746831748971	-0.0020825795556973	-0.0123703092995557	0.0128147123263129
5.1	0.0107265179570117	-0.00594507282364843	0.00200789371690282	-0.00238511856727954	0.00202102823019869	-0.00238270996755337	-0.0102530479204411	0.0131534037333766
5.2	0.0101625507252624	-0.0064375692226264	0.00166844862557065	-0.00263890804372432	0.00166893158257173	-0.0026430402045672	-0.00804436980605646	0.0142693849727268
5.3	0.00994904768681446	-0.00695798472979405	0.00128080377180044	-0.00284637247504074	0.00127707951891199	-0.00284891245807144	-0.00521729937527926	0.0150444430722433
5.4	0.00980565340298606	-0.00733846705552754	0.00087259147922719	-0.00299967302291889	0.000871703746886415	-0.00300210782638976	-0.00202172923575631	0.0153404767615826
5.5	0.0106071047647732	-0.00839849071980695	0.000443917088843887	-0.00308933479712283	0.000456378505829849	-0.00308932434862457	0.00230384800417392	0.0140264445984414
5.6	0.00911033539350119	-0.0104234301105169	1.56039775968411E-05	-0.00312333263142774	1.23332985718171E-05	-0.00311990061725004	0.0036965350089864	0.0108127645657618
5.7	0.00740620473598603	-0.0106423870439467	-0.000414290439613175	-0.00309703131296871	-0.000417979477103444	-0.00310069001459589	0.00418345156971574	0.00919378678954791
5.8	0.00617798507697863	-0.0105292043766988	-0.000844001669818327	-0.00300665071547781	-0.000843277317778297	-0.00301427124798328	0.00467594105824616	0.00770792056530466
5.9	0.00504282694901105	-0.00979362897586205	-0.00125382352791801	-0.00285621843118022	-0.00125223125839328	-0.00286033323983402	0.00477377191990336	0.00687979786126162
6	0.00578755885536516	-0.00889596062512008	-0.00164030735943379	-0.00265897348950511	-0.00163434989478759	-0.00266228854517626	0.00672020640491046	0.00649629326044983
6.1	0.00570091178081644	-0.0104076539894807	-0.0019988899916761	-0.00240738521801525	-0.00199477212976436	-0.00241211580840703	0.0078988306862109	0.00320374392657908
6.2	0.00473760514595401	-0.0111703052973743	-0.00231429903347002	-0.00209380175404525	-0.00231073880156592	-0.00210239718790515	0.00764827148605368	0.000433457691024631
6.3	0.0037474240696509	-0.0118730207971142	-0.00257859978793425	-0.00175969528658916	-0.00258832494819747	-0.00176741582223305	0.00681211724509598	-0.00233581344558996
6.4	0.00262456235397547	-0.0120518012459832	-0.00280623097361468	-0.001381082841573	-0.00280423847265552	-0.001386834156814	0.00544810170703484	-0.00430207084846979
6.5	0.00269862444168832	-0.0128894463719353	-0.00297369720835712	-0.000978517601136914	-0.00297410017237861	-0.000977402807654561	0.00517811512633296	-0.00681196759634055
6.6	0.000673359696278516	-0.0138453607116468	-0.00307267550918166	-0.000557335364325608	-0.00308325315194336	-0.000560338617199148	0.00206616893490376	-0.00958932719004152
6.7	-0.000552694544578225	-0.0133748624385549	-0.00311874708719985	-0.00013052337691893	-0.00311773327668435	-0.000124329260570296	-0.000972627644095567	-0.0100976213854101
6.8	-0.00146909000374454	-0.0130382864553229	-0.00310800411850237	0.000312826086774693	-0.00310712306650414	0.000317556319290505	-0.00382389436628447	-0.00994446455356502
6.9	-0.00233202345636063	-0.0121866162239206	-0.00302930555977734	0.000741701784032599	-0.00302974356009705	0.000746651444405688	-0.00637791845026966	-0.00843575661792096
7	-0.00135488238363231	-0.0119714999149434	-0.00289669104506665	0.00115499929754123	-0.00289810560600424	0.00115818357971153	-0.00634364332129556	-0.00719979754093315
7.1	-0.00292969661677976	-0.0133976272096264	-0.00270742277022442	0.00154517012043624	-0.00270989272279603	0.00155608613000185	-0.00878135878385234	-0.00782317526114604
7.2	-0.00468621507963694	-0.0128694192550318	-0.00247476994957768	0.00190622589363142	-0.00247498990542978	0.00191207945228089	-0.0114599329548352	-0.0058911573637592
7.3	-0.00608185429897099	-0.0121318294124842	-0.00218957545338597	0.0022316537561653	-0.00218684108946391	0.00223313644601998	-0.0132454069827521	-0.00328853386328656
7.4	-0.00759751311597319	-0.010789203369073	-0.00185147231258776	0.00251436435447819	-0.00184435225143227	0.00252089129780079	-0.0146258897254247	0.000282477572271212
7.5	-0.00705358409172107	-0.00906495858558731	-0.00148606585303691	0.00274778676923276	-0.00148707862446028	0.00274577578356798	-0.0127181728565467	0.00450769951419959
7.6	-0.00757284027789332	-0.00992633960807075	-0.00109977628465392	0.00293449233139467	-0.00108926794717458	0.00294490198586943	-0.0110321269066743	0.00525627485736223
7.7	-0.00878149067627278	-0.00941729678190531	-0.000672524872754846	0.00306409310611771	-0.000666978462509812	0.00306379843384514	-0.0100351441438095	0.00668589233654312
7.8	-0.0094352624295969	-0.00888006080807063	-0.000229262293905749	0.00312997658719205	-0.000242789949807947	0.00312279120318384	-0.00848696998706649	0.00815714739556856
7.9	-0.00965194865594116	-0.00807390835202875	0.000190153003200648	0.00312248288415034	0.000201212066212145	0.00312229655979779	-0.00608892085148973	0.0098670702117574
8	-0.00848879372250043	-0.00857551337498091	0.000626086134635507	0.00308060125354071	0.000634398676238714	0.00307861730830405	-0.00206660879629763	0.00978989533985468
8.1	-0.0101643172640985	-0.00944704013731952	0.00106480648237702	0.0029603788868694	0.00106255518313108	0.00295710464676115	-0.000985589453508363	0.00819188003955828
8.2	-0.011285671049397	-0.00861310450911035	0.0014578841809943	0.00278142920093627	0.00145695599500098	0.00279300570346823	0.000352860399636769	0.00832438079051314
8.3	-0.0120451332146738	-0.00776693049723944	0.00183272242186742	0.00255454289898466	0.00183782510480234	0.00255200577510564	0.00214166281574589	0.00818147724477403
8.4	-0.0127062372279559	-0.00630001746704406	0.00218539018214342	0.00228078373440188	0.00217420213695533	0.00228107365670053	0.00401876329960532	0.00821122590669462
8.5	-0.0113983934383995	-0.00537522348551383	0.00249194658852289	0.00194310993753773	0.00249194553523685	0.00194446438647436	0.00807097817218147	0.00708279899796243
8.6	-0.0123959199762756	-0.00622230668385095	0.00272234391727361	0.001582324834238	0.00271814603988956	0.00157998022672951	0.00915257876368166	0.00288802379677764
8.7	-0.0135910432490748	-0.00517498001401226	0.00291686328961497	0.00118702197297994	0.00291570190600576	0.00118660015738772	0.00882404795332763	0.000353689377338053
8.8	-0.0142000091890562	-0.00388727661546129	0.00305308220013619	0.000769122391272792	0.00306411143473936	0.000767104067247161	0.00814423842607507	-0.00182466080242243
8.9	-0.0144780175071621	-0.00217653823589077	0.00313350239436698	0.000334349079912729	0.00314294209961594	0.00032725344452176	0.00718165432165514	-0.00297058798557108
9	-0.0127148288291134	-0.000916258288708033	0.00314373450241485	-0.000116449005598233	0.00315048169252055	-0.000110789019938382	0.00834954712687245	-0.00396819330235062
9.1	-0.0125194233801934	-0.00161169740976202	0.0031037165857852	-0.000544669660044927	0.00310393668755583	-0.000544860620993579	0.00778868625538904	-0.00726514245285509
9.2	-0.012431710262895	-0.00126855689379061	0.00299608706104759	-0.000970647228344418	0.00299992114422359	-0.000970388974228474	0.0065274497125673	-0.00931011876200524
9.3	-0.0121827096405771	-0.00120260501423287	0.00282722525133103	-0.00138597854981348	0.00284536071988553	-0.00138627097131485	0.00509673427960711	-0.0113671110316548
9.4	-0.0121370684515994	-0.000854628208026402	0.00260894056075536	-0.00176218638134511	0.00261235935496829	-0.00177323266450152	0.00306218737511284	-0.0128138359297008
9.5	-0.01112747965496	-0.00133494177228091	0.00234468273990898	-0.00211741708376119	0.00235955237883281	-0.0021179350871391	0.00196782520385538	-0.0149021664972363
9.6	-0.0128475089308381	-0.00221082607320054	0.0020305457122348	-0.00243179710161947	0.0020308051906835	-0.00242472851925171	-0.00281566389208516	-0.0175329969871418
9.7	-0.0140832735211821	-0.00115267372555515	0.00166571214732515	-0.00269406756810284	0.00167408467473983	-0.00269560061562246	-0.0078973081688389	-0.0170858714339813
9.8	-0.014798623821063	6.62753492316043E-05	0.00127902445156888	-0.00289513745752225	0.00127725130487255	-0.00290386590952966	-0.0125155545850412	-0.015310271832687
9.9	-0.0152579424246745	0.00192008847976318	0.000869295476949344	-0.00304569776222042	0.000857342978985418	-0.00304843740282588	-0.0166991745950903	-0.0117279386848046
10	-0.013657999381578	0.00321779347891046	0.000432358338053872	-0.00313834266068796	0.000431593994743085	-0.00314574908229439	-0.0177039164572815	-0.00778280435463902
10.1	-0.0139486864667789	0.00285672161500842	-1.48882303195649E-05	-0.00317806142095888	-1.95686132214683E-05	-0.00318088555494182	-0.0200590740751827	-0.00565487140519794
10.2	-0.0142358237678413	0.00390558878839702	-0.000461162096945919	-0.00313840326989065	-0.000473879262358902	-0.00314226412687504	-0.0221566521064449	-0.00156639667580249
10.3	-0.0141220023814414	0.00497455410844127	-0.000899090134999359	-0.00303797661552276	-0.000898808807724513	-0.00305151171491959	-0.0231642161097853	0.00314962233864608
10.4	-0.0137563515692341	0.00650092566487612	-0.00131713699193267	-0.00289422583530337	-0.00132035516306167	-0.00289208190962276	-0.0228795782968884	0.0087320641815679
10.5	-0.0115495051102673	0.00730627378962369	-0.00171645804624017	-0.00266885402731359	-0.00172270761131264	-0.00267620500771145	-0.0191690871273818	0.0135448451287746
10.6	-0.0111514475687673	0.0067582703210083	-0.00207658567037479	-0.00240284550861759	-0.00207810393529175	-0.00240801173346066	-0.0165926204124295	0.0158804382904773
10.7	-0.0105914798064994	0.00714267368710754	-0.00238657957257478	-0.00208691720153503	-0.00238983043579875	-0.002103118704859	-0.013550761651168	0.01881044610895
10.8	-0.0101236262318961	0.00724235156713744	-0.00265837190042705	-0.00173410148562473	-0.00265540395775107	-0.00173629545162617	-0.0101977092747304	0.0210916359898376
10.9	-0.00979779185087428	0.00811821341985832	-0.00287990688683292	-0.00134633797137166	-0.00287919533740675	-0.0013515228721181	-0.00663211378225333	0.0238043239566953
11	-0.00752055859535358	0.00827215354152624	-0.00303530342114437	-0.000920897498782639	-0.00302824037122976	-0.000925251100533855	-0.000194735725452777	0.025160173540136
11.1	-0.0076591104919697	0.0070724573050242	-0.00313069186770274	-0.000505296919348211	-0.00312286205112528	-0.000496944177219449	0.00383719876204041	0.0236939965001651
11.2	-0.00760442375265377	0.00737583813993536	-0.0031723827025111	-5.7096314552565E-05	-0.00317903375080414	-5.3835448121278E-05	0.0077476206207925	0.023230131838636
11.3	-0.00710449024130081	0.0076408665663493	-0.0031465889784102	0.000391495229892374	-0.00314979248760465	0.00038932426811919	0.0118572095178892	0.0223034417973367
11.4	-0.00659843324793917	0.00813037286395542	-0.00305194973265364	0.000826763276589518	-0.00305661470795927	0.000826941128079113	0.0161333859454447	0.0211152968913414
11.5	-0.0044600357691762	0.00763431653885501	-0.00291830178330141	0.00123090186250602	-0.00291071655599595	0.00123567105925953	0.0224610822104834	0.0180065269585675
11.6	-0.00488724121213167	0.00582683289214649	-0.00271632261290805	0.00163387498416532	-0.00272447730560871	0.00164370204369451	0.0253174361920834	0.0119829044869148
11.7	-0.00535499446004356	0.00566690811965396	-0.00245453059594834	0.00200599582300073	-0.00245627629454555	0.00200973036942981	0.0269219496594878	0.00725028733137871
11.8	-0.00545495252724302	0.00582362437920506	-0.00214801447052079	0.0023303550882516	-0.0021572367056602	0.00234028947088917	0.0280690914880429	0.00279244629998995
11.9	-0.00493212039233359	0.00664942743280689	-0.00180497963220356	0.00260011466803376	-0.00180497746276087	0.00260672493260483	0.0290885673129962	-0.000610783376220482
12	-0.00240337717213379	0.00596251376671029	-0.00142299273956966	0.00283236336846467	-0.00142751473743497	0.00283520480937591	0.032468023076995	-0.00601990900639233
