# GHZ S RI R 50
0.2	-0.0139269779965394	0.00575919763960154	0.00304230185474558	-0.000885876153268945	0.00305275512861403	-0.000885727961479464	0.00584820784523664	0.00125284070121682
0.3	-0.0131411647998931	0.00613481304383923	0.00289547782548795	-0.00130164459280075	0.00288919203309324	-0.0013132745246116	0.00613396616164379	-0.0011310915908976
0.4	-0.0124135142673786	0.00669189228496026	0.00268059922340799	-0.0016951945567676	0.00267849502684596	-0.00169710355849422	0.00569845311193711	-0.0031078524275377
0.5	-0.0120611099878388	0.00750695043194434	0.00241078742627274	-0.0020507838891067	0.00241359657880844	-0.0020545061515263	0.00454449552359146	-0.00455490189907734
0.6	-0.0110430596449749	0.00864074745062599	0.00209864733533061	-0.00237045083320943	0.00209790385808812	-0.0023732894149339	0.00366055813166019	-0.00555200311727733
0.7	-0.0101071218508256	0.00925507876092237	0.00174801619633161	-0.0026397480357649	0.00175421219871048	-0.00264383829679342	0.0023293761701137	-0.00659700988721547
0.8	-0.00918866184723162	0.00983581143147173	0.00135488975655661	-0.00285866278927569	0.00136315032072808	-0.00285707191370978	0.00067846586212839	-0.00713670976186479
0.9	-0.00833186948938774	0.0102430720097655	0.000951358575081472	-0.00300976719326155	0.000951337447135423	-0.00301916721328815	-0.00100760486902813	-0.00730277629646653
1	-0.00798400013740994	0.0104813875568013	0.000519486699117932	-0.00311805399340766	0.00051933779038671	-0.00312340249524988	-0.00309165289014475	-0.00702159810904929
1.1	-0.00755643165877918	0.0115624744920562	7.22334009371108E-05	-0.00315728101347511	7.31182408510338E-05	-0.0031619997630831	-0.0047319531038318	-0.00540070677740924
1.2	-0.00662549819974543	0.0121059224466747	-0.000365396809943811	-0.00312951287275891	-0.000364176391572945	-0.00314627615753542	-0.0052400858505727	-0.00373646301997958
1.3	-0.00587898421904346	0.0121504313900452	-0.00079516962165366	-0.00305517878907178	-0.000800098392312963	-0.00306281905238944	-0.00483958522809433	-0.00224441720053783
1.4	-0.0053097339481767	0.0117158460891542	-0.00122002819322455	-0.00291049623248476	-0.0012224387630968	-0.00291761263847745	-0.00418188423175874	-0.00166423020374695
1.5	-0.0049925021215358	0.0116668395994176	-0.00161118576746673	-0.00271201351051204	-0.00160921855650591	-0.00271754403040825	-0.00410021042140713	-0.00122367723636174
1.6	-0.00393760369732464	0.0118786936487128	-0.00197208382617417	-0.00245593925678149	-0.00197554589117155	-0.00245681715243744	-0.00410232034301249	-0.000520630271168124
1.7	-0.00304004855670882	0.0118270137066383	-0.00229576843164014	-0.00216288296575848	-0.00229780915256544	-0.00217145176097513	-0.00412237207032463	0.000354128638966821
1.8	-0.00223315916001412	0.0119155222757721	-0.00257196803498685	-0.00181496006980365	-0.0025771300121915	-0.00182041087759147	-0.00387278860132847	0.00134449344584024
1.9	-0.00153949934642403	0.0118072745240331	-0.0027970786762056	-0.00144675308630072	-0.00279357919821872	-0.00144057638524642	-0.00336834882375171	0.00224736575256788
2	-0.00125551115129373	0.0120598897130843	-0.00297111409864722	-0.00103656867498012	-0.00297385238709682	-0.00102974506495683	-0.00282602124503141	0.00339182109037016
2.1	-0.000217215987344885	0.012472524087919	-0.00308667979955607	-0.000607018095077347	-0.00308876780180697	-0.000613699805060767	-0.00125146175332643	0.00423775692970425
2.2	0.000731180952379036	0.0124156076706683	-0.00314103374988944	-0.000177506752352516	-0.00314285578976578	-0.000167806304649151	0.000425477701727149	0.00425771974488203
2.3	0.0014936565491145	0.0121879180901065	-0.00313348161452781	0.000263331323920599	-0.00314021753577139	0.000260418570735372	0.00194670332443927	0.00376962420863983
2.4	0.00210584311375295	0.0118305938918042	-0.00307406527556921	0.000696321553543506	-0.0030729203752643	0.000711406565102561	0.00331071598076586	0.00288875837878004
2.5	0.00211527770884674	0.0116108179897585	-0.00294106621896464	0.00112646718577924	-0.00295404551475696	0.00112773607558311	0.00413539502165875	0.00183640215179774
2.6	0.00265247172971647	0.0121068944457902	-0.00275307875058507	0.00152202635476942	-0.00277397462766619	0.00152589207232501	0.0053420002620114	0.00086162517429099
2.7	0.00358471297304837	0.0122572426126969	-0.00252229514674124	0.00189100502782826	-0.00252258356594384	0.00189608285469018	0.00629852498222735	-0.000854691770392206
2.8	0.0046566237415707	0.0121983177909318	-0.00222890975005513	0.00221597165412432	-0.00223875352659056	0.00222713111438633	0.00672579704086664	-0.002787454434304
2.9	0.00577206088970733	0.011833927417577	-0.00189462533036886	0.00250947156070936	-0.00189271975679313	0.00251837568586616	0.00673690143023341	-0.00473529851765505
3	0.00666328433339691	0.0115333031819441	-0.00152514078204661	0.00275472388358895	-0.00154018716322041	0.00274166066538187	0.00633248684825164	-0.00636973719897489
3.1	0.00806642716738567	0.0111514103837386	-0.00112638103479638	0.002938802837383	-0.00114332525845859	0.00294417247201981	0.00607232929612963	-0.00812993102449325
3.2	0.00916870365620073	0.0102431221915281	-0.000708105498118535	0.00306475935782627	-0.000703861086147774	0.00307556986854548	0.00497733953020283	-0.0100907724310297
3.3	0.0100022704693389	0.00915772371863194	-0.000279508323160498	0.00313787932683703	-0.000276201039674537	0.00313350756513213	0.00343110674346814	-0.0118634146407054
3.4	0.0105063268512433	0.0079318671638129	0.000166240847788682	0.00314809435078776	0.0001568096119228	0.00314915467693455	0.00141486554410838	-0.0135115756250306
3.5	0.0104635528570338	0.00704261307833346	0.000600987653561725	0.00309199043989768	0.000605997676592969	0.00309066877834148	-0.00127804517365353	-0.0145586671388324
3.6	0.0109192533346342	0.00645761674073719	0.00102006957625819	0.0029728078596874	0.00102665984775414	0.00297631252933039	-0.00369112223114077	-0.0150202001219967
3.7	0.0112517640373621	0.00556521513167311	0.00143685340274046	0.00279840777170832	0.00143507267741009	0.00281477488512078	-0.00644270642765979	-0.0152268618415345
3.8	0.011478467027957	0.0047032388559964	0.00180615292573001	0.00257325778713812	0.0018167425657878	0.00257963392999553	-0.00937698785606462	-0.0148052411742488
3.9	0.0116154994967701	0.0038080838809605	0.00215469946916008	0.0022957409589958	0.00215010033633512	0.00229563560211867	-0.0123007272057725	-0.0136908224070203
4	0.0114903825450352	0.00327659677935578	0.00244553613433006	0.00197755671436843	0.00245696309166202	0.00198372532880505	-0.0148916360220259	-0.0115879899437882
4.1	0.0120761205609378	0.0027752835454863	0.0026993035614463	0.00161350376354778	0.00271585197383402	0.00162333218363379	-0.0163224539051501	-0.00926538714502017
4.2	0.0124566704701327	0.00173735969620623	0.00290344024989515	0.00121721846759091	0.0029046685866188	0.00121950964878504	-0.0176792628688745	-0.00708917905798018
4.3	0.0125403297303103	0.000671723747009526	0.0030481040338267	0.000809244782253676	0.00304926909667706	0.000817840595506917	-0.0188013168701762	-0.0047023578109216
4.4	0.0123163018841664	-0.000482561454089298	0.0031286537349285	0.000374245086375855	0.00313659581613368	0.000369625462018406	-0.0196632317590242	-0.00205507790433594
4.5	0.0115873517409168	-0.00111713723951533	0.00315551937434386	-6.97903292088914E-05	0.00315231671459609	-6.75343410681359E-05	-0.0201439580402256	0.0011253683628312
4.6	0.0114928259922735	-0.0014359185203932	0.00310483673944467	-0.000518510631078881	0.0031178658456955	-0.000506470523887528	-0.0193861680364821	0.00421809356773914
4.7	0.0114438847066124	-0.00202496859702189	0.00300389953888878	-0.000933514272360127	0.0030038270398921	-0.000942970060097064	-0.0183915660298674	0.00669971720397262
4.8	0.011320450231994	-0.00272111606187476	0.00285609968124723	-0.00133784532544488	0.00284848054758149	-0.00135809093338811	-0.0170584864019965	0.00906061699871607
4.9	0.0112250205221283	-0.0035217914157116	0.00264207434044317	-0.00173751408753422	0.00263596503420729	-0.00172906363468857	-0.0153790806213361	0.011126868304792
5	0.0108782395167157	-0.00407526006102976	0.00236648003766641	-0.00207394634941817	0.00236925996277691	-0.00208640504120033	-0.0132227129141036	0.0132682760948435
5.1	0.0112295639446951	-0.0047048292196594	0.00204295899173614	-0.00239953502008057	0.00205622155229228	-0.00239702655801775	-0.0101033351693907	0.0146287920662138
5.2	0.0112932566467484	-0.0057840998057699	0.00169968388394221	-0.00265823006708644	0.00170019322544981	-0.00266240344861847	-0.00720129962971941	0.015203539745236
5.3	0.0111549352354744	-0.00688530628716449	0.00130871593281859	-0.00287178437306931	0.00130496259066181	-0.00287437046393606	-0.00425141164144591	0.015428307480207
5.4	0.0107137018538528	-0.00808293707296058	0.000895379522299691	-0.00303317372885737	0.000894490601268191	-0.00303564212266084	-0.00130823874298813	0.0149378107603646
5.5	0.00974969639433875	-0.00859962619819597	0.000453030255050482	-0.00312727772739698	0.000465646789132726	-0.00312725268014661	0.00131971728521772	0.0141863759394438
5.6	0.00961250282747484	-0.00913713372145715	1.90668901254393E-05	-0.00315718581788771	1.57571247099428E-05	-0.00315372003578946	0.00410825736320278	0.0124602154811237
5.7	0.00902876354253367	-0.0100334222901826	-0.000415747068572609	-0.00313208699936289	-0.000419473604318411	-0.00313579039545561	0.00577575689608974	0.0101774552159165
5.8	0.00827721839213893	-0.010861140564789	-0.000853173299258271	-0.00304191088939327	-0.000852438791017633	-0.00304962014971212	0.00681266040353125	0.00773481067165061
5.9	0.00720432721768918	-0.0117526801061726	-0.0012723876104431	-0.00288770265216514	-0.00127078254449812	-0.00289186755050598	0.00704310068547099	0.00522120836693359
6	0.00531409279593343	-0.0120839629069473	-0.00166066978749887	-0.00268129031825704	-0.00165466167393552	-0.00268464757521861	0.00634527910199461	0.00349330254869487
6.1	0.0043283991359988	-0.0116772969780585	-0.00202091284076927	-0.00243095776319727	-0.00201675544707067	-0.00243573952180658	0.00655657045922109	0.00210580659047196
6.2	0.00351822475150051	-0.0117061023946366	-0.00234312043161796	-0.0021135115515812	-0.00233953373399894	-0.00212220765284586	0.00644629556203125	7.98656270542988E-05
6.3	0.00287931946214517	-0.0118386798611525	-0.00261163972229618	-0.001772342600526	-0.002621492330985	-0.00178012278597965	0.00594647468025538	-0.00212761812443186
6.4	0.00203413530025869	-0.0123037376956038	-0.00283905289923403	-0.00138585076899183	-0.0028370590806536	-0.0013916666154213	0.00485326097493196	-0.00439317910822019
6.5	0.00104770800154456	-0.0121639779921793	-0.00300632235707385	-0.00098318601100735	-0.00300672744546857	-0.000982058920622147	0.00347378711946919	-0.00591901371423636
6.6	0.000826923303305966	-0.0123259446554473	-0.00311191509450162	-0.000553436738663435	-0.00312263158355868	-0.000556439739404606	0.00216257136677429	-0.0078500071461407
6.7	0.000215007153255131	-0.0126768520503631	-0.00315584124358145	-0.000116231150956704	-0.00315478417605073	-0.000109969818900311	-0.000238580206942416	-0.00916019591331671
6.8	-0.000514953506437913	-0.0129376246442291	-0.0031403250647472	0.000334218848220631	-0.00313940700728735	0.000338995931655088	-0.00289047095784754	-0.00959490545445976
6.9	-0.00162951261430305	-0.013273312230662	-0.00305779974148817	0.000766546265973702	-0.00305821491472721	0.000771551664721958	-0.0056737732812279	-0.00928755591527058
7	-0.00312451267667804	-0.0125651213395839	-0.00292596009839834	0.00118905299097469	-0.00292737148265331	0.00119228734415202	-0.00814921847428038	-0.00756228380465747
7.1	-0.0033937983778054	-0.0118957209661155	-0.00272393686452873	0.00158853237430305	-0.00272633199796972	0.00159959722593114	-0.00929157861073278	-0.00600501140338476
7.2	-0.00392673236266925	-0.011718989255095	-0.0024809936484487	0.00195037357747521	-0.00248115742703311	0.00195628905215985	-0.0106881692566018	-0.00436321903928446
7.3	-0.00460559993224782	-0.0115744265082512	-0.00218786360741537	0.00227598778946041	-0.00218508731032273	0.00227745669448411	-0.0116716676068103	-0.00232200357383424
7.4	-0.00560908425502884	-0.011738325963373	-0.00184195859544129	0.00256059310664943	-0.0018346932034575	0.00256710609753659	-0.0123901704601674	-0.000341550751734824
7.5	-0.00751929343910335	-0.0112439611011406	-0.00145976218453652	0.0027931852673249	-0.00146081264215513	0.00279117113296503	-0.0128590169325917	0.00258996299387332
7.6	-0.00815413602777695	-0.0100670626497731	-0.00106543235965436	0.00296739425482073	-0.00105471594705057	0.00297771965758215	-0.0113654423736335	0.00535470853786683
7.7	-0.00894442617235054	-0.00950987724403981	-0.00063444025506326	0.00308981522842279	-0.000628867872080681	0.003089443443664	-0.00985589641038487	0.00673859842232785
7.8	-0.00948034941483207	-0.00909325285270723	-0.000186236227798861	0.00314862632924355	-0.000199931874612926	0.00314159639375699	-0.00819127914746336	0.00802784124657458
7.9	-0.0101666454975073	-0.00876555450398126	0.000239097750068855	0.00313153870751748	0.000250196408697444	0.00313118090387724	-0.00636249237531137	0.00926732422130761
8	-0.0105406378123666	-0.00769288907419397	0.000672571998334267	0.00307275859364279	0.000680858962999742	0.00307064906589399	-0.00386029904352219	0.0105259383840734
8.1	-0.0101197044835785	-0.00739920840126454	0.00110461917004752	0.00294841353691902	0.00110232308102591	0.00294516669710473	-0.000774506882723324	0.0102874631941599
8.2	-0.0103274914566606	-0.00740695801437464	0.00149681045183658	0.00276355407588941	0.00149603929144792	0.00277515147578404	0.00151431349669259	0.00958736651512302
8.3	-0.0107818249997593	-0.00730958604815577	0.00186860391977879	0.00252797579683967	0.00187366949091457	0.00252536676048453	0.00362809980328613	0.00864810399885595
8.4	-0.0116108702694441	-0.00712328045906942	0.00221288828871571	0.00224506495515308	0.00220172829883623	0.00224551210682765	0.00531102993229415	0.00731804145129266
8.5	-0.0127690713288102	-0.00590396778392365	0.00250852700750129	0.00190933364659239	0.002508541743561	0.0019106848099933	0.00679782132016366	0.00645214181026476
8.6	-0.0126423155333007	-0.00466486044157564	0.00273894601782797	0.001545679719374	0.00273472375198967	0.00154339149592923	0.00894686282727202	0.00436973678354071
8.7	-0.0126124569141264	-0.00390334730579854	0.00292553590575486	0.0011447456012332	0.00292437175361411	0.0011443404909415	0.00981544951592301	0.00158659994416645
8.8	-0.0124988655181201	-0.00328105376355689	0.00305143382016017	0.000725803001898862	0.00306239371481276	0.000723646744521023	0.00985751695377402	-0.00123580198631233
8.9	-0.0125246955124092	-0.00303320132963838	0.00312318366473616	0.000295525739782979	0.00313249583735961	0.000288350122796484	0.00918132910856531	-0.00384721907016782
9	-0.0129639554000846	-0.00229625435628969	0.0031333878476874	-0.000154760500260323	0.00314018547409698	-0.00014919949989388	0.00815075600131794	-0.005485804352875
9.1	-0.0124776990345283	-0.00169302465501336	0.00308087704743711	-0.000585626012775346	0.00308109338852436	-0.000585819132909206	0.0077269937086526	-0.00749529702477586
9.2	-0.0122642298082968	-0.00150148597991076	0.00296343536974712	-0.00100414221438218	0.0029672476432112	-0.0010039367038585	0.0065135984189013	-0.00964165758941355
9.3	-0.0121303379377896	-0.00139631254822052	0.00278955717510429	-0.00141101030972252	0.0028075576711905	-0.00141152557025296	0.0049134561802272	-0.0116014884425851
9.4	-0.0123784462357415	-0.00152889542092034	0.00256967736160151	-0.00178196917242327	0.00257293822158967	-0.00179298181363188	0.00258170894514251	-0.0134918627343827
9.5	-0.0129150738848104	-0.000622720468116309	0.0022945891018235	-0.00213331671540935	0.00230932647625512	-0.00213404393072282	-0.000167470949695444	-0.014133297338535
9.6	-0.0126631748890195	-0.000116915574271496	0.0019772184464162	-0.0024300439101091	0.00197756383861685	-0.00242305785326397	-0.00297597775878739	-0.0151742189334688
9.7	-0.0127618847737798	0.000278069860264432	0.00161643482192873	-0.00268132172957912	0.00162469315051542	-0.00268293005974734	-0.00681664897903597	-0.0152827128491928
9.8	-0.0128581750787289	0.000684826409697228	0.0012332190730391	-0.00287437276356404	0.00123137453087085	-0.00288297901773459	-0.0107081560427241	-0.0142756176198539
9.9	-0.0132332018153911	0.00103868985695199	0.000824682172999077	-0.00301626451933989	0.00081285256862612	-0.00301883767959477	-0.0147363651105753	-0.0121678500271912
10	-0.0139053075626357	0.00217890813858568	0.000396092013191877	-0.00309206910744699	0.000395270695408362	-0.00309934964241615	-0.0179302781758222	-0.00841339425676983
10.1	-0.0134840713632188	0.00320072212651091	-3.54124372495334E-05	-0.0031293020689635	-4.003959540765E-05	-0.00313205239822073	-0.0195316026009127	-0.00492519273403499
10.2	-0.0132412357737225	0.00385624982164777	-0.000473246849965681	-0.00308848761951357	-0.000485796454722825	-0.00309221347999717	-0.0210301383602846	-0.00125087499142373
10.3	-0.0129816931097896	0.0044689544266724	-0.000902079536491585	-0.0029852069126777	-0.00090187884891928	-0.00299853104932394	-0.021811178485136	0.00294544630059077
10.4	-0.0129219941622448	0.0049321278552561	-0.00130673979325044	-0.00283817961231473	-0.00130989270658341	-0.00283605906636128	-0.0217754310052779	0.00733603673408852
10.5	-0.0129451395507588	0.00628947351446239	-0.0016886472328901	-0.00262289184385161	-0.00169479444249214	-0.00263011552267913	-0.0203909091346322	0.0125404051427092
10.6	-0.0117718392204054	0.00732082164207728	-0.00204686687366877	-0.00236573172865352	-0.00204836532361095	-0.0023708198110186	-0.0171568275200117	0.0164564504523967
10.7	-0.0105978652486686	0.00782708377049041	-0.00235068569394619	-0.00205403674282401	-0.00235389240185688	-0.00206998840076353	-0.0135498867600392	0.0195107884281129
10.8	-0.00950605945399126	0.00784448589599944	-0.0026148700513325	-0.00170888736427134	-0.00261194722919436	-0.00171104414547397	-0.00969518437450784	0.0216486690576345
10.9	-0.00909518796059787	0.00764126494980068	-0.00283132247567688	-0.00133443772605547	-0.00283060592970719	-0.00133954043300607	-0.00607768596179717	0.0232340021634877
11	-0.00880592669282515	0.00841918008649327	-0.00299451256535399	-0.000918821299506398	-0.00298752424817622	-0.00092309855172577	-0.00171689206431033	0.0252361840682765
11.1	-0.00744087931781753	0.00873493353159204	-0.00308665579905836	-0.000504530113152023	-0.00307895010875498	-0.000496276743801736	0.00372143274456158	0.0253497094841387
11.2	-0.00634316827352614	0.00853474685020329	-0.00312658276807455	-6.69187681250061E-05	-0.00313314913641858	-6.37270965770757E-05	0.00861561535379638	0.0244825855210125
11.3	-0.00522918786662026	0.00794324563801766	-0.00310476820219014	0.000370884535476314	-0.00310791674410549	0.000368728282990554	0.0135329828439028	0.0228796664614939
11.4	-0.00474148045692188	0.0070294431291509	-0.00301899816169843	0.00080014889896157	-0.00302360690666456	0.000800299382156972	0.0178748209429886	0.0202977292180591
11.5	-0.00466812579136003	0.0069093741204417	-0.00288480845282909	0.00120506848446177	-0.00287733741804442	0.00120980192615746	0.0219235322122327	0.0174927297762233
11.6	-0.00386428786907462	0.00623002218888703	-0.0026860146244976	0.00159446728679269	-0.00269410650779723	0.00160410417254682	0.0259329054369654	0.0127387489297647
11.7	-0.00370993122090055	0.00524091704774531	-0.00243577639668147	0.00196023687461017	-0.00243752591215916	0.00196390722289568	0.0282124843131433	0.00730197594799486
11.8	-0.00388846621933851	0.00446441764123821	-0.00213952056085616	0.00228353832636022	-0.00214870575983754	0.00229327260345214	0.0293593249687889	0.00193209090106791
11.9	-0.00446815418792775	0.00393202961773916	-0.00180194770295396	0.00255371199988255	-0.00180199562170497	0.00256023906319904	0.0294088233874263	-0.00293278581510598
12	-0.00464954568652024	0.00460763294619079	-0.00142855337756383	0.00277689516500694	-0.00143303500380927	0.00277965179914218	0.0298144639010828	-0.00686117367921799
