# GHZ S RI R 50
0.2	-0.0140445560807005	0.00543887564980686	0.00304410048958744	-0.000885287755114034	0.00305455886784682	-0.000885135967660355	0.00583539072956757	0.00102535976151107
0.3	-0.0132225914608035	0.00589350786061101	0.00289784028683142	-0.00130127710193374	0.00289155530282124	-0.00131291695714466	0.00614811326891569	-0.0012811939102168
0.4	-0.0124363094154913	0.00653434901547406	0.00268345948195069	-0.00169541094512438	0.00268135441489506	-0.00169732236441479	0.00572846810861126	-0.00318941047361916
0.5	-0.0118855631760539	0.007190445345666	0.00241355810022642	-0.00205183848479549	0.00241637089889286	-0.00205556315231099	0.00460874363943825	-0.00475637373968922
0.6	-0.0110964434535897	0.00813589816409389	0.00210137272094961	-0.00237177540988568	0.00210062962884482	-0.00237461677357327	0.00343195199128045	-0.00569467578604205
0.7	-0.0103003448440361	0.00881035499959704	0.00175080428196013	-0.00264175242053841	0.00175700814086581	-0.00264584444569575	0.00206747543940953	-0.00649912391854156
0.8	-0.00946894528714914	0.00946568298169278	0.00135736006012172	-0.00286143754926904	0.00136562940928848	-0.00285984215491376	0.000492064366433772	-0.00687227776616419
0.9	-0.00865008762310673	0.0100593942477089	0.000953185706038922	-0.00301306346651272	0.000953166782862145	-0.00302247449107258	-0.00101377658496183	-0.00690211061022952
1	-0.00794689413673414	0.010385777637422	0.000521013706377958	-0.00312144479189484	0.000520866233909633	-0.00312679942219616	-0.00270857303174396	-0.00685470491404284
1.1	-0.00749087435269233	0.0110791729154556	7.33372418934646E-05	-0.00316157539962077	7.42247939001056E-05	-0.0031663003200614	-0.00462913971940203	-0.00572203256578568
1.2	-0.00673594851761161	0.0113743728476434	-0.000365358029750185	-0.00313421907474746	-0.000364132693827035	-0.00315100697902972	-0.00553391983347701	-0.00422843152173153
1.3	-0.00634552088616602	0.0112454209754999	-0.000796134643339845	-0.00305991529629461	-0.000801070322790524	-0.00306756764577317	-0.00567274983509769	-0.00271312081183421
1.4	-0.00601116237971188	0.010996066026322	-0.00122174580166592	-0.00291509937731226	-0.00122415968065809	-0.00292222700290404	-0.00524818102519731	-0.00167154165775769
1.5	-0.00556229462506893	0.010948899597173	-0.00161395730175365	-0.00271703706437156	-0.00161198619376893	-0.00272257752378757	-0.00504808261862682	-0.000990692475960323
1.6	-0.00459432806759229	0.011287064436298	-0.00197653812356074	-0.00246008596169327	-0.00198000705237756	-0.00246096457202617	-0.00487675106335154	0.000223024130749457
1.7	-0.00359145535529244	0.0113928659432212	-0.00230094835647775	-0.00216593709308741	-0.00230299648235694	-0.00217452096046882	-0.00441867846283147	0.00125705392791768
1.8	-0.00265633666291546	0.0116145485998315	-0.00257770092769348	-0.00181707909959008	-0.00258287531505042	-0.00182253755258767	-0.00383185225941411	0.00220242035321716
1.9	-0.00169559393929725	0.0116253360492439	-0.00280356749831208	-0.00144800141226998	-0.00280005730584308	-0.00144181436222211	-0.00302359306391258	0.00293524781289484
2	-0.00111075419590983	0.0115695699653873	-0.00297846207658178	-0.00103571218837689	-0.00298119915441653	-0.00102887133552305	-0.0025458169996824	0.00357022328741964
2.1	-0.000248937804370846	0.0118438493112043	-0.00309300380943205	-0.000604466705830563	-0.00309510351274454	-0.000611158078325953	-0.00138533217168811	0.00463260485007855
2.2	0.000670162107707411	0.0117898124173012	-0.0031468687672972	-0.000173985259037102	-0.00314868221015045	-0.000164265234156896	0.000427259807954284	0.00491747801313482
2.3	0.00140702612305756	0.0115956583338418	-0.00313879729822606	0.000268115067496353	-0.00314554942762942	0.000265206294396683	0.0022104324436782	0.00451225937762439
2.4	0.00212266693820837	0.0113709401326045	-0.00307837226916366	0.000702726680340175	-0.00307719998572639	0.000717836644288536	0.00398823231676403	0.00350954900575225
2.5	0.00248782663240998	0.0109040659457012	-0.00294287574357956	0.00113351451990288	-0.00295587000079578	0.00113480956084083	0.00501627151638118	0.00163513503934378
2.6	0.0028027973869292	0.0110639602165085	-0.00275411152289719	0.00152863854135052	-0.00277502815711871	0.00153254442010027	0.00545711070686759	0.000280922499953729
2.7	0.00348799854273285	0.011191437701135	-0.00252216757800983	0.00189816496911725	-0.00252244702991509	0.00190325008076306	0.00587642187383616	-0.00123211017063262
2.8	0.00445624029932619	0.0112901443341328	-0.00222705830901678	0.00222316310575908	-0.00223689111113737	0.00223435596751579	0.00609652169097129	-0.00274136526613683
2.9	0.00574279527245004	0.0110449019288025	-0.00189089019031002	0.00251574367320163	-0.00188896380382762	0.00252465150323683	0.00626785147981313	-0.00443436890916279
3	0.00677436326879343	0.0104409211748114	-0.00152131845955157	0.00275946561124033	-0.00153639921880552	0.00274641981809937	0.00571950596391999	-0.00625110595769034
3.1	0.00796580168816522	0.00999835999269304	-0.0011216528361539	0.00294399927986858	-0.00113860336738668	0.00294940808806505	0.00515226619153412	-0.00750722278396068
3.2	0.00900982874317498	0.00909987151078077	-0.000701866145097309	0.00306883906341795	-0.000697594215218484	0.00307964896584371	0.0042754836021109	-0.00905325176592277
3.3	0.00977586810374081	0.00807754418623386	-0.000272554748883309	0.00314034365393594	-0.000269255451203601	0.0031359618412379	0.00301227414947158	-0.010590291675683
3.4	0.0103817402707903	0.00698680461191848	0.00017291850611664	0.0031491577715089	0.000163485263795388	0.00315023835516959	0.00142079873565338	-0.0121904069197229
3.5	0.0104856794968653	0.00583902588914192	0.000608226004342391	0.00309332217044123	0.000613237428543379	0.00309198848351687	-0.00123740218427239	-0.0136854516382266
3.6	0.0107191804056263	0.00527514831135836	0.00102870380296099	0.00297166287886991	0.00103530720069446	0.00297515156194516	-0.0038922367034443	-0.0137369375639376
3.7	0.0110737838818338	0.00446459501709825	0.00144475255000671	0.00279507912110479	0.00144301593020709	0.00281145443882421	-0.00615938525728173	-0.0136953767174167
3.8	0.0113724477145767	0.00364182978266168	0.00181313719808134	0.0025686017287692	0.00182374453595028	0.00257495001446293	-0.00854572032419073	-0.0134705164381942
3.9	0.0116975434982703	0.00270758025731028	0.00216128671020937	0.00229015240884307	0.00215668665602122	0.0022900596401165	-0.0110733180393043	-0.013015099934481
4	0.0115496115142937	0.00170414773492614	0.00245189135509211	0.0019689754995724	0.00246333758796573	0.00197510446103968	-0.014263340651676	-0.0119751199557159
4.1	0.0116723368860266	0.00133708178446043	0.00270200987685427	0.00160357923924632	0.00271857468101967	0.00161334687161511	-0.0167288419270461	-0.00919628319189378
4.2	0.0120446425090401	0.00058492276394804	0.00290414533493225	0.00120749239325003	0.00290537918438087	0.00120977770499043	-0.018114821121684	-0.00640599538013051
4.3	0.0122759144099594	-0.000284814082397872	0.0030472253933326	0.000799331695825568	0.00304841470292968	0.000807914804933147	-0.0189645043370439	-0.00373281668147852
4.4	0.0124099688004556	-0.00131511525518353	0.00312565340025072	0.000363622634310532	0.00313356985162924	0.000358983540835365	-0.0193849650799654	-0.00116916827313302
4.5	0.0120042781094513	-0.00242237738537264	0.0031480934640651	-7.91860296794281E-05	0.00314490495806279	-7.69255014773423E-05	-0.0200631276565673	0.0012020292723306
4.6	0.0116912753570672	-0.00288307867271992	0.00309684101596462	-0.000524652367974728	0.00310986987491765	-0.00051266908146906	-0.0201362498162555	0.00469020240626901
4.7	0.0116121607453008	-0.0035475418414991	0.0029952668167652	-0.00093854992062076	0.00299517231680074	-0.000947985249605685	-0.0191719475984058	0.00770224544285942
4.8	0.0114140600896796	-0.00425265194467811	0.00284614061306565	-0.00134140845888397	0.00283849178446335	-0.00136158787581198	-0.0176531215590579	0.0104577694123771
4.9	0.0114298069078156	-0.0049764581103569	0.0026306368941008	-0.00173820564435367	0.0026245636543408	-0.00172976645562311	-0.0155090996339763	0.0126720114847166
5	0.0111448746814425	-0.00591166044007673	0.00235707246184599	-0.00207087905148594	0.00235982893404475	-0.00208330516619222	-0.0134475380199967	0.0143740777139187
5.1	0.0112836342251447	-0.00647575466814081	0.0020345283561225	-0.00239664201893535	0.00204776226283646	-0.00239415878264705	-0.0103788510025483	0.0164198054691569
5.2	0.0114053996296835	-0.00763913453714469	0.00169109374309417	-0.00265353676780159	0.00169159547073576	-0.0026576995585138	-0.00672669685484711	0.0169985109745218
5.3	0.0111600922876438	-0.00888480144623512	0.00130132559092573	-0.00286482629774372	0.00129758027748808	-0.00286740012253223	-0.00342358704460322	0.0166640542735379
5.4	0.0106760566589015	-0.0100733913433102	0.0008907404228176	-0.00302477916956955	0.000889852516263508	-0.00302723967174054	-0.00052813939455543	0.0155203862928264
5.5	0.00946197899054212	-0.0109862605246531	0.000449722049117384	-0.00312082525534066	0.000462311211729285	-0.00312080964101291	0.000975724420732156	0.0140889871597625
5.6	0.00891378571569194	-0.0110516667185311	1.49876426492532E-05	-0.00314866823797464	1.16912533750915E-05	-0.00314520761040586	0.00304382490818383	0.0137460683381805
5.7	0.0084202755487142	-0.0116700358394	-0.000417434689294391	-0.00312203191493132	-0.000421153242357954	-0.00312572035435788	0.00540629755679164	0.0122296591699082
5.8	0.00773755385556562	-0.0122300797475152	-0.000852313247179356	-0.00303194085836922	-0.000851585574198099	-0.0030396265605679	0.00728561471210164	0.00993601560662656
5.9	0.00708818914601455	-0.0127302569676375	-0.00127024436499415	-0.00287901912180557	-0.00126864581330166	-0.00288317317480911	0.0086025771382441	0.00695498417806386
6	0.00580306226106118	-0.0136053091857555	-0.0016585732643354	-0.0026707239371385	-0.00165258839111515	-0.00267407765979866	0.0079323728205685	0.00318544403098036
6.1	0.00456848447250814	-0.0133060037939992	-0.00201388978914145	-0.00242050762686135	-0.00200975080380176	-0.0024252721223173	0.00647668384315841	0.0016131169740807
6.2	0.00386116585643466	-0.0133918459356735	-0.00233398989391585	-0.00210580563070126	-0.00233041568501878	-0.00211446837632091	0.00572995079579716	6.15142886929119E-05
6.3	0.00326260380814694	-0.013594881777251	-0.0026017112453108	-0.00176666341808893	-0.00261152609457375	-0.00177441822584168	0.00501684135503233	-0.0015635092922915
6.4	0.00272712025872401	-0.0141844401018412	-0.00282832711873904	-0.00138088206250382	-0.00282634031732635	-0.00138667600111317	0.00430082373815015	-0.00362142449192304
6.5	0.00152824333962946	-0.0148329645773162	-0.00299142265985059	-0.000980729480212379	-0.00299182665526371	-0.000979608002015636	0.00216937533469903	-0.0055021014935237
6.6	0.000934805830361433	-0.0148945816138964	-0.00309843944862596	-0.000556502231219226	-0.00310910766499877	-0.000559511369310665	0.000844055727920535	-0.00605456794755048
6.7	5.12671827410613E-05	-0.0153491246168388	-0.00314408053989469	-0.000121036164225174	-0.00314303772574508	-0.000114796031198749	-0.000878334746058018	-0.00711342168049661
6.8	-0.000968724367074066	-0.0153227187089857	-0.00312908607648252	0.000327772617182785	-0.00312817936304838	0.000332533281219353	-0.00311509949898565	-0.00742912070406164
6.9	-0.00169326564571817	-0.0153091808927148	-0.00304642565713113	0.00075702698975617	-0.00304684934191217	0.00076201034387305	-0.0051597543292348	-0.00739292690122246
7	-0.00316269806281346	-0.0153632245242656	-0.00291915025243475	0.00117457583168177	-0.00292056749087424	0.00117779329484296	-0.00851235922267971	-0.00688055285169824
7.1	-0.00389706072917458	-0.0143158664558656	-0.00272114808861757	0.00157578763563919	-0.00272357021744535	0.00158681420957756	-0.0104504521217801	-0.00371695910788808
7.2	-0.00438759889438011	-0.0140208880902014	-0.00247965584530475	0.00193732266978034	-0.00247983683307203	0.00194322056457133	-0.0108787416149727	-0.00117973081872378
7.3	-0.00518900909369988	-0.0136762212585768	-0.00218916844831427	0.00226203311535195	-0.00218640514033265	0.0022635070919664	-0.0106804120031552	0.0011127432846169
7.4	-0.00589930902198062	-0.0133293209721036	-0.00184790272810535	0.00254672051190974	-0.00184068197078506	0.00255324719081728	-0.00971537296379382	0.00266626260824587
7.5	-0.00730872720392892	-0.0133895105145508	-0.00146861417951759	0.00278486698044328	-0.00146965607059882	0.00278285103829777	-0.00966112407940616	0.0029388163123412
7.6	-0.00839963500901326	-0.0120791138714036	-0.00107251850508465	0.00295948463350155	-0.00106184985105373	0.00296982525216965	-0.00951479548360176	0.0051217477757639
7.7	-0.00891077594235485	-0.0114347752511253	-0.000643673001593903	0.00308229797508119	-0.000638109102390471	0.00308194548780496	-0.00831884122913943	0.00624465928051274
7.8	-0.00923356524808587	-0.0111272451844842	-0.000197524927694013	0.00314347644347785	-0.000211175352134151	0.00313640622861064	-0.00714943009549964	0.00711085892058212
7.9	-0.00947343757129816	-0.0111655337282935	0.000227768859060803	0.00313017951289587	0.000238860955682517	0.00312986151488897	-0.00603633245659137	0.00771231430432355
8	-0.0106282707704927	-0.011092269197571	0.000664318337526099	0.00307079557589838	0.000672600726496743	0.00306870865369634	-0.00601130877552798	0.00876091282998605
8.1	-0.0105495735081509	-0.0101854244638994	0.00109243172785123	0.00294674871591853	0.00109015106063195	0.00294349999617853	-0.00366457584725402	0.0112559730678472
8.2	-0.0107116780828415	-0.0100258329260342	0.00148390997722205	0.00276588262538988	0.00148309387162983	0.0027774618538801	-0.000510569788639789	0.0118480091403143
8.3	-0.0111039113331608	-0.00969840083091047	0.00185721369737913	0.00253335709318522	0.00186228558853587	0.00253076999833574	0.00252064781271294	0.0114999434615299
8.4	-0.0113666089274326	-0.00934975241649729	0.00220363982334959	0.00225088243515519	0.00219248663632809	0.00225129147766048	0.00538110861773099	0.00995923759723342
8.5	-0.0124861046519084	-0.00913167805045745	0.00249608973527017	0.00191634893387525	0.00249609882382751	0.00191769773792357	0.00609044364279864	0.00770972918274963
8.6	-0.0128773522704644	-0.00758884295940211	0.00272952530067953	0.00155872732986378	0.00272531707671727	0.00155641893880107	0.00744025088485558	0.00739555750029211
8.7	-0.0128172237918449	-0.00677728067624144	0.00292032215513352	0.00115876839554369	0.00291915983763301	0.0011583577092771	0.00946431333466812	0.00562466799882233
8.8	-0.0128119989259621	-0.00600001670570189	0.00304877257111886	0.000739672293671706	0.00305974433252487	0.00073756490885583	0.0109363845825926	0.00302423645406763
8.9	-0.0124615114003161	-0.0054429655854125	0.00312124218966466	0.000310324034889303	0.0031305868790953	0.000303193924664652	0.0120469919299432	-0.000368686950445753
9	-0.0126820958125606	-0.00545629422073484	0.00313716590448644	-0.000135900567948044	0.00314393597048287	-0.000130293308565657	0.0110377937511261	-0.00449315370986314
9.1	-0.0124631994285175	-0.00476509830847581	0.00309007317991129	-0.000571516747257913	0.00309029092181234	-0.000571709186746883	0.00966992313944091	-0.00681465068402552
9.2	-0.0122682056841257	-0.00489086921200189	0.00297354344271225	-0.000992558148056476	0.00297736191728487	-0.000992334933095102	0.00805642171873397	-0.00965502602423951
9.3	-0.0125459198884866	-0.0048823027228504	0.00280135589246332	-0.00140040301474331	0.00281939188238429	-0.00140083405425094	0.00544437647425907	-0.0119965201525119
9.4	-0.0127849530001892	-0.00475568859538754	0.00258567181728475	-0.00177236387784832	0.0025890005710492	-0.00178338579469426	0.00232361242891749	-0.0138334044280092
9.5	-0.0137024593489764	-0.00423272004871474	0.00231379803152499	-0.00213215385973822	0.00232860108910695	-0.00213281862791536	-0.00235994004175161	-0.0145150871716346
9.6	-0.0135530701951478	-0.00302241632547448	0.00199224899272858	-0.00243179573990643	0.00199257204770507	-0.0024247843355851	-0.0056014293334424	-0.01290358116715
9.7	-0.0134387441980165	-0.00255365214751243	0.00163152169228938	-0.00268461401337408	0.00163981376801968	-0.00268619819640182	-0.00822451427510419	-0.0118649205799052
9.8	-0.0135310398491509	-0.00195250482487503	0.00124848012439053	-0.00288106861208176	0.0012466597305134	-0.00288971506913449	-0.0108857436957037	-0.0105058134592637
9.9	-0.0134341258577163	-0.00130966906344654	0.000837788384282154	-0.00302845646462052	0.000825908969623299	-0.0030310778096507	-0.0134164817072965	-0.00906245714916686
10	-0.0140997764247621	-0.000909974092655391	0.000401522587723946	-0.00310425389971766	0.000400706868180559	-0.00311156528375747	-0.0173243285815776	-0.00722963407363874
10.1	-0.01396360909798	0.000677150840942581	-2.88546153705052E-05	-0.00313984593919818	-3.34913849176196E-05	-0.00314261534099615	-0.0198156002590562	-0.00254841284064733
10.2	-0.0133939081879775	0.0015349032433169	-0.000468299874711059	-0.00310170115826914	-0.000480890712311517	-0.00310546937852342	-0.0205040588179646	0.00164418938490302
10.3	-0.0127777191320715	0.00233079332018298	-0.000901118027004124	-0.0029995846331046	-0.000900894769971892	-0.00301296605813535	-0.0202843239340804	0.00567768083693393
10.4	-0.0117774194510171	0.00270015754535184	-0.00131032932449004	-0.00284999469391153	-0.00131349572334132	-0.00284786754107337	-0.0190364780353233	0.00874589306399045
10.5	-0.0116454009146866	0.00262840715992567	-0.00168867420064023	-0.00263135509800128	-0.00169482490526526	-0.00263860427117024	-0.0190953715683144	0.0113490450967608
10.6	-0.0110050905131203	0.00326166754358552	-0.00204877942596528	-0.00237912064468518	-0.00205027142803609	-0.00238423073307411	-0.0178559720059879	0.0157277909243953
10.7	-0.0107023266489516	0.00344261962118343	-0.00235713964384219	-0.00206685581805073	-0.00236033238043113	-0.0020828809663917	-0.015629161920414	0.0193613123065571
10.8	-0.00998323281739272	0.00406012357258687	-0.00262381568164564	-0.00171904528842421	-0.00262087816048891	-0.00172120770027123	-0.0122408706119019	0.0231999309746376
10.9	-0.00898109084140463	0.00431140511397434	-0.0028395543284746	-0.00134275813881168	-0.00283882871704238	-0.00134787784888058	-0.00778250435762688	0.0256176944801795
11	-0.00879297006254886	0.00413729600566123	-0.00300660620050397	-0.000930899390745694	-0.00299957326131457	-0.000935179422785267	-0.0044154606630419	0.0271069597236941
11.1	-0.00778592297903177	0.0048294486068331	-0.00310416142097628	-0.000510066333019223	-0.00309641793197767	-0.000501758513133438	0.00082046198071932	0.0297239842688655
11.2	-0.00674121857369107	0.00453037770024192	-0.00314319624667005	-6.76123711009072E-05	-0.00314979786637102	-6.44044423504486E-05	0.00727263284883565	0.0300246065983213
11.3	-0.0059425241225285	0.00410833404687875	-0.00312031291844931	0.000372507064522346	-0.00312347703576531	0.00037033980113075	0.0138606089329524	0.0286638335810109
11.4	-0.00524542534364438	0.00349156847393408	-0.00303605106828603	0.000802716288348557	-0.00304068519877512	0.000802864812783527	0.0200560491120078	0.0253452237506352
11.5	-0.00561585120976651	0.00280468835625347	-0.00290401499495889	0.00121661758707158	-0.00289648604560817	0.00122137682608966	0.0236230709764539	0.0207102101785551
11.6	-0.00511319858242794	0.00310532033301481	-0.00269725894965663	0.00160963773384322	-0.00270537340338406	0.00161934726624294	0.0276434645157123	0.0171145972643508
11.7	-0.00447009602546084	0.00258043207657079	-0.00244399418957225	0.00197531140471302	-0.00244574483778746	0.00197900405179671	0.0316252635910201	0.0114414986457635
11.8	-0.0039506529241963	0.00200201659735915	-0.00214618581327718	0.00230005988827482	-0.00215539976910498	0.00230986472695119	0.034273046707079	0.00452099037367711
11.9	-0.00339816485752438	0.000943759452046202	-0.0018055484557814	0.00257515017757213	-0.00180557700683889	0.00258171830147735	0.0349329714057502	-0.00353258463329971
12	-0.0044966449874804	-8.66019366058612E-05	-0.00142112933005302	0.00279710423916636	-0.00142561788379581	0.00279989648060661	0.031379647746903	-0.0108515958659553
