# GHZ S RI R 50
0.2	-0.01391311066805	0.00544244064039554	0.00304404897963118	-0.000885225558852229	0.0030545071352535	-0.000885073625032173	0.00585575013903851	0.000924925185874333
0.3	-0.0131136555594856	0.00588541919873107	0.00289779727998456	-0.00130115467052844	0.00289151281752123	-0.00131279438432827	0.00616138361706105	-0.00139235910181996
0.4	-0.0123835907393295	0.00650637427298974	0.00268346156713837	-0.00169520952298885	0.00268135667347074	-0.00169712099222821	0.00574027799178964	-0.00330600031300158
0.5	-0.0119496353804841	0.00721745945438823	0.00241369654336919	-0.00205160988334018	0.00241650961442824	-0.00205533426652138	0.00469836167154648	-0.00487006002537975
0.6	-0.0111852703228331	0.0082893601933377	0.00210155418792256	-0.00237159303044356	0.002100811329838	-0.00237443443985868	0.00357225643041224	-0.00597626147164413
0.7	-0.0103570879525673	0.00906043020464151	0.00175105688189102	-0.00264156187435013	0.00175726111080098	-0.00264565325639793	0.00211486465658257	-0.00690197727118599
0.8	-0.00945278490173079	0.0097745051003801	0.00135771694928918	-0.00286128340497454	0.00136598613845796	-0.00285968698931169	0.000418487871987657	-0.00733035422195034
0.9	-0.00853234227070269	0.0103342196772359	0.000953641103074658	-0.00301301236517247	0.000953623518221473	-0.00302242365639038	-0.00124783922479016	-0.00733872817950938
1	-0.00785191413650172	0.0105118429306596	0.000521445246600374	-0.00312151971841455	0.000521298466669376	-0.00312687461324947	-0.00300940444840749	-0.00705975481760837
1.1	-0.00752221792055685	0.0111395112071078	7.38386311913387E-05	-0.00316167730589053	7.47269603982386E-05	-0.00316640225589522	-0.00469394696749765	-0.00587778937362405
1.2	-0.00689955432073269	0.011395496278293	-0.000364804167083286	-0.00313449023751397	-0.0003635756575637	-0.00315127900773665	-0.00547956816150035	-0.00451693982970084
1.3	-0.00665250530059223	0.0112775157639697	-0.000795626425430848	-0.00306037429262992	-0.000800561128455065	-0.0030680283556792	-0.00554954838885941	-0.0032162476945514
1.4	-0.00640154814018112	0.0111274924783596	-0.00122137911992989	-0.00291569262114461	-0.00122379202883439	-0.002922821594303	-0.00520832569557603	-0.00239777298008894
1.5	-0.0060011657016123	0.0113077782069867	-0.00161363424612831	-0.00271763615281517	-0.001611661896471	-0.00272317686190364	-0.0050409928261523	-0.00178182812227948
1.6	-0.00487319702621439	0.0119226097979634	-0.00197630554720866	-0.00246091614030439	-0.00197977483207675	-0.00246179566111406	-0.00501971071751299	-0.000740358194622035
1.7	-0.0036506071802879	0.0121182530012424	-0.00230095945741778	-0.00216684662317226	-0.00230300621429078	-0.00217543263024122	-0.00478495370627801	0.000382576509700251
1.8	-0.00256661890134831	0.0123058560301076	-0.00257791645094292	-0.00181796975673825	-0.00258309092425911	-0.00182343039339278	-0.00429894760573967	0.00150427409190047
1.9	-0.00156772775591193	0.0122062526739221	-0.00280389981682934	-0.00144884739137539	-0.00280039003884694	-0.00144265833465707	-0.00349570427863346	0.00246863510883311
2	-0.0011202664788908	0.0121250697983004	-0.002978963851779	-0.00103670623976854	-0.00298170330368166	-0.00102986432237615	-0.00272581301096221	0.00331529936848295
2.1	-0.00030638371042501	0.0125563346765764	-0.0030939132119164	-0.000605298487429568	-0.00309601225323778	-0.000611992521332755	-0.00133299612020778	0.00411791814863057
2.2	0.00071468485363133	0.0126225803185918	-0.00314792868393345	-0.000174581517245596	-0.00314974441031084	-0.0001648584358486	0.000387903423209408	0.00421244227053852
2.3	0.00161797039988904	0.0124380071517021	-0.00313997534484932	0.000267704898904196	-0.00314672944532981	0.000264793983374574	0.00199778155223553	0.00375560242934798
2.4	0.00248536006621575	0.0120554477821502	-0.0030797191410559	0.000702476968031231	-0.003078548990137	0.000717593151281536	0.00356122358975171	0.00289403712440555
2.5	0.00276471920503048	0.0113396752145279	-0.00294448532965135	0.00113372753682345	-0.0029574862472326	0.001135021661238	0.00468311337439592	0.00145065020745073
2.6	0.0028839526650912	0.0114595277660831	-0.00275546540554989	0.00152927707892924	-0.00277639208064337	0.00153318415417466	0.00557188292848012	0.0001006528580349
2.7	0.00346623892502267	0.0116343888115422	-0.0025234055293482	0.00189900650527976	-0.00252368522963713	0.00190409401914367	0.00622142065928446	-0.0016419889588344
2.8	0.00437256904315901	0.0117673762769352	-0.00222818529508324	0.0022242858478924	-0.00223802307371474	0.00223548436295395	0.00648648617678044	-0.00343266782425917
2.9	0.00556239585142075	0.0115231856929544	-0.00189179831315748	0.0025172493602309	-0.00188987035006198	0.00252616203198717	0.00655924835853266	-0.00526844435458144
3	0.00637402783812157	0.0110196210425512	-0.00152158860182849	0.00276118067236499	-0.00153667962220607	0.00274813095168039	0.0061305295168617	-0.00711984887971965
3.1	0.00746994416800797	0.0108734414240118	-0.00112169863120704	0.00294549265364779	-0.00113865591923659	0.00295090651614197	0.00557357744058517	-0.00876733916495798
3.2	0.00859481387931563	0.0102305771675397	-0.000701720266400747	0.00307041211770042	-0.000697444607163047	0.00308122650515793	0.00443547214824125	-0.0105157376877913
3.3	0.00951655862490626	0.00935200992441846	-0.00027205377138297	0.0031419685440875	-0.000268753713779216	0.00313758387183921	0.00290749908277513	-0.0120998485487797
3.4	0.0102594369867599	0.00826870118262976	0.000173904069987817	0.00315063970185075	0.000164466549626187	0.00315172351134462	0.00107177161506917	-0.0135784807304875
3.5	0.0103327229150928	0.0071340130545029	0.000609333597428348	0.00309432514833042	0.000614346547841666	0.0030929895346733	-0.00148981079014016	-0.014840689421741
3.6	0.0106178707263526	0.00674967501863652	0.00102988549914639	0.0029727483402391	0.00103649270743441	0.00297623699085713	-0.00408606706088609	-0.0151472044278143
3.7	0.0112007467634703	0.00602824959732521	0.00144631393664166	0.00279594736607749	0.00144458163936488	0.00281233097490267	-0.00666737329390685	-0.0151907870087674
3.8	0.0117376367545039	0.00510466634607102	0.00181491168919164	0.00256907153862084	0.00182552615450016	0.00257541868863286	-0.00937139505192708	-0.0147697268248543
3.9	0.0121604361499631	0.00390019850069104	0.00216301601018203	0.00229018556425039	0.00215841415054068	0.00229009456383234	-0.0120418340082791	-0.0138366206119851
4	0.0118070647577197	0.00268650948592481	0.00245357477194739	0.00196906185742459	0.00246502790249662	0.00197518989092018	-0.0147463721044949	-0.0122771149742209
4.1	0.0117427844969953	0.00240460895940855	0.00270411415519374	0.00160315788532685	0.00272069183085333	0.00161292290249424	-0.0166864130415677	-0.0097820138140226
4.2	0.0121176878993915	0.00175150911031248	0.00290608198816555	0.00120644587167802	0.00290731762390897	0.00120873152006356	-0.0180242713255298	-0.00727929867527519
4.3	0.0124080828507302	0.000865672227812589	0.00304884289192299	0.000797884997344944	0.00305003758433549	0.000806470685828487	-0.0189434723596885	-0.00472338524968393
4.4	0.0125264135233368	-0.000332186240469618	0.00312698660091235	0.000362000790378811	0.0031349033102371	0.000357355580460199	-0.0194504332619973	-0.00207301004683408
4.5	0.0118086576979353	-0.00157444149491299	0.00314942209556009	-8.13367939256805E-05	0.00314623370938339	-7.90731302921235E-05	-0.0197747928854308	0.000548629480160718
4.6	0.0111636036013738	-0.00182426351966281	0.00309728414105994	-0.000527229542789727	0.00311032600972997	-0.000515253180100916	-0.0194505149018185	0.00357562761488378
4.7	0.0109880031573188	-0.00217310425551671	0.00299513494190742	-0.000941008173784616	0.00299503325370965	-0.000950445262184151	-0.0185760178327014	0.00617438352632062
4.8	0.0108571708844558	-0.0026242888464087	0.00284561514649913	-0.00134379500030993	0.00283794971788751	-0.00136397210165707	-0.0172793443949878	0.00869391116854377
4.9	0.0109924455198965	-0.00324668627647573	0.00262972855631754	-0.00174068132065869	0.0026236610161389	-0.00173223556439964	-0.0154172231697015	0.0109002654397852
5	0.0106633127966961	-0.00407822340504739	0.00235516259891281	-0.00207331719441518	0.00235790697795631	-0.00208574671672961	-0.0132248680625855	0.012733120231998
5.1	0.0109242295042278	-0.00434572232936888	0.00203219829205602	-0.00239821345948697	0.00204543310042055	-0.00239574222668597	-0.0102354490107106	0.0143371100624898
5.2	0.0113906811541996	-0.00541104604147843	0.00168859519773801	-0.00265472509510744	0.00168909323863437	-0.00265888787291537	-0.00705478562026089	0.0148902311289028
5.3	0.0114262545755247	-0.00680977959198615	0.00129849742421348	-0.00286559625869653	0.00129475030178864	-0.0028681662561626	-0.00402520701756144	0.0148676841115952
5.4	0.0109881341226271	-0.00830780542160453	0.00088746628246993	-0.00302485924482136	0.000886576146196949	-0.00302731819445175	-0.00110289785053559	0.0141798921137042
5.5	0.00946068725136317	-0.00931816586884977	0.000446707681301207	-0.00311961859387596	0.000459290372542345	-0.00311961421280482	0.00110031954176886	0.012995652713545
5.6	0.00879971779550373	-0.00906900307746395	1.25996507521959E-05	-0.00314726586342587	9.30735853787509E-06	-0.0031438042966254	0.00342398009511883	0.0118833126763759
5.7	0.0085734353851542	-0.00947208574138081	-0.000419703042163611	-0.0031202496371762	-0.000423422774171376	-0.00312393342679177	0.00531761456731934	0.00999629943412075
5.8	0.00828093762360579	-0.010119214419398	-0.000854250711076791	-0.00302958963288833	-0.000853529544486299	-0.00303727166886866	0.00665568985397637	0.00775901878646922
5.9	0.00791633196332661	-0.0111174580167614	-0.00127145307670332	-0.00287613718420422	-0.00126985861233229	-0.00288028955331696	0.00746572083064317	0.00530908699866818
6	0.00630842238042063	-0.0126778212908238	-0.00165897127001551	-0.00266822710946616	-0.00165299180109927	-0.00267158194463443	0.0071606768160873	0.00262122201430264
6.1	0.00437810463277571	-0.0125484152400818	-0.0020144088227647	-0.00241783785422629	-0.00201027528642713	-0.0024226025154754	0.0066661402135849	0.000965005043906962
6.2	0.00314461629589153	-0.0124123483737852	-0.00233390291312212	-0.00210276492617671	-0.00233033715452248	-0.00211142438128453	0.00625467922861658	-0.00098256087640253
6.3	0.00229071460799994	-0.012248073535431	-0.00260085044323217	-0.00176362548342499	-0.00261066274878912	-0.00177136799220452	0.00558852327364719	-0.00299769688904201
6.4	0.00167026611942798	-0.0125381477221132	-0.00282681518180567	-0.00137829401347972	-0.00282483301491486	-0.00138408441011407	0.00470902178038543	-0.00514157555144858
6.5	0.0002956323371672	-0.0127489320998497	-0.00298998260861767	-0.000978197120235713	-0.00299038562978979	-0.000977076159345429	0.00303726940717927	-0.00708975672290534
6.6	-4.48885076322641E-05	-0.0121494358447289	-0.00309591328376234	-0.000553883126989266	-0.00310657354236568	-0.000556882223205812	0.00154166502709016	-0.00847972738338722
6.7	-0.000352055003221934	-0.0123366173986644	-0.00314084523251146	-0.000119237187753505	-0.0031398001944606	-0.000113004158257657	-0.000715110358619325	-0.00968626390996017
6.8	-0.000897967640229635	-0.0124112377091009	-0.00312562483438934	0.000328725135342175	-0.00312471710541137	0.000333480363692288	-0.00329665484913573	-0.00990840081240838
6.9	-0.00144303050005977	-0.0127311429337818	-0.00304306074697409	0.000757466022656831	-0.00304348204069021	0.00076244452764683	-0.00557487619197035	-0.00949198200367697
7	-0.00323193760081209	-0.0128957164705722	-0.00291505235739574	0.00117470108122213	-0.0029164662217312	0.00117791544618845	-0.00818411375343607	-0.00856751034663514
7.1	-0.00403427329532027	-0.0114006701407368	-0.00271704338168365	0.00157435607521255	-0.00271945935286787	0.00158536830773465	-0.00980258459086566	-0.00641427309941755
7.2	-0.00406492659436478	-0.0107594104349937	-0.00247615073851419	0.00193507340068985	-0.00247633076522488	0.00194096354522862	-0.0108686503800353	-0.00445860586728025
7.3	-0.00415454489016208	-0.0104523582436097	-0.00218615359931116	0.00225923718030911	-0.0021833937915241	0.00226070903952648	-0.0115123518029158	-0.0022718294337751
7.4	-0.00415382217716181	-0.0106992741521925	-0.0018451394556307	0.00254333647710933	-0.00183792819119022	0.0025498535367761	-0.0115465238600919	-0.000219950150255474
7.5	-0.00554372932056432	-0.0118244895075217	-0.00146673618320466	0.00278012183313971	-0.00146777604173909	0.00277810895669359	-0.0115297414323941	0.00146215635036076
7.6	-0.00714875152688682	-0.0111663157092807	-0.00107217837408987	0.00295489920098028	-0.00106152880571115	0.0029652294883829	-0.0107184475869139	0.00383025278567767
7.7	-0.00818588169403034	-0.0107787090227573	-0.000644064147048001	0.00307782666295566	-0.000638507695318461	0.00307747694832039	-0.0094740376025725	0.00515629731587784
7.8	-0.00906992888822469	-0.0105198126608133	-0.000198739039950551	0.00313897484276126	-0.000212366969497927	0.00313190806701172	-0.00803425386280428	0.00636846358717105
7.9	-0.00994912152143205	-0.010463128157235	0.000225427163291941	0.00312571041319426	0.000236503109798083	0.00312539999204088	-0.00629817355096747	0.00733586099823587
8	-0.0118456155422338	-0.00973916473395872	0.000660601677935358	0.00306758703805395	0.000668875690546606	0.00306551050864047	-0.0048360281761131	0.00815508364813379
8.1	-0.0118887097183723	-0.00786237676884112	0.00108894394155413	0.00294439018748686	0.00108666829208976	0.00294114322874321	-0.00226166791933564	0.0091378414025073
8.2	-0.0116364985962053	-0.00708638114060889	0.00147999904547947	0.00276384379335552	0.00147917473006698	0.00277540892779793	0.000342849254778362	0.00905118529082466
8.3	-0.0115683896110926	-0.00656124170875446	0.00185267625145893	0.00253204307609537	0.00185774447391468	0.00252946371776686	0.00283516670534284	0.00850313401854063
8.4	-0.0115692376320676	-0.00637904800132075	0.00219869992769287	0.00225092203429723	0.0021875584144196	0.00225131803541977	0.00524979198246415	0.00725504864001683
8.5	-0.0129730358477832	-0.00619830276685461	0.00249212969423636	0.00191735969477681	0.00249213739825605	0.00191870742561136	0.00663260982447059	0.00545533051747709
8.6	-0.0134254826355289	-0.00407732542717887	0.0027253456658651	0.00155984907626624	0.00272114379396625	0.00155753886310511	0.00828984832900057	0.00402930757941125
8.7	-0.0128214066849315	-0.00280724040546757	0.002916173982171	0.00116094933522545	0.00291501325849202	0.00116053773185868	0.00956369795725832	0.00158991575995973
8.8	-0.0120226880174639	-0.00204531344655196	0.00304523121663172	0.000742816798193323	0.00305619614850757	0.00074072483444989	0.0100398186036266	-0.00110156889399503
8.9	-0.0110221916080598	-0.00212671466191185	0.00311872771110836	0.000313879656557008	0.00312807460252289	0.00030676571660718	0.0101482446691333	-0.00382943583223556
9	-0.0113669527584884	-0.00297082496995955	0.00313456399301167	-0.0001325407957241	0.00314132234826417	-0.000126931443746612	0.00930609130442405	-0.00670846620179739
9.1	-0.0115757441820494	-0.0025923297686462	0.00308792274897	-0.000566723734864963	0.00308814054863314	-0.000566915692027581	0.00835971082675986	-0.00891632995343352
9.2	-0.0117125530044572	-0.00280062220099286	0.00297277271628671	-0.000987251906782738	0.00297658791285123	-0.000987023029882843	0.00688446610855726	-0.0114227041237105
9.3	-0.0122834748945521	-0.00280113134224537	0.00280180959938308	-0.00139519535910157	0.00281983518552086	-0.0013955981407845	0.00470272085793166	-0.0134620737794975
9.4	-0.0129123016860226	-0.00269141429963595	0.00258676501218504	-0.00176747990268674	0.00259010812831892	-0.00177849034708622	0.00215217969356356	-0.015086497945429
9.5	-0.0144412102898273	-0.00187191167373172	0.00231589626156494	-0.0021264945655287	0.00233068971539449	-0.00212713257965077	-0.00129629949368893	-0.0159592010808549
9.6	-0.0144164371049363	0.000179898459486603	0.00199628212761199	-0.0024270793171238	0.00199659144583683	-0.00242006972152661	-0.00430705884178813	-0.0158345881389061
9.7	-0.0138136368123036	0.00120193736912544	0.00163624961157539	-0.00268108216997343	0.00164454316440231	-0.00268265056304954	-0.00764368349550053	-0.0155289054496277
9.8	-0.0132586180902438	0.00187400693025584	0.00125364605480466	-0.00287840493509823	0.00125184185631843	-0.00288705368007199	-0.0111281211447692	-0.0143102249096496
9.9	-0.0126807659433797	0.00201883269826221	0.000843630086312061	-0.00302639620847578	0.000831757445906738	-0.00302904055866351	-0.0144081471733269	-0.0122675189430375
10	-0.0135828389345645	0.00194047022708035	0.000408568207728938	-0.00310411263373166	0.000407768652958814	-0.00311142762767559	-0.0177487905166878	-0.00950563130221506
10.1	-0.0136728158706413	0.00365117876196381	-2.27453864281608E-05	-0.00314147540048886	-2.73790779081839E-05	-0.00314425523309757	-0.0197631824949846	-0.00543764744928678
10.2	-0.0128887213644054	0.0045719469402393	-0.00046269212683754	-0.00310414707003326	-0.00047528221194763	-0.00310794091196726	-0.0208407852043018	-0.00155186387664161
10.3	-0.0119973333902867	0.00506227562417668	-0.000895819454799281	-0.00300303482869805	-0.000895570148918075	-0.00301642342565593	-0.0211409214424561	0.00260910447316266
10.4	-0.0110681688525135	0.00473371748193682	-0.00130549568127195	-0.0028549791022699	-0.00130866900332155	-0.00285285678276924	-0.0202987452187505	0.00647234006674217
10.5	-0.0118084683900629	0.00422207668493947	-0.00168609592111231	-0.00263744156805048	-0.00169224131053907	-0.00264471012506318	-0.0193298920759558	0.0100364891712164
10.6	-0.0120002211349837	0.00525764229245712	-0.0020470649427389	-0.00238473963650188	-0.00204855035506806	-0.0023898571939558	-0.0172161384335325	0.0138361342425927
10.7	-0.0119059312057718	0.00611423712855416	-0.00235615569376424	-0.00207292371525385	-0.00235932511445031	-0.00208897083795305	-0.0145752158969321	0.0171041183419712
10.8	-0.0113674683970898	0.00724321142752291	-0.00262424674972481	-0.00172557864643708	-0.00262130193366951	-0.00172773887787177	-0.0112244255331367	0.0202003001600996
10.9	-0.010314192385843	0.00778255163695063	-0.00284188340773129	-0.00134902227328482	-0.00284114908383467	-0.00135414870121369	-0.00701275574607641	0.0224689104933729
11	-0.0104268811598853	0.00807271015333402	-0.00300954008732135	-0.000935510925111974	-0.00300249302692075	-0.000939788718075259	-0.0028719912897329	0.023955750314211
11.1	-0.00927772194963646	0.00975480180814843	-0.00310745998552773	-0.000514928351456403	-0.00309971780152277	-0.000506599360562066	0.00239382314913803	0.0250616115248101
11.2	-0.00740527385768275	0.0101533572710923	-0.00314781852705947	-7.18988122546296E-05	-0.00315443431518259	-6.86948641132846E-05	0.00782044744084347	0.0245552699610311
11.3	-0.00554245192461766	0.0098199339679765	-0.00312586131493473	0.000369459718015066	-0.00312902807533145	0.000367285195211224	0.0131292627062008	0.023137129154072
11.4	-0.00401243475801602	0.00866598651841663	-0.00304162329942552	0.000801166896554582	-0.00304626493326751	0.000801311344794621	0.0182435329897335	0.0205265075226404
11.5	-0.00422619192917467	0.00743049471985691	-0.00290949334773816	0.00121496675892091	-0.00290195934245435	0.0012197413742067	0.0221257639608131	0.0167939154994668
11.6	-0.00349507194391463	0.0076163592806245	-0.00270404344007479	0.00160938169617597	-0.00271218403225652	0.00161909928236712	0.0260185029027187	0.0127906143795926
11.7	-0.00229370665563586	0.00664933884039723	-0.00245056656989648	0.00197686913067841	-0.00245232404233594	0.00198056730828969	0.029125065087813	0.00746851030265383
11.8	-0.00145769294977762	0.00512409218639738	-0.00215201033777862	0.00230284392993827	-0.00216124924704379	0.00231266058781051	0.0311608964536177	0.00164137792969488
11.9	-0.00122009600769674	0.00272735473909641	-0.00181070109778688	0.00257826905022131	-0.00181073477038553	0.00258484866286252	0.0320799376848684	-0.00460753491259899
12	-0.00373000056773903	0.00110861927215929	-0.00142690684365226	0.00280175351478701	-0.00143140778123301	0.0028045474179886	0.0307002606051231	-0.0107442610448589
