# GHZ S RI R 50
0.2	-0.0144203098683907	0.00367149050651606	0.00305383821230857	-0.000882654721695466	0.00306432475993144	-0.000882485210360204	0.00552945890354303	-0.000713334266650896
0.3	-0.013446807017394	0.00471505825394069	0.00291033806435306	-0.00129969409201909	0.00290405585726047	-0.00131138633382974	0.00601186133899015	-0.00243618632452225
0.4	-0.0126687138279702	0.00609587395578584	0.00269903324400571	-0.00169659906034833	0.00269692342873531	-0.00169852364065044	0.00560070008783375	-0.00362171562965157
0.5	-0.0106032874805383	0.00664664238567432	0.00242946642240091	-0.00205927459456929	0.00243229971322524	-0.00206301505729143	0.00598616906735924	-0.00532874014477415
0.6	-0.0109094782021704	0.00594301304662244	0.00211457830370174	-0.00238099579002072	0.0021138349197194	-0.00238385207841394	0.00369080120095919	-0.0079055851525511
0.7	-0.0113127996366096	0.00709842058975816	0.00176399015004677	-0.00265356044579608	0.00177023330414514	-0.00265766583844526	0.001137096457182	-0.00822706672781908
0.8	-0.0111091462320654	0.00834707637116292	0.00136897366255332	-0.00287728392118072	0.00137729152645593	-0.00287566914274917	-0.0010597194241899	-0.00802130822229388
0.9	-0.0110689238511918	0.00999830914987368	0.00096057080602631	-0.0030327097931905	0.000960555079120661	-0.00304218323869208	-0.00334639067163487	-0.00701977385079066
1	-0.00886039300789102	0.0125382563813825	0.000522938531075427	-0.00313949939741474	0.000522788396802945	-0.00314488464546449	-0.00356708145071596	-0.00477873617591465
1.1	-0.00686672460826428	0.011041874175192	7.58514413057196E-05	-0.00318084076117267	7.67475035033443E-05	-0.00318559396477633	-0.00398864290364183	-0.00583823932546668
1.2	-0.00717239305712155	0.0102961019584149	-0.00036727294168244	-0.00315626624114279	-0.000366035553452848	-0.00317317158114045	-0.00597854339697701	-0.00539272713839139
1.3	-0.00768213459171085	0.009534790274841	-0.000803623752463279	-0.00308190942462961	-0.000808599741100368	-0.00308961518570074	-0.00704595791995782	-0.0044762007367296
1.4	-0.00823405905637402	0.0094890946470349	-0.00123359081565035	-0.00293400130223622	-0.00123602966377483	-0.00294117580071668	-0.00750286719911677	-0.00317810531434593
1.5	-0.00666956659072908	0.00945350558725049	-0.00162521877877278	-0.0027356958394661	-0.00162323434625164	-0.00274127460167363	-0.00619322296337133	-0.00248112078707683
1.6	-0.00704629972661938	0.00941122594597342	-0.00199568197671312	-0.00248028231025442	-0.00199918202596735	-0.00248116614233847	-0.00733403542450885	-0.00159523786390168
1.7	-0.00615592171763668	0.0110057916664259	-0.00232598492583051	-0.0021805248097507	-0.00232806910977836	-0.00218918112061235	-0.00697077488509851	0.000912506327898412
1.8	-0.0047583041463871	0.0121736530854023	-0.00260509832591989	-0.001825676856679	-0.0026103327389117	-0.00183116827094952	-0.0059252373928269	0.00279337811000603
1.9	-0.00309966036759327	0.0133703423589248	-0.00283144995383211	-0.00145275868955857	-0.0028278929740078	-0.00144652831587949	-0.00441408035750991	0.00469413538105063
2	0.000246191303869243	0.0132484273956967	-0.00301255704364193	-0.00103750830475746	-0.0030153019728864	-0.00103058806399879	-0.0012058330933086	0.00523794781247893
2.1	0.000634438963604785	0.0111017931762078	-0.00312804930549886	-0.000593066701630259	-0.00313020849520983	-0.000599814526643629	-0.000554845045565638	0.00391824257724121
2.2	0.000486582136949303	0.0110108275904513	-0.00317712647855669	-0.000155349041824523	-0.00317889417346009	-0.000145527346796769	0.000212286251570019	0.00419462092620573
2.3	0.000592411257255698	0.0111331047622763	-0.00316518226830445	0.000291890087804766	-0.00317201488208789	0.000289001132878817	0.00139881508495881	0.00410120942979821
2.4	0.000711340084449014	0.0119630204546906	-0.00310245058025497	0.00073227835774687	-0.00310115491534864	0.000747523419892258	0.0025981217736268	0.0040995314947096
2.5	0.00304744353465672	0.0130239718926152	-0.00295903148164246	0.00117459609405503	-0.00297213534260772	0.00117603742368814	0.00555509740347579	0.00367227471425354
2.6	0.00442290811160206	0.0111216878203504	-0.00275636426191281	0.00156871266668793	-0.0027773810252422	0.00157287051562207	0.00698489592906064	0.000276021570911555
2.7	0.00462753282709187	0.0103446315281272	-0.002518126089019	0.00193670722173741	-0.00251835378279468	0.00194182740849851	0.00688560711652516	-0.00211989157698341
2.8	0.0048994864144752	0.00995945880930035	-0.00221606353611522	0.00226163469453813	-0.00222583247837569	0.00227300590449069	0.00637256321810033	-0.00409137992963382
2.9	0.00555980683233776	0.0102096930612826	-0.00186969890285039	0.00255387332617177	-0.00186764886116263	0.00256280699807306	0.00587004130027453	-0.00526179095081063
3	0.00785574914589141	0.00953613199000808	-0.00148771778091974	0.00278684101902116	-0.00150301218120596	0.00277396721783057	0.00652231255109657	-0.00707365815704098
3.1	0.00782469785631041	0.00764847283461693	-0.00108983470911904	0.00296290223649283	-0.00110675672910954	0.00296851810890617	0.00472321181999927	-0.00972928284638189
3.2	0.00776917076292129	0.00730295045496012	-0.00066652526085805	0.00308389748244568	-0.000662114275553864	0.00309467942900838	0.00277435901783538	-0.0106367249842986
3.3	0.00798447033278317	0.00698851445365173	-0.000232802851971987	0.00314802323919154	-0.000229555119315617	0.0031435934223326	0.000971657110030062	-0.0114101842727171
3.4	0.00835777135309144	0.00717962469111833	0.000214129257665474	0.00314506418515683	0.000204715657972549	0.00314626788876336	-0.000818673487856875	-0.0116709373742324
3.5	0.0104634032469471	0.00659871936359601	0.000639959893305545	0.00308159537211653	0.000644948629154091	0.00308021086861495	-0.00141745298736667	-0.0125981015449796
3.6	0.0102071665970288	0.00426005711218123	0.00106153582241749	0.00296046428679503	0.00106817803486304	0.00296388030266211	-0.00460572160379256	-0.0143823013318678
3.7	0.00945945287316257	0.00387005813385999	0.00147747429165846	0.00277531360511152	0.00147593759000448	0.00279169679057612	-0.00792818080227333	-0.0138439808393844
3.8	0.00928851893918894	0.00397388189747865	0.0018406019399462	0.00254119730297807	0.00185126439415657	0.00254740334575851	-0.0107002715084185	-0.0126630660354025
3.9	0.00984475162044925	0.00465909571218975	0.00218016087334246	0.00225952645760222	0.00217557340906521	0.00225948472203445	-0.0129197783924797	-0.0106284334045802
4	0.0126581027104971	0.00411971243442963	0.00247088918345652	0.00194074990878316	0.00248239108278974	0.0019467498899861	-0.0132224745230344	-0.00918947386351822
4.1	0.0128235934152723	0.00124314003469581	0.0027177782796056	0.00156366286503	0.00273443890053551	0.00157318592500295	-0.0156635430430672	-0.00877897523262164
4.2	0.0122648986400418	0.000151074394171678	0.00290824678564061	0.00116374038641552	0.00290950602969589	0.00116599977863136	-0.0178706561193348	-0.00626662623444468
4.3	0.0119338228817702	-0.000506914949997714	0.00304196322805167	0.000756655695327185	0.00304325535713049	0.000765180355425226	-0.0191896817244264	-0.00340556769523288
4.4	0.0117953051729755	-0.000539427328545942	0.00311533493079744	0.000323226797764221	0.00312315645665546	0.000318511750264087	-0.0198507446446177	0.000117021824497188
4.5	0.013754895150989	-0.00116535712684247	0.00312997139700653	-0.000126650489832827	0.00312683441365882	-0.000124353604547467	-0.0181369780958035	0.00302703768484835
4.6	0.0132121840510831	-0.00422746032123748	0.0030604312978977	-0.000564335921513769	0.00307351121995664	-0.00055265182659888	-0.0183277465935591	0.00390523462314111
4.7	0.0119048734578923	-0.00524132795572964	0.00295264859368562	-0.00096716633792091	0.00295243467035483	-0.000976503933921294	-0.0185313526987959	0.00652367699697978
4.8	0.0108488345774913	-0.00578190331865833	0.00279961769960415	-0.00136178804246882	0.00279180461645105	-0.00138166025299665	-0.0178067911616265	0.00938827289539641
4.9	0.0102322520627686	-0.00550695222243073	0.00257844981345574	-0.00175213194173464	0.00257255375399468	-0.00174371094749857	-0.0162114671595125	0.0125604721088409
5	0.0117722347102736	-0.00616822909150597	0.00229501720940863	-0.00206794482501425	0.00229757754223701	-0.00208021268711332	-0.0122417563539215	0.0143605208780137
5.1	0.0106021726856786	-0.00845905805108627	0.00198221894947729	-0.00237622269457527	0.00199526588191294	-0.00237389073637463	-0.0105774803603233	0.0145873312174754
5.2	0.00949936731531505	-0.0086845522138598	0.00164484762732102	-0.00262614701690966	0.00164530958856573	-0.00263025024052459	-0.0081414479774796	0.0160596597793845
5.3	0.00909276906290766	-0.00875382387836159	0.00125951305113037	-0.00282882599085949	0.00125580837445256	-0.00283133126778298	-0.00499549250558231	0.0168007778587842
5.4	0.0092065198096596	-0.00835622813805067	0.000855320860307088	-0.00297639098001617	0.000854432995070008	-0.00297880173591983	-0.00154161744363663	0.0170966329442579
5.5	0.0115106469233401	-0.00977607361892215	0.000435341791764442	-0.00306382391229051	0.000447697533955011	-0.00306383295539453	0.00323736427444431	0.0150378236097052
5.6	0.00939937105519875	-0.0129808755283637	1.01392104202625E-05	-0.00309906326589957	6.89984511739947E-06	-0.00309565235358335	0.00362012193221787	0.0117118451925622
5.7	0.00704106170626269	-0.0131093328113502	-0.000415808842926511	-0.0030710860609864	-0.000419473547028187	-0.00307470904835205	0.00414099840941726	0.0107242019409864
5.8	0.00543556300272362	-0.0126534882947141	-0.000839674903146666	-0.00298016516692637	-0.000838964039309231	-0.0029877213142399	0.00509810981031625	0.00943938919818017
5.9	0.00419369283264412	-0.0110177240265117	-0.00124289735798882	-0.00283212892925675	-0.00124131816558029	-0.00283620868299204	0.00579203750180725	0.00855776371589293
6	0.00662108792751008	-0.0096622089112554	-0.00162771388704146	-0.00263957820933512	-0.00162179993945262	-0.00264286771408552	0.00877007010217823	0.00699206554420174
6.1	0.00673849576151512	-0.0127521490520217	-0.0019830176890572	-0.00238746302979521	-0.00197893412081998	-0.00239215579717541	0.00856555122735967	0.00201771117446455
6.2	0.00501634449957741	-0.0139513470796939	-0.0022932291355572	-0.00207744030249401	-0.00228969373394718	-0.00208596018746689	0.00670315925018735	-0.000580703643910891
6.3	0.00340683292153669	-0.0144092191210763	-0.00255453873135504	-0.00174862495503373	-0.00256417161184871	-0.0017562946720676	0.00496988376416484	-0.00237141215429669
6.4	0.0023691404880386	-0.0137625774457876	-0.00278199130366091	-0.00137523307144185	-0.00278000427244247	-0.00138093616937945	0.00374974751050157	-0.00312776068292159
6.5	0.00371243723182366	-0.0152068990609266	-0.0029482218114218	-0.000973750480321582	-0.00294862269187268	-0.000972645276827532	0.00416632739946807	-0.00576994067706276
6.6	0.000791527674164088	-0.0170790674830919	-0.0030436825116501	-0.000559447815507953	-0.00305415782741921	-0.000562448563053694	0.000523106757899198	-0.00802844550491685
6.7	-0.00105162804381159	-0.0163905628101487	-0.0030913593448543	-0.000139421375652273	-0.00309037421482013	-0.000133277560999517	-0.002079260195447	-0.00788774215763168
6.8	-0.00236061566912577	-0.0155893543489212	-0.00308334227322696	0.000299030946516182	-0.00308248557695039	0.000303725104163104	-0.00452640426611899	-0.00743288604598482
6.9	-0.00304508476083933	-0.0136404439384728	-0.00300655859894512	0.000724637893154102	-0.00300701064541561	0.000729544480419873	-0.00645244700833217	-0.00550515318417587
7	-5.17906711778181E-05	-0.0137216585529312	-0.00287460328696533	0.00113036973784967	-0.00287601941100151	0.00113351708864005	-0.00539391977750336	-0.00517475965225283
7.1	-0.00224360537428906	-0.0168156958319964	-0.00269414912700874	0.0015150456028011	-0.00269666669236446	0.00152585343917349	-0.00892996442402593	-0.00607225985975628
7.2	-0.00493193917459084	-0.0164191417685973	-0.00246809031168451	0.0018749532463649	-0.00246834733801245	0.00188075967213665	-0.0115128818948911	-0.00334621587797568
7.3	-0.00715194431001224	-0.0153702585885468	-0.00218863732068786	0.00219942028939177	-0.00218593404279342	0.00220091091402001	-0.0126495252766174	-0.000336591760385462
7.4	-0.00924849521979147	-0.0126795531190371	-0.00185701286998141	0.00248046777275429	-0.00184999889523643	0.00248700053240835	-0.0129509222048656	0.00349907874699899
7.5	-0.00684213872298788	-0.0100080931070722	-0.00150273744756442	0.00271601198635383	-0.00150372455833729	0.00271400423278565	-0.00925716638574633	0.00631777631229514
7.6	-0.00718251980386377	-0.0120681427941925	-0.00112116881102965	0.0029096630544556	-0.0011108087466589	0.00292011680612484	-0.00838112976239188	0.00511288146604598
7.7	-0.00873577565164431	-0.0116684840981241	-0.000697464126049968	0.00304325555768023	-0.000691941540244916	0.00304301326179435	-0.00838099897238129	0.00601074961544148
7.8	-0.00947333082224438	-0.0108526591025867	-0.000258697593005823	0.00311379405385874	-0.000272095030823222	0.00310650906305358	-0.00771173500373437	0.00738817047139675
7.9	-0.00904550914267467	-0.00951209194116216	0.000156176435476717	0.00311345961745181	0.00016719834448247	0.00311339190555289	-0.00591878302947648	0.00929113060483075
8	-0.00638592495431917	-0.0114684376023215	0.000593543280154911	0.00308192101131737	0.000601862395649178	0.00308002536422797	-0.00239005752474149	0.008644900519893
8.1	-0.00919635368219938	-0.013749967142694	0.00103406433169987	0.00296513999841723	0.00103184905576758	0.00296185007081773	-0.00300803971314657	0.00808288857741307
8.2	-0.01129093495418	-0.0129222456448328	0.00142720099369338	0.00279220848368048	0.00142615556638657	0.00280375815915572	-0.00172667633571316	0.00955215899238844
8.3	-0.0127921504438806	-0.0116902346656676	0.00180462903851926	0.00257259852927821	0.0018097558668185	0.0025701169120025	0.000301965587287138	0.0102679449760854
8.4	-0.0136205387339417	-0.00904384637984313	0.00216367652299522	0.00230519575396403	0.00215247626533455	0.0023053705645944	0.00276404044120952	0.0111216307206355
8.5	-0.0104864546944663	-0.00811270941661201	0.00247650630053236	0.00196687692679195	0.00247649314328953	0.00196823241054257	0.00783651524135208	0.00947174027325557
8.6	-0.0119718651900993	-0.010513295642598	0.00270814173306023	0.00160974858993643	0.00270396482130054	0.00160736174067862	0.00797126425705113	0.00534569090883106
8.7	-0.0141574482862176	-0.0095994804987964	0.00290907668582369	0.00121819389013948	0.00290791788938471	0.00121775973636699	0.00793852753347868	0.00389299967211786
8.8	-0.0156553768037062	-0.00791965240859442	0.00305258850264617	0.000800866515263463	0.00306366303527227	0.000798951781665841	0.0081823407599626	0.00225396689689447
8.9	-0.0163855589266482	-0.00486670359560905	0.00313859367223117	0.000363514880897317	0.0031481218963478	0.000356486133761417	0.00851962433272944	0.00120232510671593
9	-0.0129298600474537	-0.00299493421639882	0.0031504594919287	-8.60430090937955E-05	0.00315716356555472	-8.03072542707653E-05	0.0111264698934731	-0.00133238767447577
9.1	-0.0127778760806272	-0.00466446327820504	0.00311990802671035	-0.000514058480992069	0.0031201308697762	-0.000514247786735352	0.00966469733636808	-0.00597687997115267
9.2	-0.0129440415709483	-0.0043196464958627	0.00301861491570215	-0.000945000897672131	0.00302246289627183	-0.000944703380011058	0.00775681303575786	-0.00845197226708026
9.3	-0.0128180784026156	-0.00406060675646177	0.00285366778557449	-0.00136536778009111	0.00287189055170392	-0.0013654879309491	0.00552531666650719	-0.010631130502791
9.4	-0.0123519496998479	-0.00287831256971497	0.00263834074681823	-0.00174469231165516	0.00264188396676501	-0.00175575610795569	0.00311563614670188	-0.0115674810373183
9.5	-0.00972879780960522	-0.00434630179454454	0.00238277714989283	-0.00210503016883337	0.00239774647519087	-0.00210538800656371	0.00185043595082546	-0.0142193672042338
9.6	-0.0123175696129918	-0.00651471490574868	0.00206997987821882	-0.00243143035324372	0.00207017334445842	-0.00242430350784346	-0.00419709927699742	-0.0159719412208735
9.7	-0.0143073654763565	-0.00550459905576692	0.00170347757684498	-0.00270150303822375	0.00171193297348955	-0.00270297418863931	-0.00892312200091469	-0.0143748402437829
9.8	-0.0156286908624753	-0.00395371397275342	0.00131534262911175	-0.00290943975369045	0.00131362960611724	-0.00291826013095697	-0.0127882954053395	-0.0120909381535759
9.9	-0.0162194535703173	-0.00104547546606216	0.000904615949752257	-0.00306832250964606	0.000892568776381565	-0.0030711940907187	-0.0158956866771521	-0.00839146111715087
10	-0.0129054139746988	0.000153703597676748	0.000459676341725214	-0.00317264111076143	0.000458955226830168	-0.00318014108475955	-0.0159594845963207	-0.00596530660676081
10.1	-0.0136990895581094	-0.00158245995040604	2.53916418867935E-06	-0.00321462526024823	-2.17930748623076E-06	-0.00321750773052241	-0.0195564999817542	-0.00454810774637195
10.2	-0.0149263951781757	-0.000595273266209365	-0.00045081594362509	-0.00317746648067785	-0.000463662651339717	-0.00318143635199324	-0.0220861621034082	-0.000146451425022341
10.3	-0.0155524203622694	0.00112191783523548	-0.000897246065239305	-0.00307929724323114	-0.00089690361654525	-0.00309299817855643	-0.0231130263485333	0.00485064784784092
10.4	-0.0149868006530735	0.00410067654256304	-0.00132638080750723	-0.00293609856118636	-0.00132964744602836	-0.00293393539642141	-0.0223062575614604	0.0105139031061366
10.5	-0.0106970191931525	0.00473919069844173	-0.00173585431345234	-0.00270232980088332	-0.00174217583767747	-0.00270977384606436	-0.0182879911560725	0.0137575303777469
10.6	-0.0104692723786424	0.00278896938317518	-0.00209780457952651	-0.002431913211664	-0.00209933518892908	-0.00243713919432615	-0.0176518798437632	0.0156720476896895
10.7	-0.0105172748641383	0.00279071785493053	-0.00241328786046039	-0.00211282218555403	-0.00241656701484914	-0.00212921554785064	-0.0158879511198526	0.0194642092249864
10.8	-0.0106733570305012	0.00315479362497566	-0.00269097298739172	-0.00175397738543986	-0.00268797016248553	-0.00175619882107774	-0.01323668173743	0.0231958308168877
10.9	-0.0101640828401469	0.00499060425165865	-0.00291544568950583	-0.00135662079085202	-0.00291473531387325	-0.00136186658529723	-0.00891879243513106	0.0273931458892005
11	-0.00609123877152502	0.00456792233569135	-0.00306704944775219	-0.000926212221599571	-0.0030599209858784	-0.000930618836544486	-0.00159546349820777	0.0284535929473061
11.1	-0.00697750926403708	0.00184714803338516	-0.00316660626205394	-0.000507028851346497	-0.00315867765510395	-0.000498591902469357	0.00171769574654293	0.0278600502814081
11.2	-0.00791187603443312	0.00190732296582694	-0.00320889262533337	-5.00557898572713E-05	-0.00321561201849846	-4.67414038372159E-05	0.00645581922449717	0.0286233809089296
11.3	-0.00857576279947685	0.00262123223972096	-0.00318000692295881	0.000406428026175619	-0.00318325311924981	0.000404243899843843	0.0118016689783224	0.0283949067783655
11.4	-0.00842011885978175	0.00451656636152621	-0.00308001825638218	0.000845950997726642	-0.00308472997497368	0.000846147151279389	0.0177190725767422	0.0273295256963275
11.5	-0.00466353715630295	0.00391845110194009	-0.00294763654524343	0.00125313919646984	-0.00293995220443686	0.00125794033887324	0.0254116464563801	0.0225352210204259
11.6	-0.00590965622805889	0.0013288067599027	-0.00274028868236404	0.0016661728297756	-0.00274849152991191	0.00167615458963504	0.0278352600552512	0.0160298799484012
11.7	-0.00702992766970188	0.00179521529836744	-0.0024699836786843	0.00204243919719714	-0.00247172694316528	0.00204622516376358	0.0302078704556381	0.011073075911023
11.8	-0.00720611814313701	0.00298515396474699	-0.00215623478237388	0.00236826807635983	-0.00216549274876498	0.00237836448754401	0.0321745637470101	0.00565080210375977
11.9	-0.00518525003304902	0.00524861561718243	-0.0018084051026727	0.00264006668548671	-0.00180836120579319	0.00264674955603846	0.0341993795324552	0.000505905676029817
12	-0.000396202785293692	0.00340840942303807	-0.00141624530653894	0.00287799695684433	-0.00142079738624733	0.00288091006344647	0.036286358222478	-0.00803130637174966
