# GHZ S RI R 50
0.2	-0.0147976983175499	0.00402585599507778	0.00305413019746247	-0.000882332580721833	0.0030646173545191	-0.000882161770824992	0.00506116321770923	-0.000443076465750547
0.3	-0.0137792017493504	0.00512618271443363	0.0029108960100379	-0.00129932663244891	0.00290461515954129	-0.00131102130313805	0.00560312750550288	-0.00210848449120842
0.4	-0.0129213629627294	0.00665419840104735	0.00269997319994829	-0.00169637690143635	0.00269786335184971	-0.00169830234627376	0.00531991050738355	-0.00313598124477601
0.5	-0.0105970200016286	0.00718961582595868	0.00243041012879414	-0.00205963536432345	0.00243324466114341	-0.00206337664852281	0.00612599659175587	-0.00490586329805382
0.6	-0.0109774450070994	0.00641291992755434	0.00211535512393524	-0.00238128827952914	0.00211461191532509	-0.00238414531712173	0.00381853908228504	-0.00780112497142596
0.7	-0.0113293748222177	0.00766300759999856	0.00176493657015797	-0.00265405443539106	0.00177118222005355	-0.00265816002484332	0.00121218270601678	-0.00821134387662161
0.8	-0.0110525744164759	0.00892742819269698	0.00136990965015648	-0.00287816576886262	0.00137823040625455	-0.00287654916596643	-0.00107390666114036	-0.00808690631096828
0.9	-0.0110350826393043	0.0106284086754867	0.000961170972859299	-0.00303404046141277	0.000961155746117677	-0.00304351822533185	-0.00360457956510802	-0.00699157546255275
1	-0.00866729997531249	0.013429084210985	0.000522949023713114	-0.00314057216881776	0.000522798558944637	-0.00314595920294101	-0.00370870193990008	-0.00416759590131067
1.1	-0.0065705173046647	0.011915776356679	7.61108854607759E-05	-0.0031819751518373	7.70076152712373E-05	-0.0031867299941016	-0.00371817252155449	-0.00514913659871533
1.2	-0.0067456661208144	0.0116084428810861	-0.000367305945179685	-0.00315764932633712	-0.000366067344989367	-0.003174561946189	-0.00537007027539568	-0.0043534032000461
1.3	-0.00673601678033856	0.0112462025526454	-0.000804106877391225	-0.00308326109672148	-0.000809085406128832	-0.00309097011935977	-0.00574915622451156	-0.00322633512237114
1.4	-0.00688434967512683	0.0111362648094135	-0.00123444011226212	-0.00293492598898235	-0.00123688082262962	-0.00294210282534915	-0.00581189072162348	-0.00224902562393537
1.5	-0.0052154538993517	0.0106757283701937	-0.00162555257341772	-0.00273651720380412	-0.00162356736167689	-0.00274209742005804	-0.00436958645322541	-0.00221456494459998
1.6	-0.00601853836792482	0.0101699670732912	-0.00199667345098468	-0.00248158311343368	-0.00200017528551143	-0.00248246744654433	-0.00620538338455231	-0.00217631604231032
1.7	-0.0054387916094342	0.0116235071313875	-0.00232747396346702	-0.00218134687319373	-0.00232956036141574	-0.00219000738632782	-0.00652711054710294	0.000196118828245197
1.8	-0.00431781934361965	0.0127060710586642	-0.00260661729656913	-0.00182596544802868	-0.00261185512550669	-0.00183145825004489	-0.00595951148380035	0.00216903431135173
1.9	-0.00291704571780268	0.0139923917888473	-0.0028325868978053	-0.00145289496182709	-0.00282902793898476	-0.00144666293060008	-0.00473903959575314	0.00444605051257062
2	0.000514231751145595	0.0140104408323727	-0.00301423770137689	-0.00103817808683897	-0.0030169843742619	-0.00103125399504695	-0.00108225340606705	0.00532154053929678
2.1	0.000773931733361599	0.0117507986330987	-0.00313010941660585	-0.000592674278371545	-0.00313227155966552	-0.000599425716567644	-0.000331039839408981	0.00353760354517681
2.2	0.000563664759347445	0.0117722481675975	-0.00317881628505202	-0.000154635887890541	-0.00318058244424755	-0.0001448086474527	0.00020767474123991	0.0036684469186336
2.3	0.000666956227046044	0.0119257340484661	-0.00316679929956224	0.000292676429471239	-0.00317363610649546	0.000289787309330562	0.0011055934432618	0.00355926936092118
2.4	0.000676831111308597	0.0127985034063898	-0.00310445656665463	0.000733221782792725	-0.00310315783274972	0.000748477032487906	0.00189564423613156	0.0038470732233806
2.5	0.00306252067470451	0.0141105490588384	-0.00296111396635912	0.0011771054159013	-0.00297422889669501	0.00117855447822992	0.00504693090514778	0.00423987968857681
2.6	0.0044669491176329	0.0121737099455712	-0.00275696121560345	0.00157128082627025	-0.00277798729580645	0.00157545385496316	0.0070482732132309	0.000849985210064142
2.7	0.00465479030169622	0.0115407736422717	-0.00251851769132093	0.00193907994902332	-0.0025187428644471	0.0019442030852687	0.00721350680828264	-0.00163665348191853
2.8	0.00494637603313191	0.0112614193880898	-0.00221624930584328	0.00226426340310694	-0.00222601831152998	0.0022756470896425	0.00681030445425076	-0.00377482119463499
2.9	0.00561677867824269	0.0116825634182169	-0.0018692446897455	0.00255717187278765	-0.00186718656377397	0.00256611080027666	0.00629293496940512	-0.00489810001587869
3	0.00819009308038379	0.0111409039733043	-0.00148539072210827	0.00278951501074146	-0.00150070473467597	0.00277665209792597	0.00749281989050555	-0.00667051567981591
3.1	0.00818647791356831	0.00908294151180322	-0.00108805160112695	0.00296462741358876	-0.00110497496406736	0.00297025723375473	0.00582938803991471	-0.0100984915861597
3.2	0.0082199151865339	0.0087503990168575	-0.000664381555671234	0.00308582325121917	-0.000659960021332833	0.00309660658450236	0.0036590585696123	-0.011353482800273
3.3	0.00849197379071575	0.00830448213403583	-0.000229845668594813	0.00314960529505272	-0.000226600839417058	0.00314517041583675	0.00155672904840196	-0.012406386221639
3.4	0.00876236133842055	0.00839148394061479	0.000217881113298912	0.00314539892168833	0.000208467175907552	0.00314661396021758	-0.000659210747909369	-0.0126556935608842
3.5	0.0109202487516987	0.00784629485247702	0.000642302932240978	0.00308045636727015	0.000647289544296034	0.00307906814141116	-0.00106550535104286	-0.0133532507943789
3.6	0.0104669172477817	0.0053455932823173	0.00106384112649899	0.00296015892995689	0.00107048684439731	0.00296357067825907	-0.00444978136054282	-0.0156786889442979
3.7	0.00957472113465295	0.00512679633025642	0.00148010094248349	0.00277422944862459	0.00147857884165727	0.00279061546133503	-0.00837713906538105	-0.0151049889128393
3.8	0.0093992244977261	0.005381710103194	0.00184272562637408	0.00253927899539986	0.00185339266188736	0.00254547476096145	-0.0116103034450978	-0.0135130968805738
3.9	0.00996481567069408	0.00624313776645292	0.00218101141979578	0.0022573923826582	0.00217642530867995	0.00225735371895084	-0.0140025562064369	-0.0106767883831725
4	0.0131219828871432	0.00587756941706646	0.00247183682918115	0.00194028652170441	0.00248334222259928	0.00194628390262253	-0.0133891138116203	-0.00847494042682179
4.1	0.0133633093085482	0.00270006985980363	0.00271978219253615	0.00156200328641768	0.00273645504930729	0.00157151615472972	-0.0151625771244732	-0.00866129859558807
4.2	0.0127529287603672	0.00154563539142108	0.00290955546661373	0.00116143937092806	0.00291081674712669	0.00116369796862652	-0.0173750785387946	-0.00653824672637586
4.3	0.0123890203372583	0.000791880200614455	0.00304277932785996	0.000754340170355523	0.00304407819957892	0.000762864456647036	-0.0188332115379856	-0.00384994628696908
4.4	0.0120886577286281	0.000693513490146816	0.00311633110658401	0.000321193366305933	0.00312415138320445	0.000316471835382467	-0.0197089410271945	-0.000192509101012672
4.5	0.0140797437941308	0.000179070988234492	0.00313159810215338	-0.000130615708180339	0.0031284621873829	-0.00012831361190748	-0.0174283149796075	0.00315187068240038
4.6	0.0134026852699823	-0.00307141994299613	0.00305927851514272	-0.000568772927833546	0.00307237422142256	-0.00055710928669459	-0.0171262787774652	0.00326981202720819
4.7	0.011937114844003	-0.00397813699501257	0.00295060583900946	-0.000970622810566088	0.00295038019245114	-0.000979957536034733	-0.0174927386807708	0.00537722209105324
4.8	0.0108261498267587	-0.00446825619572074	0.00279724584879815	-0.00136472066612652	0.00278941144330722	-0.00138457822811606	-0.0170691648982173	0.00789871856874593
4.9	0.0100629844195809	-0.00412933754006555	0.00257566494775665	-0.00175532876089463	0.0025697812169957	-0.00174690117401604	-0.0159641427549281	0.0110510608081258
5	0.0116669887881892	-0.00458940371741266	0.00228967108426874	-0.00207033985883036	0.00229220817694676	-0.0020826027562177	-0.0117734342754981	0.0131093021509686
5.1	0.0102888574590992	-0.00688830564963711	0.0019776705609113	-0.00237601180522884	0.00199070705649196	-0.00237369632119893	-0.0104617894991301	0.0126871080666463
5.2	0.00914796030646454	-0.00676386076690107	0.00164085958415458	-0.00262569215989445	0.00164131701661917	-0.00262979253779105	-0.00875270701270177	0.0144018060853417
5.3	0.00892703217611587	-0.00664238558461967	0.00125530605289196	-0.00282791449297814	0.00125160161022186	-0.00283041355726352	-0.00588051927368721	0.0157196323002422
5.4	0.00913854299818449	-0.00621808561881252	0.000850517617947516	-0.00297407546739914	0.000849627675285302	-0.00297648231795052	-0.00235459587669153	0.0166722090123472
5.5	0.0117478268970466	-0.00762868681150211	0.000432830832606103	-0.00305903063632725	0.00044516621145067	-0.00305904689793788	0.00356714991179714	0.0149226067907959
5.6	0.0093322306616967	-0.0111931232287155	9.05745958280111E-06	-0.003095889983299	5.82259397727637E-06	-0.00309248144725892	0.00394954813099191	0.0103321376577597
5.7	0.00667207068428696	-0.0110768072766614	-0.000416942201781457	-0.00306792052952788	-0.000420605185374028	-0.00307153819651706	0.00354738638956943	0.00911954159094538
5.8	0.00498649450490503	-0.0103649047951406	-0.000840309859476481	-0.00297649946875956	-0.000839603682920298	-0.00298404779367054	0.00366538916096419	0.00821878438265009
5.9	0.00362055678277095	-0.00835979940767525	-0.00124199474828237	-0.00282819749906368	-0.00124041857226006	-0.00283227241018506	0.0035888716497364	0.00854489851994201
6	0.00649188894689814	-0.00619581133247975	-0.00162628539223563	-0.00263828028787488	-0.00162037441405428	-0.00264156680516177	0.00756058917856922	0.00925475863658423
6.1	0.00740532944844964	-0.0092878711765604	-0.00198354296767262	-0.00238514147897058	-0.00197946416020689	-0.00238983453554602	0.00954042667590339	0.00437318025416106
6.2	0.0064124434679537	-0.0107388691269862	-0.00229277792839642	-0.00207398306977637	-0.00228925177999752	-0.0020824982238759	0.00913204542699751	0.000998092107657111
6.3	0.00515158755760551	-0.0119755755739686	-0.0025527449534223	-0.001745212945201	-0.00256237169475245	-0.00175286861174591	0.00798917470742029	-0.00218329247205516
6.4	0.00373241592682837	-0.0118967426755697	-0.00277963317704376	-0.00137311816701112	-0.00277764966243218	-0.00137881620343283	0.0063401988851619	-0.00382261183591563
6.5	0.00481532886986487	-0.0134355414366119	-0.0029471014021377	-0.000970637389560236	-0.00294750109198097	-0.000969532576199745	0.00702189332940104	-0.00696174241630692
6.6	0.00126847100466037	-0.0153136237861804	-0.00303955224862056	-0.000556101821127851	-0.00305001423320541	-0.000559089431343778	0.00244686488807005	-0.0104718998417608
6.7	-0.000652001423291378	-0.0142828277804152	-0.00308648138528017	-0.000138250072612738	-0.00308549593636975	-0.000132116340347555	-0.00113914134884917	-0.0103633207375667
6.8	-0.00193919440790608	-0.0135596979726408	-0.0030790814556316	0.000298749726858203	-0.00307822574048152	0.00030343738052764	-0.00424553291230882	-0.00985262122010031
6.9	-0.00295423983258831	-0.0116776598867058	-0.00300333442145408	0.000724508335034189	-0.00300378500655817	0.000729409993196487	-0.00689789478332744	-0.0074044726517893
7	0.000130700222170538	-0.0114799269908676	-0.00286883874659314	0.00113044039292639	-0.0028702502064079	0.00113358330100178	-0.00487769497031492	-0.00627471205637604
7.1	-0.00244865504367814	-0.0148823583380594	-0.00268936385951779	0.00151157975415285	-0.00269187900558633	0.00152236651581716	-0.00838558452421045	-0.00871961091248374
7.2	-0.00539994535440839	-0.0141042144002682	-0.00246496712724928	0.00187120214170005	-0.00246522581542475	0.00187699956679024	-0.0121348438378204	-0.00643655116548344
7.3	-0.00757511920555756	-0.012859009487388	-0.00218603408434302	0.00219575546099405	-0.00218333502476158	0.00219724459994072	-0.014523132534031	-0.00333801885347866
7.4	-0.0098260019497657	-0.0101187874880441	-0.00185381861348686	0.00247600008737016	-0.00184681732193084	0.00248252154345513	-0.0164879081828179	0.00151707744690731
7.5	-0.00735589131366399	-0.00689815465927171	-0.00150222448032938	0.00270836305256677	-0.0015032072789848	0.00270635875387538	-0.0127302386923922	0.00691234710190867
7.6	-0.00764408725795361	-0.00897581506210166	-0.00112362388395243	0.00290451794291916	-0.0011132907200838	0.00291497231626775	-0.0109068297044676	0.00633925708152098
7.7	-0.00916394471322711	-0.00822330455771123	-0.000699969367106646	0.00303919443350649	-0.000694452533403481	0.00303895832548914	-0.0103847189951304	0.00800203783557953
7.8	-0.00969746524665035	-0.00724421140518981	-0.000261485372913825	0.00310996018190259	-0.0002748602002254	0.00310267028754097	-0.00884473277459211	0.00988683207755319
7.9	-0.00916739970665333	-0.00579091149019913	0.000151848875512965	0.00310941033707597	0.000162855808634942	0.0031093572819513	-0.00578702801061013	0.0122022069916023
8	-0.00612772280235554	-0.00735756037620133	0.000587993558277183	0.00308162190164044	0.000596312370671413	0.00307974136067306	-0.00028926209786513	0.0113519054367269
8.1	-0.00896198830172588	-0.0100491708054115	0.00103143994969618	0.00296515852370396	0.00102922787353893	0.00296186773077391	-0.00035125719507169	0.00817178172045019
8.2	-0.0108447446824811	-0.00897399912998476	0.00142421072600622	0.00279103317311214	0.00142315826472816	0.00280257327213056	0.000324853796237717	0.00874600250615776
8.3	-0.0119440646727321	-0.00788896553083752	0.00180020979048737	0.00257170956455196	0.00180533374489932	0.00256923559575009	0.00190116766270623	0.0089513281587606
8.4	-0.0127298140329802	-0.00557062966813928	0.0021584781763027	0.00230674823481538	0.00214728624344525	0.00230690571969482	0.00377799324006571	0.00983986624814981
8.5	-0.00926833595486599	-0.00470521166451909	0.00247447887417883	0.00196884059200284	0.00247446451909447	0.00197019590792609	0.00992857168665681	0.00860140838164279
8.6	-0.0110662931784564	-0.00779180479354002	0.00270407576190375	0.00161060278562766	0.00269990503613189	0.00160821452548792	0.0101686053840668	0.00240794287683144
8.7	-0.0135656061562185	-0.0067386497963382	0.00290470419924047	0.00122134574068695	0.00290354707002556	0.00122091028559579	0.00876160204114316	6.11259257134435E-05
8.8	-0.0150167804431061	-0.00499084660148841	0.00304971424950793	0.000805717657257636	0.0030607866355011	0.000803822889301099	0.00752850059931124	-0.00164245675971138
8.9	-0.0158590652320516	-0.00198621552345215	0.00313838979969782	0.000368094885167131	0.00314792917538826	0.000361079206716283	0.00626160250440541	-0.00168868669613893
9	-0.0121763642570116	0.000184642252059624	0.00314827432745816	-8.34289652309618E-05	0.00315496895694951	-7.76918844546919E-05	0.00929896934309602	-0.00203265663055696
9.1	-0.0121360505849838	-0.00175887551124054	0.00311905809534545	-0.000507632873674084	0.00311928117663854	-0.000507821629050288	0.00855543698153169	-0.00661376983212988
9.2	-0.0122752956956455	-0.00123288204247571	0.00302080902616089	-0.000939250452883922	0.00302465688670943	-0.000938945425863405	0.00706806873390897	-0.00857660317790239
9.3	-0.0119800738747492	-0.00116645164872438	0.00285708216463739	-0.00136161783623349	0.00287531353495704	-0.00136171006895704	0.00562094570815896	-0.0107227018292704
9.4	-0.01189508020324	-0.000291704748385424	0.0026403443084642	-0.00174243958509582	0.00264389844708778	-0.00175350153908495	0.00350791479913087	-0.0117183013995654
9.5	-0.00931994847832624	-0.00179509081684859	0.00238578372443594	-0.00209941028929575	0.00240074683463227	-0.00209973876278203	0.00378506229877582	-0.0147971813208977
9.6	-0.0127502840036576	-0.00412528405033613	0.00207614421995932	-0.00242900917129784	0.0020763238366402	-0.00242187713881752	-0.0027605215052372	-0.0187007791348595
9.7	-0.0151332730454202	-0.00251577088700487	0.00170862163251498	-0.00270109615696826	0.00171708548772854	-0.00270255631616235	-0.00888801049623241	-0.017597437948544
9.8	-0.0165243694274337	-0.000565886917036849	0.00131952771724406	-0.0029092529422763	0.00131782460951634	-0.00291807969893588	-0.0140425405912384	-0.0150970029643645
9.9	-0.017362723728746	0.00272864952362881	0.000909644675681179	-0.00306702155581986	0.000897601506379284	-0.00306991284444104	-0.0184637672981939	-0.0102371630972787
10	-0.0136801244584271	0.00473593159242488	0.00046733744081483	-0.00317520662785724	0.000466632384992057	-0.0031827167347247	-0.0175658132434368	-0.00579052499661902
10.1	-0.0142619170511374	0.00315122783453003	6.52292108422353E-06	-0.00321841047831077	1.80245799398076E-06	-0.00322130218693521	-0.020352009084045	-0.00476797305190499
10.2	-0.0149430795218513	0.00458356049778533	-0.00044676534402883	-0.00318041628968823	-0.000459615990217479	-0.00318440678201474	-0.0228135932770962	-0.000231002042645322
10.3	-0.0148845448339592	0.00612967557238122	-0.000892105953450489	-0.00308338981847154	-0.00089173726710948	-0.00309710074755568	-0.0238242446598606	0.00494098804231
10.4	-0.014254508940409	0.00876227085688242	-0.00132131011306252	-0.00294411569352019	-0.00132458736273634	-0.0029419570568265	-0.023277084218306	0.0114990658896415
10.5	-0.00962519864492625	0.00940503040937932	-0.00173741885030944	-0.00271181184134135	-0.00174374891429708	-0.00271928383238624	-0.0173954553009674	0.0161240537888901
10.6	-0.00932216775612129	0.00730489328631356	-0.00210002883684499	-0.00243787514127491	-0.00210155869409329	-0.00244311188686617	-0.0150744171167906	0.0169813301574626
10.7	-0.00898082421351218	0.00714535165501225	-0.00241585812778691	-0.00211898761469907	-0.00241912835562341	-0.00213541462937891	-0.0123358734000157	0.0195631290535737
10.8	-0.00904489936686939	0.00679783963852461	-0.00269532726358328	-0.00176029412436797	-0.00269231578861044	-0.00176251774384913	-0.00957398671688329	0.0215606905618467
10.9	-0.00915918235849821	0.00812565501462022	-0.00292315197766305	-0.00136115003418083	-0.00292243824114993	-0.00136641015491514	-0.00620949564807445	0.0249413494577992
11	-0.00521306223995342	0.00786552031085496	-0.00307242065013402	-0.000925457971943804	-0.00306528436202053	-0.000929876419770529	0.00182872788363867	0.0259188933562827
11.1	-0.00673276085859585	0.00488627162846052	-0.00317105948127998	-0.000509146431168249	-0.00316312282362834	-0.000500693603661271	0.00455484120286325	0.0230070382625549
11.2	-0.0079233669941111	0.00544201894497939	-0.00321542691770944	-5.11344757993109E-05	-0.00322216103333374	-4.78153696560497E-05	0.00755903223250792	0.0229598957110162
11.3	-0.0082718984030297	0.00643089725011769	-0.00318699473660312	0.000407905132261405	-0.00319024853562451	0.000405716742030254	0.0110623491412304	0.022664831502197
11.4	-0.00814470737878308	0.0082965296464247	-0.00308447992072267	0.000850078808111629	-0.00308919942781251	0.000850279422015372	0.015219574429766	0.0226327565749465
11.5	-0.00408725876461292	0.00783985007759491	-0.00295080222540807	0.00125318857045087	-0.00294311263730052	0.00125799697111028	0.0236111067803654	0.0193568676698555
11.6	-0.00567097814036782	0.00469643805275864	-0.00274679257783628	0.00166915961892052	-0.00275501618199532	0.00167916138995345	0.0254180961453424	0.0119568974919472
11.7	-0.00710015064239474	0.00527860189019462	-0.00247445859074353	0.00204800917795793	-0.00247620395962627	0.00205180419460429	0.0262577770688008	0.0077294402858092
11.8	-0.00756333193187047	0.006520282277755	-0.0021581357380532	0.00237402171492795	-0.00216740192214264	0.00238414270547072	0.0271283878231323	0.00401866930784278
11.9	-0.00646351076057743	0.00920898182504168	-0.0018095337369639	0.00264320432077217	-0.00180948803753411	0.00264989391805286	0.0285700021425394	0.00198888078558214
12	-0.00070356621530096	0.008190270387507	-0.0014202984963082	0.00288408743001848	-0.00142486173155902	0.00288700578011943	0.0348102813352134	-0.0040949129840812
