# GHZ S RI R 50
0.2	-0.0139560114151123	0.0054626952523088	0.00304364733598923	-0.000885600019691334	0.00305410458687441	-0.000885449655520607	0.00589392895186511	0.00102138712124621
0.3	-0.013097872368832	0.00594394429395801	0.00289712020553174	-0.00130151681051558	0.00289083444477162	-0.0013131536022599	0.00624485861773918	-0.00125809167739361
0.4	-0.0123491834337814	0.00656486447774541	0.00268256865469683	-0.0016953792585202	0.00268046382792048	-0.00169728991632705	0.00579980760963334	-0.00318119008203675
0.5	-0.0117948247175186	0.00738134662775435	0.00241286073083618	-0.00205167604722866	0.00241567257873878	-0.00205540025751024	0.00473250056663504	-0.00459970787689601
0.6	-0.0108568597273454	0.008226069393195	0.00210038121800091	-0.00237161614461639	0.00209963773729314	-0.00237445666257144	0.00372121460027649	-0.00571120347199033
0.7	-0.0101218369900922	0.00883098784809367	0.00174975168865176	-0.00264120072677902	0.00175595276973291	-0.00264529252829516	0.00226433744869686	-0.00663638136736312
0.8	-0.00933533029471341	0.00946569126658462	0.00135647273424747	-0.00286059758359703	0.00136473933138606	-0.0028590039164241	0.000597231507410587	-0.00705640833118154
0.9	-0.00862248199837288	0.0100031010579324	0.000952510832140137	-0.00301217770911405	0.00095249079467829	-0.00302158561036322	-0.00107770414100848	-0.00712853388519667
1	-0.0081429761759907	0.0105656479392203	0.000520006367231515	-0.00312043718996813	0.000519857548283182	-0.00312578981948258	-0.00300816537472114	-0.00675095380331468
1.1	-0.00744305981041484	0.0114066107213523	7.27520700681329E-05	-0.0031598250538395	7.36383137161488E-05	-0.00316454749234256	-0.00459502653028507	-0.00543840419032317
1.2	-0.00662331451416952	0.0117300334142984	-0.000365403571053895	-0.00313245330441575	-0.00036418024259352	-0.00314923200246154	-0.00536579889183122	-0.00393734222745353
1.3	-0.00599794062258209	0.0116317774453314	-0.000795886591335047	-0.00305819446055256	-0.00080082004125876	-0.00306584232651514	-0.00521487113360149	-0.00245125377973898
1.4	-0.005533277455056	0.0111474358947477	-0.0012213584196425	-0.00291325012575766	-0.00122377168801262	-0.00292037329463592	-0.00466314896200108	-0.00172635632434435
1.5	-0.00507815940531531	0.0110417667435999	-0.00161265305367285	-0.00271472037512587	-0.00161068371182502	-0.00272025621336434	-0.00445655641830545	-0.00116828595750813
1.6	-0.00425498652800872	0.0111162846355707	-0.00197454392682929	-0.00245877797745418	-0.00197801015707237	-0.00245965676447837	-0.00450259555888229	-0.000331769116762443
1.7	-0.00350230501412694	0.011285637231746	-0.00229903869107037	-0.00216502281087404	-0.00230108376233911	-0.00217360161564324	-0.00440290130950004	0.000763749386434265
1.8	-0.0026998799116227	0.0116052342949854	-0.00257562201306423	-0.00181630267948834	-0.00258079190388158	-0.00182175834140852	-0.00400988929830852	0.00185886712937784
1.9	-0.00190550744263834	0.0117749656140793	-0.0028008795154193	-0.00144749009203367	-0.00279737376854686	-0.00144130731811207	-0.00337824288198537	0.00283508643372657
2	-0.00116221383754308	0.0121292335411492	-0.0029755595413368	-0.00103675621683319	-0.00297829874460264	-0.00102992225083441	-0.00263358364234431	0.00393718147252179
2.1	-3.14069623079147E-05	0.0121829500150195	-0.00309116114045015	-0.000605643629434667	-0.00309325658641824	-0.000612332646495402	-0.00113700199861899	0.00467387617923166
2.2	0.000803610336415832	0.0120250850565678	-0.00314493662182817	-0.000175241657269128	-0.003146753192446	-0.000165528151481274	0.000542587414135044	0.00477980766914818
2.3	0.00144915377664376	0.0117858461184009	-0.00313690823318779	0.000266272746394282	-0.00314365444574489	0.000263362266165738	0.0021508709008988	0.00431627477855637
2.4	0.00192978263439737	0.0115780556928481	-0.0030771186160534	0.000700029086693629	-0.00307595825924802	0.000715131201849844	0.00360391747962141	0.00340201935218616
2.5	0.00220086910909778	0.0116384357313433	-0.00294308619767406	0.00113143359053831	-0.00295607901074268	0.00113272009192768	0.00457960786882281	0.00221903887745419
2.6	0.00298838671243105	0.0118833701558741	-0.00275350657056537	0.00152690458449049	-0.00277441562061363	0.00153080064600745	0.00564861877042636	0.00096713398719576
2.7	0.00392310174799611	0.0118592760476457	-0.00252191272895609	0.00189573044594888	-0.00252219492000049	0.00190081271269856	0.00640501702668002	-0.000760314630813659
2.8	0.00494704091813354	0.011670225989687	-0.00222763075641939	0.00222065199122188	-0.00223746704083324	0.00223183316695395	0.0067128438595472	-0.00263615404483671
2.9	0.00600340106171329	0.0112988498639136	-0.00189214092627662	0.0025139853591511	-0.00189022076030884	0.00252289259654709	0.00665576186334949	-0.00449916647617446
3	0.00709191634242309	0.0109207843443721	-0.00152136791284396	0.00275802919565553	-0.00153643971554119	0.00274498498530621	0.0062405502208993	-0.00612176546702607
3.1	0.00834966260365465	0.0101936541222569	-0.00112270493520076	0.00294120423871798	-0.00113964682524022	0.00294659856189828	0.00577410457980253	-0.00782071824322183
3.2	0.00921090451607358	0.00923674658529505	-0.00070396066171217	0.00306667505316617	-0.000699699628639357	0.00307748274074549	0.00463660965600935	-0.00954525387796257
3.3	0.00984801232912394	0.00819888009187345	-0.000274841688707623	0.00313889646178042	-0.000271540352005345	0.00313451889411996	0.00314147676729948	-0.0111488923307875
3.4	0.0102145041396964	0.00715925730503873	0.000171051381734657	0.00314777930589913	0.000161621949497555	0.00314885403283691	0.00121571129805137	-0.0126680702885823
3.5	0.0103952331612482	0.00639952304969606	0.000604880757934926	0.00309082814206212	0.000609888451116497	0.0030895002163841	-0.0013198114399989	-0.0137139713144994
3.6	0.0107707462510335	0.00554452680437468	0.00102414603671106	0.00297150371569691	0.00103074126740711	0.00297499951263668	-0.00382602226473122	-0.0141832692073967
3.7	0.010833388506833	0.0046946169718681	0.001440854532699	0.00279599884576832	0.00143909822994873	0.00281236695596956	-0.00652224391216846	-0.0142308486530404
3.8	0.0108721838802976	0.00404901319047383	0.00180947414460446	0.0025699171369179	0.00182007040715321	0.00257627598273744	-0.00930395643896863	-0.0137601881696489
3.9	0.0109850511633404	0.00354961084923564	0.00215702695029338	0.00229199293733629	0.00215242934015429	0.00229189384432203	-0.0120962189360559	-0.0126949017151622
4	0.011352147605785	0.00328770269984836	0.00244777540771003	0.00197389085059943	0.00245920866906011	0.00198004288665669	-0.0146090526329336	-0.0107646227348233
4.1	0.0121515600385315	0.00250339876630028	0.00270094711749037	0.00160856993837096	0.00271750550357669	0.00161836813361386	-0.0162530600835393	-0.00849193641623937
4.2	0.0125414207511537	0.00138526891141577	0.00290372251591644	0.00121191611533893	0.00290495379252354	0.00121420404355184	-0.0176175018719188	-0.0061547517138918
4.3	0.0126494300200485	0.000302911534358213	0.00304728958611386	0.000804018224485296	0.00304846706175324	0.000812606447744246	-0.0186209094645057	-0.00371839272000186
4.4	0.0124815620142721	-0.000749853170350281	0.00312707717543502	0.000369170455388123	0.00313500667909002	0.00036454178147598	-0.0193744716194908	-0.00112499722410096
4.5	0.0122174168388614	-0.00136308900595355	0.00315269537158249	-7.54603325188288E-05	0.00314949954573818	-7.32004574947527E-05	-0.0197775525513752	0.00185276569726875
4.6	0.0122547994546196	-0.00221978243684506	0.00309995879482543	-0.000523054582858703	0.0031129913006793	-0.000511051892077791	-0.0193066289301475	0.00479710763729928
4.7	0.0120331363982474	-0.00309596630594753	0.00299825277090462	-0.000936672851927227	0.00299816627011876	-0.000946115139613344	-0.0184831241708752	0.00741505020243355
4.8	0.0116925672342972	-0.0039381973115705	0.00284991496144729	-0.00133985036264509	0.0028422788071513	-0.00136005475384954	-0.0171895367990439	0.00991743762411919
4.9	0.0113891009170648	-0.00468089301102773	0.00263522926027498	-0.0017383915536239	0.00262914208206451	-0.00172994641310089	-0.0154712510767442	0.0121038588902578
5	0.0112243683732784	-0.00522860740419329	0.0023589226546948	-0.002072588557739	0.00236168108946563	-0.00208502470129601	-0.013218920430675	0.0142158436376851
5.1	0.0113422359984007	-0.00621073392975911	0.00203670122884823	-0.00239621543097862	0.00204993815958363	-0.00239372320553044	-0.0102240565178093	0.0156425055643755
5.2	0.0110460729278946	-0.00721518314206175	0.00169428654144093	-0.00265398049022157	0.00169479184891027	-0.00265814565477365	-0.00719720956484472	0.0163575166050746
5.3	0.0107218471474719	-0.0080704591244677	0.00130413286642212	-0.00286644949046037	0.00130038595350297	-0.00286902771712995	-0.00410547841120194	0.016535898892706
5.4	0.0103157464223065	-0.00890294111953578	0.00089195398582472	-0.0030265210760604	0.000891066036578741	-0.00302898333889436	-0.00112522193307909	0.0159390300479251
5.5	0.00991447800974493	-0.00940390447190263	0.000452097493775224	-0.00312002908346173	0.00046468485045714	-0.00312000363058349	0.00143630780796045	0.0149819498807037
5.6	0.00961673287929193	-0.0104952821501102	1.92359229101439E-05	-0.00315074721446728	1.59326776406486E-05	-0.00314728871681889	0.00382591219929556	0.0133649198818339
5.7	0.00856860779136663	-0.0113996516329111	-0.000414582531421316	-0.00312558274144315	-0.000418300931826396	-0.00312927875245933	0.00546401802866934	0.0114300869091826
5.8	0.00742116110168968	-0.0119280873088742	-0.000850575491248232	-0.00303559931566184	-0.000849840614601222	-0.00304329184955819	0.00665885900215382	0.00920480923816697
5.9	0.00611995233673329	-0.0120981929614294	-0.00126820152767452	-0.00288230161889377	-0.00126659765269941	-0.00288645692535868	0.0071297119785471	0.00679884336348189
6	0.00498058476143736	-0.0115591671952822	-0.00165626956734628	-0.00267760251655431	-0.00165026992495683	-0.00268095054267826	0.00676783074338043	0.00489161680315525
6.1	0.00483623311003336	-0.011362977539192	-0.00201630520328277	-0.00242716237325635	-0.00201215383215551	-0.00243193379287369	0.00682940772020325	0.00323673424190822
6.2	0.00450270602317923	-0.0117674685379204	-0.00233743130404634	-0.00211042024510068	-0.00233384758648812	-0.00211909727609649	0.00666766714830375	0.00120531776338562
6.3	0.00402981464455231	-0.012458689974363	-0.00260524712897917	-0.00177044506319739	-0.00261507492127694	-0.001778215887424	0.00615309524577366	-0.00109202378562614
6.4	0.00306534894467067	-0.0132203769490885	-0.00283259073422002	-0.00138529966156482	-0.00283059642653298	-0.00139110289590658	0.00498506810956846	-0.00341255611858129
6.5	0.00228187782660528	-0.0135135702031789	-0.00299969805679497	-0.000982838910542512	-0.00300010294130279	-0.000981714323460079	0.00343641338718747	-0.00505949236456469
6.6	0.00148580380051131	-0.0142386280913417	-0.00310415274351538	-0.000554881153678041	-0.00311484153602854	-0.000557886563397446	0.00181180259254805	-0.00665471855548011
6.7	0.000371814398355252	-0.0145174523688205	-0.0031485505152247	-0.000119739660371715	-0.00314750332691202	-0.000113491254266826	-0.000417222667881002	-0.00764290658449927
6.8	-0.000644257788157434	-0.014572725452485	-0.00313401294674172	0.000329224444062799	-0.00313310336956542	0.000333992483122159	-0.00285593581807981	-0.00799429381512009
6.9	-0.0018155639195998	-0.0144911408808466	-0.0030523712068875	0.000760672439145059	-0.00305279244920701	0.000765666632936462	-0.00545356270931885	-0.00770613550929742
7	-0.0026128525164941	-0.0137442588344799	-0.00292086904589006	0.00118136046709983	-0.00292228236355686	0.0011845846964266	-0.00786021851363853	-0.0062661467021301
7.1	-0.00302641108842491	-0.0138504168229017	-0.00272148999593225	0.00157927670569027	-0.00272390371260274	0.00159031264230394	-0.00939299638555531	-0.00462038376836346
7.2	-0.0041233768736179	-0.0138761100090358	-0.00248070766438396	0.0019410822067172	-0.00248088449400231	0.00194698612645615	-0.0106987244667333	-0.00262514562752132
7.3	-0.00540857449812141	-0.0136345680780936	-0.00218932818517285	0.00226683797071843	-0.00218656023791928	0.00226831078359179	-0.0113594287908214	-0.000451962609235038
7.4	-0.00701605581903093	-0.0132031957578828	-0.00184515338378303	0.00255144739685413	-0.00183791717810142	0.00255796718514491	-0.0116883735553836	0.00146715880185533
7.5	-0.00856797884478861	-0.0117659587844862	-0.00146601317596289	0.00278466571646525	-0.00146705601963711	0.00278265139542856	-0.0117936479571543	0.00384359250766268
7.6	-0.00893031890230213	-0.0106792765113617	-0.00107302995363781	0.00296139314368679	-0.00106235407118446	0.00297173965493752	-0.0107006824646507	0.00601811690579256
7.7	-0.00962689383500086	-0.00990690852121076	-0.000642644251803445	0.00308540507620302	-0.000637075533729523	0.00308504937027633	-0.00948907712925054	0.00737146529545029
7.8	-0.00990366377585874	-0.00928792484050231	-0.000195174328086686	0.00314578473067291	-0.000208839688936143	0.00313872047001767	-0.00807227908780286	0.00864264253799976
7.9	-0.0100717792555393	-0.00877793174916648	0.000229403365928429	0.00313058987771242	0.000240497166137872	0.00313026616994655	-0.00646506690967203	0.00988826679571185
8	-0.00956264103042197	-0.00820604418822799	0.000663605444129744	0.00307468311340874	0.000671898461041328	0.00307259777119309	-0.00439616286107589	0.0112280251451216
8.1	-0.00934475819946693	-0.0087583047604599	0.00109688913730636	0.00295102339335898	0.00109460165261648	0.00294777088334502	-0.00172186670012227	0.0116003653882054
8.2	-0.00988333658638056	-0.00894464541855632	0.0014892575227485	0.00276716876822995	0.00148845560564546	0.00277876257114319	0.00080581105092819	0.0115166860154821
8.3	-0.0105343294352804	-0.0088418022187451	0.00186155020181137	0.00253309795227662	0.00186662288870827	0.00253050302355604	0.00332274056762898	0.0108420140337229
8.4	-0.0114029981981546	-0.00840618957003913	0.00220719097257037	0.00225179553127807	0.00219602692587476	0.00225221170402623	0.00539680542160658	0.00951168894762082
8.5	-0.0118357150747991	-0.00726285793276601	0.00250447562908562	0.00191596740928331	0.00250448705474093	0.00191731894913386	0.00706577593529765	0.00829468760284539
8.6	-0.0118316266014337	-0.00697721995146334	0.00273499131374917	0.00155326367959608	0.0027307748873659	0.00155096377349149	0.00887896409262022	0.00626680555196488
8.7	-0.0124376433052597	-0.00658463425433552	0.00292322411037991	0.001153592670596	0.00292206073243067	0.00115318405699776	0.00989825457200052	0.00380530026432115
8.8	-0.0130395719554145	-0.00591593730366545	0.00305120047054321	0.000735019765194754	0.00306217322562054	0.000732893717806361	0.0103150096310165	0.00108147246146893
8.9	-0.0136470760537007	-0.00507133305373855	0.00312474294125966	0.000304173260683195	0.00313408149556624	0.000297017348577511	0.0100687567706149	-0.00170993469710937
9	-0.0137149835955001	-0.00366257311191959	0.00313556316455085	-0.000146049778923383	0.00314234895556423	-0.000140466605268097	0.00925198880041403	-0.00393469895456112
9.1	-0.0131040818123878	-0.00311982619078612	0.00308566538538898	-0.000576709549858623	0.00308588253061225	-0.000576902191166031	0.00845796809969464	-0.0062625746637009
9.2	-0.0128204790449056	-0.00273705737482653	0.00297020978697368	-0.000996759272281274	0.00297402638890195	-0.000996542327592604	0.00705607477607425	-0.00848974670477964
9.3	-0.0124663687079085	-0.00250003707224002	0.00279746629201652	-0.00140532166926303	0.00281549406700972	-0.00140578788475911	0.00523675432989174	-0.0105286243734497
9.4	-0.0123869459167908	-0.00246719149179578	0.00257818302187607	-0.0017775058358924	0.0025814785042673	-0.00178852525591225	0.00266284741895635	-0.0123989449825516
9.5	-0.0121626035372895	-0.00194485771906613	0.0023050531808536	-0.00213011498602943	0.00231981854683952	-0.0021307989297477	-0.000421786034882288	-0.0131540322792687
9.6	-0.0121952860653549	-0.00232098374340622	0.00198807688484076	-0.00243022742450842	0.00198840452427472	-0.00242322485213201	-0.00373862597128967	-0.0137075346152197
9.7	-0.0128952941987022	-0.00213354207785219	0.00162646662951434	-0.00268366710570873	0.0016347477089985	-0.002685259660636	-0.00747453948875523	-0.0132682582248511
9.8	-0.0135791651478015	-0.00155965070480299	0.00124247894167044	-0.00287835295284789	0.00124064918620391	-0.00288698341053512	-0.0110869584605965	-0.0119778823330616
9.9	-0.0143313404516821	-0.000512337949613603	0.000833419800121364	-0.00302194301527625	0.000821566459407597	-0.00302454879858881	-0.0147577840224355	-0.00983881985612057
10	-0.0143612791996713	0.00120062626138138	0.000403020558818033	-0.00310045799070382	0.000402210377648042	-0.00310776154488869	-0.0178157684156782	-0.00635669537881757
10.1	-0.0137415703121322	0.00194736651051949	-3.1115227052634E-05	-0.00313788088249404	-3.57511352871169E-05	-0.00314064520467525	-0.0196486722272279	-0.00269269316152175
10.2	-0.0135231900488465	0.00263558380445628	-0.000470223804744232	-0.00309724607371018	-0.000482801197682359	-0.00310099904170161	-0.0208203290795656	0.00123697803001854
10.3	-0.0132769458388538	0.00335635015171763	-0.000900473051087095	-0.00299458429718016	-0.000900253655884202	-0.00300794452746427	-0.0211575250769496	0.00528862443222855
10.4	-0.0131320512787322	0.00421734691138777	-0.00130734878208025	-0.00284826876495627	-0.00131051368827546	-0.00284614552591239	-0.0208525804020817	0.00920814116358111
10.5	-0.0122856649585607	0.00567334794953882	-0.00169203885777494	-0.00263154277508722	-0.00169819977843091	-0.00263879115770934	-0.0197067790081801	0.0136866572019189
10.6	-0.0108480005890434	0.00608113811438362	-0.00205076925272464	-0.00237338551064907	-0.00205226835277507	-0.00237848814511134	-0.017245620393908	0.0175490298367382
10.7	-0.00965213658768227	0.00621362532467413	-0.00235600987022101	-0.00206119854038763	-0.00235921588092095	-0.00207719670702363	-0.014041443068077	0.0209339413968082
10.8	-0.00867209727915179	0.00590999442060246	-0.00262180009999292	-0.001714815968826	-0.00261886800633599	-0.00171697789844595	-0.010343947756073	0.0234760909030101
10.9	-0.00835449898985067	0.00571249603401792	-0.0028393163611369	-0.0013381953656881	-0.00283859780789584	-0.00134331247459367	-0.0066231507552465	0.0253781548564516
11	-0.00749746531894181	0.00618884022139717	-0.00300165288048253	-0.00092111643963316	-0.0029946476956484	-0.000925403710175319	-0.00229920880154686	0.0273527582794149
11.1	-0.00648587786440514	0.00554196046265977	-0.00309480741272047	-0.000506373517924701	-0.00308708250001597	-0.000498096892072933	0.00285875961038113	0.0279982282704025
11.2	-0.0061455585709721	0.00500530635849749	-0.00313528722393251	-6.67042822547111E-05	-0.00314187144621757	-6.35028924073912E-05	0.00813207207513901	0.0277016541722828
11.3	-0.00585608627439812	0.00454507422189859	-0.00311299893700258	0.000373154369131787	-0.00311615686034925	0.000370993581609962	0.0136184246276404	0.0262584529135432
11.4	-0.0059335872265665	0.00422964798979833	-0.00302597615605511	0.000803681261943454	-0.00303059611134077	0.000803834514254739	0.0185449226218658	0.0235257390332571
11.5	-0.00552092556567911	0.00446241981430491	-0.00289195950695479	0.00120899772416935	-0.00288446776866877	0.00121374137201923	0.0228639008750372	0.0202082328912846
11.6	-0.00506149417850103	0.00356315053361673	-0.00269239407621181	0.00160096198445457	-0.00270050157531762	0.00161063205449447	0.0267631355899216	0.0154068189938411
11.7	-0.00542692641958011	0.00298000977541659	-0.00244007156080802	0.00196792112982008	-0.00244182177807101	0.00197160290476793	0.029394446022016	0.00988329636413196
11.8	-0.00585137093485205	0.00295732861878328	-0.00214202566388441	0.00229151081413082	-0.00215122169761867	0.00230127915148178	0.0308581559175141	0.00403785629187457
11.9	-0.00602799121808857	0.00354246587320074	-0.00180329960511413	0.00256201840995485	-0.00180333994549761	0.00256856133100121	0.0309203953141704	-0.0015071664088961
12	-0.00497941991400261	0.00455174930946607	-0.0014283562644062	0.00278638941487911	-0.00143284588868396	0.00278915990666002	0.0305022469013976	-0.00633085069597366
