# GHZ S RI R 50
0.2	-0.013877875611812	0.00513050775378142	0.00304526727811842	-0.00088509488874853	0.00305572915027813	-0.000884941364401059	0.00590153371887993	0.000617189797757658
0.3	-0.013079124836025	0.0056369476696042	0.00289926866136458	-0.00130121865397703	0.00289298348606715	-0.00131286445925324	0.00620789377935591	-0.00163782715155199
0.4	-0.0123911719686309	0.00636216256928764	0.00268525294732504	-0.00169564750809114	0.00268314724735727	-0.00169756041916304	0.0057454584959321	-0.00344980748785032
0.5	-0.0117141308859538	0.00709331332786196	0.00241543993623305	-0.00205300069376315	0.0024182550683384	-0.00205672763610566	0.00494172346965187	-0.00499843682644424
0.6	-0.0111058370516521	0.00784144848650664	0.00210261114846658	-0.0023731652168692	0.00210186762454615	-0.00237600825099743	0.00365323081990866	-0.0064221570186136
0.7	-0.0105220924826018	0.00865370139888306	0.00175196136248825	-0.00264328469631576	0.00175816912520273	-0.00264737896494419	0.00195364719586807	-0.00730180898892875
0.8	-0.0097728996636473	0.00944870003520072	0.00135832244586039	-0.00286337809291262	0.00136659743080124	-0.00286178150884552	0.00010551642234734	-0.00764824224129839
0.9	-0.0090654554723047	0.0101706309708264	0.000953562318675808	-0.0030155008753776	0.000953542260851686	-0.0030249191564377	-0.00177045608097888	-0.00749805518587105
1	-0.00823908828506422	0.0108361660569585	0.000520311385798902	-0.00312342297670145	0.00052016210451134	-0.00312878066539811	-0.00339152218642615	-0.00673745895518892
1.1	-0.0075518773424524	0.0111585961485664	7.30287487700236E-05	-0.00316317958145071	7.39162324233771E-05	-0.00316790698433301	-0.0047276610781213	-0.00585984151050789
1.2	-0.00706506064243633	0.0111924161457565	-0.000365967189372496	-0.0031361473139037	-0.000364743113654646	-0.00315294593150948	-0.00565309175700862	-0.00472063257232064
1.3	-0.00689928229830666	0.0108718920501711	-0.000797355266568047	-0.00306177076642499	-0.000802295957273858	-0.0030694270910603	-0.00581215627138472	-0.00361592843256118
1.4	-0.00682718765924182	0.0106019220700597	-0.00122344677546363	-0.00291629963301151	-0.00122586449342805	-0.00292343039370404	-0.00565249687902497	-0.00290283966547424
1.5	-0.00627120049481807	0.0108209834457009	-0.00161482218529524	-0.00271786292655538	-0.00161285092321405	-0.00272340560585083	-0.00532896181565665	-0.00223807111863318
1.6	-0.0054150536695609	0.0113356764236962	-0.00197806384107528	-0.00246178951210558	-0.00198153531429398	-0.00246266862362506	-0.00556812244909017	-0.00128602547364872
1.7	-0.00428424819843887	0.0118656102808053	-0.00230328357724969	-0.0021670393901977	-0.00230533546261781	-0.00217562941160143	-0.00541560547844743	0.000169661125309031
1.8	-0.00314133818987804	0.0122974408297052	-0.00258013208815018	-0.00181741304796021	-0.00258531200339161	-0.00182287342272674	-0.00486484976939252	0.00153087861043061
1.9	-0.00205444898875135	0.0124943652909396	-0.00280554157004754	-0.00144804832996462	-0.00280202770806272	-0.00144185875995137	-0.00397101175719542	0.00278412372577661
2	-0.00101461184802849	0.0125837675800186	-0.00298122817150503	-0.00103646270054327	-0.00298396729805264	-0.00102961547184939	-0.00261732727415685	0.00379218955827788
2.1	-0.000127138438591481	0.0124716259427441	-0.00309654509437052	-0.000603373422531841	-0.0030986506939239	-0.000610070561646135	-0.001161887444305	0.00406126243606771
2.2	0.000672013563907328	0.0124421989300095	-0.00314958769289756	-0.000171973265949576	-0.00315139597530725	-0.000162243968690779	0.000341660422502329	0.00406941041087289
2.3	0.00139656050301308	0.0122689181403297	-0.00314095898210862	0.000270384391472635	-0.00314771805987874	0.000267477903328583	0.00178215584802146	0.0036256391736136
2.4	0.00202278346292034	0.0120904376595627	-0.00308066114373415	0.000705196474558017	-0.00307947874302111	0.000720319042279045	0.00311319217145612	0.00295504054379497
2.5	0.0026058575477763	0.0119099288955032	-0.00294493047665125	0.00113809473093727	-0.00295793796592481	0.00113940580330195	0.00452670545190652	0.0020243785391972
2.6	0.00316565604243462	0.0117213662216059	-0.00275355779531584	0.00153314510753098	-0.00277448051823313	0.00153708104759908	0.00583484244582107	0.000373745198700792
2.7	0.00381232217022213	0.0116296348520815	-0.00252097732856773	0.0019018773767091	-0.00252125096261147	0.00190696487852626	0.00654162501507968	-0.00162351733512252
2.8	0.00462282123732749	0.0115032650305612	-0.00222545735942371	0.00222674818616672	-0.00223528148762326	0.0022379574892817	0.00670937966069459	-0.00366515850583415
2.9	0.00558720778051371	0.0112613681827779	-0.0018882503118189	0.00251972252140038	-0.00188631020982445	0.00252863210952825	0.00654984199809483	-0.00549877789901581
3	0.0066344004832943	0.010830036570219	-0.00151609290473841	0.00276187970660559	-0.00153119547909617	0.00274886308547995	0.00633682932007597	-0.00725941935663402
3.1	0.00754910749352251	0.0102810202351946	-0.00111755487472831	0.00294416181187712	-0.00113449169927828	0.00294958929111519	0.00560559003276617	-0.00928698997392942
3.2	0.00836989168896317	0.00967213347179267	-0.000698111294541151	0.003068803073983	-0.00069382800692155	0.00307960502514654	0.00417716206934624	-0.0109845631990797
3.3	0.00909339510409634	0.00890625410017734	-0.000268449754696474	0.00313967831289774	-0.000265157127346599	0.00313529369471728	0.0024627005840249	-0.0124461283988105
3.4	0.00965496721013251	0.00808952911064905	0.000177313886753638	0.00314678287238368	0.000167888564518139	0.00314787624230157	0.000458581292270627	-0.0136497857362824
3.5	0.0101069743708658	0.00726098379137043	0.000609944677249532	0.0030891884946054	0.000614949130140973	0.00308785243479112	-0.00170365060011391	-0.0146048963457969
3.6	0.0103840260721786	0.00643314196599547	0.00102964500802596	0.00296938441436054	0.00103624634465581	0.00297286761758725	-0.00430580684008042	-0.0153597096699744
3.7	0.0106209047120808	0.00574484667886035	0.00144601272664838	0.00279244183076214	0.00144428920936973	0.00280880925313448	-0.00721939744171776	-0.0153646137361031
3.8	0.0109137514722023	0.00507192667840816	0.00181369334150626	0.00256530393833067	0.00182429742921361	0.00257163948265456	-0.0101455616208032	-0.0146995791780421
3.9	0.0112494033026372	0.00439435154507069	0.00216010866665932	0.00228700472937871	0.00215551309933698	0.00228691395630398	-0.0128840628939579	-0.0132659547512295
4	0.011666123498172	0.00365778605158412	0.00245097520858349	0.0019685467451976	0.00246241739769717	0.00197467466233679	-0.014846590423677	-0.0112700183687686
4.1	0.0119617070864037	0.00276098209643909	0.00270277544230458	0.00160156968588983	0.00271934489719509	0.00161132500597449	-0.016453623163247	-0.00936435170156085
4.2	0.0121918988842564	0.00187857117510662	0.0029036897162678	0.00120470166073945	0.00290492472563881	0.00120698494600707	-0.0179241929967777	-0.00708105585936248
4.3	0.0123269825402993	0.000953596505983401	0.00304584896244315	0.00079705849261889	0.00304704259086317	0.000805635704638381	-0.018990019414512	-0.00457334494160855
4.4	0.0122794010588495	-2.77580851053356E-05	0.00312468797851905	0.000362389729997649	0.00313260001800187	0.000357749460048639	-0.0196703935277444	-0.00172555783060603
4.5	0.012121253247496	-0.000911344226247248	0.00314824412363563	-8.27353152333015E-05	0.00314505791904876	-8.04710260941742E-05	-0.0194662100050992	0.00126463965168381
4.6	0.0117172977757	-0.0018115740418399	0.00309342973586626	-0.000528341273178241	0.003106463249342	-0.000516385917877005	-0.018891009016073	0.0036586704377358
4.7	0.011334430134624	-0.00240985669648269	0.00299110271743329	-0.000940362670352482	0.00299099937828317	-0.000949787594595872	-0.0182218674793879	0.00601068272482029
4.8	0.0109971248056919	-0.00299594075865493	0.00284219083007726	-0.00134227721357331	0.00283453394686285	-0.00136243008762787	-0.0171295936155623	0.00839827067909584
4.9	0.0108525471015117	-0.00351997216606968	0.00262656814174157	-0.00173944875954694	0.00262050890010597	-0.00173101050430129	-0.015540152858393	0.0107086049778877
5	0.0108769950150191	-0.00417594068259493	0.00234980151826788	-0.00207066671800216	0.00235253469410383	-0.00208307472088066	-0.0129805150948046	0.01270994790138
5.1	0.0108853788134566	-0.00499934349573698	0.00202915728041373	-0.00239254503117421	0.00204236454673216	-0.00239007308297719	-0.0102531725102751	0.0137497863262509
5.2	0.0108801633392315	-0.00588102723094194	0.00168744055227129	-0.00264918632468891	0.00168794039933542	-0.00265334178283078	-0.00753978536414077	0.0144891996235489
5.3	0.010779294603822	-0.00689562218941587	0.00129813697222736	-0.00286018896278977	0.001294397448114	-0.00286275708248243	-0.00463845021091329	0.0148405803400209
5.4	0.0104411562295227	-0.00791934069057949	0.000887478569514095	-0.00301850290292658	0.00088659155951906	-0.0030209576062713	-0.00161901576673644	0.0146011974732985
5.5	0.00989679461828737	-0.00880199298062057	0.000450560320512729	-0.00311175486986994	0.000463114104882433	-0.00311173082138186	0.00151629340341921	0.0135263094966351
5.6	0.00909371088701519	-0.00958989436339787	1.8531075806075E-05	-0.00314297867981551	1.52367007080148E-05	-0.00313952802474452	0.00367283525396948	0.0114267453105447
5.7	0.00824129669036932	-0.0100624950126	-0.000413940461897343	-0.003117406167502	-0.000417649718029352	-0.00312109206068093	0.00496239058957313	0.00949666100272828
5.8	0.00749435060112129	-0.0104926662397477	-0.00084801094909373	-0.00302751542126341	-0.00084727734519981	-0.00303518720541969	0.00587130944961203	0.00747543531521378
5.9	0.00666311445862287	-0.010872128708072	-0.00126363044573963	-0.00287537861764471	-0.00126202889462417	-0.00287952242203548	0.00622731114602005	0.00561745913058799
6	0.00579976771852727	-0.0112561705216661	-0.00165159224065445	-0.00267219353463753	-0.00164560484922827	-0.00267553189450447	0.00664110220150968	0.00408103018890821
6.1	0.00472597273138274	-0.0117012462189495	-0.00201037482110622	-0.00242164566837882	-0.00200623245155483	-0.00242640357705713	0.0069767713560952	0.0018578096175379
6.2	0.00358607724596843	-0.0119353556338671	-0.00232999284169771	-0.00210642371739814	-0.00232641289345164	-0.002115075859514	0.00664078986946378	-0.000445541536089623
6.3	0.00264976358142878	-0.0120997322064466	-0.00259720697295417	-0.00176839204539417	-0.00260700345734718	-0.00177615241900068	0.00588716528227812	-0.00276761980130205
6.4	0.00176226279082827	-0.0123053223491158	-0.00282497131029592	-0.00138488642560737	-0.00282297596910252	-0.00139067484607765	0.00474691562061918	-0.00481355404662684
6.5	0.00106026219406826	-0.0125542372304877	-0.00299164322773896	-0.00098264564966429	-0.00299204795090601	-0.000981524108981891	0.00374175794883443	-0.00678800261044823
6.6	0.000222986016092394	-0.0126853341557728	-0.00309546641724173	-0.000557179829448325	-0.00310612398322647	-0.000560190326078411	0.00176894120042056	-0.00887797913534364
6.7	-0.000426019168749757	-0.012660053998232	-0.00314085935035788	-0.000123923557762592	-0.00313982353426071	-0.000117688590839736	-0.000802417381834938	-0.00986930143346794
6.8	-0.00108475335639217	-0.012638470654422	-0.00312742019066703	0.000323860463666164	-0.00312651969717518	0.00032861907527911	-0.00348041061204856	-0.0100065667220473
6.9	-0.00184300399511765	-0.0125636790930567	-0.0030463417183044	0.000754529717758788	-0.00304676912634037	0.000759511662102808	-0.00596575282517619	-0.00920502288478062
7	-0.00251909780515982	-0.0123656495921105	-0.00291540327728572	0.00117270163607017	-0.00291681898286957	0.00117591467645204	-0.00749121259174807	-0.00792795762917391
7.1	-0.00340208655783515	-0.0121749511416942	-0.00271906662653435	0.00156955493616352	-0.0027215002178063	0.00158056089018419	-0.00919759326575964	-0.00704765931647762
7.2	-0.00416341854308549	-0.0117440371710492	-0.00248022478394323	0.00193135121031964	-0.00248041506216812	0.00193724276398594	-0.0109717392467046	-0.00528299766942736
7.3	-0.004857020110554	-0.0113705822735007	-0.00219057338408689	0.0022570020168585	-0.00218781450301534	0.00225847871571302	-0.0121844001818733	-0.00303258980465614
7.4	-0.00565434361020384	-0.011089736759554	-0.00184853977100501	0.00254124840075611	-0.00184133605456132	0.00254777522693971	-0.0129610586989005	-0.000447200104654456
7.5	-0.00648539403954445	-0.0108150084579966	-0.00147300874770713	0.00277582085466292	-0.00147404347824896	0.00277380604062916	-0.0123914740937607	0.00257205378547656
7.6	-0.00747037731368162	-0.0107133141943297	-0.00108086114732781	0.00295500627273766	-0.00107022790768658	0.00296537415233911	-0.0110548562067861	0.00435237559154627
7.7	-0.00860329163634638	-0.0103237488670484	-0.000651406775781425	0.00308034179923484	-0.000645842574414543	0.00308000343290991	-0.00988493688644252	0.0056811927677258
7.8	-0.00943118329072363	-0.00991902826816371	-0.00020516887126071	0.00314241454533803	-0.000218799505737531	0.00313531228180134	-0.00841446938739545	0.00703341466642541
7.9	-0.0101161267709542	-0.0094700218032121	0.00021831389396763	0.00312985992903178	0.000229403392076209	0.00312957527899453	-0.00642636788461188	0.00840973322647255
8	-0.0104873590085257	-0.00900708717074076	0.000653891737260128	0.00307714481282854	0.000662192334558216	0.00307508563681963	-0.00363040955426436	0.00906701956165581
8.1	-0.0110376994781415	-0.00849024542398575	0.00108786791912715	0.00295426890027986	0.00108559041186131	0.00295100952896707	-0.00146508591382684	0.0086959762978872
8.2	-0.0114193920665548	-0.00785341569450079	0.00148060093501024	0.00277235964274441	0.00147976169905493	0.00278395260101102	0.000534966842872547	0.00849142286184519
8.3	-0.0118004005392902	-0.00727085786335432	0.0018542552426112	0.00254044266288364	0.00185933895166434	0.00253786291886948	0.00260809599735449	0.00800969461780003
8.4	-0.0122664344389058	-0.00656402112046774	0.00220250191311248	0.00226059347725178	0.00219132598736515	0.00226097638466169	0.00458918761219158	0.00727808088325408
8.5	-0.0126043608642442	-0.00575949413499766	0.00250149341140192	0.00192389506093321	0.00250150137055438	0.00192524767952575	0.00703755458194697	0.00606670099544977
8.6	-0.0130417300964696	-0.00491022725513908	0.00273273852264134	0.00156232784683169	0.00272852529848728	0.00156001404264667	0.00869746487904741	0.0033960981828832
8.7	-0.013191420956145	-0.00385865348707352	0.00292322676538886	0.00116313908415914	0.00292206324371673	0.00116272672763326	0.00925472392121591	0.000752522825432017
8.8	-0.0130575190620048	-0.00295975781660708	0.00305334396693071	0.000743997106859445	0.00306433693043759	0.000741896982180297	0.00911343644134343	-0.00181620186149659
8.9	-0.0127852832961426	-0.00233493132476207	0.00312804236611411	0.000311792895284447	0.00313740944150998	0.000304649422811872	0.00852759182317971	-0.00390100266849309
9	-0.0124168451929218	-0.00201075664699924	0.0031391891126988	-0.000137920220800835	0.00314596717187147	-0.00013231335744444	0.00834530173801218	-0.00566153364645249
9.1	-0.0123014887903163	-0.00196297972399267	0.00309202622506429	-0.000569210226459561	0.00309224423160074	-0.000569402576161459	0.0077147391255173	-0.00818817231243538
9.2	-0.0122814925689177	-0.00184515162306705	0.00297785357760659	-0.000991017552593382	0.00298167623669443	-0.00099079063902128	0.00638687639238359	-0.0103853245782449
9.3	-0.0123473921895614	-0.00174839565598506	0.00280578117396951	-0.00140105265615902	0.00282384182371912	-0.0014014762316219	0.00468824171065429	-0.01234319791253
9.4	-0.0125743078628604	-0.00160691070464367	0.00258720625113896	-0.00177391166681092	0.00259053583926081	-0.00178494154483245	0.00248470670796825	-0.0139461674731047
9.5	-0.01286516916552	-0.00121340695154619	0.00231662210225134	-0.00212860931329515	0.00233142458453545	-0.00212925274519223	0.000230051387601033	-0.0151941748048187
9.6	-0.0133468092389693	-0.000671881740658441	0.00199913420393766	-0.00243222489157717	0.00199944646908489	-0.00242520249519465	-0.00328228907654664	-0.0165424407299418
9.7	-0.0135741526209906	0.000152164895086211	0.00163670794233064	-0.00268760330090788	0.00164501532254191	-0.00268918252935102	-0.0074308583229326	-0.0164077403018692
9.8	-0.0136360958804814	0.000910439301433222	0.00125215486261938	-0.00288410224038542	0.00125033797162518	-0.00289276164104618	-0.0114997534887333	-0.0150910213192391
9.9	-0.01367431613963	0.00167769941167279	0.000842603042017936	-0.0030302455366393	0.000830715729234376	-0.00303288513108686	-0.0153614396632242	-0.0124584864042352
10	-0.0136093703233386	0.00238023129018451	0.000408987309884909	-0.00311187877131962	0.00040818437748439	-0.00311921173026385	-0.0177664707543769	-0.00896055841759546
10.1	-0.0136427382857199	0.00307213019399643	-2.79825447256373E-05	-0.00314928645826552	-3.26323969336532E-05	-0.00315206559480095	-0.0197572923168696	-0.00587301618999873
10.2	-0.0134585371841507	0.00389215662031946	-0.000469274954798458	-0.0031091861694619	-0.000481895899421516	-0.00311296407064225	-0.021410950428249	-0.00206495662887926
10.3	-0.0131083391305483	0.0045840138468034	-0.000902298606905542	-0.00300681978877215	-0.000902070768569579	-0.00302023220221255	-0.0222240599488564	0.00228944497394603
10.4	-0.0127208882686489	0.00513607923183256	-0.00131277143815892	-0.00285990357546124	-0.00131594925679937	-0.00285777156443035	-0.0219178042726658	0.00699441391447219
10.5	-0.0123165242004189	0.00562496879652461	-0.00169966487849389	-0.0026396148753498	-0.00170585203842448	-0.00264688450917972	-0.0198277055100259	0.0115538278329862
10.6	-0.0119753464789155	0.00617529224767575	-0.00205844389266453	-0.00238033341203808	-0.00205994996044916	-0.00238545215698228	-0.0172059166880588	0.0148843468441776
10.7	-0.0114984990014889	0.00684693834048776	-0.00236510442032382	-0.00206692778431406	-0.0023683298716794	-0.00208297849429099	-0.0141376097064848	0.0179765534406701
10.8	-0.0107954018276332	0.00745553285669052	-0.002632228434868	-0.00171840215303042	-0.00262928820383771	-0.00172057399336189	-0.010686336181946	0.0205683523998198
10.9	-0.0101330279248377	0.00798483947158952	-0.00284981385696298	-0.00133874574346615	-0.00284909956059681	-0.00134387962549847	-0.0068217336944814	0.0228616759824094
11	-0.00920093789420088	0.00844152319337706	-0.00301064103830086	-0.000920807949162148	-0.00300362088750494	-0.00092511336989887	-0.00166933277171807	0.0244900773467598
11.1	-0.00835932002621433	0.00873712984337075	-0.00310483464440576	-0.000504708893977231	-0.00309707740845524	-0.000496414895377918	0.00328213984154312	0.0242740751471687
11.2	-0.00728146820738656	0.00893351350960415	-0.0031447845662781	-6.25783806563059E-05	-0.00315138412278813	-5.9358302415635E-05	0.00796705528800576	0.0235873930770989
11.3	-0.00606224213539856	0.00872963687557866	-0.00312100321636318	0.000379123346339997	-0.00312417328794085	0.000376961601805308	0.012655820786835	0.0222713522723792
11.4	-0.00514239627858787	0.00820193122273233	-0.00303228683916254	0.000810065608411819	-0.00303691799004428	0.000810225954244038	0.0171727265547407	0.0202219641406524
11.5	-0.00440163522142444	0.00752242748632317	-0.00289895560932625	0.00121632896775957	-0.00289143553249495	0.00122107694640554	0.0219935614120704	0.0170563036241885
11.6	-0.00399710152063487	0.00672130958376108	-0.00269726107779729	0.00161086959374134	-0.00270537390050876	0.00162058381305694	0.025589778634507	0.0120780761954108
11.7	-0.00365066259336455	0.00597372695488738	-0.0024424904892095	0.00197835968882767	-0.00244423765683018	0.00198205506056487	0.0278688555558315	0.00692734012082013
11.8	-0.00341773440732182	0.00519246891023081	-0.00214264705256807	0.00230192178988466	-0.00215184590140355	0.0023117346453191	0.0292886678939106	0.00177999406749735
11.9	-0.00325602396348854	0.00438797707204578	-0.00180296544103488	0.00257294849991588	-0.0018029921851065	0.00257950976986271	0.0300752119598364	-0.00291265791915673
12	-0.00339862193657073	0.00368497624057849	-0.00142445872977471	0.00279889403687856	-0.00142895364410921	0.00280168595372398	0.0310175797870987	-0.00813074002135214
