# GHZ S RI R 50
0.2	-0.0138431214647849	0.00513126330777572	0.00304479222132779	-0.000885367140912754	0.00305525285832315	-0.000885214934819983	0.00602025471867825	0.000697797781212372
0.3	-0.0129934655547339	0.00564991146680461	0.00289854508598452	-0.00130143651678168	0.00289225922572939	-0.00131307925071645	0.00636386544732168	-0.00154518808960219
0.4	-0.0122898817245599	0.00631700741405402	0.00268429024617064	-0.00169562711613416	0.0026821847939129	-0.00169753920097066	0.00587268299098439	-0.00342487232974635
0.5	-0.0116330867264662	0.00711568896695658	0.00241459401980445	-0.00205260509288296	0.00241740806230791	-0.00205633119504866	0.00489744053698339	-0.00486251571345342
0.6	-0.0108560208536463	0.00778146084985438	0.00210178194726005	-0.0023727630657094	0.00210103830549187	-0.00237560525385807	0.00371896267912828	-0.00613803483732402
0.7	-0.010302488551241	0.00844865906703414	0.00175110392848779	-0.00264262115964085	0.00175730923175322	-0.00264671478406611	0.00208738130891476	-0.00699037867440741
0.8	-0.00961976349716498	0.00917136112703669	0.00135761504742892	-0.00286243553118371	0.00136588713562632	-0.00286084014286346	0.000326138112580296	-0.00731844323649053
0.9	-0.00900217217633214	0.00983537681640309	0.000953176794851994	-0.00301439217332967	0.000953156645291771	-0.003023806960018	-0.00143199067010489	-0.00726930797650134
1	-0.00837616169115043	0.0106004653787899	0.000520073228320681	-0.00312249144367669	0.00051992385370646	-0.00312784750755912	-0.00321739192183282	-0.00670949078359773
1.1	-0.00753843877262378	0.0111289296335223	7.28258755421492E-05	-0.00316197023987657	7.37127574341879E-05	-0.00316669587841148	-0.0046878540886834	-0.00571488648312959
1.2	-0.00692133168859528	0.011159066638719	-0.000365815667499859	-0.00313485882009127	-0.00036459208859866	-0.00315165053477788	-0.00567737719026461	-0.00450497560246864
1.3	-0.00659194162841306	0.0108203808053456	-0.000796906540830173	-0.00306056279914458	-0.000801844915343839	-0.00306821622402127	-0.00583573145068998	-0.00324477956411199
1.4	-0.00640188296884866	0.0103608212019835	-0.00122284478298259	-0.00291527240603102	-0.00122526124310616	-0.00292240062639516	-0.00555797707302519	-0.00247395813252922
1.5	-0.00586366185355458	0.0104422406582828	-0.00161412948506871	-0.00271667813808475	-0.00161215909568225	-0.00272221841727571	-0.00526852356495533	-0.00171295888317323
1.6	-0.00508857542056682	0.0106914898278644	-0.00197683956626333	-0.00246082480493589	-0.00198030927241263	-0.00246170387850225	-0.00534580109112274	-0.000675624215752311
1.7	-0.0042164133625495	0.0111740993050764	-0.00230194563650808	-0.00216644241992035	-0.00230399531492341	-0.00217502899610964	-0.00510296143360386	0.000731961948799705
1.8	-0.00323081543100732	0.0116866044524027	-0.00257877719073514	-0.00181705320210425	-0.00258395410683348	-0.00182251209960647	-0.00451420205180843	0.00200934549822997
1.9	-0.00224062006593627	0.0120112497889077	-0.00280410841155131	-0.00144777801808078	-0.00280059692267274	-0.00144159072360409	-0.0036842443203276	0.00312245469614704
2	-0.00112946481481695	0.0123415812845313	-0.00297940227164456	-0.00103659379747288	-0.00298214150823278	-0.0010297508446873	-0.00259550326934588	0.00418669928025817
2.1	4.01868421115114E-06	0.0121257774227791	-0.00309500221409303	-0.000604057840298382	-0.00309710483774328	-0.000610752687786187	-0.00111339909381927	0.00467777434308586
2.2	0.000761301141965104	0.0119353260318496	-0.003148211860802	-0.000172854563281996	-0.00315002232887534	-0.000163129902718825	0.000499848237624441	0.00476881170558094
2.3	0.00136253058344503	0.0117028828394817	-0.00313969368654156	0.000269244186137636	-0.00314644890460443	0.00026633674746423	0.00208343660794059	0.0043144811698998
2.4	0.00180997373691413	0.0115756671352567	-0.00307953530184858	0.000703651870282884	-0.00307835944331901	0.00071876800666441	0.00352138011131836	0.00346124268595887
2.5	0.00230929918285575	0.011727148823236	-0.00294450134970386	0.00113617876066602	-0.00295750502227597	0.00113748265431247	0.0047124725677098	0.00232915535223448
2.6	0.00319631896623438	0.0116933802525834	-0.00275344381416973	0.00153148250933413	-0.00277436225147407	0.00153540803952439	0.00584312870016205	0.000798273835270787
2.7	0.00405921414896656	0.0115132159762172	-0.00252110328225675	0.00190010631088242	-0.00252137923258004	0.00190519212723838	0.00650759330086285	-0.00107003300913523
2.8	0.00497960594069049	0.0112239899285925	-0.00222600935796051	0.00222492956691309	-0.00223583665735402	0.00223613044922407	0.0067026475977635	-0.0030286485100054
2.9	0.00593019436047406	0.0108608784426813	-0.00188940168533301	0.00251806876724434	-0.00188746738662139	0.00252697774324825	0.00653520985962153	-0.00487313167666561
3	0.00707284300282486	0.0104444756433835	-0.00151744127168908	0.00276089211383469	-0.00153253595966473	0.00274786844492546	0.00615175463691099	-0.00651945188778705
3.1	0.00812981646754537	0.00959777251689565	-0.00111892162880509	0.00294317413060564	-0.00113585890206573	0.00294859209691436	0.00547754157724703	-0.00830264697284438
3.2	0.00881785306199185	0.00874918859623928	-0.000699802765970426	0.00306812861040691	-0.000695526037162732	0.00307893204043004	0.0041851765365914	-0.0098855555833323
3.3	0.009366115858669	0.00785797143302598	-0.000270270796717957	0.0031394824781384	-0.000266975663272332	0.00313509982892215	0.0026224925152742	-0.0113268059769349
3.4	0.00971760833865658	0.00702146018417446	0.000175673479653524	0.00314709673946424	0.000166246921981509	0.00314818523543493	0.000703758828589531	-0.0126417265110702
3.5	0.0101233257975277	0.00635505725898308	0.00060854613709687	0.00308939836469994	0.000613551086084276	0.00308806457768981	-0.00160644057319524	-0.013605487464093
3.6	0.0104680651881519	0.00535207248347679	0.00102792155894668	0.00296999259229962	0.00103452089103543	0.00297347964531737	-0.00414868141843786	-0.014196022126072
3.7	0.0104417087183952	0.00455346742838232	0.00144453426760821	0.00279354339514715	0.00144280111696204	0.00280991137317933	-0.00690274613484739	-0.0141751795135644
3.8	0.010443602893073	0.00400207033782718	0.00181254718106133	0.0025666523439355	0.00182314929460048	0.00257299456050283	-0.00968561671304231	-0.0136206996794828
3.9	0.010585528494211	0.00366537714971782	0.00215920381551721	0.00228838080894335	0.00215460774067442	0.00228828768365843	-0.0124285983370107	-0.0124321271256599
4	0.0112341774670334	0.00344163854912693	0.002449927891283	0.00197035139736612	0.00246136720041514	0.00197648743399728	-0.0146994402628291	-0.0105042715618113
4.1	0.0120160987091562	0.00245489360932265	0.00270254109757673	0.00160381424076338	0.00271910915702801	0.00161358330221742	-0.0163950308856544	-0.00840246153956504
4.2	0.0123384517940053	0.00135979197327384	0.00290401157084771	0.00120680920443706	0.00290524569000158	0.00120909400852075	-0.0178178446415986	-0.00601796102815775
4.3	0.0124429123694087	0.000342466112719936	0.00304653519288596	0.000799039355190697	0.00304772451573639	0.000807620402644176	-0.0188094203548099	-0.00351310116866296
4.4	0.0123299334454788	-0.00058797531580999	0.00312568671832119	0.000364396369221541	0.00313360460525931	0.000359759018967075	-0.0194999742195137	-0.000813096016077872
4.5	0.0123801179078544	-0.00119770923690014	0.0031502338311971	-8.08238954316239E-05	0.00314704425372838	-7.85601983523524E-05	-0.0196158274045532	0.00215405843297127
4.6	0.0124291013179927	-0.00235248474482692	0.00309565958264974	-0.000527429160558686	0.0031086967317188	-0.000515460723499041	-0.0191561284208106	0.00482936106195609
4.7	0.0121092343719625	-0.00331698121443655	0.00299328360676821	-0.000939851199661069	0.00299318363689116	-0.000949281954263347	-0.0184251961735453	0.00738881102228714
4.8	0.0116839794960538	-0.00419155421683742	0.00284447367752011	-0.00134208381944787	0.00283681933865713	-0.00136225219966773	-0.0171962276263993	0.00987626228307942
4.9	0.0113209103904413	-0.00487220359240259	0.00262913164460411	-0.00173975385053898	0.00262306485817287	-0.00173131165238097	-0.0155089770625957	0.0121247882126361
5	0.0113263892329822	-0.00545705834813814	0.0023520303967807	-0.00207199081016465	0.00235476769822602	-0.00208440848711649	-0.0130874261184741	0.0141792729722391
5.1	0.0112960921735435	-0.00664000599574335	0.00203086634790475	-0.00239386876859601	0.00204408216586358	-0.00239139327116485	-0.0102408190238368	0.0154310501928696
5.2	0.0108631893549884	-0.00759736808885901	0.00168910708021056	-0.00265081145114017	0.00168960799240909	-0.00265496982243519	-0.00731095986679208	0.0161939967422248
5.3	0.0104819747075226	-0.00837453232110488	0.00129952868509235	-0.00286229405439639	0.00129578651885428	-0.00286486468463452	-0.00424947082775687	0.0164172175629615
5.4	0.0100921803403497	-0.00906243106114564	0.000888222238636926	-0.00302107661602558	0.000887334463619258	-0.00302353340596976	-0.00125734598235648	0.0159126373737765
5.5	0.00997005191367959	-0.00963575327595991	0.000450568116444084	-0.00311391630519157	0.000463130448430825	-0.00311389344618418	0.00150948553196113	0.014855598414361
5.6	0.00945028466465943	-0.0109799755303186	1.86359326526757E-05	-0.00314530863848232	1.53390147669179E-05	-0.00314185552027778	0.00364686243440818	0.0130532835899307
5.7	0.00819188202431287	-0.0117751811174363	-0.000414411284014338	-0.00311998774310352	-0.000418123780462299	-0.00312367655866825	0.00511080887779313	0.0112602641308649
5.8	0.00693962430671157	-0.0121342167303243	-0.000849184747362535	-0.00302999594156802	-0.000848451637718135	-0.00303767443426874	0.00624555643700046	0.00919697632427425
5.9	0.00561306588374335	-0.0120224587145644	-0.00126533124336996	-0.00287733251954882	-0.00126372944828368	-0.00288147997991505	0.00672664972441992	0.00702110959110064
6	0.00489161471364768	-0.0112811476771155	-0.00165314002373659	-0.00267408818175985	-0.00164714835009178	-0.0026774297300036	0.00674371066145543	0.00522662539962158
6.1	0.00486211463436888	-0.0114153920905702	-0.00201291008976012	-0.00242348502678012	-0.00200876489897967	-0.00242824854403654	0.00682908618937655	0.00323600343445822
6.2	0.00443217533937843	-0.0119314713007775	-0.00233299596302713	-0.00210739778909551	-0.00232941628847758	-0.00211605933893134	0.00651966501735205	0.00112974920827112
6.3	0.00385416936838097	-0.0126542080182159	-0.00260022819678504	-0.00176858723009764	-0.00261003661100865	-0.00177634924449116	0.00588198248255453	-0.00115477697144379
6.4	0.00287021404201929	-0.0133127567634455	-0.00282773156014583	-0.00138465555779861	-0.00282573732838076	-0.00139044925327772	0.00469869381134418	-0.00334593838799613
6.5	0.00232545476581979	-0.0137504055477395	-0.00299493372928446	-0.000982119875360294	-0.00299533828953545	-0.000980997083487777	0.00335828591872129	-0.00510884900780349
6.6	0.00128658411054634	-0.014632762780372	-0.00309841125036043	-0.000555410327036261	-0.00310907974119093	-0.000558415628896975	0.00151331919908996	-0.00677775528986144
6.7	8.71462666031831E-05	-0.0147819538129688	-0.0031431568157919	-0.000121778365394659	-0.00314211583960787	-0.000115539748805552	-0.000738499368472351	-0.0076108369207035
6.8	-0.000930160543339569	-0.0147164343703636	-0.00312934268248422	0.000326197037757404	-0.00312843835459283	0.000330958298875633	-0.00313043748117443	-0.00785221883752484
6.9	-0.00200078575270613	-0.0144223122396773	-0.00304821048998848	0.000757207881537066	-0.00304863481935493	0.00076219402034905	-0.00560038069983224	-0.00738956445438466
7	-0.00232358794325919	-0.0137688165572743	-0.00291652596989799	0.00117647774875205	-0.0029179396260042	0.00117969468452826	-0.00759002778884442	-0.00608184872673117
7.1	-0.00289066035762826	-0.0142778113220015	-0.00271907332180545	0.00157299795133667	-0.00272149781038145	0.00158401226851095	-0.00930663733231221	-0.00476083680860334
7.2	-0.00419442642085546	-0.0143159334024521	-0.00247983206897475	0.00193471432765306	-0.00248001702814747	0.00194060934848008	-0.0107614815193798	-0.00272589482072124
7.3	-0.00562882265870489	-0.0140104864174224	-0.00218961465555477	0.0022604656661617	-0.00218685272444212	0.00226194049903883	-0.0114876795239906	-0.000486378164431599
7.4	-0.00733960853955373	-0.0133316539625838	-0.00184659792786214	0.00254477829262876	-0.00183938271191996	0.0025513003153636	-0.0118338649018371	0.00162754741224868
7.5	-0.0084663157172929	-0.0116864969476286	-0.0014700362995089	0.00277816921130085	-0.00147107364356508	0.00277615518763135	-0.0115245635363157	0.00407496372918146
7.6	-0.00875035257989313	-0.0110154971175593	-0.00107819531484455	0.00295686520361455	-0.00106754891638263	0.00296722519960571	-0.0104114749969406	0.00578210232476184
7.7	-0.00952099237924447	-0.0103447812782349	-0.000648287628480749	0.00308200656318378	-0.000642722054153936	0.00308166208935239	-0.00931562369872586	0.00702328713660382
7.8	-0.00986130807553166	-0.00978295302970358	-0.000201499922020228	0.00314347139867789	-0.000215142499023935	0.00313638344080185	-0.00801003257850955	0.00821922185349382
7.9	-0.0100125535637559	-0.00922247278461869	0.000222228165572604	0.00312979683069344	0.000233318049216526	0.00312949834452981	-0.00644975128065695	0.00948567356873826
8	-0.00927885510084147	-0.00894134773737607	0.000656971318530826	0.00307653170313173	0.000665269967227784	0.0030744642161764	-0.00428391486806246	0.0106213458333378
8.1	-0.00947992058155148	-0.00970237613770069	0.00109143092667545	0.00295347963893567	0.00108914932056647	0.00295022237586533	-0.00205336759385852	0.0109126930661085
8.2	-0.0102711563119838	-0.00973903589703319	0.00148412413714199	0.00277050360958219	0.00148329958345423	0.00278209771433465	0.000274884079807664	0.0110632618097465
8.3	-0.0110653429700864	-0.00943796317610606	0.00185712612605373	0.00253767142395446	0.00186220571072063	0.00253508573872248	0.00270898552043737	0.0106214415760869
8.4	-0.0119462687167684	-0.00867563244443928	0.00220432475013448	0.00225753561300366	0.00219315249280228	0.00225793058834844	0.00482258829866283	0.00960329549440132
8.5	-0.0119509100508604	-0.00748414857208497	0.00250337574701353	0.00192102230315446	0.00250338517341249	0.00192237480197553	0.00688138671394456	0.00840145898279272
8.6	-0.0120769273744326	-0.00750413966454468	0.00273389202407963	0.00155843846053257	0.00272967714059311	0.00155613062483113	0.00853953007687809	0.00616297376452602
8.7	-0.0128784392798047	-0.00707379635163815	0.00292325433236255	0.00115929311717587	0.00292209085736278	0.0011588822689981	0.00944586482440163	0.00381127189716047
8.8	-0.0136328278576393	-0.0062818476192638	0.00305265183100524	0.000740567043922452	0.00306363748431903	0.000738456827291464	0.00982315018238118	0.0012162824173139
8.9	-0.0143111315011085	-0.00514233142461356	0.00312724390392694	0.000308756405799723	0.00313660102817237	0.000301606655738866	0.00961206700361827	-0.00136002457393045
9	-0.0140011382433283	-0.00357867146319027	0.00313777131148153	-0.000141648846370935	0.00314455342615654	-0.000136052387909076	0.00915458331291245	-0.00355517845647559
9.1	-0.0133709099385213	-0.00321232845980026	0.00308950369080485	-0.00057201845539347	0.00308972136366132	-0.000572210907596092	0.0083386506208267	-0.00608099967842843
9.2	-0.0130514885824291	-0.00278922409034151	0.00297524964815178	-0.000993231601546865	0.0029790703607804	-0.000993008376341834	0.00695493032822891	-0.00830067175477739
9.3	-0.012604795807329	-0.00254434885181016	0.00280297659913137	-0.00140304738761096	0.00282102752072348	-0.00140348823742096	0.0051887157829774	-0.0103574703346296
9.4	-0.0123782468224108	-0.00244128339019566	0.00258370093763667	-0.00177590205392193	0.00258701591008832	-0.00178692957080882	0.00271186739807689	-0.0121774194411267
9.5	-0.0117920404665889	-0.0021954315220856	0.00231206899194151	-0.00212904372405932	0.00232685638671704	-0.00212970253021827	-0.000112949181182383	-0.0131885716787157
9.6	-0.0120772885737325	-0.00291028101779901	0.00199538518758458	-0.00243174819343845	0.00199570296452392	-0.00242473218549605	-0.00370807710007549	-0.0139656429602436
9.7	-0.0129709301764519	-0.00271851403786734	0.00163299314244464	-0.00268674019510048	0.00164129210822762	-0.00268832527471618	-0.00758003032571754	-0.0134563881383182
9.8	-0.0137844389355254	-0.0020776112176976	0.00124835034820137	-0.00288251644772352	0.00124652730104011	-0.00289116601752204	-0.0112486094669046	-0.0120901765601785
9.9	-0.0145679701846579	-0.000829969602985178	0.000838998029173595	-0.00302735399279998	0.000827122630838989	-0.00302998023921874	-0.0148838513221926	-0.00981162006030294
10	-0.0142344857963694	0.000835656591073181	0.000407096042659519	-0.00310834746099599	0.00040629076304042	-0.00311567130214166	-0.0176346268570683	-0.00645976659302672
10.1	-0.0137852087236206	0.00124483552287973	-2.96541414342963E-05	-0.00314597004399776	-3.43006204639197E-05	-0.00314874375584098	-0.0196875643809103	-0.00308734988990273
10.2	-0.0137976908549941	0.00192416924366577	-0.000470276743412055	-0.00310526296924837	-0.000482884611273523	-0.00310903006315544	-0.0210640673731545	0.000860691297302613
10.3	-0.0137328543890764	0.00274689309536416	-0.000902105312755492	-0.00300268385085562	-0.000901882053874637	-0.003016079174755	-0.0215444025502277	0.00500012799059937
10.4	-0.0136314914840071	0.0038833628472035	-0.00131116327763811	-0.00285640522503026	-0.00131433720942019	-0.00285427582471221	-0.0212660969647427	0.00912407927599124
10.5	-0.0124374241205299	0.00534470333686926	-0.00169838299314695	-0.00263756193026063	-0.00170456546162023	-0.00264482589408254	-0.0198695415767245	0.0135353289372299
10.6	-0.011118408225291	0.00554742398956161	-0.00205716577118335	-0.00237764906390239	-0.00205867175064399	-0.00238276276871353	-0.0176234102747767	0.0172537481359714
10.7	-0.0100370408085805	0.00572200927142144	-0.00236303540859037	-0.0020644646576873	-0.00236626011585728	-0.00208049861762404	-0.0145667614093404	0.0207559761738489
10.8	-0.00914375403662144	0.00552590138772645	-0.0026296245821625	-0.00171662225064188	-0.00262668734690632	-0.00171879197510918	-0.0109492666087004	0.0234818566291644
10.9	-0.0087701316786354	0.00558417923752623	-0.0028474472247121	-0.00133773559780662	-0.0028467333618071	-0.00134286526609869	-0.00712299717852301	0.0256688028230532
11	-0.0074857401469867	0.00598634848607782	-0.00300809825469821	-0.000919154811846771	-0.00300108574888926	-0.000923458112881143	-0.00242030739674895	0.0275777204137683
11.1	-0.00662851787119896	0.00504577485495101	-0.00310132722957902	-0.00050423330696097	-0.00309357896546549	-0.00049594840768946	0.00259187338565116	0.028068580738721
11.2	-0.00644776127765628	0.00452456721303718	-0.00314165721464244	-6.30708556373175E-05	-0.00314825079917531	-5.9855131964063E-05	0.00782235876861945	0.0278668576151206
11.3	-0.0062996496227605	0.00418708523540938	-0.00311839098737237	0.000378246928748032	-0.0031215579560681	0.000376086480306153	0.0132928319689769	0.0265535036557988
11.4	-0.00639564445777945	0.00412856167043104	-0.00302971377366396	0.000809370792366682	-0.00303434099228389	0.000809530991460978	0.0183145425834924	0.0239910094873111
11.5	-0.00562138533104784	0.00431976239713332	-0.00289562811302276	0.00121431432497492	-0.00288811810171681	0.00121905785664268	0.0229935452563181	0.02053254133401
11.6	-0.00532140418423953	0.00322846748172001	-0.00269541183692785	0.00160806023150231	-0.00270352136608128	0.0016177613077557	0.0267617889097951	0.0155432547364608
11.7	-0.00578337721960108	0.00277443891776031	-0.0024412386251443	0.00197570399706102	-0.00244298582272532	0.00197939555084253	0.0293770236892019	0.0100841713917903
11.8	-0.00617018563239801	0.00292538474974507	-0.00214159368256947	0.00229917796191728	-0.00215078798464242	0.00230897909798505	0.0309213443636492	0.00428539315666582
11.9	-0.00612639543162352	0.00375171131010849	-0.00180211688495432	0.002569377636854	-0.00180214642828454	0.00257593177105545	0.0311682480260074	-0.00120209684176125
12	-0.0044932493014667	0.00449190525687102	-0.00142574891694227	0.00279505005733811	-0.00143024233781663	0.00279783530772244	0.0311313591704673	-0.00643169324673463
