# GHZ S RI R 50
0.2	-0.0138088129433582	0.00537735337932222	0.00304370716691309	-0.00088564969824045	0.00305416465457362	-0.000885499432904091	0.0059933126125316	0.000890307346149191
0.3	-0.0129680782709169	0.0058468843996357	0.00289715554997116	-0.001301559718701	0.00289086960026297	-0.00131319664420115	0.00633340141807641	-0.00140066583772578
0.4	-0.0122831966874124	0.0064611993545601	0.00268263820351962	-0.00169539051236242	0.00268053335039837	-0.00169730122752648	0.00584848333118579	-0.00332408419354012
0.5	-0.0117441216696938	0.00733739940120046	0.0024130187361658	-0.00205183756996522	0.00241583075947781	-0.00205556206320422	0.00485099156196538	-0.00470660335858109
0.6	-0.0108339543864103	0.00813298513818993	0.00210033100543852	-0.00237182503224001	0.00209958733794703	-0.00237466561924701	0.00384335844967388	-0.00599577056298798
0.7	-0.0101775444038194	0.0087673279656085	0.00174967871207676	-0.0026413278982153	0.00175587975247074	-0.00264542004116411	0.00225301897348706	-0.00698599834522244
0.8	-0.00943039295497266	0.00944031017096811	0.00135642024330554	-0.00286073417843178	0.00136468715728818	-0.00285914073713205	0.000461931607941743	-0.0074172706126484
0.9	-0.00877701277481701	0.00998869001056018	0.000952405801867848	-0.00301242570803583	0.000952385242171779	-0.00302183421805128	-0.00138692873005551	-0.00745459840904818
1	-0.0083601352197985	0.0106724056671942	0.000519556752232113	-0.00312056831806292	0.000519407143744865	-0.00312592101950619	-0.00340094777128281	-0.00678940507100685
1.1	-0.00758332295006669	0.0114600383241745	7.25094040548612E-05	-0.00315965291001831	7.33952412829281E-05	-0.00316437514994903	-0.00475269828373022	-0.00547795488381433
1.2	-0.00684677105625892	0.0117068812040653	-0.000365554672443299	-0.00313235234307063	-0.00036433223685585	-0.00314913066348193	-0.00549717858221375	-0.00409774478769971
1.3	-0.00625279571030688	0.0115384917567972	-0.000796088853496259	-0.00305809565481277	-0.000801022767647726	-0.00306574306819719	-0.00528767352440925	-0.002780372105875
1.4	-0.00584894207161088	0.0109768835475719	-0.00122162879033053	-0.00291296891772142	-0.00122404274789979	-0.00292009146396664	-0.00479791313835857	-0.00226850102491765
1.5	-0.00538032453662007	0.0109911537758458	-0.00161244436180051	-0.00271421076762335	-0.00161047550146873	-0.00271974570127242	-0.00456476117680417	-0.00171550845599522
1.6	-0.00457397241736944	0.0111285417438392	-0.00197425949982836	-0.00245881606731753	-0.00197772549856104	-0.00245969508293506	-0.00476350165431256	-0.00101028202217068
1.7	-0.00378504171770304	0.0114750052070577	-0.002298993176059	-0.00216509052215321	-0.0023010380373074	-0.00217366941510877	-0.00481985671630672	0.000258978777541273
1.8	-0.00290286494321221	0.0118838083193137	-0.0025756032889318	-0.00181625670670961	-0.00258077315759317	-0.00182171225231072	-0.00445538887761708	0.00153357141433415
1.9	-0.00209039076065698	0.0121217225127592	-0.00280062273162996	-0.00144744618578444	-0.0027971174155723	-0.00144126381099679	-0.00382425515582989	0.00272751003042276
2	-0.00120327970845782	0.0126152293972543	-0.00297545115294028	-0.00103733491744341	-0.00297819169534881	-0.00103050126649831	-0.00274724795430851	0.00407141801340583
2.1	1.30033545465253E-05	0.0125286057949148	-0.00309161077612353	-0.000605816400187891	-0.00309370636128252	-0.000612506480042393	-0.00104429044668407	0.00448534581748276
2.2	0.00080892290568222	0.0123486409165165	-0.00314520951017653	-0.000175172631501997	-0.00314702597636992	-0.000165458248796749	0.000511592148983026	0.00443438292064859
2.3	0.00143746172249663	0.0120898548096164	-0.003137080661336	0.000266282517469215	-0.00314382723935356	0.00026337186726035	0.001955179389883	0.00392510106788962
2.4	0.00183205813964068	0.0118665838342397	-0.00307751558025352	0.000699871128906903	-0.00307635625249633	0.000714975017767206	0.00316210645669633	0.00312422329895152
2.5	0.00208670825717781	0.01211454584639	-0.00294389903075083	0.00113200263051679	-0.00295689571391139	0.00113329051152648	0.00419697098412104	0.00242248954128674
2.6	0.00302761394753322	0.0123178445536418	-0.00275345085703581	0.00152764939924614	-0.00277436114281907	0.001531550352539	0.00569764169058537	0.00115297861391217
2.7	0.00401211058460767	0.0122253764788544	-0.00252178139310449	0.00189612852526278	-0.00252206295647226	0.00190121104374061	0.00665170879432462	-0.000759626495935922
2.8	0.00502189691449379	0.0119220943237042	-0.00222763672758704	0.00222103421377608	-0.00223747292183791	0.0022322171971196	0.00699704553232425	-0.0028872073896842
2.9	0.00594423383085473	0.0115196028935795	-0.00189211720144605	0.00251475612845149	-0.00189019530260486	0.00252366477436246	0.00680293379448323	-0.00485179030406223
3	0.007041997663772	0.0112650550849014	-0.00152033207832241	0.00275867817390713	-0.00153540926038735	0.00274563952202505	0.00653750844168138	-0.00640541265096673
3.1	0.00827096896224771	0.0104615508514496	-0.00112212059374925	0.00294101014652415	-0.00113905956973493	0.00294640636728799	0.0060940090506435	-0.00847556597463101
3.2	0.00905072057020213	0.00956671983384351	-0.00070360929914886	0.00306669456188632	-0.000699347155496979	0.00307750157506822	0.00472940772447377	-0.0103388304358375
3.3	0.00965974072757395	0.0085789208316986	-0.000274280218270247	0.00313900806417074	-0.000270979607002297	0.00313462981385491	0.00302339068492968	-0.0119762638938461
3.4	0.0099514587121471	0.00759817828614685	0.000172015362845196	0.0031474748650311	0.000162587017234572	0.00314855243475517	0.000855907847657305	-0.0133848626666511
3.5	0.010208403040081	0.00701872990093035	0.00060494736996966	0.00308963073898857	0.000609953090518428	0.00308830283378358	-0.0015401117972465	-0.0141483693856491
3.6	0.0106302788195788	0.00603521724605249	0.00102375650229684	0.00297131989940447	0.00103035075900092	0.00297481600897187	-0.00399304244128687	-0.0149460220132235
3.7	0.0105913761088896	0.00520082962771424	0.00144084593922233	0.002795913213027	0.00143908984554935	0.00281228092426889	-0.00702975970700039	-0.0150567574362313
3.8	0.0105534171958368	0.00461754380094509	0.00180944804922321	0.00256962147156008	0.00182004374729971	0.00257597929595567	-0.0101306415180198	-0.0143954275813725
3.9	0.0105746674478856	0.00426930021863279	0.00215643774476122	0.00229167885118662	0.00215184106533721	0.00229157946574864	-0.0131167202095143	-0.0128551472373664
4	0.0111452128482077	0.0042902223566189	0.00244723628898247	0.00197498372425899	0.00245866819230017	0.00198114060513594	-0.0151298719737613	-0.0103336026370083
4.1	0.012133212075734	0.00332108686499025	0.00270170713826493	0.00160915951330769	0.00271827018609178	0.0016189613037771	-0.0162819943223924	-0.00839903504972447
4.2	0.0124780262299316	0.00213262760268187	0.00290432018517417	0.00121198058465146	0.00290555181146037	0.00121426886517902	-0.0176664592370547	-0.00630000160744448
4.3	0.0125304992317034	0.00104472123856306	0.00304773552591521	0.000804145056715549	0.00304891315057191	0.000812734546464044	-0.01878430622691	-0.00392120097034443
4.4	0.0122580890079299	6.24546352684079E-05	0.00312793980596525	0.000369675809442986	0.00313587220524502	0.000365046798282165	-0.0196806168121611	-0.00115049575066646
4.5	0.0121272149188784	-0.000282128342288361	0.00315472469003414	-7.62111470122909E-05	0.00315152729316039	-7.39490938709809E-05	-0.0196736173776233	0.00227488754567015
4.6	0.0123449775002252	-0.00128748592222846	0.00310049263167298	-0.00052473734260588	0.00311353447631725	-0.000512738083602202	-0.0186895572768485	0.00478916626787412
4.7	0.0121414405576032	-0.00222185158879067	0.00299826266940054	-0.000937937779172325	0.00299817253746627	-0.000947381195919885	-0.0178405498840998	0.00702759050015273
4.8	0.0118237660773227	-0.00315856036038355	0.00284991824641968	-0.00134099159238581	0.00284227429036499	-0.00136119661692197	-0.0166511550941638	0.00921736799741062
4.9	0.0114206785578589	-0.00397602453485832	0.00263520439715938	-0.00174009737624539	0.00262911929350781	-0.001731647006566	-0.0152085116418421	0.0112835831633458
5	0.0113174862019022	-0.00442974391817331	0.00235706086660517	-0.00207438847647251	0.00235980889440296	-0.00208682605324872	-0.0128106971881956	0.0135050124830074
5.1	0.0113627864392805	-0.00562280034116302	0.00203509374315185	-0.00239628254677877	0.00204832751229662	-0.00239379644420229	-0.00997663909785206	0.014388747847809
5.2	0.0108940576885658	-0.00654646471591029	0.00169319818781308	-0.00265408080130785	0.00169370212994658	-0.00265824545889646	-0.00748485187745968	0.015131565158636
5.3	0.0105499742885786	-0.00727552362024421	0.00130284885953327	-0.00286664640805189	0.00129910134238516	-0.00286922285854744	-0.00465398148750685	0.0156437340398558
5.4	0.0101354046141563	-0.00801689192367687	0.000889975925654097	-0.0030261443167433	0.00088908683788126	-0.00302860535720716	-0.00168503602043681	0.0154701979255102
5.5	0.0100041540885308	-0.0083784570928719	0.000451302321773607	-0.00311785562182062	0.000463880638686502	-0.00311783208486597	0.00158302586251219	0.014795747839848
5.6	0.00964580097870949	-0.0098614086238572	1.96543366277077E-05	-0.00314997347715858	1.6351435236223E-05	-0.00314651626963517	0.0040670426556183	0.0123191825213243
5.7	0.00832696942894828	-0.0107349983722539	-0.000414637264518026	-0.0031252173676392	-0.000418355366396272	-0.0031289128419114	0.00511644480921778	0.0101618335158684
5.8	0.00701804665797415	-0.0111646846446947	-0.000850777137165554	-0.0030349770336783	-0.000850043271290329	-0.00304266832264186	0.00574472847333981	0.00809655954335221
5.9	0.00546351930595747	-0.0111649859003244	-0.00126768042417115	-0.00288133161939212	-0.00126607699475701	-0.00288548543339388	0.00561384332835635	0.00630613992313749
6	0.00441227969547482	-0.0100005813642085	-0.00165528514870959	-0.00267854391667191	-0.00164928355103974	-0.00268188970434919	0.00563442841924423	0.00580053601049415
6.1	0.00468542006548235	-0.00983808982772522	-0.00201723059902645	-0.00242769483982196	-0.00201307847327113	-0.00243246826168984	0.00684225698995333	0.00415662669406642
6.2	0.00454509514340324	-0.0103082031120448	-0.00233812435117282	-0.00211004866679229	-0.00233454237144566	-0.00211872727126916	0.00725425445817255	0.00178918947290945
6.3	0.00418702068762645	-0.0112130948342438	-0.00260542903289704	-0.00177005817550308	-0.00261525765796904	-0.0017778275169121	0.00698340569171757	-0.00105603406936167
6.4	0.00306056828449401	-0.0121018803640629	-0.00283288407470295	-0.00138572680614099	-0.00283088901274463	-0.00139153070949287	0.0056220360999825	-0.00367232922971125
6.5	0.00243329374999106	-0.0122869833840605	-0.00300180400790597	-0.000982206780701973	-0.003002208676279	-0.000981081389499702	0.0045088190063428	-0.00543638698585909
6.6	0.00147945490908119	-0.0132113559646162	-0.00310445741516668	-0.000552893161946747	-0.00311514795480289	-0.000555891708824511	0.00254236173911605	-0.00788832557553216
6.7	0.000355365191192116	-0.0133216724286139	-0.00314813984138235	-0.000118539636132719	-0.00314709045753028	-0.000112292527584867	-0.000185423712122385	-0.00889198015813321
6.8	-0.000568489928401878	-0.0134221594592654	-0.00313388110749332	0.000330009653045781	-0.00313297034210649	0.00033477738850457	-0.00289364970756212	-0.00920362293884174
6.9	-0.00190365321544443	-0.0133578795870004	-0.00305277465977884	0.000762222363329455	-0.00305319377197453	0.000767217962018437	-0.0058320318220209	-0.00861143362909164
7	-0.00242188124142738	-0.0123089130843471	-0.00291895633888295	0.00118387998934931	-0.00292036616086258	0.00118710474032797	-0.00749997540086852	-0.00663772409605235
7.1	-0.00281342571385785	-0.0128733101456572	-0.00271933235676224	0.0015794322410104	-0.00272174043169858	0.00159046284005272	-0.00883397138349844	-0.00608666839592084
7.2	-0.00413866545455158	-0.0128951225569795	-0.00247930011140027	0.00194105433020494	-0.0024794752931688	0.00194695618748053	-0.0108486351215527	-0.0044968406962845
7.3	-0.00551334011885461	-0.0126400982249601	-0.0021877864316047	0.00226699580405477	-0.00218501875579347	0.00226846709909971	-0.0122769420630581	-0.00234380019084276
7.4	-0.00739190468956626	-0.0122138680301021	-0.00184253881555499	0.00255107523069784	-0.00183530288871348	0.00255758685433803	-0.0136056661894579	7.88769819529787E-05
7.5	-0.00891537433295675	-0.0101875064667596	-0.00146456647462728	0.00278138909978169	-0.00146560797659371	0.00277937698439378	-0.0136887551260585	0.0041260375927334
7.6	-0.00882190594157213	-0.00931067999740629	-0.00107384621870781	0.00295955659088693	-0.00106317982223926	0.00296990306539005	-0.0117036299774373	0.00644074645320137
7.7	-0.00950387439415079	-0.0085755547758087	-0.000643201247997416	0.00308437232630904	-0.00063763403039234	0.00308401805727117	-0.010175361907113	0.00794476387761709
7.8	-0.00973207390433352	-0.00809435116344827	-0.000195618690986079	0.00314465450728411	-0.000209278129330164	0.00313759048691789	-0.0083544741410619	0.00924324321796813
7.9	-0.0101087702924673	-0.00753811224666111	0.000228031652742364	0.0031289681484845	0.000239119511326388	0.00312864903392208	-0.00634508730971267	0.0106779189037944
8	-0.00913086999505231	-0.00686275913548001	0.000660872427562576	0.00307576267338813	0.000669168628596343	0.00307368465767841	-0.00297888617556354	0.0117570029566762
8.1	-0.00913154361309164	-0.00784255506786471	0.0010968641853687	0.00295259794303033	0.00109457622554569	0.0029493435016561	-0.000284236133405917	0.0105999421024162
8.2	-0.00990670003951449	-0.00797623773832104	0.00148955964005702	0.00276769662022533	0.00148875762638746	0.00277929267029802	0.00158583410438498	0.00999177257033247
8.3	-0.0106847921014288	-0.00784117029872733	0.00186138231422027	0.00253343986584425	0.00186645556408983	0.00253084533679261	0.00353719445189644	0.00917125646652544
8.4	-0.0118431213847664	-0.00728177070808126	0.00220695986469345	0.00225332549005499	0.00219579235912417	0.00225373740941323	0.00501568195128449	0.00816321882814177
8.5	-0.0120189924125518	-0.0056621742496586	0.0025071466178512	0.00191692708108459	0.00250715842221413	0.00191827977699722	0.00735997167913358	0.00761949821783326
8.6	-0.0119505805648964	-0.00575371242827918	0.00273618799879341	0.00155189920971528	0.00273196978103601	0.00154960141819176	0.0093899383771026	0.00447640439968331
8.7	-0.0127659752738823	-0.00530257467427156	0.00292343145990172	0.00115278777397695	0.00292226801267605	0.00115237947906478	0.00963610386018007	0.00157595184777784
8.8	-0.0134520374920567	-0.00456251559028847	0.0030516242027183	0.000734740085362807	0.00306259791763373	0.000732612505718839	0.00918739218671839	-0.00111394187586627
8.9	-0.0143121098184663	-0.00358918731950896	0.00312617352785143	0.000303189763087724	0.00313551348695283	0.000296027498811067	0.00796314515651669	-0.00322534121034396
9	-0.014193251556525	-0.00159888444000787	0.00313461428857909	-0.00014890568071477	0.0031414034704998	-0.00014333021924539	0.00742630216204847	-0.00395771654727057
9.1	-0.0133533083582684	-0.00112897005070607	0.00308409817457387	-0.000576772603047996	0.00308431519257654	-0.000576965174731786	0.00724093360764856	-0.00614936861209869
9.2	-0.0128611287361662	-0.00055471353946414	0.00296992591733566	-0.00099667847963887	0.00297374216104743	-0.000996461572082185	0.00625293426577244	-0.0079971627411881
9.3	-0.0121116500174082	-0.000386507347541991	0.00279733851372159	-0.00140609331332935	0.00281536751475508	-0.00140656386434928	0.00515322305741444	-0.00996671027196878
9.4	-0.0119276373614405	-0.000603086955252468	0.00257639325400207	-0.00177874950769261	0.00257968075103647	-0.0017897683736096	0.00308416898299872	-0.0119957288066889
9.5	-0.0113513178596489	-0.000198599793320904	0.0023031940311522	-0.00212795429919341	0.00231794614539536	-0.00212863609716359	0.00115662834661718	-0.0130524333914355
9.6	-0.0116549147336658	-0.00119799235893088	0.00198880666017163	-0.00242919535332417	0.0019891315463179	-0.00242219340476193	-0.00226099367814117	-0.0152521470386823
9.7	-0.0126855565152851	-0.00100306719799405	0.00162667551418774	-0.00268355357913539	0.00163495674327506	-0.00268514551244806	-0.00685457003628843	-0.0153679847237089
9.8	-0.0135232079172797	-0.000436239352236189	0.00124216204573347	-0.00287784904528988	0.00124033238263057	-0.00288647782982069	-0.011260761011102	-0.0141700821328503
9.9	-0.0145862967397842	0.00065776832344596	0.000833969297491682	-0.00302009243171778	0.000822122999887627	-0.0030227007171439	-0.0157691561501483	-0.0115083721104818
10	-0.0143982887623069	0.00277052917669077	0.000406223831112082	-0.00310106760998709	0.000405420623006801	-0.00310837434383481	-0.0182545888415081	-0.00702640105957949
10.1	-0.0137936778230351	0.00310076047476966	-3.06442303808633E-05	-0.00313982874780847	-3.52825773525068E-05	-0.00314259550595962	-0.0198088075304899	-0.00409562743286171
10.2	-0.013838664996387	0.00379357231945963	-0.00047015462435031	-0.00309825437079443	-0.000482735714500647	-0.00310200940281837	-0.0215030056510223	-0.000316953307787016
10.3	-0.0138100589304774	0.0045328097682199	-0.000899788214526979	-0.00299566622720979	-0.000899564627213863	-0.0030090299739816	-0.0223974832047715	0.00394057444642674
10.4	-0.0141091434075376	0.00563920304373168	-0.00130644475357443	-0.00285132407892095	-0.00130961350352781	-0.00284920133141614	-0.0226826639110716	0.00874532677870288
10.5	-0.0130594487021621	0.00783923334807424	-0.00169558748038227	-0.00263517571362835	-0.00170176056174667	-0.00264243361322198	-0.0205234590658733	0.0145931278695729
10.6	-0.011328854754046	0.00835374396294431	-0.00205424804287542	-0.00237337508139664	-0.00205575251931277	-0.00237848014145653	-0.016997941744051	0.0181472980598573
10.7	-0.00968346848857177	0.00858557190310453	-0.00235844428476497	-0.00206066150875933	-0.0023616620673939	-0.00207666517617414	-0.0130336014683615	0.0211159573273259
10.8	-0.00844684174352663	0.00790871987948414	-0.00262416970816634	-0.00171432393380011	-0.00262123718985071	-0.00171648864534252	-0.00905437516066896	0.0227672279662964
10.9	-0.00842267613468552	0.00752926514204939	-0.00284292834349313	-0.00133671839394879	-0.00284221387493202	-0.00134184046102729	-0.00573743866434773	0.0243055069027113
11	-0.00730355779180945	0.00831218126856749	-0.00300262230286171	-0.000916204364531839	-0.00299562506585616	-0.000920502044394659	-0.000700821994752792	0.0263631049099111
11.1	-0.00636730614345905	0.00723658879434713	-0.00309362175408123	-0.000504281333972533	-0.00308589561185767	-0.000496013302436672	0.00432651801722769	0.0255022381962711
11.2	-0.00619807921501136	0.00679533876111911	-0.00313494606853832	-6.53012250543614E-05	-0.00314152808747554	-6.20972839408975E-05	0.00862388522841129	0.0246435712951065
11.3	-0.00590139253823837	0.00636270505885474	-0.00311277502246614	0.000375208401972122	-0.00311593439202777	0.000373049680203917	0.0130929107649866	0.0231682501775774
11.4	-0.00614976244791481	0.00608817689645129	-0.00302390693803894	0.000806506714930132	-0.00302852485280709	0.000806664718181007	0.0170083051602625	0.0209921464868297
11.5	-0.00532733514062211	0.00660101371455023	-0.0028886959460392	0.00120770152231526	-0.00288121250417391	0.00121243970650474	0.0217990634328077	0.0186224533531139
11.6	-0.00492740414439777	0.00514342372231229	-0.00269255214284323	0.00160007610498405	-0.00270066142172989	0.0016097430168176	0.0254947445906838	0.0131293561020146
11.7	-0.00562954571724945	0.00453533070074546	-0.00243991024430901	0.00196835391115927	-0.00244166002853814	0.00197203610230613	0.0271668675537363	0.00790973836741801
11.8	-0.00636155556120915	0.00462921711506456	-0.00214088091082732	0.00229174228649108	-0.00215007205207535	0.00230151163095879	0.0279032497104323	0.00305128807565225
11.9	-0.00691946965031694	0.00574845698624651	-0.00180237745097094	0.00256019580173136	-0.00180241838178939	0.00256673449793339	0.0278272108022801	-0.000590994355391111
12	-0.0049873464239061	0.00754478977745993	-0.0014311923767609	0.00278630265442274	-0.00143568601357431	0.0027890705473403	0.0298642160691574	-0.00377874869322805
