# GHZ S RI R 50
0.2	-0.0136857910335514	0.00552952216098182	0.003042636039713	-0.000885855091326377	0.00305309034733602	-0.00088570650987474	0.00610003939790135	0.00103165589401426
0.3	-0.0129082545622623	0.00588529811801802	0.00289583842849412	-0.00130165056555346	0.00288955250170545	-0.00131328199320327	0.00637650519669047	-0.00137236666920892
0.4	-0.0122438807463458	0.00639015068620115	0.00268099257694345	-0.0016952232287236	0.00267888826157995	-0.0016971325631891	0.00587351967565351	-0.00340256515337426
0.5	-0.0119648980695189	0.00721036874399226	0.00241126693462735	-0.00205089303847633	0.0024140767416709	-0.00205461561163851	0.00463150246419284	-0.00484072400760372
0.6	-0.0110130852342105	0.00829954349803396	0.00209907346445381	-0.0023706560701018	0.00209833004881231	-0.00237349508584914	0.00367501431651265	-0.00585987683447557
0.7	-0.0101891529930492	0.00893220765953826	0.00174845717366028	-0.00263998868551906	0.00175465434844273	-0.00264407906079465	0.00224169193564474	-0.00686947219590087
0.8	-0.00933866330418172	0.00956114699856617	0.00135534597593268	-0.00285898923802432	0.00136360768348413	-0.00285739740443999	0.000538054703095574	-0.00735221378630219
0.9	-0.00851370791804241	0.00999266803947733	0.000951813686873223	-0.00301020150720675	0.000951793457559411	-0.00301960317094193	-0.00115927168921032	-0.0074988026627279
1	-0.00818544354389207	0.0102178759567911	0.000519861940681393	-0.00311862062204844	0.000519713471286916	-0.00312397018690436	-0.00326004951076075	-0.00726123222348579
1.1	-0.00775128303692244	0.0111261394021615	7.25672788185245E-05	-0.00315792011522434	7.34527767200991E-05	-0.00316263974141051	-0.00492291679961879	-0.00582198004517008
1.2	-0.00698061296966841	0.0113390035261925	-0.000365159676567706	-0.00313029971219714	-0.000363937227565536	-0.00314706688206133	-0.00561140605397387	-0.00447936314585944
1.3	-0.00655405457598627	0.0110645289591532	-0.000795109718839958	-0.00305608036831348	-0.000800039138293904	-0.00306372315171706	-0.00554740896317625	-0.00328845025924511
1.4	-0.0062922949420523	0.0105830491524294	-0.00122018447482733	-0.00291145539950364	-0.00122259525543951	-0.00291857410958701	-0.00519871579684135	-0.00273155806362615
1.5	-0.00606705431702958	0.0108129782714907	-0.00161155202152068	-0.00271294463021547	-0.00160958391302835	-0.00271847678126103	-0.00521378138401787	-0.00198778967256973
1.6	-0.00495062770909697	0.0113734970933496	-0.00197268574776886	-0.0024568381191841	-0.00197614897141391	-0.00245771641786741	-0.00512733123356605	-0.00090152939776112
1.7	-0.00391725744511133	0.0116579368637566	-0.00229659457360488	-0.00216361005094624	-0.00229863610754865	-0.0021721818100057	-0.00497639911138676	0.000310182979388875
1.8	-0.00293247702740975	0.0120005073738427	-0.0025729226511504	-0.00181546624198358	-0.00257808662294154	-0.00182091868122501	-0.00452906877781493	0.00153775889528542
1.9	-0.00203861115664483	0.0120677684899259	-0.00279809106535387	-0.00144703970232679	-0.00279459002885803	-0.00144086121310848	-0.0038207372740291	0.00258910974965426
2	-0.00152608827951895	0.0124153489905373	-0.00297213568337876	-0.00103666047813331	-0.00297487429574734	-0.00102983449342292	-0.00308346416502497	0.00380951565192463
2.1	-0.000289915773279853	0.0128012589106774	-0.003087675058753	-0.000606897533891318	-0.00308976435292358	-0.000613581062655929	-0.00133340414380769	0.0046612314180098
2.2	0.000791641374866737	0.0126776897118632	-0.00314196918882609	-0.00017724661463777	-0.00314379079755208	-0.000167543151472628	0.000491905584208697	0.00463892456021451
2.3	0.00164231566247272	0.0123584955842907	-0.00313438951390131	0.000263746048087483	-0.00314112775992732	0.000260833147108228	0.00212786678283414	0.00406405597873167
2.4	0.00230634286605127	0.0119022785224812	-0.00307490666869698	0.000696939787619372	-0.00307375942461027	0.000712029228693304	0.00357343298369704	0.00305966984450629
2.5	0.00236628651056414	0.0115810384237935	-0.00294175126214407	0.00112728353772146	-0.0029547341893221	0.0011285549348725	0.0044338517481676	0.00185174694420482
2.6	0.00293086677652369	0.011926827963366	-0.0027535489952987	0.00152293568398005	-0.0027744498301805	0.0015268062227772	0.00561636224434702	0.000722612214177472
2.7	0.00384477575128239	0.0119303725200229	-0.00252259350590678	0.00189198493614306	-0.00252288102619708	0.00189706414968971	0.00652667301164965	-0.00111949683723199
2.8	0.00486099119565063	0.0117226400928459	-0.00222898859067244	0.00221700069824225	-0.00223883242101787	0.00222816504449613	0.00688781906989213	-0.00317631323957339
2.9	0.00585854156432023	0.0112369339682977	-0.00189445872901947	0.00251046631950044	-0.00189255066139026	0.00251937196470367	0.00677968309862712	-0.00523350985760083
3	0.00658876137976848	0.0108709105749979	-0.0015247730605054	0.0027556010530251	-0.00153982535505233	0.0027425389575487	0.0061860562119179	-0.00692084461948897
3.1	0.00779426819620399	0.0104878351144944	-0.00112589517219221	0.00293959381552664	-0.00114284117910904	0.00294496838019654	0.00572265122991825	-0.00863036307234888
3.2	0.00871580698414277	0.0096893254538753	-0.000707459660143959	0.00306543733465884	-0.000703211865827984	0.00307624856092626	0.00447019666633443	-0.0104420928941452
3.3	0.00943534369030749	0.00875338613433317	-0.000278724818600802	0.00313839268885491	-0.00027541821749523	0.00313401944689592	0.00284222269377616	-0.0120484734055038
3.4	0.0098853983595988	0.0076882670872812	0.000167101092984875	0.00314842298326127	0.000157669022716352	0.00314948595319644	0.000801936940539108	-0.01354302372374
3.5	0.00984663409815352	0.00693550141580049	0.000601897267276757	0.00309216951136729	0.000606907485615431	0.00309084633735501	-0.00189613195167505	-0.0144675341131917
3.6	0.0103014083637798	0.00644782936954602	0.00102107461736572	0.00297278071308077	0.00102766658886247	0.00297628370602227	-0.00431206478024319	-0.0147985482010967
3.7	0.0106415479921773	0.00566192054963763	0.00143782392305695	0.00279808542355105	0.00143604836722139	0.00281445392351305	-0.00701295787078215	-0.0148820705766055
3.8	0.0108958478302327	0.00489999255280793	0.00180697295932887	0.00257272423131492	0.0018175646981933	0.00257909715058699	-0.00987429163644152	-0.0143812572725825
3.9	0.0110749566031838	0.0041077769962189	0.00215536221569012	0.00229509561922503	0.00215076307674152	0.00229499161392083	-0.0127347887474881	-0.0132216714067643
4	0.0110320357045306	0.00368635424459473	0.00244610366217365	0.0019768114118345	0.00245753235678126	0.00198297657048083	-0.0152967679722815	-0.0110660406814843
4.1	0.0117389101952507	0.00329032046491653	0.00269971188690652	0.00161263284444352	0.00271626278329572	0.00162245592719587	-0.0166619747063245	-0.00860821577650257
4.2	0.0123249489361215	0.00232594880712758	0.00290371434139629	0.0012162687124492	0.00290494334803777	0.00121855942727736	-0.0178163371900764	-0.0063255796572794
4.3	0.012653836688835	0.00121917076033289	0.00304823004901997	0.000808142286207023	0.00304939804486909	0.000816737254742667	-0.0186786011699437	-0.0039698056199975
4.4	0.0126289783117006	-9.2125886760703E-05	0.00312848143318417	0.000372971656661242	0.00313642087818859	0.00036834936945977	-0.0193318449599511	-0.00149833957279338
4.5	0.012003215625121	-0.000962406535315098	0.00315487128460766	-7.1070228066049E-05	0.00315167017842811	-6.88133698792762E-05	-0.0197564908001417	0.00141532984801297
4.6	0.0118604234579214	-0.00152692597006231	0.0031038128314977	-0.000519508529119898	0.00311684284776007	-0.000507476428080153	-0.0191035753633219	0.00430993096343208
4.7	0.011680747509796	-0.00226528404888136	0.00300266430969023	-0.000934237844321475	0.00300258865388769	-0.000943690707310978	-0.0182394976827275	0.00669662684367514
4.8	0.0114132576025559	-0.00302774107412139	0.00285467223018985	-0.00133827418536363	0.00284704939995581	-0.00135851026220948	-0.0170258685514421	0.00902893757330935
4.9	0.0112018719565625	-0.00383434256150044	0.00264050612443335	-0.00173753474516695	0.0026344016764802	-0.00172908606538071	-0.0154301772434076	0.0110952213951883
5	0.0107906151275052	-0.00438138476579795	0.00236499242983981	-0.0020734943392738	0.00236776856726464	-0.00208594798777988	-0.0133509986413362	0.0132369139600108
5.1	0.0110829367844587	-0.00500417531503647	0.00204168360993124	-0.00239879175768426	0.00205494069875265	-0.00239628646321578	-0.0102770746095393	0.0146585668259655
5.2	0.011118259431402	-0.00606908687921603	0.00169855810991654	-0.00265723625568623	0.00169906667193132	-0.00266140779425142	-0.00734081221033151	0.0152554449258413
5.3	0.0109509797952933	-0.00717710725728914	0.00130782714537323	-0.00287051886847812	0.00130407537837185	-0.00287310337594512	-0.00437833021071105	0.015434392697231
5.4	0.0104586253904432	-0.00838056085385151	0.000894845508838964	-0.00303171795430414	0.000893956944625546	-0.00303418511224974	-0.00148748740516989	0.0148766919674241
5.5	0.00941634684006492	-0.00891129440530773	0.000452853046882272	-0.00312584468568534	0.00046546381658121	-0.00312581952980801	0.000979894714122534	0.0140838065658414
5.6	0.00911328007719476	-0.0094083445200113	1.90863699717013E-05	-0.00315574047991227	1.57780883842181E-05	-0.00315227631380074	0.00357152331440383	0.012484759369583
5.7	0.00836572895083697	-0.010147526129823	-0.00041538935876844	-0.00313061255463607	-0.000419113927183541	-0.00313431437175127	0.00512807404611793	0.0104051159665167
5.8	0.00751033728429826	-0.0107056604511977	-0.000852462571230418	-0.00304060658013677	-0.000851727589646347	-0.00304831223035192	0.00613234932170488	0.008223722767801
5.9	0.00648071685800496	-0.0112313103017716	-0.00127149848092552	-0.00288672385531969	-0.0012698935004315	-0.00289088688510005	0.00646943167662768	0.00599823296595448
6	0.00488614011842141	-0.0112434032744654	-0.00165986411789834	-0.00268048498833149	-0.00165385783943982	-0.00268384056774935	0.00601396588327607	0.00445105349122716
6.1	0.00434254655705319	-0.0107498057692844	-0.00202004374722995	-0.00243014164162917	-0.00201588768816127	-0.00243492141767891	0.00653655908480262	0.0031433239082229
6.2	0.00397019003050992	-0.011012890370726	-0.00234215680123982	-0.00211269071000029	-0.00233857144325921	-0.00212138328325563	0.00679394689055574	0.00093197299204872
6.3	0.00348777321894566	-0.011651913769023	-0.00261047931762337	-0.0017714698237139	-0.00262032757332769	-0.00177924621379855	0.00643234272428643	-0.00171549733597918
6.4	0.00245364305961387	-0.0125128324926023	-0.00283749408030012	-0.00138497174094918	-0.00283550158481072	-0.00139078436559317	0.00515676538095156	-0.00434604739024401
6.5	0.00117218158675403	-0.0125238772939811	-0.00300416315547221	-0.000982580555412153	-0.00300456799125999	-0.000981454275352141	0.00343315558282175	-0.00598351847998946
6.6	0.000714223830410191	-0.0126053538056195	-0.00310944948605935	-0.000553542200126384	-0.00312015729852917	-0.00055654472756503	0.00191963552845275	-0.00771664504880685
6.7	4.61018150640097E-05	-0.0128039354902283	-0.00315338177306457	-0.000116979317419118	-0.00315232718095697	-0.000110722523058575	-0.000447757103017482	-0.00884191027001343
6.8	-0.000631493748182928	-0.0129598401546513	-0.00313798345821597	0.000332856462032414	-0.00313706779402768	0.000337630127166309	-0.00297936711393026	-0.0091893235434462
6.9	-0.00163410841745428	-0.0132652856572805	-0.00305569043934133	0.000764544613182624	-0.00305610754753482	0.000769545802487428	-0.00562183783078143	-0.00891260711114687
7	-0.00304673977551812	-0.0126426524706027	-0.00292442521315623	0.0011863617228019	-0.00292583747073053	0.00118959272635441	-0.0080980482553003	-0.00731650615135901
7.1	-0.00335479823321101	-0.0120689758335232	-0.00272320573982672	0.00158560051298376	-0.00272560686633534	0.00159665632181976	-0.00931234457886979	-0.00574355690872649
7.2	-0.00394839340516895	-0.0119441497348464	-0.00248091706964961	0.00194736835660294	-0.00248108508861	0.00195328011688497	-0.0106855625754368	-0.00408174486087837
7.3	-0.0046972225255559	-0.0118355952677509	-0.00218847618308797	0.00227300266567789	-0.00218570257322208	0.00227447297451597	-0.01161978985511	-0.00207126010758386
7.4	-0.00576230444259016	-0.0119975381051497	-0.00184332207581648	0.00255784309866625	-0.00183606559322516	0.00256435937242834	-0.0122831202981905	-0.000176964189601819
7.5	-0.00770815422000787	-0.0115594285623161	-0.0014617166907897	0.00279106728436467	-0.00146276509056734	0.00278905286674732	-0.0127904303073897	0.00249671710527144
7.6	-0.00851906034676027	-0.0105189862503667	-0.00106747115147727	0.00296579818836124	-0.00105676555339116	0.00297612928320428	-0.0115300602420015	0.00505415547330867
7.7	-0.00942922591602017	-0.00990237463145929	-0.000636637168737134	0.00308862865136597	-0.000631065776730009	0.00308826117492984	-0.0102248794710729	0.00647855155953435
7.8	-0.010018594315199	-0.00939215440966357	-0.000188527072885775	0.00314793291119283	-0.000202215113190564	0.00314089410945433	-0.00868591876748331	0.00783553978226499
7.9	-0.0106765220662064	-0.00899255214836606	0.000236942662529843	0.00313130096209513	0.000248040146380056	0.00313095073389129	-0.00689435652914993	0.00913997718354241
8	-0.0111008915507099	-0.00781248500114075	0.000670810951459035	0.00307263541255561	0.000679097743127253	0.00307053068090467	-0.00466517195521782	0.0105760488143413
8.1	-0.010673951726616	-0.00735677835308731	0.00110285601781937	0.0029481641195623	0.00110056216260719	0.00294491701824351	-0.00156769767841075	0.0106835614014911
8.2	-0.0107459896159092	-0.00714367559654873	0.00149481676963209	0.00276332871808351	0.00149403981799001	0.00277492147923334	0.0009292978625849	0.010307900147682
8.3	-0.0109426549409598	-0.00693830791687924	0.00186629348373734	0.00252793442785377	0.00187135830987381	0.00252532951317694	0.00337743343976623	0.00951217885573408
8.4	-0.0114953482073327	-0.00681737371804757	0.00221024722036069	0.00224537730092258	0.00219909270860561	0.00224581678592926	0.00539165181873774	0.00808740920341551
8.5	-0.012485570890754	-0.00584062687209327	0.00250547741711061	0.00191027327534477	0.00250549103239758	0.00191162365472813	0.0069745212559921	0.00694835697075555
8.6	-0.0124031490745627	-0.00484619984158148	0.00273598581821704	0.0015476616465196	0.0027317680201035	0.00154537031958615	0.00905491289759895	0.00475744111442853
8.7	-0.0124743613903318	-0.00425127628673613	0.00292313688645921	0.00114749761440143	0.00292197363380416	0.00114709138923748	0.009926899220075	0.00190310268968462
8.8	-0.0125214338833637	-0.00371546824671698	0.00304969158344215	0.00072904726004039	0.0030606506256515	0.000726904089001353	0.00995319346125956	-0.00099528471744431
8.9	-0.0126869316152019	-0.00348277677837945	0.00312207642411358	0.000299145828404787	0.00313139481895205	0.000291982960335475	0.00927344584336471	-0.00371902355033948
9	-0.0132347732711749	-0.00276348216955577	0.00313318022704907	-0.000150739708389015	0.0031399698739617	-0.000145170747831344	0.00812229115762687	-0.00553602860352437
9.1	-0.0129045069505446	-0.00209762672002035	0.00308167050706061	-0.000581750203515055	0.00308188709559396	-0.000581943054186763	0.00748902325440985	-0.00752232153048743
9.2	-0.0127485471301359	-0.00178311812159403	0.00296494460729758	-0.00100057232771307	0.00296875697260064	-0.00100036208896955	0.00618740970685603	-0.00958588978821407
9.3	-0.0125837113480799	-0.00155615367153028	0.00279175812353363	-0.00140777659157633	0.002809762163431	-0.00140826959951747	0.00456323103173532	-0.0114568688544394
9.4	-0.0127409891781679	-0.00162491834145209	0.00257262646639021	-0.00177920956448044	0.00257590211811782	-0.00179022108495532	0.00224806357475609	-0.0133093118764598
9.5	-0.0132117266074932	-0.000781283562999683	0.00229813742784168	-0.00213155119631493	0.00231288223226517	-0.00213226128893221	-0.000580606440515218	-0.0139904189391214
9.6	-0.0130243881294543	-0.000310297838538346	0.00198068365822725	-0.00242916316533126	0.00198102198272452	-0.00242217339726007	-0.00349034541684829	-0.0148916903994928
9.7	-0.0132287093447544	0.000106741252078062	0.00161979910720382	-0.00268106198159371	0.00162806297953973	-0.00268266313612514	-0.0073500418195463	-0.0148804211675444
9.8	-0.0134598162469563	0.000629652531140787	0.0012364137666014	-0.00287470984961621	0.0012345760115432	-0.00288332207512789	-0.0112670400690673	-0.0137418373593628
9.9	-0.0138829230123085	0.00121054694634665	0.00082750621825355	-0.00301716832570429	0.000815672543545434	-0.00301975222003548	-0.0152400913737747	-0.0114921120706087
10	-0.0144695180150516	0.00260828986347668	0.00039826375046949	-0.00309308801216844	0.000397446822204693	-0.00310037208547762	-0.0184176596705261	-0.00758954371452982
10.1	-0.013802978840448	0.003876678757024	-3.323298484202E-05	-0.00313007779695013	-3.78593305510161E-05	-0.00313283202154776	-0.0198297738409502	-0.00379565071425684
10.2	-0.013122326073996	0.00456268183135737	-0.00047081686328158	-0.00308945012453192	-0.000483365773164848	-0.00309318691359271	-0.0208466705080654	-6.23221533771264E-05
10.3	-0.0124912631986426	0.00488893523310737	-0.000899519430643724	-0.00298665422397122	-0.000899306442399311	-0.00299998093127702	-0.0212008210926843	0.00381598561331068
10.4	-0.0123199154391072	0.00491685799926447	-0.00130429508410659	-0.00284016376258859	-0.00130745085486049	-0.00283804576532484	-0.0210303179397553	0.00766169853743449
10.5	-0.0125049083869909	0.00587056994618556	-0.0016862328460377	-0.00262538810585627	-0.00169237378610658	-0.00263262028143084	-0.0199522504198058	0.0123536371791895
10.6	-0.0116679738339465	0.00673875852170463	-0.00204488849991632	-0.00236919456749769	-0.00204638146556683	-0.002374286605453	-0.0171932320106246	0.0161846834800967
10.7	-0.0107737897404927	0.00730277194517947	-0.00234967316228232	-0.00205803884883779	-0.00235286298772917	-0.00207400384711923	-0.0139203775650609	0.0193902540345048
10.8	-0.00981431699013492	0.0074767193457488	-0.00261483282699211	-0.00171299069832951	-0.00261190554804819	-0.0017151457748388	-0.0102061127507679	0.0217796009072193
10.9	-0.00935990103318458	0.00739978981499706	-0.00283205436020078	-0.0013384500854329	-0.0028313318629952	-0.00134355590075915	-0.00652715515704949	0.0235489871773961
11	-0.0090375326994497	0.00816931161836365	-0.00299614668224171	-0.000922839608378572	-0.00298914765873177	-0.000927113102135422	-0.00221284414858186	0.0255838233208791
11.1	-0.00772063527187272	0.00848114455005298	-0.00308932062379887	-0.000507927068293958	-0.00308161481628766	-0.000499658112274686	0.00319190545970441	0.0258956151272807
11.2	-0.00666740739457859	0.00828354653153963	-0.00312977779144009	-6.94773219494194E-05	-0.00313635352263745	-6.62875618292158E-05	0.00819590523492577	0.0251538729286818
11.3	-0.00568378825842857	0.00773715551712774	-0.00310828941723275	0.000369069936502787	-0.00311143973252396	0.000366909186543294	0.0131793480043162	0.0235771258861355
11.4	-0.00524548462282125	0.00688555784801324	-0.00302280434353097	0.000799029791437104	-0.00302741819361087	0.000799177402924595	0.0176245864172373	0.0209590117682558
11.5	-0.00519253571612404	0.00676784182122284	-0.00288882076042003	0.00120502106865759	-0.00288134332980956	0.00120976388833143	0.0216473397035391	0.0180611515216808
11.6	-0.00444407487925081	0.00620234606847472	-0.00268946441890317	0.00159533711032571	-0.00269756826250216	0.00160498189381938	0.0256388204684352	0.0134407108291434
11.7	-0.00423680125062536	0.0053230282497109	-0.00243872620155773	0.00196152933948003	-0.0024404784453505	0.00196520286533083	0.0280889031139348	0.00804812474699204
11.8	-0.00431949500491688	0.00457454442882029	-0.00214212817221211	0.00228515920018597	-0.00215132454831328	0.00229490037032851	0.0294162369302893	0.00254997262315538
11.9	-0.00471288349683238	0.00399184401614739	-0.00180399051838053	0.00255596926107069	-0.00180403925127186	0.00256250263000622	0.0295656770593918	-0.00254786759745979
12	-0.00517767211368387	0.00456807502585688	-0.00143006801422944	0.00277895057340586	-0.00143455361672992	0.00278170884900903	0.0294594593438921	-0.00679477561327803
