# GHZ S RI R 50
0.2	-0.013952717208919	0.00567148659515398	0.00304265139657801	-0.000885519488316279	0.0030531054280495	-0.000885369833405126	0.00592689630230068	0.00126423494899432
0.3	-0.0132129680143623	0.00598600935461662	0.00289608402806019	-0.00130132842929272	0.00288979936454864	-0.00131296097484589	0.00615403241367135	-0.00118141846048872
0.4	-0.0124448257206685	0.00651277799295175	0.00268132150623686	-0.001695099709257	0.00267921721891435	-0.00169700935721249	0.00570945661041517	-0.00320272099274025
0.5	-0.012157744389025	0.00711704713143966	0.00241132821281401	-0.00205057523202939	0.00241413820993669	-0.00205429736782715	0.00430971121822852	-0.00481148800010899
0.6	-0.0112805247428974	0.0083706619007457	0.00209973311341188	-0.00237022010233147	0.00209899037371877	-0.00237305940131331	0.00321893478773271	-0.00541640123298403
0.7	-0.0102856148785726	0.00900259899923809	0.00174923038730684	-0.00263994670681209	0.00175542919192429	-0.00264403628138063	0.00206360538075113	-0.00624486513914265
0.8	-0.00935435707267641	0.00957491153848891	0.00135601098867213	-0.00285911659598141	0.00136427346576458	-0.00285752313455554	0.000604638994981692	-0.00668924125172852
0.9	-0.00839378273346633	0.0100282551639017	0.000952449981388639	-0.00301018444460072	0.000952431573045481	-0.00301958663507514	-0.000735489774521542	-0.00686074372037749
1	-0.00784787794603433	0.00993028209074814	0.000521293232432458	-0.00311885052513917	0.000521147066312383	-0.00312420093646456	-0.00257773094208509	-0.00726949893071785
1.1	-0.00772522340925128	0.0108835399204603	7.34313195005075E-05	-0.00315911850280553	7.43184084000449E-05	-0.00316383971437206	-0.00485837534473848	-0.00588903952253623
1.2	-0.00684756815922263	0.0112854740657044	-0.000364754734768685	-0.00313137360153107	-0.00036352908826948	-0.00314814599249841	-0.00565999617527883	-0.0042794775622977
1.3	-0.00646116514073926	0.0111583084179586	-0.000794739309808143	-0.00305711199235226	-0.000799668645872517	-0.00306475793149811	-0.00581846383544813	-0.0027463543351176
1.4	-0.00613001529479308	0.0109535047939377	-0.00121969922815479	-0.00291287003715997	-0.0012221086196306	-0.0029199920257921	-0.00539622590488729	-0.00163881037070465
1.5	-0.00587825887782422	0.0110146275763305	-0.00161227699167547	-0.00271509516799787	-0.00161030666624932	-0.00272063091344753	-0.00539287819889795	-0.000828899718876709
1.6	-0.00459831179032528	0.0116065847617906	-0.0019738852115363	-0.00245764033314766	-0.00197735006885125	-0.00245851853963621	-0.00488878355928645	0.000673601541988096
1.7	-0.0034092821329176	0.0115159546818958	-0.00229736070796979	-0.00216432138772449	-0.00229940293893922	-0.0021728959819854	-0.00420812032445445	0.00151435508887824
1.8	-0.002428325366613	0.0115608965885861	-0.00257385879391358	-0.00181645168729938	-0.00257902449208733	-0.00182190687008939	-0.00355377436553177	0.0022646801294017
1.9	-0.00147784781531222	0.0113113489710832	-0.00279994316817317	-0.00144796962902969	-0.00279643977991682	-0.00144178710281992	-0.0027533074094788	0.0027092875826405
2	-0.00136456087237496	0.0110932622605712	-0.00297407503976468	-0.00103567188630227	-0.00297681155268417	-0.00102884126885914	-0.00278284105928188	0.00316514019475148
2.1	-0.000535413226549452	0.0118008328613374	-0.00308824191011368	-0.000606437607219771	-0.00309033270536525	-0.000613121756744922	-0.00167452913367715	0.00469442047217999
2.2	0.000559381357671307	0.0117851316790742	-0.00314299018541873	-0.000177022542221643	-0.00314481150974161	-0.000167315812011004	0.000328682375868482	0.0050414925030275
2.3	0.00141182563759514	0.0115657518769539	-0.00313558812493871	0.000264513355937183	-0.00314232968240318	0.000261600711945342	0.00225347298378982	0.00461712088737402
2.4	0.00229511879591417	0.0111827160259904	-0.00307539208274754	0.000698535186259386	-0.00307423760507614	0.000713628053703795	0.00423131042789834	0.0034382354618413
2.5	0.00239110697603543	0.0103120826517594	-0.00294074964831714	0.00112737948242247	-0.00295372868165291	0.00112865236244471	0.00498176830571979	0.00111121492754511
2.6	0.00240653565500896	0.010759038585182	-0.0027544896238071	0.00152262697998293	-0.00277539582563388	0.00152649352916095	0.00507680955793934	3.46908379140817E-05
2.7	0.00309567469067995	0.011050781819973	-0.00252348123542959	0.00189271164841605	-0.00252376878161361	0.00189779271251535	0.00547454055154291	-0.00129372971070536
2.8	0.00414432608463713	0.0112896611217435	-0.00222923575356424	0.00221785507583731	-0.0022390804869159	0.00222902353489154	0.00577060241776539	-0.00263719833376112
2.9	0.00557733273643494	0.0109936364765463	-0.0018944684318404	0.00251038356733064	-0.00189256056381502	0.00251928907691823	0.00609542099978159	-0.00437118168499703
3	0.00637084392606368	0.0103390520913113	-0.00152716550315166	0.00275579963023285	-0.00154221588080434	0.0027427224642049	0.00528946762364901	-0.00623937051208948
3.1	0.00771967633098906	0.0102325257420088	-0.00112688294485239	0.00294220162262454	-0.00114384394621907	0.00294758100401332	0.00486988226222307	-0.00710823864975744
3.2	0.00898038589307178	0.00929247684314578	-0.000707254928786119	0.0030675346231202	-0.000703002131087157	0.00307835180772866	0.00423379046987311	-0.00866694996631726
3.3	0.00987986889115108	0.0081921473231522	-0.000278500605233681	0.0031400511743759	-0.000275192804869539	0.00313567527863849	0.00313941435313823	-0.0102732287023788
3.4	0.0106156509272495	0.00691015768217735	0.000166705243845562	0.0031507583797283	0.000157266084591095	0.00315182057600764	0.00170629049470598	-0.0120853835691977
3.5	0.0104126412501345	0.00555666084335501	0.000604057249413827	0.00309654476071797	0.000609074415090851	0.00309521756701469	-0.00128565644880591	-0.0138071966233911
3.6	0.0107099051896591	0.0053572912112053	0.00102488552091691	0.00297408147963266	0.00103148621446329	0.00297758055067792	-0.00387331649339098	-0.0134566068056194
3.7	0.0113525092200584	0.00446669385975377	0.00144086667863281	0.00279850473775701	0.00143910321175938	0.00281488383350873	-0.00581092144767721	-0.0134892314199486
3.8	0.0118104792093732	0.00340739383960965	0.00181014410571954	0.00257307115707592	0.00182074779760586	0.00257944027561497	-0.00800260773639818	-0.0135310700722526
3.9	0.0121545799128369	0.00205037757700208	0.00215996464074349	0.00229487019428762	0.00215536102359271	0.00229477121643811	-0.0105056918953791	-0.0135564518990038
4	0.0113535330851482	0.000713423627476798	0.00245056917408965	0.00197217739592709	0.0024620124725868	0.00197832035628788	-0.0143992780505782	-0.0128938471357656
4.1	0.0112250692576623	0.00085462465041539	0.00270019456749968	0.0016084908266034	0.00271674834638317	0.00161828855068629	-0.0171682115100073	-0.0095929389231871
4.2	0.0116840396370193	0.000266682414349048	0.00290391889400495	0.00121311334436839	0.00290514967358592	0.00121540214242159	-0.0184843772372614	-0.00661405500169365
4.3	0.0119873408486592	-0.000529777064168795	0.0030482594482816	0.000804673102178458	0.00304943628542588	0.000813264480318092	-0.0192652016740686	-0.00385489675295925
4.4	0.0122375867814365	-0.00164539751598028	0.00312701798840797	0.000368352575031627	0.00313494591878494	0.000363722100504379	-0.0195620530856445	-0.00138946269792595
4.5	0.011420468030238	-0.0029163470652804	0.00314974662608171	-7.27103740352561E-05	0.00314655193479783	-7.04553731424036E-05	-0.0207068974977804	0.000768029269722423
4.6	0.011078885708056	-0.00279541038583953	0.00310189277041802	-0.000518798426025961	0.00311491299458528	-0.000506772426152623	-0.0208973097032841	0.0048943391549601
4.7	0.0112886794415927	-0.00331559883651085	0.00300136410620968	-0.000934590880606622	0.00300128630329923	-0.00094404030952679	-0.0196535485972029	0.008126132131215
4.8	0.0113163465465959	-0.00400105531691029	0.00285260685904353	-0.0013387203079477	0.00284497987276783	-0.00135894250098138	-0.0178871476237996	0.0109541113092918
4.9	0.0115694402430973	-0.00488788911091131	0.00263773781557832	-0.00173606363966949	0.00263164017807098	-0.00172762273697386	-0.0154795291918947	0.0130155634650935
5	0.010997598226896	-0.00600004671400361	0.0023665200062671	-0.00207105760443875	0.00236930698193437	-0.00208350693418024	-0.0137429042884391	0.0145622443054484
5.1	0.0113704548936607	-0.00619850155791794	0.00204221292430945	-0.00240026772703043	0.00205547662757269	-0.00239776359551595	-0.0104031961453195	0.0170620511994981
5.2	0.0118217592368259	-0.00759229169339932	0.00169739481096583	-0.00265799020784902	0.00169790154079796	-0.00266216198148246	-0.00634518508767043	0.0174253832910994
5.3	0.0116256593167862	-0.00917299216593654	0.00130694285964124	-0.00287023987372453	0.00130319126618004	-0.00287282305324167	-0.00294303446883426	0.0167263285773175
5.4	0.0110123163863385	-0.0107398800194603	0.000895738852115614	-0.00303205224665322	0.000894850721684238	-0.00303452006644474	-0.000171253071954915	0.0151557454492826
5.5	0.00899754724706074	-0.0116917718039933	0.000450956251117467	-0.00313014484899088	0.000463582946898	-0.00313012961805725	0.000479729790446743	0.0136791582581474
5.6	0.00864648508848807	-0.010954293858781	1.40585625787481E-05	-0.00315576349038881	1.07558081891785E-05	-0.00315229406179731	0.00273707482803343	0.0142042822209714
5.7	0.00866174629089283	-0.0115988217467374	-0.000418948972792064	-0.00312870694206417	-0.000422676295350886	-0.00313240263655482	0.0056668822922195	0.0127041061409098
5.8	0.00830612990521842	-0.0124089584823785	-0.000855160119092606	-0.00303851517931579	-0.00085443315230754	-0.00304621842865374	0.00795390605915942	0.0101462629796001
5.9	0.00794418368141031	-0.0134891928365159	-0.00127535073753793	-0.00288472329547829	-0.00127375161550144	-0.00288888816241449	0.00963356041154985	0.00649991116205706
6	0.00589319643389563	-0.0153119974909515	-0.00166397868095278	-0.00267267644274015	-0.0016579890210851	-0.00267604175762828	0.00814476328341831	0.00161972162619431
6.1	0.00388969154743769	-0.0145061910639063	-0.00201750739925494	-0.00242295380454962	-0.00201336474138585	-0.00242772624535635	0.00577634827939392	0.000553278818214877
6.2	0.00297401721370203	-0.0142388545015506	-0.00233863891904455	-0.00210832039708093	-0.00233506230703039	-0.00211699871502063	0.00476461070058371	-0.000592931002892834
6.3	0.00236147692534742	-0.014009325257841	-0.00260720085343339	-0.00176803528520182	-0.00261703708767229	-0.00177579710970218	0.0040126570951216	-0.0017310873092919
6.4	0.00209692361538976	-0.0145272756993472	-0.00283340121592881	-0.0013803233791764	-0.00283141671327709	-0.00138612698239985	0.0035791348590951	-0.00369751391364138
6.5	0.000508382272283174	-0.0150412150985007	-0.00299480503858502	-0.000981364144077728	-0.002995209311336	-0.000980241392531317	0.000994077367777716	-0.00540730657480386
6.6	0.000498165118968238	-0.0145977513678306	-0.00310455475417492	-0.000556766111865804	-0.00311524431128259	-0.000559778264558718	0.000284524658778055	-0.00533191005481838
6.7	-8.07760676836065E-05	-0.0153124853827016	-0.00315024951513982	-0.000118832529228366	-0.00314919984819399	-0.000112581147067768	-0.00104573486739367	-0.00662061320878678
6.8	-0.00100675916718551	-0.0153995962423595	-0.00313400700283413	0.000331444844968734	-0.00313309401789018	0.000336212588760222	-0.00312561102560083	-0.00706460163027949
6.9	-0.00157362765149558	-0.0157162679698512	-0.00305014780244432	0.000760454154718475	-0.00305056823097171	0.000765444883325063	-0.00498628629771081	-0.00741857431828692
7	-0.00390492644942146	-0.015965970833809	-0.00292492049754447	0.00117889151728792	-0.00292633898098034	0.0011821169342786	-0.00929179067560023	-0.00712175838746687
7.1	-0.00442116980499329	-0.0139387170130698	-0.00272452211383722	0.00158350468581406	-0.00272693198189221	0.00159455890094232	-0.0110183562190655	-0.0028585233094634
7.2	-0.00432746233786053	-0.0135931477751012	-0.00248044311719548	0.00194498808502793	-0.00248061399902657	0.00195089630746661	-0.0107683850094737	-0.000203701565726732
7.3	-0.00470682222683384	-0.013364786466358	-0.00218861612979658	0.00226920472993693	-0.0021858461140324	0.00227067621325194	-0.0100215293993188	0.00197564025248471
7.4	-0.00487044136647604	-0.0134535422442364	-0.00184687709928046	0.00255428546084928	-0.00183963273570802	0.0025608114903274	-0.00837989468089543	0.00299863883219612
7.5	-0.00677458917457672	-0.0144856561506131	-0.00146387994157104	0.00279425600064077	-0.00146492933602845	0.00279223899008083	-0.00879091542859778	0.00209779710831183
7.6	-0.00815261765173209	-0.0126426512174359	-0.00106482760585213	0.00296491170275054	-0.00105412071283988	0.0029752297011651	-0.00900475646903927	0.00473914347308435
7.7	-0.00846212504000845	-0.0121379913774813	-0.00063605378895517	0.00308553370639876	-0.000630487954030639	0.00308516669129344	-0.00766031933181163	0.00567810223966067
7.8	-0.00880773182829461	-0.0121112782580922	-0.000189619739104526	0.00314546119167363	-0.000203294589368683	0.00313842237556456	-0.00657001737850813	0.00622496552710866
7.9	-0.00924428051330224	-0.012516186404502	0.000237011063078809	0.00313082768397895	0.000248106885808083	0.00313047714059811	-0.00585135515848762	0.00644009804701778
8	-0.0117159875153029	-0.0123232629547751	0.000673588464019546	0.00306631945932031	0.000681857840136728	0.00306420776107253	-0.00720360585535053	0.00762226210282465
8.1	-0.011153186439911	-0.0105095811771576	0.00109761046153566	0.00294156348408773	0.00109532513343219	0.00293832276117442	-0.00444488983659961	0.0112575113226031
8.2	-0.0110320848056495	-0.010387313818786	0.00148840352498673	0.00276106250078926	0.00148761098537327	0.00277263551921049	-0.000929343872015891	0.0119035686075745
8.3	-0.0113323761878583	-0.0100907175078159	0.00186142229665166	0.00252761358673763	0.00186648513410814	0.00252501729412719	0.00226960238413467	0.0115425291780604
8.4	-0.0114552405363886	-0.0100042968685811	0.00220625938362496	0.00224294563062178	0.00219512075276954	0.00224338046140658	0.00531164830380639	0.0096840814924005
8.5	-0.0134993250236342	-0.00997730147045718	0.00249437030543786	0.00190994502612849	0.0024943811070619	0.00191129156248757	0.00498230874720105	0.00722459600708858
8.6	-0.0137547496365317	-0.00731137347750782	0.00272929023964962	0.00155395310296203	0.00272508249956936	0.00155165199499193	0.00646066441454949	0.00818218985448961
8.7	-0.0130848020673638	-0.00632262770435447	0.00291948430013768	0.00115286910463686	0.0029183223993073	0.00115246071884268	0.00919273173171498	0.00665427658334995
8.8	-0.0125959222338773	-0.00562121993684114	0.00304599050681349	0.000733638677032963	0.00305694433957471	0.00073151585151174	0.0112723668921165	0.00397717025007596
8.9	-0.0117472357151219	-0.00552932330731023	0.00311642308103209	0.000306277431018676	0.00312574422134276	0.00029914855563079	0.0129831350000108	2.8415313096843E-05
9	-0.012523891225165	-0.00622123276687026	0.0031348477430146	-0.000138213521313022	0.00314161733701666	-0.000132615416881892	0.0114121323604592	-0.00490490125279208
9.1	-0.0123560095897711	-0.0051407027111251	0.00308633599533124	-0.000576227984922484	0.00308655321677594	-0.000576420619883185	0.00993133049439959	-0.00689158359721299
9.2	-0.0121045309716332	-0.00550107265709635	0.00296758979874605	-0.000995879151653716	0.00297140303394081	-0.000995662397254017	0.00831947866528432	-0.00998485207257833
9.3	-0.0125913722598733	-0.00560650125797667	0.00279498013386537	-0.00140153510269696	0.00281298566550002	-0.00140198767633323	0.00544755960194741	-0.0124487581863282
9.4	-0.0130180060029103	-0.00561364119515332	0.00258081535815897	-0.00177238527979257	0.00258413015512862	-0.00178339608973562	0.00205518246564572	-0.0144213707728536
9.5	-0.0147503328281925	-0.00477436770195287	0.00230727803186582	-0.00213428528094239	0.00232206406200615	-0.00213497750286285	-0.00358911633262042	-0.014759740764442
9.6	-0.0140319821068273	-0.00260744889052022	0.00198357970227146	-0.00242985647277404	0.00198391425432379	-0.00242286123054671	-0.00628379243622743	-0.0119835671211019
9.7	-0.0132642748583154	-0.00220640343655857	0.00162458048192045	-0.0026802029779276	0.00163285125677534	-0.0026817930524862	-0.00813970350677375	-0.0109018090985596
9.8	-0.0129121367398371	-0.00185170375946846	0.00124308571675977	-0.00287595106805293	0.00124126126214088	-0.00288457699875461	-0.0102247440651357	-0.0097747989007088
9.9	-0.0124329123888435	-0.00185045729251813	0.000832268700501983	-0.00302334937620259	0.000820410156270145	-0.00302595042329987	-0.012277650253723	-0.00908576992595951
10	-0.0139538265166188	-0.00215045135846258	0.000395755382391833	-0.00309474587426458	0.000394931802520731	-0.00310203233168126	-0.017099097763441	-0.00805820621065651
10.1	-0.0139481697756078	1.3401796906825E-05	-2.9403060738495E-05	-0.00312968286410646	-3.40253967767222E-05	-0.00313244235940602	-0.0197673110744733	-0.00275149302138957
10.2	-0.0132536540551328	0.000808792417769292	-0.00046722441144922	-0.00309291195301112	-0.000479780020275963	-0.0030966685421829	-0.020286303291957	0.00140213799096386
10.3	-0.0125867419214767	0.00156654868426183	-0.000899284358330769	-0.00299083571225491	-0.000899064987708312	-0.00300417913866765	-0.0199492764717955	0.00536340515510426
10.4	-0.0113984147461714	0.00155357323327699	-0.00130660332183589	-0.00283951709511607	-0.00130975786786827	-0.00283739645271227	-0.018476714307352	0.00791984320037567
10.5	-0.0121603666031128	0.00111705018503678	-0.00167866610153857	-0.00262296181885545	-0.00168478325946074	-0.00263018973278599	-0.0196005402512523	0.0100373749109797
10.6	-0.0116202496420135	0.00231531718384376	-0.00203939384853047	-0.00237534936488106	-0.00204087401172216	-0.00238044704263736	-0.018588175229306	0.0150693549206047
10.7	-0.0113147415039386	0.0026587965920741	-0.00234784371149086	-0.00206416542845584	-0.00235100653333389	-0.00208014996228416	-0.0164668963424787	0.0190276355996434
10.8	-0.0107534145598429	0.0036055347712819	-0.00261356124331494	-0.00171788281667912	-0.00261062914640618	-0.00172003452523499	-0.0131993005471201	0.0231705806051609
10.9	-0.0094156552194651	0.00387572407941554	-0.00282798048638147	-0.00134502854324549	-0.00282724565731325	-0.00135013116504593	-0.00844307181908559	0.0256233880327984
11	-0.00994652773185305	0.00366859954284713	-0.00299934544824501	-0.000937421021037432	-0.00299231230663299	-0.000941675526453799	-0.00591455279985674	0.027174227634135
11.1	-0.00851150504637892	0.00531319860455518	-0.00309837348959274	-0.000514453145663372	-0.00309065621905563	-0.000506145564699951	-0.000215606588368509	0.0309538150415492
11.2	-0.00685182078587386	0.00501702751727684	-0.00313695568099566	-7.31572249182653E-05	-0.00314355024349301	-6.99674627865807E-05	0.0069926362765691	0.0313804118067844
11.3	-0.00566184277702854	0.00440773930168561	-0.00311526241233942	0.000364816933800968	-0.00311841570898334	0.000362646672009673	0.014154312291113	0.0298393178618608
11.4	-0.00460030663318399	0.00330895875250083	-0.00303460903832396	0.000793958052020464	-0.00303923819101253	0.000794094453725455	0.0208632273506549	0.0259803099329442
11.5	-0.00570597059601741	0.00232215067288293	-0.00290346907767593	0.00121177650465816	-0.00289595223578593	0.00121654232767313	0.0237287239432587	0.0209459409187108
11.6	-0.00486742104128244	0.00333311019160135	-0.00269488274222738	0.00160260969868885	-0.00270299751195776	0.00161228934550092	0.0280857116370513	0.0180688709078265
11.7	-0.00362501199971135	0.0026135353707432	-0.00244407036057348	0.00196681197218938	-0.00244582588936944	0.00197049470152557	0.0327819978797732	0.0121618763098628
11.8	-0.00269277190644933	0.00153898140409144	-0.00214879215349866	0.00229233792571283	-0.0021580171398056	0.00230210969836203	0.0359317215193495	0.00458780087129346
11.9	-0.00218631400094867	-0.000611070195344539	-0.00180828387334093	0.00256928482662699	-0.00180832410463871	0.00257584614962502	0.0365131957203633	-0.00482123083439815
12	-0.00465421488492395	-0.00213623455675725	-0.00142197993264092	0.00278943508053042	-0.00142646302260259	0.00279221552524616	0.0312734141913803	-0.0127333287332295
