# GHZ S RI R 50
0.2	-0.0142334423692778	0.00488555472931628	0.00304793191454449	-0.000884231391125576	0.00305840135668259	-0.000884072565753321	0.0055568150008293	0.000373580830407289
0.3	-0.0133061306493996	0.00561432536264226	0.00290274949709785	-0.00130060882037926	0.00289646579685997	-0.00131226926751108	0.00599817972939659	-0.0016603592998272
0.4	-0.0125086719768179	0.00654752378282699	0.00268958987896266	-0.00169578908699718	0.00268748302015058	-0.0016977057083477	0.00565399098827736	-0.00326798589524289
0.5	-0.0114275788208782	0.00721119038047861	0.00241988521335403	-0.00205464504291552	0.00242270621064392	-0.00205837577550668	0.00526592286983327	-0.00489621374836038
0.6	-0.011052559959584	0.00764720247548227	0.00210666892309666	-0.00237529506686325	0.00210592585118277	-0.00237814232434536	0.00374585589237973	-0.00665086857224161
0.7	-0.0106375913829636	0.00860460886641042	0.00175614480809614	-0.00264628335824398	0.00176236435124007	-0.00265038025480339	0.00187171384921492	-0.00740214545051355
0.8	-0.0099302080531932	0.00953863939703882	0.00136214952905338	-0.00286757712012057	0.00137043786730744	-0.00286597346920684	-3.05695093769347E-05	-0.00762259536153635
0.9	-0.00926534072645677	0.0105030190958299	0.00095639274631418	-0.00302075172656876	0.000956375973365649	-0.0030301874651143	-0.00196887477877779	-0.00723307472218245
1	-0.00796790206028086	0.011510322301637	0.000522088295393986	-0.00312864525975398	0.000521940271178823	-0.00313401220069617	-0.0031292800012532	-0.0061089324466914
1.1	-0.00707592695446613	0.0113621839702	7.46231219712476E-05	-0.00316927496989133	7.55144964865341E-05	-0.00317401112485013	-0.00424315942414781	-0.00569773286513927
1.2	-0.00680484276435894	0.0113957702776836	-0.000365771916138576	-0.00314310008441831	-0.000364539852476742	-0.00315993493577687	-0.0053783429105241	-0.00456935274489965
1.3	-0.00673525501882478	0.0112689965981797	-0.000798769909486225	-0.00306888058269102	-0.000803720877963044	-0.00307655508002245	-0.00562736712757101	-0.00327682028014269
1.4	-0.00659134861072585	0.011246476242775	-0.00122618775213097	-0.00292295491234637	-0.00122861086627081	-0.00293010193755086	-0.00539436613598108	-0.00232479911284377
1.5	-0.0056930871604376	0.0112128182349306	-0.00161830179373773	-0.00272478686406637	-0.00161632475568068	-0.00273034275566941	-0.00472400837788993	-0.00193762112746156
1.6	-0.00517576998092665	0.0114595291153909	-0.00198403791993349	-0.00246849120727945	-0.00198751937694088	-0.00246937230980485	-0.00532254615599288	-0.00127227325912966
1.7	-0.00412449849635007	0.0120479110036073	-0.00231090062451755	-0.00217215555533804	-0.00231296243999515	-0.00218076919920452	-0.00527921964300543	0.000241276478272379
1.8	-0.00299980962172328	0.0125107258776767	-0.00258869635752469	-0.00182089360612788	-0.00259389466414122	-0.00182636613853409	-0.00476423608858764	0.00164566920640558
1.9	-0.00183028606468485	0.0128308928236572	-0.00281481923996156	-0.00145022749849916	-0.00281129054407582	-0.00144402238716376	-0.00378975087764229	0.0030422135901586
2	-0.000420748132918977	0.0126927066279822	-0.00299216285170101	-0.00103675643211675	-0.00299490383727329	-0.00102988371241617	-0.00204416057331075	0.00383348495725685
2.1	0.000133296777960779	0.0122580654611511	-0.0031071757922676	-0.000600307851700425	-0.00310929866852067	-0.00060702253168073	-0.000910472566872192	0.00376011883594761
2.2	0.000749449923315992	0.0123536597786049	-0.00315924078659676	-0.000166928553927051	-0.00316103727650351	-0.00015716718516439	0.000400691785643958	0.0038775378719332
2.3	0.00142243109184466	0.0123060463674366	-0.00314973241985655	0.000277271367533896	-0.00315651713708743	0.000274369373916407	0.00177256360665452	0.00355423258519879
2.4	0.00207801066776112	0.0123313020154561	-0.00308847045595543	0.000714261365089939	-0.00308725050598668	0.000729427383896863	0.00311443512668001	0.00309785388284617
2.5	0.00309581919671054	0.0121351834787348	-0.00294992872561085	0.00114973709506855	-0.00296296895218491	0.00115108916431091	0.00496827487433318	0.0021843434402433
2.6	0.00348625282799255	0.0115030651459531	-0.0027556676655259	0.00154465803264168	-0.00277662852713504	0.00154866323368301	0.00614103978753826	9.11015319922692E-05
2.7	0.00381855666032486	0.0114648357040967	-0.00252118015298312	0.00191371413251605	-0.0025214393923966	0.00191881418809001	0.00654426795597954	-0.00187517892159176
2.8	0.00448818536660838	0.0115748239754098	-0.0022232598684642	0.00223880245356134	-0.00223306988103734	0.0022500680247803	0.00656298128427453	-0.00370112866336752
2.9	0.00557406757891425	0.0116123354069685	-0.00188299143828315	0.00253136219645312	-0.00188101588147079	0.00254028232326828	0.00650273463237618	-0.00524984072889828
3	0.0069677780262247	0.0110488288602559	-0.00150841988059462	0.00277100509218845	-0.00152358903183569	0.00275802396775053	0.00665002299418099	-0.00713367917518841
3.1	0.00766471393405975	0.010358475100183	-0.00110926770100236	0.0029522297034193	-0.00112621098770311	0.00295772218200436	0.00570330010952778	-0.00936279368377816
3.2	0.00848732648133908	0.00986037866729767	-0.000687942865245428	0.00307559902015656	-0.000683614423669085	0.00308640042801523	0.00424353040843445	-0.0109462894796321
3.3	0.00924899317515697	0.00915350645318501	-0.000256709186165022	0.00314422056322672	-0.000253429690324458	0.00313981841197707	0.0025362500407185	-0.0123430525615183
3.4	0.00992621371041752	0.00845078561675696	0.000189565431638323	0.00314836857411615	0.000180137526163012	0.0031494990455681	0.000626440176954841	-0.0134070197164699
3.5	0.0106983637960373	0.00740795013206966	0.000621350996384889	0.00308931689740209	0.000626354423474744	0.00308796210139886	-0.00119797102828532	-0.0145646364349058
3.6	0.0106939862270882	0.00636685035708904	0.00104231532759403	0.00296774888004095	0.00104893599879577	0.00297120870124656	-0.00409995673463147	-0.015538822554918
3.7	0.0108547484494935	0.00583524978080337	0.00145842693597541	0.00278763239533307	0.00145677151952694	0.00280401455488051	-0.00711743453619692	-0.0153701667013245
3.8	0.0112366083774164	0.00526433873528195	0.0018247754446503	0.00255795672429326	0.00183540767860141	0.0025642482131989	-0.00997287660425915	-0.0145648478989208
3.9	0.0117738543382676	0.00462644882571942	0.00216949769834317	0.00227805850428161	0.0021649018398109	0.00227798667780436	-0.0125073453117208	-0.0130382118461405
4	0.012469793182808	0.00348639164717915	0.00246008253236546	0.00195782435514414	0.00247155354025607	0.00196390183937825	-0.0141504976409466	-0.0113913231331082
4.1	0.0122955881257974	0.00232816123951563	0.00270906018197181	0.00158769582531602	0.00272566786131937	0.00159736612472515	-0.0161621613477392	-0.00974160103885745
4.2	0.0123292401427291	0.00163127555431708	0.00290661438498727	0.0011898817997871	0.00290785898064856	0.00119215710436727	-0.0177975651198889	-0.00728703426447829
4.3	0.0124493770767588	0.000843642753536675	0.0030459609857365	0.000781912949707774	0.0030471931956953	0.000790474445564095	-0.0188613554197866	-0.00464359297500541
4.4	0.0125093951532557	1.1446098289927E-05	0.00312226127972963	0.00034687862372841	0.00313014044508501	0.000342206494366992	-0.0194135435915629	-0.00163019224293371
4.5	0.0126768595455196	-0.00114164388935362	0.00314140226963181	-9.89586611891195E-05	0.00313823434280069	-9.66823935772419E-05	-0.018807127598773	0.0011150059479531
4.6	0.0118687199187742	-0.00231690837648673	0.00308258944995527	-0.00054146758859215	0.00309564400756725	-0.000529605839109058	-0.0185679271521	0.00316372506789563
4.7	0.0112582812095277	-0.00276488473453325	0.00297824778675224	-0.000950959919251166	0.00297810276976778	-0.000960357074619355	-0.0181137987800286	0.00560442214836968
4.8	0.0108277084063505	-0.00315885561853025	0.00282732256081747	-0.00135046611331896	0.00281960172473215	-0.00137052170420806	-0.0171107698783095	0.00814205951845738
4.9	0.0107592240282903	-0.00342688563797023	0.00260936689588305	-0.00174458446841585	0.00260336669307758	-0.00173615052867622	-0.0154487789278127	0.0106806321624847
5	0.0110567022687933	-0.00425122085539126	0.00233170638052853	-0.00207042922565567	0.00233438088204066	-0.00208279310622005	-0.0125962810410496	0.0124713880780661
5.1	0.0107528201449176	-0.00507497502497375	0.00201285635088203	-0.0023890439882036	0.00202601599949363	-0.00238662525584318	-0.0102071285409315	0.0134419117651601
5.2	0.0107973683898504	-0.00575419889747365	0.00167175453847329	-0.00264296689887093	0.00167223912694053	-0.00264710584176071	-0.00749310613627008	0.0143553909872517
5.3	0.0107820231532655	-0.00672815215652068	0.00128368545476655	-0.00285063435026571	0.00127995586893357	-0.00285317950711713	-0.00454570803776605	0.0147448096032882
5.4	0.0105698693346661	-0.00766443131087062	0.00087557988768763	-0.00300544180111667	0.000874691324749332	-0.00300788192974671	-0.0014246460730245	0.0146067182505157
5.5	0.0102262803082688	-0.00895811505831223	0.000442932156706354	-0.00309767812146591	0.000455425995234491	-0.00309767627631037	0.00192903059015959	0.013131447334646
5.6	0.00885776312643657	-0.00971436467469894	1.22669511792069E-05	-0.00312827713460962	8.99480607102743E-06	-0.00312483618530714	0.003525461338912	0.0110098402750355
5.7	0.00795052413603442	-0.00981390241367203	-0.000417414740128634	-0.00310101326374036	-0.000421111933882591	-0.0031046740389216	0.00469998062189901	0.00941686843733464
5.8	0.00733231744476257	-0.00997046151083221	-0.000847764586483814	-0.00301051503214303	-0.000847045427267774	-0.00301814772322901	0.00566989522027471	0.00768219742376091
5.9	0.0068404413193097	-0.010011785936447	-0.00125971637954593	-0.00285947142622737	-0.00125812677303413	-0.00286359537548831	0.00630870036425694	0.00622691372007909
6	0.00678815196610792	-0.0107004757591173	-0.00164653702629683	-0.00265742865784096	-0.00164058231777406	-0.00266075744540293	0.00756669294905089	0.00449010736552634
6.1	0.00550777946917666	-0.011685120969842	-0.00200180897640804	-0.0024062884501576	-0.001997694224615	-0.00241102446124592	0.00777448449672209	0.00173146822978013
6.2	0.0042680603093022	-0.01197637013533	-0.00231775369234679	-0.00209326505862324	-0.00231419842757275	-0.002101869654517	0.00737173071473191	-0.000653618316706467
6.3	0.00328868900047708	-0.0121832828181832	-0.00258258592779968	-0.00175809682279545	-0.00259232735978465	-0.00176581216041256	0.00659094838095679	-0.00303908822603604
6.4	0.00251820929564516	-0.0123422207643234	-0.0028091219158153	-0.00137730190188273	-0.00280713741133788	-0.0013830578913922	0.00556806154584951	-0.00504728003175952
6.5	0.00183562257056966	-0.013169491386284	-0.0029731129014416	-0.000976742490440515	-0.00297351518710467	-0.00097562789871686	0.00462153501820377	-0.00761895799189352
6.6	0.000359397092920069	-0.0132000069524274	-0.0030751322226104	-0.000556803876588314	-0.00308571865634772	-0.000559806106544932	0.00199301863042469	-0.00967986900451406
6.7	-0.000430719316000353	-0.012957831299657	-0.00312138213907163	-0.000127919434327689	-0.00312036212743531	-0.000121721190569783	-0.000767208938539144	-0.0104741885238489
6.8	-0.00120203738037884	-0.0127140972691336	-0.00310909900848964	0.00031631331690176	-0.00310821246243184	0.000321044780153281	-0.00358927081704186	-0.01038411815642
6.9	-0.00174050650116063	-0.0123050601464814	-0.00302884984452474	0.000743687143839698	-0.00302928461636493	0.000748637137055596	-0.00587974671954559	-0.009223917385553
7	-0.00206643629737586	-0.012679104720611	-0.00289987402086877	0.00115614714062951	-0.00290129023061181	0.0011593348247814	-0.00699843874245428	-0.00849721508521131
7.1	-0.00368011637074213	-0.012483507571715	-0.00270905864558142	0.00155045691177183	-0.00271151856084969	0.00156139006825756	-0.00941403309778721	-0.00770152023717071
7.2	-0.00453973639401656	-0.0116206361914779	-0.0024740023366356	0.00191107583669491	-0.00247421438052928	0.00191693410501504	-0.0113482146158386	-0.00556788963456842
7.3	-0.00515447423317951	-0.0109091757591213	-0.00218823815974388	0.00223549962651142	-0.00218550048400021	0.00223697998359326	-0.012574780672264	-0.00299810425066479
7.4	-0.00559071474053088	-0.0101703899188925	-0.00185116470523299	0.00251865451478848	-0.0018440313474052	0.00252518193265494	-0.0131375199150773	0.000100130403961078
7.5	-0.00557806381361761	-0.0102938822366431	-0.00148216889381949	0.0027554803302208	-0.00148318782082285	0.00275346847939953	-0.0117547275128353	0.00284151132347576
7.6	-0.00698099117286118	-0.010636659216305	-0.00109233197739999	0.00293792169516003	-0.00108179447927912	0.00294830592820688	-0.010724277767739	0.00422443565827004
7.7	-0.00817560589291658	-0.0101524093397389	-0.000665868976013955	0.00306523530223989	-0.000660323749784321	0.00306492873195613	-0.00966304025212981	0.00569855287413665
7.8	-0.00898911341904555	-0.0097319214206262	-0.00022288082931926	0.00313040517752379	-0.000236422961490982	0.00312324745044925	-0.00814700171570926	0.00711103373349052
7.9	-0.00948119432201917	-0.00936670702264247	0.000198207452505446	0.00312245868256029	0.000209267682005455	0.00312224390382134	-0.00593383332944204	0.00839170010467986
8	-0.0101080284904331	-0.0095913771830948	0.000635005984596635	0.00307429543247691	0.000643300574204487	0.0030722878309134	-0.00323041295892083	0.00840167990294968
8.1	-0.0113630583995824	-0.00865055612577133	0.00106817454118203	0.00295323889034716	0.00106592142054381	0.00294997445341503	-0.0017839369226328	0.00830772927690443
8.2	-0.0116427309122799	-0.00753429431562326	0.00146012008631693	0.00277542993816617	0.00145921073139926	0.00278699208777853	0.000262024426747261	0.00854041015632378
8.3	-0.0117806654409929	-0.00670553968338093	0.00183469549999477	0.00254809266066283	0.00183978721555893	0.0025455501334349	0.00252927192937065	0.00831600085927986
8.4	-0.0117609497286234	-0.00584024130417795	0.00218572190577595	0.00227190824013825	0.00217455633149711	0.0022722201925163	0.00497331014101141	0.00779558291408252
8.5	-0.011652741888014	-0.00583446689143668	0.00248595435431847	0.00193637062202607	0.00248595400252261	0.00193772126992091	0.00792838260100653	0.00583936205377268
8.6	-0.0128017682994735	-0.0051079791119635	0.00271868127261916	0.00157961125728825	0.00271448905847509	0.00157727069692123	0.00892940989177197	0.00298980667203083
8.7	-0.0130248450539064	-0.00370967652730831	0.00291366851142327	0.00118351367671264	0.00291250843286942	0.00118309318887827	0.00938122033381425	0.000638833210335438
8.8	-0.0127319571762575	-0.00254667418523128	0.0030483608460151	0.000765583202237838	0.00305936955323868	0.000763560385280338	0.00933419506771073	-0.00167162295539588
8.9	-0.0119558506707596	-0.001699846409055	0.00312652841985507	0.000333474159903588	0.00313594678154881	0.000326393958365386	0.00917574813343809	-0.00346606909669766
9	-0.0109589229742994	-0.00211853229709222	0.00314141124979094	-0.00011369847937253	0.00314814845155689	-0.000108037143175635	0.00966721145648006	-0.00582938398118356
9.1	-0.0112815532618357	-0.002535133606959	0.00310136099747839	-0.000546155340684582	0.00310158084174549	-0.000546346307268805	0.00870446394291196	-0.00882454631417979
9.2	-0.0114957750519377	-0.00267494512717092	0.00299144303506475	-0.000971046761550462	0.00299527203814067	-0.000970791064729221	0.00719588445901026	-0.0112877983304482
9.3	-0.012021533544473	-0.00271678538175416	0.00282272372611745	-0.00138393489922978	0.00284083071917463	-0.00138422770502509	0.00509104643341798	-0.0134005241318353
9.4	-0.0124971589876645	-0.00234855659385365	0.0026077160085343	-0.00175907183299664	0.00261113845888786	-0.00177010638015698	0.00268994047524104	-0.0147760409179245
9.5	-0.0130958051153021	-0.0023321520524722	0.00234261593815193	-0.00211949793023398	0.00235748444295946	-0.00212002969871561	0.000248030494704759	-0.0164792135198003
9.6	-0.0142989453917861	-0.00119622403334043	0.00202481569875342	-0.00243006822481497	0.00202508210952633	-0.00242301106843954	-0.00398510618939773	-0.0174034823904711
9.7	-0.0144810688522421	0.00022611178033526	0.00166194380895956	-0.00269008760690561	0.0016703016115065	-0.00269162099747689	-0.00817238208749399	-0.0167657386528479
9.8	-0.0143761258587799	0.00142232810969304	0.00127694445352314	-0.00289139826869916	0.00127517261354469	-0.00290011475135998	-0.0121757294492949	-0.0150465232453514
9.9	-0.0139396954794656	0.00257600869704041	0.000866236027940982	-0.00304357067797078	0.000854292377524385	-0.0030462989238564	-0.0156511812309962	-0.0120125294266744
10	-0.0134198965842325	0.00276885055224465	0.000426746337117823	-0.00313077935666895	0.000425973401922163	-0.00313816537825967	-0.0176137979981598	-0.00894689773680296
10.1	-0.0138744265565541	0.00364162060092014	-1.40891996232286E-05	-0.00316917139647016	-1.87558114609553E-05	-0.0031719887427101	-0.0200127837474655	-0.00570413229112192
10.2	-0.0134169038239288	0.00485761000346154	-0.000458777354706068	-0.00313170498186453	-0.00047146487519319	-0.00313556290586088	-0.0214551005763171	-0.00151010225586719
10.3	-0.012591646004319	0.00570881212148623	-0.000896722108249282	-0.00303168725956065	-0.000896439300538741	-0.00304519368046982	-0.0218673895503856	0.00304972895893907
10.4	-0.0114421232365348	0.00614764250661189	-0.00131373869387009	-0.00288538684189459	-0.00131694691513187	-0.00288324871432898	-0.0208378096896001	0.00776148769305969
10.5	-0.0105989492707747	0.00540005594016527	-0.00170469366868122	-0.0026615243603146	-0.00171090482189421	-0.00266885799605393	-0.0182026877428289	0.0112184634634628
10.6	-0.0110748280634703	0.00547346820546468	-0.00206607366784678	-0.00240283331226037	-0.00206757571710655	-0.00240799213903592	-0.0162949289800949	0.014018191602043
10.7	-0.011137893845788	0.00613132059901288	-0.0023779547915297	-0.00208823184826739	-0.002381165813339	-0.00210441143062651	-0.013779910474528	0.0170677619766528
10.8	-0.0108653067694391	0.00706729287357925	-0.00264973390182526	-0.00173628559421366	-0.00264676708136045	-0.00173846926037052	-0.0106762802333114	0.0199644531025961
10.9	-0.00996615763614707	0.00796812190571911	-0.00286966185513833	-0.00135185687821704	-0.00286893662921641	-0.0013570283639837	-0.00655470749859924	0.0226462760035479
11	-0.00892941688644777	0.00777849244966681	-0.00303157030285718	-0.000932482848980034	-0.00302449101345663	-0.000936809064028755	-0.0012073087142043	0.0236387287894347
11.1	-0.00880299971785524	0.00837068923739142	-0.00313036948963086	-0.00051189222217581	-0.00312255514840351	-0.000503521347692321	0.00309451302912719	0.023597348106786
11.2	-0.00773576912657374	0.00901312010908626	-0.00317125436532753	-6.34167490554036E-05	-0.00317790980251749	-6.01702148791087E-05	0.00773478310065407	0.0232588367391876
11.3	-0.00630805338993314	0.00921249334349538	-0.00314651659951997	0.000383624717727417	-0.00314971371321965	0.000381446588637376	0.0124540984956075	0.022270833835942
11.4	-0.00488697506092104	0.00893206874862352	-0.00305650674534218	0.000818090890421404	-0.00306117540227916	0.000818254754270338	0.0173849276266633	0.0205388716725651
11.5	-0.00393959263680163	0.00756115515556524	-0.00292443507910383	0.00123011349645783	-0.00291684173461887	0.00123489818930904	0.0225531456016278	0.0167204236327773
11.6	-0.00399422316768078	0.00702349039750859	-0.00271765401322307	0.00163154943086017	-0.00272581686289578	0.00164136941910346	0.0257107482699782	0.0119074560539749
11.7	-0.00332391999034711	0.00657308864706473	-0.00245765017981941	0.00200214204679355	-0.0024594017068245	0.00200587383551447	0.0282354597283481	0.00703568236749232
11.8	-0.0026066076345311	0.00573572834058733	-0.00215331976857876	0.00232796744775406	-0.00216256465815435	0.0023378915384088	0.0300963919303729	0.00189845557118217
11.9	-0.00189427924014014	0.00442816886718122	-0.00180939514358214	0.00260193811736472	-0.00180939837471385	0.0026085567704839	0.0314196271186298	-0.00321557672350141
12	-0.00251281654434364	0.0022227047478204	-0.0014218381565265	0.00283054744648516	-0.00142635690595088	0.00283338727699054	0.0321135103601167	-0.00991421649522388
