# GHZ S RI R 50
0.2	-0.0144850860334293	0.00433076451757813	0.00305100407952949	-0.00088320423586271	0.00306148221883652	-0.000883039199068529	0.00543022811911707	-7.40472551398699E-05
0.3	-0.0135993861904639	0.00518768147982592	0.00290686282337239	-0.00129989660730976	0.00290058083120584	-0.00131157435425215	0.00582242576442923	-0.00198174203190566
0.4	-0.0128055635568953	0.00645106797096422	0.00269489807405396	-0.00169607920084881	0.00269278969602148	-0.00169800033546747	0.00543041744265047	-0.00327824033866247
0.5	-0.0109980887471242	0.00700353567303822	0.00242517966595682	-0.00205728481210254	0.0024280074303925	-0.00206102103872676	0.00558491343222989	-0.0049822741152047
0.6	-0.0110508596960216	0.00668560480806425	0.00211097791813779	-0.00237837411538273	0.00211023469678226	-0.00238122627915729	0.00355850811018054	-0.0072128149684274
0.7	-0.0111078705483923	0.00771877842931297	0.0017604952762938	-0.00265027225993408	0.00176672786975206	-0.00265437376765933	0.00133292400909915	-0.00768501120338711
0.8	-0.0107339422097693	0.00877732266293306	0.0013659326828798	-0.0028730058631322	0.00137423751184674	-0.00287139607499229	-0.00071983774881846	-0.00768041122276731
0.9	-0.0105621795785462	0.010168621856043	0.000958550099306075	-0.00302755826197332	0.000958533295276149	-0.00303701526385502	-0.00290831863284389	-0.00692541411259958
1	-0.00870221392780009	0.0123244555440415	0.000522122015049547	-0.00313454269182938	0.000521972133037867	-0.00313991944095335	-0.00347669175956185	-0.00501302362003035
1.1	-0.0069880231339139	0.0114524775654664	7.51030722950989E-05	-0.00317542397810015	7.59966791084611E-05	-0.00318016923988265	-0.0041194029046045	-0.005432360080752
1.2	-0.00684055268027707	0.0111392393348673	-0.00036677500746621	-0.00315012358184137	-0.000365541163958184	-0.00316699623816805	-0.00561314637020855	-0.00456336523217509
1.3	-0.00680821473949368	0.010581010458193	-0.000801642168254678	-0.00307573300687051	-0.000806607169725414	-0.00308342365915561	-0.00610358285629922	-0.00348317270093328
1.4	-0.00704555189389193	0.010329806802333	-0.00123042887477261	-0.00292843525756999	-0.0012328611445734	-0.00293559600783611	-0.00625111308231061	-0.00244444102701284
1.5	-0.00579053814524192	0.010131641816817	-0.00162167406501956	-0.00273011857375293	-0.00161969340299024	-0.00273568563119586	-0.00525103227367996	-0.00194429881167654
1.6	-0.00604213535259599	0.00997426755152794	-0.00199004790518947	-0.00247472174751072	-0.00199353905710104	-0.002475604389796	-0.00631163054086415	-0.00125118945372904
1.7	-0.0053206820886043	0.0111238696497672	-0.00231883131432171	-0.00217645583314771	-0.00232090504337918	-0.00218509167627336	-0.00618018564639186	0.000817560105608609
1.8	-0.00421083645937605	0.0120435928464436	-0.00259716274452443	-0.00182319847506305	-0.00260237976555246	-0.00182868037008502	-0.00545189021792069	0.00248205839801437
1.9	-0.00287672650627687	0.0130325409961173	-0.00282302980084011	-0.00145154332878071	-0.00281948722271395	-0.001445325620489	-0.00427055085547608	0.00422329913058271
2	-0.000126858019863782	0.0130775352105426	-0.00300273355213337	-0.00103786889325605	-0.00300547826878377	-0.0010309716199912	-0.00159350211121541	0.00496859638203854
2.1	0.000404189206487437	0.0114151568697956	-0.00311841691466	-0.000596744538872371	-0.00312055868910251	-0.000603477425419856	-0.000756053143751626	0.00406815532599765
2.2	0.000458982457857103	0.0113171078050453	-0.00316876013009259	-0.000161020449695045	-0.00317054208731395	-0.000151227076384317	0.000182325648906632	0.00429075603956524
2.3	0.000651075656871404	0.011360705597076	-0.00315800486984476	0.000284619537753903	-0.00316481470438167	0.00028172353970798	0.00140235430342317	0.004113006756657
2.4	0.000781369058999967	0.0120086667525354	-0.00309641886958572	0.000723248046494729	-0.00309516183946297	0.000738458121794936	0.00256140516828608	0.00397916766801014
2.5	0.00266746627177028	0.0130067492778908	-0.00295567741873578	0.00116326432076941	-0.00296875544807386	0.00116466408863878	0.00510013195418735	0.00359629950861249
2.6	0.00402494958059151	0.0116504997994474	-0.00275621281944556	0.00155778549463703	-0.00277720524588103	0.00156187364818673	0.00661333490247675	0.000749544511478534
2.7	0.00449407684700565	0.0110288325111794	-0.00251984147355689	0.00192610746084253	-0.0025200840294175	0.00193121874657453	0.00683344106327802	-0.00153203402236294
2.8	0.00495886387497812	0.0106301011773328	-0.00221986807337721	0.0022513311977941	-0.0022296581811511	0.00226265490878092	0.00653700403723815	-0.00356579416326621
2.9	0.00567256043777623	0.0107317051838047	-0.00187614268094176	0.00254431145901379	-0.0018741257889176	0.00255324112423948	0.00609734738066624	-0.00491332133400523
3	0.00773746919063723	0.0101640271640293	-0.00149641655082967	0.00278010753602789	-0.00151165783137726	0.0027671887433593	0.00657362469870414	-0.00665191082403191
3.1	0.00802432553165516	0.00846913562807946	-0.00109844305141415	0.00295779297283012	-0.00111537280671369	0.00296335284161257	0.00511521921004688	-0.00921380974504224
3.2	0.00818727402607831	0.00794074876669312	-0.000676206859942588	0.00308006733787327	-0.00067183335245243	0.00309085784142933	0.00332974379005069	-0.010384635710255
3.3	0.00847181096903323	0.00740422211619756	-0.000243422424017098	0.00314628734733926	-0.000240160624719742	0.003141869888858	0.00153901636920286	-0.0114177660218425
3.4	0.0087670268182321	0.00729454551408791	0.000203533518339491	0.00314608050319342	0.000194114977068022	0.0031472525448518	-0.00038769104945802	-0.0119744914684432
3.5	0.0104472008700455	0.00674646811037856	0.000630948153897212	0.00308389199785237	0.000635941636159878	0.00308252203722794	-0.00139936632932427	-0.012839119745269
3.6	0.0103318917212047	0.00469884897907502	0.00105194023376072	0.00296367190162738	0.00105857099628756	0.00296710904217333	-0.00443413364399264	-0.0144074579864324
3.7	0.00972592693156922	0.0042176142430103	0.00146827363264182	0.00278093098072003	0.001466680546261	0.00279731221496272	-0.00769887703993962	-0.0140031398000071
3.8	0.00957264602535747	0.00419839947776293	0.00183279860128182	0.00254873039792348	0.00184344499282524	0.00255497594508452	-0.0105445849646006	-0.012914387907165
3.9	0.0100232438884924	0.0047163660740627	0.00217412421065548	0.00226803812497765	0.00216953405747111	0.00226798138163467	-0.0129148437773969	-0.0109444964117283
4	0.0124673512364493	0.00435839031414573	0.00246509531763228	0.00195011393098972	0.00247658081415634	0.00195615631583029	-0.0134849494440507	-0.0092290572189283
4.1	0.0129332987926943	0.00178910812740699	0.00271417638557978	0.00157562741965933	0.00273081516883094	0.00158522376849761	-0.01554237631958	-0.00859028433972115
4.2	0.0125839580645027	0.000530862478114629	0.00290774694968015	0.00117627526543457	0.00290899935122541	0.00117854243486472	-0.0175641619668565	-0.00630516291033648
4.3	0.0122743260111867	-0.000354372312776813	0.00304395030425019	0.000768940103839814	0.00304521333548841	0.000777482788167411	-0.0188998567040318	-0.00367525239311277
4.4	0.0119816688945922	-0.000676429670219983	0.0031192022009399	0.000335243521863992	0.0031270538224053	0.000330549668502429	-0.0197373446207258	-0.000404670295544949
4.5	0.0133818456553697	-0.00122880782259914	0.00313707825120249	-0.000114025467589482	0.00313392520765512	-0.000111736670267026	-0.0185172896553494	0.00262389215604287
4.6	0.0129288983184278	-0.00385369656378676	0.0030711544606314	-0.000554564355860485	0.00308422787760862	-0.000542798759180178	-0.0185449942948535	0.00385839985803927
4.7	0.0117488135446725	-0.00482313857711143	0.00296481385484558	-0.000960058275201297	0.00296463096929992	-0.000969424691472183	-0.0186374703068767	0.00643738523451531
4.8	0.0107594715206824	-0.00537990853295876	0.00281302371101209	-0.00135701324539164	0.00280525045300805	-0.00137697456791954	-0.017903232955923	0.0092433576995845
4.9	0.0101140320536426	-0.00523325883803841	0.00259337956531361	-0.00174997469272266	0.00258743495747472	-0.0017415428621739	-0.0164127951974279	0.0122941008204103
5	0.0113043450507697	-0.00567705275956852	0.0023106926320995	-0.0020705536554817	0.0023132980368756	-0.00208286760747458	-0.0127740342538606	0.0143701730243761
5.1	0.0104705256755315	-0.00765487121247428	0.00199547641163242	-0.00238209236749242	0.00200857331533429	-0.00237972354276911	-0.0107720401499215	0.0148262504790185
5.2	0.00955039143965386	-0.00795638060283022	0.00165676214954505	-0.00263405102553104	0.00165723386730317	-0.00263817061373735	-0.00826132494521674	0.0162184611983687
5.3	0.00924241297564136	-0.00810345100485267	0.00126984609520314	-0.00283915481181433	0.00126612933949197	-0.00284167739040897	-0.00508608234910149	0.0169671908437155
5.4	0.00932749936867698	-0.00793360455178723	0.000863093715185607	-0.00298940154871355	0.000862204667601163	-0.00299182482152349	-0.0016495279620677	0.0171687954200133
5.5	0.0112474514842843	-0.00908502097525271	0.000438618387406892	-0.00307732922963633	0.000451029360108561	-0.00307733294653335	0.00293286318091404	0.0154424996408658
5.6	0.00964899687912055	-0.0120517745129822	1.19118492187644E-05	-0.0031118594137139	8.65719759341264E-06	-0.00310843622036518	0.00389828219749332	0.0121836024671584
5.7	0.00753987867388548	-0.0124591041113445	-0.000416156401421448	-0.00308450698833806	-0.000419835184926992	-0.00308814729978303	0.00457191681846954	0.0108373440279373
5.8	0.00600065575890437	-0.0123069973220182	-0.000842981951107264	-0.00299350098627209	-0.000842266876138032	-0.00300109054836336	0.0054805888952712	0.00926890044501902
5.9	0.00463887507577786	-0.0111202596528486	-0.00124923577684059	-0.00284391742991142	-0.00124765117905552	-0.0028480153272291	0.00595957956926122	0.00807281023463811
6	0.00630766019744479	-0.00979119438935661	-0.00163461545414546	-0.00264930538526677	-0.00162867962438607	-0.00265260898075415	0.00827588647107471	0.00672164491682342
6.1	0.00649203766000299	-0.0123160514050455	-0.00199188225454402	-0.00239737071273776	-0.00198778194423586	-0.00240208421024465	0.00838582603596629	0.00232912255100517
6.2	0.00497699578715643	-0.0134616425771357	-0.00230469196260698	-0.00208529587666332	-0.00230114598771698	-0.00209385581497066	0.00686474281785714	-0.000316489193385771
6.3	0.00345249171429443	-0.0140065879727497	-0.00256736535187161	-0.00175365179749877	-0.00257704767557043	-0.00176134513532032	0.00525975363807797	-0.00230882653472596
6.4	0.00223793891153401	-0.0135120070491463	-0.00279483173647469	-0.00137770535494519	-0.00279284301719617	-0.00138343384463357	0.00385164852825775	-0.00327990492377951
6.5	0.00322380059894287	-0.0144307608231581	-0.00296201483383149	-0.000975389722682878	-0.00296241648583778	-0.000974279316724747	0.00399671527022261	-0.00546422377218906
6.6	0.000846189677037693	-0.0160738456164318	-0.00305883236868655	-0.000557191788778982	-0.00306936154748394	-0.000560189807698659	0.00085041448994335	-0.00771769282648916
6.7	-0.0007755144240336	-0.0155814443666043	-0.00310538695209632	-0.000133756557904595	-0.00310438495172651	-0.000127587430824692	-0.00169146329851975	-0.00784651322555004
6.8	-0.00199148870919241	-0.0150518652737538	-0.00309585735349159	0.000307144858535295	-0.00309498658853302	0.000311857179279836	-0.00417194515811364	-0.00764221334389256
6.9	-0.0029067043546309	-0.0135363011030238	-0.00301807171868386	0.000734615024252067	-0.00301851463429874	0.000739544101186579	-0.00641170962078234	-0.00604432153765378
7	-0.00065822428829738	-0.0132405122020565	-0.00288506027643127	0.00114449041278429	-0.00288647374014483	0.0011476572150571	-0.00594344759084123	-0.00522240158144067
7.1	-0.00235645296956226	-0.0158595612827637	-0.0026997381050255	0.0015313905405458	-0.00270222592695674	0.00154225279720113	-0.00889465428454253	-0.0058595234837343
7.2	-0.00474987008528913	-0.01562062509215	-0.00247025220120803	0.00189164925109028	-0.00247048775213145	0.00189747881610287	-0.011333829564936	-0.00343555892887771
7.3	-0.00679853559802762	-0.0148168151226265	-0.00218771150446862	0.00221647297353981	-0.00218499217058375	0.00221795804028072	-0.012517660614463	-0.000687431140199884
7.4	-0.00896199164457659	-0.0126925358034635	-0.00185235163432533	0.00249812363630929	-0.0018452818140115	0.00250464790626815	-0.0131395069803379	0.0027322473350558
7.5	-0.00749259994069453	-0.0100463491165864	-0.00149241997202251	0.00273165320300849	-0.00149342058402068	0.00272964510675471	-0.0103515712687203	0.00587660516677623
7.6	-0.00781084475161821	-0.0115505041881413	-0.00110877493957964	0.00292161935890009	-0.00109833942944133	0.00293204286637598	-0.00931082698632251	0.0053480807514788
7.7	-0.00941653136670787	-0.0109738237233629	-0.000683207652555947	0.00305289393299365	-0.000677675327738123	0.00305262276652655	-0.00926044723899498	0.00648326449998107
7.8	-0.0101712264569797	-0.00992566194979434	-0.000242324410255883	0.00312049594331075	-0.000255784010912138	0.00311327088481341	-0.00848242702133831	0.00815273297919807
7.9	-0.00980513947038521	-0.00841027583805116	0.000174203907116868	0.00311591408629592	0.000185237288158567	0.00311578307770472	-0.00652920221286554	0.0103035902566243
8	-0.00714207029308677	-0.00955640013466554	0.000609877356018599	0.00307948720460107	0.000618188359035798	0.00307754740111038	-0.00272403371252966	0.0102942553955064
8.1	-0.00903219333729596	-0.0117403020308401	0.00104948733997808	0.00296116514354885	0.00104725450090467	0.0029578850238454	-0.00228502974063261	0.00943219877231519
8.2	-0.0107160764878683	-0.0113083835146841	0.00144225291381613	0.00278513452465128	0.00144126852455057	0.00279669177381182	-0.000741287372409736	0.0102777571439628
8.3	-0.0120128897425376	-0.0104982087925052	0.00181789598315945	0.00256201663698627	0.00182300773186702	0.00255950821016166	0.00132905267442317	0.0104775215900437
8.4	-0.0129775615831998	-0.00843595911128511	0.00217336857786823	0.00229197682405534	0.00216217985821029	0.00229220855271585	0.00351455808071109	0.0107878230719898
8.5	-0.0105286070478208	-0.00730785849191691	0.00248352688443343	0.00195432448438753	0.0024835198211967	0.00195567903843377	0.00801094165629687	0.00943428927405659
8.6	-0.0115719695703603	-0.00937224900917155	0.00271429544707816	0.00159509341638736	0.00271010952383549	0.00159272910330168	0.00867148415563393	0.00537707352090452
8.7	-0.0134822142567655	-0.00871187809672536	0.00291176251830556	0.00120194271231488	0.00291060291166718	0.0012015149703478	0.00869199523140506	0.00346484791442581
8.8	-0.0148576520665301	-0.0073611255213721	0.00305165551609126	0.000784647037407651	0.00306270306339593	0.000782681125897231	0.00875181812926799	0.00146729117665647
8.9	-0.0157580479779652	-0.00486448043052709	0.00313516395338123	0.000348581565293428	0.00314464460002355	0.000341520674382078	0.00861979338196579	6.31665941038161E-05
9	-0.013145541413625	-0.00288467175932979	0.00314563999158875	-0.000102143186007993	0.00315236428206992	-9.64499143129943E-05	0.0104219154855632	-0.00201763924502623
9.1	-0.012922402338746	-0.00415360286141593	0.00310977384907339	-0.000529446379724428	0.00310999515592483	-0.000529636422420692	0.00914941746189096	-0.00620285390031098
9.2	-0.013129328594874	-0.00367012137950695	0.00300542276535101	-0.000957338167410783	0.00300926139263343	-0.000957060604891284	0.00725183811872644	-0.00846169029771531
9.3	-0.0129154728149426	-0.00328450643350521	0.00283867897775255	-0.00137487806127272	0.00285684693214623	-0.00137508453670727	0.00519891653532695	-0.0104596104302138
9.4	-0.0125811981879044	-0.00230256121308773	0.00262169727146376	-0.00175244102336818	0.00262517500914994	-0.00176348873475624	0.00277626809991435	-0.0115184425150621
9.5	-0.010269114398976	-0.00316233082532212	0.00236181964723519	-0.00210894937744776	0.00237672534940801	-0.00210938489741405	0.00147127299622218	-0.0136064485297227
9.6	-0.0122745946024871	-0.00517556455631681	0.00204944276739415	-0.00242910097063174	0.00204966685010967	-0.00242200865247732	-0.00391481920566778	-0.0155191597554668
9.7	-0.0140854953538584	-0.00435286906552301	0.00168423946553951	-0.00269529266808367	0.00169264781781546	-0.00269679098456533	-0.00861831275249246	-0.0142865895238315
9.8	-0.0153331312625945	-0.00300591467729164	0.00129721495158036	-0.00289964984124786	0.00129547623191189	-0.00290841824812246	-0.0126026529321711	-0.0122288491006852
9.9	-0.0161067595751445	-0.000426541695714854	0.000887688106466934	-0.00305399595475392	0.000875699774713801	-0.0030568050119467	-0.0160872880854879	-0.00871992686227663
10	-0.0133593826574898	0.00123282793661312	0.000448108839337067	-0.00315312445414735	0.00044737220643583	-0.00316057341415833	-0.016584559909678	-0.00560048971685157
10.1	-0.0136300778166452	-0.000101992994457986	-4.13145009946947E-06	-0.00319475822835412	-8.8267200825385E-06	-0.00319761311106706	-0.0195204624934383	-0.00388048787053725
10.2	-0.0144981752542507	0.000745256106409093	-0.000453739408374367	-0.00315660232752122	-0.000466512274989767	-0.0031605238351755	-0.0217486058321736	0.000309492389890315
10.3	-0.014941647292839	0.00213071117580281	-0.000895523247262188	-0.0030577032201021	-0.000895201802662558	-0.00307131400429828	-0.0226954918433613	0.00501230160455676
10.4	-0.0146712134671203	0.00464372781847676	-0.00131869483769451	-0.00291510209553029	-0.00132193776614042	-0.00291295224020712	-0.0222367404657417	0.0104058793746475
10.5	-0.0110434274731757	0.00579134608885868	-0.0017238870561091	-0.00268643585135279	-0.00173016610256554	-0.00269383682291758	-0.0186027274296904	0.0143734478629405
10.6	-0.010351572717797	0.00423418031061437	-0.00208494500208365	-0.00241804854958809	-0.00208646549663192	-0.00242324410664605	-0.0171828631605001	0.016602663477696
10.7	-0.00997331132635127	0.00418003675949246	-0.00239756695217583	-0.00210114953380203	-0.00240081811262956	-0.00211744475244949	-0.0148648293258201	0.0200871379530972
10.8	-0.00991323679668419	0.00415505023989684	-0.00267268907214883	-0.00174613667175957	-0.00266970220696665	-0.00174834136049234	-0.0121090289721662	0.0231474947190505
10.9	-0.00972385511412546	0.00546658411840437	-0.00289675957108126	-0.00135394893259505	-0.00289604427844704	-0.00135916404387429	-0.00824127527479183	0.0267543424420009
11	-0.00628141389661709	0.00551578797702035	-0.00305054839022615	-0.000925194020878514	-0.00304345051006004	-0.000929570058482714	-0.0014137103868455	0.0282694686562835
11.1	-0.00667807267166559	0.00303432437183287	-0.00314790641652147	-0.000508434051843998	-0.0031400343384737	-0.000500034355757393	0.00237987296670738	0.0275335553188156
11.2	-0.00742007938667596	0.00293229366556783	-0.00319062437201486	-5.60438787539033E-05	-0.00319731219375792	-5.27613932618264E-05	0.00700798638614267	0.0279129483051148
11.3	-0.00786368722118905	0.00336977691112791	-0.00316389898870541	0.000396769337115932	-0.00316712263017517	0.000394589297012918	0.0121856046628915	0.0273529584797523
11.4	-0.00791546708025616	0.00476741102787599	-0.00306658619336576	0.000834737598810585	-0.00307127487006225	0.000834922071588719	0.0175564187300538	0.0260135685685407
11.5	-0.00476211531957108	0.00460254335071959	-0.00293332248138145	0.00123957301620402	-0.00292569279810993	0.00124436297327513	0.0246781242913642	0.0219445939316694
11.6	-0.0055470455636465	0.00205725236866135	-0.00272991346962787	0.00164767694404667	-0.00273810147627647	0.00165757456886392	0.0274801379360858	0.0154649829294207
11.7	-0.00673128631194181	0.00217718033129696	-0.00246423230946583	0.00202245459526273	-0.00246598009953196	0.00202621389918521	0.0295724558734745	0.0103358610793763
11.8	-0.00723097829704826	0.0031384399262221	-0.00215419129189699	0.00234782068569155	-0.0021634402092218	0.00235782967476463	0.0310813294203867	0.00502150506810971
11.9	-0.00593362592745829	0.00535214067964746	-0.0018092246987903	0.00261851181400917	-0.00180920789028133	0.00262515869085804	0.0324579211471199	0.000378409359327896
12	-0.00165399244810315	0.00470239140358647	-0.00142369089526937	0.00285434149801419	-0.00142823307194564	0.0028572140107983	0.0346522441177708	-0.00661390945145244
