# GHZ S RI R 50
0.2	-0.0138203149815131	0.00539834469782103	0.00304386098053784	-0.000885450007701146	0.00305431876023631	-0.000885298963703362	0.00594451374747137	0.00087661077376404
0.3	-0.0129977622285706	0.00585071978925718	0.00289744305329959	-0.00130139391153394	0.00289115770485908	-0.0013130320814702	0.00627268332418379	-0.00143145921631575
0.4	-0.0122815045833278	0.00642456565634493	0.00268292553747359	-0.00169534893465404	0.00268082065157037	-0.00169725990781343	0.00583812858054401	-0.00339132468206245
0.5	-0.0119283064952435	0.00718471987035519	0.00241318338818793	-0.00205154813813368	0.00241599574110147	-0.002055272267958	0.00472091113017706	-0.00490655423381443
0.6	-0.011096675399443	0.00828208281319279	0.00210098817208345	-0.00237154873257235	0.00210024505625008	-0.00237438968322924	0.00366387852898112	-0.00599557918292814
0.7	-0.010271978053696	0.00902749704228577	0.0017504030621463	-0.00264135245919194	0.00175660568800008	-0.00264544398987851	0.00219900493228418	-0.00695209044193149
0.8	-0.00936649601641922	0.00973990885734331	0.00135708246764291	-0.00286087457087209	0.00136535018280848	-0.00285927951756181	0.000498534897927185	-0.00738418267711321
0.9	-0.00842318579225285	0.0102598480398933	0.000953144166259241	-0.0030124356066068	0.000953125692695347	-0.00302184481212005	-0.0011513415728084	-0.00742990289272889
1	-0.00783432840597108	0.010369105239729	0.000521040073298538	-0.00312098747151648	0.000520892792981743	-0.00312634135066362	-0.00300466680443006	-0.00720940836875276
1.1	-0.00751880368678886	0.0110395800641547	7.34228583287357E-05	-0.00316093865492547	7.43103821250568E-05	-0.00316566259906767	-0.00469316746998516	-0.00598066967580928
1.2	-0.00692486476790748	0.0112273653687959	-0.000365018780041802	-0.00313363307659916	-0.00036379225365672	-0.00315041757066439	-0.00549945133272445	-0.00469114780731875
1.3	-0.0067468238727255	0.0110822294122812	-0.000795654294926489	-0.00305949651023492	-0.000800588283026961	-0.00306714814712483	-0.00563001717353176	-0.00342586216619795
1.4	-0.00651532880527861	0.010931406088812	-0.00122127978052934	-0.00291487115664607	-0.00122369259095498	-0.0029219981622418	-0.00530804880636543	-0.00262056509727957
1.5	-0.00614612216150575	0.01118491517906	-0.00161350458292279	-0.00271668726771594	-0.00161153343757175	-0.00272222666317094	-0.00517351571063033	-0.00193637931412638
1.6	-0.00493563168640701	0.0118520596623015	-0.00197582045208158	-0.00245996148666806	-0.00197928864610989	-0.00246084047409549	-0.00507884149647041	-0.00085711354361913
1.7	-0.0036919748016591	0.0120704208479503	-0.0023003030419656	-0.00216604348918853	-0.00230234949866167	-0.00217462661512841	-0.00483540836986935	0.000289906649654684
1.8	-0.00258323455128358	0.0122838446268267	-0.00257714847719171	-0.00181728518340539	-0.0025823214761336	-0.00182274385895178	-0.00433078874297552	0.00144511938786166
1.9	-0.00157146051282147	0.0121778791946482	-0.00280302455237803	-0.00144820991409476	-0.00279951564191248	-0.00144202313903375	-0.00351638174559862	0.00241294694968017
2	-0.0011713713682047	0.0121472726426694	-0.00297775014887318	-0.00103621219135411	-0.00298048831737917	-0.00102937305383059	-0.00278227095316159	0.00331770966710977
2.1	-0.000273790079500487	0.0126362718960251	-0.003092681947191	-0.000605196641339677	-0.00309477988121334	-0.000611888158796798	-0.0012975763075835	0.00416691891653937
2.2	0.00079685992657533	0.0126819695868557	-0.00314670988808433	-0.000174666265197767	-0.00314852538542275	-0.00016494700990855	0.000467702596240778	0.00423265285383714
2.3	0.00173664120198085	0.0124715996885529	-0.0031387391130624	0.000267409310591951	-0.00314549034473894	0.000264499149885739	0.00210482779526975	0.00374874852047855
2.4	0.00263310690511723	0.0120268113499365	-0.00307844884030032	0.000701900575174895	-0.00307728053299328	0.000717010321888924	0.00368591513385706	0.00283344198985716
2.5	0.00284357216145451	0.011256624650558	-0.00294345899627672	0.00113273119510979	-0.00295645472228092	0.00113402246817884	0.00474425336606868	0.00135490551369426
2.6	0.00296128236710256	0.0114092584375752	-0.00275467919676293	0.0015282610353255	-0.00277559866131416	0.00153216328115853	0.0056488185396612	3.95869941386128E-05
2.7	0.00355757332450683	0.0115674198001376	-0.00252273753577388	0.00189781726517671	-0.00252301800917246	0.00190290271867211	0.00632240555943503	-0.00172524329013584
2.8	0.0044716564086013	0.0116657900190127	-0.00222774804469603	0.00222291147648291	-0.00223758418334198	0.0022341033630819	0.00660088812825698	-0.00355746895139088
2.9	0.00563076502506918	0.0113696791539558	-0.00189172716956972	0.0025157291763302	-0.00188980240078901	0.00252463881180146	0.00665002991225415	-0.00545180899983935
3	0.00635215169464904	0.0108789022623676	-0.00152187284143936	0.00275983950652303	-0.0015369551861353	0.00274678979001858	0.00614149592857198	-0.00729736712534617
3.1	0.00744909129530994	0.0107757515998988	-0.00112209807780655	0.00294410827415036	-0.00113905065765358	0.00294951549954216	0.00558691949256853	-0.00891905208231014
3.2	0.00855375273873327	0.0101523082929192	-0.000702490481476708	0.00306905587144737	-0.000698219999822502	0.00307986773788139	0.00442244027884017	-0.0106625504207069
3.3	0.00947280560369143	0.00930348179535648	-0.000273165872833099	0.00314081375188359	-0.000269865239806809	0.00313643180940106	0.00288116253569626	-0.0122245944279389
3.4	0.0102189856326271	0.00822501386444281	0.000172569061087198	0.00314984290023817	0.000163133697535063	0.00315092255575772	0.00103824909861571	-0.0136982610829326
3.5	0.0102458058747939	0.0071250070026645	0.000608038260300479	0.0030937142356622	0.000613050348393781	0.00309238081439319	-0.00156852335883148	-0.0149197696090103
3.6	0.0105783699556868	0.00679542146189406	0.00102828495226277	0.00297234310627615	0.00103488872611075	0.00297583364886284	-0.00411418637466207	-0.015184975724192
3.7	0.0111888357418584	0.00606719296455879	0.00144463386251545	0.0027959841493942	0.00144289411749467	0.00281236308019143	-0.00668215140732543	-0.015243685277495
3.8	0.0117368733188908	0.00513428814965758	0.00181330458418178	0.00256948557474496	0.00182391393077864	0.00257583677155001	-0.00939104370809885	-0.0148274145152957
3.9	0.0121508627259271	0.00390889526669485	0.00216157055620661	0.0022908692609055	0.00215696946424752	0.002290776053905	-0.0120790038156468	-0.0138976963578157
4	0.0117357853989882	0.00273877214498985	0.00245207163378953	0.00196998891187272	0.00246351936794468	0.00197612184932746	-0.0148273763470796	-0.0122769069149777
4.1	0.011739689280314	0.00253362431330218	0.00270291683435388	0.00160461633014204	0.00271948720729215	0.00161439029411376	-0.0166840102852897	-0.00971864160934671
4.2	0.0121853783524664	0.00187618504921263	0.00290530764121285	0.00120809112502805	0.00290654192439767	0.0012103774254382	-0.0179544421629416	-0.00723087242952435
4.3	0.0125323666010524	0.000959007825374177	0.00304841293939813	0.000799608981248864	0.00304960279940331	0.000808195399156408	-0.0188224975434018	-0.00470849444886113
4.4	0.0126819492013754	-0.000316664553382224	0.00312681167669476	0.000363790485508499	0.00313473111977866	0.000359149750005535	-0.0193024152227678	-0.00212870300611639
4.5	0.0118952048756706	-0.00160594315972804	0.00314971616071099	-7.92963435584073E-05	0.0031465260592799	-7.70345785537268E-05	-0.0196817203286791	0.000454934956289753
4.6	0.0112504249983875	-0.00184428209515436	0.00309812426841632	-0.000525461377886831	0.00311116116146276	-0.000513475168326417	-0.0193413350577171	0.00347857016413174
4.7	0.0110559998914436	-0.00221026196068629	0.00299625224768414	-0.000939450496397575	0.00299615601376008	-0.000948889444474454	-0.0184864390935677	0.00604244842066986
4.8	0.0109081564252792	-0.00265986328226871	0.00284702543946285	-0.00134242749328259	0.00283937011651034	-0.00136261350595785	-0.0172164271196728	0.00855121648655122
4.9	0.0110352395010461	-0.00329558523450672	0.00263150799738545	-0.0017395384064373	0.00262543363336786	-0.00173109408913931	-0.0153758229285041	0.010742085458051
5	0.0106550379821305	-0.00410310760290859	0.00235727624167261	-0.00207277019754583	0.00236002885101249	-0.00208520299198413	-0.0132329229180781	0.0126041701363075
5.1	0.0109640554550523	-0.00434095578399563	0.00203421247685848	-0.00239807409832511	0.00204745104108557	-0.00239559507627128	-0.0101993098976851	0.0142214210336877
5.2	0.0114443287689153	-0.00543234747691731	0.0016906971536588	-0.00265491726130057	0.00169119760893527	-0.0026590814818214	-0.00702737157785823	0.0147471473421568
5.3	0.0114753246472982	-0.00684703401360374	0.00130062937945297	-0.00286625332894031	0.00129688186091371	-0.0028688265240085	-0.00401789516495057	0.0147246104093909
5.4	0.0110206650914043	-0.00837117014708593	0.000889480233114868	-0.0030260922581003	0.000888590839281181	-0.00302855302055222	-0.00111152821789851	0.0140360347119378
5.5	0.00942024576067138	-0.00933804191690919	0.000448223655899076	-0.00312122157754462	0.000460813538873328	-0.00312121210949558	0.00105096917675277	0.012908017073125
5.6	0.00882024863235962	-0.00904008960270613	1.39829417777337E-05	-0.00314905496096953	1.06872586686134E-05	-0.00314559285985101	0.00344849155760961	0.0118143072509393
5.7	0.00861268412014585	-0.00946031790571941	-0.000418632580680051	-0.00312244486590491	-0.000422353130897482	-0.00312613263337871	0.00534163261737495	0.00989285780499514
5.8	0.00832564350452928	-0.010109479433626	-0.00085368145833444	-0.00303209298370963	-0.000852956780066883	-0.00303978024162039	0.00666054494368536	0.00765749544821586
5.9	0.0079709234348941	-0.011137420425364	-0.00127151570082909	-0.00287874518221077	-0.00126991869750106	-0.00288290022882222	0.0074601722687838	0.00520588989497928
6	0.00627400302061399	-0.0127038815550364	-0.00165940392510841	-0.00267073888964074	-0.00165341893815983	-0.00267409442158706	0.00708452788880391	0.00255943634063587
6.1	0.00436995810303012	-0.0124924260784498	-0.00201546743529861	-0.00242052885807025	-0.00201132891691274	-0.00242529648123039	0.00666265791550763	0.000989786783102444
6.2	0.00317670139721542	-0.0123610151316209	-0.00233569732968423	-0.00210515474539986	-0.00233212665897094	-0.00211382163280476	0.00631846702772312	-0.000979620122873527
6.3	0.00234354691926706	-0.0122286908420796	-0.00260316734705407	-0.00176552590671264	-0.00261298829926119	-0.00177327661924832	0.00568490864780019	-0.00305068014394071
6.4	0.00170509708463792	-0.0125783772984007	-0.00282939764617853	-0.00137962698007101	-0.00282741352594814	-0.00138542268430394	0.00478593678585462	-0.00526861973139112
6.5	0.000252415322395131	-0.0127448047745269	-0.00299284721365703	-0.000979237954502872	-0.00299325066022045	-0.00097811592077348	0.00305203003831243	-0.00718914062146332
6.6	-2.88843964366161E-05	-0.012109112127222	-0.00309912446862946	-0.000554147799744099	-0.00310979589033028	-0.000557148920897297	0.00160191445867477	-0.00858555309282374
6.7	-0.000314073169036696	-0.0122945512846745	-0.00314398267067471	-0.000118803563892071	-0.00314293550040689	-0.000112564533332571	-0.000666680355882391	-0.00980156092430785
6.8	-0.000818461915310752	-0.012369458092542	-0.00312860055672857	0.000329734657275006	-0.00312769089441883	0.000334494322969735	-0.0032324377753188	-0.0100166067194821
6.9	-0.00133810735077233	-0.0127502266820384	-0.00304588458282222	0.000758932558058279	-0.00304630511586842	0.000763916075304278	-0.00549571593415278	-0.00963565775168417
7	-0.0032061908384283	-0.0128956570268201	-0.0029177814677085	0.00117692608034673	-0.00291919577754007	0.00118014435432909	-0.00815508901208291	-0.00867485084674911
7.1	-0.00392910223577387	-0.0113616960809297	-0.00271908831411423	0.00157713415306828	-0.00272150188407425	0.00158815853537432	-0.00968239387272315	-0.00651965342882796
7.2	-0.0039259290105925	-0.0107657886127286	-0.00247769325013372	0.00193814941953441	-0.00247787069247913	0.00194404547662009	-0.010743202346879	-0.00463251339852904
7.3	-0.00399317410897915	-0.0105020563345031	-0.00218718855328515	0.00226262691162744	-0.0021844252198916	0.00226409883190859	-0.0114050728577068	-0.00248851818295806
7.4	-0.00396401380605069	-0.0108465159155153	-0.00184555508564513	0.00254708843185484	-0.00183833241937873	0.00255360801221269	-0.011451457304371	-0.000503865372730951
7.5	-0.00547662293871422	-0.0120780977382877	-0.0014661035988956	0.00278399018005045	-0.00146714600581682	0.00278197608390956	-0.0115568587205756	0.00114488074898425
7.6	-0.00715422635938008	-0.0114066261727382	-0.00107091804574255	0.00295845558779601	-0.00106025072765776	0.00296878732556588	-0.010783694490969	0.00354558513743695
7.7	-0.00827659146662186	-0.0110318156295027	-0.000642147774346295	0.00308122109331827	-0.000636586431209757	0.00308086650975867	-0.00959596390030257	0.00487420651904571
7.8	-0.00922468269567929	-0.0107239294132304	-0.000196092148789915	0.00314204622735265	-0.000209739006120474	0.00313498522690808	-0.0081928943452971	0.006141931426804
7.9	-0.0101642414322643	-0.0106222926349254	0.000228794767843899	0.00312822343444974	0.000239880114508254	0.0031279015085659	-0.00645870287947239	0.00716368844954583
8	-0.0120997528266063	-0.00973335282052689	0.000664300964313581	0.00306922486168583	0.00067257908723416	0.00306713813088225	-0.00500050999398085	0.00810957020984706
8.1	-0.0120327577734188	-0.00776660154600262	0.00109296366592503	0.00294552555627774	0.00109068274170038	0.00294227850144403	-0.00229036511876081	0.00911038096183331
8.2	-0.0117077827607996	-0.00696085050473126	0.00148435764969951	0.00276414354721286	0.00148354637583049	0.00277571821947035	0.000359851328561633	0.00901059686104428
8.3	-0.0115566704459004	-0.00642384652494933	0.0018570854265954	0.00253136680447133	0.00186215371958844	0.00252877936111082	0.0029054198543691	0.00845564679629224
8.4	-0.0114919144622485	-0.006298972066864	0.00220280949267	0.00224928312719154	0.00219166247691738	0.00224969380650886	0.00536218172168785	0.00715553853361386
8.5	-0.012943934595715	-0.00612195575769437	0.00249583163575826	0.00191522227234652	0.00249584103743138	0.00191657069245028	0.00671786906682466	0.00535946941911377
8.6	-0.0133085577700529	-0.00398288929730945	0.00272883430211125	0.00155689493733332	0.00272462718113349	0.00155458932586015	0.00846672910854608	0.00389964849818763
8.7	-0.0126689019309055	-0.00277942459950074	0.00291898804706551	0.00115725469541254	0.00291782627526595	0.00115684458269424	0.00973639021056581	0.001362381913759
8.8	-0.0118609722915818	-0.0020760546720848	0.0030472445210568	0.000738627211403457	0.00305820978712253	0.000736518697668188	0.0101658815154181	-0.00139236488622627
8.9	-0.0108719008065606	-0.002248469252534	0.00311993462529141	0.000309444749151451	0.00312927348423419	0.000302315573069236	0.0102130556627156	-0.00417632648722044
9	-0.0113361039138941	-0.0031315962705791	0.00313509207089614	-0.000137358151162583	0.0031418605665262	-0.000131757811965654	0.00925531209168971	-0.00704141206570661
9.1	-0.0115767027020158	-0.00272538023658075	0.00308722654720332	-0.000571655672321726	0.0030874440568412	-0.000571847987275043	0.00828848242833065	-0.00921082342622398
9.2	-0.0117673367193149	-0.00291243531292205	0.00297112232784197	-0.000991831101982539	0.00297493773010571	-0.000991608160666118	0.00676297134347254	-0.0116794504313797
9.3	-0.0123547676503562	-0.0028543999871333	0.00279938562785779	-0.00139934567917222	0.00281740875507963	-0.00139977603813675	0.0045782488919999	-0.0136438982480872
9.4	-0.0129718550173865	-0.00272583587665075	0.00258369401505107	-0.00177125001676872	0.00258701966645214	-0.00178226419535993	0.00206437334141555	-0.0152357241773484
9.5	-0.0145238233931036	-0.00183549885704993	0.00231182635773228	-0.00212970898730169	0.00232661489654689	-0.00213037092629642	-0.00135887765546709	-0.0160429968559735
9.6	-0.0144080190130954	0.000243624960899166	0.00199175267043652	-0.00242924543865962	0.00199207274206614	-0.00242223900910776	-0.00426702913092274	-0.0159448592428127
9.7	-0.0137833717207611	0.00123769771361592	0.00163144543837883	-0.00268243149758196	0.00163973302545149	-0.00268401190017563	-0.00761112089602416	-0.0156960042638384
9.8	-0.0132228452300913	0.00189928949799421	0.0012486018381052	-0.00287890738298444	0.00124678523993718	-0.00288754907544786	-0.0111261829117977	-0.014488528608224
9.9	-0.0126497364404497	0.00201596262894081	0.000838378940710428	-0.00302590497891353	0.000826509270511175	-0.0030285291274774	-0.0144432145777688	-0.0124351115981112
10	-0.0136281560324355	0.00199234377165813	0.000403618287767357	-0.00310232109246779	0.000402808431681469	-0.00310962923375949	-0.0178281964190605	-0.00957675142870703
10.1	-0.0136226857362193	0.00378135136334903	-2.71881106979371E-05	-0.0031389504262948	-3.18220727599755E-05	-0.00314172147353041	-0.0197209630236155	-0.00545129590126202
10.2	-0.0127470343270142	0.00467168922053924	-0.000466659362996266	-0.00310078482314417	-0.000479243796410542	-0.00310455762268907	-0.020716150287464	-0.00160597750195523
10.3	-0.0117911528397193	0.00507656352559052	-0.000899049984249871	-0.00299887263190124	-0.000898819231324662	-0.0030122484749324	-0.0209644680645137	0.0024785579615091
10.4	-0.0108766821965106	0.00460512303279294	-0.00130771779917104	-0.00285016197429543	-0.00131088490652791	-0.00284803792405107	-0.0201377430190806	0.00623241775061641
10.5	-0.0117676475017392	0.00405467313411235	-0.00168719282891176	-0.00263262440793794	-0.00169333958113323	-0.0026398780046562	-0.0192654445066555	0.00978369643754978
10.6	-0.0120779777086454	0.00504460818754948	-0.0020474736733849	-0.00237978268202616	-0.0020489631962247	-0.00238489287584534	-0.0171718238740087	0.0135061545632909
10.7	-0.0120848804520772	0.00598954898057437	-0.00235559664236888	-0.002067923915946	-0.00235877961037248	-0.00208394858671716	-0.0145874294409228	0.0168008851953948
10.8	-0.0114232331463045	0.00724071464372446	-0.00262265755673415	-0.00172077096742327	-0.00261971862485491	-0.00172293141644797	-0.0111987033711608	0.0200017335551105
10.9	-0.0103443656636802	0.00778351482250745	-0.00283940345433973	-0.00134473294113238	-0.00283867466437417	-0.00134985337684712	-0.00696881036881484	0.0222486064216477
11	-0.0104984280036021	0.00813017967884708	-0.00300655018853542	-0.000931641022404784	-0.00299951589232068	-0.0009359196593001	-0.00284721512749641	0.0237741467174711
11.1	-0.00925805658580653	0.00985541766784856	-0.00310352989329915	-0.000511554470473232	-0.00309579149252543	-0.00050324379248695	0.00249829636542986	0.0248503495126397
11.2	-0.00734118798938169	0.0102287041283668	-0.00314323986586759	-6.94832995011382E-05	-0.00314984356917921	-6.6279210979328E-05	0.0079089637465917	0.0242743628672045
11.3	-0.00544300902510462	0.00985519291564461	-0.00312095427200894	0.000370858096772944	-0.00312411765207728	0.000368688803791166	0.0131809284718164	0.0228391933182722
11.4	-0.00391044972340687	0.008645268016598	-0.00303665787060216	0.000801647454975464	-0.00304129251983253	0.000801794240509401	0.0182427308700593	0.0202065381362254
11.5	-0.00418882993782115	0.00744152966651375	-0.00290424118379789	0.00121458848836561	-0.00289671657142361	0.0012193515417627	0.0220464152989857	0.0165273554039051
11.6	-0.00338363973154925	0.00764432363698158	-0.00269903723002313	0.00160766864169994	-0.00270716106565547	0.00161737305285033	0.025990136890687	0.0125433762962853
11.7	-0.0021479782754811	0.00661839055314985	-0.00244614257345072	0.00197419644374428	-0.00244789636795465	0.0019778889952651	0.0290850364569536	0.00719635491931406
11.8	-0.00131091557187351	0.00501256203644202	-0.00214824730563217	0.00229939281414994	-0.0021574700683287	0.00230919476859799	0.0310947469178188	0.00135655848055781
11.9	-0.00112350515047492	0.00252585589460931	-0.00180758814705279	0.00257412085749854	-0.00180762142295093	0.0025806896462173	0.0319773890258719	-0.00488252660326047
12	-0.00383577787833288	0.000921515273985031	-0.00142487829172135	0.00279677600574062	-0.00142937196309729	0.00279956450358566	0.0304985048366405	-0.010937835667346
