# GHZ S RI R 50
0.2	-0.0141311041391356	0.00472030688152279	0.00304772745453275	-0.000884349775261721	0.00305819636623732	-0.000884191521068597	0.00577439983282874	0.000316867612020116
0.3	-0.013251804568567	0.00540876125170996	0.00290245155574578	-0.00130073293512473	0.00289616743056974	-0.00131239210713724	0.00615094985093282	-0.00175794232291382
0.4	-0.0124865278265399	0.00631942656406177	0.00268918156777766	-0.0016958599626253	0.0026870747453748	-0.00169777621453462	0.00571635573470316	-0.00340245148516047
0.5	-0.0113845208268551	0.00698001989924739	0.00241944777495845	-0.00205459265787219	0.00242226815999749	-0.00205832317484444	0.00514528924255525	-0.00497786789412819
0.6	-0.010971014940387	0.00729245048935821	0.00210619599408135	-0.0023752089385157	0.00210545274465349	-0.00237805578736217	0.00358409789632966	-0.00654636937534134
0.7	-0.0106424766255307	0.00813391045835776	0.00175561098567892	-0.00264607409662339	0.00176182918484721	-0.00265017103195107	0.00175528630455131	-0.00718331135682149
0.8	-0.0100556082858058	0.00901484805941134	0.00136162312080523	-0.00286721105808491	0.0013699101669803	-0.00286560851964751	-6.27503306795694E-05	-0.00733616144821391
0.9	-0.00953660222223231	0.00999403639972496	0.00095594222901145	-0.00302024995195388	0.000955924631322039	-0.00302968385953707	-0.00186980457104822	-0.00698991807109469
1	-0.00831710411931424	0.0111705791632226	0.000521685218178475	-0.00312808696876303	0.000521536705564515	-0.00313345285145267	-0.00306044606541869	-0.00609861094774453
1.1	-0.00723617958401645	0.0110620234472943	7.42719065349052E-05	-0.00316851481995216	7.51625672457372E-05	-0.00317324992097772	-0.00436909882648359	-0.00576731829950931
1.2	-0.00688127946010625	0.0108966850171359	-0.000365932628714895	-0.00314221275449495	-0.000364702295985988	-0.0031590431176912	-0.00568000315796259	-0.00473424257254264
1.3	-0.00685591405338596	0.0104905238152369	-0.00079872304034529	-0.00306794726671575	-0.000803673039428288	-0.003075619253393	-0.00619188495513028	-0.0034853748224745
1.4	-0.00689180173684431	0.0102966435778254	-0.00122595295862697	-0.00292203131530222	-0.00122837566972067	-0.00292917610774763	-0.00613697478285534	-0.00237205624234703
1.5	-0.0060270407844525	0.010320528863206	-0.00161786908415248	-0.00272380488909399	-0.00161589293758231	-0.0027293589939104	-0.00552780843740545	-0.0016179029955967
1.6	-0.00552996030525946	0.0105225513265414	-0.00198326612629191	-0.00246762469870895	-0.00198674629310197	-0.00246850554336083	-0.00581317294193379	-0.000525622021373971
1.7	-0.00456947673082255	0.0112063640833305	-0.00230994418879882	-0.00217150518464881	-0.00231200476970582	-0.00218011584375551	-0.00539254099789179	0.00108213680645097
1.8	-0.0034468402325935	0.0117997987624296	-0.00258762638667862	-0.00182046312585272	-0.00259282239362289	-0.0018259341495087	-0.00461997323400804	0.0023962546734501
1.9	-0.00223098274465046	0.0122563980658452	-0.00281367263261005	-0.00144998516264595	-0.00281014580331043	-0.00144378192104395	-0.00355470717893779	0.00356901668686861
2	-0.000596160018858805	0.0122275017833144	-0.00299090725941788	-0.00103678757840625	-0.00299364818301571	-0.00102991779269446	-0.00203639352476126	0.00422169107764013
2.1	0.000126495162502894	0.0115496567956881	-0.00310604009678196	-0.000600590949018448	-0.00310816121424785	-0.000607303707899168	-0.00102792581280959	0.00434395699396259
2.2	0.000613457323173932	0.0114683523149798	-0.00315812702188594	-0.000167331677728284	-0.00315992431573329	-0.000157573936953831	0.000359212825723113	0.00461108496038461
2.3	0.00109556183162049	0.0114032518855733	-0.00314859918985549	0.000276661919453416	-0.00315538090412943	0.000273759921526587	0.00189885766588373	0.00433322135919286
2.4	0.00156484864924773	0.011591020720461	-0.003087378824312	0.000713335479767207	-0.00308616250290882	0.000728495664642909	0.00343649209127828	0.00372354675529572
2.5	0.00267275111101953	0.0117777169799224	-0.0029491368910344	0.00114851914055613	-0.00296217261901462	0.00114986721619263	0.00519150389465528	0.00247445517432871
2.6	0.00348530883923857	0.0111614842641604	-0.00275507301507354	0.00154337441875481	-0.00277602732142308	0.00154737266620797	0.00610456877013932	0.000352242257775564
2.7	0.00403683171058807	0.0108850890216299	-0.00252080159404749	0.00191225134096383	-0.00252106224495324	0.00191734940893175	0.00637704179947754	-0.00155665468882344
2.8	0.00473787258591836	0.0107194030096875	-0.00222319757518218	0.00223723677753633	-0.00223300777848428	0.00224849493260818	0.00631645592221747	-0.00332316702274652
2.9	0.00571879102167173	0.0106133475490514	-0.00188328653387905	0.00252980148268306	-0.00188131495413223	0.0025387192984331	0.00616466113780277	-0.00486788043112943
3	0.00718178274468073	0.0100219977725229	-0.0015089058161514	0.0027695941799046	-0.00152406559476263	0.00275661190284297	0.00602353208113921	-0.00664420265617884
3.1	0.00789794463995072	0.00902230752166066	-0.00110997874410337	0.00295070294647411	-0.00112691779060913	0.00295618691060438	0.00497963760922162	-0.00844063659999239
3.2	0.00848821895729406	0.00835607953511422	-0.000689083302698105	0.00307416744462001	-0.000684761323292785	0.00308496687526538	0.0036584930113053	-0.00972362986670209
3.3	0.00903070913805036	0.0076419992574151	-0.000258191327289339	0.00314305110905641	-0.000254910723596041	0.00313865205059006	0.00217574436192461	-0.0109324412824731
3.4	0.00953927115403623	0.00707370241657588	0.000187882666284594	0.00314753799231504	0.000178456957195516	0.00314866325867664	0.000498511050361642	-0.0119879121020046
3.5	0.0104436586032829	0.00622828436909392	0.000619487587340542	0.00308868730458094	0.000624490183030753	0.00308733563541906	-0.00133492635247527	-0.013179734972643
3.6	0.0105710158973952	0.00494431174607746	0.00104018031954856	0.00296763087603701	0.0010467970945903	0.00297109395422467	-0.00411102006658067	-0.0139404736599762
3.7	0.0104959782560088	0.00425203368137626	0.00145637857608309	0.00278805969072364	0.00145471297779772	0.0028044378180594	-0.0067937641929343	-0.0137538389336746
3.8	0.0105910256457983	0.00377257092657724	0.00182293836076972	0.00255875990241124	0.00183356526865584	0.00256505720322812	-0.00935497496430626	-0.0131734795527041
3.9	0.0109742690604331	0.00348247015548365	0.0021678631424131	0.00227909394284553	0.00216326787863094	0.00227901935250094	-0.0117955136379975	-0.012086441606679
4	0.0120196513439781	0.00274113678350119	0.0024585336824122	0.00195917973193813	0.00246999943367103	0.00196526389317804	-0.0138180479087411	-0.0108098461981672
4.1	0.0122574479715926	0.00132271398113618	0.00270789058838514	0.00158930552549081	0.00272449113732164	0.00159898569695783	-0.0161765751280276	-0.00902962876563957
4.2	0.0122427497043021	0.000350259808679185	0.00290564191942857	0.0011916013238871	0.0029068849968616	0.00119387722504307	-0.0179086341050396	-0.0064361017856728
4.3	0.0121921660060497	-0.000483623246105207	0.00304514581739156	0.000783881226725109	0.00304637216759821	0.000792442731819877	-0.0190038728789739	-0.00373407217361765
4.4	0.0121343747823068	-0.00112713019845575	0.00312176984496519	0.000349222469436482	0.00312965197968006	0.000344556660372711	-0.019603815889596	-0.000798917194380479
4.5	0.0126124793574825	-0.00195989256924097	0.00314166665684639	-9.63855517365889E-05	0.00313849667668828	-9.41117520592005E-05	-0.019387453405387	0.00186985638497538
4.6	0.0122316736115969	-0.00343529042735578	0.00308338644228984	-0.00053913716144762	0.00309643337083934	-0.000527263816026757	-0.0194845516421357	0.00433587949538524
4.7	0.0116277181925173	-0.00422136474038551	0.00297950657585077	-0.000948760414627203	0.00297936898309635	-0.000958159278349922	-0.0190232472057161	0.00720599529208108
4.8	0.0110712040579458	-0.00481797329901402	0.00282909613024417	-0.0013485368295587	0.00282138943561791	-0.00136860351509808	-0.0178411208938834	0.0100491544064101
4.9	0.010826706197927	-0.00510219517959901	0.00261161825873504	-0.00174315024713587	0.00260560943618743	-0.00173471809160357	-0.0159296668609024	0.0126891091851399
5	0.0112895506671157	-0.00583670358369531	0.00233401188253188	-0.00206967753959457	0.00233669573280348	-0.00208204448170837	-0.0130849038303721	0.0145285841090789
5.1	0.0110065048082178	-0.00710314482579276	0.00201517836258661	-0.00238854709467735	0.00202834109016787	-0.00238611866911683	-0.0104753074726863	0.0158306597989069
5.2	0.0106441236263275	-0.00790814241526368	0.00167423701654199	-0.0026429037398241	0.00167472462374054	-0.00264704403809309	-0.0073091313426706	0.0167510515466146
5.3	0.0103550132605954	-0.00865613651818302	0.00128614636892661	-0.00285111717249886	0.00128241671782527	-0.00285366595077937	-0.00405062726864275	0.0168788886046828
5.4	0.0101556963870728	-0.00919216968687279	0.000877800639387431	-0.00300642847060898	0.00087691307806147	-0.00300887034875515	-0.000885135633000011	0.0163355957746092
5.5	0.0104433585089895	-0.0102478098827136	0.000444886099382875	-0.00309883652964883	0.000457385619669501	-0.00309882761549653	0.0020315522859231	0.0147146813658561
5.6	0.00943015455935016	-0.0116912199266162	1.41653718025802E-05	-0.00312986849411948	1.08894729538625E-05	-0.0031264277655452	0.00358584565137241	0.0130524481215401
5.7	0.00821970328504236	-0.0122436000188326	-0.000415943178981427	-0.00310297022615045	-0.000419640421044283	-0.00310663507262374	0.00523743991801777	0.0116165339545942
5.8	0.00717754642608463	-0.0125359728580158	-0.000846716929467573	-0.0030126083690598	-0.000845993526903868	-0.00302024492226819	0.00675517345166906	0.00959015736055204
5.9	0.00622645210280642	-0.0123737719923302	-0.00125890708850538	-0.0028615543418766	-0.0012573145929928	-0.00286567957237574	0.00775652370584296	0.00726280960951899
6	0.00626448173864887	-0.0124555120508526	-0.00164573332319858	-0.00265987093144892	-0.00163977336992694	-0.00266319772752503	0.00838711866036056	0.0042853472907371
6.1	0.00537907835624558	-0.0136508388481532	-0.00200163051847619	-0.00240912758769788	-0.00199751009332051	-0.00241386416117553	0.00725147809298509	0.00121755194233195
6.2	0.00392234313560894	-0.0141280447193801	-0.0023181502130096	-0.00209617026066095	-0.00231458718908023	-0.00210477888007029	0.00572367653359677	-0.00070145075694928
6.3	0.0027169483320923	-0.0141807878972863	-0.00258357496922277	-0.00176106277549701	-0.00259331947459204	-0.00176879016299654	0.00440409815992594	-0.0021450807653567
6.4	0.00196174400408055	-0.0139839404267592	-0.00281081651178124	-0.00138023983906383	-0.00280882674108974	-0.00138599980721368	0.00346818578442429	-0.00339356115187197
6.5	0.00197484201420982	-0.0146949962037744	-0.00297585893209897	-0.000979304746412366	-0.00297626221771457	-0.000978189143355245	0.00255550034892109	-0.00532621661158179
6.6	0.000646961757935344	-0.0154905887150548	-0.00307833109168635	-0.000558361321680452	-0.0030889282036051	-0.000561370102802127	0.000499651041600931	-0.00658189520441211
6.7	-0.000515333124641861	-0.0154854217141046	-0.00312473258372239	-0.000128772341925526	-0.00312371288634576	-0.000122567153403745	-0.0014754251691377	-0.00716344895224414
6.8	-0.00155513046861878	-0.0151726879556535	-0.00311259148790581	0.000316164205175166	-0.00311170472032613	0.000320901048446937	-0.00370582722302783	-0.00719571482974764
6.9	-0.00223142143332469	-0.0144114195935759	-0.00303240672720154	0.000744377163022245	-0.0030328422861457	0.000749332875035127	-0.00567656180156283	-0.00642694342629064
7	-0.00184398505464006	-0.0144005242379634	-0.00290297430677859	0.00115786989482305	-0.00290439165083132	0.0011610613761339	-0.00718755721360872	-0.00590741319778729
7.1	-0.00300042036172729	-0.0150914887227816	-0.00271153493121928	0.00155248248880119	-0.00271399548387514	0.00156342711362209	-0.00960038066966082	-0.00445860682541738
7.2	-0.00433200149377968	-0.0148502334118912	-0.00247613625718913	0.00191349839603472	-0.00247634736796841	0.00191936264582026	-0.0108591931214442	-0.00194459523575532
7.3	-0.00565538184804428	-0.0143048557700223	-0.00218986338927308	0.00223838919078202	-0.00218712250455428	0.00223987031054803	-0.0111567798643666	0.000556137245488383
7.4	-0.00691788164330728	-0.0131573409664875	-0.00185197464699443	0.00252191033686079	-0.00184483154380337	0.00252844132387772	-0.0107057657323786	0.00288008377180281
7.5	-0.0068472860998556	-0.0121366003285357	-0.00148214386084697	0.0027585072138892	-0.00148316458827181	0.002756494130759	-0.00923878430154385	0.00417027803065791
7.6	-0.00761917490907066	-0.0124225429826702	-0.00109193513529212	0.00294083416129518	-0.00108138432968382	0.00295122231745778	-0.00877305258813937	0.00475461363285058
7.7	-0.00877902307813219	-0.0119616398347244	-0.000664774220548586	0.00306801513699965	-0.000659224765098902	0.00306770538947356	-0.00830196776765858	0.00571149511820701
7.8	-0.0094685654906405	-0.0113465532150372	-0.000221258783052104	0.0031326866479922	-0.000234814297693057	0.00312553167408053	-0.00752390535889078	0.00689637628361248
7.9	-0.0095046646483989	-0.0106402401505402	0.000199935368714052	0.00312415307206094	0.00021100185184755	0.00312393245320334	-0.00620598930636476	0.00821284460359241
8	-0.00893878511122809	-0.0111957160930255	0.000636369853062363	0.00307596626367893	0.000644668857089329	0.00307395480306205	-0.00455497939290062	0.00876286175348747
8.1	-0.00997400752180257	-0.0116561152939081	0.00106995263062271	0.00295507687643691	0.00106769674779886	0.00295181076534728	-0.00334838482597291	0.00992749023950376
8.2	-0.0109492966533303	-0.0112955353484009	0.0014623843423483	0.0027771188477585	0.00146147873716298	0.00278869074775851	-0.000987073561854801	0.0107956384856108
8.3	-0.0118662586193984	-0.0106167367899487	0.0018374788128109	0.00254948306101507	0.00184257382430912	0.00254693595784194	0.00155774828988374	0.0108600372892469
8.4	-0.0124658698913084	-0.0092852448708262	0.00218902167629537	0.00227286738788569	0.0021778457209784	0.00227318570186368	0.00414600877618496	0.0103442111761094
8.5	-0.0118626424133439	-0.00858076472305228	0.00249006649294425	0.00193652864288793	0.00249006717040866	0.00193788072318828	0.00663085368926469	0.00853860773951384
8.6	-0.0125568259553909	-0.00860036194155321	0.00272272466504451	0.00157829037932674	0.00271852631206487	0.00157595194154534	0.0076375481536806	0.00669625158683303
8.7	-0.0133379214672076	-0.00778547796525308	0.00291716645558362	0.00118124500229836	0.00291600503946132	0.00118082545624824	0.00888676580328224	0.00499894158033581
8.8	-0.0138958443455499	-0.006694526014155	0.00305128590226266	0.00076260133260477	0.0030622996822845	0.000760564532058664	0.00988976187939333	0.00273162549198505
8.9	-0.0140008805448729	-0.00521956414435371	0.00312889439313355	0.000329779710724598	0.00313830979101793	0.00032268333824722	0.0106498847877885	0.000201943751505937
9	-0.0128276355184697	-0.00446569923333681	0.00314259907002035	-0.000118340860836968	0.00314934745380716	-0.000112686935566384	0.0110094098807143	-0.00325703439577363
9.1	-0.0126536796967984	-0.0047668599167761	0.00310107445801936	-0.000550628672303431	0.00310129406645112	-0.000550819979862725	0.00958768455161298	-0.00655094858509149
9.2	-0.0127265184874671	-0.00464128822430662	0.00299024381310482	-0.000975134396462486	0.00299407331012027	-0.000974883873761489	0.00773554078824332	-0.00917654942363271
9.3	-0.0128424802225602	-0.00437721440984661	0.00282069577613166	-0.00138763449307734	0.00283880126948326	-0.00138795155555831	0.00527926785838458	-0.011296229036393
9.4	-0.0127176620430301	-0.00375027822914752	0.00260479456019824	-0.00176231392181699	0.00260820118853184	-0.00177335103492436	0.00252991695233029	-0.0126926751866239
9.5	-0.0120553616017581	-0.00388575939726085	0.00233889377866281	-0.00212142571552184	0.00235375471936089	-0.00212197571865879	-0.000612845854840821	-0.0140229654230104
9.6	-0.0128214183430369	-0.00415376340504322	0.00202136020918544	-0.00243111423374613	0.00202163391811399	-0.00242406049987481	-0.00479267646979988	-0.0138970098543373
9.7	-0.0135079418023545	-0.00355770480164871	0.00165847433253069	-0.00269057689862845	0.00166682685924916	-0.00269211808830262	-0.00822191558547307	-0.0127313278406331
9.8	-0.014043531199449	-0.00266543434314815	0.00127348956228877	-0.00289122759731366	0.00127171006680477	-0.00289993806763122	-0.0113222525982687	-0.011091885392956
9.9	-0.0142089993256825	-0.00122705115145477	0.00086303409325073	-0.00304262808248884	0.000851094740020211	-0.00304534414150092	-0.0140775364611247	-0.00885713579320914
10	-0.0132438812664525	-0.000544798242019894	0.00042431440238354	-0.00312965209763722	0.000423536543935748	-0.00313703418863675	-0.0164037626157217	-0.00681807044141044
10.1	-0.0134789686245731	-0.000539265673446138	-1.67681208522253E-05	-0.00316819149886354	-2.14356930137866E-05	-0.0031710040337316	-0.0193392411359976	-0.00370112465530898
10.2	-0.0138367544911224	0.000219047519256371	-0.00046173447166553	-0.0031301714956064	-0.000474421465686893	-0.00313401547313076	-0.0209797132771406	0.000425210305390712
10.3	-0.0139401214255103	0.00136616421282128	-0.000899634633132241	-0.00302929751140282	-0.000899366784067009	-0.00304279798185875	-0.0214864046730446	0.00483470265304695
10.4	-0.0133331009586255	0.00286779834407827	-0.00131612315277947	-0.00288219753359271	-0.00131932708191544	-0.00288005716370654	-0.0206325166746302	0.00904257271440096
10.5	-0.0116080538563387	0.00330242536391765	-0.00170674217226811	-0.00265780229853527	-0.00171295799782585	-0.00266512389037079	-0.0191111002304613	0.0121353384708939
10.6	-0.0111333460332081	0.00298850177562526	-0.0020670897854187	-0.0023979971051981	-0.00206859679775304	-0.0024031491810452	-0.0180994588544131	0.0155972495487816
10.7	-0.0108846645409447	0.00325277276124807	-0.00237747242634881	-0.00208326848463587	-0.00238069719700872	-0.00209942600905419	-0.016005223947639	0.0194910409804095
10.8	-0.0105514368821568	0.00381345757530329	-0.00264807763158427	-0.00173171256865466	-0.00264511646666438	-0.00173389628426315	-0.0129213217956504	0.0232662135157779
10.9	-0.00976913074467454	0.00474790402095559	-0.00286725975378321	-0.00134771122762697	-0.00286653987387243	-0.00135287691390472	-0.00855011741665635	0.0264507481031713
11	-0.00792399684472532	0.00468115921046572	-0.00302809923032517	-0.000928421604518533	-0.00302103391390861	-0.000932748052228288	-0.00349031007979531	0.0279715471610916
11.1	-0.00748921740296237	0.00398176614454859	-0.0031257221295898	-0.000509018502525998	-0.0031179147250911	-0.000500666094737799	0.00115872422161361	0.0292597113094156
11.2	-0.00716925503197544	0.00380395934066432	-0.00316622940478651	-6.17478561101287E-05	-0.00317287262549795	-5.85032078079311E-05	0.00697508606315286	0.0297163277634259
11.3	-0.00683890960387326	0.00382895907048479	-0.0031413509771083	0.000384312809461421	-0.0031445439018505	0.000382139466133818	0.0131582485107474	0.0287896307698179
11.4	-0.00632159095529555	0.00415312335952928	-0.00305107115790734	0.000817916563390908	-0.00305573193669717	0.000818081978149948	0.0192600463744575	0.026323912758001
11.5	-0.00498608716094392	0.0035603135963157	-0.0029187186494375	0.00122823183332896	-0.00291113893570401	0.00123300632570609	0.0245267691513517	0.0217101377062834
11.6	-0.00501332754849109	0.00254118220389057	-0.00271301320853905	0.00162837946890348	-0.00272116262963877	0.0016381812284897	0.0280825797711547	0.0167892185983703
11.7	-0.00511802145633808	0.00224585527321441	-0.00245383407179627	0.00199830397822071	-0.00245558329018125	0.00200202911779466	0.0313708804457298	0.0112497189855735
11.8	-0.00496856186716335	0.00229576903861093	-0.00215025226294812	0.00232346587990689	-0.0021594839647897	0.00233337076385129	0.0336484687270492	0.00486357948350772
11.9	-0.00388514875360115	0.00252819723310814	-0.0018073839725221	0.00259680171406798	-0.00180738987413194	0.00260340916106545	0.0347968119349189	-0.00204772041596046
12	-0.00260410019474012	0.00137655798182704	-0.00142165410778892	0.00282538869800864	-0.00142616809171438	0.0028282212528488	0.0335765393961894	-0.00959275730380753
