# GHZ S RI R 50
0.2	-0.0137244811884284	0.00527475020948221	0.0030435918774261	-0.000885650103495731	0.00305404900181667	-0.000885499950947082	0.00615892271678556	0.000864916626965252
0.3	-0.0129373112475444	0.00566939584677338	0.00289704115881628	-0.00130163756280636	0.0028907549205661	-0.00131327398956598	0.00643408384380776	-0.00150181262076139
0.4	-0.0122336219967656	0.00619240033392075	0.00268232184480318	-0.00169557476288897	0.00268021690823241	-0.00169748516089928	0.00592635106318158	-0.00352769119387633
0.5	-0.0119108387348927	0.00689526328357725	0.00241241864809786	-0.00205153560664584	0.0024152299052911	-0.00205525947320265	0.00456694713755053	-0.00504181996950662
0.6	-0.0110691556094636	0.00793962651890492	0.00210026390580915	-0.00237143930487068	0.00209952050078749	-0.00237427964130918	0.0034385910855551	-0.00586358429791569
0.7	-0.0102937419041643	0.00858505465626534	0.00174956982726723	-0.0026411295187122	0.00175577045052765	-0.00264522133363375	0.00206007314128266	-0.00668255045006618
0.8	-0.00948350110996652	0.00924524397268844	0.0013561838209743	-0.00286041683919706	0.00136444976084167	-0.00285882379599867	0.000475224053723982	-0.00704182581077572
0.9	-0.00863004260051686	0.00977317476932512	0.000952324000054564	-0.003011669267224	0.000952303891998628	-0.00302107555694024	-0.000978902633339424	-0.00713868543617817
1	-0.00809953368125063	0.00990313633140867	0.000520504283370544	-0.00312016389324205	0.000520356380225793	-0.00312551623033786	-0.00284144144312785	-0.00731100152309602
1.1	-0.00775595602456392	0.0106252947499854	7.27656222686014E-05	-0.00316002711483783	7.36519358985171E-05	-0.00316474985313847	-0.00489551557422297	-0.00615532997445886
1.2	-0.00710499712264115	0.0106698475746795	-0.000365538270257379	-0.0031324045666657	-0.000364315696418364	-0.00314918314427991	-0.0059188563664432	-0.00490431490291112
1.3	-0.00701152520878704	0.0103138588339262	-0.000795873120592011	-0.00305806810077689	-0.000800806419806507	-0.00306571563324319	-0.00636475360644576	-0.00360327414896586
1.4	-0.00690443288437038	0.0100702659787791	-0.00122113681461259	-0.00291344708942325	-0.00122354952377288	-0.0029205706890131	-0.00616634057483659	-0.00254121086357761
1.5	-0.00657090295447158	0.0103501795032882	-0.00161335993472401	-0.00271528143662675	-0.00161139063005404	-0.00272081895380809	-0.00608402627801416	-0.00151459025042911
1.6	-0.00531441801772949	0.011052128930946	-0.00197520421251177	-0.00245822366519429	-0.00197867066243705	-0.00245910149958581	-0.00560470153865598	8.79160460556308E-05
1.7	-0.00407975544266294	0.0113111532315591	-0.00229915081345597	-0.00216450599470576	-0.00230119693917062	-0.00217308376523793	-0.00488733305735555	0.00127592831166764
1.8	-0.00293950925004699	0.0116051919681362	-0.00257570446432585	-0.00181607636840858	-0.00258087465428049	-0.0018215315397966	-0.00407936971393821	0.00228042124781688
1.9	-0.00183841501058772	0.0115552221384511	-0.00280151693594721	-0.00144722029260489	-0.0027980096533514	-0.00144103724292824	-0.00312887285065564	0.00293198930875057
2	-0.00134613102462735	0.0114959151256218	-0.00297582050722575	-0.00103508666506274	-0.00297855584162698	-0.00102825191064282	-0.00276927758277653	0.00355025896681895
2.1	-0.000354221563327282	0.0118998785509422	-0.00309023660295544	-0.000604784301327833	-0.00309233274873764	-0.000611470598069787	-0.00149424630171837	0.00476623618484101
2.2	0.000665658653981057	0.0118024275408595	-0.00314427524446836	-0.000174770264193756	-0.00314609008114603	-0.000165058625439321	0.000429752643158437	0.00502558222495918
2.3	0.00147242390923487	0.011560261016397	-0.00313626920218422	0.000266913863043655	-0.00314301480702345	0.000264005406107245	0.00230192384633401	0.00457668244257898
2.4	0.00227018984844359	0.0112132781448194	-0.00307578210674043	0.00070097383033498	-0.00307461632474189	0.000716070264040058	0.00418458609332036	0.00343738808053038
2.5	0.00250521467840759	0.0105641317468088	-0.00294075045083615	0.00113065913899244	-0.00295373308782227	0.00113194511252651	0.0050739144743214	0.00134261353280814
2.6	0.0027716541646566	0.0107830875797833	-0.0027528944523166	0.00152567374968732	-0.00277379694795332	0.00152956323308155	0.00542886063164861	4.34145388300456E-05
2.7	0.00347502520087432	0.0108609739192262	-0.0025213618901255	0.0018949986891439	-0.00252164441156928	0.00190007951546161	0.00584734765658558	-0.00150125115650177
2.8	0.00444729678991847	0.0108856292831973	-0.0022268268465445	0.00221969028111469	-0.00223665963099023	0.00223086666426066	0.00606816211968681	-0.00306418994934645
2.9	0.0056822023617711	0.0105173452584475	-0.00189157179931994	0.00251197912778876	-0.0018896549485601	0.0025208813173153	0.00619300421755984	-0.00487204153128693
3	0.00648459060256095	0.00990674353407123	-0.00152315763690142	0.00275628655052809	-0.00153821629905552	0.00274323355321408	0.00539880521895041	-0.00669171467364271
3.1	0.00765824200512675	0.0096165468826268	-0.00112362979832729	0.00294124001072539	-0.00114057510184385	0.00294663037508565	0.0048076486925546	-0.00775291438171949
3.2	0.008670187180169	0.00877948250751553	-0.000704472937453084	0.00306626113623027	-0.000700214328616965	0.00307706863333789	0.00392233286027106	-0.0092141932096561
3.3	0.00943748862066739	0.00784564698293753	-0.000275848859974687	0.00313832079066658	-0.000272546568388163	0.00313394500152876	0.00268863723766997	-0.0106551831444787
3.4	0.0100869971774406	0.00678545793447959	0.000169160692041176	0.00314813828343295	0.000159729844219543	0.00314920739229155	0.00116469455742756	-0.0122376412459211
3.5	0.0101001910713667	0.00567714798096826	0.000604947930355582	0.00309306186494527	0.000609959282675186	0.00309173358685098	-0.00159546769898242	-0.0137082166631271
3.6	0.0104529502217311	0.00526546419669531	0.00102508736339392	0.00297159115534039	0.00103168436932486	0.00297508557772472	-0.00412728286206103	-0.0135846283217247
3.7	0.0109240615970197	0.00440110055342859	0.0014410121270851	0.002795938612895	0.00143925668648758	0.00281230691376921	-0.00624628040987418	-0.0135928387547669
3.8	0.0112617087454804	0.00348498219879093	0.00180973158204254	0.00257029978301698	0.00182032937923428	0.00257665959470711	-0.00856392019723999	-0.013484036893889
3.9	0.0115511643241147	0.00241486449500025	0.00215853697161255	0.00229232775107246	0.00215393746618632	0.00229222988891806	-0.0111172400570485	-0.0132106214905281
4	0.0111450562523441	0.00139470817883638	0.00244908264336805	0.00197110454026827	0.00246051909405165	0.00197724427542788	-0.0146033975502943	-0.0122306273981459
4.1	0.0112633625454026	0.0012577131583524	0.00269940629730665	0.00160685222697901	0.00271595522343159	0.00161663993599079	-0.0171176472288026	-0.00921038101265551
4.2	0.0117055833594084	0.000583765832740492	0.00290240286078387	0.00121130771165551	0.00290363360780167	0.00121359456312676	-0.0184444974765462	-0.00632408994471504
4.3	0.0120110460299092	-0.000226569732067817	0.00304621886567884	0.000803370919975558	0.00304739685403301	0.000811955740211998	-0.0192203451848209	-0.0035846623516839
4.4	0.0122460201819865	-0.0012747257178674	0.00312513020234491	0.000367788488724155	0.00313305274690071	0.000363160013940862	-0.0195371258819167	-0.00105419403605228
4.5	0.0117494291570291	-0.00240444839206656	0.00314835794482096	-7.40902124254032E-05	0.00314516563929581	-7.18347511103834E-05	-0.0203518111641106	0.00126137323337934
4.6	0.011545592839845	-0.00269865602315717	0.00309884838257621	-0.000519914104458413	0.00311186306572623	-0.00050790551744467	-0.0203732095616484	0.00495629961441791
4.7	0.0116054108477963	-0.00338961794464266	0.00299809626916023	-0.00093447720865194	0.00299801595005699	-0.000943917135637522	-0.019278335410349	0.00799080732831334
4.8	0.0114998427665763	-0.00415455629376916	0.00284964696850779	-0.00133785848514458	0.00284202429085419	-0.00135805997766856	-0.017657311386086	0.0107217115105741
4.9	0.0115941252446786	-0.00500180725639316	0.00263499090313272	-0.00173507212732763	0.00262890057184367	-0.00172663749829153	-0.0154184000871858	0.0128221021695003
5	0.0111993964764558	-0.00602380741739513	0.00236268558786271	-0.00206911163196997	0.00236546467099084	-0.0020815454057739	-0.0134888530730568	0.0144491462025006
5.1	0.0114504166570271	-0.00655157893510857	0.00203982473260172	-0.00239638567132804	0.0020530689251348	-0.00239388218656984	-0.0102922299358009	0.016587699319853
5.2	0.0116301537771236	-0.00787393410411843	0.00169634397139972	-0.00265407338711347	0.0016968516969787	-0.00265823984944953	-0.00653355255137585	0.0170222976618721
5.3	0.0113379790238559	-0.00925954570349198	0.00130660018139726	-0.00286639583867192	0.00130285396769097	-0.00286897756038754	-0.00324335365224921	0.0165292967739385
5.4	0.0107553895348072	-0.0105766621631643	0.000895837929675517	-0.00302778439225786	0.000894951958998229	-0.00303024940551634	-0.000442697708205094	0.0152215300256161
5.5	0.00923605249368754	-0.011441730879517	0.000453281724676106	-0.0031251191202171	0.000465889868565069	-0.00312509186032608	0.000708155995339714	0.0138277841502201
5.6	0.00879158296944985	-0.0112623869714804	1.77770991990841E-05	-0.00315287248154595	1.44732505762662E-05	-0.00314941011802742	0.00286386058220651	0.0137911374730067
5.7	0.00842052668646942	-0.011905401276639	-0.000415275999176153	-0.00312683363109827	-0.000418996582873937	-0.0031305305860178	0.00539340810567922	0.0122888491935709
5.8	0.0078027682646008	-0.0125363501762617	-0.00085121307238264	-0.00303727343040843	-0.000850478176271575	-0.00304497035560053	0.00739969907809748	0.00991914125236491
5.9	0.00720243136865491	-0.0132425883521232	-0.00127060617972496	-0.00288440566313602	-0.00126900261754432	-0.00288856547834891	0.00882292007717536	0.00667369076449822
6	0.00555494686855586	-0.014397472288057	-0.0016595649441622	-0.00267513638532883	-0.00165357035530968	-0.00267849183702832	0.00775552660521425	0.00250995049525399
6.1	0.00403561253723953	-0.0138956235743569	-0.00201520863488782	-0.00242540684543958	-0.00201106038348228	-0.00243017552954757	0.00591567267525943	0.00113764937207344
6.2	0.00317544105647964	-0.0138279435539208	-0.00233655679231742	-0.00211061138784941	-0.00233297166233786	-0.00211928615486668	0.00497368661786067	-0.000222944982424559
6.3	0.00253707299904725	-0.0138120752877868	-0.00260535868199786	-0.0017708649904625	-0.00261518679665972	-0.00177863751254726	0.00420097861067204	-0.00158983666916008
6.4	0.00211956647574853	-0.0143421601335557	-0.00283256057290908	-0.00138406212049547	-0.00283056864812962	-0.00138986499905446	0.00361081457431644	-0.00356944338389568
6.5	0.000856357857759406	-0.0148811740573531	-0.00299592875011485	-0.000983882919536015	-0.0029963339887497	-0.000982759770337486	0.00137320823994602	-0.00531357906598404
6.6	0.000552504575450166	-0.014805979329772	-0.0031044444565574	-0.000558567272750097	-0.00311513301182135	-0.000561585699788418	0.000362934863949351	-0.00564065500211119
6.7	-0.000191852281417476	-0.0153238626278122	-0.00315035563273496	-0.000121450044708256	-0.00314931107679789	-0.000115197386945808	-0.0011545471248014	-0.00673979859830963
6.8	-0.00109183363244686	-0.0153008550717646	-0.00313511722598244	0.000328680231787884	-0.00313420834163674	0.000333450036416403	-0.00322393622438396	-0.00707132358067025
6.9	-0.00167365418582665	-0.0154171145523788	-0.00305214127141958	0.000758690302191494	-0.00305256538468137	0.000763683131022614	-0.0051050760216167	-0.00720999092192174
7	-0.00335820667539338	-0.0155037139493124	-0.00292544023029413	0.0011776457596203	-0.00292686010173736	0.00118087058661942	-0.00873952731565501	-0.00675251818882757
7.1	-0.00388077985847721	-0.0142240804361025	-0.00272608778633991	0.00158073564996128	-0.00272850878324377	0.00159178730022324	-0.0104828659026815	-0.00326666568017102
7.2	-0.0041726823966927	-0.0140236802053901	-0.00248332382291803	0.0019429322266991	-0.0024835011230666	0.00194884213635317	-0.0106453791752146	-0.000766632248222019
7.3	-0.00484559737867442	-0.0137856530570484	-0.00219181557720986	0.00226817598208794	-0.00218904566871032	0.00226965080731901	-0.0102233169622137	0.00142679158268754
7.4	-0.00538605781118953	-0.0136545489850556	-0.00184958955670468	0.00255364947595254	-0.0018423480473275	0.00256018363723319	-0.00898411442669255	0.00269746330803703
7.5	-0.00698650933474127	-0.0140616461850489	-0.00146792493103229	0.00279264998645979	-0.00146897170896432	0.00279063124523871	-0.00910122789928343	0.00247948657142682
7.6	-0.0080947459444999	-0.0127091917854481	-0.00107015154888016	0.00296604570160688	-0.00105945006811956	0.00297638881596062	-0.009047095199782	0.00464882686783419
7.7	-0.00858215802027382	-0.0122719240207076	-0.000640354510350415	0.00308824860422679	-0.000634782016931956	0.00308788765147084	-0.0078466115901759	0.00553605387101736
7.8	-0.00900884842686234	-0.0121768773623932	-0.00019307778008613	0.00314882963127546	-0.000206760867070264	0.00314176874015012	-0.00682187203396307	0.00616424091588718
7.9	-0.00945343520412674	-0.0123815266368456	0.000233593103068404	0.00313464853394556	0.000244701890854184	0.00313431065769975	-0.00602537401224515	0.00657489795580258
8	-0.0111339939165141	-0.0121856566264943	0.000670752086474942	0.00307299513475998	0.000679039860918968	0.00307089053003367	-0.00660710331370246	0.00778543259783666
8.1	-0.0109654975045845	-0.0110096282707742	0.00109835471143731	0.00294829962917175	0.00109606631115395	0.00294505091690767	-0.00419885541741066	0.0107071428675655
8.2	-0.0111835875387773	-0.0108040929818916	0.0014903961712262	0.00276668544005992	0.00148959876931468	0.00277827997793609	-0.00103849116306714	0.0114157137313939
8.3	-0.0116552315677186	-0.010354674659695	0.0018641657752376	0.00253277045115072	0.00186923863577658	0.00253017074768514	0.00197684920019001	0.0112038438076781
8.4	-0.0119324716807266	-0.00993892842339121	0.00221032136104337	0.0022483443133483	0.00219915889624943	0.00224877691883983	0.00486354288756907	0.00968990808661056
8.5	-0.0133444662087946	-0.00957355178132719	0.00250143756636996	0.00191319519104489	0.00250144912971569	0.00191454497343478	0.00521320581176387	0.00755852696505646
8.6	-0.0135623457341832	-0.00760770589370692	0.00273515595633639	0.00155464403831673	0.00273093924243994	0.0015523420290032	0.00672377606606407	0.00776123113364097
8.7	-0.0132748492284312	-0.00675148065538443	0.00292503380338234	0.00115308834868257	0.00292386972342683	0.00115267995986112	0.00904525610741758	0.00608319263019968
8.8	-0.0131280907407627	-0.00599314304623621	0.00305193443757644	0.000732990448314145	0.00306290657290698	0.000730856740944499	0.0107531091087315	0.00345806779384676
8.9	-0.0126550803640771	-0.00556876545919301	0.00312273255866086	0.000303578215743419	0.00313206408376554	0.00029642581336631	0.0120669360553084	-0.000146953474538163
9	-0.0130904927711675	-0.00569585558290111	0.0031383342447497	-0.000142832572731847	0.00314511975045371	-0.000137237515547154	0.0108228871840139	-0.00450111295528654
9.1	-0.0128094153894178	-0.00481391470432376	0.00308924885634856	-0.000579433225784929	0.00308946615593404	-0.000579626253465479	0.00945910409041013	-0.00666298004366893
9.2	-0.0125282944085003	-0.0049577745414155	0.00297075702032408	-0.000999855804589523	0.00297457564569401	-0.000999642119648786	0.0078906349365815	-0.00954000990623445
9.3	-0.0127398102656748	-0.00493275189110041	0.00279725901799593	-0.0014066933105753	0.002815289075949	-0.00140716718396946	0.00529638844248825	-0.0118767094153318
9.4	-0.0128689594189717	-0.00487813389318016	0.00258096506953339	-0.00177789136161489	0.00258426763280286	-0.00178891828355945	0.00221214423687842	-0.0137889620678008
9.5	-0.0138952171366176	-0.00426721097132783	0.00230726658425256	-0.00213757508584722	0.00232206255074384	-0.00213827919550357	-0.00268922248532062	-0.0143535010177125
9.6	-0.0134193956361831	-0.00292437597665032	0.00198438732451083	-0.00243483166559302	0.00198472796338318	-0.00242782695807968	-0.00562745202167848	-0.0124552466616471
9.7	-0.0130896202484913	-0.00263261048266517	0.00162363266061177	-0.00268591324967038	0.0016319131125695	-0.0026875155024826	-0.00795950050761398	-0.0115047695675894
9.8	-0.0130514733885966	-0.00222637157106784	0.001240621099288	-0.00288107219456194	0.00123878265419135	-0.00288970587448581	-0.0103964244938589	-0.0103191002627058
9.9	-0.0128706437293937	-0.00191192273532352	0.000829562086917262	-0.00302724454898019	0.000817689035679747	-0.00302983433724064	-0.0127657528218266	-0.00928103693660416
10	-0.0138696049514258	-0.0018130704355554	0.000393420248887806	-0.00310030221278466	0.000392588236169054	-0.00310760005327827	-0.0170505466076451	-0.00782374710217425
10.1	-0.0138203890674924	-0.00020934660843061	-3.51797074014148E-05	-0.00313477303866967	-3.98146915796367E-05	-0.00313752860915012	-0.0196635548693035	-0.00308173420390198
10.2	-0.0134133347137193	0.000504442166969351	-0.000473903253419753	-0.00309582567875176	-0.000486481839210588	-0.00309956216525556	-0.0204765384212347	0.000991598531100591
10.3	-0.0129974757363832	0.00128575334584496	-0.00090589423303661	-0.00299241164043393	-0.000905699728403339	-0.00300577005930662	-0.0204026078264463	0.0049900842463776
10.4	-0.0121234938729642	0.00160607267593913	-0.00131350075956505	-0.0028410738169186	-0.00131665583290749	-0.00283894459193896	-0.0192490666057397	0.00791895418423022
10.5	-0.0123983897124807	0.00159542766452113	-0.00168865667491294	-0.00262242539880954	-0.00169480372520699	-0.00262964766713457	-0.019822117209702	0.0104958222506297
10.6	-0.0118191580057172	0.00253335989983289	-0.0020477210070667	-0.00237083532059162	-0.0020492171921947	-0.00237593187830333	-0.0187311725433284	0.015231978018076
10.7	-0.011443452347664	0.00296853766901878	-0.00235445321161187	-0.00205852705803749	-0.00235766125706417	-0.00207450923757936	-0.0165184287817493	0.0192611254244781
10.8	-0.0109121813127579	0.00385114003054748	-0.00261932829941191	-0.00171130856195792	-0.00261640102993085	-0.00171346922041186	-0.0132696931783402	0.0232104225324143
10.9	-0.00958189005438648	0.00417078810960899	-0.00283301487259349	-0.00133657858278326	-0.00283229578619321	-0.00134168499534694	-0.00849041014365079	0.0257985616228383
11	-0.00950077937650815	0.00410342338416992	-0.00300016989584559	-0.000926589883018525	-0.00299315655258171	-0.000930864765614821	-0.00531481604714381	0.0274289174145735
11.1	-0.00818049755187754	0.00505923667953064	-0.00309667374706998	-0.000506033863527864	-0.00308894275239436	-0.000497754089372059	0.00023615643629802	0.0304539129550291
11.2	-0.00688400246380832	0.00469186971468465	-0.00313453320194531	-6.53583161814489E-05	-0.00314111442402198	-6.21549334972662E-05	0.00703340291391478	0.0307729057151083
11.3	-0.00596741166085825	0.00419126865069755	-0.00311141112760273	0.000372588068596148	-0.00311456713788839	0.000370428038049908	0.0138669087776123	0.029342507001215
11.4	-0.00515541243546957	0.00341041004250147	-0.00302797386135879	0.000800988500732776	-0.00303259579823031	0.000801137216720572	0.0202711766734776	0.0257969231784422
11.5	-0.0057300821309804	0.0026673537423355	-0.00289590221064141	0.00121454950263209	-0.00288839120973933	0.00121929328837375	0.0236151142397893	0.0210325637950849
11.6	-0.00501541347353944	0.00314683687685315	-0.00268903961133778	0.00160507541102739	-0.00269712888192521	0.00161475665879387	0.0278485359731925	0.0176421586271734
11.7	-0.00416158416737801	0.00250694878483531	-0.00243727772661578	0.00196891656070381	-0.00243902410856159	0.00197259792730031	0.032118094087466	0.0118269785428128
11.8	-0.00348807329379585	0.001742179870221	-0.0021411246521772	0.00229271571676822	-0.00215031685051	0.00230248922116033	0.0349716505285509	0.00461129196845202
11.9	-0.00300319758143233	0.0002692519550763	-0.00180141595770812	0.00256702352366921	-0.00180144710369029	0.00257357278510959	0.035543387676257	-0.00403231545126818
12	-0.00435366966670968	-0.000855555934494285	-0.00141791675107976	0.0027877657819018	-0.00142239252767557	0.00279054736470081	0.0315097048287913	-0.0114974790482602
