# GHZ S RI R 50
0.2	-0.0138142399337324	0.00515735209674238	0.00304472001289594	-0.000885457124495075	0.00305518050915455	-0.000885305272081561	0.00604734207603288	0.00072199022126799
0.3	-0.0129430529306578	0.00566622478161142	0.00289841159861792	-0.00130155526441389	0.00289212528574369	-0.00131319740786832	0.00641226018151631	-0.00153098654206597
0.4	-0.0122243590770359	0.00628706855994864	0.00268403486080601	-0.00169574389072044	0.00268192936877795	-0.00169765572716869	0.00593604303525911	-0.00345680087418311
0.5	-0.0116644025441067	0.00704904140903325	0.00241425756179292	-0.00205251681712865	0.0024170711487628	-0.00205624268444833	0.00486563507956359	-0.00493052439350069
0.6	-0.0108955023033174	0.00782167739071556	0.00210158552337328	-0.00237264401621423	0.00210084187200843	-0.00237548599169946	0.00368076936092223	-0.00610242549755365
0.7	-0.0102917124699284	0.00851098842449442	0.00175087846653837	-0.0026425106049315	0.00175708318179953	-0.00264660419788588	0.00209774874084881	-0.00693534828054638
0.8	-0.00956450192824545	0.00924185257217882	0.00135735843931014	-0.0028622380209047	0.00136562984855223	-0.00286064316221451	0.000378378017798619	-0.00725611378537664
0.9	-0.00885231838261404	0.00987993918808669	0.000953006549063239	-0.00301402164766302	0.000952986251360592	-0.00302343522911525	-0.00128811245012336	-0.00723121749195529
1	-0.00822416426644331	0.0104231238583112	0.000520234145742702	-0.00312224943300861	0.000520085116994808	-0.00312760514706993	-0.00307027803275609	-0.00688931083591396
1.1	-0.0075827447273946	0.0109595527640742	7.27643583763686E-05	-0.00316192749656782	7.36511374698594E-05	-0.00316665308610822	-0.00473312893753573	-0.00588668052532043
1.2	-0.00702398671721959	0.0110062797194647	-0.000365936256427272	-0.00313468778758991	-0.000364713480686182	-0.00315147872694006	-0.00578395726654695	-0.00466249145892137
1.3	-0.00680179075301171	0.0107220042124905	-0.000796948144235642	-0.00306033314638487	-0.000801886425555539	-0.00306798590558435	-0.00604937135785921	-0.00334785330601049
1.4	-0.00658882276178009	0.0103741059174437	-0.00122278276783684	-0.00291517487658471	-0.0012251990969928	-0.00292230285494987	-0.00574707236048073	-0.00246716701668208
1.5	-0.00608119220577337	0.0104844570179356	-0.00161449007863468	-0.00271669328768577	-0.00161252009621913	-0.00272223410111723	-0.00548086567382183	-0.00168466723706244
1.6	-0.00518136267312996	0.0108886151002682	-0.00197712522065604	-0.00246029930116232	-0.00198059482679593	-0.00246117770390567	-0.00544012788118848	-0.000492327193195489
1.7	-0.0041816656728707	0.0113310107257163	-0.00230193905884578	-0.00216590162439225	-0.00230398955132863	-0.00217448692837627	-0.00507324826265139	0.000873551948897037
1.8	-0.0031318104592357	0.011795117440958	-0.00257869415895569	-0.00181660211667752	-0.00258387109261709	-0.00182205992048459	-0.00442266585251484	0.0021023899496566
1.9	-0.00207842187544759	0.0120169110517602	-0.00280416896565804	-0.00144726031252955	-0.0028006567248203	-0.00144107392097808	-0.00353033507373789	0.00311628352968321
2	-0.00115291096322005	0.0121996090873834	-0.00297910081965761	-0.00103547794453989	-0.00298183741937592	-0.0010286355756189	-0.00262331309191776	0.00403683318697415
2.1	-8.33375293941155E-05	0.012215108053791	-0.00309404097181348	-0.000603449488158834	-0.00309614376540807	-0.000610141809922178	-0.00120021882795959	0.00475504653107882
2.2	0.000801850351597087	0.0120797584461411	-0.00314731605769536	-0.000172584788702234	-0.00314912532432816	-0.000162862806063913	0.000538867005156899	0.0048966963666677
2.3	0.0015152773084008	0.0118300581518162	-0.00313880713735375	0.000269446772398066	-0.00314556075511785	0.000266540727795541	0.00222995543911335	0.00442399515191102
2.4	0.00211552102140639	0.0115883646905283	-0.00307833418107722	0.00070385441582105	-0.00307715651645448	0.000718964991760663	0.00381725802368272	0.0034631191823868
2.5	0.00252561536859724	0.0113715163175859	-0.00294291649837257	0.00113543765445993	-0.00295591302957741	0.00113674032900069	0.00492327680801156	0.0019738543652163
2.6	0.00307940119267022	0.0113836142503057	-0.00275273016815321	0.00153042237953365	-0.00277364176556414	0.00153434264264869	0.00573035144481705	0.000486476239608867
2.7	0.00380620196699291	0.0113625940174349	-0.00252052134906827	0.00189916699830881	-0.00252079785353251	0.00190425112024381	0.00626106317096459	-0.00122759699732564
2.8	0.00474110361785559	0.0112764935564155	-0.00222545099164341	0.0022237802502348	-0.00223527600912572	0.00223497552978099	0.00647133182033678	-0.00298551303156799
2.9	0.00585260161437086	0.0109666164010868	-0.00188917290692873	0.00251638060483481	-0.00188724187169409	0.00252528588103817	0.00646457277184217	-0.0047748421580469
3	0.00692227140687752	0.0104541583505158	-0.00151852156983361	0.00275940661426617	-0.0015336056418592	0.00274637821166932	0.00601803538652323	-0.00652160876737934
3.1	0.00800891917221852	0.0098111778824268	-0.00111974171643892	0.00294263843845153	-0.00113667951042913	0.00294805089718267	0.0053732691711975	-0.00811175105257147
3.2	0.00884104825542336	0.00897281897246036	-0.000700476699344197	0.00306752186288738	-0.000696203289693586	0.00307832485291307	0.00422064126063533	-0.0096913292172171
3.3	0.00948422012105276	0.00804617863281919	-0.000271205195351752	0.00313889934351064	-0.00026790922127421	0.00313451841669445	0.0027491736740776	-0.0111708646868412
3.4	0.00994795012173809	0.00710129759873539	0.000174326638542409	0.00314704603284026	0.000164899993361791	0.00314813047216977	0.000939549516401358	-0.0125972559639576
3.5	0.0101803254464829	0.0062160931956015	0.000608128290301416	0.0030902331345526	0.000613134654774322	0.00308889994289639	-0.00155182937020955	-0.0137801531891888
3.6	0.0104316848930025	0.00545420771045688	0.00102785788664677	0.00296985131326909	0.00103445687917407	0.00297333822436901	-0.00418575030397354	-0.0141275331053943
3.7	0.0105750503048861	0.00470105176995927	0.00144401947318261	0.00279336960368565	0.00144228457345694	0.00280973533960602	-0.00677337038974916	-0.0140636845826575
3.8	0.0107243714133484	0.00404949083167555	0.00181197563433113	0.0025667819740919	0.00182257589942176	0.00257312556651585	-0.00941629748308431	-0.0136078080715416
3.9	0.0109418876550951	0.00343734659895431	0.00215912971225934	0.00228863142140017	0.0021545334521162	0.0022885379622445	-0.0120912903765897	-0.0126844172343493
4	0.0111636888568754	0.0028772865655698	0.00244968468275446	0.00196940175892932	0.00246112228364197	0.00197553412618695	-0.0147754964064597	-0.0110719840063861
4.1	0.0115985243718363	0.00229058175749539	0.0027010833498796	0.00160363072194442	0.0027176424843259	0.00161339868542148	-0.0167968365828659	-0.00858306275245154
4.2	0.012003362144134	0.00148560865111504	0.00290285960709738	0.00120735083923519	0.00290409270579583	0.00120963539122702	-0.0181388994378811	-0.00592168201772739
4.3	0.0122857199840982	0.000608276946646573	0.00304575158573646	0.000799651629389056	0.00304693852582316	0.000808231333656519	-0.018959544458291	-0.00328136519723252
4.4	0.0124116547870132	-0.000367834730636064	0.00312470397855455	0.000364674198844294	0.00313262006474259	0.000360039220326895	-0.0194099185579847	-0.000621252257602479
4.5	0.0123331413338114	-0.00125245563414961	0.00314835911528452	-7.93171081353944E-05	0.00314517042631438	-7.70562610051818E-05	-0.0196393443307297	0.00206222919832543
4.6	0.0122712831132456	-0.00211377678854615	0.00309538553606593	-0.000525184215071442	0.00310841173904315	-0.000513209248073641	-0.0192951430768454	0.00501966299279587
4.7	0.0121426485618271	-0.00299564372006882	0.0029935317964309	-0.000938085127353376	0.00299343712426485	-0.000947515059490465	-0.0183779118702668	0.00765669675167108
4.8	0.0118739388327949	-0.00389784770680632	0.00284476940864477	-0.00134039439026677	0.00283712678007548	-0.00136056388833236	-0.0169977953422634	0.0101098872453544
4.9	0.01168524123977	-0.00472188683250652	0.00262964819358737	-0.00173744273352188	0.00262357710800574	-0.00172900705450182	-0.0151427387159079	0.012207037660002
5	0.0114818891041603	-0.00558002716645094	0.00235460777912733	-0.00206973464074642	0.00235735892327111	-0.00208215110484048	-0.0129494499302814	0.0139885561469271
5.1	0.0114378124032197	-0.00649649852191988	0.00203334912307772	-0.00239348841763979	0.00204656879473785	-0.00239100287621526	-0.0101176398528154	0.0155158014688289
5.2	0.0112264926399312	-0.00755814912625601	0.00169121437125319	-0.00265063820827755	0.00169171791491818	-0.00265479758637452	-0.00697404631480626	0.0161752229799931
5.3	0.0108644236618445	-0.00859124446854032	0.00130190144400623	-0.00286232471491378	0.00129815983323908	-0.00286489872702134	-0.00390305678973139	0.0161511681566605
5.4	0.0103470224079764	-0.00955933370022504	0.000891241852616234	-0.00302204984625431	0.000890355620286487	-0.00302450876854544	-0.00104407042263052	0.0153830724514797
5.5	0.00955237863284449	-0.0103104788837919	0.000452204986098923	-0.00311692186817673	0.000464780121927043	-0.0031168942361921	0.00107181130168526	0.0141721213008232
5.6	0.00883574507617216	-0.0109437790454538	1.8908246363469E-05	-0.00314719850717505	1.56090592856199E-05	-0.00314374358615129	0.00303234105895901	0.0130602186680426
5.7	0.00783168472152835	-0.0114736125980475	-0.000413975829249831	-0.00312170173279542	-0.000417689491717806	-0.00312539324790779	0.00474034929329402	0.0115230613362566
5.8	0.00678589544947653	-0.0117163663003813	-0.000849029449594179	-0.00303212720973986	-0.000848294103226734	-0.00303981043904936	0.00607192614547619	0.00957924287599195
5.9	0.00578896331539035	-0.0116303548789368	-0.00126642976602822	-0.00287973586731813	-0.00126482667473205	-0.00288388683351391	0.00688000683208911	0.00739245978501375
6	0.00493323874736422	-0.011361970805479	-0.00165503751634951	-0.00267428822536522	-0.00164904522042202	-0.00267763389055585	0.0067781418553524	0.00513564993991352
6.1	0.00466533191718798	-0.0110335000780836	-0.00201311617140079	-0.00242375241077251	-0.00200897051807022	-0.00242851642201242	0.00663705415402962	0.00360604189738166
6.2	0.00462172057248201	-0.0113808637473006	-0.00233347121852257	-0.00210825340261098	-0.00232988961778719	-0.0021169171440649	0.00672409668204549	0.00166287801649569
6.3	0.00437259369596582	-0.0122567471727334	-0.00260118803156947	-0.00176921181038483	-0.00261100007453886	-0.00177697657793906	0.00641742946669433	-0.000787935863872102
6.4	0.00359009510566168	-0.0133612653578044	-0.00282848181881712	-0.00138429586777326	-0.00282648846209813	-0.00139009092573015	0.00543682698357024	-0.00343195730418558
6.5	0.0024537312643905	-0.0141850376182252	-0.00299387305385339	-0.000982779928539126	-0.00299427785239943	-0.000981657545339015	0.00350548136106298	-0.00558797523830702
6.6	0.0013532146934882	-0.0146669954436315	-0.00309916654327967	-0.000557310075833125	-0.00310983703185077	-0.000560322293378344	0.00159164794346793	-0.00686918629382365
6.7	0.000202277727375715	-0.0148764626563727	-0.0031446805433853	-0.000122782240422185	-0.00314364092303413	-0.000116540214394345	-0.000623116064544735	-0.00776771954185081
6.8	-0.000838885689682007	-0.0147843465422725	-0.00313063640806587	0.000325763575678987	-0.00312973257863012	0.00033052687860951	-0.00304790373046711	-0.00798079635669759
6.9	-0.00175015650143917	-0.0146491545489407	-0.00304905322690764	0.000756172300116042	-0.00304947955102715	0.000761159177861275	-0.00536090144301375	-0.00767319083502665
7	-0.00271680355902483	-0.0143895531244508	-0.00291974176604146	0.00117486484899296	-0.00292115925202963	0.00117808300511355	-0.00799133507731986	-0.0067476164514416
7.1	-0.00351270817880472	-0.0140896915403397	-0.00272238421352392	0.00157408038152762	-0.00272481386029469	0.00158510609138945	-0.00992444531689697	-0.00462898133024317
7.2	-0.00448085582331058	-0.0138614076820131	-0.002482147986198	0.00193631932082874	-0.00248233340903766	0.00194221960493604	-0.011055273319054	-0.00234238311457083
7.3	-0.00563564856715186	-0.013454954993522	-0.00219170229864552	0.00226211040194946	-0.00218893822244467	0.00226358678082248	-0.011524084436279	-4.67563645740831E-06
7.4	-0.00688117128978203	-0.0128728566393871	-0.00184936533765482	0.00254707854759525	-0.00184214396346695	0.00255360984342324	-0.0114294338868938	0.00203766280130539
7.5	-0.00818184051985175	-0.0119559046611752	-0.00147128917698099	0.00278323894960282	-0.00147232900309105	0.0027812220961762	-0.0112810869334222	0.00379774788881307
7.6	-0.00876470991119166	-0.0108063808584946	-0.00107703457263117	0.00296056465783876	-0.00106637000103036	0.00297092680963401	-0.0104515070397103	0.00597652459822627
7.7	-0.0091432979344612	-0.0100747626037644	-0.000647072897000363	0.00308501577617135	-0.000641502758428474	0.00308466781233632	-0.00894561122777124	0.00728730310485379
7.8	-0.00925442821636056	-0.00984244045983394	-0.000199873088054834	0.00314668498531075	-0.000213533219915811	0.00313959796707888	-0.00740369793794229	0.00815555055486413
7.9	-0.0094642428713487	-0.00988337345935041	0.000225478239714517	0.00313328095748855	0.000236580935478639	0.00313297153269305	-0.00591786991770559	0.00881779206054113
8	-0.00986578657158482	-0.00976567464476646	0.000662092969333352	0.00307684931195014	0.000670392010705181	0.00307476788024742	-0.00480518448541456	0.00976488500506472
8.1	-0.0101379313401368	-0.00962722748054368	0.00109431130523526	0.00295263293112146	0.0010920264525736	0.00294937762724911	-0.00267200201480767	0.0109541130098592
8.2	-0.0106113164120738	-0.00938050518779428	0.00148678283497847	0.00276990132231958	0.00148596778567731	0.00278149878925769	-2.44851026134831E-05	0.0113648795284746
8.3	-0.0110922997136765	-0.00898387655142349	0.00186007780580016	0.00253647657271445	0.00186515610991734	0.00253388525951215	0.00271708196345227	0.0110021616190432
8.4	-0.0115587449425455	-0.00848068833605102	0.00220686906852607	0.00225453734916734	0.00219569860326424	0.00225494614128252	0.00523375495425406	0.00971181590485185
8.5	-0.0121299839555894	-0.00790031001679781	0.00250252537021467	0.00191835292938812	0.0025025354755298	0.00191970443774694	0.00670764201571168	0.00790759169306292
8.6	-0.0125329024686962	-0.00717210576960913	0.00273410272622082	0.00155788718708417	0.00272988753547606	0.00155558019858403	0.00810492733020785	0.00641694190526656
8.7	-0.0129741561340186	-0.00648536424010744	0.00292403018512046	0.00115809238097546	0.00292286642387414	0.00115768201517567	0.00936266160548086	0.00429832794117774
8.8	-0.013376791402142	-0.0056347728448968	0.00305278782804817	0.000738882179342081	0.00306377143287206	0.000736766302292403	0.010066666800978	0.00175328525945175
8.9	-0.013551499597417	-0.00473009643063808	0.00312612908627074	0.000308025811241538	0.00313548128828544	0.000300876909903672	0.0103265485232248	-0.0010405234360021
9	-0.0135124947383438	-0.00387808197220004	0.00313910023507142	-0.00014045984312328	0.00314588287736377	-0.000134858420640043	0.00961290272726476	-0.00390520738945369
9.1	-0.0130201504425518	-0.00321133673025024	0.00309151815175271	-0.000573712740475184	0.00309173590362139	-0.000573905422901024	0.00867894984869012	-0.00614610479821497
9.2	-0.012538968007727	-0.00303939243236357	0.00297591758624594	-0.000995469485563496	0.00297974006979474	-0.00099524849285866	0.00745082320074026	-0.00861272827337818
9.3	-0.0122996399548517	-0.00306939589872084	0.00280312229892287	-0.00140482106728176	0.00282117832889296	-0.00140527080527815	0.00548811488830914	-0.0109377444509765
9.4	-0.0122860432071948	-0.00315552562703223	0.00258490657131416	-0.00177750251392606	0.0025882213158144	-0.00178853738665325	0.00280062331517356	-0.0129420433455352
9.5	-0.0126040401504852	-0.00293193469803277	0.002312518875044	-0.00213408427012942	0.00232732317809133	-0.00213475987282549	-0.000910039610457094	-0.0139977689985384
9.6	-0.0128813713696305	-0.00266872382675969	0.00199252880659463	-0.00243541844061613	0.0019928568051251	-0.00242840060413468	-0.00450225621523022	-0.0138107869434432
9.7	-0.0133764614611868	-0.00225005195163488	0.00162997829130845	-0.00268900475688814	0.00163827633998317	-0.00269059992788989	-0.00798641011981069	-0.0130828041062029
9.8	-0.0138975036777298	-0.00154385898428403	0.00124533131140358	-0.00288453907897143	0.00124349804131911	-0.00289318838173939	-0.0113802135249313	-0.0116537931421281
9.9	-0.0142904569364154	-0.000519069712962466	0.000834672873581246	-0.00302987185430498	0.000822788622529577	-0.0030324808653309	-0.014647115257913	-0.0095854386256711
10	-0.0145163552734314	0.000629198428954173	0.000400130399186725	-0.00310739099742766	0.000399309750166389	-0.00311470876723249	-0.0179489178563653	-0.00671662719509237
10.1	-0.0142255948804181	0.00185014793736229	-3.36585131815913E-05	-0.00314273517019437	-3.83038276370016E-05	-0.0031455001046748	-0.0201379377612886	-0.00253847360493655
10.2	-0.0137353776702418	0.00278680569344858	-0.000473243188503784	-0.00310222381391578	-0.000485844840578097	-0.00310597423536494	-0.0210127089449874	0.00165961662721803
10.3	-0.0131498703271764	0.00355572795451103	-0.000904932247415807	-0.0029992055525319	-0.000904725011013269	-0.00301259038320103	-0.020977702977162	0.00574623217144706
10.4	-0.0124847749703607	0.00414499402014508	-0.00131353544552411	-0.00285092615425478	-0.00131670233888348	-0.00284879497169039	-0.0201369875526878	0.00933352244035932
10.5	-0.0118544112093193	0.00470712570281927	-0.00169602368077695	-0.00263175728542797	-0.0017021966972611	-0.0026390047068618	-0.0192984458874979	0.0128587293283026
10.6	-0.0109337382188568	0.00515097596228349	-0.00205488065073371	-0.00237527275553303	-0.00205638477131168	-0.00238038118871939	-0.017429388694052	0.0168298753934497
10.7	-0.0100824389607979	0.00536508652793757	-0.00236146986139973	-0.002062178876425	-0.00236469534421982	-0.00207819841678272	-0.0145751938602449	0.0203600957160216
10.8	-0.00926149983623463	0.0054493234376971	-0.00262742773610867	-0.00171402776699859	-0.00262449421928287	-0.00171619614945457	-0.0110136538634073	0.0233352520999292
10.9	-0.00857759205650971	0.00544846743474913	-0.00284334992217929	-0.00133630630815541	-0.00284263630720412	-0.00134142883703904	-0.00690744576829443	0.025414898798398
11	-0.00797623664303785	0.00541369082572652	-0.00300622917775583	-0.000921274324186667	-0.00299921575576762	-0.00092557029031488	-0.00289856480996235	0.026909671932545
11.1	-0.00724796803179187	0.0053153037910517	-0.00310110063910713	-0.00050382530400637	-0.00309335212198399	-0.000495542070533236	0.00200786945346744	0.0282198134666918
11.2	-0.00670304400875228	0.00499793452728395	-0.00314023099366804	-6.22977400208322E-05	-0.00314682079181541	-5.90819296310095E-05	0.00758005863486596	0.0281926076013598
11.3	-0.00625572782471579	0.00464810868380769	-0.00311659285307064	0.000377987480304805	-0.00311975796237353	0.000375828239666445	0.0133323698490802	0.0268770232991759
11.4	-0.00598316909154336	0.00430180751449253	-0.00302963732396573	0.000808078026381669	-0.00303426400408617	0.000808236390877807	0.0186976425195942	0.0240518218341058
11.5	-0.00588685349321313	0.00403816001146263	-0.00289637154103813	0.00121684261592362	-0.00288885446338788	0.00122158377150625	0.0227108844597392	0.0201387716869954
11.6	-0.00561867009972927	0.00378699956017701	-0.00269260319017502	0.00160979890274362	-0.00270069972610009	0.00161950285306915	0.0264296663685445	0.0159593313746624
11.7	-0.00549853873396215	0.00345842056590619	-0.0024385546127708	0.00197571652430524	-0.00244029865784294	0.00197940657974634	0.0295893280618713	0.0106397046506927
11.8	-0.00536173923775329	0.00331562023625065	-0.00213974061027869	0.00229898724388754	-0.00214892698393378	0.00230878759234703	0.0316452375194192	0.00457603224065324
11.9	-0.00509300404433856	0.00323260149797173	-0.00179976294604754	0.00257084042487244	-0.00179978670898342	0.00257739426340239	0.0321354539628159	-0.00179595197246647
12	-0.00482343353237312	0.00313423379018231	-0.00141950757129937	0.00279364820817113	-0.00142399077243832	0.00279643688243505	0.0307104522435313	-0.00784628316657982
