# GHZ S RI R 50
0.2	-0.01384893287072	0.00549243876442141	0.00304289106386107	-0.000885619824415872	0.00305334594836618	-0.000885470254190704	0.00603680005459349	0.00108898379146563
0.3	-0.0130339561698984	0.00589985454215626	0.00289622646226323	-0.00130141648892033	0.00288994138973492	-0.00131304959927106	0.00633796892325236	-0.00126375976439225
0.4	-0.012284249376077	0.00640432246178974	0.00268143276627831	-0.00169504594551338	0.00267932849876176	-0.00169695570237047	0.00587241176282652	-0.00330710363417752
0.5	-0.0119945551005822	0.0071687474763358	0.00241176700799659	-0.00205054796645708	0.00241457764485024	-0.0020542702037597	0.00446927901470161	-0.00475355466409346
0.6	-0.0109653213780787	0.00828543762162502	0.00209994564383567	-0.00237042984037215	0.00209920285217507	-0.00237326941117774	0.00352596218347963	-0.00548473671320889
0.7	-0.0100709978444902	0.00884312336090959	0.00174942356835546	-0.00263999914021576	0.00175562283791399	-0.00264408865049062	0.00227500020262492	-0.00637729194469078
0.8	-0.00919833409007574	0.00942296852207483	0.00135634489071145	-0.00285915487432501	0.00136460768801597	-0.00285756057851254	0.000766333873843978	-0.00680913125240971
0.9	-0.00830285740018962	0.00985137418969199	0.000952931603419084	-0.00301040011358854	0.000952914366661913	-0.00301980335134881	-0.000627014183163297	-0.00700882014908723
1	-0.00790430082706954	0.0099209810692789	0.000521456333259411	-0.00311928031642214	0.000521310298538491	-0.00312463149464858	-0.00261619051631357	-0.00726712722047487
1.1	-0.00753106171342859	0.010900421133919	7.37511544030714E-05	-0.00315922174350668	7.46387484787289E-05	-0.00316394303124635	-0.00466231232907731	-0.00586284942554524
1.2	-0.00668327545125894	0.0111305581397572	-0.000364223640402396	-0.00313175346773097	-0.000362994830693099	-0.0031485273169817	-0.00549836804092398	-0.00441904891122591
1.3	-0.00632703868316777	0.0109385805376935	-0.000794302347441141	-0.00305779063429955	-0.000799231099944989	-0.00306543882358703	-0.00569093204682098	-0.0029454226959264
1.4	-0.00601382683591576	0.0106361698856063	-0.0012195591762253	-0.00291367809404618	-0.00122196809989935	-0.00292080197832344	-0.00528904939977339	-0.00192989761984391
1.5	-0.00573392586784309	0.010748559861494	-0.00161202852437592	-0.00271566341949301	-0.00161005709008314	-0.00272119948472407	-0.00527146340686805	-0.00104614767300246
1.6	-0.0044929274105531	0.0111842088151462	-0.00197364972836518	-0.00245886240270729	-0.00197711520656729	-0.00245974187651056	-0.00478929615858989	0.000307614364147569
1.7	-0.00346168743872218	0.011189858281296	-0.00229771996858656	-0.00216565749097548	-0.00229976098884234	-0.00217423575443295	-0.00424871673945335	0.00124876910141961
1.8	-0.00253243323871841	0.0113639389693371	-0.00257459439558798	-0.00181759056455728	-0.0025797612792546	-0.00182304875547701	-0.0036335796235909	0.00212382851937058
1.9	-0.0016286738912751	0.0112602660352953	-0.00280074884084915	-0.00144888965631541	-0.00279724506449214	-0.00144270440063695	-0.00287810960116017	0.00270017314132079
2	-0.00134129188739293	0.0113219743845355	-0.00297509038062223	-0.00103703321480311	-0.00297783018001018	-0.0010302003735523	-0.00274981056190519	0.00342504455580532
2.1	-0.000277892441954519	0.0118366511077587	-0.00309020037790792	-0.000607238375541837	-0.00309229168502758	-0.000613927205549665	-0.00142039758247142	0.00477663350414651
2.2	0.000753725750446519	0.0117240309779459	-0.00314493654282761	-0.000177155197736489	-0.00314675906670036	-0.000167442465750281	0.00052678717300233	0.00504032426727589
2.3	0.00154976638753195	0.0114844255415761	-0.00313746027303875	0.00026471225954046	-0.00314420590082212	0.000261797960791332	0.00240945390285872	0.00459871108805293
2.4	0.00232065488373814	0.0111278474817355	-0.00307741373041706	0.000698911912387105	-0.00307625888537032	0.00071401464333142	0.00428787962972261	0.0034299179497023
2.5	0.00243519039779284	0.0105774949053232	-0.00294324061839011	0.00112876717543905	-0.00295623112072574	0.00113004286133185	0.00504760619471023	0.00139132814636589
2.6	0.00282460806096874	0.0109792613125541	-0.00275588953398439	0.00152477497519558	-0.00277680929958197	0.00152865229480048	0.00548617754713185	0.000269471030901654
2.7	0.00366512892504049	0.0110560959397689	-0.00252442788480409	0.00189481147565031	-0.00252471382406493	0.0018998958905461	0.00602203943729538	-0.00126035453277423
2.8	0.00470314555455819	0.0110132747730817	-0.00222992039571557	0.00222017877045208	-0.00223976764382015	0.00223135841964467	0.00630243498171282	-0.00287430738643773
2.9	0.00590948023378456	0.0105790433054626	-0.00189466356542183	0.00251321628714892	-0.00189274986368425	0.00252212759164005	0.00640153028224541	-0.00474329032698278
3	0.00665920760565314	0.0100316037748648	-0.00152579664039241	0.00275861323542271	-0.00154086623455487	0.00274554084287275	0.00553111441702523	-0.0064959432415033
3.1	0.00794577094056806	0.00972930622281929	-0.00112540750798188	0.00294377947463134	-0.00114237028462164	0.0029491709263387	0.00504410205605825	-0.00752823865784658
3.2	0.00898677486165166	0.00882300993634186	-0.000705900060281542	0.00306905178060284	-0.000701639968782476	0.00307987075518996	0.00420088126390175	-0.00903019206087334
3.3	0.00976234594642471	0.00782225219821104	-0.000276783017699001	0.00314150764615374	-0.00027347640777484	0.00313712801695227	0.00299993569024138	-0.0105277226521583
3.4	0.0103766249644229	0.00668642628652356	0.000169044646752388	0.00315169435390311	0.000159603091339023	0.00315276374741187	0.00145959137672139	-0.0121942287418801
3.5	0.0103085150488674	0.00563241675318365	0.000605840151581532	0.00309626989810386	0.000610856672821603	0.00309493980774244	-0.00139463460399906	-0.0136217564114813
3.6	0.0107693255161423	0.00523054638355393	0.00102620595367419	0.00297458130106409	0.00103280974894906	0.00297807909846027	-0.00382046815574628	-0.0134614285314118
3.7	0.0112401456549728	0.004296889771627	0.00144281686566564	0.00279890567040377	0.00144106076624787	0.00281529213492161	-0.00591140742904767	-0.0135277163216943
3.8	0.0115473256176358	0.00336677374592883	0.00181229660306066	0.00257289274244307	0.00182290774950323	0.00257925779310343	-0.00822982996251306	-0.0134479118659329
3.9	0.0118105965540332	0.0023158277271656	0.00216169504078918	0.00229416653906825	0.00215709038495623	0.00229407008520852	-0.0107972567988469	-0.0131968084414669
4	0.0114310938599117	0.00143026551076298	0.00245217348440502	0.00197237879466063	0.00246362344688577	0.00197852135402464	-0.0142992498927102	-0.0121267495440519
4.1	0.0118088589663951	0.00123535851379237	0.00270314546528204	0.00160781019726204	0.00271971729274389	0.00161760370465698	-0.0166079883791098	-0.00914021951275232
4.2	0.0123152601263843	0.000326977041654513	0.00290650595728683	0.001211229263189	0.00290773937600615	0.00121351819926197	-0.0178798311919399	-0.00645339568227938
4.3	0.0125578250491654	-0.000689563266652278	0.00305019344414126	0.000802280458697481	0.00305137840077231	0.000810874220627976	-0.0187085995444814	-0.00389648636424137
4.4	0.0126255332940101	-0.00191955572854189	0.00312863806373339	0.00036600271901739	0.00313656564234225	0.000361363929341	-0.0191819514018258	-0.00155561413452061
4.5	0.0118707213173138	-0.00303128188835548	0.00315192487163405	-7.62951762481204E-05	0.00314873041744114	-7.40349744428078E-05	-0.0202950173966829	0.000758606239107276
4.6	0.0115915866178666	-0.00330494838628887	0.00310197946148748	-0.000523370448667203	0.00311502035069705	-0.000511359847518111	-0.0204392901479546	0.00452288019848476
4.7	0.0114804603212251	-0.003960230824377	0.00300034227262324	-0.000938583344101825	0.00300025209254558	-0.000948033306510407	-0.0195055472343175	0.00764637430922317
4.8	0.0112534197740065	-0.00458949052484187	0.00285105799497854	-0.00134239813507068	0.00284340503132008	-0.00136261170591021	-0.0179737027895597	0.0105503124243006
4.9	0.0112743406889984	-0.00529418192998866	0.00263563015416649	-0.00174000372480864	0.00262954362838361	-0.00173155314514578	-0.0157764029255911	0.0128014731131266
5	0.0108688299452485	-0.00605570044343388	0.00236206900448242	-0.00207477304144598	0.00236483250771034	-0.00208722387366	-0.0138549799076747	0.0146955747563955
5.1	0.011306089140455	-0.00650627346762378	0.0020374408966795	-0.00240152247370112	0.00205069914123775	-0.00239903875860465	-0.010441298879395	0.0169495945139622
5.2	0.0115160123238123	-0.00780110212725652	0.00169298900381691	-0.00265851074978647	0.0016934901406286	-0.00266268060866519	-0.00659248068895676	0.0174105189804609
5.3	0.0112832085275398	-0.0090933781510585	0.00130232879910153	-0.00287013199801448	0.00129857619405841	-0.00287270858898128	-0.00320097838632451	0.0169731992571353
5.4	0.0108038643043647	-0.0103473370485354	0.000890550427574655	-0.00303068343270199	0.000889659497513106	-0.00303314779159029	-0.000289731951761922	0.0156722381789798
5.5	0.00947078011988394	-0.0110571741722774	0.000447088460240642	-0.0031262239962181	0.000459697474734849	-0.00312622183932999	0.000990888971631049	0.0143980131568553
5.6	0.00940268322458869	-0.0110603914455021	1.20463690621008E-05	-0.00315252899689502	8.74920527198364E-06	-0.00314906104307759	0.00349382794471504	0.0142337084837799
5.7	0.00911985264337105	-0.0120045438004437	-0.00042082375081273	-0.00312549567957067	-0.000424550283519673	-0.0031291852413964	0.00615625711520779	0.0124587895864027
5.8	0.00851545068465955	-0.0128879613041455	-0.000856474759013724	-0.00303474560898207	-0.000855754126474288	-0.00304244139871443	0.00822803574436213	0.00982019959841379
5.9	0.0078220273717598	-0.0138844873860513	-0.00127517831865223	-0.00288055091247217	-0.00127358318638379	-0.0028847114235518	0.00960005522496417	0.00621292482188533
6	0.00590919969180759	-0.0151249595491499	-0.00166257431396357	-0.00267064766472651	-0.00165658921474987	-0.00267401011690661	0.00821114570310833	0.00185393978022831
6.1	0.00430863551763727	-0.0147430963391366	-0.00201782148577042	-0.00242095851673058	-0.00201368287637104	-0.00242573093527781	0.00618401921709701	0.000361773732115923
6.2	0.0031022884691196	-0.0147194652707086	-0.00233856651278058	-0.00210541236194814	-0.00233499799303271	-0.00211408756317038	0.00484042048644241	-0.00100480333762284
6.3	0.002208552861586	-0.014477244570362	-0.00260627391803497	-0.00176504384705761	-0.0026161073327776	-0.00177279353809173	0.00380196160183334	-0.00209551666916996
6.4	0.00167379814901724	-0.0146744885808486	-0.00283201272428123	-0.00137815170547744	-0.002830032081675	-0.00138395210523531	0.00309567542123494	-0.00371998632096637
6.5	0.000581223795449493	-0.0147814341275022	-0.00299471277444196	-0.000978417060757778	-0.00299511593068619	-0.000977294311941077	0.000988959738723754	-0.00499799862752416
6.6	0.000604651712079861	-0.0147553136997822	-0.00310206994094879	-0.000552629205541748	-0.00311275220393174	-0.000555626011486808	0.000334185649580094	-0.00528479336320698
6.7	-6.49592832923568E-05	-0.0153511845721799	-0.0031463562980781	-0.000116055506112821	-0.00314530274956281	-0.000109812921599914	-0.00104216444001917	-0.00643643474117177
6.8	-0.000921632053580922	-0.0154090238060374	-0.00312993049914559	0.00033298004092862	-0.00312901568383317	0.000337741329348014	-0.00301815401493927	-0.00685887945978889
6.9	-0.00158767261611987	-0.0155822617149532	-0.00304639649978681	0.000761821878388996	-0.00304681293844921	0.000766807652267679	-0.00496149986686498	-0.00709442846903928
7	-0.00325303909525099	-0.0154255251295944	-0.00291888964051823	0.00118028518148327	-0.00292030221471147	0.00118350700606513	-0.00863301318556406	-0.00642307643917133
7.1	-0.00345468959524865	-0.0142823808438247	-0.00271842536917646	0.00158147756444988	-0.00272082582855746	0.00159251071875658	-0.01007563818952	-0.00299276640214993
7.2	-0.00372399514953667	-0.0142979022266787	-0.00247578168304504	0.00194178568921771	-0.00247595159107391	0.00194768335151889	-0.0101480204605464	-0.000654297237458134
7.3	-0.00441378441030895	-0.0142256281035752	-0.00218475599582268	0.00226556291432084	-0.00218199052088884	0.00226703170357518	-0.00964463956341008	0.00137836627510019
7.4	-0.00504088268571624	-0.0143229437012065	-0.00184294071103508	0.00254989374847768	-0.00183570855108795	0.0025564062170169	-0.00839343633394154	0.00232445602486804
7.5	-0.00693515472993976	-0.0147460415941171	-0.00146156890205816	0.00278696695822405	-0.00146261493791794	0.00278495431749539	-0.00881801004891446	0.00191621644679636
7.6	-0.00814915110079372	-0.0134717614366921	-0.00106562390253025	0.00295890754040282	-0.00105494440128133	0.00296921735730143	-0.00889107169519123	0.0039592557233574
7.7	-0.00912662578263467	-0.0129568106785155	-0.000637352176143349	0.00308035976070718	-0.000631794560820489	0.00307999739753241	-0.0082894620305169	0.0049116422556326
7.8	-0.0098258811534054	-0.0123724032182655	-0.000191680214739487	0.00314024104959765	-0.000205327694904526	0.00313320330708623	-0.00758473534876889	0.00601101190571741
7.9	-0.0101818625576688	-0.0120523526894176	0.000233133975998655	0.00312548812914925	0.000244210335236452	0.00312515045077211	-0.00674624582846663	0.00693940502150973
8	-0.0113111975910293	-0.0113400710864898	0.000667397801181439	0.00306414040386918	0.000675661825199516	0.00306204572580389	-0.00695851291047021	0.00870268570698513
8.1	-0.0106065671931543	-0.0104434720641468	0.00109357101927496	0.00294099035622625	0.0010912908094708	0.00293774903628271	-0.00402962008685008	0.0114755122176563
8.2	-0.0106644019064888	-0.0105172935579899	0.00148443700350019	0.00276026467000005	0.00148363363149945	0.00277182736634382	-0.00066895305987192	0.0119903801712209
8.3	-0.0110787683096589	-0.0102899816788483	0.00185681126969885	0.00252751320362553	0.00186187258844642	0.00252492513163257	0.00244862475862299	0.0115906109189862
8.4	-0.0114319692497611	-0.0100349237061483	0.00220159456067754	0.00224495211265872	0.00219046179269367	0.00224536993361807	0.00528986937507422	0.00990462108287025
8.5	-0.0127991505188935	-0.00949824206131663	0.00249288943734587	0.00191228033601505	0.00249289905933723	0.00191362698639472	0.00563200724489503	0.00793334676119149
8.6	-0.0126870493276505	-0.00778314527361346	0.00272674669814988	0.00155461822544512	0.00272254282411297	0.00155231603538373	0.00744665563578832	0.00798599567643604
8.7	-0.0124268782657874	-0.00723864921525144	0.00291641005783454	0.00115471920651435	0.00291524933470302	0.00115431004938805	0.00981125372783983	0.00608355403941999
8.8	-0.0123780758233218	-0.00671606204603844	0.00304375550437637	0.000736481350564328	0.00305470629469891	0.0007343710381312	0.0115278488454138	0.00324621164911154
8.9	-0.0121265311623158	-0.00649379638160527	0.00311573031238317	0.000308617780888415	0.00312505553844702	0.000301497088571965	0.0127274417300728	-0.000619604936279372
9	-0.0127863812162141	-0.00654932116628936	0.00313216320780351	-0.000137455507946273	0.00313892580370851	-0.000131860869232708	0.0112557838826212	-0.00501988524935326
9.1	-0.0126258587906748	-0.0058165904245975	0.00308323172514762	-0.000572310635932746	0.00308344888696454	-0.00057250281242654	0.00972284949862581	-0.00734817618208122
9.2	-0.0127308204542993	-0.00585382362636562	0.00296638441752223	-0.000991046724873732	0.00297019409709697	-0.000990825042157466	0.00775650972715263	-0.0101328149930728
9.3	-0.0131098386234902	-0.00550280143890878	0.00279500694233359	-0.00139702341329531	0.00281300155149702	-0.00139745240353982	0.00496644834639859	-0.0121624152613712
9.4	-0.0132695310073223	-0.00514144082747369	0.00258058487810448	-0.00176820786857265	0.00258390862197825	-0.00177920618536538	0.00184038681358337	-0.0137839863046865
9.5	-0.0140314049333948	-0.00421361793483075	0.00230828797363692	-0.00212705567295725	0.00232305571653409	-0.00212771878365886	-0.00292141003330085	-0.0139979641750862
9.6	-0.0132400303206167	-0.00304582572352578	0.00198851239741331	-0.00242433064881158	0.00198883051089477	-0.0024173372161303	-0.00554913047425215	-0.0121469033256268
9.7	-0.0129203224694586	-0.00288605529927955	0.00163003657642229	-0.00267677501217078	0.00163831034733836	-0.00267834803219688	-0.00780766770783583	-0.0112675848134795
9.8	-0.0129245552928357	-0.00252988720333472	0.00124863532945509	-0.00287343135939481	0.00124682771675768	-0.00288206053278385	-0.0101905419490507	-0.0101378058029539
9.9	-0.0128398764488811	-0.00219440679860049	0.000838966004191572	-0.00302091847052897	0.000827115492601719	-0.00302354590600272	-0.0125916583711243	-0.00914333694201273
10	-0.0137619464113373	-0.00177748006731249	0.000405050666411493	-0.00309601701478815	0.000404247598729662	-0.00310331156259787	-0.0168419157591951	-0.00747384690715914
10.1	-0.013366751489182	-0.00031449258891407	-2.31831101812719E-05	-0.00313382674967275	-2.78059615868693E-05	-0.00313659908999099	-0.0191629976027444	-0.00284570570093987
10.2	-0.0129362074839786	0.000190958805808416	-0.000462282084784619	-0.00309716880090494	-0.000474844992926032	-0.00310095172629364	-0.0199277978235134	0.00103424918009365
10.3	-0.0125872167881429	0.000821276548741002	-0.000894647087024124	-0.00299585981661409	-0.000894402317857451	-0.00300921768078722	-0.019882368726302	0.00485232034360396
10.4	-0.0119189842964876	0.00107694658278547	-0.00130257848321951	-0.00284690833363582	-0.00130574268446354	-0.00284479108536777	-0.0189214833260158	0.00762444211438319
10.5	-0.0122308095281064	0.00130968990394895	-0.00167971502056813	-0.00263122237341803	-0.00168583867099601	-0.00263847476038435	-0.0196540459474004	0.0103523597490087
10.6	-0.0115463441223032	0.00214009515469944	-0.00204090876297283	-0.00238057412118715	-0.00204238759755701	-0.00238568092743951	-0.0185861749194016	0.0150261046828022
10.7	-0.0112379382929633	0.00256148235602159	-0.00234933989565704	-0.0020695819135555	-0.0023524917262618	-0.00208559359490184	-0.0165186172185962	0.0191223971523489
10.8	-0.0106152729365781	0.00340323872786696	-0.00261650734747404	-0.00172361922560739	-0.00261356780470769	-0.00172577181737558	-0.013209470043307	0.0232397498832381
10.9	-0.00951212650657709	0.00375982510113797	-0.00283348117728765	-0.00134945069996639	-0.00283274207960819	-0.0013545641270544	-0.00863874070555285	0.0258547295750587
11	-0.0093218009672445	0.00402165556702769	-0.00300342522491527	-0.000937951004478805	-0.00299638397575244	-0.000942212586441756	-0.00539272939888852	0.0278646557255249
11.1	-0.00771032989836934	0.00478474023712541	-0.00310123818881795	-0.000516881360819733	-0.00309351809179378	-0.000508560520382923	0.000464445030877949	0.0308536378677664
11.2	-0.00644412520211286	0.00424545844384145	-0.00314141212247709	-7.54523049216981E-05	-0.00314801838758673	-7.22625632563607E-05	0.00735763844253433	0.0311104715699139
11.3	-0.00559256069705472	0.00366866877715025	-0.00312044264332662	0.000364177493608524	-0.00312360018140608	0.000362002479040856	0.0142729169575093	0.0296145082838099
11.4	-0.00490975765360246	0.0028637447410776	-0.00303830974016802	0.000795059090008003	-0.00304294458212474	0.000795195849128714	0.0207024571889053	0.0259862312548387
11.5	-0.00536668848238702	0.0023343382064044	-0.00290630040025581	0.0012100017295815	-0.00289878308172335	0.00121477699365786	0.0241922807686044	0.0213389919162361
11.6	-0.00444071000173687	0.00251495144061694	-0.00270108671832925	0.00160213454869584	-0.00270922571066292	0.00161182064371126	0.028673395871692	0.017675225351422
11.7	-0.00377116644544797	0.00161912467647094	-0.00244995866509858	0.0019687925333668	-0.00245171997805291	0.00197248090313413	0.0328751685864469	0.0115535519213452
11.8	-0.00339144591332415	0.00077969068755242	-0.00215346014138227	0.00229517968620569	-0.00216270513551077	0.0023049635424007	0.0355173170029437	0.00413293052173548
11.9	-0.00290190031247728	-0.000506806861876929	-0.00181307718525789	0.00257174455583396	-0.00181312270715025	0.00257831580896051	0.0360751407163283	-0.00457218971526471
12	-0.00448554602076032	-0.00119904251806379	-0.00143001688340657	0.00279402485554104	-0.00143451556197333	0.00279680490509322	0.0316412170805514	-0.0117032986867619
