# GHZ S RI R 50
0.2	-0.0139831407983476	0.00551777298376475	0.00304363203516909	-0.0008853484973968	0.00305408899451636	-0.000885197354638846	0.00587882123379848	0.00108956189262038
0.3	-0.0131588549323912	0.00594962635473803	0.00289725096372897	-0.00130122141776665	0.00289096639005892	-0.0013128588423318	0.00619509902747454	-0.00123899310175618
0.4	-0.012390541613164	0.00655066701182837	0.00268279050928448	-0.00169513629581192	0.00268068583923648	-0.00169704720322063	0.00576427310072705	-0.00318378447071323
0.5	-0.0119073428594396	0.00725686119683056	0.00241303910218806	-0.00205128975957511	0.00241585133048563	-0.0020550134715596	0.00460405308558864	-0.00470594479358916
0.6	-0.011043601972079	0.00824156338057995	0.00210097591958228	-0.00237119395283593	0.00210023307068633	-0.0023740347111085	0.00351285648012602	-0.00564459629253986
0.7	-0.0102236151787643	0.00888597670319777	0.00175049499751367	-0.00264102723153856	0.0017566975230667	-0.00264511797604724	0.00215576987199555	-0.0065077415286458
0.8	-0.00938077089968614	0.00951766987901141	0.00135724796587668	-0.00286058244951436	0.00136551503875231	-0.00285898677608528	0.000566593948440921	-0.00691918783986877
0.9	-0.00856141764309127	0.0100518929929867	0.000953357182273614	-0.00301219031759089	0.000953339534903186	-0.0030215990196416	-0.000972707601745705	-0.0070008160576864
1	-0.00798270001115286	0.0103548366163959	0.000521313115800889	-0.00312075296024834	0.000521166365250211	-0.00312610653842261	-0.00279687068272289	-0.00692634601465815
1.1	-0.00752039182875418	0.0111532433788038	7.37323794392971E-05	-0.00316079942271709	7.46203333766996E-05	-0.00316552308187968	-0.0046617297292573	-0.00567300003830657
1.2	-0.00671973990676285	0.0114707410215279	-0.000364707788463934	-0.00313351782959933	-0.000363479748036174	-0.00315030140830527	-0.00548380439202633	-0.00416825778929827
1.3	-0.0062471104643362	0.0113358702795642	-0.00079530607736251	-0.0030594033581017	-0.00080023902898414	-0.00306705505405819	-0.00551042193748887	-0.00269173379552599
1.4	-0.00587642410034142	0.0109911600994837	-0.00122088872910392	-0.00291480716149935	-0.00122330062148117	-0.00292193394969553	-0.00505087290530811	-0.00179173075752935
1.5	-0.00550068363963904	0.0109545426595201	-0.00161304505193382	-0.00271670825493937	-0.00161107333022183	-0.00272224701749377	-0.004924376624391	-0.00113767151331148
1.6	-0.00453554161703256	0.0112853091735119	-0.00197536407653566	-0.00246005214044011	-0.0019788319191244	-0.00246093152147946	-0.00479682530226597	6.32636263139143E-06
1.7	-0.00359647159411619	0.01140536240486	-0.00229981580711762	-0.0021662119049574	-0.00230186086833344	-0.00217479467671868	-0.00446256216576418	0.00105459086120498
1.8	-0.00270855982317419	0.0116641664341799	-0.002576651227047	-0.00181754765937571	-0.00258182294007371	-0.00182300671532552	-0.00395674443562687	0.00206528368284469
1.9	-0.00180630511992984	0.0117185661725547	-0.00280250704376341	-0.00144858914851651	-0.00279899957746856	-0.00144240229484455	-0.00321310824940949	0.00288801460485096
2	-0.00124779518530531	0.0118250485780342	-0.00297728707847035	-0.00103676851980335	-0.00298002649579281	-0.00102993052290498	-0.00270292660740038	0.00371752361920438
2.1	-0.000244039872811782	0.0121456496419492	-0.00309230059506486	-0.000605891646612765	-0.00309439676499635	-0.000612583155661012	-0.00136257356551369	0.00476899330507195
2.2	0.000738836426116524	0.0120597036435696	-0.00314648327382759	-0.000175510874196544	-0.00314830130726378	-0.00016579266539525	0.000487237753672549	0.00498023900342958
2.3	0.00150925279432427	0.0118160627357123	-0.00313871286909996	0.000266474346899777	-0.0031454630160711	0.000263562291885962	0.00225803670184017	0.00451805243647414
2.4	0.00219503372681885	0.0115199386125628	-0.00307866209180729	0.000700910211561107	-0.00307749863661245	0.000716020274516331	0.00395775394397141	0.00348360887184579
2.5	0.00245599913134242	0.0111231141808446	-0.002943937286748	0.00113181465736818	-0.0029569339162298	0.00113310174595839	0.00490627861711287	0.00177063252792245
2.6	0.00286775658707281	0.0113660198958554	-0.00275535894931327	0.00152743185728651	-0.00277628099649242	0.00153132733635236	0.00553092248585431	0.000505585378463832
2.7	0.0036460564411436	0.0114639384333759	-0.00252361799181178	0.00189714455720077	-0.00252390021043538	0.00190223039789528	0.00609014102335088	-0.0010741209048994
2.8	0.0046493381506473	0.0114671628900177	-0.00222878589283482	0.00222243658045791	-0.00223862708174318	0.00223362654499373	0.00636148948506191	-0.00272304790524043
2.9	0.00586352338701164	0.0111405253680636	-0.00189289597634823	0.0025155362520974	-0.0018909738447328	0.00252444808165515	0.0064609457362845	-0.00452039535450862
3	0.00682425870305284	0.0106008417967366	-0.00152301249024536	0.00275994818710933	-0.00153809400902066	0.00274689127320577	0.00588552700136323	-0.0062934541999815
3.1	0.00803932006623868	0.010138793846352	-0.00112318796620277	0.00294447465902584	-0.0011401460005346	0.00294987836051131	0.00535816656827654	-0.00766158952048269
3.2	0.00904367648373409	0.0092323374384494	-0.000703415896091856	0.00306966765043739	-0.000699146954523693	0.00308048331229486	0.0043939513628925	-0.00927959857475811
3.3	0.00977628615402065	0.00820285580081474	-0.000273885133472644	0.00314159044137156	-0.000270582722702258	0.00313720801652992	0.00303907479606733	-0.0108520174999823
3.4	0.0103029525952886	0.00709978865245341	0.000172106826086778	0.00315068294890517	0.000162668855634289	0.00315176136491543	0.00131394299234861	-0.0124501787295375
3.5	0.010335220571163	0.00607602218263767	0.000607690375733623	0.00309449298353173	0.000612703779769738	0.00309316004885848	-0.00139890741466774	-0.0137879334500731
3.6	0.0106199996909176	0.00553470846300748	0.0010280724691351	0.00297316906749615	0.0010346772134982	0.00297666138787678	-0.00400110652492909	-0.0138799639490788
3.7	0.0109414431851634	0.00474062231622631	0.00144455737615915	0.00279678144052819	0.00144281500062684	0.00281316363514391	-0.00637731815398604	-0.0138471612775263
3.8	0.0112051218229636	0.00396502471004631	0.00181332230441576	0.00257024149792473	0.00182393291803578	0.00257659538418445	-0.00887586571338922	-0.0135352453803276
3.9	0.0114811238476259	0.00311646214232342	0.00216162316426677	0.00229158819312531	0.00215702126916956	0.0022914943047258	-0.0114858357396761	-0.0128930444279511
4	0.0113958994032693	0.0023402024196811	0.00245219352300023	0.00197083363809439	0.0024636423933543	0.00197696991127988	-0.0145212286314402	-0.0115324920781961
4.1	0.0117574806253177	0.00196954381830991	0.00270325551872644	0.00160543758536364	0.00271982797872106	0.00161521656979481	-0.0166613404039277	-0.00880699468884578
4.2	0.0122378501308746	0.00112898324827449	0.00290581377438433	0.001208859313788	0.0029070479824019	0.00121114637010614	-0.0179379850531537	-0.00615188507483291
4.3	0.0125269678331321	0.000149079678565641	0.00304907676537465	0.000800291687131445	0.0030502655929051	0.000808880512124887	-0.0187450448546749	-0.00359726387995696
4.4	0.0126168791012542	-0.00101113293104822	0.00312764721016392	0.000364395045239547	0.00313556965989223	0.000359754251051082	-0.0192208281085133	-0.00112885308043623
4.5	0.0121390995711044	-0.00207208353732586	0.00315083409480227	-7.89779781056932E-05	0.00314764262126558	-7.67157673191164E-05	-0.0198887928581215	0.00134543483343546
4.6	0.0118779829003404	-0.00260964127372233	0.00309917449326655	-0.000525497348366592	0.00311221517243869	-0.000513506584844861	-0.0198112161108938	0.00467555392368339
4.7	0.0117370623289373	-0.00333391663370941	0.0029972104682826	-0.000939699689257034	0.00299711435104997	-0.000949141611376681	-0.0189042214313655	0.00753210772944453
4.8	0.0114775077626073	-0.00407015012189823	0.00284789361559877	-0.00134283835114873	0.00284023594799263	-0.00136303052017249	-0.0174831498899181	0.0101940061432693
4.9	0.0113820180401767	-0.00481663947834361	0.00263230178721837	-0.00174016581456469	0.00262622571114363	-0.0017317186335293	-0.0155046255264447	0.0123752184316906
5	0.0110350174526211	-0.00560663548710131	0.00235774217213775	-0.00207359022849894	0.00236049434265406	-0.00208602682377574	-0.0134721169458809	0.0142339297190819
5.1	0.0112103237039009	-0.00618484252581157	0.00203450500106278	-0.00239884795249146	0.00204774706509926	-0.00239636948434737	-0.010387464456194	0.0161608743048771
5.2	0.0112785309959353	-0.00730124209330541	0.00169082493678961	-0.00265573397644159	0.00169132507473039	-0.00265989925178675	-0.00689646408765542	0.0167687445044623
5.3	0.0110445388918512	-0.00847369742543945	0.0013005518398865	-0.00286707557890192	0.00129680313254237	-0.00286964887129627	-0.00365372771315653	0.0165693087630517
5.4	0.0105605804256889	-0.0096379849533442	0.000889131145533861	-0.00302685147095924	0.000888241145797888	-0.00302931257005756	-0.000756498368899334	0.0155525390957145
5.5	0.00942627062980857	-0.0104108439971553	0.000447764456139065	-0.00312169370964772	0.000460355946130928	-0.00312168632314087	0.000967588084455344	0.0143003690050351
5.6	0.00896861333713407	-0.0106403099145307	1.34805471422063E-05	-0.00314948831916557	1.01849674846447E-05	-0.00314602521628108	0.0031725039481885	0.0136462551828806
5.7	0.0083495766920584	-0.0113153318816355	-0.000419243470415749	-0.00312273212512263	-0.000422965116526304	-0.00312641965092909	0.00531403136261463	0.0119924821822947
5.8	0.00755892510089743	-0.0118358860837102	-0.0008543733748036	-0.00303217723569771	-0.000853650204006095	-0.00303986529715277	0.00696067621245773	0.00975414120385029
5.9	0.00676155269023382	-0.0122421522237254	-0.0012721630259677	-0.00287854090965332	-0.0012705668750238	-0.00288269639735531	0.00802084574732228	0.00699950837328578
6	0.00544881872252864	-0.0126947919602257	-0.0016598901886808	-0.00267051367668428	-0.00165390564455768	-0.00267387029113341	0.00740968756037335	0.00389321963601524
6.1	0.00462505958761568	-0.0122721427777415	-0.0020160401994857	-0.00242007973354793	-0.00201190275408631	-0.00242484834526464	0.00659218249908683	0.00245516770648541
6.2	0.00420760217975223	-0.012488758633353	-0.00233607335433097	-0.00210443911239322	-0.002332505069515	-0.00211310633881996	0.00624832719735918	0.00068547247792369
6.3	0.00373519551511191	-0.0129990867686123	-0.00260322923729318	-0.00176465873419249	-0.00261305068368002	-0.00177240602433088	0.00570450869211987	-0.00134541183096321
6.4	0.00299432935686598	-0.0138119503243856	-0.00282911294116921	-0.00137885967074716	-0.00282713023426151	-0.00138465464075467	0.00476882519276911	-0.00367763198914398
6.5	0.00169506324684889	-0.0143174959629623	-0.00299253702667858	-0.0009785413623246	-0.00299294020613165	-0.00097741943842145	0.00262413925483854	-0.00548056190674139
6.6	0.0010676873549721	-0.0144343548466153	-0.0030984675095825	-0.000553472307708313	-0.0031091368598151	-0.000556470837164057	0.00121095053314225	-0.00629377282312091
6.7	0.00017052518974883	-0.0148149974316185	-0.00314313858847797	-0.000118400988713431	-0.00314209096946259	-0.000112163784278183	-0.000676216583188217	-0.00733581147431263
6.8	-0.000799042585487457	-0.0148354754706152	-0.00312772587486397	0.000329863484728671	-0.00312681612764917	0.00033462179118939	-0.00297460904892324	-0.00767219521721842
6.9	-0.00165605812068014	-0.014898135081237	-0.00304512645695815	0.00075893779054039	-0.00304554659258657	0.000763920167118092	-0.00520980926216733	-0.00761427360728082
7	-0.00310975001980049	-0.0147093810200804	-0.00291681610592901	0.00117695645555961	-0.0029182296202421	0.00118017400040737	-0.00839752542383183	-0.00678646913325815
7.1	-0.00370926360822031	-0.0138457389264728	-0.00271810005902887	0.0015767907237948	-0.00272051214318684	0.00158781165627708	-0.0101481346781055	-0.00400752993800176
7.2	-0.0042862325252643	-0.0136330524226795	-0.00247678528922421	0.00193764717654408	-0.00247696236669162	0.00194354132247015	-0.010810663418785	-0.00167921893617543
7.3	-0.00514793936959822	-0.0133614463414951	-0.00218630563037385	0.00226199324430652	-0.00218354314495245	0.00226346449377914	-0.010881543502263	0.000529148440565624
7.4	-0.00606900860640211	-0.0131293991655497	-0.00184459203530731	0.00254626713276508	-0.00183737157612246	0.00255278347923438	-0.0103550521519808	0.00210937411541532
7.5	-0.00771325622212355	-0.0129114359130828	-0.00146529395998048	0.00278260257349118	-0.00146633587983059	0.00278058952789374	-0.0105481417041623	0.00298945951292817
7.6	-0.00870322816655364	-0.011585944708136	-0.00107057462393877	0.00295696985284804	-0.0010599130388762	0.00296729723900927	-0.0101459548987205	0.00531073769781062
7.7	-0.00931679912143114	-0.0108421718540154	-0.000642033712305438	0.00307971995322437	-0.00063647498502917	0.0030793658817081	-0.00897866336207852	0.00658561910845833
7.8	-0.00965180038621044	-0.0103820710447492	-0.000196174270643807	0.00314046793776197	-0.000209813917440976	0.00313340967748189	-0.00771503657219718	0.00765597760770915
7.9	-0.00989132198960435	-0.0102464814282502	0.00022841005893957	0.00312640233268018	0.000239488913141847	0.0031260814826527	-0.0063900341799962	0.00849162576668104
8	-0.0106997731303643	-0.00981383688944514	0.00066331173242136	0.00306752726047978	0.000671585333767805	0.00306544337332899	-0.00578325596932855	0.00976387403344291
8.1	-0.010409955020833	-0.009146379546328	0.00109182751994865	0.00294393300775685	0.00108954849494285	0.0029406875334407	-0.00314918252809558	0.011672248110837
8.2	-0.0104952079346677	-0.00903231031949599	0.00148277375722671	0.00276254522087245	0.0014819606829645	0.00277411176855488	-5.63973415585253E-05	0.0120390396436552
8.3	-0.010772842589217	-0.00881043819773326	0.00185490741489251	0.0025299893993875	0.00185997261099661	0.00252740545277854	0.00294494861374645	0.0115299865798441
8.4	-0.0110908832619333	-0.00861734771541654	0.00220005985149564	0.00224853652039953	0.00218892134813025	0.00224894177320852	0.00564304641337544	0.0099015467740258
8.5	-0.0121373801210793	-0.00824336276350773	0.00249314310242136	0.00191515270292454	0.00249315181972282	0.00191650019540433	0.00655960635029893	0.00788097365454668
8.6	-0.0123825834170015	-0.00701314531589959	0.00272588852399038	0.00155727682030691	0.00272168589060187	0.00155497054865735	0.00809952300350846	0.00702104875302008
8.7	-0.0124482728568135	-0.00637550913940895	0.00291604714022661	0.00115844725504458	0.00291488650367307	0.00115803663080171	0.00981680995782105	0.00493376857485802
8.8	-0.0125714992994966	-0.00571901818258314	0.00304462141255352	0.000740611348960475	0.00305558111021462	0.000738513139770553	0.0109156196078318	0.00221067388098867
8.9	-0.0124932563758853	-0.00524726974289746	0.00311800858789062	0.000312032234012278	0.00312734878570089	0.000304915071322145	0.011534626430303	-0.00108301995816457
9	-0.012871442355238	-0.00495955702460575	0.00313367496589425	-0.000134662844132031	0.00314043545869293	-0.000129059568028013	0.0104078601021148	-0.00462877518023138
9.1	-0.0126304550107042	-0.00424252961881665	0.00308643290258606	-0.000568541709989128	0.00308665049756725	-0.000568733740339743	0.00917363233992706	-0.0068555939484492
9.2	-0.0124649829001913	-0.00419517352057836	0.00297107376314014	-0.000988788893443336	0.00297488773156963	-0.000988562527748386	0.00760238680436059	-0.00946288091421303
9.3	-0.0126058469065942	-0.00408825552293123	0.0027998579876309	-0.00139656340767606	0.00281787675510713	-0.00139697810562376	0.00522727256991508	-0.011664031047967
9.4	-0.0128192008487417	-0.00399157842383433	0.00258434834836181	-0.0017687872299509	0.00258768153723026	-0.0017797958605396	0.00227333393150648	-0.0135011175075893
9.5	-0.0135660280632566	-0.0033662391983988	0.00231270220088691	-0.00212697346450873	0.00232748559886449	-0.00212762289112421	-0.00198822283883264	-0.0141349129477376
9.6	-0.0134145233553509	-0.00244161870839537	0.00199328379700268	-0.00242675383417025	0.0019935976068284	-0.00241974925517306	-0.00516727992457654	-0.0131301655264911
9.7	-0.0134767596051328	-0.00200507264777855	0.00163325866655596	-0.00268024254364328	0.00164154515618173	-0.00268181538708676	-0.00812569659266196	-0.0123067742787384
9.8	-0.0137055809550968	-0.00138468431801977	0.00125062580265211	-0.00287691623522874	0.00124881709084097	-0.00288555664830373	-0.0111211957174891	-0.0109639737261229
9.9	-0.0138403684797241	-0.000645183477539174	0.000840733143687244	-0.00302390354436578	0.00082887073095468	-0.00302653720261917	-0.0140520554883638	-0.00926523263736557
10	-0.0144473876190029	0.000246282232786939	0.000406730647146186	-0.0031007448057369	0.000405928776618729	-0.00310805108494924	-0.0177859175179108	-0.00675597751827681
10.1	-0.0140155713659104	0.00183417230902505	-2.38901477534248E-05	-0.0031378772523398	-2.85195804641443E-05	-0.00314065218157956	-0.0198836779710773	-0.00217879992957175
10.2	-0.0132642935181393	0.00266943918579918	-0.000462910655333078	-0.00310017084283437	-0.000475486062993091	-0.00310395675092246	-0.0204683188916339	0.00193230566965574
10.3	-0.0125147248446219	0.00327132719683734	-0.000894861424400876	-0.00299906715180867	-0.000894613366210448	-0.00301243835202262	-0.0202262478052353	0.00581811244827964
10.4	-0.0117118560963625	0.00346251032694327	-0.00130331199955105	-0.00285159712684893	-0.00130648168643006	-0.00284947808618982	-0.0192321940201527	0.00890302799893511
10.5	-0.0116153252737199	0.00366282241408011	-0.00168367581268157	-0.00263531000917188	-0.0016898130482859	-0.00264257311817807	-0.0190753858387653	0.0119671624027621
10.6	-0.010869059795737	0.00426746011374789	-0.00204462701882067	-0.00238280441144807	-0.00204611002657907	-0.00238791727107949	-0.0175114175995378	0.0161737947390154
10.7	-0.0102823198210888	0.0045075228047134	-0.00235334073155476	-0.00207138469259798	-0.00235650339172177	-0.00208741652155261	-0.0149834676799761	0.0198137866917514
10.8	-0.0096024923013704	0.00486299295255504	-0.00262111880450712	-0.00172467294687702	-0.0026181762442622	-0.00172683013703954	-0.0115804797009766	0.0231512367678979
10.9	-0.00880972674456993	0.00493140595246685	-0.00283885986355299	-0.00134886900463029	-0.00283812430563875	-0.00135399060429273	-0.0073704100616159	0.0253619400974602
11	-0.00860828926085659	0.00501002877526227	-0.00300664577898573	-0.000935415248176278	-0.00299960392055232	-0.000939687534308618	-0.00383073599816824	0.027043168425619
11.1	-0.00755528394455926	0.00548636744380685	-0.00310424854405675	-0.000515535057408248	-0.00309651687476665	-0.000507211420119146	0.00142982388137989	0.0291075818115069
11.2	-0.00661939629847184	0.00516203735004522	-0.00314487835880903	-7.32046386532608E-05	-0.00315148943019499	-7.00065352191754E-05	0.00752540670722586	0.0291884658356173
11.3	-0.00589821965167365	0.00470417367503776	-0.00312334702154687	0.000367719756123953	-0.00312651007450601	0.000365545657893598	0.0137215972663149	0.0277688940489192
11.4	-0.00539491392932418	0.00406189054795894	-0.00303937084511788	0.000799364285483855	-0.00304400864076843	0.00079950688688428	0.0194723424814851	0.0245950262425843
11.5	-0.00566916887321612	0.00362565503232428	-0.00290697352263245	0.00121246756578793	-0.00289944939654615	0.001217240392051	0.0231555526205579	0.0204160734681986
11.6	-0.00512995238845865	0.00368237344187641	-0.00270233067400072	0.00160618137374378	-0.00271046901176376	0.00161588451185741	0.0271760032059137	0.0165541182075108
11.7	-0.00469517839377497	0.00310513015399354	-0.0024494683472778	0.00197346705878575	-0.00245122645048857	0.00197716063033846	0.0307688039723006	0.0109362965003032
11.8	-0.00441921773776515	0.00257564743956954	-0.00215139346217202	0.00229923323286568	-0.00216062967846709	0.00230903445721125	0.0330577438233143	0.00434372941050668
11.9	-0.00418775784314985	0.00182834292366082	-0.00181051932898511	0.00257414423715858	-0.00181055760449502	0.00258071655846702	0.033468144178977	-0.00297541048102886
12	-0.00500692462655454	0.00142467786014506	-0.00142827985602045	0.00279719366147183	-0.0014327787949971	0.00279997979401977	0.0307208495673265	-0.00942517185308961
