# GHZ S RI R 50
0.2	-0.0141005581297984	0.00466089626620013	0.00304841526496104	-0.000884096778497333	0.00305888610155068	-0.000883937061010167	0.00568231175089781	0.000140295907389143
0.3	-0.013268486928829	0.00534954654176524	0.00290340733024688	-0.00130057047200707	0.00289712358938728	-0.00131223366289263	0.0060311735963025	-0.00193420185966558
0.4	-0.0125453106685442	0.0063222377654677	0.00269041495001541	-0.00169598152054373	0.00268830772786732	-0.00169789880818876	0.0056191428993613	-0.00350248366786735
0.5	-0.011430565190366	0.00694293131612232	0.00242059153440165	-0.00205524805090019	0.00242341335404391	-0.00205897987715991	0.00528243320511526	-0.00518133682915891
0.6	-0.0112201632615999	0.00732540079685452	0.00210718073452548	-0.00237593493558716	0.0021064374337398	-0.00237878291719024	0.00360357080844945	-0.00701764696644882
0.7	-0.0108981268666052	0.00835622406175033	0.00175658795756469	-0.00264707646661037	0.00176280918530073	-0.00265117466744224	0.00162427679196322	-0.00771698176592029
0.8	-0.010245169683287	0.00934952249121002	0.00136240443014593	-0.00286855765433058	0.00137069546252963	-0.00286695399807928	-0.000351845172107428	-0.00789000850418244
0.9	-0.00963106494051718	0.0103998603254831	0.000956293745768986	-0.00302185140406604	0.000956275697932299	-0.00303129017344011	-0.00236752131495964	-0.00741007897506083
1	-0.00819632650418838	0.0114962622105793	0.000521670685648131	-0.00312944391801188	0.000521521708539109	-0.00313481205023779	-0.00339678678880457	-0.0061590734804194
1.1	-0.00725416263798005	0.0110898393747993	7.42733222617547E-05	-0.00317007136685433	7.51643679246709E-05	-0.00317480880266648	-0.00442551503591952	-0.00599507149979316
1.2	-0.00711726193312418	0.0108560337875807	-0.000366367266215613	-0.00314391510578553	-0.000365137505486561	-0.00316075482396262	-0.00566759158459927	-0.00514313338540688
1.3	-0.00734198142844833	0.0104217500424316	-0.00079960828518786	-0.00306955597384368	-0.000804562155699859	-0.00307723156301473	-0.00618941588447047	-0.00418084117465914
1.4	-0.00756767135210246	0.0104271550772154	-0.00122713713854185	-0.00292332244666731	-0.00122956244600849	-0.0029304705036069	-0.00632743540309594	-0.00323293874217841
1.5	-0.00669344383983976	0.0106858377613533	-0.00161904915100855	-0.0027251197231393	-0.00161707252495443	-0.00273067708036736	-0.00568600473345736	-0.00257857697179899
1.6	-0.00610856862105116	0.0112614605155066	-0.00198512141208142	-0.00246881460453245	-0.00198860407109246	-0.00246969526035827	-0.00624455121208204	-0.00163162096457512
1.7	-0.00483092379507634	0.0121117614608503	-0.00231208065596264	-0.00217212828964739	-0.00231414526738162	-0.00218074367964597	-0.00601887826243493	0.000147877923635581
1.8	-0.00348887649438112	0.0126877018134121	-0.00258978150631171	-0.00182060937088623	-0.00259498248373943	-0.00182608174791543	-0.00531009686254498	0.00168960653754113
1.9	-0.00213486373751382	0.0130598737254064	-0.00281577054719667	-0.0014498902606825	-0.00281223963981684	-0.00144368461439199	-0.0041544721058732	0.00317125775865926
2	-0.000499257364933189	0.0128384579042363	-0.00299344259322403	-0.00103637241962077	-0.00299618281991366	-0.00102949667165017	-0.00214192292532828	0.00390048172325496
2.1	9.48196457325624E-06	0.0122464254994642	-0.00310837983231737	-0.000599264029892281	-0.0031105060280091	-0.00060597995727555	-0.00102831786027169	0.00363084311707763
2.2	0.000576340028970621	0.0123486059289152	-0.00316009151393608	-0.000165619028514345	-0.00316188427364047	-0.000155854483550894	0.000215254782566142	0.00372575415437626
2.3	0.00124029323860328	0.0123275058109613	-0.00315029909526446	0.000278702484646384	-0.00315708655582464	0.000275802810175559	0.00154626120448173	0.00342295658074868
2.4	0.00191820620993712	0.0124105227934102	-0.00308889994899644	0.000715838487018004	-0.00308767281288078	0.00073100765379574	0.00287435647921747	0.00304986951058794
2.5	0.00312689061229542	0.0122318442855902	-0.00294987487283562	0.00115179877123601	-0.00296291714770834	0.00115315913114941	0.00493297336452275	0.00221705497847156
2.6	0.00359902539792466	0.0113778116746007	-0.00275492664497387	0.00154641983199698	-0.00277588652566554	0.00155043790688183	0.00624666423860464	-9.17167928878948E-05
2.7	0.00389716511831621	0.0111584913165464	-0.00252020837406099	0.00191526087349488	-0.00252046469485974	0.0019203613376732	0.00664592701744549	-0.00226378060597173
2.8	0.00444762348661172	0.011119379233426	-0.00222200932756741	0.00224025614375761	-0.00223181298187143	0.00225152819532603	0.00655433463552156	-0.00426687264887773
2.9	0.00536297859877806	0.0111184647606101	-0.00188121570643892	0.00253269807536605	-0.00187923385947311	0.00254161684466692	0.00632838249287985	-0.00586670225755643
3	0.00666457347807914	0.0105474091855556	-0.00150604649336497	0.00277150241660831	-0.00152122184413932	0.00275853532961049	0.00641425159546085	-0.00776741180144841
3.1	0.00714679095070019	0.00989891312677179	-0.00110721745068581	0.0029521085357626	-0.00112415298552561	0.00295760964291541	0.00526104307468065	-0.0100185283689639
3.2	0.00783395494799493	0.00957901284345953	-0.00068599045824385	0.00307513947985643	-0.000681657031622804	0.00308593541105638	0.00363397516263839	-0.0114655878659709
3.3	0.00856401840212387	0.00907352672369817	-0.000254837471837693	0.00314333658396104	-0.000251561553054403	0.00313893401015611	0.00185446721200206	-0.012675929895121
3.4	0.00929231799434156	0.00858101516322076	0.000191179617318953	0.0031468990809179	0.000181756415567945	0.00314803414167811	-3.9403954611165E-05	-0.0135135557844816
3.5	0.010269697294058	0.00764184845806417	0.000622116099486714	0.00308767481879172	0.000627116748331006	0.00308631894496424	-0.00163810698442411	-0.0145485940842136
3.6	0.0103351728678414	0.0065556474052985	0.00104299315748159	0.00296640327225323	0.00104961282309632	0.00296985965941801	-0.00447088367980421	-0.0156086515642729
3.7	0.010552918173068	0.00604354874309608	0.00145898017620439	0.00278610492178485	0.00145733157663835	0.00280248199976753	-0.00748167738874589	-0.0154354827804413
3.8	0.0109979589118934	0.00547089079498065	0.00182501611498536	0.00255629093018094	0.00183564656249142	0.00256257604718599	-0.0103238255609329	-0.0146031093515981
3.9	0.0116083971762842	0.00484474244765916	0.0021692940977629	0.00227648921744395	0.00216470008322521	0.00227641878581257	-0.0128041985757331	-0.01299558586106
4	0.012480813779603	0.00361538785610443	0.002460033159259	0.00195656813422177	0.00247150301274862	0.00196264055762151	-0.0142086884741329	-0.0113715661143601
4.1	0.0122524694471331	0.00225468968950973	0.00270882837728262	0.00158589833905389	0.00272543460682962	0.00159555764134746	-0.0162045522239433	-0.00995353486684447
4.2	0.0121866140661272	0.00150866081438421	0.00290572951420308	0.00118808116539052	0.00290697447939315	0.00119035485500903	-0.017928746755562	-0.0075857511544639
4.3	0.0122252494682149	0.000722635751199386	0.00304459418330089	0.000780453386230711	0.00304582865597145	0.000789009869036246	-0.0190813309967858	-0.00495320928986923
4.4	0.0122393172105814	-5.82609761189933E-05	0.00312079452299891	0.000345856387091083	0.00312866847883285	0.000341184451695737	-0.0196854152511531	-0.00187036217912956
4.5	0.012483147521872	-0.00122692695515499	0.00313972595222816	-0.000100117392494038	0.0031365605544562	-9.78410913504753E-05	-0.0189410003494493	0.000896536149085909
4.6	0.0115282253023833	-0.00252163846867974	0.00308033587034328	-0.000541904014689391	0.00309338459153873	-0.000530053810362984	-0.0187736348243185	0.00275677636856492
4.7	0.0107541159032461	-0.0028847423294759	0.00297618701558782	-0.000950740346331967	0.00297604083739797	-0.000960131380904633	-0.0184858490071763	0.00520813950949701
4.8	0.010244700164925	-0.00313021686758936	0.00282554528344368	-0.00134996260515682	0.00281782693892627	-0.00137000577384236	-0.017592499345883	0.00784591678159155
4.9	0.010190259991227	-0.00320266282970564	0.0026076255777746	-0.00174405338475626	0.00260163012065225	-0.0017356231215975	-0.0159558787783714	0.0105709843104845
5	0.0106847680970506	-0.00393956050477465	0.00232963000370429	-0.0020692292995744	0.00233230058147784	-0.00208158427788611	-0.0128874284984428	0.0124499395892383
5.1	0.0104202507947922	-0.00479839022673938	0.00201152579464484	-0.00238725680439842	0.00202467597067894	-0.00238483922959465	-0.0104816657403423	0.0133105417279892
5.2	0.0105393034916107	-0.00544103446842713	0.00167082826729817	-0.00264114849439809	0.00167131279136853	-0.00264528471874625	-0.0077734042429668	0.0142483777330504
5.3	0.0106164791553961	-0.00641524075463927	0.00128299443413519	-0.00284868698104715	0.00127926744303893	-0.00285123066362104	-0.00478708219750387	0.0146802809480113
5.4	0.0104996761977284	-0.00733118556395339	0.000875182196428677	-0.0030030834850187	0.000874294524253455	-0.00300552184092826	-0.00157564447679721	0.0146319541732711
5.5	0.0103776883029033	-0.00871833494375182	0.000443672064693464	-0.00309517001389105	0.000456156407409512	-0.00309516382827615	0.00208806040162054	0.0130972990588271
5.6	0.00897588067835824	-0.00963288442121839	1.3346752647333E-05	-0.00312646648470572	1.00753012859654E-05	-0.00312302865937142	0.00368434283261322	0.0107193655173502
5.7	0.00813670692521002	-0.00975806386901541	-0.000416190446480847	-0.00309933076603112	-0.000419884320374144	-0.00310299056793535	0.00485828194724546	0.00905157919411804
5.8	0.00764479405879682	-0.0100479656236503	-0.000846091630780489	-0.00300893600694854	-0.000845370040469015	-0.00301656361043727	0.00586866252302203	0.00719444330745343
5.9	0.00723175213542989	-0.0103575732102994	-0.00125731557670798	-0.00285837340818404	-0.00125572465889683	-0.0028624938614375	0.00650855113578012	0.00556675241563653
6	0.0072095270473447	-0.0115257369091024	-0.00164417443265753	-0.00265751552333992	-0.0016382197672017	-0.00266083915213913	0.00785829208610663	0.00352043961419755
6.1	0.00531341460065766	-0.0131330951854197	-0.00199972765414381	-0.00240655788814811	-0.00199561169902378	-0.00241128986866968	0.00761049674581579	0.000150258126429678
6.2	0.00314605892094427	-0.0133715851838226	-0.00231560338449465	-0.00209407177322168	-0.0023120437010629	-0.00210267113962788	0.00636423210433842	-0.00224282812294961
6.3	0.00155724143360807	-0.012965220992222	-0.00258070616857248	-0.00175964405699245	-0.0025904396997405	-0.00176736499345056	0.00500237921414267	-0.00408844441634143
6.4	0.000762623509984128	-0.0123511032769663	-0.00280806360687745	-0.00137945089192759	-0.00280607469800279	-0.00138520535410887	0.00394673565218232	-0.0053599688030925
6.5	0.000539014969088381	-0.0127836864046763	-0.00297290149870955	-0.000978368627512958	-0.00297330439760653	-0.000977254133572679	0.00351687412550625	-0.00758110372106848
6.6	-0.000673255254654117	-0.0126742262725935	-0.003074775088618	-0.000558428057215712	-0.00308535971582352	-0.000561435856955418	0.00111577059625796	-0.00964033429833955
6.7	-0.00116354992070448	-0.0123185312505394	-0.00312146866504455	-0.000129717276554279	-0.00312045215825783	-0.00012351812977774	-0.00144795129159716	-0.0103611242379647
6.8	-0.0016936260806379	-0.0120465261598132	-0.00310972665028857	0.000314693342121112	-0.00310884250990151	0.000319425977773506	-0.00410608259143046	-0.0102255426345197
6.9	-0.00201187086543952	-0.0115648179160604	-0.00302971496470109	0.000742645738903831	-0.00303015175168885	0.000747596501744789	-0.00622159146682819	-0.00892363626307584
7	-0.00193739256880371	-0.0120233115172891	-0.00290020191223464	0.00115504311278254	-0.00290161924587492	0.00115823017016001	-0.00684118079719679	-0.00822436071509544
7.1	-0.00349576068134121	-0.0120492604594438	-0.00271005071499519	0.00154900360802475	-0.00271251688407037	0.00155993586946711	-0.0091582020995231	-0.00778725978546631
7.2	-0.00425431994404347	-0.0112237130209389	-0.00247544551557685	0.00191000423611007	-0.00247566083500097	0.00191586329972303	-0.0110931191607077	-0.00577926386084261
7.3	-0.00468755901759882	-0.010597309908837	-0.00218981300678156	0.00223483187269058	-0.00218707553820024	0.00223631391896695	-0.0122844300147143	-0.00329921685608735
7.4	-0.00488102348546082	-0.00999630099618899	-0.00185267664975377	0.00251810057375596	-0.00184554549627239	0.00252463245831357	-0.0127769365762263	-0.00025006023132297
7.5	-0.00447159788854314	-0.0105426034347512	-0.00148443987501861	0.00275506637537183	-0.00148545762153605	0.00275305335204121	-0.0110134521666875	0.00230584268743142
7.6	-0.00607903888573231	-0.0116778133756124	-0.00109455872227014	0.00293856756842967	-0.0010840227490531	0.00294896263801796	-0.0100267850173497	0.00297532090943961
7.7	-0.00786377399543036	-0.0115399788582173	-0.00066761152348397	0.00306620691974671	-0.000662063818524672	0.00306590286622311	-0.00952564010698644	0.00416187074250799
7.8	-0.00921761858178384	-0.0110240028884801	-0.000224529382759797	0.00313141491139767	-0.000238072779316158	0.0031242478339241	-0.00846407715696388	0.00570250131698838
7.9	-0.00998419737544946	-0.0102907561451482	0.000196180586513884	0.00312383797902428	0.000207245373034781	0.00312363057413435	-0.00642176631264471	0.00735090041417242
8	-0.0105466453404648	-0.0104613024117254	0.000633268337025828	0.00307706839139682	0.000641570620340928	0.00307506525641265	-0.00341314571165476	0.00738792817845591
8.1	-0.0120289674871277	-0.00939737461234761	0.00106739460485913	0.00295616682553348	0.00106514149671775	0.00295289856160929	-0.0021795476487816	0.00716205055031849
8.2	-0.0124490670177785	-0.00810290621972727	0.00145985925182417	0.00277866690097113	0.00145894269399481	0.0027902386606063	-0.000359379850456576	0.00744867773523219
8.3	-0.0127330415832739	-0.00705994691253017	0.00183527768162417	0.00255173652497505	0.00184037608564009	0.00254919401436794	0.00167218971029417	0.00739792316948341
8.4	-0.0127843283439163	-0.00583328837586839	0.00218770967018793	0.00227575608583534	0.00217652927192019	0.00227606407403371	0.00398223499016215	0.00727707233021167
8.5	-0.0124090114302172	-0.00556474438304323	0.00248952167449665	0.00193891393210411	0.00248952140175881	0.00194026645616065	0.00729385071770831	0.00562524225315334
8.6	-0.0134870508587755	-0.00478752299653669	0.00272219449430418	0.00158106316869071	0.00271799687817287	0.00157872048354221	0.00840699062055364	0.00266406525699047
8.7	-0.0135710688501483	-0.00325224758195489	0.00291748912303653	0.00118427322278366	0.00291632753513281	0.00118385249423632	0.0088807826452962	0.000338947944273396
8.8	-0.013083160324853	-0.00206047220932007	0.00305248571087397	0.000765342161146376	0.00306350742785344	0.000763312469187301	0.00886129556391341	-0.00196219456259963
8.9	-0.0121284352688495	-0.00125340500184727	0.00313052217514856	0.000331720168712767	0.00313994699396525	0.000324624950637717	0.00871869730657477	-0.0036860217845384
9	-0.0108823453539706	-0.00190806057517145	0.00314384340922187	-0.000116322436112763	0.00315059058790914	-0.000110661983168969	0.0094797730657225	-0.00608676373931129
9.1	-0.01140240753662	-0.00267748153259536	0.00310329545685354	-0.00054859752268971	0.00310351533797541	-0.000548788775012452	0.00839203448487352	-0.00940107392385382
9.2	-0.0119093928701644	-0.00279909529892948	0.00299291979763068	-0.000973751978090744	0.00299675169961016	-0.000973498676388876	0.00662381937379312	-0.0118097248954115
9.3	-0.0125761045837761	-0.00263166946930617	0.00282354378054934	-0.00138681570840317	0.00284166211186564	-0.0013871215196996	0.00443831416781818	-0.0136807737672731
9.4	-0.0129704899314517	-0.00197865263449915	0.0026077330081067	-0.00176167948836827	0.00261114951053302	-0.001772721542113	0.00219779717403083	-0.0147337635472525
9.5	-0.0132609048254591	-0.00191231049042914	0.00234294676311408	-0.00212136316502395	0.00235782211727439	-0.00212190065059286	0.000240923615829075	-0.0164261162183657
9.6	-0.0143966921609346	-0.000817540814806028	0.00202519239944151	-0.00243266531392842	0.00202546206241659	-0.00242560328396443	-0.00388536231263735	-0.0176120968670816
9.7	-0.0143997954275832	0.000629631815655763	0.00166173370735555	-0.0026928694059612	0.00167009667769143	-0.00269440822795394	-0.00800554880783334	-0.0170698787655275
9.8	-0.0140750092689747	0.00173858075090472	0.0012763430528829	-0.00289406724257674	0.00127456548993168	-0.00290278887552255	-0.0119253071800935	-0.0154579857264029
9.9	-0.0134190171350207	0.0027339078192873	0.000865690752132038	-0.00304624277750499	0.000853736882114254	-0.00304896837042511	-0.0153074380435768	-0.0124839110774617
10	-0.0126213806937209	0.00250118302690699	0.000425697133938677	-0.00313460330455529	0.000424919669329689	-0.00314199747130662	-0.016923212882381	-0.00970515303064996
10.1	-0.0133203605510839	0.00278934020034467	-1.6795420954258E-05	-0.00317285662014568	-2.14698682448805E-05	-0.00317567329262164	-0.0194978445692934	-0.00710352828140852
10.2	-0.0133083353805675	0.00374268949407843	-0.000462538476491668	-0.00313473459257627	-0.000475244199161615	-0.00313858367778787	-0.0214326934076734	-0.0032022446363974
10.3	-0.0129243630136465	0.00458852559611084	-0.000901368379747827	-0.00303384081406776	-0.000901101694253096	-0.00304736203131314	-0.0223540113247442	0.0013921122772909
10.4	-0.0120555902517834	0.00520749618481025	-0.00131921392386153	-0.00288655815762197	-0.0013224224865457	-0.00288441322967232	-0.0216346386157045	0.00642129998128186
10.5	-0.0112890004327749	0.00451738905154786	-0.00171091332259268	-0.0026605233243452	-0.0017171428167425	-0.0026678514344096	-0.0189064173926369	0.0100547850840255
10.6	-0.0121483526787826	0.00455100475677392	-0.0020709710573832	-0.00240006915131577	-0.00207248260583208	-0.00240522714984457	-0.0171953480941557	0.0127362389726109
10.7	-0.0125940427437476	0.00554290864418885	-0.00238184551456292	-0.00208494991290821	-0.00238508303877909	-0.00210112826283823	-0.0149924169429902	0.0160013980182995
10.8	-0.0125047834792821	0.00700073730651159	-0.00265308905255937	-0.00173251421295454	-0.00265012498194311	-0.00173470306464707	-0.0120679351275447	0.0193001347689439
10.9	-0.0114862463084886	0.00850085494110066	-0.00287243702020537	-0.00134704714275297	-0.00287172071072698	-0.00135222064460498	-0.0078544869673568	0.022530643992278
11	-0.00997946903556057	0.00863208193515827	-0.00303232439113317	-0.000927055743992004	-0.00302525443238756	-0.000931392838256385	-0.0019459558609902	0.0238050607548296
11.1	-0.00963071125299571	0.00933087618280799	-0.00313024457125199	-0.000507161923760679	-0.00312242014779759	-0.000498804839809248	0.00257867759043103	0.0236333836167824
11.2	-0.00826457208293392	0.0101225663437676	-0.00317043102597436	-5.87333417002656E-05	-0.00317707976349788	-5.54779552385522E-05	0.00734633007738024	0.02328774774532
11.3	-0.00651983374682367	0.0103804831202906	-0.00314467872986843	0.000388221705611907	-0.00314787785297895	0.000386049274667477	0.0121255283865648	0.0223404602393196
11.4	-0.00476647932597247	0.0101226754846699	-0.00305329455455967	0.000822005651484652	-0.00305795988765831	0.000822176212334628	0.0171861745455408	0.02074871621323
11.5	-0.00334624359307652	0.00853216705986244	-0.00292109951186743	0.00123237882266408	-0.00291350632444356	0.00123715211013991	0.0228567414749493	0.0168486815793829
11.6	-0.00327666424591813	0.00765239808393102	-0.0027144697588689	0.00163369488762511	-0.00272261764579942	0.00164351879694573	0.0261072945125046	0.0116604075073784
11.7	-0.00248539576173895	0.00696281397810766	-0.00245396895863061	0.00200375819564618	-0.00245571526045378	0.00200748980316989	0.028606639144069	0.00661620637297928
11.8	-0.00169003360824324	0.00583993007198472	-0.00214941593806383	0.00232864326028657	-0.00215864414128548	0.00233857030039204	0.0304416822681666	0.00138560322074633
11.9	-0.00055743729214185	0.00413058783825107	-0.00180610881208492	0.00260188783140563	-0.00180610646651381	0.00260850248263403	0.0322221145315364	-0.00376714529764701
12	-0.0014041535127944	0.00152237871143371	-0.00141914134474518	0.0028310255716741	-0.00142365662387426	0.00283386844391218	0.0329844604288327	-0.0107759419033266
