# GHZ S RI R 50
0.2	-0.0139995701540718	0.00550439275023917	0.0030438407952146	-0.000885462139691291	0.00305429852297714	-0.000885311153484343	0.00576880201294982	0.000985963009561523
0.3	-0.013194342276793	0.00596745294028638	0.00289745842470583	-0.00130143404965648	0.00289117290489677	-0.00131307227123359	0.00607935453999401	-0.00131159159656059
0.4	-0.0124526421903626	0.00662885677817608	0.00268301442807	-0.00169547725629029	0.00268090941014564	-0.00169738827551168	0.00566898353235518	-0.00318488247955813
0.5	-0.0119218989691375	0.00738271629377961	0.00241313725788547	-0.00205195650751561	0.00241594941351155	-0.00205568120979066	0.00472215271966115	-0.00470652553209957
0.6	-0.0111059978143446	0.00836576436056918	0.00210069101148633	-0.00237185804038407	0.00209994750423139	-0.00237469892165487	0.00364530541161313	-0.00589965026689043
0.7	-0.0102933640154338	0.00909652287300402	0.00175003722058684	-0.00264161744027838	0.00175623930047617	-0.00264570987867573	0.00217209403092077	-0.00686335855847791
0.8	-0.00941249523050504	0.00978302892537579	0.00135660595089544	-0.00286113940563797	0.00136487403168063	-0.0028595457551579	0.000452930938888167	-0.00731765834553268
0.9	-0.00857022744334683	0.0103449161156059	0.000952417299518457	-0.00301271566302727	0.000952396510418431	-0.00302212500614436	-0.00129046062274747	-0.00732348007903523
1	-0.00792117636492051	0.0107207835118913	0.00051993798119431	-0.0031208099359309	0.000519788927695178	-0.00312616316247427	-0.00308446331651135	-0.00684640040762163
1.1	-0.00741463020385582	0.0114184529308371	7.25925144035164E-05	-0.00316040360086898	7.34786609931098E-05	-0.00316512694654527	-0.00459272641066597	-0.00559223435646781
1.2	-0.00668636436130489	0.0117629234772054	-0.000365787192224152	-0.00313296241481833	-0.000364565363760195	-0.00314974416466709	-0.00526831259168457	-0.00414215951428983
1.3	-0.00622218913303842	0.0117000726363383	-0.00079638212765483	-0.00305857092518002	-0.000801317272345298	-0.00306621937427039	-0.00511978582215897	-0.00278822548372986
1.4	-0.0058658080267719	0.0114293561225936	-0.0012218476955492	-0.00291350909120608	-0.0012242620825864	-0.00292063295698433	-0.00467499398526816	-0.00208962219348222
1.5	-0.00542732972454228	0.0114721424264673	-0.00161328666605216	-0.00271511706506286	-0.00161131750950475	-0.00272065428196838	-0.00447217553984902	-0.00160329314400315
1.6	-0.00445670103469139	0.0118188335075202	-0.00197543763203775	-0.00245879028906457	-0.00197890467995321	-0.00245966847725944	-0.00460390228131199	-0.000833353296205378
1.7	-0.00343444760183924	0.0119622866824726	-0.00229979200498964	-0.00216478882910155	-0.002301839193211	-0.00217336824315674	-0.00456830384879808	0.000238511405524468
1.8	-0.00249006594148774	0.0121514054611267	-0.0025762579330262	-0.00181599417767686	-0.00258142945553009	-0.00182144941670557	-0.00422004591074342	0.00136356702400876
1.9	-0.00161823038575576	0.0121339968206398	-0.00280155401318908	-0.00144718884526269	-0.00279804662171741	-0.00144100580939292	-0.00354326259860279	0.00240899829646045
2	-0.00105722375338622	0.012216757736934	-0.00297636328710037	-0.0010360432689037	-0.00297910091250271	-0.00102920735036224	-0.00266058917979732	0.00341783418150417
2.1	-0.000180235992415239	0.0124631608849034	-0.00309152605128292	-0.000604808110425386	-0.00309362351872653	-0.000611496954670129	-0.00120716205181446	0.00403719940176307
2.2	0.000724039371522259	0.0124760068217427	-0.00314522005535548	-0.000174436386820851	-0.00314703423522072	-0.000164721673692436	0.00039763028721157	0.00408096849356784
2.3	0.00151481294499483	0.0123011849476771	-0.00313711664618545	0.000267180839249107	-0.00314386428853754	0.000264271997219812	0.00189711658086259	0.00363527182720719
2.4	0.00221973199178465	0.0120187637289491	-0.00307713963483015	0.000701162251916016	-0.00307597391259127	0.000716265263527861	0.00329818615410933	0.00287013670838777
2.5	0.00253268044035243	0.0116666608318556	-0.00294251079701003	0.00113244874369223	-0.00295550242711507	0.00113373992993433	0.00444941038829428	0.00178541374084256
2.6	0.00295007666948774	0.0118065917568713	-0.00275306556668593	0.00152762073447787	-0.00277397332221471	0.00153152232798351	0.00563052064628028	0.000461911469100945
2.7	0.00367186548046075	0.0118839218565622	-0.00252135897851311	0.00189656557248958	-0.00252163956345053	0.00190164802399974	0.0064214987186471	-0.00137031776142973
2.8	0.00459259106497576	0.0118688486648087	-0.00222678723084465	0.00222145457616299	-0.00223661928147954	0.00223263928228251	0.00670675941417278	-0.00330507091480703
2.9	0.00567218223731909	0.011601770581409	-0.00189094435325815	0.00251447455953671	-0.00188902084863453	0.00252338010343829	0.00667745245602668	-0.00517050675774643
3	0.00659592357764136	0.0111995537855455	-0.00152043780821019	0.00275804239792998	-0.00153551091570405	0.00274500392761837	0.00635489721730982	-0.00691765939027083
3.1	0.00773255941938611	0.0108444454158298	-0.00112166545816505	0.0029414026780422	-0.00113860456573014	0.0029468022906321	0.00584285497217883	-0.00875989417875621
3.2	0.00875843266777978	0.0101344289874253	-0.000702772351009167	0.00306650869839935	-0.000698508047136125	0.0030773133977704	0.00461706721737664	-0.0105794534834911
3.3	0.00960085413000514	0.00922649210135997	-0.000273795648334768	0.00313836482792376	-0.000270496345425723	0.00313398707959505	0.00301523659771608	-0.0121949834975723
3.4	0.0102183680522626	0.008184203223616	0.000171691287899423	0.00314708370706664	0.000162264060096204	0.00314816023319136	0.0010583726679809	-0.0136331973779669
3.5	0.0104026453340956	0.00722872043478958	0.000605553927727517	0.00309057275317766	0.000610561128734886	0.00308924375025087	-0.00138208714418766	-0.0147149339651231
3.6	0.0107487729729853	0.00661987378667526	0.00102506210108949	0.00297071963040193	0.00103165765007483	0.00297421258141516	-0.0039090956977259	-0.0152584550936168
3.7	0.0111460758216368	0.00585611929828038	0.00144140367373387	0.00279500365967769	0.00143965263691914	0.00281136900256366	-0.00667279747678387	-0.0153525580679359
3.8	0.0115218872613989	0.00503882326703287	0.00180979806942414	0.00256896518423231	0.00182039398116886	0.00257532009199318	-0.00953361155517635	-0.0148353469932946
3.9	0.0118549985900605	0.00410780555986584	0.00215740163948896	0.00229114736050407	0.0021528045268989	0.00229104952390506	-0.0122903869254873	-0.013643531952192
4	0.011881814259404	0.00324680757367817	0.002448258320086	0.00197236860854798	0.00245969238526721	0.00197851409989994	-0.014627282223731	-0.0117545630418722
4.1	0.0121676395239428	0.00262286311671639	0.00270050282759261	0.00160703711425536	0.00271705846799019	0.00161682593586614	-0.0162359420865519	-0.0095989496530954
4.2	0.0124873002601614	0.00170335773807121	0.00290303607991581	0.00121070960315421	0.0029042675441496	0.00121299640059415	-0.0176325615562736	-0.00736318190926437
4.3	0.0126261756928181	0.000683833143498589	0.00304647326837368	0.000802932133028686	0.00304765263981188	0.000811517135777324	-0.0187075886845048	-0.0049486773246996
4.4	0.0125223465366234	-0.000482506792063845	0.00312599476936035	0.000367998377793109	0.00313391969546666	0.000363368874350448	-0.0194510944599856	-0.0022768057988147
4.5	0.0119161008947296	-0.00144842219723926	0.00315066623372792	-7.60715712146282E-05	0.00314747292146637	-7.38124709340912E-05	-0.0196905413324213	0.000629542038375659
4.6	0.0114173248567515	-0.00195161932390478	0.00309845553891906	-0.000522695748614008	0.00311148125639016	-0.000510698515109289	-0.0192177151306177	0.0034175029921741
4.7	0.0111051721211659	-0.00240217759014357	0.00299710349821312	-0.000936247325737342	0.00299701722189976	-0.000945685936222215	-0.0184838613488145	0.00591646365558401
4.8	0.0108472585337452	-0.00287724273319004	0.00284883276112306	-0.00133936856185862	0.00284119932201671	-0.00135956529528741	-0.0173235300331593	0.00841517954907295
4.9	0.0108058839931588	-0.00341431481060102	0.00263405310516345	-0.00173754892106603	0.00262796856559122	-0.00172910775555547	-0.0156446714741359	0.0107168385133617
5	0.0106313282079068	-0.0040067715960262	0.00235862495362388	-0.00207122703115724	0.00236138567510223	-0.00208365800398606	-0.013292670912815	0.0128002935868178
5.1	0.0108838229182527	-0.00452397271212373	0.00203658272004456	-0.00239560125156265	0.00204981711431253	-0.00239310816365034	-0.010314640292409	0.014153649074517
5.2	0.0111158207562871	-0.0054882236881967	0.00169396780811298	-0.00265326542780387	0.00169447314492621	-0.00265742954955267	-0.00737209353692693	0.0148166846262585
5.3	0.011112424262835	-0.00663497055208697	0.00130397761318343	-0.00286550384399633	0.00130023200580014	-0.00286808161112481	-0.00437873520033124	0.0150550332019424
5.4	0.0107755291831806	-0.0078644735359414	0.000892346334811371	-0.00302554609777405	0.000891459126319728	-0.0030280079008073	-0.00134927656716786	0.0146380134714936
5.5	0.00984774971418486	-0.00868547594985573	0.000452443560451078	-0.00311997929452354	0.000465030915727782	-0.00311995244565763	0.00144645019392592	0.0136398017150763
5.6	0.00937448717215912	-0.00908611404103018	1.90329548682034E-05	-0.00315013459134064	1.57305718454651E-05	-0.00314667655861436	0.00395315364182541	0.0118946426332713
5.7	0.00888734898439239	-0.00972804464491596	-0.000414366457243037	-0.00312472692511219	-0.000418083704453194	-0.00312842202820311	0.00559801234177062	0.00977872768133234
5.8	0.00835562915458196	-0.010446573471429	-0.000849985624894228	-0.00303490857831245	-0.000849250009248266	-0.00304259901185449	0.00670813466321363	0.00746977331132907
5.9	0.00764336487940143	-0.0113294122084521	-0.00126763087793149	-0.0028820740044412	-0.0012660266579029	-0.00288622851317222	0.00717460008001962	0.00512562259529338
6	0.00618095255168636	-0.012268290196153	-0.00165607060655371	-0.00267675878068622	-0.00165007282286635	-0.00268010645557464	0.00700669870771848	0.00306078187599701
6.1	0.00468651333081157	-0.012417779291831	-0.00201497650415062	-0.0024265601022781	-0.00201082589579726	-0.00243132869907424	0.00695384532336239	0.00113310936389157
6.2	0.00337024975557536	-0.0124703142435122	-0.0023361364221367	-0.0021106531142074	-0.00233255075329357	-0.00211932674287374	0.00646389862240171	-0.00100414038813953
6.3	0.00237579570441056	-0.0123600529896396	-0.00260437471031819	-0.00177108221993173	-0.00261419885869587	-0.00177885532178797	0.00566053872816163	-0.00307503240315817
6.4	0.0015557601630834	-0.0124623584584598	-0.00283212244850185	-0.00138572362050868	-0.00283012720944999	-0.00139152605254357	0.00458407853960982	-0.00503416501796141
6.5	0.000621080013197896	-0.0124257774463139	-0.00299846898959295	-0.000983514611315857	-0.00299887411633764	-0.000982390496906742	0.00335207942586185	-0.00673728227155949
6.6	0.000241294677808807	-0.0122695415727486	-0.00310390792394892	-0.000556406211896337	-0.00311459533727691	-0.00055941688255585	0.00182091023279808	-0.00856982932912796
6.7	-0.000208770830065863	-0.0124326728703945	-0.0031489322058981	-0.000120802779899287	-0.00314788695533098	-0.000114553189099926	-0.000579473461331621	-0.00975543084997154
6.8	-0.000812716607439941	-0.0125530283962128	-0.00313441226932656	0.000328588867603879	-0.00313350361615039	0.000333357601508693	-0.00322384489084037	-0.0100246409043452
6.9	-0.00159779630639432	-0.0127527142614876	-0.00305239230939952	0.000759925002255433	-0.00305281468972124	0.000764918843741794	-0.00574270909726413	-0.00947900088587774
7	-0.00287947351877971	-0.0125134356597115	-0.00292186875862313	0.00117989663025326	-0.00292328401803889	0.00118312046936869	-0.00785127535986285	-0.00814632640926137
7.1	-0.00351373704025872	-0.0117441605533355	-0.00272286350672093	0.00157905374056579	-0.00272528114309589	0.00159009277448255	-0.00930050478868029	-0.00670880451962182
7.2	-0.0039192797853129	-0.0113317511445227	-0.00248170322412922	0.00194106641595574	-0.0024818812704413	0.0019469717518617	-0.0107363739793124	-0.0049738247907725
7.3	-0.00434778318871326	-0.0110826418862426	-0.00219035500041203	0.00226675138545446	-0.00218758685463537	0.00226822520410215	-0.011708699137513	-0.00284027517753322
7.4	-0.00487115242677109	-0.0111917214159657	-0.00184677201275577	0.00255149344756477	-0.00183953620144812	0.00255801822933044	-0.0122308347013299	-0.000643787245132102
7.5	-0.00620292719796856	-0.0114724323836651	-0.0014674920658348	0.00278639397353614	-0.00146853532228415	0.00278437806584408	-0.0121521319867457	0.00187870710325424
7.6	-0.00747350025625128	-0.0109886176547539	-0.00107313648386125	0.00296275683680505	-0.00106245493578256	0.00297310644369656	-0.0110517097556335	0.00406507997908524
7.7	-0.00871526536237778	-0.0105550573693248	-0.000642781977460655	0.00308635067506184	-0.000637211580578188	0.00308599475902862	-0.00996686843861935	0.00543307116107306
7.8	-0.00964297360763751	-0.00999272627322832	-0.000195442499290565	0.00314681695745156	-0.000209111942294169	0.00313974946711488	-0.00856970111015212	0.00693732574145759
7.9	-0.0103998998303107	-0.0094875268651339	0.000229438852901838	0.00313221298585431	0.000240538391938003	0.00313188940500755	-0.00664050652156002	0.00837622833009183
8	-0.0111493954540371	-0.00859079581123488	0.000664775413342816	0.00307547473774926	0.000673070473700539	0.00307338614400073	-0.00415154234308403	0.00938089385725684
8.1	-0.011110678485915	-0.00765295286974679	0.00109696270003468	0.0029515082721732	0.00109467496979227	0.00294825519347166	-0.00141651222566855	0.00940784926565406
8.2	-0.0111233248352442	-0.00718244061246707	0.00148944700951754	0.002768396577225	0.00148864326243084	0.00277999459440553	0.000931637473424548	0.00900247695177856
8.3	-0.0113068963965668	-0.00680749381359315	0.00186250227283061	0.00253458211113172	0.00186757789158883	0.0025319859100404	0.00317732267502013	0.0082909808857784
8.4	-0.0116898894225253	-0.00647352321455603	0.00220898006116127	0.00225255240945505	0.00219780976527453	0.00225297146670336	0.00521496809926385	0.00718045432383413
8.5	-0.0125932074891416	-0.00576536743571981	0.00250523674112361	0.00191623227386646	0.00250524827760225	0.00191758414087993	0.00710034084364065	0.00587831474525818
8.6	-0.0128086292910239	-0.00440747946476464	0.00273664192202497	0.00155430423762739	0.00273242294826608	0.00155200278602021	0.00897677336690189	0.00367584463462796
8.7	-0.0126067536341769	-0.00341554219800796	0.00292556803506175	0.00115375309008732	0.00292440373570813	0.00115334444861804	0.00984470297904722	0.000953963734260744
8.8	-0.0122025980186851	-0.00270728802513671	0.00305343275330681	0.000734181458221323	0.00306441150319649	0.000732049396547601	0.00992384770504315	-0.00180269033565954
8.9	-0.0117398746569181	-0.0025341857659565	0.003126047087721	0.000302847045677384	0.00313538582416167	0.000295684165748099	0.00949158482157481	-0.00430245838922662
9	-0.0118738377316901	-0.00260930474505892	0.00313725872141553	-0.000146608508822226	0.00314404908251097	-0.000141023312360316	0.00882008610404632	-0.00643265931031523
9.1	-0.0118792068671636	-0.00241488322007963	0.00308733956732727	-0.000578825513361322	0.00308755674451855	-0.000579018402118189	0.00805222564651708	-0.00880949458392616
9.2	-0.0120574522204262	-0.00239047959714915	0.00297072557438969	-0.000999011288457864	0.00297454378128989	-0.000998796661228126	0.00651730078507819	-0.0110764777428007
9.3	-0.0123818053816413	-0.0022138488154774	0.00279743640026163	-0.0014070447246256	0.00281546824425253	-0.00140751999493422	0.00456603450556554	-0.0129288116077655
9.4	-0.0128141658630711	-0.00202688131022043	0.00257865722212244	-0.00177863258767851	0.00258195147142514	-0.0017896563248097	0.00218701706464975	-0.0144668219613746
9.5	-0.0135667712505226	-0.0012082462861646	0.00230576873380341	-0.00213288134607527	0.00232054506813914	-0.002133573086657	-0.000500704209595438	-0.0152919916481997
9.6	-0.0136046360713383	-9.6752019500507E-05	0.00198713121885424	-0.00243258864601031	0.00198746395387391	-0.00242558356550697	-0.00355939699711202	-0.0160882569756052
9.7	-0.0134553751427195	0.000711763747095528	0.00162553167082524	-0.00268542291301472	0.00163381456689347	-0.00268702049581274	-0.00734162592972362	-0.0159803768828307
9.8	-0.0132549339719702	0.00135716963019035	0.00124170840250222	-0.00288017217050128	0.00123987391851259	-0.0028888055522392	-0.0111652216369272	-0.0147724800679081
9.9	-0.013126779573556	0.00179355149630262	0.000832248716096649	-0.00302456147708891	0.0008203854907846	-0.00302716219904666	-0.0148815998693254	-0.0124298752132035
10	-0.01354506832134	0.00236739934839109	0.000399924492851963	-0.00310221387815397	0.000399106263239238	-0.00310951971334994	-0.0177260920670713	-0.00902612443950507
10.1	-0.0133957057752427	0.0034600126810184	-3.34011998346834E-05	-0.00313870299494248	-3.80403623776588E-05	-0.00314146469645166	-0.019501120032621	-0.00556456811683106
10.2	-0.0129581670962192	0.00421336337899015	-0.000472851082414553	-0.00309830455604762	-0.00048543718152369	-0.00310204945957261	-0.0209018938983387	-0.00183896991280164
10.3	-0.0124338571081907	0.00475763464564829	-0.000904006134897586	-0.00299513764276138	-0.000903800406044037	-0.0030085047101694	-0.0215429839056995	0.00236569624495283
10.4	-0.0119673979374944	0.00492102119279284	-0.00131162311324576	-0.0028470616838783	-0.00131478573940915	-0.0028449335485016	-0.0211507364311303	0.00669392656630689
10.5	-0.0120916234618479	0.00527782980049288	-0.00169404114707562	-0.002628613737961	-0.00170020692066185	-0.00263585248519404	-0.0195771024658291	0.011117155003399
10.6	-0.0117792154058602	0.00605700186460767	-0.00205219087055278	-0.00237162824241598	-0.00205369339806951	-0.00237672916247687	-0.01694456040961	0.0146478205864881
10.7	-0.0113304944587597	0.00677266512909331	-0.00235754234178207	-0.00205924550093201	-0.0023607608854052	-0.00207524045090911	-0.0139510897959233	0.01775076593962
10.8	-0.0106444208913545	0.00745065101506841	-0.00262301441705964	-0.00171233742802524	-0.00262008453184887	-0.00171450168605977	-0.0104722565610296	0.0203808165991184
10.9	-0.00995404364190867	0.00784719886649326	-0.00283931437279463	-0.00133555065103764	-0.00283859997639492	-0.00134066646629061	-0.00661222888834693	0.0225018062713534
11	-0.00952659600897574	0.00843536063394932	-0.00300198622756412	-0.00092010879580774	-0.00299498243985615	-0.000924398465333298	-0.00195317197647293	0.0242571566366118
11.1	-0.00835894957736545	0.00924181664495547	-0.00309571496824319	-0.000503894021476728	-0.00308798199039883	-0.000495622477229785	0.00330191105351154	0.0244914577809977
11.2	-0.0069445504469818	0.00940855847948036	-0.00313502853263374	-6.38562505508597E-05	-0.00314160918350272	-6.06492199656628E-05	0.00825633340290903	0.0237516944816523
11.3	-0.00544507455630078	0.00903047833317481	-0.00311186989887417	0.000375463732177959	-0.00311502864282955	0.000373305972615559	0.0131961764605177	0.0223109047400694
11.4	-0.00438560577057435	0.00815071111756572	-0.00302508448711921	0.000804944265343228	-0.00302970357820317	0.000805099630323902	0.017819823862044	0.0199499315161479
11.5	-0.00410168979140593	0.00742939305596535	-0.00289173058901035	0.0012118007208484	-0.00288423272417194	0.00121653929314276	0.0221442305598558	0.0167507262110969
11.6	-0.00340526128988859	0.00690271003598656	-0.00269008689787607	0.00160336203775261	-0.00269818243055559	0.00161303816397288	0.025999235455632	0.0120681033969144
11.7	-0.00282094133639904	0.00589778472482861	-0.00243766532037717	0.00196914040459975	-0.0024394120304079	0.00197282225198665	0.0284843460839932	0.00671217538687961
11.8	-0.00254804996864157	0.0047565050282855	-0.00214008180842961	0.00229228175260392	-0.00214926954003188	0.00230205341666452	0.029936936849038	0.0012714141611582
11.9	-0.00254848039546535	0.00338603613668314	-0.00180157387974615	0.00256355630297779	-0.00180160942777857	0.00257009980564932	0.0305918387045335	-0.00389612029984651
12	-0.00372114506031042	0.00274473662047053	-0.00142441832570061	0.00278724279442976	-0.00142890301791546	0.00279001795153059	0.0305536353621291	-0.0090102108895435
