# GHZ S RI R 50
0.2	-0.0138968846598049	0.00569115145030111	0.00304268490487265	-0.000885809349460144	0.00305313932239347	-0.000885660576459436	0.00589379528273186	0.00119782964821223
0.3	-0.0130896203625062	0.00607055652744322	0.00289594597332015	-0.00130162257722786	0.00288966013009966	-0.00131325446003315	0.00619975884870472	-0.00118265337640604
0.4	-0.0123631651455365	0.00662925731669338	0.00268116317256318	-0.00169527609907822	0.00267905877079274	-0.00169718556817851	0.00575715890608341	-0.00316004744950112
0.5	-0.0119666078639848	0.00741252732472051	0.00241133800859435	-0.00205108331704895	0.00241414785684417	-0.00205480618662889	0.00462430552771438	-0.00463398462727138
0.6	-0.0110215899943803	0.00846633640276241	0.00209910333226211	-0.00237078686472921	0.00209835983131695	-0.00237362597091232	0.00365774470084224	-0.00567629660427214
0.7	-0.0101605560370824	0.00909623690037124	0.0017484807648625	-0.00264017772737485	0.00175467816420556	-0.00264426848885822	0.0022666109173874	-0.00668026000960238
0.8	-0.00929209186126988	0.00970218040267248	0.00135529365096237	-0.00285923797822553	0.00136355596432916	-0.00285764644450881	0.000588466051914879	-0.00718189855554762
0.9	-0.00848605451964782	0.0101548126695547	0.000951609683486092	-0.00301046922890505	0.000951588633392522	-0.00301987146787771	-0.00111797344070933	-0.00730988459228603
1	-0.00809578343180625	0.0104700457785833	0.000519559797303568	-0.00311870633776425	0.000519410798226978	-0.00312405594697751	-0.00315572316182729	-0.00699665148873535
1.1	-0.00763921824449202	0.0114465597600046	7.22991520348281E-05	-0.00315800698212984	7.31842691017354E-05	-0.00316272680459783	-0.00481057557975589	-0.00549405100673029
1.2	-0.00677175569624022	0.0119116843304256	-0.000365531112020214	-0.00313031709247851	-0.000364310591732733	-0.00314708472550327	-0.0054154141205855	-0.00389846098683427
1.3	-0.00607899592633381	0.0118710037321921	-0.000795525086476049	-0.00305593904023603	-0.000800455514694964	-0.00306358106268829	-0.00509699462136421	-0.0024625744738383
1.4	-0.0055611701266526	0.0113825367852403	-0.00122053438938714	-0.00291110925603715	-0.0012229460588983	-0.00291822720259616	-0.00449119287209823	-0.00189392181450467
1.5	-0.00524334432887402	0.0113246871589868	-0.00161169544979825	-0.0027125924649996	-0.00160972801589685	-0.00271812440276323	-0.00440581089725302	-0.00142952646632976
1.6	-0.00429490357058606	0.0115840607397744	-0.00197287213104483	-0.00245647228796854	-0.0019763352736832	-0.00245735012821659	-0.0044789453662394	-0.000621120535786569
1.7	-0.00342822337631232	0.0116900526146342	-0.00229669414014997	-0.00216313515913452	-0.00229873663471636	-0.00217170596265613	-0.00447594566198486	0.000409325929739705
1.8	-0.00260197649582772	0.0119279514982796	-0.00257287905502006	-0.00181494274055342	-0.00257804317048947	-0.001820393935371	-0.00417733096753042	0.00152160456325462
1.9	-0.00183353050936278	0.0119774848518735	-0.00279788276449056	-0.00144657004390894	-0.00279438154280505	-0.00144039269813118	-0.00359246615047272	0.00254168537077203
2	-0.00135035244411837	0.0122992383885272	-0.00297195948211485	-0.00103626866982954	-0.00297469716106075	-0.00102944305441556	-0.00290171725485719	0.00372653045038669
2.1	-0.000220086887226371	0.0126408157874259	-0.0030873379419571	-0.000606418232363751	-0.00308942781593124	-0.000613100593162285	-0.00126918563571372	0.00455111485389337
2.2	0.000783250475296015	0.012536935398425	-0.00314148319446766	-0.000176887230864266	-0.00314330348863332	-0.000167185134432793	0.00048583857451111	0.00456147905402744
2.3	0.00156150965980491	0.0122465013556276	-0.00313384321682387	0.000263967802883123	-0.00314058058357752	0.00026105596029977	0.00206329779678745	0.00401813030849021
2.4	0.00214625670267278	0.011866134530342	-0.0030743793624988	0.000697064548490994	-0.00307323115533771	0.000712151573658581	0.00344440343087652	0.0030786163924078
2.5	0.00221034541786935	0.0116575077970363	-0.00294109998746174	0.00112744052919961	-0.00295408048667178	0.00112871326815237	0.00430197164788543	0.00195671049365768
2.6	0.00275208314083122	0.0120642439961456	-0.002752787533058	0.00152279995872462	-0.00277368319837201	0.00152667125614406	0.00543730355144694	0.000887929911011022
2.7	0.00365797438742621	0.0121907495933608	-0.00252191117082741	0.00189166018820726	-0.00252219838254666	0.00189673822228909	0.00632808344392794	-0.000820764059009314
2.8	0.00472188037778901	0.0121184224456367	-0.0022284015548927	0.00221653504759943	-0.00223824275605697	0.00222769701213982	0.00673347703419546	-0.00273099488300078
2.9	0.00584542225530372	0.0117498932245968	-0.00189395318664862	0.002509917442239	-0.001892045363059	0.00251882094033252	0.00674584545813746	-0.0046647134829623
3	0.00679253401589453	0.0113919171671089	-0.00152436945414887	0.00275482160497431	-0.00153941745455684	0.00274176303285186	0.00635625305793345	-0.00633656784137819
3.1	0.00812804328486272	0.0109024274113677	-0.00112580993718677	0.00293884588219913	-0.00114275234075326	0.00294421819065108	0.00602081773674397	-0.00812533504523332
3.2	0.00914700928822378	0.00996827817004848	-0.000707416427218265	0.00306476894250693	-0.000703169897131695	0.00307557804334568	0.00488063363451713	-0.010055215111048
3.3	0.00989036915188213	0.00887744712072704	-0.00027872192622191	0.00313768100967201	-0.000275415985951019	0.00313330881505901	0.0032937688719052	-0.0118088006822151
3.4	0.01030593798523	0.0076950219437996	0.000166977790573924	0.00314757407627146	0.000157548249529169	0.00314863652444862	0.00123526084291652	-0.0134246954692423
3.5	0.0102520517548972	0.00684094844045419	0.000601405553273177	0.00309135193435066	0.000606414482953293	0.00309002965607263	-0.00148143992338533	-0.0144601070266361
3.6	0.0105990660828951	0.00625056597573431	0.00102052243409944	0.00297212297971512	0.00102711238094595	0.00297562572663212	-0.00400516355834768	-0.0148773513237616
3.7	0.0108354542090604	0.00545549098009239	0.00143710089093694	0.00279745291613643	0.00143532399718303	0.00281381656968736	-0.00678661449102034	-0.0149627456771738
3.8	0.0110130437059665	0.00471988888900245	0.00180602171126634	0.0025722194294973	0.00181660922667864	0.0025785920481708	-0.00970013236839102	-0.0144485214199899
3.9	0.0111500998621852	0.00398597918955165	0.00215418230747229	0.00229488099927436	0.00214958460049281	0.00229477598406241	-0.0125910852442139	-0.0132634940857884
4	0.0111463886195333	0.0035823245153209	0.00244502015898096	0.00197700261872223	0.00245644460144702	0.00198316937622776	-0.015143016458163	-0.0111233288876043
4.1	0.0117989473021415	0.00313865358085801	0.00269865474223156	0.00161293460852603	0.00271519917381631	0.0016227595564347	-0.0165919706439335	-0.00869917935630851
4.2	0.0123099668125993	0.00219413621509342	0.00290268773876951	0.00121688453113345	0.00290391576673756	0.00121917510666188	-0.0178235243440531	-0.00638390543751058
4.3	0.0125678468438454	0.00114514993794124	0.00304741161194962	0.000809065030652142	0.00304857639977747	0.000817658895549697	-0.0187548039708187	-0.00396881065515436
4.4	0.01250464552138	-4.04628719233351E-05	0.0031280534473776	0.000374067063923252	0.00313599381833352	0.000369448078592821	-0.0194476092630521	-0.00138319969899339
4.5	0.0119870065973306	-0.000778591474408823	0.00315471245455598	-7.01912561764212E-05	0.0031515109036325	-6.79354134848043E-05	-0.0197936905443302	0.00164988143558676
4.6	0.0119665632615643	-0.00132266890500965	0.00310366396835837	-0.000518578610491138	0.00311668932842076	-0.000506543962014467	-0.0190459163680011	0.00459364148156138
4.7	0.0119217379801466	-0.0020980722978606	0.00300267465519222	-0.000933269201749976	0.00300260179560981	-0.000942721251715343	-0.0180480196840303	0.00697225750819653
4.8	0.0117349046076355	-0.00297542115161238	0.00285485151005169	-0.00133729184548141	0.00284723549284452	-0.00135752862238598	-0.0167446725914772	0.00920809693988657
4.9	0.0115204440539683	-0.00388528845075368	0.00264083099930365	-0.00173661965481742	0.00263472447812826	-0.00172817341533603	-0.0151362231059649	0.0111766461153063
5	0.0111024225884984	-0.00452770140363954	0.00236537441081097	-0.00207244843119541	0.00236815430419744	-0.00208489957039754	-0.0130702650457808	0.0132208192466145
5.1	0.0112703986124903	-0.00523316144907021	0.0020425166789266	-0.00239779332165019	0.00205577182108098	-0.00239528280905354	-0.0101158218532767	0.0145893489912703
5.2	0.0111936377341359	-0.00627324542112403	0.00169960878180992	-0.00265648498525158	0.00170011903919737	-0.00266065622703185	-0.00726001755102609	0.0152180627623493
5.3	0.010957432344662	-0.0073285820911969	0.00130900801721032	-0.00286999588687356	0.00130525729207784	-0.00287258194153447	-0.00434490020948034	0.0154323245773806
5.4	0.0104339931141353	-0.00846510809818843	0.000896127960798311	-0.00303135942974669	0.000895240430467879	-0.00303382697693684	-0.00148552967805748	0.0149117606968292
5.5	0.00944088239822558	-0.00899205746954021	0.000454455422552357	-0.00312577932825901	0.000467066838730529	-0.00312574780196628	0.000987512588318936	0.0141096017808035
5.6	0.00905188665119972	-0.0095411274476905	2.05837739924942E-05	-0.0031562196383229	1.72733403389288E-05	-0.00315275650297647	0.00347853921682617	0.0125062924535034
5.7	0.00820288742968059	-0.0102406920247379	-0.000414065581394737	-0.00313139044650392	-0.000417789195362574	-0.00313509463179435	0.00496703788849962	0.0104909411005977
5.8	0.0072330571920138	-0.0107051394493918	-0.000851347082964944	-0.00304164526386282	-0.000850608633040505	-0.00304935230461356	0.00589574862540997	0.00839885143406614
5.9	0.00610249978705612	-0.0109877331840862	-0.00127060373131438	-0.00288799222605164	-0.00126899658770941	-0.00289215563530468	0.0061639493777183	0.00637400282163384
6	0.00466817602637842	-0.010622016909265	-0.00165943778536234	-0.00268200640195674	-0.0016534282317044	-0.00268536090316141	0.00584245393616368	0.005135177216597
6.1	0.00449771493387526	-0.00991499236089166	-0.00201993649970614	-0.00243142545634161	-0.00201577786615998	-0.00243620543447158	0.00667215105585421	0.00403504191578803
6.2	0.00461939659939749	-0.0102009330155358	-0.00234213317652866	-0.00211395894842499	-0.00233854423393912	-0.00212265272604407	0.00738719318272194	0.0018262388718021
6.3	0.00447440190308217	-0.0111495746234303	-0.00261061849651375	-0.00177280702140616	-0.0026204669207894	-0.00178058875639261	0.00734771292918305	-0.00110125543632181
6.4	0.00349631729349685	-0.0123765998429968	-0.00283798183025572	-0.00138639636580162	-0.00283598670070943	-0.00139221027488272	0.00613351082705112	-0.00408074332601741
6.5	0.00213521033979284	-0.0127180092304285	-0.00300500147493005	-0.00098372055878667	-0.0030054067512724	-0.000982593974010363	0.00430767390162478	-0.00602844861216151
6.6	0.00139622271802932	-0.0130232315866506	-0.0031103517700977	-0.000554645268616869	-0.00312106236753345	-0.000557651970170616	0.00253099709416123	-0.00792702245595217
6.7	0.000479255386718241	-0.0132957421233631	-0.00315461646320702	-0.000117986610926339	-0.0031535633513132	-0.000111726975042354	-4.12578306577755E-05	-0.00911100817556542
6.8	-0.000425852656491755	-0.0134723162252497	-0.00313953086605539	0.00033214676128248	-0.00313861609154831	0.000336922893070546	-0.00276936824860088	-0.00948804232160313
6.9	-0.00162538548167421	-0.0137175241508998	-0.0030573958159826	0.000764307901995685	-0.00305781415738019	0.000769311541536349	-0.00558928909826324	-0.00917600116327924
7	-0.00309089434153121	-0.0130494912524943	-0.00292596053147448	0.00118641394467803	-0.00292737397578218	0.00118964618824976	-0.00816148652286148	-0.00755572616924405
7.1	-0.0035798347829968	-0.012498058102471	-0.00272489644799509	0.00158593398984467	-0.00272730078926139	0.00159699508490093	-0.00957360420182997	-0.00594649011542142
7.2	-0.00435796776345348	-0.0122831646924622	-0.00248248054481169	0.00194817612545911	-0.00248264927429027	0.0019540911082982	-0.0110876555013564	-0.00415840591942864
7.3	-0.00530895206729526	-0.0120302096557828	-0.00218971326816026	0.00227412908444518	-0.00218693824195422	0.00227560026782543	-0.012161593725621	-0.00200533395175766
7.4	-0.00659491665737875	-0.0119274104669732	-0.00184419925379661	0.00255901547625032	-0.00183693945588265	0.00256553483604452	-0.0129665963459499	0.000141425606252259
7.5	-0.00854305638391955	-0.0109776321397922	-0.00146267072136502	0.00279219368625264	-0.00146371939424764	0.00279017824030599	-0.0134660444643213	0.00323019333849765
7.6	-0.00902924457486496	-0.00946488779355899	-0.00106832207811897	0.00296734195558867	-0.0010576114785018	0.00297767969940562	-0.0119872945582695	0.00621125029091274
7.7	-0.0094661517726538	-0.00863703166330327	-0.000637169832326258	0.0030904120296001	-0.00063159514567371	0.00309004462272391	-0.0101818752705943	0.00782851236911536
7.8	-0.00960788529354242	-0.00829029140523175	-0.000188656071393151	0.00314989769844545	-0.000202352632802496	0.00314285445283193	-0.00822974294245141	0.00900607766261635
7.9	-0.0100322899054174	-0.00818619332014785	0.000237200114410528	0.00313330516566924	0.000248304717706038	0.00313295433960202	-0.00624153384229159	0.0100072722328676
8	-0.0103523533572924	-0.00732961519247994	0.000671679633557752	0.00307477799249392	0.000679972166884651	0.00307267070389489	-0.00400814051365873	0.0111552087374448
8.1	-0.0100246369935878	-0.00717442212037821	0.00110436135207233	0.00294983684564893	0.00110206512093633	0.00294658818444854	-0.00101303189708751	0.0110549222890646
8.2	-0.010196550224442	-0.0071108637046242	0.00149654565856625	0.00276454165247669	0.00149577172129901	0.0027761416188704	0.00142229526766863	0.0105780753681026
8.3	-0.010487629687453	-0.00702572578554243	0.00186814974496362	0.00252876532957378	0.00187321659678705	0.00252615733509122	0.00381643545324736	0.00967605008862325
8.4	-0.0111471532433005	-0.00696527655920022	0.0022122649469877	0.00224590782866282	0.00220110423417594	0.00224635133706618	0.0057527513768333	0.00817071415689069
8.5	-0.0121463505185295	-0.00605460019934924	0.00250765895644347	0.00191015334577581	0.00250767318670199	0.00191150443141477	0.00728954578862648	0.00694219925241807
8.6	-0.0122263008218351	-0.00518269631698628	0.00273781527480377	0.00154717397336094	0.0027335946962531	0.00154488343889841	0.00919118484339515	0.0046940346980009
8.7	-0.0124857344645122	-0.00456106165013601	0.00292483488976118	0.00114680122911721	0.00292367098175312	0.00114639530237876	0.00992634767596094	0.00190565252357597
8.8	-0.0126913331829395	-0.00391892659350801	0.00305126277362672	0.000728118225328989	0.00306222553447117	0.000725969722710909	0.00986355278688771	-0.000886860121268127
8.9	-0.0129773574518599	-0.00345514996156131	0.0031235205329513	0.000297936458720333	0.00313283979214887	0.000290766585079604	0.00912528467649416	-0.00343485050977032
9	-0.013411416678244	-0.0024276325427312	0.0031342768409567	-0.000152074960402174	0.00314107127190071	-0.000146506714059174	0.0080694311955158	-0.00502707754506966
9.1	-0.0128360326184001	-0.00161063653874386	0.00308292378456293	-0.000583205422760962	0.00308314040315551	-0.000583398448464938	0.00765012751722428	-0.00687511265645782
9.2	-0.0123576849283533	-0.00134017066324237	0.0029660439456794	-0.00100260606850621	0.00296985847811226	-0.00100239763548761	0.00665260070056548	-0.00900127122791294
9.3	-0.0120210166317907	-0.00137567637349323	0.00279229085544155	-0.00141028079862803	0.00281030381240119	-0.00141078555377285	0.00516788957550095	-0.0111496234774679
9.4	-0.0122028222299206	-0.00168419774930808	0.00257233931490831	-0.00178181225132093	0.00257560815889054	-0.00179283056500419	0.00278155683567088	-0.0132510867836988
9.5	-0.012764111627139	-0.00103804664975684	0.00229742224831917	-0.00213390315531928	0.00231217160896946	-0.00213462389122964	-0.000210515216139996	-0.014105033988276
9.6	-0.0128175733490432	-0.000711424987838951	0.0019793990101887	-0.00243155153003569	0.00197974303274023	-0.00242455971494008	-0.00337736699032537	-0.0150553143132995
9.7	-0.0132357679356801	-0.000284252195905641	0.00161786147797256	-0.00268306694038221	0.00162612585617691	-0.00268467557042177	-0.00740384296105864	-0.0149788456470122
9.8	-0.0136529071953149	0.000306146213713192	0.0012340399487463	-0.00287614056787585	0.00123219441518879	-0.00288475221627995	-0.0114483270206475	-0.0137595447820143
9.9	-0.0142447431038374	0.00106041653064935	0.000825003922842778	-0.00301794166036523	0.000813167768705552	-0.00302051572214773	-0.015539373293399	-0.0113782517438456
10	-0.0148209138283881	0.00265349535695004	0.000395687578788461	-0.00309352644812467	0.000394864524410616	-0.00310081008450741	-0.018736723190107	-0.00733548294917213
10.1	-0.0141910369442934	0.00404638702021614	-3.59516878448393E-05	-0.00312975158977487	-4.05799889909031E-05	-0.00313250152965417	-0.0202110062326492	-0.00338509392233235
10.2	-0.0134929907370928	0.00492971879301804	-0.000473170384232639	-0.00308853019737089	-0.000485720013682094	-0.0030922564237211	-0.0211824547881324	0.000560000361542545
10.3	-0.0127924263175016	0.00544931340759765	-0.000901449469003706	-0.00298547532923082	-0.000901245867971325	-0.00299879974118017	-0.0214324237781832	0.00461157319426036
10.4	-0.0124893161852832	0.00572030068602293	-0.0013060449411893	-0.00283901896069948	-0.00130919899726224	-0.00283689908569465	-0.0211172186317828	0.00863874838157621
10.5	-0.0124010736860873	0.00683620168146768	-0.00168825594724574	-0.00262388322825455	-0.00169440237770049	-0.0026311100527085	-0.0197886071033288	0.0134186973004222
10.6	-0.011049596866863	0.00768806278112321	-0.00204662243396723	-0.00236710746880261	-0.00204811954101853	-0.00237219750274569	-0.0166326970788614	0.0172866039790894
10.7	-0.00975453732598195	0.00795948920064449	-0.00235103652851592	-0.00205545061327866	-0.00235424020267344	-0.00207140923157136	-0.0129877363437015	0.0202466933959124
10.8	-0.00864908125743158	0.0076591394470069	-0.00261560203077654	-0.00170999576213889	-0.00261267770392041	-0.00171215289153916	-0.00912701501650238	0.0222083098025983
10.9	-0.00831658807135624	0.00720554664602631	-0.00283214289446429	-0.00133517028013811	-0.00283142559718121	-0.00134027463435165	-0.00555428440994755	0.0236052248910545
11	-0.00811543807360974	0.00767074388645991	-0.00299517290454558	-0.000919599651460976	-0.00298818191797549	-0.000923876849439069	-0.00140553839568178	0.0253471864569638
11.1	-0.00710350814531738	0.00772705344732947	-0.00308783911644889	-0.00050520121438162	-0.00308013152627079	-0.000496943316114863	0.00369188242067344	0.0255003359715496
11.2	-0.00635834725565817	0.00745931232116207	-0.00312785588033398	-6.7046092432358E-05	-0.00313442502906408	-6.38533291245867E-05	0.00845811172531797	0.0247473969872287
11.3	-0.00563462956888205	0.00690398200351854	-0.00310586396539931	0.000371131515560332	-0.00310901371188163	0.000368974608658007	0.0132775090989822	0.0231755947264482
11.4	-0.00544677060706917	0.00616211396902158	-0.00301986196929445	0.000800544561774304	-0.00302447208820091	0.000800695327910641	0.0175450742513716	0.0206136294534272
11.5	-0.00550700268047946	0.00618077615307075	-0.00288580720421429	0.00120567327943356	-0.0028783331479954	0.00121040805575988	0.0214352502218818	0.0177864355651091
11.6	-0.00497879935673554	0.00569996930616815	-0.00268646768443534	0.00159564684923941	-0.00269455972094907	0.00160528882308201	0.0252137872573212	0.0132635597486762
11.7	-0.00496724691764183	0.00505256671797072	-0.00243558727829322	0.00196128540029402	-0.00243733598104994	0.00196495687078557	0.0275170853284228	0.00807442483028061
11.8	-0.00517222182616607	0.00462990018774899	-0.00213899389056198	0.00228427982319377	-0.00214817684817629	0.00229401727965421	0.0287542855049305	0.00282540045731142
11.9	-0.00559990735326508	0.00454622440372582	-0.00180106735503602	0.00255458181876393	-0.00180111272736915	0.00256110932507261	0.0288654472268523	-0.00189128162069519
12	-0.00559286152869326	0.00545723458710734	-0.00142737111468274	0.00277697925768394	-0.001431851110012	0.00277973704431232	0.0290911913322619	-0.00586373070285325
