# GHZ S RI R 50
0.2	-0.0139622423051748	0.00538879017636019	0.00304447120322707	-0.000885325045352075	0.00305493078690871	-0.000885173016966924	0.00580429927265061	0.000866051208587467
0.3	-0.013104452087728	0.00589485307254396	0.00289822266605896	-0.00130137578027482	0.00289193715602659	-0.00131301719359342	0.0061690596781396	-0.00138896081935616
0.4	-0.0123443059015211	0.00653103654710151	0.00268386195258092	-0.00169556512341073	0.00268175665621736	-0.00169747685330831	0.00578041320767059	-0.00328760020583212
0.5	-0.0118706392678216	0.00725247750740798	0.00241402131758951	-0.0020521503240005	0.00241683468237019	-0.00205587558851105	0.00478671251525992	-0.00484490429347634
0.6	-0.0111090711008306	0.00828135430813809	0.00210166877519785	-0.00237221251257312	0.002100925499099	-0.00237505432965838	0.00365996496492957	-0.00600824889125056
0.7	-0.0103070724146246	0.00906835165885816	0.0017510391133824	-0.00264220489536712	0.00175724389451492	-0.00264629768114004	0.00216974567964701	-0.00692825287949715
0.8	-0.00940126371832663	0.00980980605927769	0.0013575385911428	-0.00286195643252442	0.00136580939493351	-0.00286036092295873	0.000464916442882527	-0.00733465103308519
0.9	-0.00846294440383307	0.0103952664708091	0.000953268978258053	-0.00301366293213433	0.000953249749468456	-0.00302307573292204	-0.0011968585437161	-0.00731453458758744
1	-0.00773576593929253	0.0105843594751888	0.000520901102848392	-0.00312204264621722	0.000520753249254737	-0.00312739823316313	-0.00291489595572498	-0.00700561325278385
1.1	-0.0073986888468912	0.011161280492387	7.32311688632688E-05	-0.00316211159412835	7.41186935825903E-05	-0.00316683734503173	-0.00457575915851339	-0.00586820878758561
1.2	-0.00683814954961674	0.0114320728760484	-0.000365552380200917	-0.00313484543300549	-0.000364327435160534	-0.00315163681379946	-0.00541543790584978	-0.00449811066935959
1.3	-0.00662042964151804	0.011413287458552	-0.000796506042430856	-0.00306055936423412	-0.000801443318309515	-0.00306821314069823	-0.00550566552423141	-0.0031062376893063
1.4	-0.00629405480971979	0.0113421392741447	-0.00122229803570678	-0.00291566296023549	-0.00122471313194369	-0.00292279201669118	-0.00508711472308088	-0.00222141312385293
1.5	-0.00580766148914176	0.0114566345495091	-0.00161454355202814	-0.00271748586064669	-0.00161257249846201	-0.00272302769284127	-0.00483018763895538	-0.00168625700836662
1.6	-0.00470404686788169	0.0119968416242839	-0.00197730848407859	-0.00246058560188221	-0.00198077845150807	-0.00246146413883939	-0.00484766552262159	-0.000737777431171025
1.7	-0.0034948980375354	0.0121645793103393	-0.00230194748339962	-0.00216624051566016	-0.00230399747571413	-0.00217482662352197	-0.0046471587448056	0.000356457476825759
1.8	-0.00241821079356768	0.0123335510568888	-0.00257879217825704	-0.00181712088185024	-0.00258396909757234	-0.00182257994467671	-0.0041794794439567	0.0014689405140164
1.9	-0.00141192574048886	0.0122202917067996	-0.00280464856832023	-0.00144781201471802	-0.00280113610134778	-0.00144162399078839	-0.00337061586101088	0.00243539206017017
2	-0.000964343138715005	0.0120847517421746	-0.00297959820197851	-0.00103539578645123	-0.00298233466323131	-0.00102855224781101	-0.00258104980162495	0.00323838548809838
2.1	-0.000210384302790364	0.0125073478932448	-0.00309417139710955	-0.00060373215610558	-0.00309627377616071	-0.00061042503296961	-0.00123553515818723	0.00401351710698506
2.2	0.000794478678349524	0.0126007836477016	-0.00314780819785267	-0.000172964484773433	-0.0031496188447042	-0.000163241124535697	0.000460290258711762	0.00412098186834082
2.3	0.0017046209158307	0.012434939908394	-0.0031395183685457	0.000269312588525263	-0.00314627330138202	0.000266405483813295	0.00206124168338155	0.00367983197933397
2.4	0.00260079646379542	0.0120574260078633	-0.00307891008298491	0.000704086754113194	-0.00307773172011038	0.000719200227746794	0.0036354839087768	0.00283745283300518
2.5	0.00290557751093592	0.0112695876664172	-0.00294313731083583	0.00113518812855772	-0.00295613444970309	0.00113648956447297	0.00479068742569431	0.00135407173677304
2.6	0.00292056450477126	0.0113440737212454	-0.00275380402297192	0.00153030609343349	-0.0027747222526702	0.00153422331510667	0.00560491355517159	-3.90451911273241E-05
2.7	0.00341405584659789	0.0115847489896609	-0.00252154971849803	0.00189967142436485	-0.00252182666935099	0.00190475733949055	0.00617985955065923	-0.00172875637962834
2.8	0.00431148745168706	0.0118242538573702	-0.00222617620546048	0.00222454180518325	-0.00223600441312834	0.0022357409071747	0.00643932231698911	-0.00342616852012275
2.9	0.00557296405216818	0.011647980598872	-0.00188969462490119	0.00251698873755224	-0.0018877632464059	0.00252589630855035	0.00658199083183798	-0.00519570420117332
3	0.00644532614871529	0.0111167273812415	-0.00151972513454706	0.00276032218179726	-0.00153481329126626	0.00274728512504797	0.00623232724617913	-0.00707812384545073
3.1	0.00754641567498791	0.0109813092228664	-0.00112013509411631	0.00294442075521879	-0.00113708214447945	0.00294983775018744	0.00568289651564733	-0.00874799954565288
3.2	0.00871499808248779	0.010336839977616	-0.000700337096142739	0.00306906806389594	-0.000696060032311086	0.003079875470301	0.00457695232632029	-0.0105143410934221
3.3	0.00967045527448431	0.00944383720510593	-0.000270958640476877	0.00314031570046846	-0.000267661723483916	0.00313593245649662	0.00306627809470002	-0.012119803887291
3.4	0.0104566611476632	0.00833559432269349	0.000174522902116641	0.00314876301470923	0.000165091131914563	0.00314984834968534	0.00126024978206419	-0.0136175937524234
3.5	0.0105378053395889	0.0071127375881762	0.00060954134352281	0.00309259463960164	0.000614551430964619	0.00309125887255558	-0.00128637520096537	-0.0149620584013286
3.6	0.0107563065646412	0.00672272433722803	0.00102992052822106	0.00297094247462423	0.00103652486922562	0.0029744279347772	-0.0039470460704623	-0.0152916200165782
3.7	0.0113409284332233	0.00602377326847414	0.00144593012065787	0.00279409894837425	0.00144420146974622	0.00281047337432024	-0.00654825053580489	-0.0153202589800966
3.8	0.0119029455420195	0.00509539271053914	0.00181410618207193	0.0025673705531934	0.00182471504374481	0.00257371287014165	-0.00924910246844854	-0.0148916267288424
3.9	0.012353515292099	0.0038455634312852	0.00216192758994686	0.00228880233535414	0.00215732828649719	0.00228871161709674	-0.0119004989009508	-0.0139727292830744
4	0.0119406506625533	0.00252160718401772	0.00245242008127657	0.00196776719246324	0.00246386754233286	0.00197389084852022	-0.0146322050782182	-0.0124909883639687
4.1	0.0117354711912584	0.00229263278559134	0.00270250889723252	0.00160207349860964	0.00271907672950082	0.00161183190678787	-0.0166766046284411	-0.00996274384112995
4.2	0.0120923960826699	0.00173886023393954	0.00290428779928512	0.00120582611192364	0.00290552260707282	0.00120811042938021	-0.0180296215325365	-0.00738300257542759
4.3	0.0124147447402424	0.000916834252950476	0.00304705410329785	0.00079765689315128	0.00304824748521409	0.00080623779789694	-0.0189236919490591	-0.00477040832430986
4.4	0.0126034626016265	-0.000247505644103964	0.00312525268313431	0.000361984191787848	0.00313316532579988	0.000357341986404823	-0.0193639066782698	-0.00207660684566846
4.5	0.0119261924522102	-0.00156102106851284	0.00314739754086986	-8.10349345379948E-05	0.00314421103155095	-7.87729831854876E-05	-0.0196142781331476	0.000487942696972124
4.6	0.0112394552120857	-0.00178460454873258	0.00309545292886796	-0.000526276599690008	0.00310848423046689	-0.000514305103966588	-0.019301833974806	0.00350519347289992
4.7	0.0111003225168399	-0.00210808110517164	0.00299358730508698	-0.000939731522759265	0.00299348794380918	-0.000949163047130779	-0.0183935037366203	0.00609349594292519
4.8	0.0110097256054022	-0.00256426598915635	0.00284430408695495	-0.0013422262197686	0.00283664868359325	-0.00136239351659699	-0.0170709308298411	0.00858265098838694
4.9	0.0112007962310008	-0.00321133673217593	0.00262864835093248	-0.00173871402916232	0.00262258183638952	-0.00173027560235336	-0.015173370391489	0.0107560682740733
5	0.0108617320539389	-0.00415442583687103	0.00235480914969174	-0.00207084906570622	0.00235755828364938	-0.00208326966074795	-0.0129890320965169	0.0124741576686358
5.1	0.0110522598970545	-0.00439708332778005	0.00203257906166813	-0.00239596537457948	0.0020458063143661	-0.00239348795446304	-0.010085057108544	0.0140705961275071
5.2	0.0115357212250776	-0.00546121547979378	0.00168942074647868	-0.00265262158346552	0.00168992099189567	-0.00265678231017948	-0.00692864755043989	0.0146196814934965
5.3	0.0115602495726484	-0.00689566728118098	0.00129983916970149	-0.00286366498766758	0.0012960951323694	-0.00286623640551357	-0.0039408895904672	0.0145834100426271
5.4	0.0111014422879434	-0.00842227913078181	0.00088945850654569	-0.00302326499940635	0.000888570485140243	-0.00302572385975983	-0.00104687092254039	0.0139053912713829
5.5	0.00946233375156336	-0.00951627099960374	0.000449086952977042	-0.0031189751827592	0.000461668444437505	-0.0031189610341736	0.00108762397285018	0.0126616013900436
5.6	0.00866884639134535	-0.00912222525440758	1.47812186483265E-05	-0.00314710958444176	1.14866807984127E-05	-0.00314365046262184	0.00329866367443533	0.0116495145628331
5.7	0.00846103483221598	-0.0094017558453131	-0.000417459628739522	-0.00312054545545263	-0.000421176706012493	-0.00312423191167889	0.00517873692651092	0.0098619921420591
5.8	0.00820629271043744	-0.00995614205087945	-0.000852063482384127	-0.00303050644520687	-0.000851336504658307	-0.00303818864675729	0.00651257122915975	0.00772674774101697
5.9	0.00794437833301903	-0.0108580364697562	-0.00126965932066664	-0.00287777379764283	-0.00126806142479884	-0.00288192601827915	0.00739042563645323	0.00542310915269225
6	0.00644610580481615	-0.0124819101585098	-0.00165798162611669	-0.00266996381308459	-0.00165199846807884	-0.00267331632050969	0.00722949022351779	0.00275375405025908
6.1	0.00451557353914912	-0.0122703475249697	-0.00201349117771703	-0.00241962065788425	-0.00200935381853034	-0.00242438407876294	0.00681052576239945	0.00118337658237933
6.2	0.0034643733989284	-0.0120991033108649	-0.00233337329419307	-0.00210488027081163	-0.00232980106573558	-0.00211354035817209	0.00662125470710177	-0.00075512694794566
6.3	0.00276275376049797	-0.0120364174190825	-0.00260089901118187	-0.00176587752872565	-0.00261071086356125	-0.00177362898576727	0.00612423538323184	-0.00290737693949173
6.4	0.00223495715932196	-0.0125163869907925	-0.00282747386889001	-0.00138033157809923	-0.00282548792545728	-0.00138612373660332	0.00533640236995633	-0.00525951462518122
6.5	0.000712244301270661	-0.0129867598606787	-0.00299062046970354	-0.000980047694402934	-0.00299102419829665	-0.000978926512357791	0.00354713997023794	-0.00749196962890087
6.6	0.000200730866145738	-0.0123485606622845	-0.00309715522833481	-0.000555999132452015	-0.00310781911613506	-0.000559006068558844	0.00186055393853432	-0.00891444129785773
6.7	-0.000182369201126126	-0.0125295748462617	-0.00314273414452286	-0.000120990990641861	-0.00314169179005125	-0.000114753527130621	-0.000524879376440287	-0.0101353215908307
6.8	-0.000792276662027114	-0.0125594339523316	-0.00312786840484543	0.000327503039415967	-0.00312696226225534	0.000332261869168204	-0.00321032340124873	-0.0103042546901508
6.9	-0.00129829382428132	-0.0128647539513672	-0.00304534290158147	0.000756631779591668	-0.00304576662601887	0.000761613297698301	-0.00546664932714563	-0.00983904682131933
7	-0.00319899510769077	-0.0131955416037012	-0.00291787681804994	0.00117388476622985	-0.00291929357767944	0.00117710068294879	-0.00814015369193841	-0.00905580464907758
7.1	-0.00418988294859015	-0.0115341715192296	-0.00272031714569302	0.00157456679665373	-0.00272274049387712	0.00158558821062107	-0.00993108258627876	-0.00680320699668355
7.2	-0.00421237420010393	-0.0107575960040756	-0.00247927389484674	0.00193606777366527	-0.00247945623356475	0.00194196361288416	-0.0110418972315835	-0.00475422672287584
7.3	-0.00427552157814818	-0.010342877822035	-0.0021890716934711	0.00226080956300146	-0.00218630958224665	0.00226228378231871	-0.0117341927734156	-0.00246221734900572
7.4	-0.00416756734351263	-0.010489255893953	-0.00184802491254501	0.00254543356938703	-0.00184080815378165	0.00255196019793161	-0.0117274378894104	-0.000249483937176096
7.5	-0.0054655337449645	-0.0117300734337816	-0.00146938620500851	0.00278345310446223	-0.00147042694182669	0.00278143728825659	-0.0116209824996231	0.00143534793761398
7.6	-0.00713607546728093	-0.0109479916555051	-0.00107372340357116	0.00295875586174126	-0.00106306021728281	0.00296910025909138	-0.0108542928999227	0.00397760439175709
7.7	-0.00800218316882415	-0.0105174271924799	-0.000644890376524532	0.00308197452282677	-0.000639326456254557	0.00308162426564143	-0.00938253324187438	0.0053640683963442
7.8	-0.00875467097164391	-0.0103773683698007	-0.000198754900197967	0.00314348874312766	-0.000212402958312511	0.00313641301079013	-0.00776991110308831	0.00648296408279084
7.9	-0.00963166317855739	-0.0105280104185393	0.000226511388999564	0.00313056481479984	0.000237604651177858	0.00313025131841535	-0.0059487439226498	0.00724339088111331
8	-0.0117841516001169	-0.0100004500820575	0.000663379097743519	0.00307192046219495	0.000671664629302216	0.00306983598861104	-0.004645016024152	0.00784245830564486
8.1	-0.0119873446679787	-0.00788187668649352	0.00109226808260037	0.00294782297276106	0.00108998727032155	0.00294457288822611	-0.00220728753285511	0.00893874142933546
8.2	-0.0116733901690313	-0.00697958610264581	0.0014839558471794	0.00276674162307635	0.00148313819011417	0.00277832362887493	0.000419265061332191	0.00891569664177763
8.3	-0.0115096358123313	-0.00639371863195185	0.00185736205535497	0.00253416940440681	0.00186243544293258	0.00253158228003355	0.00296690135940837	0.0084044491610229
8.4	-0.0113495613300816	-0.0062457096081078	0.00220401199086181	0.00225179165418852	0.00219285553355867	0.00225219950438495	0.0055148853197686	0.00713431502590144
8.5	-0.0128152865335989	-0.00632219982526383	0.00249692239808452	0.00191693056864086	0.00249693150917044	0.00191827980745525	0.00687923403499877	0.00509071867747528
8.6	-0.0134446779927855	-0.0040691384703217	0.00273014981056028	0.00155905643882557	0.00272594062448749	0.00155674756163284	0.00837577772374516	0.00371071155491406
8.7	-0.0128031507571733	-0.00268754692596059	0.00292102171411356	0.00115914285212276	0.00291985911673323	0.00115873202949072	0.00962289178910567	0.00131999003664835
8.8	-0.0119274184719466	-0.00184406254321419	0.00304967066709858	0.000739924870341728	0.00306064571176401	0.000737816977133397	0.0100849420278651	-0.00130283260098103
8.9	-0.0107483121037717	-0.00190007565962355	0.00312225455942333	0.000310212161603406	0.00313160173639373	0.000303079156486292	0.0102835413683361	-0.00394677631163761
9	-0.0110335191757466	-0.00295329761391893	0.00313773732908605	-0.000136188847149488	0.00314450912298546	-0.000130581113678292	0.00951268936891828	-0.00693483930480391
9.1	-0.0112759007473999	-0.00255436760223774	0.00309083571043751	-0.000571504542486108	0.00309105351338016	-0.000571697017346822	0.0085726797955921	-0.00910818483467438
9.2	-0.0113498534133167	-0.00287144653502327	0.00297457641497576	-0.000992777297267686	0.00297839615907025	-0.00099255386245924	0.00717581538022088	-0.0117077376252304
9.3	-0.0119902809347121	-0.00300373637116097	0.00280242271208827	-0.001400966588074	0.00282046564468065	-0.00140139794951244	0.00494799374149826	-0.0138660672390595
9.4	-0.0127002222056018	-0.00297322931435847	0.0025865446736128	-0.00177312164683336	0.00258987418429941	-0.00178414774100126	0.00235761079343359	-0.0155562453495344
9.5	-0.0144860284165488	-0.0022487380952725	0.00231488062801349	-0.0021328927896285	0.00232968982727305	-0.00213355693673379	-0.00126958581485009	-0.0165429353219979
9.6	-0.0146131313547667	6.04547010485848E-05	0.00199335491860545	-0.00243325230133869	0.00199367831218914	-0.00242623682779047	-0.00442521362205838	-0.0162613026269854
9.7	-0.0139710022829422	0.00121850720911526	0.00163214118583654	-0.00268644064957096	0.00164043801972273	-0.00268802688855627	-0.0077808822050656	-0.0158700982895877
9.8	-0.0133672495304156	0.00198646837342689	0.00124866160256881	-0.00288298894818117	0.00124683850146311	-0.00289164010974467	-0.011285566969181	-0.0145579763228166
9.9	-0.0126666086726085	0.00216701479448443	0.000837719866653552	-0.00303038632709677	0.000825833005078431	-0.00303300701354437	-0.0145109761613319	-0.0124204364473978
10	-0.0136403327898789	0.0019358074799562	0.000401101262507353	-0.00310663043012397	0.000400283254875077	-0.00311394700497964	-0.0178821933113155	-0.00973574562881358
10.1	-0.0138390428848647	0.00387997146477562	-3.01921472983908E-05	-0.00314201687712004	-3.48333025704007E-05	-0.0031447862588869	-0.0199663387599555	-0.00546251614330122
10.2	-0.0129095467015921	0.00496034084569678	-0.000469983435388978	-0.00310341414259579	-0.000482583772874289	-0.00310717904417252	-0.0209221056344932	-0.00142898464792031
10.3	-0.0118202522048147	0.00550964144746438	-0.000902997138421889	-0.00300102655019326	-0.000902779660818339	-0.00301441628392815	-0.0210546954399939	0.00281686610698048
10.4	-0.0106255727358205	0.00508962430812509	-0.00131255820299249	-0.00285134913402754	-0.00131572579419295	-0.0028492190423723	-0.0199517547317797	0.00666192377642077
10.5	-0.011378034904242	0.00425006098515982	-0.0016916166791514	-0.00263206218345172	-0.00169777653711209	-0.00263931230116775	-0.0188934603820698	0.00995502831205326
10.6	-0.0116688303803215	0.00527778227626034	-0.00205154283444163	-0.00237904794875084	-0.0020530391531397	-0.00238415986489587	-0.0168016180076968	0.0136961058620597
10.7	-0.0116113376945846	0.0060870498223948	-0.00235979710454239	-0.00206636388749124	-0.00236300239328721	-0.00208239543022548	-0.0141644551119268	0.0168664734662437
10.8	-0.0112537578949554	0.00724105149784725	-0.00262662875980817	-0.00171815748638037	-0.00262369106544764	-0.00172032332362623	-0.0108885734984516	0.0198540122380627
10.9	-0.00997740202280146	0.00773697165853031	-0.00284223570252173	-0.00134113534957856	-0.00284151395077672	-0.00134625848310827	-0.00652955976697185	0.0221032471197592
11	-0.0102477790048102	0.00776321042077008	-0.00300850839721647	-0.000928595331921866	-0.00300147667791203	-0.000932883083196614	-0.00249636671305938	0.0232932011553375
11.1	-0.00928454431614529	0.00961387233238996	-0.00310566014890626	-0.000507851154066346	-0.00309790748896527	-0.000499546356032245	0.00257873991347248	0.0244333912574149
11.2	-0.00740231729632737	0.0101040883185803	-0.00314444882779727	-6.51277972834061E-05	-0.00315105040279382	-6.1913372904412E-05	0.00792136343376283	0.0239301773074384
11.3	-0.00545752857132814	0.00979409351308927	-0.003121075288653	0.000375271680726549	-0.00312424232907199	0.000373106342263225	0.0131720522754715	0.0225811859163812
11.4	-0.00382827832903356	0.00862387017643987	-0.00303612929230329	0.00080551150091048	-0.00304076446187714	0.000805664020966583	0.0182955385274878	0.020012900507032
11.5	-0.00420744903646995	0.00725655525945172	-0.0029038812287362	0.00121898528461647	-0.00289634700763567	0.00122374037447865	0.0220131709058294	0.0161487530154
11.6	-0.00357230163308858	0.00767476188283112	-0.00269703807451548	0.00161234638734515	-0.00270514808428165	0.0016220659253895	0.0257655660374421	0.0123547990349253
11.7	-0.0022304703538027	0.00681145787777691	-0.0024431407386246	0.00197811912392517	-0.00244488880390896	0.00198181458033601	0.0289230957518513	0.00718189505924172
11.8	-0.00122319803727986	0.00525856173747063	-0.00214475512533272	0.00230264102245702	-0.00215396300118859	0.00231245692221342	0.0310720727613468	0.00143409417748787
11.9	-0.000914820680129717	0.00266662556216053	-0.00180379122575216	0.00257729591124828	-0.00180381420622414	0.0025838656217183	0.0320846160252437	-0.00485203457352882
12	-0.00370919841257421	0.000689651224318034	-0.00141916937932603	0.00279934390142972	-0.00142365706159804	0.00280214108102011	0.030579488132943	-0.0112589799151858
