# GHZ S RI R 50
0.2	-0.0139715943435229	0.00504854935284089	0.00304574086190179	-0.000885039278085357	0.00305620417411721	-0.000884885120268229	0.00590975663106991	0.000628885246702842
0.3	-0.0130866023878602	0.00562606010596124	0.0028998033699461	-0.0013012330417719	0.00289351797241609	-0.00131288106341902	0.00628912002221286	-0.00155593314146471
0.4	-0.0123280072844838	0.006341817538819	0.00268579448794026	-0.0016957508432226	0.00268368856932227	-0.00169766419711228	0.00584869005219058	-0.00339040299373414
0.5	-0.0116038990136413	0.00704877660150135	0.00241601523146022	-0.00205310804944607	0.00241883115643895	-0.00205683533066585	0.00491924012823678	-0.00491646069190726
0.6	-0.0109467092065061	0.00771843601863156	0.00210326984748825	-0.00237339869846108	0.00210252648339841	-0.00237624236028045	0.00361303360030009	-0.00615673206775452
0.7	-0.0103904227999553	0.00846511037137039	0.00175262968846816	-0.00264366015372816	0.00175883923802312	-0.00264775461865931	0.00199819141322184	-0.0069081690109779
0.8	-0.00967645342687258	0.0092418291627939	0.00135895535322841	-0.00286388189589694	0.00136723205565625	-0.00286228401658571	0.000288290025722255	-0.00717212438662849
0.9	-0.00897653926488167	0.00998555363931888	0.000954196729915597	-0.00301606133888271	0.000954177965590954	-0.00302548178367696	-0.00136092406337565	-0.00705057109251663
1	-0.00812588767085327	0.0106443215689419	0.000521101234847736	-0.00312427154700312	0.000520952990313419	-0.00312963090172211	-0.00291774220728955	-0.00663885671874175
1.1	-0.00742134725551492	0.0109923630233826	7.35225390647615E-05	-0.00316439228512072	7.44110617368407E-05	-0.00316912138583567	-0.00456247118886844	-0.00583969021090605
1.2	-0.00692590631453126	0.0110325027597913	-0.000365753703611852	-0.00313746814446419	-0.000364527186201981	-0.00315427346876696	-0.00570893523731602	-0.00461049344330084
1.3	-0.00677146908841897	0.0107976956237115	-0.000797369846959637	-0.00306317509515621	-0.000802311843294763	-0.00307083524796683	-0.00606882057640461	-0.003216179364547
1.4	-0.0065793837643811	0.0105852961846174	-0.00122367806894493	-0.0029178901095106	-0.0012260960701147	-0.00292502468620744	-0.00578568364971829	-0.00215875126868073
1.5	-0.00593081448043581	0.0106262950910083	-0.00161575695958172	-0.0027196334936413	-0.00161378427396132	-0.00272517961595218	-0.00538203105119538	-0.0014168926921487
1.6	-0.00511131394663294	0.0109545663608845	-0.00197940964255856	-0.00246306087320751	-0.00198288320218403	-0.00246394021742711	-0.00538297802015485	-0.000242738070453327
1.7	-0.00408404942014579	0.0113738937817324	-0.00230481476103727	-0.00216809565371356	-0.00230686859992192	-0.00217669048863024	-0.00493749813728314	0.00109961527234872
1.8	-0.00300997926082519	0.0117902836864015	-0.00258198077422045	-0.00181825963295759	-0.00258716461473042	-0.00182372285484034	-0.00423604059675428	0.00225505229684455
1.9	-0.00190876242937377	0.0119884865688791	-0.00280788940640774	-0.00144847596751549	-0.00280437163800549	-0.00144228269836762	-0.00329081953492233	0.0032043119695331
2	-0.000884842072154422	0.0119786875975411	-0.00298359969163727	-0.0010357857269029	-0.00298633749254862	-0.00102893289021261	-0.00233848465948415	0.00390339214291667
2.1	-3.31596443665787E-05	0.0118633449775269	-0.00309836559812979	-0.000602446631379684	-0.00310047494226072	-0.000609146348000936	-0.00116785982543028	0.00454276754511129
2.2	0.000726900025721354	0.0117924996280359	-0.00315134263645872	-0.000170768348254778	-0.0031531478796475	-0.000161033104027418	0.000470562946435967	0.00478641353359816
2.3	0.00138362115114369	0.0116342318796317	-0.00314251214822244	0.000272081076517619	-0.00314927629135566	0.000269176366223439	0.00214693626003187	0.00441087446391751
2.4	0.0020059180924037	0.0115287154324505	-0.00308160594517217	0.000707444006753246	-0.00308041353756789	0.000722572640447624	0.00380153594029005	0.00354773549822191
2.5	0.00262273558149528	0.0112946219245294	-0.00294494392033178	0.00113992559300637	-0.00295795347319193	0.00114124396064115	0.00509088977700603	0.00195652012591533
2.6	0.00310181795095894	0.0111360946463422	-0.00275383436993132	0.00153483919941399	-0.0027747624876759	0.00153878540347703	0.0057438189325286	0.000291858066281514
2.7	0.00370210931893092	0.0111287715313479	-0.00252088545499732	0.00190384913448714	-0.00252115656057774	0.00190893857241664	0.00610351019369639	-0.00137719682192353
2.8	0.00457097203938201	0.0111476755274003	-0.00222481384855966	0.00222860991048181	-0.00223463435992404	0.00223982780971695	0.0062291764791325	-0.00299158334591373
2.9	0.00574649418436181	0.0109631287181591	-0.00188727739624992	0.00252100679394292	-0.00188533263829196	0.00252991668494269	0.00628062712836796	-0.0046329049788282
3	0.00695330445353558	0.0103824131324131	-0.00151586603789127	0.00276307371494147	-0.00153097630158479	0.0027500569280236	0.00592871729159902	-0.00642696126511557
3.1	0.00796516901411106	0.00971867362570808	-0.00111668949702734	0.0029461027287095	-0.00113363184770964	0.00295154086185138	0.00519243719420047	-0.00795965647132494
3.2	0.008826820190921	0.00892379956386323	-0.000696596427013998	0.00307042651494516	-0.000692305136453604	0.00308123024555968	0.00410844376798904	-0.00943232822488345
3.3	0.00951148204800575	0.0080283360725031	-0.000266727115220544	0.00314089970606547	-0.000263435902636842	0.00313651169659576	0.00272662608224691	-0.0108525246069003
3.4	0.0100754494200035	0.00713337864580274	0.000178935470857332	0.00314797928028771	0.000169506841935465	0.00314907773658988	0.00106301014987806	-0.0122375109108488
3.5	0.0104766661951514	0.00611251613705168	0.000612639727093949	0.00309084447614211	0.000617646605933426	0.00308950381316253	-0.00127568564034809	-0.0135837354979536
3.6	0.0106537511658303	0.00525411331737839	0.00103305369138085	0.00296955079125349	0.00103966121277285	0.00297302875627967	-0.00399152288323605	-0.013966123685998
3.7	0.0108121554496016	0.00450017683034333	0.00144912701977172	0.00279180062081711	0.0014474189584772	0.00280817421059945	-0.00649827337234158	-0.0138729938092393
3.8	0.0110113774996404	0.00381815515606511	0.00181668766890111	0.0025642090785558	0.00182730077883429	0.00257053592017076	-0.00902237035450354	-0.0134756432165058
3.9	0.0113185455401943	0.00314040727209368	0.00216341103070508	0.00228531629849886	0.00215881384124702	0.00228523069616542	-0.0115771457524715	-0.0127009135006464
4	0.0115924113292085	0.00229233350940857	0.0024539104774253	0.00196485930731135	0.00246536177884805	0.00197097002995424	-0.0142918080812994	-0.0114506471602761
4.1	0.0117371877861701	0.00156912059329556	0.00270379147321827	0.00159775773217641	0.00272036708058241	0.00160748970444584	-0.016673067280086	-0.00904086774116997
4.2	0.0119595197360249	0.000818140131094409	0.00290410902427456	0.00120112220728944	0.00290534616495138	0.00120340341559753	-0.0181872802695605	-0.00627680159210541
4.3	0.0121249955863557	3.95857140761183E-05	0.0030457570646824	0.000793293035090983	0.00304696015866821	0.000801866035674455	-0.0190993015066186	-0.00352858648175358
4.4	0.0122423292624436	-0.000785026020638843	0.00312352845667991	0.000358155068948331	0.00313143036393382	0.000353506973415729	-0.0195394083129354	-0.000745395093835866
4.5	0.0122650903954266	-0.00172791589074418	0.00314510937573144	-8.57655070431207E-05	0.00314192849805693	-8.350026577284E-05	-0.0197277203321114	0.00183338315122554
4.6	0.0120353025831356	-0.00258592936356433	0.00309093474771133	-0.000530139325045109	0.00310396765654034	-0.000518201291262066	-0.0196303740849321	0.0048629864964928
4.7	0.0118556883922857	-0.00334047034975027	0.00298842289497543	-0.000942142508786996	0.00298831210277463	-0.000951561270603468	-0.0187581901694159	0.007707694336924
4.8	0.0115948996010747	-0.00410155344133134	0.00283886431082282	-0.00134356849332966	0.00283119681745405	-0.0013636993124507	-0.0173236905828984	0.0103512341766906
4.9	0.0115213254247239	-0.00477699291538688	0.00262276143925074	-0.00173933295323097	0.00261671379633477	-0.00173089951348092	-0.0152966366594209	0.0125979847829336
5	0.0114892501172959	-0.00572689207699908	0.00234771691357704	-0.00206946502622074	0.00235044614296167	-0.00208186410134325	-0.012954197983331	0.0142627068228115
5.1	0.0113921180442923	-0.00663627990578128	0.00202700473588911	-0.0023923167688869	0.00204020658503661	-0.0023898523445459	-0.010157850724808	0.015878907789965
5.2	0.011256752195593	-0.0076775193954562	0.00168490691874862	-0.00264831470314691	0.00168540422457257	-0.00265246765343382	-0.00684098710111772	0.0165636516978248
5.3	0.0109399187055645	-0.00874017450059416	0.00129605141567271	-0.00285856845599299	0.0012923136694298	-0.00286113320081146	-0.00366231345530325	0.0164425969968775
5.4	0.0105009406332105	-0.00968726402423231	0.000886513725096284	-0.00301690021087526	0.000885626855862848	-0.0030193533687177	-0.000731283776720824	0.0155919867923205
5.5	0.00979489306376642	-0.0106422591411455	0.000448900614833034	-0.00311166152234866	0.000461453093271239	-0.00311164398122902	0.00133695426875298	0.014134306965035
5.6	0.00895237041369854	-0.0112243855099142	1.58717216527462E-05	-0.00314121962614351	1.25821150092778E-05	-0.00313776814298038	0.00312540654450664	0.0132027424589285
5.7	0.00807690134110843	-0.0117081089191718	-0.000415763080847217	-0.00311479044108978	-0.000419472082634441	-0.0031184710391517	0.00504201976333624	0.0117762722540536
5.8	0.00718690097476624	-0.0120304519047489	-0.000849182749738666	-0.00302483465504931	-0.00084845419200285	-0.00303250134353149	0.00663113695949327	0.00973471661543932
5.9	0.0063770236353832	-0.012099804796135	-0.00126504133993962	-0.00287280095329312	-0.00126344377504264	-0.00287694358063827	0.0077124143028831	0.00727474841516227
6	0.00565779508149228	-0.0124042534774997	-0.00165298428496311	-0.00266731555103619	-0.00164700739089534	-0.00267065742401104	0.00766352216673601	0.00423589461914633
6.1	0.00479235362593687	-0.0124860023458639	-0.00200885071483465	-0.00241677997886605	-0.00200471747927406	-0.00242153330352683	0.00671847331006308	0.00228839083889761
6.2	0.00414943605724809	-0.0127034477644648	-0.00232756393238698	-0.00210268539469189	-0.00232399204678194	-0.00211132697211861	0.0061015252576045	0.000556672683825138
6.3	0.00358404617099782	-0.013087404169762	-0.00259441338685441	-0.0017651711148794	-0.00260419971221665	-0.00177291790934771	0.00544447671568798	-0.00130680750037074
6.4	0.00299468138387658	-0.0136996639618004	-0.00282136797924926	-0.00138144283979058	-0.00281937842201896	-0.00138722347383996	0.00466780267265473	-0.00341179410312346
6.5	0.00213067562736178	-0.0145838738443199	-0.00298546968559185	-0.000980942032276135	-0.00298587369633732	-0.000979822809520482	0.00293143408929548	-0.00556889340515306
6.6	0.00105402192275373	-0.0149881110700011	-0.00309065335584975	-0.000557999085377405	-0.00310129377465506	-0.000561010808134251	0.00108738934637974	-0.00658740148852779
6.7	-3.10718044145385E-05	-0.0152078559228343	-0.00313676766542723	-0.000124971265367856	-0.00313573557959402	-0.000118743928080166	-0.0009262603663817	-0.00744271894240156
6.8	-0.00108140640962213	-0.0150409026256531	-0.00312315881958334	0.000322314275858806	-0.00312226124898961	0.000327066546124137	-0.0032576021454571	-0.00760266621911143
6.9	-0.0018146776280505	-0.0147504871222666	-0.00304174550475111	0.00075128625491242	-0.00304217544250155	0.000756259601134793	-0.00533813965244119	-0.00723125813334072
7	-0.00260868812810767	-0.0147806666580445	-0.00291370168377478	0.00116744215002952	-0.00291512013364728	0.00117064965723215	-0.00792663761415604	-0.00666843995704803
7.1	-0.00360243109098009	-0.0144036503660539	-0.00271853484950193	0.00156613092549418	-0.00272097622040402	0.00157712717173199	-0.0101087827331476	-0.004297323001123
7.2	-0.00448638341809248	-0.014050853954925	-0.00247962121590513	0.00192781431097466	-0.00247981586889866	0.00193370075290728	-0.0110258846934248	-0.00177588262605393
7.3	-0.00552144126998302	-0.0135536792426187	-0.002190783816576	0.00225294233496445	-0.00218802876063478	0.00225442034744235	-0.0111932282154451	0.000662189661967051
7.4	-0.00649270906228098	-0.0128258554413368	-0.0018507356566706	0.00253743952888496	-0.00184354438186213	0.00254397184747488	-0.0106277604301057	0.00270108912118593
7.5	-0.00733992522174654	-0.0122859945741765	-0.00147516943297905	0.00277502937966443	-0.00147620280520765	0.0027730136138946	-0.01003377867698	0.00378236677905623
7.6	-0.00813403991579122	-0.0114749393649408	-0.00108144843411624	0.00295318843870962	-0.00107082415709733	0.00296355533185832	-0.00951819462247092	0.00553788172651858
7.7	-0.00862005406669205	-0.0108684212935473	-0.000652990983812219	0.00307812829240892	-0.000647429814636398	0.00307779367210563	-0.00823679985744849	0.0066633620213618
7.8	-0.00887876296783204	-0.0106688936271863	-0.000207470666370087	0.003140989852023	-0.000221090406790072	0.00313388011287266	-0.0069430026947858	0.00745819252881338
7.9	-0.00907541465267155	-0.0106967447127513	0.000216682345329428	0.00312968138307101	0.000227770959151154	0.00312940246839215	-0.00566876907586851	0.00808089145587362
8	-0.00969548956494942	-0.0109887397255716	0.000653682210605035	0.00307483675383998	0.000661976556113115	0.00307277835906044	-0.00495089615851944	0.00874712486805708
8.1	-0.0102630144655185	-0.0106135672169272	0.0010846603702008	0.00295176609548285	0.00108238758470668	0.00294850875142736	-0.00322204866706711	0.0104989738249449
8.2	-0.01081680568383	-0.0102699925983924	0.00147682201383575	0.00277158833390252	0.00147597247995108	0.00278317142322226	-0.000534415529555676	0.0111826410306537
8.3	-0.0114119210529808	-0.00974057943623632	0.00185098562411789	0.00254057657474077	0.00185606862322172	0.0025380027194249	0.0022209586091185	0.0110198527168486
8.4	-0.0118047126845178	-0.00900520638826491	0.00219948276460042	0.0022600731118822	0.00218831540083318	0.00226044934704463	0.00491235655811451	0.0099192306669267
8.5	-0.0122845158141028	-0.00860640092105044	0.00249543321466635	0.00192440954173613	0.00249543940414611	0.00192576024614589	0.00636639846690293	0.00787587381189471
8.6	-0.0128972922646737	-0.00765869018184819	0.00272829412117898	0.00156619857811834	0.00272408758137228	0.00156387874778879	0.00751388590576072	0.00682716912027953
8.7	-0.013216228947299	-0.00675144252566578	0.00292039165281258	0.00116726783476805	0.00291922918104064	0.0011668538170817	0.00906878744366468	0.00507317283014484
8.8	-0.0134381403830786	-0.00576477283135974	0.00305098529903669	0.000748227116627874	0.00306197686900468	0.000746144183148308	0.0101882161488567	0.00267850421942562
8.9	-0.0132641880808595	-0.00477499924370918	0.00312544872442348	0.000317401237808176	0.00313482303328242	0.000310279761838307	0.0110114370948672	-0.000188959219842439
9	-0.0129155352794812	-0.00437059092619072	0.00314039693316884	-0.000129724518014022	0.00314716211458561	-0.000124098367219012	0.0105851237808991	-0.0037493000016226
9.1	-0.012598403532313	-0.00394643101680885	0.00309564627643597	-0.000564093625567294	0.00309586481354368	-0.000564285742016488	0.00938931816075136	-0.00629306128873956
9.2	-0.0122797233498638	-0.00396007933168462	0.00298140881372399	-0.000986965823274451	0.00298523366411344	-0.000986732708286156	0.00795084354113084	-0.00900189664819605
9.3	-0.0123209425407231	-0.00400123672265625	0.00280999035145751	-0.00139711354080951	0.00282806328360993	-0.00139750626264694	0.00563378154686542	-0.0113802627024781
9.4	-0.0123785705146372	-0.00388957599765454	0.00259372830040624	-0.0017704631613393	0.00259708449676628	-0.00178149816258025	0.00276810329551582	-0.0132323781937261
9.5	-0.0127760967571059	-0.0037589267255415	0.0023237633471266	-0.00213003207871211	0.00233859587454076	-0.00213065897877546	-0.00123835775727036	-0.0143448922984512
9.6	-0.0131374306587213	-0.00317439700429469	0.00200336803426285	-0.00243384371188668	0.00200367568742661	-0.00242681230765826	-0.00496749221730257	-0.013570236333861
9.7	-0.0134246097728814	-0.0026160561656044	0.00164112625739353	-0.00268920990015466	0.00164944480129769	-0.00269078321463374	-0.00810454815624055	-0.0125567756835251
9.8	-0.013734424053106	-0.00187249969523565	0.00125675680987808	-0.00288702560961385	0.00125494572933581	-0.00289569920971775	-0.0111177180541673	-0.0110760575168662
9.9	-0.0137943034136435	-0.000913936165451856	0.000845717186763527	-0.00303552811073018	0.000833808814979671	-0.00303817866760022	-0.0139033719765064	-0.00921845672568968
10	-0.0138912939765753	-0.000363892427584689	0.000408271113936634	-0.00311534461247297	0.000407464611965027	-0.00312268508426086	-0.0171912035986467	-0.00713026808730782
10.1	-0.0139770605634107	0.000692909695640407	-2.66877645810743E-05	-0.0031514599623678	-3.13396491924874E-05	-0.0031542429466964	-0.0198649631215637	-0.00303247955694083
10.2	-0.0137419388022866	0.00163837948992099	-0.000468180486172484	-0.00311266596528078	-0.000480812661814984	-0.00311645423246405	-0.0209457565719622	0.00122849101850348
10.3	-0.0133272597437633	0.00261857685567093	-0.000902709624683658	-0.00301059352742097	-0.000902478563378478	-0.00302402183811245	-0.0209989181391073	0.00549242783486966
10.4	-0.0124447026667447	0.00342654363150635	-0.00131453542225959	-0.00286178503965925	-0.00131771515650914	-0.00285965054506319	-0.0199010211544907	0.00913529583701709
10.5	-0.0116791707493873	0.00359080871783191	-0.00169779879126776	-0.0026406023266222	-0.00170398072542069	-0.00264787568882243	-0.0191595727962332	0.0121004607034568
10.6	-0.0111107253251626	0.00386201909134259	-0.0020577450557009	-0.0023848657060903	-0.00205924686290938	-0.00238999095535077	-0.017755103252628	0.0159974837040061
10.7	-0.010515202756547	0.00419521594199068	-0.00236651735609234	-0.00207119482352741	-0.00236973511556149	-0.00208726766344849	-0.0153301380541765	0.0198495672160772
10.8	-0.00990511934101061	0.00462926988633953	-0.00263425356443797	-0.00172161623970699	-0.00263130900904559	-0.0017237889840071	-0.0119722887044259	0.0233307156773566
10.9	-0.00900419034905572	0.0049775196399223	-0.00285078991529761	-0.00134216995058568	-0.00285007071133692	-0.00134730703832434	-0.00759103807393808	0.0258229254768893
11	-0.00826691502645072	0.00473534347781672	-0.00301470711281578	-0.00092733741205742	-0.00300766712098088	-0.000931639490927721	-0.00356870209044855	0.0271711231005988
11.1	-0.00763444208006036	0.00487147420980563	-0.00311182316729038	-0.000507437101769611	-0.00310405198476864	-0.000499119885604823	0.00127780788237883	0.0290294990187558
11.2	-0.00693975744536916	0.0046880125629171	-0.00315114843350021	-6.32959017585557E-05	-0.00315776197457654	-6.00705347996773E-05	0.00724624611476978	0.0293172458572869
11.3	-0.00633012368430436	0.00446619669338806	-0.00312717106386931	0.00037894653729636	-0.00313034665559431	0.000376779670507235	0.0134528203210125	0.0281409635926226
11.4	-0.00572945676518767	0.00420390550740172	-0.00304021863432019	0.000810245222456364	-0.00304486125643575	0.000810403197549781	0.0194034062816044	0.0252484614616767
11.5	-0.00551040492954198	0.00356389788961466	-0.00290782032856589	0.00122226728399829	-0.00290027211236087	0.00122702618369702	0.0235622078801694	0.0207635444321204
11.6	-0.00530613437336192	0.0034274060912052	-0.00270145241647034	0.00161790712835908	-0.00270957181250666	0.00162765368459531	0.0272787665023837	0.0166988382573492
11.7	-0.00495878808271047	0.00311093764917396	-0.00244558958270352	0.00198498205426369	-0.00244733664904047	0.00198868693396644	0.0308484215921458	0.0112661973741666
11.8	-0.00454462194739796	0.00285740432319188	-0.00214528771561408	0.00230949614751838	-0.00215449797299022	0.00231934135838956	0.0332983679530571	0.0048150871427031
11.9	-0.00389298654179817	0.00237557588067494	-0.00180364784089986	0.00258334743641777	-0.0018036633650875	0.00258992735545681	0.0340864878468114	-0.00240818517850002
12	-0.00389277813187296	0.00140384142742499	-0.00141872428904877	0.00280738270663698	-0.00142321834232578	0.00281019186216435	0.0319293292790882	-0.00956466168223146
