# GHZ S RI R 50
0.2	-0.0140346558970693	0.00462751696535304	0.00304826189882028	-0.00088429557961872	0.00305873244392376	-0.000884136637554554	0.00576368946913282	0.000120981674744943
0.3	-0.0131428601343694	0.00535659351202732	0.00290307753503569	-0.00130073938768181	0.00289679319285018	-0.00131240115754029	0.00616886520445994	-0.00191308471115289
0.4	-0.0124238439301488	0.00628951222326369	0.00268993925454289	-0.00169597502150819	0.00268783215170646	-0.00169789190003365	0.00574360724233821	-0.00352213747364364
0.5	-0.0113385041964207	0.00700946487568332	0.00242027892722617	-0.00205506164502554	0.00242310035710404	-0.0020587931029712	0.00534994735052472	-0.00509279039751485
0.6	-0.0110027569113777	0.00733275168609503	0.00210677109343697	-0.00237581215970428	0.00210602767598278	-0.00237865976251114	0.00378478142045417	-0.00694536352493034
0.7	-0.0107222429098792	0.00829572852319752	0.00175614982908534	-0.00264674203985292	0.00176236980434983	-0.00265083992149052	0.00178222356238609	-0.00767914658424263
0.8	-0.0101025096983236	0.00927318094910627	0.00136208878174592	-0.00286805459517216	0.00137037830919397	-0.00286645141771491	-0.000197778469842462	-0.00785020992696174
0.9	-0.00953262834103508	0.0102805320275952	0.000956191928983426	-0.00302130787289057	0.000956174083552565	-0.00303074500798521	-0.00221762460116823	-0.0074211838927665
1	-0.00825939169756761	0.0114569441488484	0.000521515303277723	-0.00312902538041875	0.000521366203868323	-0.00313439276691033	-0.00340158569629298	-0.00614745846466944
1.1	-0.00720430063720779	0.0111658930605728	7.42316640298839E-05	-0.00316935657216093	7.51224714174508E-05	-0.00317409294588765	-0.00437128147203006	-0.00588324728493707
1.2	-0.00705269650839613	0.0109332042425733	-0.000366141933104168	-0.00314324002357044	-0.000364911667973181	-0.00316007597889553	-0.00563395896899305	-0.00501565131283291
1.3	-0.00718612874000948	0.0105530949312605	-0.000799241566788349	-0.00306898812315703	-0.000804193922376909	-0.00307666248960024	-0.00609506891369966	-0.00396790834318552
1.4	-0.00729282427853191	0.0104627842531765	-0.00122675305745012	-0.00292284831786671	-0.00122917753207414	-0.00292999518452088	-0.00611440915969864	-0.00306943572849101
1.5	-0.00638493715948133	0.0106615191573067	-0.00161847351931313	-0.00272445350485683	-0.0016164971627384	-0.00273000924603589	-0.00544135545579817	-0.0024301962479841
1.6	-0.00584042212307298	0.0110582516637857	-0.00198422396466536	-0.00246855024601616	-0.00198770563058251	-0.00246943127500479	-0.00599365069158704	-0.00159427173023274
1.7	-0.00470681449955839	0.0119077659432468	-0.00231129773105587	-0.00217210927051299	-0.00231336054443886	-0.00218072341536302	-0.00584603727643013	0.000182151816659669
1.8	-0.00343662165548722	0.0125262499295105	-0.0025890769832142	-0.00182066108297321	-0.00259427628906109	-0.00182613325027757	-0.00517274746304033	0.00173358031726951
1.9	-0.00216130729937985	0.0129579971722093	-0.00281498480254511	-0.00144993368251471	-0.00281145543226073	-0.00144372892199784	-0.00409002818505154	0.0032245905858312
2	-0.000492971125386629	0.0129275582022957	-0.00299247604927118	-0.0010368551122856	-0.00299521729887471	-0.0010299816721369	-0.00210742367107767	0.00411033755223236
2.1	0.000167596636213006	0.0122543121159191	-0.00310784791084839	-0.00059986588729099	-0.00310997236487956	-0.000606581412897462	-0.000883569624176303	0.00382016708651648
2.2	0.000693642778125517	0.0122854881761418	-0.00315956833520525	-0.000166174830709045	-0.00316136261260726	-0.000156412138131749	0.000347602617337643	0.00389035531516
2.3	0.00130128094545487	0.0122389312657767	-0.00314976655729537	0.000278007142903017	-0.00315655215587244	0.00027510662518378	0.00167262252846185	0.00357164649328766
2.4	0.00186743465694725	0.0123245229364843	-0.00308848877623721	0.000714847028716186	-0.00308726605844034	0.000730013546239718	0.00294423955541641	0.00315735152551286
2.5	0.00298679465462867	0.0123701024965236	-0.00295003923987374	0.00115085669113954	-0.0029630811368004	0.00115221310920867	0.00488713322040874	0.00244633594256468
2.6	0.00365601397268593	0.0116043040157993	-0.00275488282443418	0.00154571065844355	-0.00277584090786621	0.00154972428277794	0.00630116885464654	0.000221066331584794
2.7	0.00406797311686023	0.011354555683449	-0.00252025748182111	0.00191429830750419	-0.00252051504140857	0.00191939783176769	0.00676729705887371	-0.00193789976126838
2.8	0.00468097273491583	0.0112267232734239	-0.00222237537558915	0.00223921336472801	-0.00223218108226559	0.00225048060323695	0.00672621685274977	-0.003983239241241
2.9	0.0055580905575827	0.0111706268930534	-0.00188197644152985	0.00253186660746427	-0.00187999785689308	0.00254078546725345	0.00646185812859399	-0.00562242038038182
3	0.0069209266997457	0.0106805247375373	-0.00150655815609361	0.00277103529928718	-0.00152172994253684	0.00275806565932765	0.00655460934244738	-0.00742308592099637
3.1	0.0074980799275846	0.00986612092872893	-0.00110797351608786	0.00295128048036267	-0.0011249080550571	0.00295677533360254	0.00548433462410997	-0.00973274484406259
3.2	0.00811811800730424	0.00944988056653681	-0.000687090123401738	0.00307461778428727	-0.000682761134597598	0.00308541442356294	0.00384377458254051	-0.0112135038844047
3.3	0.00878075972350216	0.00888638321383538	-0.000255968887828515	0.00314317927960864	-0.00025269144487754	0.00313877798169519	0.00205923742245605	-0.0124566255441129
3.4	0.0093920568083037	0.00837150627892769	0.000190295825967439	0.00314694246916879	0.000180872336405431	0.00314807488163318	0.000103126152902025	-0.0133354951242484
3.5	0.010360279369998	0.00756397248069831	0.000621032164208141	0.00308733172800312	0.000626032367418716	0.00308597767053707	-0.00152310967659813	-0.0142658605781555
3.6	0.0104770392761889	0.00633717268778596	0.00104152500873943	0.00296674801473674	0.00104814268568806	0.00297020738060698	-0.0043030839302851	-0.0154100836084689
3.7	0.0105272824071272	0.00576996784993504	0.00145783072952354	0.00278681204265068	0.00145617507038355	0.00280318890018792	-0.00740411015023895	-0.0152690051711892
3.8	0.0108054538368911	0.00526591624473557	0.00182406925307993	0.002557079832601	0.00183469755228254	0.00256336929309443	-0.0103327270998015	-0.0144127154359684
3.9	0.011275383666532	0.0048339551402628	0.00216828095573878	0.00227729215095435	0.00216368714190438	0.00227721984118644	-0.0129178527487252	-0.0127218119807995
4	0.0122964254759153	0.00396084304503144	0.00245892165940501	0.00195818799914239	0.00247038823209696	0.00196426784082433	-0.0142766968322586	-0.0108566638156318
4.1	0.0123622782336259	0.0024968456722337	0.00270870873287786	0.00158761457302471	0.00272531425984921	0.00159728438122485	-0.0160934943205723	-0.00948570079229977
4.2	0.0123083057326243	0.00163299728146488	0.0029058499705361	0.00118954482936837	0.002907094251389	0.00119181952015502	-0.0178134370203848	-0.00717504094959808
4.3	0.0123075339222411	0.000813599928452879	0.00304485494656779	0.000781916854241171	0.00304608597813204	0.000790475545369288	-0.0189879854375516	-0.0045621386974245
4.4	0.0122396292374964	8.08825500992491E-05	0.00312138403357662	0.000347549060259409	0.00312926233290488	0.000342880031709535	-0.0196677539823349	-0.00146924758427362
4.5	0.0125975609036023	-0.000830497933494261	0.00314138541167058	-9.88657070125566E-05	0.00313821743787945	-9.65895468162197E-05	-0.0189162423691363	0.00150486447348487
4.6	0.0119343797540841	-0.0022658144794233	0.0030815681402396	-0.00054153246567102	0.00309461946079333	-0.000529675489502565	-0.0185580378711738	0.00333400354183645
4.7	0.0112114568261098	-0.00279786431021101	0.0029772430149701	-0.000950331828692179	0.00297709893106822	-0.000959725546387987	-0.0182155652985334	0.00572339962141536
4.8	0.0106947456564027	-0.00320182366734641	0.00282674908023393	-0.00134959427563051	0.00281903389865509	-0.00136964547849315	-0.0172869596770816	0.00827308576276906
4.9	0.0105193867737275	-0.00339081111514606	0.00260912689866517	-0.00174410308268442	0.00260312687185133	-0.00173567090793918	-0.0157130041397347	0.0109001103204942
5	0.0110212548631198	-0.00405452179140257	0.00233037991506393	-0.0020699093069142	0.00233305131915874	-0.00208226830788332	-0.0126558255182159	0.0128513893196369
5.1	0.0107196366192697	-0.00516483752074211	0.00201224531245768	-0.00238723976881464	0.00202539695201577	-0.00238481948098726	-0.0102578531151021	0.0135633609587876
5.2	0.0105736811775267	-0.00580754411216908	0.00167190261508023	-0.0026413779415259	0.00167238829752954	-0.00264551506091934	-0.00769701287925285	0.0145210184511078
5.3	0.0105201605938067	-0.00662191091415157	0.00128398968363357	-0.00284932825071882	0.00128026203191221	-0.00285187351047363	-0.00475816356617583	0.0150478145879466
5.4	0.010374605436639	-0.00735913945786271	0.000875662282370449	-0.00300391348858219	0.0008747745242112	-0.0030063526352667	-0.00156570799786167	0.0150658292711685
5.5	0.010539153964121	-0.00853202439348935	0.00044426416583086	-0.00309520187425243	0.000456748968764301	-0.00309519336631391	0.00223510585342581	0.0136843136984879
5.6	0.00926036672792594	-0.00985543680768354	1.45294698329704E-05	-0.00312730603162095	1.12558381847835E-05	-0.00312386851139951	0.00389281970049247	0.0110601210098239
5.7	0.00813279877625912	-0.0101178617867834	-0.000415503282116615	-0.00310063328534477	-0.000419197572933012	-0.00310429550028624	0.00488961641699063	0.00934304927597724
5.8	0.00735439726744805	-0.0103462728504249	-0.000845872916232146	-0.00301023679164848	-0.000845149677391776	-0.00301786717660904	0.00575089819186891	0.00752586709917152
5.9	0.00660696674377485	-0.0103922130345313	-0.00125716553049483	-0.00285936933305678	-0.00125557346861524	-0.00286349063525268	0.00617177955588974	0.00600874290081528
6	0.00662722482345843	-0.0107841282557688	-0.0016437716460364	-0.00265933165473469	-0.00163781306083979	-0.00266265422738108	0.00746053288903562	0.00448187848244351
6.1	0.0053831131233103	-0.0122078022218025	-0.00200069180372018	-0.00240830732926792	-0.00199657269864699	-0.0024130417813746	0.00762445336323661	0.00128329224391894
6.2	0.00366066264087824	-0.0125682731583971	-0.00231678930526758	-0.00209508594846885	-0.00231322796248578	-0.00210368966069781	0.00669594197795406	-0.00114125445322651
6.3	0.00234041115782774	-0.0125097651765408	-0.00258176184860151	-0.0017603264220567	-0.00259149937226071	-0.0017680503683652	0.00555788552853181	-0.00322462940345631
6.4	0.00145770788917592	-0.0122097428147741	-0.00280907867110134	-0.00138032497741027	-0.00280708831827077	-0.00138608160994163	0.00442507079157358	-0.00475258784311073
6.5	0.00133116280469433	-0.0127012804397529	-0.00297503221650093	-0.000978835156318994	-0.00297543531534229	-0.00097771986103471	0.00400261422478809	-0.00696136170760759
6.6	-5.20063623657834E-05	-0.0130217241878482	-0.00307615588450496	-0.000557755854704379	-0.00308674558041635	-0.000560761770621141	0.00149073856040929	-0.00923378846789438
6.7	-0.000814033120552879	-0.0126678586859241	-0.00312237023724213	-0.000129243837642744	-0.00312135243088923	-0.000123043108575608	-0.00118469756657444	-0.00989408058383842
6.8	-0.00146868412218609	-0.0123944458656123	-0.00311072158741904	0.000315037307620605	-0.00310983679078381	0.000319771426041619	-0.0038485475100659	-0.00978324353777702
6.9	-0.00201701360112881	-0.0118487140635987	-0.00303112446573685	0.000743419864310224	-0.00303156080956303	0.000748373150602863	-0.0061284538127838	-0.00851832093124299
7	-0.00172253447126462	-0.0119461850708465	-0.00290054746799264	0.00115686782496249	-0.0029019636538395	0.00116005661095063	-0.00668202727022	-0.00754145694628955
7.1	-0.00312653302786018	-0.0124490936903521	-0.00270990749858974	0.00154977427361731	-0.00271237127943274	0.00156070802377896	-0.00890868836008378	-0.00736681515558297
7.2	-0.004219058036809	-0.0118064785580126	-0.00247559828568062	0.00191079231612015	-0.00247581265225204	0.00191665254509756	-0.0110182052597434	-0.00540108416599337
7.3	-0.0049964532291989	-0.0111916577430112	-0.00218978790867582	0.00223592165469602	-0.00218704940466144	0.00223740337836581	-0.0123232196831221	-0.00291954770365718
7.4	-0.00570830234829112	-0.0104156436641953	-0.00185183407808292	0.00251924461243271	-0.00184469912701622	0.00252577428441061	-0.0130635374860863	0.000154809065925954
7.5	-0.0054358101874767	-0.0100835841820849	-0.0014835408681837	0.00275467626050384	-0.00148455875438759	0.00275266392957957	-0.0114245752977987	0.00322016481242611
7.6	-0.00657900976413754	-0.0110165855886059	-0.00109478200111134	0.002938658720968	-0.00108424606717057	0.00294905492818392	-0.0101856666118462	0.00397119125496733
7.7	-0.00811560100080638	-0.0107553884893196	-0.000667509447466246	0.00306674749198096	-0.000661960867918568	0.00306644300973006	-0.00949658772124562	0.00520222414924251
7.8	-0.0092047497627972	-0.0102375825863526	-0.000224035784808415	0.00313183616693052	-0.000237582034440014	0.00312467046468768	-0.00829229573941596	0.00668453290149456
7.9	-0.00979914095014731	-0.00948429751678045	0.0001965529498552	0.0031236549553298	0.000207617147751905	0.00312344620670878	-0.006238235717824	0.00832914345504599
8	-0.00971580173783673	-0.0096493550756743	0.000632770111113831	0.00307779896679178	0.00064107442515196	0.00307579711842006	-0.00295933752401859	0.00848231136895402
8.1	-0.0111168116028347	-0.00935587875792228	0.00106838399993621	0.00295713767452903	0.00106612937147577	0.00295386854240879	-0.0016654586135936	0.00785181124131973
8.2	-0.0118091374508283	-0.00833011394702704	0.00146110065310469	0.00277871599796665	0.00146018788130374	0.0027902903606589	2.02304462399584E-05	0.00805847137613697
8.3	-0.0123064164153274	-0.00741044237728048	0.00183610864678384	0.00255126262496504	0.00184120644425214	0.00254871849001818	0.00198133147312506	0.00794448353025856
8.4	-0.0126611392427666	-0.00615196651002645	0.00218801527813532	0.00227562916424999	0.00217683448389861	0.00227593825602114	0.00409192494802878	0.00779377285411148
8.5	-0.0120770943693696	-0.0055040147980078	0.00249112633427016	0.00193880361211681	0.00249112652138917	0.00194015664982259	0.00748323053426304	0.00644057102771428
8.6	-0.0129806437352716	-0.00526635708877065	0.002722947781781	0.00157949646382285	0.0027187490565381	0.00157715619042432	0.00870018580998311	0.00318186571005741
8.7	-0.0134422680430458	-0.00397005764614629	0.00291736246103908	0.00118302090527166	0.00291620094150818	0.00118260066584609	0.00898039341123097	0.000791479269247277
8.8	-0.0133620831977919	-0.00279234757142719	0.00305219389125264	0.000764579140781014	0.0030632135353846	0.000762547407527454	0.00881880414799133	-0.0015027751227416
8.9	-0.012918281753558	-0.0017314764508527	0.00313076321613476	0.000330971458097916	0.00314018678105245	0.000323873572501193	0.00842086663567256	-0.00316598188951452
9	-0.011640712595954	-0.00159912719561984	0.00314303566646013	-0.000118232425672916	0.00314978475334591	-0.000112577455531579	0.00915681678644348	-0.00510017576285259
9.1	-0.0118402332774234	-0.00225613982534952	0.00310187484513831	-0.000548927150694352	0.00310209459814436	-0.000549118361524795	0.00825966655297766	-0.00834557222271359
9.2	-0.0121268557312766	-0.00216633091185793	0.00299218385706637	-0.000973841618587688	0.00299601496600661	-0.000973588752246045	0.00665002994630414	-0.0105995460700616
9.3	-0.0124086646187484	-0.00198171646599368	0.00282292829153504	-0.00138730408759244	0.00284104461178109	-0.00138761395401141	0.00474811865610365	-0.012497735574948
9.4	-0.0126024272420743	-0.00145676463014552	0.0026062046652224	-0.00176255717249259	0.00260961477205282	-0.00177359822509051	0.00257178132556596	-0.0137267709415416
9.5	-0.0123859316767343	-0.00148395671586902	0.0023408610899965	-0.00212024734762927	0.00235572554470993	-0.00212078713829499	0.00084599525180852	-0.0154248837992528
9.6	-0.0135581617104336	-0.00117774776273922	0.00202460661502937	-0.00243170635317419	0.00202487581858712	-0.00242464678922409	-0.00336368310576876	-0.0170607588716805
9.7	-0.0139903978492614	2.20107295487826E-05	0.00166092834111475	-0.00269225731272074	0.00166928864001044	-0.00269379663722035	-0.00773867720174613	-0.0165782202563592
9.8	-0.0140424101702061	0.00108850748721895	0.00127521826211693	-0.00289307583421972	0.00127343972945401	-0.0029017933607045	-0.0118192169757592	-0.0149743131734697
9.9	-0.0138487758373935	0.00228809546185757	0.000864901413868086	-0.00304412948905558	0.000852955875228659	-0.00304685246127196	-0.0154692338348654	-0.0119457908132274
10	-0.012883799936066	0.0026768479710197	0.000426815150848085	-0.00313316470794622	0.000426041041648659	-0.00314055621420715	-0.0170261139128717	-0.00876637426950075
10.1	-0.0133617384851906	0.00271052333466533	-1.67126860921134E-05	-0.0031721206965982	-2.13859786190672E-05	-0.00317493683149454	-0.0194898711832207	-0.00631690878770687
10.2	-0.0135171501056179	0.00363792713023281	-0.000462290388955326	-0.00313331665615071	-0.000474990294951407	-0.00313716414756041	-0.021503908601578	-0.00238740492727351
10.3	-0.0133010993672508	0.00455702959871143	-0.000900243660870147	-0.0030323686760555	-0.000899974306384463	-0.00304588244045647	-0.0224736321980322	0.00221433173917263
10.4	-0.0127179750580921	0.0055061576265397	-0.0013172043717302	-0.00288625261523696	-0.0013204129583992	-0.00288411015903455	-0.0219894985492542	0.00734776914108102
10.5	-0.0115231911554493	0.00555052682748207	-0.00171087478196634	-0.00266137450441069	-0.00171710450328985	-0.00266870519528583	-0.0191183729649821	0.0115036813329221
10.6	-0.0118007081475636	0.00546225216685601	-0.00207091101682807	-0.00239919670429517	-0.0020724230848904	-0.00240435331415987	-0.0170778889451039	0.0142053666978281
10.7	-0.0117924002323928	0.00625728743204258	-0.00238098318942155	-0.00208411239989617	-0.00238421980359781	-0.0021002845509805	-0.0145279648894779	0.0174391313851192
10.8	-0.0114753789347528	0.00718843847992276	-0.00265197355914717	-0.00173218256963002	-0.00264901030246068	-0.00173437034047501	-0.0113985749392948	0.0203846021500451
10.9	-0.010727527036598	0.00834556645963803	-0.00287202481805525	-0.00134687666463234	-0.00287130857559185	-0.00135204943544645	-0.00740166809734914	0.0233566520893814
11	-0.00900966148763696	0.00858829596128053	-0.00303088429732296	-0.000925238798942268	-0.00302382039443892	-0.000929576218758069	-0.00143776214794704	0.02478702173348
11.1	-0.00870530362454473	0.00856756269006657	-0.00312758878419747	-0.00050724656676602	-0.00311977213594078	-0.000498895102031192	0.00303240494554133	0.0242699169793262
11.2	-0.00781560502325526	0.00911049621267216	-0.00316851914488261	-5.96586772332214E-05	-0.00317516489660054	-5.64072496521131E-05	0.00759164338275748	0.0239117985197918
11.3	-0.00654405850804154	0.00931188067892902	-0.00314328723872535	0.00038732792201562	-0.00314648436564188	0.000385155789580092	0.0122695381371743	0.0229345064126456
11.4	-0.00531204728709261	0.00926088650211892	-0.00305139677149821	0.00082157801163614	-0.00305605923244773	0.000821748586280442	0.0171029010502837	0.0213495824529744
11.5	-0.00370700595494444	0.0081861043889563	-0.00291848457026734	0.00122964023039039	-0.00291090197122324	0.00123441189651934	0.0229040994780139	0.0177701570759512
11.6	-0.00371156246899163	0.00694292383953439	-0.00271416449165193	0.00163084305976095	-0.00272231501243152	0.00164065571893673	0.0261369940900373	0.0122850209261897
11.7	-0.0034246872956908	0.0063824208952555	-0.00245394248292236	0.00200162860513857	-0.00245568995420503	0.00200535770201664	0.0283573372676854	0.0072511511518366
11.8	-0.00303086065327839	0.00571916334485833	-0.00214917271414057	0.00232650347598401	-0.00215839984475183	0.00233642136794655	0.0299273207172882	0.00217714560123033
11.9	-0.00224578114915871	0.0049786609290034	-0.00180610418237024	0.0025985236350632	-0.00180610583730439	0.00260513251059194	0.0312856975305865	-0.00248613820893212
12	-0.0018598476640424	0.00333060914318795	-0.00142175638005869	0.00282829334666329	-0.00142627304527034	0.00283112999924976	0.0327757329538274	-0.00875138107814722
