# GHZ S RI R 50
0.2	-0.0139721129550946	0.00493964405088747	0.00304608419306401	-0.000884831493681953	0.00305654838729056	-0.000884676348369568	0.00591596434241365	0.000525751928787627
0.3	-0.0131643422822262	0.00549436969464042	0.00290034372669065	-0.0013010475210012	0.00289405893546909	-0.00131269784322191	0.00621881483990994	-0.0016819292538992
0.4	-0.0124496081740698	0.00629035029022476	0.00268659229136665	-0.00169572846328303	0.00268448620137847	-0.0016976425112744	0.00573403080849954	-0.00343766567481015
0.5	-0.0115750416050685	0.00698060136968403	0.00241679141995519	-0.0020535722705364	0.00241960831225825	-0.00205730046825261	0.004947327223109	-0.00498135938375128
0.6	-0.0110250573557703	0.00749738794656773	0.00210381487104642	-0.00237388510643216	0.00210307141338218	-0.00237672943881903	0.00352940005570288	-0.00636279684955581
0.7	-0.0105693196832996	0.00826126355690343	0.00175318555733457	-0.00264427024788542	0.00175939686658487	-0.0026483655186764	0.00181930079467968	-0.00708891545931139
0.8	-0.00993754457674999	0.00905412995302228	0.00135941849773535	-0.0028647319597526	0.00136769769656245	-0.00286313345224012	3.47374733082262E-05	-0.00733355930449093
0.9	-0.0093804791548532	0.00988453738453965	0.000954322955619482	-0.00301718258699595	0.000954303535948648	-0.00302660632738698	-0.00174813790142032	-0.00712930810935443
1	-0.0084316584334766	0.0108478336300633	0.00052069293001717	-0.00312506205004323	0.000520543750641567	-0.00313042258550229	-0.0032078837928844	-0.00642706324797087
1.1	-0.00749988447924219	0.0110482389743477	7.33586899577034E-05	-0.00316503266768075	7.42471243158308E-05	-0.00316976276940204	-0.00463984318033734	-0.00577913306701004
1.2	-0.00698876892507627	0.0109689906897411	-0.000366063208961324	-0.00313823948762427	-0.000364837540548026	-0.00315504916347809	-0.00577521975606211	-0.00466675816623868
1.3	-0.00682798744794825	0.0105252531149114	-0.000797940268972948	-0.00306388702189522	-0.000802884467298625	-0.00307154860794384	-0.00613574989469431	-0.00347449616084881
1.4	-0.00682891062524485	0.0101879218753245	-0.0012244252136921	-0.00291823983647894	-0.00122684493080075	-0.00292537536875983	-0.00604729348417379	-0.00252938019323581
1.5	-0.00616063930202131	0.0102967951549518	-0.00161595146631107	-0.00271986518410203	-0.00161397868025101	-0.00272541186029175	-0.00563204681144337	-0.00170186615345725
1.6	-0.00549104474656785	0.0106022450269168	-0.0019799367576813	-0.00246378422988377	-0.00198341128838199	-0.0024646638693337	-0.00576809163729872	-0.000540223763938437
1.7	-0.00451079762132719	0.011197538685481	-0.00230567993649362	-0.00216857301213542	-0.00230773506246003	-0.00217717028802379	-0.00535374791524892	0.000980829440314445
1.8	-0.00341644203378288	0.0117340952032579	-0.00258284387663208	-0.0018184602201247	-0.00258802964114081	-0.00182392431607759	-0.00462144754884322	0.002252621827434
1.9	-0.00228786890838464	0.0120963545453845	-0.00280850283613232	-0.00144870509822343	-0.00280498419170945	-0.00144251064091269	-0.00364646949233706	0.00335287208850386
2	-0.000916602560071888	0.0121933630603319	-0.00298478875086343	-0.00103655812145817	-0.00298752848227285	-0.00102970259228081	-0.00236308792240622	0.00414763924247567
2.1	-2.76709064472345E-05	0.0117381839742888	-0.00310009918318198	-0.000602297024847378	-0.00310221065952524	-0.000608999973590044	-0.00116869958993392	0.004463938590923
2.2	0.000574250531155868	0.0116032307379845	-0.00315279469368117	-0.000170158646587537	-0.00315459862701064	-0.000160418638282606	0.000319535304190495	0.00465710748970806
2.3	0.0010948449396117	0.0114661083614581	-0.00314380898550564	0.000272829074358412	-0.00315057662084283	0.000269924473064249	0.00187449213622636	0.00430532084849797
2.4	0.00154839516312051	0.011523805869594	-0.00308315871478795	0.000708316073827082	-0.00308196325829365	0.000723452693059137	0.00337150909160803	0.00358946794836606
2.5	0.00237364245833899	0.0117032841697039	-0.00294653961036391	0.00114208108243479	-0.00295955790057928	0.00114340630441277	0.00485934296228982	0.00238133542208345
2.6	0.00323797255664989	0.0113807732038166	-0.00275414650876916	0.00153710790452959	-0.00277508147803436	0.00154106797855318	0.00586971495228626	0.000555251206005398
2.7	0.0039625231022114	0.0111291215141763	-0.00252092564083734	0.00190590969015237	-0.00252119424568239	0.00191100131948336	0.00634226317290009	-0.00134568533677674
2.8	0.0047625063928448	0.0108792858869135	-0.002224629911612	0.00223085270043236	-0.00223444885928795	0.00224208113846351	0.00639452381067817	-0.00321789601013035
2.9	0.00571356547931529	0.0106414146413168	-0.00188640799387458	0.00252373907128345	-0.0018844556050467	0.00253265223555872	0.00622157346775207	-0.00490979162580274
3	0.00700346422573633	0.0101332446479305	-0.00151331844455595	0.0027650900033221	-0.00152844453934077	0.00275208633476767	0.00593317322543937	-0.00662037266601932
3.1	0.00788545467597941	0.00923126833506326	-0.00111455950161212	0.00294689724586137	-0.00113149786390897	0.00295234758293229	0.0050641822971159	-0.00835992068786269
3.2	0.00852747825303708	0.00847850606334247	-0.000694530140287309	0.00307110537421625	-0.000690231140483201	0.00308190685659081	0.00377298027656357	-0.00977034600171789
3.3	0.009075217169209	0.00768606196950825	-0.000264333285505491	0.00314124526786435	-0.000261045285974581	0.00313685454008997	0.00227015573094669	-0.0110771789494699
3.4	0.0095183639044302	0.00699888521437348	0.00018165912883153	0.00314734187558366	0.000172232900607	0.0031484484036572	0.000501115038223219	-0.0122520811743133
3.5	0.0101961716870764	0.0062413605629961	0.000613948137498564	0.00308916279087945	0.00061895211418402	0.00308782016259353	-0.00155370968344799	-0.0133428439038921
3.6	0.0104579155485048	0.00509699744811544	0.0010340348276413	0.0029688969756076	0.0010406429914611	0.00297237221524968	-0.00418854815285193	-0.0139991003866444
3.7	0.0104323255796999	0.00432320458296277	0.00145044704673803	0.00279092946017688	0.00144874726289005	0.00280730304484805	-0.00685916767304548	-0.0139161791910416
3.8	0.0104842974065151	0.0037754722714363	0.00181780590679281	0.00256287002486008	0.0018284209053952	0.00256919027230127	-0.00950465334870334	-0.0133934666363389
3.9	0.0107458297763979	0.00343576647399338	0.00216369639268211	0.00228388555811463	0.00215910040210255	0.00228380171834023	-0.0120876579875541	-0.0123133511434648
4	0.0115838466782106	0.00290972568719986	0.00245445469121694	0.00196478223343644	0.0024659081427795	0.00197089222997994	-0.0142729627550723	-0.01078491912533
4.1	0.0120574309937246	0.00167773991789965	0.00270535789138955	0.0015965505321402	0.00272194306479636	0.00160627508891314	-0.0163662556956718	-0.00885752038279939
4.2	0.0121568580600345	0.000626476326527958	0.00290496918035465	0.00119920292520801	0.00290620787119201	0.0012014833504445	-0.0180003669991551	-0.00636959480134569
4.3	0.0121211624356589	-0.000276595376125902	0.00304598402898185	0.00079146649231071	0.00304719200139278	0.000800038139633986	-0.0191036703676177	-0.00373860110748542
4.4	0.0120007465897938	-0.00100663633491761	0.00312389938484032	0.000356826836307464	0.00313179982467008	0.000352174996910114	-0.0197811588278894	-0.000873817385951838
4.5	0.0122649257277366	-0.00167614469038102	0.00314614224585436	-8.85390791871526E-05	0.00314296222381119	-8.6270265541133E-05	-0.0197588735742139	0.00198040877292981
4.6	0.0121221632399598	-0.00293556245511572	0.00308990597240118	-0.000533240828712862	0.00310294914483121	-0.000521318085454386	-0.0195830313169506	0.00463366225003274
4.7	0.0116966902645176	-0.00379019237287129	0.00298686375901526	-0.000944418811072141	0.00298674506033216	-0.000953835067128049	-0.0189516818410775	0.00740169873178519
4.8	0.0112337697219978	-0.00451783799332034	0.00283727491630325	-0.0013455855082569	0.00282959278020545	-0.00136570653906048	-0.0177071690629819	0.0100971662595582
4.9	0.0109582039242939	-0.00499213055546141	0.0026208264559375	-0.00174189113077944	0.0026147877739289	-0.00173345207163329	-0.0158620881758363	0.0125562288522029
5	0.0112214688649146	-0.00565719976817033	0.00234344641181796	-0.00207143077610901	0.00234615695092349	-0.00208382605759521	-0.0132058040550002	0.0144985160532167
5.1	0.0110986173281294	-0.00688961864910432	0.00202324358550424	-0.00239202284113194	0.00203643635951686	-0.00238957178591593	-0.0104331923264737	0.0158003397613473
5.2	0.0107229876411064	-0.00780106757697842	0.0016816697335632	-0.0026477176613596	0.00168216349462076	-0.00265186802804546	-0.00732612575195742	0.016617213904286
5.3	0.010392971226859	-0.00858786309632266	0.00129263868973866	-0.00285757177596565	0.00128890149915712	-0.00286013141616165	-0.00413533797339018	0.0167483991575704
5.4	0.0101028974569649	-0.00921021771158257	0.000882625635848972	-0.00301459716003559	0.000881737295247849	-0.00301704686987224	-0.00104925506962318	0.0161807137245144
5.5	0.0101978994696759	-0.0100328374702957	0.000447095732221774	-0.00310719654123117	0.000459629543485172	-0.00310718361323586	0.00176340333813328	0.0148170665685631
5.6	0.00947582158011999	-0.0114275549637271	1.55605661794515E-05	-0.00313818079476373	1.22744683854031E-05	-0.00313473234247435	0.00363807809291993	0.0131276334847405
5.7	0.00830505807597724	-0.0121495003800236	-0.000416113289917534	-0.0031118789058334	-0.000419819798016254	-0.00311555531358408	0.0052883592012464	0.011489212023427
5.8	0.00719758863644754	-0.0125705057214369	-0.000848953539188749	-0.0030214903809001	-0.000848227409887065	-0.00302914921955165	0.00669361785228982	0.00934238411564972
5.9	0.00605748120043324	-0.012575362673485	-0.00126312291799183	-0.00286940255076934	-0.00126152682003052	-0.00287353985665218	0.00746702836005253	0.00690576797856753
6	0.00561751870629204	-0.0124276759280952	-0.00165034402763799	-0.00266667265998161	-0.00164436879429652	-0.00267000884033463	0.00766322947206351	0.00426131081686829
6.1	0.00492315795195967	-0.0131972341695208	-0.00200794030880028	-0.00241595624143767	-0.00200380840951975	-0.00242070749943126	0.00682919455844924	0.00162516738513944
6.2	0.00369278785521754	-0.013627994429137	-0.00232617399068088	-0.00210148198820657	-0.00232260409159215	-0.00211011845740254	0.00558954186676126	-0.000293243657389476
6.3	0.00262788008137078	-0.013765577122033	-0.00259251932272251	-0.00176455540227146	-0.0026022983106121	-0.00177229921078069	0.00442303413831939	-0.00187830580646615
6.4	0.00180467697900009	-0.0137408592900416	-0.00281996567214421	-0.00138212893857017	-0.00281797445278951	-0.0013879070293745	0.00341400014522479	-0.0033268908286503
6.5	0.00169487602292779	-0.0141861896718108	-0.0029861142748181	-0.00098032482306412	-0.00298651805896885	-0.000979205349587921	0.0024163427639844	-0.00502485243469594
6.6	0.00067495276557639	-0.0150073165046192	-0.00308923954839681	-0.000556333555304822	-0.00309987558171704	-0.000559338958125305	0.000646858455391341	-0.00640594100335519
6.7	-0.000418784465500091	-0.0151252003450688	-0.00313478367238913	-0.000124421372843717	-0.00313375131221942	-0.000118198166272288	-0.00133255186951058	-0.00714115412401497
6.8	-0.00141339988574369	-0.0149617343682776	-0.0031216521510832	0.000322293811353992	-0.0031207548062973	0.000327043771515043	-0.00357512073435855	-0.00731134930210613
6.9	-0.00225503754428819	-0.01443282306793	-0.00304076363698806	0.000752092480075979	-0.00304119185444774	0.000757064759704716	-0.00574812360410726	-0.00672254998049996
7	-0.00218600092461361	-0.0140976340801314	-0.00291001196243377	0.00116861278613931	-0.00291142654874934	0.00117181834954441	-0.00750469006398756	-0.00582654104701698
7.1	-0.00298121015029407	-0.0146903883727319	-0.00271519453500274	0.00156435598112671	-0.0027176325105502	0.00157533907824469	-0.00951774172874588	-0.00437248409830162
7.2	-0.00424098684718256	-0.0146257337241422	-0.00247748819773885	0.00192567627936834	-0.00247768337479677	0.00193155708244193	-0.0107681005535379	-0.00209524679983193
7.3	-0.00558282760665776	-0.0142376706255691	-0.00218892366126377	0.00225087684272617	-0.00218617109049663	0.00225235364206481	-0.011174296229872	0.000239773491876796
7.4	-0.00702828761642686	-0.0133529022170145	-0.00184819281178848	0.00253462167157505	-0.00184100936152343	0.00254114523634604	-0.0110128590175569	0.00238131933014403
7.5	-0.00750202095060839	-0.0120706025817083	-0.00147469014588653	0.00276944993877486	-0.00147572041589274	0.00276743675525482	-0.0100673675210019	0.00409300587023841
7.6	-0.00801244041723438	-0.0119682718716087	-0.00108340877382475	0.00294953097980757	-0.00107280403529505	0.00295989924116494	-0.00930395089897507	0.00511018840000924
7.7	-0.00899715065127397	-0.0115127052566114	-0.000654841548202619	0.00307530049492398	-0.000649284334287322	0.00307497036445585	-0.00856643753080109	0.00608500273011779
7.8	-0.00959472589171156	-0.0109756606286869	-0.000209743340290825	0.00313800445909219	-0.000223345273644127	0.00313089044666815	-0.00763645639325392	0.0072074816732935
7.9	-0.00974932182621095	-0.0103332497934086	0.000212568829579712	0.00312663017762356	0.000223646026272362	0.00312636531879238	-0.00631714431550969	0.00848027926981567
8	-0.00912063196676866	-0.0104943710644757	0.000647940051083094	0.00307565271335379	0.000656237140809515	0.00307360984516687	-0.00451369261315625	0.00934314227531164
8.1	-0.00977370979792956	-0.0111344917547548	0.00108164185794408	0.00295367000669118	0.00107937214825373	0.00295040936768544	-0.00285148460643963	0.0101375033608306
8.2	-0.0107504996704014	-0.0110302363817654	0.00147415362161919	0.00277331530443066	0.00147329233384235	0.00278489853026261	-0.000563831595107921	0.0106478591489498
8.3	-0.0117488198762534	-0.0105241315752593	0.00184829178687065	0.00254308452240261	0.00185337849071809	0.00254051621507941	0.00182354734307367	0.0104946226902088
8.4	-0.0126044658957866	-0.00937022982520008	0.00219777685092811	0.00226454237503917	0.00218660184084793	0.00226490348369036	0.00408889714667388	0.00981730185590012
8.5	-0.0123476503343358	-0.00827612977759979	0.00249778643088197	0.00192790965329963	0.00249779205614562	0.00192926207518313	0.00628030356594556	0.00844068794937316
8.6	-0.0126999204631644	-0.0081624170375768	0.00272941865421117	0.00156724462277941	0.00272521037007266	0.00156492322480777	0.0076565306295488	0.00660158648871969
8.7	-0.0134209656094682	-0.00748812848950698	0.00292114386150984	0.00116879181303313	0.00291998107202896	0.00116837720907156	0.008854477512541	0.00467431114617633
8.8	-0.0140240377513978	-0.00652677209396741	0.00305259548936644	0.000749854652503932	0.00306359468132967	0.000747774613916993	0.00967200969853979	0.00226580951459786
8.9	-0.0143767773374944	-0.00520700998923178	0.00312832625956327	0.000317394307949321	0.00313770843428078	0.000310265455794745	0.0100547614947694	-0.000329153470043833
9	-0.013602629094199	-0.00404363744192113	0.00314012800475601	-0.000131924849326618	0.00314689675845086	-0.000126303772820481	0.0100279808821859	-0.00324194629891668
9.1	-0.0131524683096866	-0.00402004958572671	0.00309476009908343	-0.000563350020080692	0.00309497860133068	-0.0005635420354182	0.00891768660979675	-0.00618175308318171
9.2	-0.0130123936327249	-0.00376382212466929	0.00298175108546597	-0.000986011624364604	0.00298557589110992	-0.000985777273284017	0.0072940066684452	-0.00864069504197683
9.3	-0.0128332123969606	-0.00350603701661957	0.00281050354088611	-0.0013968781820981	0.00282857857094611	-0.00139726841880145	0.0051611489312335	-0.0107384411399738
9.4	-0.0126302926651254	-0.00312384569788036	0.00259270041702063	-0.00177032330310818	0.00259605399134513	-0.00178135553996133	0.00253667509746283	-0.0123285293986721
9.5	-0.011935369080343	-0.00305647083689229	0.00232371351153176	-0.00212615752585964	0.00233853410838358	-0.00212677061694629	-0.000457906952694978	-0.0134666170879066
9.6	-0.0123583296776142	-0.00357169910456844	0.00200650398899313	-0.00243185482615897	0.00200680346682889	-0.00242482204182464	-0.00425708665632119	-0.013713357661892
9.7	-0.0130702727113554	-0.00325443367790381	0.00164399614767503	-0.00268871130646391	0.00165231886850961	-0.00269027800060233	-0.00777582008406206	-0.0128951281044261
9.8	-0.0136869736485347	-0.00258499731045692	0.00125934941505013	-0.00288667767053319	0.00125754485375778	-0.00289535468943384	-0.0110373295753159	-0.0114795175247505
9.9	-0.0141200720201713	-0.00136445658816336	0.000849608924377972	-0.00303465084963364	0.000837703150768491	-0.00303731663158856	-0.0141429084853777	-0.00939980826590891
10	-0.0134891534634397	-0.000365308265412985	0.000414432552596613	-0.00311851279649158	0.000413638349720076	-0.00312586394049063	-0.0167360112785131	-0.0069363283444031
10.1	-0.0134915280158972	-0.000334318677381643	-2.43115951002134E-05	-0.00315664759940271	-2.89689700600714E-05	-0.00315943871883231	-0.0193705590152816	-0.00383522506286943
10.2	-0.0139108978499638	0.000283453785349438	-0.000467228284786811	-0.0031173091456556	-0.000479876354263877	-0.00312110931876002	-0.021089659290113	0.000121112867032779
10.3	-0.0141743463168564	0.00133941435286853	-0.000902252824065171	-0.00301536207163666	-0.000902013715747655	-0.00302880920381366	-0.0217914605014139	0.00445481609840113
10.4	-0.0139456594333379	0.00283551898830656	-0.00131503150027154	-0.00286826802698885	-0.00131821892032322	-0.00286613167626654	-0.0213304143205015	0.00873963122569941
10.5	-0.0125371733274112	0.00392037543376999	-0.00170364946028462	-0.00264631841088843	-0.00170985133277192	-0.00265360664036286	-0.0199148746506732	0.012557126486515
10.6	-0.0115394106738751	0.00397585482019767	-0.00206296873485237	-0.00238628356297048	-0.00206447760930559	-0.00239141466758521	-0.0183295302438737	0.0163023953999284
10.7	-0.0108612062969823	0.00423794658624163	-0.00237074666062472	-0.00207217864960857	-0.00237397879164088	-0.00208826897382092	-0.0157704117347226	0.0200851891192087
10.8	-0.0102456947029382	0.00449199878058202	-0.0026389932985014	-0.00172246756058608	-0.00263604589337147	-0.00172464512494818	-0.0124223046513326	0.0234530731040228
10.9	-0.00963623081538953	0.0050791882517749	-0.00285718098679735	-0.00134109075630994	-0.00285646659819776	-0.00134623736572131	-0.00828728425215497	0.0262396874792204
11	-0.0079944899193598	0.00532302551745912	-0.00301775244129567	-0.00092228024049888	-0.00301071708559619	-0.000926597048494546	-0.003372833951967	0.0280520047718546
11.1	-0.00722908679195969	0.00452770920797902	-0.0031129070492701	-0.000505122962189277	-0.00310512766290139	-0.000496809965847152	0.00158171937830959	0.0290693682007009
11.2	-0.00689922282376546	0.00414652430774479	-0.00315304504995128	-6.11114534576402E-05	-0.00315966020394063	-5.7879528114342E-05	0.00726268200786408	0.0292280622757843
11.3	-0.0066065761044062	0.0039612445376779	-0.00312881200516575	0.00038233378513073	-0.0031319918272209	0.00038016870838202	0.0132411911418085	0.0280890896640553
11.4	-0.00636114711207759	0.00408101761829421	-0.00303925836185087	0.000814461662627754	-0.00304390100002448	0.000814626022332222	0.0189168457276545	0.0255060314568597
11.5	-0.00526824418415081	0.00386470677305462	-0.00290594621956998	0.00122194584876156	-0.0028984017872372	0.0012267009252056	0.0239147189581343	0.0213882552961689
11.6	-0.00506431273179183	0.00277023070990074	-0.00270292630818616	0.00161855358498776	-0.00271105044846635	0.00162830456049702	0.0276555354521882	0.0164097914431254
11.7	-0.00532844058839345	0.00233528876647937	-0.00244638488805675	0.00198711890879481	-0.00244813168182911	0.0019908267410497	0.0306867667270019	0.0108183100719509
11.8	-0.00543779997274759	0.00241014969361703	-0.00214488560757196	0.00231133206827943	-0.00215409417289552	0.00232118513737834	0.0326400057576681	0.00461436561071676
11.9	-0.00481944811217276	0.00290384392543889	-0.00180383098872044	0.00258309983918456	-0.00180384712206419	0.00258967955172082	0.0333812132846542	-0.00174778655196952
12	-0.00327355546071352	0.00263890101496815	-0.00142275178671228	0.00281015048588053	-0.00142725405999615	0.00281296011766058	0.0326892866016685	-0.00826587905244203
