# GHZ S RI R 50
0.2	-0.0138924553831987	0.00549621186929014	0.00304362484250985	-0.000885489416202022	0.00305408191546624	-0.000885338724906866	0.00588141107040019	0.000983984959127938
0.3	-0.013119791450315	0.00589733988835979	0.00289720661053107	-0.00130143156146917	0.00289092117757056	-0.00131306873797471	0.00615812185228243	-0.00137534652534187
0.4	-0.0124090103667742	0.00651690903807417	0.00268271713996866	-0.0016954307052559	0.00268061223328554	-0.00169734147895846	0.00571302275063478	-0.00329107424103979
0.5	-0.01194769585795	0.00723259417020453	0.00241280537896175	-0.00205177868255448	0.00241561711434759	-0.002055503022686	0.00468427892403576	-0.00484674465416897
0.6	-0.0111760883827228	0.00825613350393468	0.00210046367772586	-0.00237161422278025	0.0020997202410104	-0.00237445480326218	0.003558964445496	-0.00598036710846244
0.7	-0.0103720158428346	0.00899159235104654	0.00174983375066738	-0.00264135607622897	0.00175603515147143	-0.00264544813758235	0.00208520704762433	-0.00692543818559106
0.8	-0.00951018016574563	0.00967684133593111	0.00135642996845807	-0.00286081903470636	0.00136469710741486	-0.00285922562469702	0.000359361962482617	-0.0073733443401058
0.9	-0.00867709026953085	0.0102319888455007	0.000952316913145804	-0.0030123193650083	0.000952296197372216	-0.00302172749292536	-0.00137627568507765	-0.00738886555651184
1	-0.00806287499428817	0.0105436102769669	0.000519994002146417	-0.00312044908125597	0.000519845158764693	-0.00312580172650943	-0.00320136393652317	-0.00700022371302256
1.1	-0.00764634974760585	0.0112395853026971	7.26015107714782E-05	-0.00316010163571006	7.3487596550401E-05	-0.00316482452616212	-0.00482265911731737	-0.00575548878056832
1.2	-0.00694767271912356	0.0115389418747466	-0.00036574982577557	-0.0031325863132997	-0.000364528178315707	-0.00314936605510348	-0.00554715518416593	-0.00434456957948604
1.3	-0.00655087863088493	0.0113844015302728	-0.000796248007672182	-0.00305816481337307	-0.000801182419486102	-0.00306581227248324	-0.00548169141855527	-0.00306548835275798
1.4	-0.00626397173740874	0.0110794942481238	-0.00122160294328949	-0.00291315013196871	-0.00122401680913636	-0.00292027310427646	-0.00510496353310953	-0.00237786741709467
1.5	-0.00588060970136552	0.0111996336729214	-0.00161307763958133	-0.00271480713386887	-0.00161110867828509	-0.00272034368307827	-0.00495338444730498	-0.00180034525370369
1.6	-0.00485863747229697	0.0117090004248096	-0.00197508775585981	-0.00245837629693063	-0.00197855420442693	-0.00245925434902621	-0.00501517318806808	-0.000832838778181303
1.7	-0.00374956402776673	0.0119407999036429	-0.00229927278102182	-0.00216448241881545	-0.00230131922745102	-0.00217306032140285	-0.00486292053179767	0.000324650947707814
1.8	-0.00272877532199645	0.012183468842006	-0.00257567877552061	-0.00181582856629122	-0.0025808490216056	-0.00182128314624293	-0.00442242583128127	0.00148591601010311
1.9	-0.00178544654658114	0.012180377586367	-0.00280098207630865	-0.0014471075146473	-0.00279747566461171	-0.00144092533672544	-0.00367118351296898	0.00252359513775382
2	-0.0012167465401405	0.0122512436284963	-0.00297564539306933	-0.00103593886035903	-0.00297838269774553	-0.00102910460621328	-0.00280801978409344	0.00350549674727202
2.1	-0.00029274611011886	0.0125502955526852	-0.00309065974183278	-0.000605041807750914	-0.00309275583291514	-0.000611729205447539	-0.00132482437714535	0.0042036317612674
2.2	0.000678074182858078	0.0125362570022952	-0.00314447567180668	-0.00017491382160548	-0.00314629103612816	-0.000165201617357904	0.000358706764017533	0.00423982014112474
2.3	0.00149515388763778	0.0123137250887023	-0.00313649543645818	0.000266571705935158	-0.00314324112945816	0.000263662295753848	0.00190573909394708	0.00375036224526199
2.4	0.00220896717289001	0.0119755951473151	-0.00307656541813945	0.00070044480988097	-0.0030754026985823	0.000715544590761901	0.00334077059103295	0.00291294870307477
2.5	0.00246717390420932	0.0115418660545316	-0.0029420410949759	0.00113138815447038	-0.00295502968540708	0.00113267562178874	0.0044279107938184	0.00170475050488045
2.6	0.00281379176110582	0.011715208285702	-0.00275303754398502	0.00152649421482119	-0.00277394271102503	0.00153038864970379	0.005499498556342	0.000410025909931947
2.7	0.00352856221739259	0.0118234753645622	-0.00252153280807461	0.00189550267379518	-0.00252181488523576	0.00190058423495962	0.00626305172420934	-0.00137608333887647
2.8	0.00446975603385325	0.0118350409178131	-0.0022271513109496	0.00222037554191221	-0.00223698541590328	0.00223155526302943	0.00656161814411425	-0.00326611353505
2.9	0.00559468219883413	0.0115528264324873	-0.00189162911437387	0.00251336518235586	-0.00188970933675488	0.00252227012373605	0.00657072680318128	-0.00513465037707439
3	0.00650011985580391	0.0111150797772219	-0.00152163867083073	0.00275724149909098	-0.00153670524158296	0.00274419664852078	0.00621075168941653	-0.00690878522727763
3.1	0.00765323657833517	0.0107825072113704	-0.00112282435240716	0.00294110136130897	-0.00113976620842767	0.00294649479493206	0.00570994817085484	-0.00868772472100627
3.2	0.00869284760374666	0.0100371636603715	-0.00070385503314528	0.00306638740241072	-0.000699594279187523	0.00307719399353425	0.00451882046639387	-0.010513495802021
3.3	0.00951496563151235	0.00909847996535152	-0.000274885439920768	0.00313843286835356	-0.000271584466364031	0.00313405602503778	0.00292457407114576	-0.0121482807104232
3.4	0.0101063927102848	0.00802724974166904	0.000170609909833987	0.00314744991712028	0.000161181388863318	0.00314852325864743	0.000966560583728245	-0.0136249575190331
3.5	0.0102027433738091	0.00704564661146974	0.000604854796408404	0.00309121754823793	0.000609863131573161	0.00308988962295627	-0.00157302029835284	-0.0147479847627095
3.6	0.0105064664739643	0.00651222755277852	0.00102449020126556	0.00297115206941743	0.00103108545901441	0.0029746466981192	-0.00414294980846139	-0.0151875278626673
3.7	0.0109087251998481	0.00576676098711946	0.00144077267525439	0.00279552163970656	0.00143901738919042	0.00281188742879376	-0.00686701578009655	-0.0152524152530843
3.8	0.0112714219288131	0.00494874739093064	0.00180923925412635	0.00256964580669668	0.00181983424028958	0.00257600405095107	-0.00970618320582213	-0.014755111194177
3.9	0.0115723885724942	0.00400362246392991	0.0021570629123398	0.00229191235977842	0.00215246534934899	0.00229181338675922	-0.0124805212268491	-0.0136245294080832
4	0.0114769443487351	0.00315647526972638	0.00244791324114382	0.00197292343085595	0.00245934632718627	0.00197907143599988	-0.0149809052737928	-0.0117667482572094
4.1	0.011716366133178	0.0027065717899279	0.00270002255893236	0.00160794048369854	0.00271657527557134	0.00161773484249289	-0.0166800438952494	-0.00941878391828237
4.2	0.0120981277571005	0.00191580508533208	0.0029028751473208	0.00121185108584557	0.00290410591443451	0.00121413853146321	-0.0180208371488432	-0.00703244398175729
4.3	0.0123358284878969	0.000983450116858565	0.00304664709300078	0.000804069971404854	0.00304782375845678	0.000812656617674152	-0.0189935384256438	-0.00452390527963991
4.4	0.0123558761357772	-0.000141413321327304	0.00312634350479783	0.000368977301333802	0.0031342709610562	0.000364349465309701	-0.0196097228206542	-0.00182459873310563
4.5	0.0118261971454065	-0.00110998372870282	0.00315107763393728	-7.49219534623054E-05	0.00314788310212629	-7.2663752817845E-05	-0.0198136719653458	0.00105267301055265
4.6	0.0114804601669988	-0.0015584824850079	0.00309942016114211	-0.000521698019223393	0.00311244476465576	-0.000509693044218676	-0.0192398046449064	0.00393883337085638
4.7	0.0113551821952089	-0.0021110162773941	0.00299817846978196	-0.000935627408557958	0.00299809491255497	-0.000945068572832322	-0.0183205850484954	0.00638522736648421
4.8	0.0111904253412975	-0.00276396514708079	0.00284988590629069	-0.0013389295782932	0.00284225603259498	-0.00135913327795636	-0.0170483844033753	0.00873870592727815
4.9	0.0111569476485674	-0.0034970330000817	0.00263518427779847	-0.00173711113224685	0.00262909573857099	-0.00172866999137981	-0.0153365186749681	0.0108514412947109
5	0.0108563908887693	-0.00425039224089462	0.0023602314169612	-0.00207107167820696	0.00236299777010474	-0.00208350599050479	-0.0131246109134256	0.0127735866653896
5.1	0.011033139734036	-0.00478402581195926	0.00203800882885381	-0.00239608559242235	0.00205124805141999	-0.00239358822668975	-0.0102089333554437	0.0141619076232442
5.2	0.0112180707024463	-0.00582011699065388	0.00169517757965538	-0.00265393159187524	0.00169568398574994	-0.00265809721139732	-0.00726006940656853	0.0147625368025901
5.3	0.0111231816778703	-0.00704048918135461	0.00130511110760447	-0.002866360571479	0.00130136456810194	-0.00286894016678071	-0.0043227103254269	0.0148988958150373
5.4	0.0106563264976088	-0.00833238126535818	0.000893427761869879	-0.00302678458990895	0.000892540669285245	-0.00302924775199156	-0.00142164527746606	0.0143733236808509
5.5	0.00947751685350536	-0.00914666406232656	0.000452889481382274	-0.00312171296411643	0.000465483940822492	-0.00312168533154005	0.00106235614886945	0.0133620311606976
5.6	0.00887915974909328	-0.00935266701882942	1.89899338132745E-05	-0.00315155718577108	1.56861163696176E-05	-0.00314809753770038	0.00342237014678901	0.0118792051996972
5.7	0.00832409410589368	-0.00986639070443055	-0.000414568294394741	-0.00312609713603051	-0.000418287198262395	-0.00312979383911217	0.0050476410020023	0.0099283629700826
5.8	0.00770959644577274	-0.010413182107019	-0.000850516142377273	-0.00303631792587976	-0.000849780495845558	-0.00304401205072521	0.00613476250083893	0.00778314888107688
5.9	0.00697972750008211	-0.0110512679829423	-0.00126873011243959	-0.00288332572459422	-0.00126712574611996	-0.00288748258521936	0.00663662823981059	0.00562008482261116
6	0.00555275235468491	-0.0117121585151989	-0.0016574151729439	-0.00267717608317708	-0.00165141634799815	-0.00268052664837765	0.00646492704971821	0.0037174453624763
6.1	0.00439198692642472	-0.0114665353725718	-0.00201593629929747	-0.00242677809367737	-0.00201178556956361	-0.00243154865950208	0.00663792035778974	0.00217538967083976
6.2	0.00365618809817446	-0.0115355351042589	-0.00233711058241158	-0.0021107703718416	-0.00233352556061987	-0.00211944685302913	0.00667191979174311	6.24619678402035E-05
6.3	0.00303793229917961	-0.0118080410952783	-0.00260533666257477	-0.00177095260094356	-0.00261516466460442	-0.00177872546428861	0.00622311902695308	-0.00234249993963982
6.4	0.00225411980879082	-0.0124059010501471	-0.00283283603949604	-0.00138526559792809	-0.002830841856666	-0.00139106929774096	0.00518873855220295	-0.00477085849918844
6.5	0.00102344449296645	-0.0126668029329006	-0.00299868504597357	-0.000983350100377506	-0.0029990901129004	-0.000982225902157769	0.00362192688100779	-0.00674012481715383
6.6	0.000475387527711583	-0.0125280797978526	-0.00310452864274425	-0.000556436810825954	-0.00311521822091844	-0.0005594478006379	0.00194863347423351	-0.0084971895764158
6.7	-9.7267843423675E-05	-0.0127306437903616	-0.00314963745144318	-0.000120554240960774	-0.00314859142410067	-0.000114303362588124	-0.000503941501197729	-0.00969544729536128
6.8	-0.000796624045701411	-0.0128464278728584	-0.00313497016238345	0.000328997144689102	-0.00313406081051967	0.000333766682421287	-0.0031909679207869	-0.00997257797980616
6.9	-0.00163291332157464	-0.013082760212299	-0.00305281678088948	0.000760204390257991	-0.00305323895789719	0.000765199015581959	-0.00573179830414503	-0.0095125572262355
7	-0.00312130160805695	-0.0128791957236925	-0.00292279481288072	0.00118022908601925	-0.00292421055315241	0.00118345391376369	-0.00811387035325925	-0.00825115624657055
7.1	-0.00382879168829008	-0.0119423148405751	-0.0027235561765322	0.00158008420816185	-0.00272597276255224	0.00159112757436386	-0.00966409708673755	-0.00655470062031889
7.2	-0.00425479031195452	-0.0114899314876515	-0.00248194129571961	0.00194218964757269	-0.00248211800831418	0.00194809667370714	-0.0110524022920789	-0.00472116249961333
7.3	-0.00476720281764915	-0.011190214513561	-0.00219032879660451	0.00226779698122788	-0.00218755965795497	0.00226927048830639	-0.0120118409002656	-0.00253428476577006
7.4	-0.00539780671551693	-0.0112077013158636	-0.00184670287510729	0.00255255402773933	-0.00183946377898819	0.00255907894804711	-0.0125213941828763	-0.00030251912650935
7.5	-0.00688122019311631	-0.0112945452930328	-0.00146688426663717	0.00278777361494733	-0.00146792858942205	0.00278575749825793	-0.0125817002566634	0.00225609412490776
7.6	-0.00791654577620075	-0.0103893234804549	-0.00107210243474002	0.00296352044332113	-0.00106141559930732	0.0029738670745026	-0.0113678155303278	0.00481849642347466
7.7	-0.00868472394473416	-0.00987024146619333	-0.000641856061639589	0.00308687546022443	-0.000636285204982523	0.00308651771677214	-0.00981661207677799	0.00622653544960435
7.8	-0.00926419502757384	-0.00962173067140422	-0.000194409303241779	0.00314734990098267	-0.00020808316035825	0.00314028597595201	-0.00812681919619114	0.00739633800645831
7.9	-0.00997687834325883	-0.00954707092413717	0.000230924512829291	0.00313262217247648	0.000242025728137548	0.00313229340746787	-0.00623485692181829	0.00839443864887527
8	-0.0110502071208788	-0.00884480244524984	0.000666551979447942	0.00307487366585381	0.00067484524354656	0.00307278030035773	-0.00419952033574267	0.00924155810010141
8.1	-0.0111053390362858	-0.00784313628245556	0.00109809440640444	0.00295050396782978	0.00109580561624567	0.00294725247931959	-0.00158387153095477	0.00949324234296069
8.2	-0.0111603104616682	-0.00735647936013427	0.00149034438037433	0.00276725104764247	0.00148954570042939	0.00277884725245381	0.000781489543180173	0.00918653592833403
8.3	-0.011351950065821	-0.00697130351505543	0.00186314677774839	0.00253313974907894	0.00186822000308917	0.00253054197599852	0.00308166909696291	0.00851053571398129
8.4	-0.0117216418029596	-0.00670682900996941	0.00220907372012294	0.00225070218506552	0.0021979080501945	0.00225112589903094	0.00517590053940428	0.00730219580963626
8.5	-0.0128177466706344	-0.00609534465717693	0.00250424768360799	0.00191476492103455	0.00250425945594785	0.00191611606717028	0.00680817804690291	0.00587535726128048
8.6	-0.0131291113609243	-0.00459561846154548	0.00273574239509621	0.00155350390374368	0.00273152481567968	0.00155120365052885	0.00856618461528692	0.00392055066011805
8.7	-0.0129510996695716	-0.00356266370427758	0.00292460663161139	0.00115306286638843	0.00292344271951847	0.00115265448117373	0.00948539899341093	0.00130639210917346
8.8	-0.0126187735207858	-0.00279543827979799	0.00305220333455427	0.00073375266327734	0.00306317746724695	0.000731621028475525	0.00960184199600961	-0.00138375963270774
8.9	-0.0122035421442079	-0.00252512944313439	0.00312464136682122	0.000303106111943519	0.00313397691438334	0.00029594753588533	0.00922373467186966	-0.00386195080532257
9	-0.0124291601887974	-0.00244096012171874	0.00313676246661597	-0.000145714747069518	0.00314355011925952	-0.000140128626170911	0.00844616277906718	-0.00596017512666713
9.1	-0.0122313871844452	-0.00192785812098724	0.0030872372033518	-0.000578510103838731	0.00308745438744502	-0.000578702962723175	0.0078352909446368	-0.00804244691191366
9.2	-0.01203718232265	-0.00192566647125612	0.0029705377799748	-0.00099887499729481	0.0029743557123519	-0.000998660300791142	0.0066489392890335	-0.0103582416612253
9.3	-0.0121446541128695	-0.00198218589141641	0.00279723357844967	-0.00140690720024365	0.00281526402798017	-0.00140738225103024	0.00487129551849505	-0.0124672036440642
9.4	-0.0125312340285518	-0.00208268156929361	0.00257867089597921	-0.00177857348665985	0.0025819653202485	-0.00178959708602159	0.00248089225371758	-0.0143140894500523
9.5	-0.0135016468735324	-0.00142382212223488	0.0023054183349273	-0.00213354972042667	0.00232019543372197	-0.00213424493186841	-0.000543422705058143	-0.0152720529239659
9.6	-0.0135994755773567	-0.00028249329265518	0.0019860704659381	-0.00243272472676664	0.00198640516493262	-0.00242572100397656	-0.00369087033220056	-0.015889119831644
9.7	-0.0135123449395519	0.000463985472027584	0.00162453129265589	-0.00268509715735424	0.00163281173659008	-0.00268669614768851	-0.00746007191071179	-0.0157595827258609
9.8	-0.013420811387361	0.00109060664467205	0.0012408035123752	-0.00287966352369447	0.00123896777792253	-0.00288829426530621	-0.0113008868505992	-0.0145558257462393
9.9	-0.0133965878898474	0.00153102858490514	0.000831149772525335	-0.00302394400058078	0.000819289158463439	-0.00302654059964873	-0.0150433567890875	-0.0122770088406972
10	-0.0140396720948845	0.00216534302325234	0.000398637956871716	-0.00310055227179062	0.000397817717322112	-0.00310785359530224	-0.0181606206624356	-0.00889987503430188
10.1	-0.0139016775554555	0.00355431632732977	-3.35613529955288E-05	-0.0031365663839798	-3.8197521313744E-05	-0.00313932593694613	-0.0199890184093099	-0.00509937567007164
10.2	-0.0133227023938747	0.0044350694896158	-0.000472325999424078	-0.00309637399349949	-0.000484903844310341	-0.00310011743685302	-0.021213179186289	-0.00122526205948738
10.3	-0.0126687604078219	0.00500749673409563	-0.000903031272679258	-0.00299346085640857	-0.000902823750531747	-0.00300681983221238	-0.0216778578664902	0.00298096938835949
10.4	-0.0121058510920822	0.00513024809762766	-0.00131023791387849	-0.00284548487926132	-0.00131339891658546	-0.0028433587133245	-0.0211689229251881	0.00717793193570115
10.5	-0.0122835356750865	0.00549262139309438	-0.0016917216921031	-0.00262773199442717	-0.00169788011969129	-0.00263496901989259	-0.0197656151324094	0.0115155286234351
10.6	-0.0117952880549251	0.00641283499699121	-0.0020503379128535	-0.00237179922868943	-0.00205183746056062	-0.00237689911200134	-0.0170724061281461	0.015249278393824
10.7	-0.011121931365936	0.00702744641014442	-0.00235608466623379	-0.00205947639708292	-0.00235929644882103	-0.00207546767832884	-0.0138979841931963	0.0183307539408745
10.8	-0.0103938547018415	0.00751356839471522	-0.0026214837754974	-0.00171261072125139	-0.00261855421336276	-0.00171477320036436	-0.010312087680327	0.0207879383271817
10.9	-0.009599232564154	0.00765990459284866	-0.00283748694945837	-0.00133635877517974	-0.00283677039102371	-0.00134147211151969	-0.00638980339570266	0.0227362227739505
11	-0.00941029091241274	0.00803709019826457	-0.00300098297248371	-0.000921769800869522	-0.00299397766748286	-0.000926054626613699	-0.00203477465850827	0.024307672786562
11.1	-0.00835519070611561	0.00887923363374224	-0.00309521385100691	-0.00050506440809717	-0.00308748488793154	-0.000496790625675872	0.00311128916863125	0.0247336129002889
11.2	-0.00702339114362984	0.00898740307015555	-0.00313450388842005	-6.5040441101873E-05	-0.00314108471094003	-6.18364293409378E-05	0.0080976486882048	0.024032251643973
11.3	-0.00568088614001641	0.00856648891455093	-0.00311158525948067	0.000374034837813017	-0.00311474259306181	0.000371875995405066	0.0130367158480361	0.0225666192188034
11.4	-0.00476152219347885	0.00766404765188928	-0.00302548519907951	0.000803469566181623	-0.00303010437784768	0.000803622676663178	0.0176465780801124	0.0201058847285748
11.5	-0.00476898571654865	0.00699515281841213	-0.00289232071798166	0.00121131548628856	-0.00288482302111037	0.00121605621336563	0.021664505081114	0.0168556116523442
11.6	-0.00416711872012343	0.00677322949134581	-0.00269007688262213	0.00160273136826422	-0.00269817321637211	0.00161240508306895	0.0254397269702505	0.0124964228349117
11.7	-0.00355149736744294	0.00596507221330185	-0.00243785672970496	0.00196829374703794	-0.00243960414131948	0.00197197471012379	0.0280444819169692	0.00729348585724866
11.8	-0.00320233149605825	0.00498496005056955	-0.00214051954158944	0.00229162338539632	-0.00214970913538979	0.00230139222704248	0.0296357335940164	0.00189072406999405
11.9	-0.00324350468019447	0.00376432573791542	-0.00180173789627417	0.00256340682496056	-0.00180177390369323	0.00256995026669927	0.0302316987019582	-0.00334125923130781
12	-0.00432850740459246	0.0032091629024795	-0.00142379401236305	0.00278624714514202	-0.00142827693605491	0.00278902141166128	0.030059490323403	-0.00846166084748953
