# GHZ S RI R 50
0.2	-0.0140029382289853	0.00490181195500251	0.00304678279056359	-0.000884698599452539	0.00305724905986561	-0.000884542359256681	0.00578348210204477	0.000389428138952083
0.3	-0.0131527166901699	0.00553418473779647	0.00290119702630472	-0.0013009988292023	0.00289491217802443	-0.00131265271012866	0.00614462258616892	-0.00174060417977371
0.4	-0.0124353185142831	0.00637592204564429	0.00268761328773867	-0.00169585418196958	0.00268550684517701	-0.0016977690813483	0.00571596379123342	-0.0034382795334272
0.5	-0.0115445005374835	0.00710265692331608	0.00241784965655129	-0.00205407870252083	0.00242066790823955	-0.00205780796788586	0.00513132069026432	-0.00499805074599173
0.6	-0.0110618677129571	0.00765543483646039	0.00210468369464578	-0.00237453557234632	0.00210394018401725	-0.00237738090926931	0.00371692181573936	-0.00662611439165664
0.7	-0.010604960780613	0.00854881041096469	0.00175403341624011	-0.00264507443351719	0.00176024729345188	-0.0026491706607776	0.00188758348406729	-0.00743237392158468
0.8	-0.00989836711193734	0.00943390675257138	0.00136015947327081	-0.00286577811364976	0.00136844185787965	-0.00286417839270769	-9.08420752018176E-06	-0.00769500869818081
0.9	-0.00923455506514658	0.0102963032761334	0.000954813094137321	-0.00301844817330934	0.000954793921229472	-0.00302787594778586	-0.00193819386142279	-0.00740626633008457
1	-0.00816427162230673	0.0111941378112365	0.000520870087482354	-0.00312626576575727	0.000520720811761602	-0.00313162835840208	-0.00332118770489692	-0.00640320501860502
1.1	-0.00730724633802061	0.0112224934512452	7.3550836498903E-05	-0.00316633118463024	7.44398784514731E-05	-0.00317106318711756	-0.00447951332719528	-0.00581710981092948
1.2	-0.00697421047091508	0.0111647510129895	-0.000366155222100529	-0.00313973251106898	-0.000364928540192497	-0.00315655010187089	-0.00555427298506349	-0.0047754800607429
1.3	-0.00693742237281971	0.0108746046161975	-0.000798403282920275	-0.00306539873768767	-0.000803350110298422	-0.00307306404146804	-0.00583820493172619	-0.00364463600477308
1.4	-0.00691536318923727	0.0107385433927316	-0.00122520213681753	-0.00291959490902748	-0.00122762347236514	-0.0029267337895141	-0.00572840860958637	-0.00280281185043914
1.5	-0.00616324796088897	0.0109211563897718	-0.00161681237462294	-0.00272119494673351	-0.00161483870827249	-0.00272674443616581	-0.00520957028531147	-0.00218288979741086
1.6	-0.00544542316577887	0.011338254170329	-0.00198133256007015	-0.00246512322180636	-0.00198480926860835	-0.00246600312105025	-0.00559632758089488	-0.001340010648813
1.7	-0.00430820391684119	0.0119591695855772	-0.00230745938253469	-0.00216950120422029	-0.00230951723783018	-0.00217810337546779	-0.00545196081467763	0.000208175448407868
1.8	-0.00311598417214711	0.012423475691873	-0.0025847787998572	-0.00181895550449756	-0.00258996885613261	-0.00182442166661802	-0.00485968294261303	0.00161021914528795
1.9	-0.00195900015584187	0.0126789287833947	-0.00281048351257448	-0.00144888100013507	-0.00280696134493419	-0.00144268377121828	-0.00389663609749317	0.002931632195653
2	-0.00067334935696663	0.0126535472677369	-0.0029870770838302	-0.00103641541229186	-0.00298981672770647	-0.00102955452662043	-0.00228699653679911	0.00382941402169656
2.1	3.27154619879413E-05	0.012287250567532	-0.00310233226375984	-0.000601342144457075	-0.00310444797741133	-0.000608048447891079	-0.00100853993923487	0.00383557267197209
2.2	0.000672245349654823	0.0123212777486127	-0.00315468106500546	-0.000168759462083335	-0.00315648140783759	-0.000159013019382163	0.000331156108157543	0.00390043950044362
2.3	0.00133718991257397	0.0122433097408274	-0.00314540354369444	0.0002745604872685	-0.00315217636780899	0.000271657689622536	0.00170465375735431	0.00354957232443048
2.4	0.00195728851675167	0.0122124984963048	-0.00308450973523309	0.000710427750058983	-0.00308330520245828	0.000725572268431891	0.00301959003554578	0.00302970704585405
2.5	0.00281098890739296	0.012110381094484	-0.00294727668199413	0.00114479440291143	-0.00296030089377564	0.00114612964908927	0.00470457280926864	0.00219091407886182
2.6	0.00338047512845431	0.0116442371124853	-0.00275404610130512	0.00153969182118311	-0.00277498595257374	0.00154366866718019	0.00603598695426181	0.000264817470694593
2.7	0.00388664022816353	0.0115069531307959	-0.00252039420131989	0.00190836248898345	-0.00252065922722452	0.00191345601208594	0.00660670338438973	-0.00178632653176702
2.8	0.00459711676233667	0.011425889435455	-0.00222362240711624	0.00223322058657208	-0.00223343586147669	0.00224445989927738	0.00667091911333352	-0.00379056554034645
2.9	0.00554458885516907	0.0113067307573612	-0.00188476384493979	0.00252593688750509	-0.00188280352762792	0.00253485061568249	0.00648848672296982	-0.00550013597021396
3	0.00675436668903366	0.010846947977873	-0.00151106366843543	0.00276654075173873	-0.00152620170849456	0.00275354913266315	0.00644228726474651	-0.00728395025366628
3.1	0.00751867129284553	0.0102083554943963	-0.00111243298464132	0.00294784261711046	-0.00112936803704356	0.00295330567373244	0.00555921938512452	-0.00942712846586738
3.2	0.00828817782224063	0.00970484791361466	-0.000692236456898886	0.00307174689012001	-0.000687929133451691	0.00308254553564774	0.00406642017878351	-0.011016436049422
3.3	0.00902586736961222	0.00903447718180401	-0.000261872341150707	0.00314139809505355	-0.000258587831504416	0.00313700487141667	0.0023513911845268	-0.012378689727684
3.4	0.00966022942920186	0.00834397410509747	0.00018408162450311	0.00314682995861432	0.000174657366209932	0.00314794367573955	0.000410116996006163	-0.0134418793562971
3.5	0.0103777567878068	0.00747412669159204	0.000615862134707308	0.00308830175540331	0.000620864490596219	0.00308695607883787	-0.00147428279860871	-0.0144331042223849
3.6	0.0105813431825086	0.00645316213579141	0.00103602671420335	0.00296794790677367	0.00104263679564823	0.00297141826983696	-0.00415924358209206	-0.015383620499057
3.7	0.0107662421735858	0.00580453578246514	0.00145232599012825	0.00278943725219065	0.00145063871482552	0.00280580972755005	-0.00713762273100872	-0.0153400270638212
3.8	0.0110863595540957	0.00516884774079581	0.00181929133165396	0.00256095405619803	0.00182990862065909	0.00256726505086051	-0.0100436227257148	-0.0146192502742865
3.9	0.011508542233038	0.00453448906847589	0.00216465989430458	0.00228181883746175	0.00216006507096453	0.00228173811827737	-0.0126922172103171	-0.013118108939664
4	0.0121640083759664	0.00362394167913338	0.00245537088640135	0.0019627496024848	0.00246682651265534	0.00196885065387171	-0.0143992349602303	-0.0112735142138921
4.1	0.0122528459445046	0.00244067988660596	0.00270588522731339	0.00159391671391953	0.0027224735826203	0.00160362514185176	-0.0161836069026155	-0.0096468328048935
4.2	0.0122848620929189	0.00157407423233913	0.00290477076821187	0.00119646390008938	0.00290601075698719	0.00119874246582766	-0.0178331081289233	-0.00735291155378717
4.3	0.0122990067910942	0.00071959479027091	0.00304522009436296	0.000788837746840697	0.00304643393559008	0.000797404676922435	-0.0190079421849458	-0.00477660976309729
4.4	0.0122101929284837	-0.000114917365265284	0.00312273588388168	0.000354327950894514	0.0031306292286484	0.000349672334742589	-0.0197190631829127	-0.00177812125307757
4.5	0.0122466691615474	-0.00101446354392342	0.00314426226922571	-9.12191555415953E-05	0.00314108603901916	-8.89488819844627E-05	-0.0192869333606078	0.00120840729293948
4.6	0.0116513613220432	-0.00208931985116672	0.00308707895307124	-0.000535135919119464	0.00310012080674922	-0.00052323231140603	-0.0188661852623979	0.00339488467845189
4.7	0.0111029537794388	-0.00256855299526065	0.00298379991187739	-0.00094552457738335	0.0029836753656049	-0.000954932979496341	-0.0183565726774423	0.00583414571384458
4.8	0.0107097564130632	-0.00299062011055143	0.00283408163129208	-0.00134607908509616	0.00282639441090032	-0.00136617854499964	-0.0173193279675272	0.0083640965704491
4.9	0.01061460523353	-0.0033045511261194	0.00261743022081605	-0.0017418039359295	0.00261140190575056	-0.00173336912333244	-0.0156822747692373	0.0108719361638688
5	0.0109017872511116	-0.00397068686822957	0.00233988582115563	-0.00207023258773314	0.00234258757305884	-0.00208261541739369	-0.0128477601718769	0.0128420107547565
5.1	0.0107982495214242	-0.00488377988172591	0.00202045926038729	-0.00239000826836882	0.00203363863077001	-0.0023875632967054	-0.0102465986288265	0.0137558348784306
5.2	0.0107977300352261	-0.00565431543871247	0.00167934713246944	-0.00264534923891473	0.00167983946876003	-0.00264949542124097	-0.00755317202548835	0.0145927852947802
5.3	0.0107650835258004	-0.00660481668618852	0.00129074436814958	-0.00285475632625951	0.00128701070294664	-0.00285731256183544	-0.00460196980437313	0.015006458502757
5.4	0.0105529863650268	-0.00752745567466164	0.000881329023809364	-0.00301120521387429	0.000880441479702751	-0.0030136520184716	-0.00146780943602119	0.0148722149285497
5.5	0.0103277646253925	-0.00860004570555542	0.000447034901017621	-0.00310363689924133	0.000459554608224252	-0.00310362220199233	0.00198987293523213	0.0136096565457353
5.6	0.0093200291508415	-0.00958740888546374	1.59948320088218E-05	-0.00313505960360288	1.27115059913666E-05	-0.00313161504955826	0.00394097322197326	0.0112893911868758
5.7	0.0084452763477278	-0.00997923007172649	-0.000415191983789811	-0.00310878887267053	-0.000418894142137973	-0.00311246214550928	0.00518273740726846	0.0094262434504111
5.8	0.00778420357302245	-0.0104116671059375	-0.00084733959249193	-0.00301856847772836	-0.000846612352038517	-0.0030262192098722	0.00614748094552022	0.00740639668962708
5.9	0.00706496933149195	-0.0108179335497257	-0.00126078391404958	-0.00286702427074065	-0.00125918784339978	-0.00287115685837443	0.00658712158732417	0.00554944220221946
6	0.00652803878452893	-0.0115169413147093	-0.00164801508762252	-0.00266512142188694	-0.00164204346440117	-0.00266845267722481	0.00733985646449863	0.00374753495107827
6.1	0.00504125315416986	-0.0125501810968901	-0.00200546312358738	-0.00241437575650813	-0.00200133355203109	-0.00241912160424068	0.00730039339939951	0.000938905205712613
6.2	0.00331314660092998	-0.0127405501179587	-0.00232322113432479	-0.0021003627753326	-0.00231965141926438	-0.0021089898325173	0.00639162124447188	-0.00133321948228416
6.3	0.00203961786656301	-0.0125225294406946	-0.00258934103192231	-0.00176409150836152	-0.00259910754382303	-0.00177183256505441	0.00530594894245732	-0.00328550200093343
6.4	0.00123026792924382	-0.0122470888138838	-0.00281691169441127	-0.001382319380204	-0.00281491937303038	-0.0013880916191013	0.00424220941692013	-0.00485339675204536
6.5	0.000894351701686426	-0.0125296448543878	-0.00298303220862566	-0.000980586461770365	-0.00298343605797808	-0.000979468157754979	0.00362039004419128	-0.00686809928494281
6.6	-8.91708511344974E-05	-0.0126628338022592	-0.00308575535267819	-0.000557495914466761	-0.0030963787784445	-0.000560504200074397	0.00149398693315847	-0.00899098064858593
6.7	-0.000698072117698944	-0.0124928568921078	-0.00313167112422893	-0.000126484674316212	-0.00313064409502903	-0.000120266755783976	-0.00105954074852949	-0.0098457355671093
6.8	-0.00130924828369033	-0.0123555872844045	-0.00311908343344707	0.00031964476813085	-0.00311819048606093	0.000324391127105685	-0.00370504918518162	-0.00986381299598663
6.9	-0.00190362060139842	-0.0120671580939107	-0.00303863306613878	0.000749113661477684	-0.0030390646812113	0.000754081197273614	-0.00603718408193816	-0.008833826182125
7	-0.00214577947065271	-0.0120798060985147	-0.00290811781014091	0.00116479168697364	-0.00290953386427883	0.00116799271687187	-0.0071031710778701	-0.0077565087197989
7.1	-0.00328643805870413	-0.0121110850185339	-0.00271462986024028	0.00155998310631746	-0.00271707804883898	0.00157095410858743	-0.00905684929626531	-0.00713774324570036
7.2	-0.00410242577837389	-0.0115294285977018	-0.00247790772208811	0.00192141929976229	-0.00247810953892438	0.00192729560235965	-0.0109128163736301	-0.00524897967470692
7.3	-0.0047127016213743	-0.0110365722801005	-0.00219013658807209	0.00224677459275463	-0.00218738760847552	0.00224825367618175	-0.0120819474692328	-0.0028850590058053
7.4	-0.00529818436775925	-0.0105788412831408	-0.0018502255281572	0.00253059590097185	-0.0018430551325921	0.00253712438447793	-0.0127144221489109	-0.000104926317700387
7.5	-0.00552112929707033	-0.0105179711994911	-0.00147813747414179	0.00276593340108449	-0.00147916424411577	0.0027639196276618	-0.0115555261974061	0.00275776661155667
7.6	-0.00669351223796659	-0.0110332567387458	-0.00108731498778987	0.00294731594062666	-0.00107672733987109	0.00295769673766923	-0.0103363369606015	0.00394113837615228
7.7	-0.00811863850676614	-0.0107798746690572	-0.000658935781187586	0.00307382868323344	-0.00065337915183885	0.00307350623371133	-0.00948512175157683	0.00516302085484987
7.8	-0.00918498219386338	-0.0103188433890427	-0.000214113211169715	0.00313732014062087	-0.000227703486000315	0.00313018795876215	-0.00823220683621404	0.00658648952798875
7.9	-0.00988145868062752	-0.00969268479444846	0.000207974917152622	0.0031269783479202	0.000219052629629444	0.003126729770208	-0.00626441698987081	0.00811777493320367
8	-0.0101857475067309	-0.00954879140314066	0.000643997824096573	0.00307738517434297	0.000652299982924489	0.00307535285813806	-0.00328827877927808	0.00849694977088007
8.1	-0.0111668613054988	-0.00898612862826343	0.00107842691079749	0.00295558284593138	0.00107616051399227	0.00295231883797483	-0.001586831665937	0.00810365247657821
8.2	-0.0116776285041661	-0.00813410765113078	0.00147116401086424	0.00277564692463524	0.00147028877139686	0.00278723154440285	0.000261402848635831	0.0080960643817234
8.3	-0.0121318996074298	-0.00736310041902887	0.00184571959117351	0.00254602827547604	0.00185081081480298	0.00254346542507748	0.00224157485679232	0.0078076856412108
8.4	-0.0125346006375053	-0.00635594510557156	0.00219601658403064	0.00226804720537645	0.0021848365849057	0.00226839534444302	0.00427870444860398	0.00739878441456142
8.5	-0.0124978824011475	-0.00563863727859257	0.0024968082756319	0.00193113682455239	0.00249681255186871	0.00193248976533655	0.00713089770153105	0.00611865621392821
8.6	-0.0131745050602142	-0.00489871398441328	0.00272856582910953	0.00157079726228749	0.00272435875405261	0.00156847041783858	0.00857216192318492	0.00331101974248689
8.7	-0.0133507948208694	-0.00363353761006081	0.00292111639529392	0.00117266341606091	0.00291995355871946	0.00117224729370191	0.00909169101063475	0.000860046924312291
8.8	-0.0130890960898094	-0.00257916760391071	0.00305346602923977	0.00075358956837243	0.00306447355986542	0.00075152034599122	0.00905225663251441	-0.00155803441710558
8.9	-0.0125609963925823	-0.00182187430112914	0.00312979762116578	0.000320586824807225	0.00313919198950431	0.000313462957257051	0.00869091943225064	-0.00348568902375052
9	-0.0117352927768762	-0.00181301456552921	0.00314160346229164	-0.000128720875372043	0.00314836926516	-0.000123090375263489	0.00898240815846996	-0.00550383205295511
9.1	-0.0118494766890169	-0.0021815092953837	0.00309731919381127	-0.000560137332037117	0.00309753805191501	-0.000560329214552131	0.00815931828044617	-0.00845152606252582
9.2	-0.0120757146928606	-0.0021421691142829	0.00298501977499783	-0.000983509573020246	0.00298884714968502	-0.000983270906039827	0.00660518594861019	-0.0107320905608154
9.3	-0.012370560231754	-0.00198465633429403	0.00281416118990727	-0.00139510212457426	0.00283225093105228	-0.00139547413517409	0.00469841177987048	-0.012634369377971
9.4	-0.012643135735873	-0.00159218700175216	0.0025965904106655	-0.00176902646140843	0.00259995810729919	-0.0017800639303126	0.00247072748612034	-0.0139787468704544
9.5	-0.01277405474651	-0.00134036726864262	0.00232853282331507	-0.00212560257119739	0.00234336910106262	-0.00212619904648092	0.000430753868807618	-0.0153969972774079
9.6	-0.0135379202156439	-0.000716761848904251	0.00201120695202253	-0.00243293506359987	0.00201150023520089	-0.00242589346465665	-0.00335954033925739	-0.0167417552546015
9.7	-0.0137107076545165	0.000347288170226806	0.00164812902789988	-0.00269069677723351	0.00165646315402162	-0.00269225880875129	-0.00749127801811387	-0.016409837496982
9.8	-0.0136129362389671	0.00123175896419096	0.00126300443442495	-0.00288933615147803	0.00126120394087777	-0.00289802522089735	-0.0114450532363753	-0.0149825037456153
9.9	-0.013378502477618	0.00208256645416818	0.000852900216836696	-0.00303808465903333	0.000840980496356827	-0.00304076246540006	-0.0150820473459232	-0.0122570262944674
10	-0.0129146531769284	0.00237832919580857	0.00041657450225499	-0.00312310867430285	0.000415782624827138	-0.00313047150649588	-0.0170938078268149	-0.0091308150703437
10.1	-0.0132909370193137	0.00269726211028282	-2.35236549857336E-05	-0.0031610718630542	-2.81868213354885E-05	-0.00316386810153289	-0.019422210004764	-0.00642234065967882
10.2	-0.0133730617628568	0.00354391202610798	-0.000467165364818606	-0.00312160696459851	-0.000479829608420073	-0.00312541505653032	-0.0213648791522384	-0.00258905998235968
10.3	-0.0131624827476786	0.00439324860075644	-0.000902979993535386	-0.00301964343152872	-0.000902738290573408	-0.00303310893800814	-0.0223458521566572	0.00194352167103924
10.4	-0.0126502901082812	0.00515654541899552	-0.00131685082378394	-0.0028724429744848	-0.00132004290176416	-0.00287030362807222	-0.021928989679241	0.00691019124384452
10.5	-0.0119305044397958	0.0053414024977871	-0.00170643342174215	-0.00264931191927243	-0.00171264489208483	-0.0026566080476391	-0.0194927518490388	0.0112153260222633
10.6	-0.0120179930024472	0.00561980812418654	-0.00206561505527398	-0.00238873240286714	-0.0020671262951633	-0.00239386914460567	-0.0172317421570571	0.0142550847227499
10.7	-0.0118561972701862	0.00643526921165956	-0.00237384406315923	-0.00207435198320113	-0.00237708211091277	-0.00209046112093459	-0.0145134852743582	0.0174732602000523
10.8	-0.0114023886053123	0.00733817832663825	-0.00264264812698611	-0.00172397612730313	-0.00263969759563455	-0.00172615706287785	-0.0112489819940377	0.0203499824392011
10.9	-0.0106380251676867	0.00827711748542675	-0.00286104632324008	-0.00134152876889573	-0.00286033313200842	-0.00134668166916361	-0.00725971167326706	0.0230542211513915
11	-0.00935083688601174	0.0086440388641041	-0.0030209800572959	-0.000922159788100344	-0.00301393934630078	-0.000926483130364707	-0.00171383441880345	0.0245922802302827
11.1	-0.00872261254275919	0.00897470932712768	-0.0031164723185253	-0.000504737568097455	-0.00310868189482582	-0.000496417804693408	0.00305370223904763	0.0243547828087316
11.2	-0.00758697381030253	0.00941835967757687	-0.00315657179648745	-5.98206841442865E-05	-0.00316319290167437	-5.65823204569513E-05	0.00778211951434477	0.0238649531703816
11.3	-0.0061528462025512	0.00942831659503081	-0.00313183077059388	0.000384372705104015	-0.00313501500359189	0.000382207072527986	0.0125844438264094	0.0227483752322303
11.4	-0.00490840300324839	0.00906670233923397	-0.00304158491481114	0.000816760340766227	-0.00304623166223342	0.000816927236444372	0.0173846332479355	0.0208930493816855
11.5	-0.00375572823494772	0.00805658092095959	-0.00290847838876839	0.00122437470251365	-0.00290092422028474	0.00122913171064775	0.0226840601717499	0.017396344139984
11.6	-0.00349536433937015	0.00706913437591959	-0.00270489003283885	0.00162209480765047	-0.00271301692819219	0.00163186186142399	0.0261449817458596	0.0121879055515992
11.7	-0.00305594981057788	0.00633073655162832	-0.00244730134609445	0.00199096205712811	-0.00244904704744462	0.0019946749098688	0.0284790816542552	0.00703165533735189
11.8	-0.00265652283344163	0.00545894443187387	-0.00214499398224461	0.00231510303086448	-0.00215420306815043	0.00232497222662721	0.0300363984785756	0.00182009230311027
11.9	-0.0021140155361428	0.004420409316596	-0.00180349111775304	0.00258683341210825	-0.00180350221965635	0.00259341912343498	0.0311880999209839	-0.00304200907474044
12	-0.00226892514161929	0.00300344374242464	-0.00142137678096325	0.00281438121967288	-0.00142588076285691	0.00281719814942074	0.0322055738169697	-0.00900567001470755
