# GHZ S RI R 50
0.2	-0.0140404015385552	0.00498090358282794	0.00304680646966852	-0.000884368002327582	0.00305727249390567	-0.000884210696414252	0.00574538991553129	0.000470007832323899
0.3	-0.0132456834194378	0.00554377712446769	0.00290143055002781	-0.00130059942377976	0.00289514728959276	-0.00131225439593678	0.00605240028537023	-0.0017289167889245
0.4	-0.0125261077066366	0.00639775157874873	0.00268805793570934	-0.0016955310537416	0.00268595166582749	-0.00169744641422345	0.00562757862284339	-0.00341464612978453
0.5	-0.0116272684964194	0.00701004423909071	0.00241826192427011	-0.00205382359454215	0.00242108085063239	-0.0020575526252617	0.00505174891044016	-0.0050895491129682
0.6	-0.0112687171037747	0.00762192104491239	0.00210539113097879	-0.00237421316705971	0.00210464823343442	-0.00237705888257477	0.00351543615227425	-0.00665945492312077
0.7	-0.0107761103946951	0.00856303505286762	0.0017549244862286	-0.0026450105179121	0.00176114022736197	-0.00264910578889173	0.00172238682948623	-0.00742056422581579
0.8	-0.0100546501154611	0.00944793578546339	0.00136108395356105	-0.00286595939478627	0.00136936741875528	-0.00286435741367841	-0.000160157286012257	-0.00768542936565922
0.9	-0.00937250587049703	0.0103396309461363	0.000955685071725787	-0.00301879563440984	0.000955668058940829	-0.00302822518298253	-0.0020726660989332	-0.00736810703102541
1	-0.00819169827020687	0.0111582981062098	0.00052191312202956	-0.00312672928816873	0.000521765428635469	-0.00313209298934771	-0.00334486609025288	-0.00644271125542224
1.1	-0.0074669250990224	0.0111163883012044	7.44609260890309E-05	-0.00316730799588364	7.535157357517E-05	-0.0031720412399499	-0.00463390666554299	-0.00592924195799689
1.2	-0.0071277834349324	0.011080720378897	-0.000365535201883092	-0.00314085804728538	-0.000364304143858636	-0.00315768091430143	-0.00570414300313209	-0.00486515686267706
1.3	-0.00712745000981199	0.010718897568044	-0.000797977879686581	-0.00306662566416698	-0.000802924649299102	-0.00307429470743969	-0.0060257595105253	-0.0038042350642208
1.4	-0.00719182319493718	0.0105995230336124	-0.00122492445789324	-0.00292094898903807	-0.00122734490742023	-0.00292809103894081	-0.0060012129134281	-0.00294504741431564
1.5	-0.00650596158835718	0.0107987063121791	-0.00161693780386089	-0.00272286707695901	-0.0016149618927832	-0.00272841873371652	-0.00554703989331951	-0.00231729569555231
1.6	-0.00580135707092233	0.011392162300944	-0.00198192687729083	-0.00246648410131834	-0.00198540505285034	-0.00246736482722743	-0.00594953897221838	-0.00129470373829117
1.7	-0.00457242973394216	0.0120537372204954	-0.00230814509833926	-0.00217072680212282	-0.00231020267427257	-0.00217933288537101	-0.00571599563619965	0.000293173553811593
1.8	-0.00333647257130129	0.0125360903085028	-0.00258564353544103	-0.00182014184115535	-0.00259083505685528	-0.00182561118299585	-0.00508303758419777	0.00171153145149701
1.9	-0.0021031512454281	0.0128054275778741	-0.0028116626146194	-0.00145001808334727	-0.00280813962109947	-0.00144381725519614	-0.0040438090832209	0.00304839240173311
2	-0.000808647490221831	0.0126716518285959	-0.00298855881685547	-0.00103705652526833	-0.00299130011614211	-0.00103019224988828	-0.0024239536940033	0.00383919642617839
2.1	-0.000157068991546195	0.0124023689854759	-0.00310360209235046	-0.000601902781278504	-0.00310571805680637	-0.000608612163431483	-0.00119793981079904	0.00394113517381773
2.2	0.000579869350985222	0.0124613026433938	-0.00315623984988454	-0.000169290125052562	-0.00315804247383468	-0.000159539047288565	0.000238789686026795	0.00402898797625166
2.3	0.00130797541847315	0.012351907604082	-0.00314724598505265	0.000274361248206516	-0.0031540223794557	0.000271456009560732	0.00167395724178296	0.00364584127662975
2.4	0.00200180495265923	0.0122805894334649	-0.00308642802023203	0.000710764342381026	-0.00308522323797917	0.000725918205292141	0.00306378139968163	0.00308801185025196
2.5	0.00289192385103003	0.0119815630744095	-0.00294884360532408	0.00114532372576254	-0.00296187465437394	0.00114665936518582	0.00478823369811189	0.00205682428895102
2.6	0.0032809731421941	0.0114768363494228	-0.00275597716386161	0.00154040951853017	-0.00277693092370532	0.00154438683404743	0.00594553804371977	8.83159798092205E-05
2.7	0.00371089449329614	0.0113891242324159	-0.00252223279260235	0.00190974509230282	-0.00252249802357143	0.00191484232115201	0.00644042029425691	-0.00192034213702205
2.8	0.00440056223187352	0.0113923028547004	-0.00222506621594101	0.00223504641300458	-0.0022348859258224	0.00224629479878218	0.00648014045088321	-0.00384546632403183
2.9	0.00542326066848647	0.0113048856635087	-0.00188574943128087	0.00252792674635678	-0.00188378662384282	0.00253684640334221	0.00636347447639211	-0.00551846881499211
3	0.00660746964543585	0.0107456374737329	-0.00151211867344807	0.00276869963293584	-0.0015272686898111	0.00275569864435747	0.00629632091960742	-0.00740268065330972
3.1	0.0073140766108639	0.0101990326829904	-0.0011127905949381	0.00295077113371047	-0.00112973984011594	0.00295624291909486	0.00535632345408326	-0.00946499419453676
3.2	0.00813310009272127	0.00971289637913218	-0.000691716666544122	0.00307461018353997	-0.000687401780685279	0.00308541646179666	0.00390182137241367	-0.0110367686556292
3.3	0.00888083260209771	0.0090326050514691	-0.000260766475715365	0.00314401438972391	-0.000257481183961138	0.00313961628577441	0.00219185160869053	-0.0124076748680109
3.4	0.00954384532152335	0.00832679679948095	0.000185551239021859	0.00314925038091301	0.000176119968490406	0.00315036894573218	0.000275754416936835	-0.0134845930457247
3.5	0.0101843175911457	0.00734613457305749	0.000618175836895158	0.00309084615055096	0.000623182118310448	0.00308949640044905	-0.0016911455710545	-0.0145872659512364
3.6	0.0102824663930874	0.00648333928450163	0.00103911806582121	0.00296938654520556	0.00104573584424249	0.00297285439231727	-0.00448754329883039	-0.0153732301648675
3.7	0.0105606558697756	0.00592100351664487	0.00145540226467629	0.00279009523147902	0.00145372653743391	0.00280647944211591	-0.00737533403564039	-0.0152378863226838
3.8	0.0109802058547689	0.00528150421101645	0.00182237589279864	0.00256109306333032	0.00183300449256314	0.00256739964759055	-0.0101849652688482	-0.0145140945307282
3.9	0.0114919560760316	0.00455282613021631	0.00216793805164973	0.0022814417817342	0.00216334026425927	0.00228136486514277	-0.0127460355668713	-0.0130978423251795
4	0.0120095288816937	0.00343889373975785	0.0024586523434639	0.00196111459766932	0.00247012004571616	0.00196720652138173	-0.0145839016608958	-0.0114420180336917
4.1	0.0119070359917496	0.00245389306583806	0.00270816870278803	0.00159188670611727	0.00272477099850927	0.00160158267033055	-0.0165468389082936	-0.00961889054432681
4.2	0.0120310796606036	0.00175006505101498	0.00290683418638791	0.00119426766879441	0.00290807664095166	0.00119654589994328	-0.0181033448267827	-0.0071631142181446
4.3	0.0121957934065366	0.000937937701426695	0.00304704918060912	0.000786130754721278	0.00304827182878747	0.000794699470068063	-0.0191276096840254	-0.00453991021845653
4.4	0.0122736076349596	3.72161358386969E-05	0.00312392651768333	0.000350901265961648	0.00313181662075239	0.00034623558090741	-0.0196652680541957	-0.00159894598339399
4.5	0.0122925211201274	-0.00111104691297358	0.00314405268563922	-9.45598109059682E-05	0.00314087898357541	-9.22862407110283E-05	-0.0192320254527669	0.00113839263726521
4.6	0.0115639380242159	-0.00212228647924212	0.00308680155600226	-0.000538037561495014	0.00309985537710593	-0.000526145207337175	-0.0189437303743626	0.00337830206711848
4.7	0.0110563592429551	-0.0025929320466414	0.00298302486402894	-0.000948684125766596	0.00298289055196595	-0.000958093046782963	-0.0183903767864133	0.00582470682385898
4.8	0.0106751357107357	-0.00303784691434833	0.00283247153145447	-0.00134916625368475	0.00282476233970872	-0.00136925635650971	-0.0173345039055684	0.00833058491179204
4.9	0.0106149174685739	-0.00339464345762442	0.0026149670659218	-0.00174425258098351	0.00260894921158298	-0.00173581310522381	-0.0156573547733438	0.0107903360742956
5	0.0107806330817611	-0.00419722437527315	0.00233771190686499	-0.00207190757570147	0.00234040252916925	-0.00208429068188928	-0.0129445269578339	0.0126156057265055
5.1	0.0106174219748869	-0.00492383632588293	0.00201772058346632	-0.00239203125170355	0.00203090166829501	-0.00238960076194172	-0.0104016506095202	0.0137148075127827
5.2	0.0107520936066328	-0.00570652506115394	0.00167582714128475	-0.00264664809010923	0.00167631450001552	-0.00265079380340067	-0.00757040030922907	0.0145341203330527
5.3	0.0107455336332094	-0.00678940067722605	0.00128701184317963	-0.0028550958164047	0.00128327675283721	-0.00285764682992873	-0.00459382808851052	0.0148094490384662
5.4	0.0104648135083441	-0.00785848586174854	0.000877890526237629	-0.00301083534970974	0.00087700086325001	-0.00301328022011014	-0.00153102272705345	0.0145257103430258
5.5	0.00987673342303762	-0.00907287017905747	0.000443259795227414	-0.00310335521131746	0.000455776257725547	-0.00310335527636551	0.00156820418974505	0.013121305172707
5.6	0.00866030190340298	-0.00964761613545399	1.17369567965153E-05	-0.00313321870520058	8.4602492476768E-06	-0.00312977174829246	0.00331324441032573	0.011200396844406
5.7	0.00788168851287274	-0.00982311170077762	-0.000418698588733652	-0.00310584575369283	-0.000422402378529649	-0.00310951159098579	0.00463926660366114	0.00954552431314838
5.8	0.00731498621924737	-0.0100953794105152	-0.00085008228749182	-0.00301506429831129	-0.000849364412391035	-0.00302270943864191	0.00568760986268216	0.00768723070809428
5.9	0.00681247180133357	-0.0103611892109988	-0.0012631235177848	-0.00286319751462229	-0.0012615336107269	-0.00286732859923014	0.00633895271377349	0.00597885273140396
6	0.00640593770781472	-0.011221870598762	-0.00164994024191852	-0.00265985062690638	-0.00164397992009545	-0.00266318659605179	0.00722778922432767	0.00401936801212397
6.1	0.00495435001615112	-0.0120406240309753	-0.00200530929904823	-0.00240877887167621	-0.0020011907497918	-0.0024135226103973	0.00722254741146854	0.00142161852200748
6.2	0.00358588291065655	-0.0122705346521747	-0.00232197822194636	-0.00209517349341364	-0.00231842183152002	-0.00210379186228342	0.00667189223636808	-0.000889527961900633
6.3	0.00250604272610023	-0.0123350495914713	-0.00258719423465924	-0.00175907613833834	-0.00259695366811672	-0.00176679668252319	0.0057819451957588	-0.00311962939340659
6.4	0.00170187795795587	-0.0123869277894859	-0.00281357702703283	-0.00137731526337556	-0.0028115935678812	-0.00138307985952499	0.00472381299018505	-0.00501464316569381
6.5	0.000960688174712283	-0.0129266107942012	-0.00297758197405099	-0.000976710123629178	-0.00297798429653289	-0.000975593839961776	0.00369855176738016	-0.00728781273373649
6.6	-0.000153336025075272	-0.0127902316796575	-0.00308032764281324	-0.000555533787034355	-0.00309093271790976	-0.000558533341459748	0.00143829549348699	-0.00914410335947129
6.7	-0.000738278560945518	-0.0126302660542613	-0.00312614211796331	-0.000125271467587274	-0.00312511495288513	-0.000119064930158103	-0.0010917777285007	-0.0100072077877622
6.8	-0.00138571218057827	-0.0124815060837986	-0.00311310763123789	0.000319875564735425	-0.00311221510037505	0.000324612721563724	-0.00377043817773562	-0.0100128031667655
6.9	-0.00190462162239825	-0.0122387429709258	-0.00303226436331185	0.000747738331907029	-0.00303269478002009	0.000752695556333204	-0.0060303291713428	-0.00903596127239224
7	-0.00245360394085559	-0.012519898036938	-0.00290308930305325	0.00116148419270975	-0.00290450391807222	0.0011646786535234	-0.00739684537896173	-0.00822892851970449
7.1	-0.00379752148457143	-0.0121277802491231	-0.0027103445707214	0.00155680249521813	-0.00271279079634	0.00156775443833161	-0.00955310092120397	-0.00719621053992607
7.2	-0.0044542206680123	-0.0113910418270262	-0.00247378710856131	0.00191732861739605	-0.00247398988065175	0.00192319407413254	-0.0112546950656563	-0.00516055851225161
7.3	-0.00495310852289678	-0.0108432490049924	-0.00218685320935671	0.00224157963978333	-0.00218411009801051	0.00224305700632371	-0.0123227539440449	-0.00274660059753271
7.4	-0.00534263882099602	-0.0103759016985619	-0.00184857096935371	0.0025247361411411	-0.00184141804810235	0.00253125759556688	-0.012784513787643	3.96515572966032E-05
7.5	-0.00562468033579713	-0.0106861204253458	-0.00147736570055112	0.00276098608850083	-0.00147838986265045	0.00275897480986121	-0.0116854513580584	0.00253364073368893
7.6	-0.00701499188518376	-0.0109523920976464	-0.00108660934223817	0.00294146438046477	-0.0010760455247133	0.00295183082416366	-0.0106584026513541	0.00398096116304342
7.7	-0.00823387335354718	-0.0105921165594493	-0.000659800074319306	0.00306752648037467	-0.000654253794670653	0.00306720847302694	-0.00963348023988439	0.00530406966356991
7.8	-0.00915926497356301	-0.0102491537661779	-0.000216413025441007	0.00313143433731623	-0.000229972486090954	0.00312430347052452	-0.00824565746636532	0.00662047854341263
7.9	-0.00982801013594901	-0.00990673803792482	0.000205002210519461	0.00312194105617802	0.000216061667766071	0.00312170219593569	-0.00624604254065962	0.00786978476647295
8	-0.0106740334953939	-0.0098711488195334	0.000640871539447392	0.0030716500680353	0.0006491584029831	0.00306962677258064	-0.00381050047836168	0.00812924306251868
8.1	-0.0117019133695595	-0.00878927366544923	0.00107284307670172	0.00295019840409379	0.00107058522967899	0.00294693918029988	-0.00215955304251414	0.00824794414413009
8.2	-0.0119579198011386	-0.00775714035551897	0.00146436210783289	0.00277180254640169	0.00146347317869716	0.00278336172031644	-6.83836425309277E-05	0.00842495659190264
8.3	-0.0121550064802886	-0.00695951642488648	0.00183826399060208	0.00254358619726976	0.00184334867980437	0.0025410359767736	0.0021600275010545	0.00817263606696378
8.4	-0.0122524601470888	-0.00613909900314874	0.00218799590550531	0.00226659769498482	0.00217683882804276	0.00226692826851812	0.00449629052320408	0.00759082307557351
8.5	-0.0124417296798666	-0.00590521235614635	0.0024869583691833	0.00193164663039945	0.00248695987947208	0.00193299637401647	0.0071237291012164	0.00584910835935712
8.6	-0.0133545488236298	-0.00486300194264974	0.00271965164331599	0.00157456887148669	0.00271545807962411	0.00157223603519785	0.00834276668568087	0.00335227555835514
8.7	-0.0133811116168065	-0.00349947626069886	0.00291353771870123	0.00117796545879283	0.00291237777433929	0.0011775471443444	0.00901176889382154	0.000998266505258658
8.8	-0.0129979329519059	-0.00243981039636957	0.00304691799857744	0.000760161976577174	0.00305791402136531	0.000758123724736251	0.00909293693719957	-0.00140907822407541
8.9	-0.0122515353278065	-0.00177580459995704	0.00312413418346383	0.000328810076147961	0.00313353406066847	0.000321723217938911	0.00894612356400345	-0.00341401224424583
9	-0.0115490307706052	-0.00215488666661345	0.00313894911509993	-0.000118364041514173	0.00314568996253977	-0.000112717016506097	0.00913430419669833	-0.0057997372028322
9.1	-0.0117875303360307	-0.00236850898565754	0.00309717314584649	-0.000550813624990204	0.00309739243630344	-0.000551004761433303	0.00821439397940591	-0.00859189016605979
9.2	-0.011931592521829	-0.00246083827995802	0.0029861228885093	-0.00097443902475021	0.00298994740196345	-0.000974189582048696	0.00675727572806073	-0.0110058580681267
9.3	-0.0123581680530391	-0.00246240850016327	0.00281695309128807	-0.00138603489551315	0.00283503515342012	-0.00138635279679222	0.00473328985920982	-0.0130731521868505
9.4	-0.0127746160696453	-0.002159325808118	0.00260183846759692	-0.00176037040156138	0.00260524109990874	-0.00177139515074539	0.0023777811681736	-0.014518044666083
9.5	-0.0134242118551801	-0.00196993745394195	0.00233547740865299	-0.00211981531610677	0.00235032115607749	-0.00212036987820001	-0.00016584065753446	-0.0160284025097277
9.6	-0.0142751951898933	-0.000790403672615782	0.00201781921674109	-0.00242793364462813	0.00201809405589556	-0.00242089047728593	-0.0040506394060007	-0.016835923104192
9.7	-0.0142837195415621	0.00043714758809937	0.00165589998657889	-0.00268653859718722	0.00166423982368621	-0.00268807764329451	-0.00802495281765449	-0.0163542595935544
9.8	-0.0140974821658628	0.00142219611705077	0.00127173572911843	-0.00288685498941287	0.00126995932035249	-0.00289555256627183	-0.0119019070897353	-0.0148376041995443
9.9	-0.0136893924783871	0.00228630105099368	0.000861634694968255	-0.00303792037484754	0.000849713828092562	-0.0030406319836757	-0.0153649312825234	-0.0121070336497757
10	-0.0134551575107372	0.00241665932716173	0.000423907347521239	-0.00312336300377269	0.000423132069719779	-0.00313073050885347	-0.0176147609380419	-0.00914143062577417
10.1	-0.0138379126583878	0.00329402209387185	-1.47287123387704E-05	-0.00316202293084471	-1.93853992928193E-05	-0.00316483293659588	-0.0199506914651863	-0.00588623507102634
10.2	-0.0134580240957656	0.0043188361787472	-0.000458256257877642	-0.00312484263751669	-0.000470916842246783	-0.00312869027300528	-0.0214498213346339	-0.00188197066383038
10.3	-0.0128173486245353	0.00505128877618378	-0.000894978354365258	-0.00302485767279629	-0.000894697308809808	-0.00303833402584777	-0.0220216178478875	0.00253888601833331
10.4	-0.0119349942738093	0.00541045656922514	-0.00131019632420936	-0.00287863759232117	-0.00131339713238284	-0.00287650502952415	-0.0212480269708293	0.00712105040953018
10.5	-0.0114893072562575	0.00493494423121517	-0.00169927651886747	-0.00265664132405732	-0.00170546937632798	-0.00266396242851148	-0.019064109170852	0.0107927401964356
10.6	-0.0118681917686191	0.005295475803048	-0.0020606096919017	-0.00239920685825497	-0.00206210585384711	-0.00240435625251329	-0.0171143772260449	0.0139087071818603
10.7	-0.0118808396140111	0.00607114630941121	-0.00237181592533585	-0.00208550550009273	-0.00237501020575692	-0.00210165433403189	-0.0145683331457974	0.0171008527755512
10.8	-0.0115465652939229	0.00709939727963345	-0.00264293748035375	-0.00173497087555928	-0.00263997484906443	-0.00173714766777752	-0.0114135493178363	0.0201104694634648
10.9	-0.0106350967777978	0.00803277238947326	-0.00286282118560113	-0.00135250359376508	-0.00286209160510828	-0.00135766463971608	-0.00729601187040875	0.0228266795624379
11	-0.00971809496214054	0.00812407807726764	-0.00302613921491821	-0.000934140843486683	-0.00301906608464825	-0.000938453541940122	-0.00210458100528484	0.0241110352559114
11.1	-0.0092253268636244	0.0089132177691469	-0.00312473729244592	-0.000513871479303648	-0.00311694341155749	-0.000505507379125682	0.00254789130090767	0.0243319124553049
11.2	-0.00792141835872835	0.00946511277171969	-0.00316587436854978	-6.67497875682579E-05	-0.00317252218013918	-6.3515908415023E-05	0.00745471151570353	0.0239538473318283
11.3	-0.00640720436876849	0.00949685752603149	-0.00314211024833528	0.000379122341672851	-0.00314529969614864	0.000376943622706545	0.0123520942716602	0.0228151750841719
11.4	-0.0049979224219208	0.00902332266852624	-0.00305345469260397	0.000813219544724406	-0.00305811734372957	0.000813377411672958	0.0173223433027542	0.0208622261134504
11.5	-0.00420261628419446	0.00774802023140386	-0.00292132698916919	0.00122527146432789	-0.00291374990873019	0.00123005680322824	0.0222997843429634	0.0171208087299878
11.6	-0.00401988872716843	0.00726746769152324	-0.00271547942213583	0.00162518634836162	-0.00272364246965881	0.00163497924774013	0.0256956417661982	0.012395578920785
11.7	-0.00326304001065328	0.00665538497669393	-0.00245719423230526	0.00199540066181701	-0.00245894902522788	0.0019991242931146	0.0283496205291581	0.00736268005470071
11.8	-0.00255932895898866	0.00567125882140883	-0.00215424326315439	0.00232147586300254	-0.00216349200432374	0.00233137217535737	0.030226202951768	0.00204033692144041
11.9	-0.00190764015802959	0.00417636267208912	-0.00181108247770471	0.00259575001099092	-0.00181109597599161	0.00260236006088773	0.0315023770189173	-0.00331593956463038
12	-0.00277033290932722	0.00225425725140568	-0.00142509750936072	0.00282364387216352	-0.00142961493476273	0.00282647090806355	0.0318258848129884	-0.00978118163665353
