# GHZ S RI R 50
0.2	-0.0136487169133455	0.00547253703090877	0.00304240821373343	-0.000885873487113121	0.00305286182050925	-0.000885725184044102	0.00620746543453639	0.00104219260400442
0.3	-0.0128941921703076	0.00580215247687649	0.0028955617959581	-0.00130165230238086	0.00288927594601399	-0.00131328258059825	0.00645062392088526	-0.00138824585358576
0.4	-0.0122242702703774	0.00626420748129065	0.00268060215198754	-0.00169516875666794	0.00267849797696964	-0.00169707776709722	0.00591712275305592	-0.00347004105169289
0.5	-0.0120227579915102	0.00705168774857951	0.00241085934298508	-0.00205052813506848	0.00241366868091384	-0.00205425005276965	0.00447169983279092	-0.00490503356137534
0.6	-0.0110253202598367	0.00819880488285353	0.00209891916772253	-0.00237027692203625	0.00209817596452223	-0.00237311562344946	0.00351385863939984	-0.00567543570190324
0.7	-0.0101646997349162	0.00877378501022549	0.00174831803524231	-0.0026396167133192	0.00175451456818579	-0.0026437064137957	0.00219867592799694	-0.00660159883726165
0.8	-0.00931865636666623	0.00936450092102664	0.00135525146995676	-0.00285851646618749	0.00136351189738128	-0.00285692456207036	0.000616832578256719	-0.00704838482446162
0.9	-0.00846350044221435	0.00977034961485521	0.000951918086983136	-0.00300956499007809	0.000951898729253725	-0.00301896494209583	-0.000879313368607638	-0.00725619185073412
1	-0.00816446435617125	0.00985429606373643	0.000520406132464764	-0.00311823833373361	0.000520258691180882	-0.0031235874401179	-0.0029785486217101	-0.00740801871303148
1.1	-0.00780584386605651	0.0108278284117032	7.28738867822921E-05	-0.00315778403092835	7.37598111849084E-05	-0.00316250337755895	-0.00495184275262165	-0.00598007989328776
1.2	-0.00699674539107632	0.0109666013681054	-0.000364815207417566	-0.00313008898744408	-0.000363591164640733	-0.00314685470813951	-0.00576533463149303	-0.00464893640706379
1.3	-0.00668786975101867	0.0106145729731436	-0.00079460675300338	-0.00305595527258527	-0.000799534683920904	-0.00306359816714626	-0.005954250465617	-0.00338968392535619
1.4	-0.0065040337456365	0.0101918845619534	-0.00121957734727592	-0.00291166319422022	-0.00122198665122803	-0.00291878229623893	-0.00568214265058345	-0.0025703739914815
1.5	-0.00631701024539893	0.0104831444717291	-0.00161148479006312	-0.00271338577653596	-0.00160951597011951	-0.00271891835576564	-0.00575089396179835	-0.00157619153744023
1.6	-0.00503413147033708	0.0111238702178411	-0.0019725239992452	-0.00245683650825669	-0.00197598707535529	-0.00245771491589754	-0.0052981737651523	-0.000122605642935855
1.7	-0.00391515823107814	0.0113208251342253	-0.0022962339543147	-0.00216382046972313	-0.00229827432396387	-0.00217239216679193	-0.00477483108083618	0.00100595055961364
1.8	-0.00288332556353482	0.0116010862624859	-0.00257270641160575	-0.00181595094830903	-0.00257786965036048	-0.00182140441939886	-0.00411748412929914	0.00203604097195463
1.9	-0.00193382635233026	0.0115569158869914	-0.00279833329861305	-0.00144753054056703	-0.00279483240933504	-0.00144135082618161	-0.0033263832094511	0.00275383931362629
2	-0.00156502742381437	0.0117499533660221	-0.00297226329872402	-0.00103648360051928	-0.00297500151193586	-0.00102965729890658	-0.00301268280317257	0.00366664362205687
2.1	-0.000373873174931089	0.0122339379376164	-0.00308747070067534	-0.000607178003444331	-0.00308955922939157	-0.000613861430069417	-0.0014883558135649	0.00488670689367502
2.2	0.000699968707911711	0.0120872507874202	-0.00314207734663944	-0.000177587296364222	-0.0031439000589933	-0.000167883634407863	0.000454172588612132	0.00504187685997045
2.3	0.00151994401089745	0.0117942001965335	-0.00313459341137809	0.000263615380072474	-0.00314133193276392	0.000260701985538679	0.0022788178445224	0.00453272593535562
2.4	0.00224181236903697	0.0113711096171001	-0.00307481240295608	0.00069701675085469	-0.00307366472717719	0.000712105798486114	0.00402023985969384	0.00337028535670977
2.5	0.00228514931799881	0.010915740456406	-0.00294137458951322	0.00112654388055388	-0.00295435520070066	0.00112781273806387	0.00475089157879815	0.0015901318542011
2.6	0.00278400106595868	0.0113381929750748	-0.00275413007660874	0.00152226674526865	-0.00277503320446362	0.00152613175497917	0.00545299111263284	0.000503285375096338
2.7	0.00370438606759459	0.0113495087970505	-0.0025231924757262	0.00189175392925472	-0.00252348090366484	0.00189683364168617	0.00615181489520651	-0.0011555990322783
2.8	0.00474741925318187	0.0111785175899234	-0.00222945176174709	0.00221683845189184	-0.00223929783058343	0.00222800217505846	0.00646663319594478	-0.00297237509032703
2.9	0.00583766142153173	0.0106643838721705	-0.00189503223913985	0.00250999951716418	-0.0018931262805212	0.00251890553378799	0.00645256541066606	-0.00495845349381397
3	0.00651546562419983	0.0101972059869367	-0.00152635594801428	0.0027556039534611	-0.00154140617903055	0.00274253205597101	0.00559195741702572	-0.00666379167434917
3.1	0.00777848172995487	0.00987967956860813	-0.00112676433323516	0.00294051976017647	-0.00114371748905197	0.00294589374539538	0.00511169401084137	-0.0078687417288839
3.2	0.008743161323645	0.0090112751216438	-0.000708012203265677	0.00306621637927775	-0.000703764464390457	0.00307703113154915	0.00411695301932765	-0.00945092945617768
3.3	0.0094727071670188	0.00805132894201547	-0.000279351829128838	0.00313921617579812	-0.000276043543212011	0.00313484229732508	0.00277064068962394	-0.0109572336016257
3.4	0.0100004799011109	0.00695637040517051	0.000166323833354756	0.00314982563430513	0.000156887409310219	0.00315088651820788	0.00105350396489819	-0.012557675330923
3.5	0.00991485477594774	0.00607219494811654	0.000602438705071209	0.00309437200623405	0.000607452479875506	0.00309304770473552	-0.00178244398212885	-0.0137619878311997
3.6	0.0104259374054348	0.00566019750578258	0.00102216456968414	0.00297385214180212	0.00102876016978233	0.00297735522669288	-0.00415187435866953	-0.0137244460509842
3.7	0.0108537977851592	0.00475107558392735	0.00143882291543031	0.00279903804929737	0.00143704898147036	0.00281541358935654	-0.00641499173800964	-0.013814519446
3.8	0.0111132340486096	0.00386334591068075	0.00180834130937263	0.002573687536841	0.00181893950110709	0.00258006174114119	-0.00891395173927298	-0.0136277352125717
3.9	0.0112936901130442	0.00291125841140786	0.0021575854142352	0.00229563888805457	0.0021529834324181	0.00229553664340986	-0.0116209179057267	-0.0131057297612087
4	0.0109968788808883	0.00227568939329542	0.00244815726418942	0.00197544088955427	0.00245959325244481	0.00198159892640144	-0.0148781633021839	-0.0116242102186459
4.1	0.0115497414488693	0.002043759298271	0.0027004203389169	0.00161152597246219	0.0027169755520921	0.00162134226859117	-0.0168518416118621	-0.00876730965515758
4.2	0.0120872837398595	0.00111678827301997	0.00290442646345277	0.00121530997145787	0.00290565642555395	0.00121760044207519	-0.0180867258421939	-0.00619461180294578
4.3	0.0123538864045094	9.72940183372045E-05	0.00304881207458801	0.000806891053550079	0.00304998386292416	0.000815486178307085	-0.0189259049516664	-0.00367334101790282
4.4	0.01238511999636	-0.00111780506014063	0.00312833984981172	0.000371266710965231	0.00313627597280556	0.000366640702195693	-0.0194649539325288	-0.00126542593890247
4.5	0.0116973702727674	-0.00203549016107643	0.00315353554269354	-7.14052733938161E-05	0.00315033604457724	-6.91489945593099E-05	-0.0203711220148671	0.00133875230599513
4.6	0.011611772646356	-0.00237199342245168	0.00310393270489141	-0.000519281291269233	0.00311696212282196	-0.000507247871726454	-0.0201448660540813	0.00488809616972028
4.7	0.0115754311626543	-0.00310691199761958	0.00300298506241943	-0.000934617791443351	0.00300290859244044	-0.000944071907970091	-0.0191429387064447	0.00775677097536579
4.8	0.0113898863113777	-0.00386589509537511	0.00285468363601587	-0.00133884498354417	0.00284705690888676	-0.00135908144392447	-0.0176542319126374	0.0104160962756439
4.9	0.0113258276052488	-0.00469783968596746	0.00264030100713501	-0.00173753792726265	0.00263419719519574	-0.00172908947791208	-0.0156485158397945	0.0125250847786927
5	0.0108913085551049	-0.00539912679405504	0.00236636239304318	-0.00207363491461089	0.00236914267898803	-0.0020860923049483	-0.0137112954413681	0.0144981278704644
5.1	0.0113036038675133	-0.00597378549437032	0.00204217475550995	-0.00240052353232124	0.0020554393294417	-0.00239802008564641	-0.010376256554095	0.0164537487136762
5.2	0.0114098954232502	-0.00724298962868652	0.00169821826957493	-0.00265868088672151	0.00169872559044143	-0.00266285396485847	-0.00683035341147709	0.0169213395575216
5.3	0.0111604778731943	-0.00848844337193864	0.00130739861944091	-0.00287164293766254	0.00130364514578749	-0.00287422711955537	-0.00358822140996287	0.0166531776666483
5.4	0.0106304074223884	-0.00973834360810653	0.000894784533027987	-0.00303320890878441	0.000893895196635218	-0.00303567703425708	-0.000727216355515964	0.0155501295089245
5.5	0.00937637509826734	-0.0103213640113375	0.000451131610391492	-0.00312862481328187	0.000463752396838613	-0.00312860803109237	0.00087897740887967	0.0144862704686984
5.6	0.00927420425350543	-0.0105408329367164	1.61629818034601E-05	-0.00315651844230938	1.28571173508728E-05	-0.00315305037215469	0.0034364784441015	0.0138577191560423
5.7	0.00878913930374445	-0.0114512968099673	-0.000417903123110414	-0.00313052089813106	-0.000421630909506993	-0.00313422004321691	0.00572872323836554	0.0119837893400451
5.8	0.00804136154246578	-0.0122444300099671	-0.000854815956124536	-0.00304018494579987	-0.00085408672848471	-0.00304789170957257	0.00744452663629193	0.00947173485978065
5.9	0.00713259733599735	-0.0131006535562026	-0.00127436821133036	-0.00288592225219389	-0.00127276690829654	-0.00289008734120375	0.0084180811633073	0.00624839618512646
6	0.00519990133094968	-0.0137954616340872	-0.00166242140384401	-0.00267713902373476	-0.00165642216894258	-0.00268050050611016	0.00717732351610226	0.00286081186405271
6.1	0.0040103400267592	-0.0132855224149212	-0.00202004024862109	-0.00242721318458045	-0.00201588998175985	-0.00243199200932929	0.00596821403642091	0.00151382520763261
6.2	0.00310710127600397	-0.0133327979498194	-0.00234185487330782	-0.00211068001972363	-0.00233827485829892	-0.00211936973085679	0.00513563803146628	-7.64545506923407E-05
6.3	0.00237130632401466	-0.0133802140601085	-0.00261024510171435	-0.0017696400446047	-0.00262009295300529	-0.00177740910841606	0.0043227531150031	-0.00164126868961996
6.4	0.00165798026496651	-0.0138161958564151	-0.00283678897139709	-0.0013825149758743	-0.00283480105087326	-0.00138832564824326	0.00341719986787087	-0.0035954376114414
6.5	0.000543827516410378	-0.0138068981483573	-0.00300154157416794	-0.000981526414866059	-0.00300194598228358	-0.000980401115435206	0.00144444907520158	-0.00487690252982405
6.6	0.00048501209369697	-0.0138655945189857	-0.00310859487193672	-0.000553667722943434	-0.0031192996465511	-0.000556670398152083	0.000609654526714544	-0.00561130206845225
6.7	-0.0001602972413842	-0.0143338093787	-0.00315285023558803	-0.000116292190565157	-0.00315179450708261	-0.000110036722733593	-0.00100898908835973	-0.00673724644086142
6.8	-0.000919153646742915	-0.0144466288138404	-0.00313678920399678	0.000333797203218128	-0.00313587224982771	0.000338568913973459	-0.0030866767303709	-0.00717012782898387
6.9	-0.00172890987289296	-0.0146988189341628	-0.00305370187467529	0.000764433529168412	-0.00305411812852614	0.000769431662450942	-0.0052758770480456	-0.00731188549241623
7	-0.00329029945705648	-0.0142638070108859	-0.00292456140138412	0.00118528545113559	-0.00292597460778842	0.00118851570042757	-0.00858669495921531	-0.00623488118200883
7.1	-0.00340289829637327	-0.0133792161361967	-0.00272299885869635	0.00158648845948411	-0.00272539713197597	0.00159754587262012	-0.00985094427165844	-0.00340808126291981
7.2	-0.00378749252322909	-0.0134215545534566	-0.00247976526164494	0.00194786443554669	-0.00247993118417174	0.00195377513035351	-0.0102983127648034	-0.00131405550307612
7.3	-0.00452398672264658	-0.0133891151870117	-0.0021874004723297	0.00227278910777631	-0.00218462736147118	0.00227425844628589	-0.0102095774123977	0.000662055756643541
7.4	-0.00539658308294557	-0.0135446873804764	-0.00184331199649344	0.0025576963260066	-0.00183605596199951	0.00256421252016288	-0.00959742778716463	0.00182123387520976
7.5	-0.00738026414649055	-0.0135093686704122	-0.00146048727627704	0.00279314853673042	-0.00146153741342816	0.00279113398874802	-0.0101173983820879	0.00247559764949649
7.6	-0.00827938023916471	-0.0122754136998158	-0.0010644557963554	0.00296567339165091	-0.00105374490485357	0.00297599126204063	-0.00964664907395775	0.00468985400774488
7.7	-0.00911503760150265	-0.0118099203752261	-0.00063443134469338	0.00308727241531116	-0.000628863305991266	0.00308690181246659	-0.0086993628573326	0.00568059148750847
7.8	-0.00973724368513095	-0.0113896647467225	-0.000187041975693889	0.00314634730922243	-0.000200725857928578	0.00313931826147325	-0.00772170770365909	0.0067041711477094
7.9	-0.0102767284687843	-0.0111424903381839	0.000238663383454167	0.00313002241418384	0.000249756618558903	0.00312966590917674	-0.00672525628104528	0.0076340240200668
8	-0.011136158911143	-0.0102306203339798	0.00067281889994241	0.00306872895332168	0.000681094893340102	0.00306661912476327	-0.006188159919995	0.00938551798900039
8.1	-0.0105642094972077	-0.00964670415151717	0.00110140534202614	0.00294453523907741	0.00109911442412918	0.002941292104691	-0.00326672322779009	0.0112390458499877
8.2	-0.0107769118202401	-0.00968264702961519	0.00149289281584292	0.0027614623017959	0.00149211352913203	0.0027730454288288	-0.000287954986453663	0.0114683610748535
8.3	-0.0112687356888044	-0.0094507928544906	0.00186493383769462	0.00252678283714188	0.00186999620861618	0.00252418002062447	0.00251357370956926	0.0109634954719324
8.4	-0.0118643662016119	-0.00916808139098394	0.00220906006531782	0.00224332834924779	0.00219791375403611	0.00224376960788248	0.0049377626525941	0.00940602877054558
8.5	-0.0131584487203199	-0.00822834092828136	0.00250159451703737	0.00190921899104068	0.00250160746651574	0.00191056777956207	0.00559028683925255	0.00794334990174316
8.6	-0.0129553011389748	-0.00672307199067807	0.00273386101364858	0.00154873899943846	0.0027296464314571	0.00154644597198349	0.00757550933681838	0.00736276956730325
8.7	-0.0128167064227538	-0.00615584851168804	0.00292180560018151	0.00114799361660512	0.0029206428620865	0.0011475871770822	0.00949706018592026	0.00520553151938774
8.8	-0.0128391130035532	-0.00561830582819483	0.00304796685310741	0.000729238451774173	0.0030589205891295	0.000727098448318085	0.0107060342359135	0.00235706966660733
8.9	-0.0128384437960664	-0.00535507704810888	0.00311935675955163	0.000300428172889808	0.00312867098199175	0.000293275771524823	0.0112559301113612	-0.00116536214123431
9	-0.0135084455454192	-0.00490573906328	0.00313303451179681	-0.000147580897904162	0.00313981792590684	-0.000142005650943897	0.00982386986190659	-0.0045857668917796
9.1	-0.0131382177230631	-0.00407667911132517	0.00308192790468951	-0.000581051844757549	0.00308214454686431	-0.000581244652254936	0.00868156121810429	-0.00670400531710477
9.2	-0.0130034127133806	-0.00391735929978883	0.00296415431097483	-0.000999580847407925	0.00296796533166136	-0.000999369843526055	0.00705805659890803	-0.00919506747073404
9.3	-0.0130036967435624	-0.00361989023886359	0.0027911927174033	-0.00140568973378598	0.00280918869338715	-0.00140617325002389	0.00479846812115176	-0.0112017815593142
9.4	-0.0130432363948524	-0.00350596925295784	0.00257407844217271	-0.00177664508697993	0.00257736414984616	-0.00178765260253793	0.00199622868696658	-0.0130029339928538
9.5	-0.0135664471385549	-0.00260613259603864	0.00229972116772709	-0.00213217622150397	0.00231447357424699	-0.00213288376295426	-0.00207970130180483	-0.0133364890907688
9.6	-0.0128751404449907	-0.00188800173361731	0.00198036947321409	-0.0024283893045464	0.00198070716433381	-0.00242140129054296	-0.00471710186445261	-0.0124786000893316
9.7	-0.012759703696813	-0.00178519870041928	0.00162066416236029	-0.002679609376656	0.00162892669735614	-0.00268120618972875	-0.00746752378543537	-0.0119536680021994
9.8	-0.0128771240725507	-0.00149592636694436	0.00123830204777815	-0.00287407102615807	0.00123646966764989	-0.00288268485738542	-0.0103143355012957	-0.0109284669122034
9.9	-0.0130786610059601	-0.0011816292404621	0.000828832232742756	-0.00301838598195316	0.000816993579333276	-0.00302097475483569	-0.0132921120574173	-0.00968133485924377
10	-0.0139441111310503	-0.000385929359857995	0.000397360562363398	-0.00309248014098004	0.000396541911231138	-0.0030997623223135	-0.0172861709365812	-0.0072827429448346
10.1	-0.0134644077886279	0.000858851454437315	-3.1562873517501E-05	-0.00312930209528733	-3.61865845679803E-05	-0.00313205807785698	-0.0193388149846381	-0.00303676278647769
10.2	-0.0131275382881782	0.00133820800628436	-0.00046952248336234	-0.00309029425461555	-0.000482072279082945	-0.00309403745726002	-0.0203212225882095	0.000728513468075751
10.3	-0.0128783628342824	0.00187980398846777	-0.000899672051965107	-0.00298757715588924	-0.000899458487683637	-0.00300090781873662	-0.0205531159011407	0.00455149764653737
10.4	-0.012592186606506	0.00218132274932648	-0.00130518782414936	-0.00283892936867117	-0.00130834193965163	-0.00283681053965579	-0.0200535918844644	0.00771915270701724
10.5	-0.0129676070081021	0.00294764128984237	-0.00168308534726171	-0.00262368604280877	-0.00168921611475344	-0.00263091435794728	-0.0202813454383281	0.0112587494708786
10.6	-0.0119931180494162	0.00395050071290234	-0.00204241501447233	-0.0023706249309068	-0.00204390315817089	-0.00237571743999842	-0.0186027246876213	0.0159103887531796
10.7	-0.0113324437303127	0.00446323206243664	-0.0023482288323862	-0.00205960556683716	-0.00235140771424074	-0.00207557246344106	-0.0160146371910629	0.0198104702400668
10.8	-0.0105409812546398	0.00502179111347244	-0.00261345376848399	-0.00171440957386968	-0.00261052550217491	-0.00171656257217179	-0.0125117677484601	0.0232725527208299
10.9	-0.00966739864257005	0.00515307464424096	-0.00282960046969314	-0.00134095516540137	-0.00282887283630273	-0.00134605834506158	-0.00825397487331582	0.0256059885705669
11	-0.00939398684775369	0.00572748219052599	-0.0029967801394892	-0.000928373724312311	-0.00298976917231853	-0.000932638872781522	-0.00467008930978577	0.0277892688099854
11.1	-0.0077726641712613	0.0062455129502809	-0.00309193490472933	-0.000510466104023091	-0.00308422723109723	-0.000502184124167501	0.00113938857381937	0.0299230820197305
11.2	-0.00659090715137213	0.00575989506030124	-0.00313175625343911	-7.12816863734753E-05	-0.00313833801680416	-6.80935669720341E-05	0.00748540607252959	0.0298688938431671
11.3	-0.00572767502891506	0.00514413960072221	-0.00311048153528112	0.000366863277978576	-0.00311363208850556	0.000364698739408769	0.0138510709133694	0.0283037524413873
11.4	-0.00523090847237483	0.00430776774571893	-0.00302710114115514	0.000796596392621615	-0.00303172036655595	0.000796739078839369	0.0196035389552554	0.0249216828245427
11.5	-0.00550663132208519	0.00406101185536159	-0.00289402542234359	0.00120710513682094	-0.00288653472156408	0.00121185664245208	0.0232424964668451	0.0209222016564611
11.6	-0.00458606331978088	0.00390989793027804	-0.00269150662586499	0.00159726576770414	-0.00269961566861767	0.00160692060219006	0.0276274231161878	0.0168943072350602
11.7	-0.00415410387737723	0.00301422753239618	-0.00244114065361099	0.00196287489487853	-0.00244289496842999	0.00196655135871876	0.0312359339578042	0.0109753641827091
11.8	-0.00400645391318747	0.00228492688641655	-0.00214520361987846	0.0022875012068465	-0.00215441318498141	0.0022972523472456	0.0334010824704032	0.00416951999624304
11.9	-0.00387518637786712	0.00140009176501956	-0.00180623888177163	0.00256112050425311	-0.00180628533324847	0.00256766538748894	0.0337168084072712	-0.00329600425242166
12	-0.00475866503740329	0.0014443394620619	-0.00142786810284479	0.00278272451575008	-0.00143235382626001	0.00278549015049505	0.0308682294764033	-0.00925788523376646
