# GHZ S RI R 50
0.2	-0.0141188291828226	0.00489490306216482	0.00304751314284405	-0.000884240169490135	0.00305798127252553	-0.0008840817768478	0.00568791647788231	0.00040066288373058
0.3	-0.0132657094796738	0.00553142629045378	0.00290229170893362	-0.00130053764465812	0.00289600844340593	-0.00131219621213867	0.00605211163392162	-0.00172506636723027
0.4	-0.012526232075985	0.00644658667456318	0.00268913334833953	-0.00169562282859248	0.0026870267421821	-0.00169753909555336	0.00564047768148617	-0.00335254776076193
0.5	-0.0114553097419111	0.00709022245806917	0.00241942757961186	-0.00205441036207854	0.00242224799407017	-0.00205814061042358	0.0052086996893527	-0.00499134266532487
0.6	-0.0111235624116344	0.00749383185869882	0.00210624738343704	-0.00237494976957565	0.00210550436010754	-0.00237779652436208	0.00363244391937153	-0.00672677685245483
0.7	-0.0107529616781424	0.00842739486910846	0.00175577645657205	-0.00264586224725667	0.00176199481820274	-0.00264995857351461	0.00173601245440516	-0.00746361421624649
0.8	-0.0101113153160583	0.00933815343026359	0.00136185795352465	-0.00286708954113355	0.00137014484270556	-0.0028654863173257	-0.000197817465083063	-0.00768721496718637
0.9	-0.00955637761334008	0.0103057260743885	0.000956163302328318	-0.00302026056873055	0.000956146322325522	-0.00302969470626739	-0.00219992191162989	-0.00730423135445283
1	-0.00833370732162546	0.0114385158330171	0.000521810996436186	-0.00312805373840179	0.000521662703554604	-0.00313341960670509	-0.00342731285321546	-0.00612062654167436
1.1	-0.00738526735705664	0.0113253345184038	7.45063757651394E-05	-0.00316853442147164	7.53973930403915E-05	-0.00317326949423655	-0.00454742701636554	-0.005693955473825
1.2	-0.00706867647317084	0.0113301292229997	-0.000365744581971707	-0.00314231877052825	-0.00036451315776337	-0.00315914950082549	-0.00568018186914102	-0.00457949361120179
1.3	-0.00692725991411719	0.0110494046326449	-0.000798604500607505	-0.00306807394958922	-0.000803554289628097	-0.00307574638962675	-0.00589633368312443	-0.00340197801545705
1.4	-0.0068592213747475	0.0108418597750584	-0.00122589320503068	-0.00292207539922571	-0.00122831576683205	-0.00292922028635799	-0.00573966492091877	-0.00257604401954572
1.5	-0.00601970275420933	0.0108574511436377	-0.00161758457433747	-0.00272382805162543	-0.00161560805637277	-0.00272938177665577	-0.00512664065343624	-0.00208935284113015
1.6	-0.00556618081567621	0.0111427753155247	-0.00198306196118173	-0.00246788827028468	-0.00198654212297056	-0.00246876949295587	-0.00573595324915	-0.00130295437052182
1.7	-0.00453682856860942	0.0118709579188841	-0.00230984812443571	-0.00217177080025475	-0.0023119080737312	-0.00218038193193918	-0.00563559426320297	0.000346770799048138
1.8	-0.00338679733072489	0.0124319235022819	-0.00258755130801684	-0.00182068524058706	-0.00259274703513209	-0.0018261567483735	-0.0050524944718701	0.00180991937438151
1.9	-0.00220791501042658	0.0128589016460607	-0.00281346705011035	-0.0014502491185475	-0.0028099409340547	-0.00144404563177872	-0.00406102506506227	0.00325422110894845
2	-0.000634990959611384	0.0128602287308054	-0.00299082402448519	-0.00103741848860264	-0.00299356641172535	-0.00103054896489446	-0.00222544747989658	0.0041436372200052
2.1	4.69681303405288E-05	0.0122808776083369	-0.00310621999999729	-0.000601124601526546	-0.00310834026451209	-0.000607838278607792	-0.00101280423695215	0.00399703697911115
2.2	0.000622161141664119	0.0122819611031349	-0.00315838946007982	-0.000167892943291549	-0.00316018860620374	-0.000158134612963308	0.000290948987354918	0.00407407846725519
2.3	0.00120754698750526	0.0121845502495653	-0.00314904518038013	0.000276055016372253	-0.00315582714301365	0.000273151278351842	0.00163450596644407	0.00371198047544582
2.4	0.00170523834446547	0.0122484552954431	-0.0030881642505464	0.00071272281206504	-0.00308695139024666	0.00072788629536146	0.00288249922254853	0.00324274600958365
2.5	0.00270279321377917	0.0123350506943949	-0.00295027707461362	0.00114843698886531	-0.0029633172647743	0.00114978348480595	0.00468481243100296	0.00249264606613225
2.6	0.00333642987293276	0.0117518249807665	-0.00275594700370851	0.00154350874926521	-0.00277690719766632	0.00154750598856651	0.00598888260443437	0.000443120026872055
2.7	0.00382006461102837	0.0116215623349204	-0.0025217479721903	0.00191247447381606	-0.00252200933145798	0.00191757394146826	0.00648941931119341	-0.00156585219224705
2.8	0.00452551103763047	0.0115745105720825	-0.00222423460563376	0.0022376941477717	-0.00223404956655427	0.00224895478486276	0.00652946210445545	-0.00349635714096947
2.9	0.00552825012257726	0.011552268373626	-0.00188432114918142	0.002530740800186	-0.0018823494727904	0.00253966266152353	0.00638343867845343	-0.00508548840883784
3	0.00699946703824226	0.0110497187796356	-0.00150936849496864	0.00277077765716577	-0.00152453499095354	0.00275779095979855	0.00654542303427888	-0.00688518574136318
3.1	0.00774083644082288	0.0101712899402927	-0.00111047403674339	0.0029518897248737	-0.00112742006813284	0.00295737567887642	0.00562934723053688	-0.00917586928084395
3.2	0.00845756618619928	0.00957723575733672	-0.00068924451344513	0.00307569744574512	-0.000684919829628294	0.00308650187166648	0.00412349338697975	-0.0107844877158181
3.3	0.00910425439773256	0.00881858323110272	-0.000257808020912385	0.00314468976601466	-0.000254526470982621	0.00314028793624875	0.00237299997340318	-0.012202804478993
3.4	0.009616208891187	0.00814350262315053	0.000188905285103384	0.00314889043297366	0.000179475693722126	0.00315001901346481	0.00036163740884673	-0.0132594738895901
3.5	0.0104080695099967	0.00727054153100744	0.000620404859689961	0.00308941016438217	0.000625408542436526	0.00308805691124933	-0.00146338871220377	-0.0142812377953458
3.6	0.0104337962631262	0.00608485805140998	0.00104118355516703	0.00296853622916493	0.00104780353905476	0.0029719992517205	-0.00433542229936228	-0.015331039471408
3.7	0.0104129341118488	0.00551741091943845	0.00145767106185196	0.0027886594320985	0.00145600938432765	0.00280504390273976	-0.00744349172993047	-0.0151700293148849
3.8	0.0106033000297058	0.00503909804791813	0.00182423554504441	0.00255898410902598	0.00183486747341461	0.00256528015097938	-0.010396111054653	-0.0143241596119098
3.9	0.010989594225879	0.00466007065370434	0.00216884094432754	0.00227908850807667	0.00216424468488618	0.00227901494235412	-0.0130393885543756	-0.0126685295821893
4	0.0119179947823579	0.00390480906285425	0.00245952661724924	0.00195976289576366	0.00247099684117824	0.00196584866968301	-0.0145725447158266	-0.0107712576492914
4.1	0.0120306197408069	0.00259806784263447	0.00270954388100321	0.00158950455349369	0.00272615455200837	0.00159918591447032	-0.0164306168038101	-0.00920251979120668
4.2	0.0120462096585332	0.00179456389410705	0.00290733354503004	0.00119139894527549	0.00290857781242104	0.00119367559683463	-0.0180921747405441	-0.00678445831804794
4.3	0.0121005312263586	0.00102281769244908	0.00304688467890782	0.000783415346129493	0.00304811404926916	0.000791980774994415	-0.0192019545342555	-0.00410921711537005
4.4	0.0120817417177199	0.000337182574091729	0.00312372262898677	0.000348562054570536	0.00313160815175364	0.000343891280375766	-0.0198271012817702	-0.00099498541050761
4.5	0.0124992052804756	-0.000470899895540609	0.00314406895528665	-9.8156744710075E-05	0.00314089772606394	-9.58794575200973E-05	-0.0190973796779445	0.00203870920924929
4.6	0.0120954061959526	-0.00182271788134851	0.00308467134711424	-0.000541728478534353	0.00309773425458804	-0.000529858356102865	-0.0185706503426	0.0040422281167883
4.7	0.011630638489074	-0.00251339398674629	0.00298009583625298	-0.000951399004296243	0.00297995116378622	-0.000960801859355433	-0.0179671682008772	0.00636765206950633
4.8	0.0112252447262836	-0.0031823467969776	0.00282920725311879	-0.0013511830065864	0.00282148252389112	-0.00137125186839311	-0.0168893914432904	0.00871370072175045
4.9	0.0109955056813932	-0.0036421775968446	0.00261132040939426	-0.00174605582014169	0.00260531590807453	-0.00173761505687459	-0.015318140066351	0.0110854725245991
5	0.0113055923984094	-0.00443859657257482	0.00233239603841602	-0.00207257734881537	0.00233506765228723	-0.00208494991429622	-0.0124710674884232	0.0129033083193214
5.1	0.0109024677425231	-0.00558289163905242	0.00201331229316442	-0.00239049356434254	0.00202647830230635	-0.00238807621188958	-0.0101454832081852	0.0136745129500458
5.2	0.0106308116756251	-0.00627437116574308	0.00167219950588831	-0.00264468859480633	0.00167268363630004	-0.00264882986260169	-0.00760618871754144	0.0145992616616751
5.3	0.0104466379482126	-0.00709764214708668	0.00128364258092229	-0.00285265310844432	0.00127991011352946	-0.00285519871405051	-0.00472681002258426	0.0150612931016434
5.4	0.0101555794724987	-0.00784548114975698	0.000874607984416639	-0.0030073204613761	0.000873717849676068	-0.00300976137009805	-0.00167172809281461	0.0149767547586429
5.5	0.0101171396234515	-0.00892658598828125	0.000442075702035145	-0.00309833208694633	0.000454571641818027	-0.00309833399626955	0.0018107216796998	0.0136404277210791
5.6	0.00877957313370633	-0.0101339094034031	1.18191523334581E-05	-0.00312959413584451	8.54612962945033E-06	-0.00312615126618882	0.00336695090959647	0.0112580829471782
5.7	0.00750972680737104	-0.010325980701882	-0.000418510595339482	-0.00310240911313446	-0.000422210649395864	-0.00310607061471251	0.00431267913843849	0.00967566953873209
5.8	0.00653310491686868	-0.0103638885279217	-0.000849343088758635	-0.00301146555248848	-0.000848626700268286	-0.00301910181085918	0.00508643318814605	0.00803047030480214
5.9	0.00562971857383186	-0.0100206483249025	-0.00126112962518424	-0.002859681262419	-0.00125954122668882	-0.0028638068321507	0.0054472208943194	0.00677706060074177
6	0.00571066558597725	-0.00974450364715535	-0.0016475210239152	-0.00265836222233984	-0.00164156418406783	-0.00266169306368376	0.00671633606986472	0.00570226505943889
6.1	0.0052110521402422	-0.0105385829924385	-0.00200397687154679	-0.00240674940589709	-0.00199986190744129	-0.00241148985437189	0.00742161916203227	0.00311658494954697
6.2	0.00450513828448269	-0.010997865266056	-0.00231972736807666	-0.00209283970174193	-0.00231617527528729	-0.00210144941289937	0.00740064453840746	0.000667989787883485
6.3	0.00380294603570056	-0.0116304430657301	-0.00258409218312836	-0.00175738231336042	-0.00259383979593222	-0.00176509524817397	0.00684016060822629	-0.00201532311583579
6.4	0.00290411089425103	-0.0121188715136217	-0.00281044566501632	-0.00137694835663141	-0.00280846216163268	-0.0013827068173295	0.0056990866670651	-0.00428342884606284
6.5	0.00238978703838047	-0.013009582240604	-0.00297560405065987	-0.000975765550775412	-0.0029760059939312	-0.000974650005374046	0.00481407523102646	-0.00683223819999843
6.6	0.000728220155123227	-0.0135257117780688	-0.00307649732840631	-0.000554633129126488	-0.00308708928806086	-0.000557628218177695	0.00207096482840984	-0.00912246787265055
6.7	-0.000323494005026347	-0.0133066127975205	-0.00312209743430882	-0.000125995114795566	-0.00312107334222069	-0.000119796246618052	-0.000761953221049274	-0.00986531829342234
6.8	-0.00124124142655072	-0.0131023985910999	-0.00310977355845216	0.000318125902923196	-0.00310888414326133	0.000322858167857409	-0.00358984469376642	-0.00984537017965195
6.9	-0.0020714442300129	-0.0126002299286506	-0.00302975695723323	0.000746111773319166	-0.00303018853861051	0.000751064380511788	-0.00609429072877263	-0.00870896040879079
7	-0.0020805453091424	-0.0125621239277246	-0.00289906373518741	0.00115964001247423	-0.00290047657103114	0.00116282985697195	-0.00707594577436082	-0.00766721660971496
7.1	-0.00354890688961186	-0.0129419000679508	-0.00270749173862187	0.00155255415158396	-0.00270994230127605	0.00156348824157085	-0.00941995226826115	-0.00719553917573295
7.2	-0.00479663411598318	-0.0122918921941128	-0.00247243126192729	0.00191298698106484	-0.00247263866661878	0.00191884527657737	-0.0115536942099496	-0.00511133791911539
7.3	-0.00584581271459672	-0.0116025276467829	-0.00218614119332712	0.00223739788743649	-0.00218340227656729	0.00223887571875553	-0.0129433593177792	-0.00255188387062874
7.4	-0.00694202570748104	-0.0106107697585352	-0.00184787877830573	0.00252004072358294	-0.00184074006903427	0.00252655849429226	-0.013848335065816	0.000630385529734985
7.5	-0.00702863997443664	-0.00959612301210814	-0.00147902425519399	0.00275446901490866	-0.00148004387973039	0.00275245944051134	-0.012546896731309	0.00407701759832982
7.6	-0.00773222566473618	-0.00966941720668766	-0.00109060684375246	0.00293711076886631	-0.00108006950134909	0.00294748600598068	-0.0110781229057991	0.00558468484978634
7.7	-0.00848494355819754	-0.00907853600547411	-0.000664035278880947	0.00306447848626432	-0.000658492207668798	0.00306416914252334	-0.00963581420455293	0.00706657012015488
7.8	-0.00890207994413988	-0.00883507763923302	-0.000220975096404944	0.00312913095171434	-0.000234515289190828	0.00312198424429281	-0.00787345065876868	0.00822786697634762
7.9	-0.0092315354380664	-0.00859834582444472	0.000199409904407934	0.00312025750423507	0.000210462545605782	0.00312003813594338	-0.00566501889397807	0.00934511233701129
8	-0.00915122510838393	-0.00895394167293621	0.000634747234281463	0.00307326330189884	0.000643039043320261	0.00307125649813253	-0.00272235730546362	0.00937471646093135
8.1	-0.0104700859615631	-0.00899381268312776	0.00106919454546756	0.00295242085313409	0.00106694044154228	0.00294915774299337	-0.00135872272374111	0.00871596601409767
8.2	-0.0112022029263525	-0.00820745503774523	0.0014609740047023	0.002773764796735	0.00146007060629319	0.00278532342297821	0.000394335418483962	0.00884081679681921
8.3	-0.0117418293981339	-0.00749749315368972	0.00183475335040183	0.00254615575175031	0.00183984161736329	0.0025436125585166	0.00242637519312205	0.00856813788092152
8.4	-0.0122151953668622	-0.00647870853203617	0.00218506737593315	0.00227080069987168	0.0021739062649155	0.00227111357735139	0.00449745750376155	0.00812960969216173
8.5	-0.0118657003118447	-0.00590712294355105	0.00248687938169131	0.00193536513784484	0.00248687961351053	0.00193671583383673	0.00754064022173447	0.00664629044980772
8.6	-0.0128523843878604	-0.00573156474424624	0.00271843531286442	0.00157715903582431	0.00271424353844615	0.00157482221306683	0.00862122822686059	0.00353141471753535
8.7	-0.0135181740720293	-0.00453394126756864	0.00291240409732111	0.00118167383039717	0.00291124454201564	0.00118125404503908	0.00884962772604041	0.00118544393236457
8.8	-0.0137227112048267	-0.00332967354356568	0.00304694882293726	0.000764535446307238	0.00305795140683964	0.000762511320367339	0.00861773918437315	-0.00106265259968767
8.9	-0.0135932055430016	-0.00206739603721591	0.00312583837848479	0.000332544287731122	0.00313525247220142	0.000325463302896252	0.00811009342023298	-0.00267234805934787
9	-0.0124813987448372	-0.00138934923510625	0.00313938702404129	-0.000115777430522583	0.00314612392498404	-0.000110124211807219	0.0086446373525359	-0.00431580553576129
9.1	-0.0122725628194375	-0.00156962781766115	0.00309886615574866	-0.000546203390023857	0.00309908579997713	-0.000546394241620273	0.00805918867589245	-0.00711439473026522
9.2	-0.0119932028760879	-0.00145551710130204	0.00298984564693814	-0.000970812068692558	0.00299367273408008	-0.000970556830000818	0.00697191208700999	-0.00938919614108871
9.3	-0.0118972836574237	-0.00161416442938221	0.00282126151733451	-0.00138413748148553	0.00283936138522619	-0.00138443492869589	0.00536980509035181	-0.011669867185169
9.4	-0.0120791471465656	-0.0015343599786906	0.00260507000010394	-0.00175955468262921	0.0026084837623342	-0.00177058452783323	0.00310260594112589	-0.0133910050645102
9.5	-0.0120549749350548	-0.00176083596454849	0.00233956971398362	-0.00211727375642503	0.00235442049692908	-0.00211780675020763	0.000963957908282535	-0.0152310026884119
9.6	-0.0133471032652742	-0.00164793333037142	0.00202373059014379	-0.00242796947493382	0.00202399566845386	-0.00242091742236052	-0.00341002866441502	-0.016780516364281
9.7	-0.0140531521580267	-0.000586689069300457	0.00166085471427035	-0.00268825147462099	0.00166920689345691	-0.00268978372787866	-0.00791340529726172	-0.0162841797731337
9.8	-0.0144299655379415	0.000483172330076742	0.00127581340087406	-0.00288903987763315	0.00127404280059063	-0.00289774910471282	-0.0121430503123879	-0.0146524821410711
9.9	-0.0145894321673894	0.00182795010294996	0.000865990172681252	-0.00303991542761233	0.000854060704342239	-0.00304264346846652	-0.015985942182807	-0.0115983690938164
10	-0.0138789008863906	0.00268151391882874	0.000429133090230181	-0.00312839327789236	0.000428366935893288	-0.00313577518399676	-0.0178833598277384	-0.00813281736849092
10.1	-0.0141906293360871	0.00315157349935306	-1.27743552564189E-05	-0.00316793988322775	-1.74379812551404E-05	-0.00317075805747158	-0.0202671573427991	-0.00517359845074095
10.2	-0.0140929554410105	0.0043001485702843	-0.000457172104689029	-0.00313013778282828	-0.000469850817572728	-0.00313399898927849	-0.0219644211238495	-0.000987090654142888
10.3	-0.0136596173189485	0.0052945718212157	-0.000894164425200811	-0.00303054267189748	-0.000893872689446313	-0.00304404111427178	-0.0226309795116238	0.00363375755601383
10.4	-0.0129874601230725	0.00631895538394028	-0.0013104310044092	-0.00288614939447753	-0.0013136407842839	-0.00288401508936347	-0.0220271504262152	0.00866387493582197
10.5	-0.0116050556983221	0.0066933652341923	-0.00170432691124119	-0.00266377242753093	-0.00171053786596762	-0.00267111298646846	-0.0192036781669867	0.012980071519392
10.6	-0.0112372771638357	0.00670768305692124	-0.00206597992885052	-0.00240303628114887	-0.00206748169102952	-0.0024081953555664	-0.016740068339889	0.0159100743458073
10.7	-0.0106129531312025	0.00711508665385843	-0.002377241307423	-0.00208843566821475	-0.00238044873209222	-0.00210461383060282	-0.0136602202119008	0.0189103353028035
10.8	-0.0100340432841739	0.00735190875839306	-0.00264903439522617	-0.00173702105679296	-0.00264606705726436	-0.00173920366243728	-0.0102735242455445	0.0213147693184403
10.9	-0.00948246178883046	0.00785964341225631	-0.00287014109110965	-0.00135254760762563	-0.00286941501328435	-0.00135772018396949	-0.00643493379941142	0.0236933297239696
11	-0.0081419988871726	0.00781226626777638	-0.00303085408158243	-0.000930975675506529	-0.00302377898718186	-0.000935303097988095	-0.000966953567384811	0.0248828923260629
11.1	-0.00806255397419934	0.00754201935463416	-0.00312846722933007	-0.000512498743723482	-0.00312065966206979	-0.000504130334173108	0.00328012126751521	0.024420760627582
11.2	-0.0075335011027942	0.00787059620211114	-0.00317038185493455	-6.46999620525302E-05	-0.00317703684665142	-6.14570228559175E-05	0.00770165695469837	0.0240455317976936
11.3	-0.00669542486640229	0.00795635406777622	-0.00314631440422881	0.000382742082821815	-0.00314951062245963	0.000380563306095356	0.0122721646270037	0.02297899252823
11.4	-0.00594384011399588	0.00793788873313667	-0.00305553925628822	0.000818077679812267	-0.00306020651688422	0.000818241845319039	0.0168782641686669	0.0212702953331853
11.5	-0.00476380307831793	0.00719538168712517	-0.00292264511523461	0.00122741928905248	-0.00291506091859225	0.00123220420099973	0.0222165152500231	0.0178448502478099
11.6	-0.00494365326261775	0.00625199680945997	-0.00271856027016948	0.00162910899779611	-0.00272672981305718	0.00163892091224888	0.0253173569425494	0.0127016803152423
11.7	-0.00488029914468463	0.00600953065860484	-0.00245871370368382	0.00200084172675125	-0.00246046721006642	0.00200457259111179	0.0274981213843123	0.00789611928917885
11.8	-0.00463780361282375	0.00580213038371768	-0.00215388726367152	0.00232689155025348	-0.00216313456415858	0.00233681103071416	0.0290403023631226	0.00302952963465269
11.9	-0.00418911951612022	0.00575019866217473	-0.00181009895416212	0.00259963640352452	-0.00181010613496299	0.00260625194738118	0.0300279858169104	-0.00137515539477841
12	-0.00314550989361021	0.00481995949476139	-0.00142537677649242	0.00282928857743968	-0.0014298995285909	0.00283212350639512	0.0317627432540943	-0.00708163922105036
