# GHZ S RI R 50
0.2	-0.014045984249927	0.0048922033253509	0.00304709592637374	-0.00088454816625755	0.00305756303791125	-0.000884391148676686	0.00575421347308896	0.000392057751236962
0.3	-0.0131630011426758	0.00555099767202582	0.00290162216247104	-0.00130083918042917	0.00289533784805905	-0.00131249487553525	0.00614724945758038	-0.00171148773245276
0.4	-0.0124288568455596	0.00641049682074884	0.00268818331802062	-0.0016957407151127	0.00268607683716708	-0.00169765613372546	0.00573049584975679	-0.00339311705323671
0.5	-0.0114735357652648	0.00713684761028601	0.00241852001713382	-0.00205414525620786	0.00242133921149021	-0.00205787483226397	0.00519046820796337	-0.00494878887770973
0.6	-0.0110057071553054	0.00761419937930935	0.00210534246942917	-0.00237468549578036	0.00210459918302391	-0.00237753141737031	0.00375320734601579	-0.00662150113987584
0.7	-0.0105913613668628	0.00850411786325786	0.00175477197561849	-0.00264534483408255	0.00176098769472497	-0.00264944096647033	0.00189519400162214	-0.00740873377232689
0.8	-0.0099141916825536	0.00939682247651898	0.00136092512978375	-0.00286625000731135	0.00136920923784977	-0.0028646486281185	-1.00006260973928E-05	-0.00765285342481054
0.9	-0.00929610080180879	0.0102875541567567	0.000955508032017193	-0.00301915043795577	0.000955490196175337	-0.0030285808332381	-0.00195722395340933	-0.00734312868520856
1	-0.00821045316754369	0.0112907578806117	0.000521390542237359	-0.00312706674965726	0.000521241871180018	-0.00313243084185387	-0.003321347233487	-0.0062759329871092
1.1	-0.00729326309921836	0.0113031883641313	7.40641888262999E-05	-0.00316728255987559	7.49542348708496E-05	-0.00317201586335404	-0.00445886770233483	-0.00571849045390678
1.2	-0.00696707795651633	0.0112910715262719	-0.000365836238888604	-0.00314089983531693	-0.000364606716308305	-0.00315772322283833	-0.00557004967669993	-0.00462357770684245
1.3	-0.00685533393280738	0.0110603921475672	-0.000798352787756278	-0.0030666766063154	-0.000803300628788204	-0.00307434545101498	-0.00580415313236195	-0.00340787594533735
1.4	-0.00674525331865214	0.0108894852614179	-0.00122542030703942	-0.00292086545477438	-0.00122784194815964	-0.00292800738923999	-0.00560561801118362	-0.00256319283572018
1.5	-0.00593127648029714	0.010962544907398	-0.00161713689662227	-0.00272249641120678	-0.00161516175286112	-0.00272804791234981	-0.00502208646868269	-0.00202485668797833
1.6	-0.00532674343363384	0.011249036506288	-0.00198205350732817	-0.00246655272029493	-0.00198553184437928	-0.00246743342191096	-0.00549152532735048	-0.00125923401678448
1.7	-0.00428058289009457	0.0118858285078957	-0.00230857569540071	-0.00217076672743487	-0.00231063421502847	-0.00217937356427808	-0.00539108702373423	0.000301945260556812
1.8	-0.00313524302416189	0.0123825450997596	-0.00258617918933717	-0.00181996445258629	-0.00259137204646397	-0.00182543363106522	-0.00482036576959515	0.00171155695251163
1.9	-0.00200038416841826	0.0127057577949149	-0.00281206012932737	-0.00144964190950281	-0.0028085359219214	-0.00144344130205416	-0.00387516324926413	0.00306484021716777
2	-0.000617168362973384	0.0127290150945537	-0.00298896334338111	-0.00103697885226011	-0.00299170450479214	-0.00103011362436688	-0.00221359991077691	0.00398605954719044
2.1	0.000104002504506642	0.0122693916529301	-0.00310439542610654	-0.000601330003294606	-0.00310651335276523	-0.000608040329436201	-0.000950493056959951	0.00394346236121865
2.2	0.000704004184219319	0.0122800187046875	-0.00315668516967952	-0.000168340067686483	-0.00315848501789691	-0.000158587220398933	0.000370553070747631	0.00401840938714832
2.3	0.00132404437500658	0.0121939004259129	-0.00314735275656642	0.000275349178138481	-0.00315413045972347	0.000272445853972199	0.00173576861988039	0.00366574738341014
2.4	0.00187352409992849	0.0121992447898862	-0.0030864141861549	0.000711615330297469	-0.0030852053537389	0.000726769725799281	0.00302033033909814	0.00315013035936688
2.5	0.002750368307646	0.0122123764587724	-0.00294894673266522	0.0011466115215284	-0.00296197960722441	0.00114795218945396	0.00470949475573621	0.00235280329604171
2.6	0.00336808097524484	0.0117332888671184	-0.00275515262284908	0.00154173525578547	-0.00277610393415234	0.00154572282956174	0.00602092727620148	0.00040889008515306
2.7	0.00388023504589042	0.0116191499509613	-0.00252117269014412	0.00191055781554415	-0.00252143581641783	0.00191565458111884	0.00656275125215636	-0.00159152998808883
2.8	0.00461359261629644	0.0115626614075196	-0.00222402582406317	0.00223558846691793	-0.00223384045086203	0.00224683909132633	0.00663750306100956	-0.00354039925622418
2.9	0.00560128520604425	0.0114825174807244	-0.00188469505683255	0.00252848939968816	-0.00188272901934866	0.00253740781382302	0.00648718886393756	-0.00519559841046003
3	0.00694675150112087	0.0110225454460873	-0.00151034175454625	0.00276898487976385	-0.00152549587326055	0.00275599451535393	0.00653800957189059	-0.0069633187460165
3.1	0.00774747556040416	0.0102510314291485	-0.00111146600249928	0.00295016394416848	-0.00112840790350149	0.00295563944245068	0.00568157274415254	-0.00916776871715678
3.2	0.00850209499383923	0.00967497050343952	-0.00069073727382936	0.0030740537179498	-0.00068642056800599	0.00308485625648362	0.00420504260202882	-0.0107801612616863
3.3	0.00920060307047603	0.00893731445656061	-0.000259775480029096	0.00314344001683057	-0.000256492180285503	0.00313904184605259	0.00249240367595994	-0.0121877865043776
3.4	0.0097670020663467	0.00822417637960364	0.000186694955504995	0.00314832574676541	0.00017726666745617	0.00314944758405835	0.000521083632128997	-0.0132827983322619
3.5	0.0104985387322909	0.00735766016976524	0.000618529901409712	0.0030891990082362	0.000623533440830982	0.00308784885554158	-0.00136335064056713	-0.014291595263425
3.6	0.0106329789342524	0.0062359722781292	0.00103898799279599	0.00296853393299948	0.00104560416306159	0.00297200051149989	-0.00412247813400114	-0.0152939818479588
3.7	0.0106940692044036	0.00560065476733646	0.00145549763257871	0.0027893091641591	0.00145382458603407	0.00280569021440618	-0.00716897183398138	-0.0152123970851043
3.8	0.0109211473241214	0.00503425882324473	0.00182237613195632	0.00256012117551457	0.00183300318548258	0.00256642426530483	-0.0101080568082633	-0.0144477243832495
3.9	0.0112898706752479	0.00452939410958492	0.00216743080676425	0.00228040842451955	0.00216283461577645	0.00228033203749657	-0.0127815539451056	-0.0128919034766139
4	0.0120547149215942	0.00374719969521051	0.00245800485148482	0.00196108227732407	0.00246946990136731	0.00196717456159534	-0.0144518248118598	-0.0109950570751712
4.1	0.0121933071692738	0.00251281946805704	0.00270833128990338	0.00159148601986856	0.00272493457377364	0.00160117952895586	-0.0162614793589629	-0.0093733699141427
4.2	0.0122130822505158	0.00166493547562871	0.0029066416583501	0.00119353077095411	0.00290788437288443	0.00119580842943265	-0.0179229091681088	-0.00701451219730739
4.3	0.01223255693905	0.000853029256070987	0.00304654410366575	0.000785589777404096	0.00304776759210109	0.000794156638552575	-0.0190749445948525	-0.00438180196392331
4.4	0.012159706036922	0.000104318677282885	0.00312357106727515	0.000350846267403411	0.00313146024612999	0.000346181078131605	-0.019758068221462	-0.00132169399841884
4.5	0.0123733573875217	-0.000692132945475159	0.00314451490206635	-9.52769914736668E-05	0.00314134122019899	-9.30023624813816E-05	-0.01921324034518	0.00173239143394843
4.6	0.0119359688726207	-0.00188016180208365	0.00308610724631058	-0.000539229579428729	0.0030991639800686	-0.000527344433455142	-0.018701144714905	0.00387900129772016
4.7	0.0114635399359132	-0.00247818000373705	0.0029819755361361	-0.000949293928804527	0.00298183855640227	-0.000958700361014226	-0.0181082222886408	0.00627407861274547
4.8	0.0110897733165639	-0.00304731425594397	0.00283151175407765	-0.00134943385278261	0.00282380021879476	-0.00136951753606491	-0.0170131506207028	0.00870451843962715
4.9	0.0109308740887616	-0.00346974041170398	0.00261415664411345	-0.0017446810212419	0.00260814178974681	-0.00173624117398464	-0.0153902498913392	0.0111120369171319
5	0.011216591030107	-0.00420168265015114	0.00233578696882292	-0.00207225064046513	0.00233847046713964	-0.00208463025888147	-0.0125666550505278	0.0130045216075553
5.1	0.0109740744496441	-0.00526468568516526	0.00201629799485074	-0.00239094631851626	0.00202947202442278	-0.00238851881895057	-0.0100837316202695	0.0138369615007175
5.2	0.0107999374579929	-0.00601263827893958	0.001675116645985	-0.00264560314300602	0.00167560375361777	-0.00264974719132818	-0.00747617080047115	0.0147040917543042
5.3	0.0106651197438127	-0.00688389878384703	0.00128645498781321	-0.00285421234930491	0.00128272101319792	-0.00285676234791135	-0.00456696578388279	0.0151404519102622
5.4	0.0104033575058716	-0.00770238338525565	0.000877096914110768	-0.00300971577865232	0.00087620726941193	-0.00301215951076793	-0.00148036279133547	0.0150199725289006
5.5	0.0102843365539015	-0.00873374128091245	0.000443492196143223	-0.00310117763995426	0.000456000182861784	-0.00310117555702919	0.00196826534069034	0.0137505946909388
5.6	0.00916266531304934	-0.0098699004848441	1.29226965511075E-05	-0.0031323353309485	9.64560007459763E-06	-0.00312889058445577	0.00375810587612016	0.0113963677129402
5.7	0.00806848685860369	-0.0101981854304407	-0.00041787047853552	-0.00310548288986803	-0.000421572809300647	-0.00310914908971476	0.00485539790826989	0.00965769618885763
5.8	0.00721599620426793	-0.0104492470899101	-0.00084939398132028	-0.00301471210457116	-0.000848674843140324	-0.00302235583187348	0.00572258883105131	0.0078030175285521
5.9	0.00635160386269516	-0.0104836970646797	-0.00126199374363897	-0.00286277044295227	-0.00126040312977769	-0.00286689997225685	0.00609636356793742	0.00620793992355467
6	0.00606097714461557	-0.0106102253016956	-0.00164854849613243	-0.00266095063849497	-0.00164258591280215	-0.00266428346580547	0.00701918200647567	0.00479192345397283
6.1	0.00512731988528099	-0.0114493419963394	-0.00200542780130135	-0.00240970285579678	-0.00200130746244018	-0.00241444712690078	0.00735256264851046	0.00216594001627326
6.2	0.00397223845551076	-0.0117504070016763	-0.00232201972667831	-0.00209556500503413	-0.00231846227862685	-0.00210418388262858	0.00691836824610842	-0.000149006274818488
6.3	0.00304834354221987	-0.0119758857485927	-0.00258703192023287	-0.00175958488069616	-0.00259679056386738	-0.00176730739655857	0.00614839294126751	-0.0024600115247688
6.4	0.00221660632530718	-0.0121365484989309	-0.00281370117636686	-0.00137846851822613	-0.00281171551988199	-0.00138423363132474	0.00507023232481208	-0.00441849250540333
6.5	0.00179780928656383	-0.0127351786549474	-0.00297923297495332	-0.000977132321361733	-0.00297963547529929	-0.000976015417442421	0.00430060719634819	-0.00669460226847735
6.6	0.000474398110100013	-0.0131280920645276	-0.00308085346701224	-0.000554925090071016	-0.003091460592836	-0.0005579226910418	0.00187846460422264	-0.00891680067139366
6.7	-0.000401824986432032	-0.0129494576635953	-0.00312634838549586	-0.000125195418080259	-0.00312532098659381	-0.000118988505530529	-0.000822754798232466	-0.00971537385743287
6.8	-0.00118767709163157	-0.0127798332645264	-0.00311370767181465	0.000319754534613919	-0.00311281524933346	0.000324492628023888	-0.00355220830991737	-0.00972058840545605
6.9	-0.00193299511575755	-0.012392924748983	-0.00303341815929114	0.00074828616358698	-0.00303384834270356	0.0007532454095273	-0.00598802338397074	-0.00866793550947843
7	-0.00207559996306547	-0.0123192946712374	-0.00290273605991731	0.00116289770388436	-0.00290414928935683	0.00116609301914865	-0.00706413440991311	-0.00756648298207171
7.1	-0.00333700795400623	-0.0125532817070202	-0.0027100056243094	0.00155670465848676	-0.00271245128750644	0.00156765546679802	-0.00918397468434364	-0.00699888789129639
7.2	-0.00440023933566812	-0.0119617607554306	-0.0024741108517601	0.00191742190506461	-0.00247431387759307	0.00192328794038971	-0.0111714612243113	-0.0050036951694835
7.3	-0.00526478244271572	-0.0113698822637168	-0.00218709472390697	0.00224214514657585	-0.00218435100549557	0.00224362258914542	-0.0124303110603825	-0.0025386206505437
7.4	-0.00616114906578935	-0.0106333138359712	-0.00184798941605053	0.00252526546844147	-0.00184083467424611	0.0025317853095117	-0.0131949841722613	0.000418302699659999
7.5	-0.00637044075087205	-0.0099818632553806	-0.0014774321304364	0.00275983183186271	-0.00147845558253548	0.00275782098950497	-0.0120149810283517	0.00359873050545288
7.6	-0.0072238112074692	-0.0102058623247351	-0.00108806365437244	0.00294162654320303	-0.00107750195080875	0.00295199956226108	-0.0106298598044372	0.00498331818018701
7.7	-0.00824247220117028	-0.00976993192449812	-0.000660725775210665	0.00306849022160308	-0.00065517741484395	0.0030681733405245	-0.00943146392427437	0.00633266638602287
7.8	-0.00892619014222553	-0.0094419691503419	-0.000216887711628493	0.00313247155233732	-0.000230450870213783	0.00312533652373479	-0.00789347718833532	0.00758713725284299
7.9	-0.00943812889726881	-0.00904392917215076	0.000204244598280621	0.00312271538948458	0.000215306672928805	0.00312247932571353	-0.00583379457829018	0.00885997029226016
8	-0.00948064987073613	-0.00915455772448817	0.000639576233600905	0.00307434488586654	0.000647870537918376	0.00307232486234038	-0.00290241474902015	0.00909579178411803
8.1	-0.0106090275852952	-0.00897808954862345	0.00107391853729271	0.00295313299625892	0.00107165843423641	0.00294987053315304	-0.00135264676031827	0.00856354882876792
8.2	-0.0112711575009275	-0.00821555954551587	0.0014660695440979	0.00277380249358392	0.00146518200932769	0.00278537129206268	0.000437525630505075	0.0086104106511697
8.3	-0.0118075210285703	-0.00750084753997358	0.00184006025883969	0.00254516886915163	0.00184514830132654	0.00254261589451036	0.00243572232268141	0.00831832068063865
8.4	-0.0122986432030225	-0.00649940594695535	0.00219010537577528	0.0022685674391592	0.00217893810647913	0.00226889884520759	0.00445859097041591	0.00786870945206025
8.5	-0.0121296564557432	-0.00579015842564185	0.00249135011597879	0.00193265062970346	0.00249135244306157	0.00193400212303623	0.00734888314474769	0.0065357177571062
8.6	-0.0129212151245799	-0.00536071844939721	0.0027229315334365	0.001573357659272	0.00271873299374529	0.00157102675813015	0.00863416298923734	0.00360486685029914
8.7	-0.0133756704095669	-0.00415098603651375	0.0029160185520768	0.0011767066562976	0.0029148576538449	0.00117628887248492	0.00901923271627773	0.0012271619450972
8.8	-0.0133849413120378	-0.00302031931866928	0.00304938502249015	0.000758840718627262	0.0030603870872436	0.000756794540795641	0.00890820028357291	-0.00110063425179887
8.9	-0.0131076315071682	-0.00199331930311923	0.00312707511998374	0.00032661958558367	0.00313647745388807	0.000319519206789963	0.00848097042472416	-0.00289720718344305
9	-0.012163111178236	-0.00155153334604446	0.0031398845742001	-0.000122187250593416	0.00314663454171958	-0.0001165464090539	0.00885819166881367	-0.00470473798930439
9.1	-0.0120581850184691	-0.001795409123892	0.00309746156335582	-0.000552902986555551	0.00309768077723816	-0.000553094302363249	0.00818009299334035	-0.00755530255023051
9.2	-0.0119948065623946	-0.00169927694515518	0.00298699420393107	-0.000976761402754996	0.00299082075706489	-0.000976514196194233	0.00688142196785263	-0.00982614975770154
9.3	-0.0120424913689107	-0.00170201400143762	0.00281746121396257	-0.00138920881157672	0.00283555370686624	-0.00138954201150824	0.00515487063728685	-0.0119291018933831
9.4	-0.0122465970266681	-0.00149435469953319	0.00260068765875644	-0.0017639879700795	0.00260407867582991	-0.00177502043275908	0.00290143136043193	-0.0135007601651317
9.5	-0.0122605128093264	-0.0014796576912008	0.00233382936348791	-0.00212105503042736	0.00234867093229499	-0.0021216190575382	0.000788209470495975	-0.015110459043552
9.6	-0.0132610608343384	-0.00119841425001361	0.00201749595599735	-0.00243002984668912	0.00201777446092624	-0.00242298368161718	-0.00327797858114352	-0.0165636729533872
9.7	-0.0137407426308887	-0.000179780913000028	0.00165461848360077	-0.00268917254236891	0.00166296126307168	-0.00269071888892803	-0.00759336767086607	-0.0161491669408469
9.8	-0.013915028475626	0.000776807699585787	0.00126955750398253	-0.00288898239027146	0.00126777263274558	-0.00289768130809377	-0.0116683899959498	-0.0146328712807055
9.9	-0.0139291592944175	0.001865009847547	0.000859568212080428	-0.00303879569482892	0.000847644382623216	-0.00304149913571347	-0.0154141511192636	-0.0117874817797955
10	-0.0133662585860097	0.00250043895940041	0.000423201271348386	-0.00312556736137767	0.000422423151260099	-0.00313293950523847	-0.0174178852440606	-0.0084820437929745
10.1	-0.0136918801945821	0.00287192372901784	-1.78484427414307E-05	-0.00316457274001	-2.25116679686691E-05	-0.00316738044763507	-0.0197808865802474	-0.00564845907708532
10.2	-0.0137277997612354	0.00386934844343569	-0.0004619402967545	-0.00312598905386291	-0.000474611808934626	-0.00312982477722551	-0.0216242424565866	-0.00162659424999419
10.3	-0.0134401551893139	0.00482182110395495	-0.00089835584443656	-0.00302524626056335	-0.000898088045395783	-0.00303872857800636	-0.0224544981601989	0.00296515773117432
10.4	-0.0128826573467242	0.00576707624029563	-0.0013133580539907	-0.00287954950380842	-0.00131655934199625	-0.00287741296833667	-0.0219666869441128	0.00796197289387799
10.5	-0.0117997443607347	0.0061661295245286	-0.00170528185190567	-0.00265709750979774	-0.00171149299213588	-0.00266441756678122	-0.019371777708151	0.0123405581153806
10.6	-0.0115546175622992	0.00632967543355815	-0.00206593600193392	-0.00239632875917769	-0.00206744240475618	-0.00240147745041418	-0.0169668818503797	0.0153753960599498
10.7	-0.0110750642710271	0.00691984608495792	-0.0023757345033363	-0.00208179760909946	-0.00237895675205765	-0.00209794353765472	-0.0140082520588459	0.0185043975762954
10.8	-0.0104995430989795	0.00741039097665745	-0.00264609487292391	-0.00173092582799013	-0.00264313536980746	-0.0017331077017941	-0.0106278815805293	0.0211092055324273
10.9	-0.00986827131482968	0.00805470302268079	-0.00286603134333966	-0.0013475356305041	-0.00286531114026042	-0.00135269929965201	-0.00672994754592176	0.0235853688490899
11	-0.00856686150417365	0.0082215357628685	-0.00302657514832021	-0.000926813923534784	-0.00301951562309856	-0.000931140169231906	-0.00127084646502668	0.0249704740106247
11.1	-0.00820458619708725	0.00817380526006081	-0.003123083655707	-0.000508833208723835	-0.00311528338087383	-0.00050048715307424	0.00324485139286606	0.0246315517532772
11.2	-0.00742993422948767	0.00852078666518093	-0.00316425747411462	-6.24161691624058E-05	-0.00317089731030395	-5.91750098667404E-05	0.00782756971589337	0.0242171229763837
11.3	-0.00634076694757428	0.00855472870311583	-0.00314001889525646	0.00038358546493774	-0.00314321001219585	0.00038141252507594	0.0125544595300626	0.0231262928780269
11.4	-0.00540839281255489	0.00837052102561316	-0.00304958286370368	0.00081779028225408	-0.00305424145940077	0.00081795600864828	0.0172668523794454	0.0213038636166021
11.5	-0.00426191204372401	0.00756889532315958	-0.00291636148452277	0.00122643604969354	-0.00290878975564725	0.00123120798958478	0.022556819981149	0.0178544078624387
11.6	-0.00421117179321168	0.00657532396014927	-0.00271262046968143	0.0016262883367934	-0.00272077117985285	0.00163608162234875	0.0258588923877758	0.012664008971597
11.7	-0.00401855204628658	0.0060926607967467	-0.00245380240032868	0.00199691604188775	-0.00245555236402966	0.00200063953703522	0.0281093882566446	0.0076638998737301
11.8	-0.00374823026667611	0.00560507935065061	-0.00214998145309059	0.00232228281869642	-0.00215921197884114	0.00233218264679734	0.0296405460166502	0.00260526738434647
11.9	-0.00333157782421498	0.0051651980880154	-0.00180694039150354	0.00259458627354814	-0.0018069481720253	0.00260118939215314	0.0306212256153108	-0.00204007898412926
12	-0.00275580994574164	0.00414637020340623	-0.00142343644102571	0.00282318431054225	-0.00142795107117678	0.00282601213299036	0.0319979199320074	-0.00777807919086018
