# GHZ S RI R 50
0.2	-0.0138022100960114	0.00559006461135538	0.00304302901755917	-0.000885585497603975	0.00305348430401533	-0.000885435685670207	0.00594198060536356	0.0010524344643242
0.3	-0.0130402104453623	0.00593829738834601	0.0028964621566484	-0.00130147342572766	0.00289017677603202	-0.00131310749765996	0.00621052785679408	-0.00135935417313551
0.4	-0.0123175568699885	0.00644201115530852	0.00268169410928253	-0.00169531671987083	0.00267958954553549	-0.00169722663762833	0.00578810209677827	-0.00338679865454111
0.5	-0.0121589397225897	0.00709893989174643	0.00241172324602367	-0.00205093265922792	0.00241453369657249	-0.00205465543570529	0.0045011375757071	-0.00500880889195641
0.6	-0.011344204468078	0.00848053166804789	0.0020999637354187	-0.00237069243915065	0.00209922075083841	-0.00237353215929865	0.00344009484005196	-0.00585224647087865
0.7	-0.010341693676978	0.00925592963478697	0.00174937565987665	-0.00264043458021598	0.00175557522596993	-0.00264452507402301	0.0021358002040308	-0.00680825346104029
0.8	-0.00932368572318225	0.00993458921538574	0.00135607060400279	-0.00285964773656451	0.00136433448829991	-0.00285805447426274	0.000521145588609827	-0.00728792170463167
0.9	-0.00820816133215269	0.010377544818033	0.000952403711644348	-0.00301074537147777	0.00095238466491725	-0.00302014911172212	-0.000991480513254108	-0.00740015416788252
1	-0.00762460160368965	0.0100570715572396	0.000521103392590105	-0.00311939611038057	0.00052095673394795	-0.00312474736641398	-0.00285142191314324	-0.00755758327198191
1.1	-0.00769238858673108	0.0108358124271308	7.32081337877988E-05	-0.00315961896060987	7.40950109139473E-05	-0.00316434097778986	-0.00487394924895015	-0.00620750253989644
1.2	-0.00706864594163118	0.0111346533958489	-0.000365075065952684	-0.00313191446451693	-0.000363850556064166	-0.00314869001021579	-0.00562216228170291	-0.00481690681735127
1.3	-0.00698036489557296	0.0110428870817705	-0.000795219172174441	-0.00305763573569806	-0.000800150292899432	-0.00306528267492587	-0.00581467705521039	-0.0035246392956
1.4	-0.00675999971173386	0.0110544900731396	-0.00122032944944017	-0.00291330758868651	-0.00122274026446549	-0.00292043072190339	-0.00549960820808166	-0.00260083810178343
1.5	-0.00651763024351964	0.0113933977956523	-0.00161300150837814	-0.00271541687751558	-0.00161103158368276	-0.00272095404259789	-0.00548573548640723	-0.00187856760547391
1.6	-0.0050306739199461	0.0123657304615156	-0.00197476339148202	-0.00245787190970449	-0.00197822920208937	-0.00245874972647233	-0.00515843924176614	-0.000549485188414789
1.7	-0.00352983810370846	0.0124149724143035	-0.00229836054407064	-0.00216431703745305	-0.00230040511517319	-0.00217289315497733	-0.00471453113144279	0.000427393022772485
1.8	-0.00232626342619925	0.0124434745562597	-0.00257486351074679	-0.00181619165836883	-0.00258003168020501	-0.00182164670466455	-0.00414801596624533	0.00142270528455609
1.9	-0.00125886268225242	0.0120658484840221	-0.00280089094535245	-0.00144749298376096	-0.00279738518050255	-0.00144131019019166	-0.00328377956533721	0.00216371459243542
2	-0.00129544037956969	0.0117342719747313	-0.00297496673880953	-0.00103499791542374	-0.0029777017743177	-0.00102816514431141	-0.00292968907169571	0.00280132614792932
2.1	-0.00056405490062619	0.0126701057699395	-0.00308899207528652	-0.000605496066736474	-0.00309108550821819	-0.000612180684499832	-0.00156960540496554	0.00404116748946576
2.2	0.000699062473867812	0.0128233269905451	-0.00314351202197892	-0.000175930532312101	-0.00314533015986309	-0.000166221737140561	0.000361949182380216	0.0041701356112035
2.3	0.00180324419780919	0.0126100051592388	-0.00313590904565935	0.000265708210365701	-0.00314265258050762	0.000262797670409475	0.00211586789919424	0.00367417130307501
2.4	0.00295252910111035	0.0120000543185956	-0.00307550088777273	0.000699860482208096	-0.00307434019417935	0.000714954797974799	0.00389965505048352	0.00264161288694508
2.5	0.00298031315824607	0.0106405258477064	-0.00294051246011018	0.00112882219797484	-0.00295349213027938	0.001130101098607	0.00480612408441538	0.000673599886500498
2.6	0.00258555367827166	0.010958121262505	-0.00275386401788672	0.00152396635632555	-0.00277476907508799	0.00152784282577124	0.00529160225793813	-0.000477796031761162
2.7	0.00302496257536051	0.0113622245004186	-0.00252258632142973	0.00189388969989741	-0.00252287148382425	0.00189897088426201	0.00585217423040216	-0.00203951676617411
2.8	0.00397138923054241	0.0117521274076255	-0.00222808970856203	0.00221884810038242	-0.00223792871999671	0.00223002089584041	0.00617443899406122	-0.00362254231189347
2.9	0.00535836243641511	0.0115045160324283	-0.00189305839308941	0.00251110283435385	-0.00189114627814754	0.002520006618924	0.00645186826321363	-0.0054768107874206
3	0.00587862503509383	0.010897673530199	-0.0015256188128143	0.00275608215040432	-0.00154067297321247	0.00274301418697507	0.00580382320903649	-0.00746464639629293
3.1	0.0070659322249087	0.0112124718016126	-0.0011254210218732	0.00294215990753708	-0.00114237669314837	0.00294754559877322	0.00534777314959796	-0.0087622561769764
3.2	0.00844771654935765	0.0106175174907694	-0.000705847607136056	0.00306722624569768	-0.00070159116839725	0.00307803955227415	0.0044174279125661	-0.01054653153421
3.3	0.00956043421630099	0.00971548968372678	-0.00027718298676572	0.00313946278582633	-0.000273877673244776	0.00313508654260617	0.00301814338586044	-0.0121911895524059
3.4	0.0105234395274031	0.00844543967154254	0.000167828276366772	0.00314990434578688	0.000158391883740944	0.00315096976495405	0.00134532439926364	-0.0138518218303053
3.5	0.0102648480135792	0.00700209547942285	0.000604943600381658	0.0030955836154813	0.000609959092353257	0.00309425507111144	-0.00154746396804112	-0.0153986227652614
3.6	0.0105400190782091	0.00710122402404645	0.00102564864352777	0.00297301661365205	0.00103224893470125	0.00297651259952292	-0.00414637234831004	-0.015282537127651
3.7	0.0115133419725292	0.00638007948979657	0.00144141426567194	0.00279727277743167	0.00143965673987405	0.00281364806670571	-0.00641917691185392	-0.0153628855534808
3.8	0.0123369731951405	0.00519741231032511	0.00181040069354775	0.00257177356242655	0.00182100324233272	0.0025781376074606	-0.00893057894351562	-0.0151633544319685
3.9	0.012875153166565	0.00343003345220927	0.00215995250587382	0.00229365167744471	0.00215535017107714	0.00229355393477822	-0.0115366581640936	-0.0146760278742378
4	0.0117043499527185	0.00165400519645746	0.00245047006600092	0.00197103902402118	0.00246191209775781	0.00197717743960393	-0.0149377163964562	-0.0135469051644381
4.1	0.0111636967280875	0.00205950098506747	0.0026999157071369	0.00160733348718491	0.00271646775929352	0.00161712413284025	-0.0172298558084518	-0.0104524058697236
4.2	0.0116872964835872	0.0017521468573734	0.00290346378884974	0.00121202603080467	0.00290469484236424	0.0012143138948819	-0.0184306878614861	-0.00767933750656988
4.3	0.0121895435561975	0.000997379422807252	0.00304768044677358	0.00080362953270277	0.00304885932244587	0.000812218337943215	-0.0191734138151651	-0.00500706529337217
4.4	0.0125907699827922	-0.000359667735797234	0.00312627177730375	0.000367281149311085	0.00313419608963382	0.000362649489585902	-0.0194119104488082	-0.00246864059616438
4.5	0.0114104676140089	-0.00202744497757857	0.00314857172110909	-7.37459175036035E-05	0.00314537895701432	-7.14906629402244E-05	-0.020085030452567	-0.00023172645639052
4.6	0.0105432697343181	-0.00162638366432366	0.00310042697625963	-0.000519407855541188	0.00311344485443121	-0.000507390488981759	-0.0199025618938806	0.00333451095526435
4.7	0.0106433566064204	-0.00174781673043109	0.00299983116097633	-0.000934836431431545	0.00299975131771273	-0.000944281663029669	-0.0187643799652669	0.00605709056998432
4.8	0.0107624383663675	-0.00212261455773658	0.00285104617093681	-0.00133865036410114	0.0028434188275132	-0.00135886184799467	-0.017272473491516	0.00857934825689916
4.9	0.0112224497214207	-0.00290599298190345	0.00263615367918747	-0.00173562037982989	0.00263006040569472	-0.00172718269890544	-0.0151588803099952	0.0106066711969962
5	0.0105291142637956	-0.00403937887787852	0.00236514715952274	-0.00207011931556526	0.00236793188802147	-0.00208256228486828	-0.0133323486454639	0.0121513926371898
5.1	0.0109832363678105	-0.00376303075438929	0.00204122516326698	-0.00239912298658453	0.00205448251150992	-0.00239662010061697	-0.0101792660660344	0.0142147619614083
5.2	0.0119354514346535	-0.0050519748362996	0.00169668137968211	-0.00265672295486056	0.00169718798303343	-0.00266089279476309	-0.00663785659605019	0.0145331380950227
5.3	0.0120819967849439	-0.00691185690854488	0.00130652812099875	-0.00286885347834994	0.00130277839427357	-0.00287143571806058	-0.00359059985412027	0.0141338364427686
5.4	0.0114807482329659	-0.00894656400441841	0.000895719587041453	-0.00303057984735514	0.00089483216593328	-0.00303304667265761	-0.000838343648121839	0.0130554542963054
5.5	0.00881332716334198	-0.0101532723995723	0.000451392055936671	-0.00312886857330903	0.000464013953063752	-0.00312885089923379	0.000414948229332096	0.0117591693860707
5.6	0.00812823628131264	-0.00870839644344918	1.46861036406257E-05	-0.00315471674513553	1.13837466712484E-05	-0.0031512491257733	0.00279995229009345	0.0116563865654902
5.7	0.00853696380116955	-0.00888040254716778	-0.00041809966191853	-0.00312786997626487	-0.000421825016438249	-0.00313156543031136	0.00521580397613132	0.0099014199452447
5.8	0.00874187417351126	-0.00963446529623658	-0.000854116993153245	-0.00303801191923127	-0.000853388085416979	-0.00304571309679883	0.00690429180400234	0.00758105048900729
5.9	0.00894883163964161	-0.011175507010001	-0.00127430564210267	-0.00288470981171832	-0.00127270548573856	-0.00288887362248948	0.00816772458049826	0.00476169414923258
6	0.00667006617959542	-0.0140178609010088	-0.00166333320599874	-0.002672933469601	-0.00165734304929349	-0.00267629735207769	0.00731935456860873	0.00106534293719965
6.1	0.0038043659616049	-0.0132754029256057	-0.00201700961036107	-0.00242318708892093	-0.00201286633058161	-0.00242795862017356	0.00615148304765564	2.71356036402131E-05
6.2	0.00252867578511936	-0.012736547866443	-0.00233828087197748	-0.0021086018634179	-0.0023347031110985	-0.00211727945804338	0.00584150369771314	-0.00161563681427415
6.3	0.00178683262107339	-0.0122610011895885	-0.00260698624084784	-0.00176830400300593	-0.00261682154668054	-0.00177606683199129	0.00534045883330247	-0.00345340060371265
6.4	0.00150921893118194	-0.0127140134656895	-0.00283329267486911	-0.00138046809150385	-0.00283130786670124	-0.00138627151990675	0.00479041039970444	-0.00583097741879016
6.5	-0.000618072688762674	-0.0130408060272566	-0.00299446929655033	-0.000981382235485368	-0.00299487357256901	-0.000980259611235411	0.00246450729532145	-0.00798067020046251
6.6	-0.000511712783455172	-0.0116197622680068	-0.0031041526770508	-0.000557071706213413	-0.00311484072073342	-0.000560084792410407	0.00133905259354435	-0.00879661152478185
6.7	-0.000442529865211888	-0.012001856342191	-0.00314998071959178	-0.000119276238225423	-0.00314893203593806	-0.000113025204496325	-0.000727681237005953	-0.0102652806737429
6.8	-0.000846130561158487	-0.0121425938448991	-0.00313384893920434	0.000330950874072353	-0.00313293673292891	0.00033571843902242	-0.00330499806219137	-0.0105187581663762
6.9	-0.0010719436639905	-0.0128763988855534	-0.00305001414419202	0.00075986879828947	-0.00305043538686689	0.000764859024611842	-0.00532627319262819	-0.0104011586457927
7	-0.00403092957999063	-0.0135541942014405	-0.0029250434399867	0.00117799450555768	-0.0029264627217815	0.00118121930134295	-0.00893254066414702	-0.00990481432936041
7.1	-0.0048545038845548	-0.0106477151853534	-0.00272508728227797	0.00158273028413523	-0.00272750057126859	0.00159378411906077	-0.0105174648374358	-0.00657113541373966
7.2	-0.00411422289509627	-0.00972496865875198	-0.00248123862228113	0.00194440013707416	-0.00248141130570849	0.00195030880114945	-0.0109920033725969	-0.00447646781538465
7.3	-0.0035516999262229	-0.00944033455987992	-0.00218961452063439	0.00226879043990232	-0.00218684462756062	0.00227026299161141	-0.0112388432576951	-0.00231434833629816
7.4	-0.0026364929416705	-0.0101844516238685	-0.00184815815012465	0.00255408163054453	-0.00184091483763348	0.00256061153250721	-0.0106183211788835	-0.000578635634177872
7.5	-0.00445144668380448	-0.0128682132837596	-0.00146542162362955	0.00279464403668803	-0.00146647061238913	0.0027926259544265	-0.0110343090601033	-4.38757921819377E-05
7.6	-0.00670722369495637	-0.0116866612118022	-0.00106609680127124	0.00296586730972276	-0.00105538824794233	0.00297619262072409	-0.0106716838048265	0.00299553056086768
7.7	-0.00751860293828702	-0.0114346195227927	-0.000637090282593191	0.00308679951968684	-0.000631521799187488	0.00308643367772915	-0.00907643333618324	0.00426454685575269
7.8	-0.0084466289477696	-0.0115705244200936	-0.000190371874486117	0.00314709192360856	-0.000204052527227286	0.00314004653817143	-0.00752542787069791	0.00514898879852799
7.9	-0.00970293546704799	-0.0120860536482926	0.000236740630264278	0.00313283525133673	0.000247843502283211	0.00313248597522545	-0.00603797696508308	0.00554163414809746
8	-0.013538447794367	-0.0113046584491377	0.000674244421827268	0.00306840005027005	0.000682519390718427	0.00306628637869706	-0.00597363254125111	0.00621740128971449
8.1	-0.0132477886158344	-0.00774928206880685	0.00109885520141807	0.00294317317421652	0.00109656783594285	0.0029399308847107	-0.00312157329188975	0.00850777271972026
8.2	-0.0124141163683779	-0.00665403877897342	0.00148994675067782	0.00276225455574887	0.00148915668589324	0.00277383434774805	-8.67643754376501E-05	0.00852917258001046
8.3	-0.0119072418986636	-0.0060176526433905	0.00186316151658463	0.00252840180745722	0.00186822626935171	0.00252580263205214	0.00268914166848315	0.00801201754490768
8.4	-0.0113598607737554	-0.0062487184636611	0.0022081518073849	0.00224326547501055	0.00219700782636258	0.00224370450313446	0.00553223704443847	0.00640208008056612
8.5	-0.0139041783889779	-0.00675057784990728	0.00249599185503135	0.0019098060785407	0.00249600313066876	0.00191115312671844	0.0059140853544863	0.0040000394673402
8.6	-0.0144453464793082	-0.0031166588016281	0.00273089595169771	0.00155382453494702	0.00272668576339816	0.00155152366531131	0.00753790686496317	0.00379569159763341
8.7	-0.0129851186159761	-0.00147818434518765	0.00292122909862923	0.00115246131208268	0.00292006651979481	0.00115205311224815	0.00943516658461241	0.00153017043479127
8.8	-0.0114100611739679	-0.000755605399561912	0.00304771876184176	0.000732789120231751	0.00305867693960013	0.000730660988596145	0.0103725501303429	-0.00121409833818412
8.9	-0.00950835989090054	-0.00150055488703687	0.00311781844244759	0.000305004996036123	0.00312714015229683	0.000297869066850485	0.0110985373953887	-0.00436798874193689
9	-0.0104752304362585	-0.00361797040654781	0.00313598305294959	-0.000139419099235551	0.00314275726777579	-0.000133821366861839	0.00971264037501791	-0.00818903479476086
9.1	-0.0109559158613608	-0.00286172170492728	0.00308745807213298	-0.000577728922483244	0.00308767531113999	-0.000577921729808817	0.00860405167788432	-0.00997507029105493
9.2	-0.0110987524933634	-0.00347181477547794	0.0029684388455685	-0.000997606865222055	0.00297225382572798	-0.000997391683298175	0.00718019319398532	-0.0128101142657915
9.3	-0.0121029615689032	-0.00371087664234603	0.00279556615472716	-0.00140337080794245	0.00281357924209857	-0.00140383151351146	0.00466214851549673	-0.0150254910794596
9.4	-0.013137553152138	-0.00378323201442382	0.00258127574725798	-0.00177422616218153	0.00258458762922591	-0.00178524330269558	0.00188246298757674	-0.0167794677120243
9.5	-0.0160524777634349	-0.00266776675002009	0.00230768938263597	-0.00213664542689418	0.00232248405289694	-0.00213734490490254	-0.00266919009161091	-0.0174557221070509
9.6	-0.0156081329782959	0.0010190248280429	0.00198325114894403	-0.00243252101601802	0.00198359022445327	-0.00242552184080519	-0.00522745930938925	-0.0160349014619385
9.7	-0.0141194143854784	0.0022779302702019	0.00162364120253134	-0.00268279328960042	0.00163191544952175	-0.00268438990395297	-0.00786527772687555	-0.0156769527137166
9.8	-0.0128898492764787	0.00285874906387251	0.00124163950770035	-0.00287838463353333	0.00123980777341499	-0.00288701379915591	-0.0109090783810413	-0.0145718342941758
9.9	-0.0116056334845735	0.00229050038157692	0.000830300217246701	-0.00302567706550136	0.000818433075621501	-0.0030282700271942	-0.0136920682677522	-0.013034380370175
10	-0.0135807896424501	0.0011889456531725	0.000392907083635447	-0.00309662014200785	0.000392075955053143	-0.00310390928917395	-0.0179500146774599	-0.0110411394492812
10.1	-0.0139100669153046	0.00398425953460771	-3.25098376006222E-05	-0.00313062896883972	-3.7136345140995E-05	-0.00313338474912141	-0.0200550719845146	-0.00601462123275581
10.2	-0.0125703879870741	0.00505176812775523	-0.000470299586549711	-0.00309320610041427	-0.000482861805457584	-0.00309695156180254	-0.0206670292426025	-0.00205017598288643
10.3	-0.0111632025659443	0.00539212331420906	-0.000902294778304818	-0.00299062609335231	-0.000902087935871507	-0.00300397257237622	-0.0205714817494021	0.00203236469977531
10.4	-0.00963227757153796	0.00418259036937462	-0.00130967223048001	-0.0028387441567843	-0.00131282525153819	-0.00283661998078012	-0.0191593430889468	0.00525925991272654
10.5	-0.0116774910822448	0.00254441156041505	-0.00168125457637982	-0.00262140252225293	-0.00168737890651003	-0.00262862469398916	-0.0191600657519383	0.00787620751995628
10.6	-0.0124267587201837	0.00423300338094748	-0.00204157490161439	-0.00237371744630549	-0.00204305957815276	-0.00237881413673821	-0.0173630641216026	0.0121619009329147
10.7	-0.0130242987946792	0.00519093009014747	-0.002349963402959	-0.00206239475079948	-0.00235314060871988	-0.00207837868387472	-0.01517532147129	0.0153185430594836
10.8	-0.0123752525411164	0.00708616290141366	-0.00261541174191993	-0.00171553111005332	-0.00261248145775866	-0.00171768578772182	-0.0118035679614257	0.0190228116962492
10.9	-0.0108059038965976	0.00776699487910844	-0.00282925658283445	-0.00134225674347436	-0.00282852673411448	-0.00134736001794418	-0.00714857252677986	0.0212744352235797
11	-0.0119949584230338	0.00779068480242716	-0.00300011327471341	-0.000934732797800199	-0.00299308406999521	-0.000938993464620935	-0.00391691868130771	0.022419751030934
11.1	-0.0105434318345006	0.0110191814369937	-0.00309883861147409	-0.000511460715395995	-0.00309111340791958	-0.00050316065833115	0.00161279565248047	0.0246294695054078
11.2	-0.00776238835638122	0.011673559695045	-0.00313674322589216	-7.00219279996061E-05	-0.00314333400710546	-6.68258791299477E-05	0.00760100949920716	0.0241281195384423
11.3	-0.00518662309652017	0.0111701154870438	-0.00311432874157678	0.000367777938967394	-0.00311748356221693	0.000365611146298398	0.0132683012364196	0.0226006245413272
11.4	-0.00293866531381263	0.00935749957408514	-0.00303323451021411	0.000796415187642112	-0.00303786249982022	0.000796555580099035	0.0187967059851627	0.0195655727572225
11.5	-0.0041307505187558	0.00748419733179116	-0.00290203953467724	0.00121421768714477	-0.00289451935170251	0.00121897623806269	0.0216769052981933	0.0153497906437969
11.6	-0.00308630128457452	0.00877914295011168	-0.00269276031996016	0.00160487855264112	-0.00270086400036443	0.00161456400258972	0.0257396600211854	0.0124172769855198
11.7	-0.000870209237637534	0.00763014991124925	-0.00244151249223233	0.00196849579799117	-0.00244326407421078	0.00197217905872075	0.0296021149172661	0.00710594083109331
11.8	0.000759787099094365	0.00526989435022511	-0.00214610248926443	0.00229341735644226	-0.00215531598828306	0.00230319378648166	0.0322803946807109	0.0008271815881894
11.9	0.00115319396201538	0.00101691221729385	-0.00180587662399381	0.00257077442570574	-0.00180591095151572	0.00257733543537489	0.0335091705323938	-0.00674508372357074
12	-0.00388781329203239	-0.00183332793945291	-0.00141886262870672	0.00278960616349752	-0.00142334137455439	0.00279238957420076	0.0301150874165175	-0.0138592443108022
