# GHZ S RI R 50
0.2	-0.0138815699823423	0.00567131968307637	0.00304276469601003	-0.000885627068184972	0.00305321918891597	-0.000885477643033049	0.00588226205056218	0.0011533594058475
0.3	-0.0131389513490866	0.00601272389892301	0.00289615917254635	-0.00130146142167471	0.00288987393385384	-0.00131309423890569	0.00612819279852453	-0.00126502286595737
0.4	-0.0124207864275588	0.00656837096709862	0.00268143038267907	-0.00169523434579394	0.00267932595308922	-0.00169714405556231	0.00569108850344258	-0.00324276316738754
0.5	-0.0121247459640056	0.00726741488730047	0.00241148731977372	-0.00205097336700232	0.00241429741800434	-0.00205469612635857	0.00450458030394131	-0.00481341809653369
0.6	-0.0112707217244006	0.00850756940830532	0.00209953900438514	-0.00237065836753619	0.00209879582705247	-0.00237349774300549	0.00346723878415985	-0.00574148197031827
0.7	-0.01031280454376	0.0092241502357449	0.00174895825782916	-0.00264026664485139	0.00175515676909846	-0.00264435715965998	0.0021424575690766	-0.00671367450324773
0.8	-0.00935532729153736	0.00986003760469026	0.00135570346874058	-0.00285943197859781	0.00136396655373929	-0.00285783951841724	0.000505032437954969	-0.00721401474852337
0.9	-0.00839104088822424	0.0103149132638084	0.000951992591364058	-0.00301060755150112	0.000951972502712292	-0.00302001052907702	-0.00110823661191542	-0.00732563395895137
1	-0.00786196210135068	0.0103163925360367	0.000520330607847457	-0.00311899516095656	0.000520182795557074	-0.00312434550013347	-0.00301611330553035	-0.00723303388135171
1.1	-0.00766877884093384	0.0111826810586792	7.2770515987873E-05	-0.00315880478634287	7.36565363886781E-05	-0.00316352568974926	-0.00484581873318516	-0.00581526697863766
1.2	-0.00688907419170284	0.0115785868575464	-0.000365305006237761	-0.00313109767395198	-0.000364082519329242	-0.00314786917038135	-0.00547942526163636	-0.00431011752975832
1.3	-0.00648582606187321	0.0114864534554442	-0.000795365791966207	-0.00305675941426176	-0.000800296523888507	-0.00306440382430152	-0.00539700429309576	-0.00297882965991348
1.4	-0.00616294103389811	0.0112557074413858	-0.0012204056868432	-0.00291217049021594	-0.00122281687315604	-0.00291929093563545	-0.00498328546933343	-0.0022348072120814
1.5	-0.00590181890402315	0.0114226900884906	-0.00161229437986709	-0.00271402117986908	-0.00161032561262779	-0.00271955567347735	-0.00495549584044554	-0.0016214070306026
1.6	-0.00467193696837027	0.012065619225575	-0.00197380916659862	-0.00245717428435269	-0.00197727363693903	-0.00245805212071004	-0.00482284884707092	-0.000541393444371345
1.7	-0.0034553482466726	0.0121193053325001	-0.00229748727352988	-0.00216372747780478	-0.00229953071074245	-0.00217230088009074	-0.00457963068323671	0.000440083543768861
1.8	-0.00243162222861436	0.0122116647661085	-0.0025738141001969	-0.00181560939747097	-0.00257898008915483	-0.00182106258984787	-0.00414505818896293	0.00146059773399007
1.9	-0.00152102273482772	0.0120100065224566	-0.00279934602461046	-0.0014471421744201	-0.00279584274472379	-0.00144096194607345	-0.00342888793551943	0.00231273782925407
2	-0.00131734484327131	0.0119588549711562	-0.00297353368267155	-0.00103576919995908	-0.00297627036468093	-0.00102893985655418	-0.00291439230079096	0.00318390008119411
2.1	-0.000447096164694493	0.0125893200951249	-0.00308826912334805	-0.000606048704364501	-0.00309036070818523	-0.000612732494439717	-0.00147106598643303	0.00419651021158767
2.2	0.000653684613941331	0.0126382161397236	-0.00314264124130392	-0.00017647492307295	-0.00314446072084653	-0.000166769057100781	0.000334494945240109	0.00428175442549129
2.3	0.00158126642323144	0.0124176119513061	-0.00313504576738676	0.000264804465663705	-0.00314178653014291	0.000261893018392661	0.00197737494356134	0.00379149799779646
2.4	0.00245412897681675	0.0119596702625866	-0.00307515402006152	0.000698461947736976	-0.00307399972274246	0.000713553633370978	0.0035551456046627	0.00284970775669474
2.5	0.00253886953751946	0.011196471096726	-0.00294102047720534	0.00112821774435493	-0.00295400151212482	0.00112949367382192	0.00448006619231644	0.00134352010421399
2.6	0.00263831603740126	0.0115468551933051	-0.0027535587281441	0.00152349578638243	-0.00277446082295522	0.00152736989336926	0.00533308509819381	0.000223103200738237
2.7	0.00332580010767766	0.0117818506916529	-0.00252249535604766	0.00189298640640967	-0.00252278153849055	0.00189806653972731	0.00608200953916408	-0.00144915398752691
2.8	0.00430884716509527	0.011911452438742	-0.00222845258238619	0.00221801674313287	-0.00223829356563872	0.00222918572344267	0.00642666196996238	-0.00323279513729225
2.9	0.00552847059131782	0.011606842701427	-0.00189359553463854	0.00251094326109479	-0.00189168478688986	0.00251984791963499	0.00653921296037206	-0.0051280733472618
3	0.00624356105123124	0.0111357449276583	-0.00152492749722668	0.00275586088869935	-0.00153998119705402	0.00274279749553982	0.00601010516319707	-0.0069504705854427
3.1	0.00748285322615761	0.011080291459796	-0.00112547119364626	0.00294088878830636	-0.00114242142751256	0.00294626978370925	0.00559319915485683	-0.00847926999486022
3.2	0.00868863314356995	0.0103514240495916	-0.000706424674621018	0.00306634233101648	-0.000702171838928762	0.00307715415137218	0.00455394534006915	-0.010313254600494
3.3	0.00963668826486422	0.00938403891577558	-0.000277689733283692	0.0031388830205379	-0.000274384206977453	0.00313450810021034	0.0030692638112058	-0.0119881518198112
3.4	0.0103569553457994	0.00818195332954095	0.000167723644936021	0.00314899408499435	0.000158289969244168	0.00315005902758414	0.00122383724716487	-0.0135985409698622
3.5	0.01024903248592	0.00703862346757082	0.000603495164261045	0.00309370201173203	0.000608507724807962	0.00309237604880635	-0.00152814237766764	-0.0148792810430766
3.6	0.0105985341183193	0.00678400943516724	0.00102349435331693	0.00297279218049912	0.00103009054230983	0.0029762912699287	-0.00405116719497764	-0.0150496246903704
3.7	0.0112462655378651	0.00600497463785701	0.00143974879262674	0.0027975264041861	0.00143798325836194	0.00281389800507475	-0.00655113312244107	-0.015158531613453
3.8	0.0117798033749514	0.0050109944032404	0.00180878590299442	0.00257206381521098	0.00181938310839298	0.00257843147425122	-0.00924714761147288	-0.0148281014765644
3.9	0.0121454388669258	0.00371776552161826	0.00215768509886435	0.00229419925701143	0.00215308451533575	0.00229409859052027	-0.0119752969078316	-0.0140124985592495
4	0.0115827828159409	0.00255416535468368	0.00244841159159419	0.00197380981663896	0.00245984737332823	0.00197996104068078	-0.0149088721924051	-0.0124293534962376
4.1	0.0116023713848817	0.00244603637308377	0.00269988755303209	0.00160969389145538	0.00271643947371894	0.00161949898394504	-0.0167939561457059	-0.00976625893442544
4.2	0.0120470530290915	0.00176188394715397	0.00290351835034038	0.00121387173421316	0.00290474847849705	0.00121616081013364	-0.0180787775853783	-0.00729127792605361
4.3	0.0123407840683064	0.000840704855691358	0.00304780485433241	0.000805714055419003	0.00304897856764451	0.00081430537881428	-0.0190049885451654	-0.00477072723125942
4.4	0.0124267314634837	-0.000417525109241122	0.00312729382602262	0.000370080760405258	0.00313522543182785	0.000365453825943742	-0.0195547997933969	-0.0021893816466326
4.5	0.0115147606122865	-0.0015934910340338	0.00315168956713625	-7.2573451057112E-05	0.00314849277937038	-7.03172464093417E-05	-0.0201092658908249	0.000482756619011526
4.6	0.0109880036625718	-0.00162237462013624	0.00310201596925528	-0.000519515454113434	0.00311503981271395	-0.000507491380984004	-0.0197062489203761	0.00376154344643564
4.7	0.0109562049514779	-0.00197949858600935	0.00300123980574732	-0.000934562032295386	0.00300116197769205	-0.000944011078437509	-0.018697850276411	0.00638359011136287
4.8	0.0109086704405445	-0.00249282083211297	0.00285293290720249	-0.00133854904561576	0.0028453072665119	-0.00135877337642814	-0.0173211347853923	0.0088626299768818
4.9	0.0110631335643129	-0.0032329419430225	0.00263838876306497	-0.00173682847753712	0.00263229001478382	-0.00172838445477781	-0.0154391026341913	0.01096429200257
5	0.0105845057109302	-0.00404610616121259	0.00236493419711761	-0.00207201591580103	0.0023677136853054	-0.00208446458446502	-0.0134115108248994	0.012835166751046
5.1	0.0109717168016123	-0.00422465757189385	0.00204139108242314	-0.00239915774495939	0.00205464891208186	-0.0023966543154748	-0.0102854303486322	0.0145675678492046
5.2	0.0114904852595575	-0.00537743656553235	0.00169748297226412	-0.00265724578475797	0.00169799023718198	-0.00266141671491254	-0.00702734685303794	0.0150493511302955
5.3	0.0115183376059521	-0.00684494181773831	0.0013069167659097	-0.00286994842446982	0.00130316558027146	-0.00287253149331527	-0.00398681180746762	0.0149600165957988
5.4	0.0110208798723731	-0.00844329694797139	0.000894891611462642	-0.00303127769326198	0.000894003294114375	-0.00303374457927651	-0.00111433276589211	0.0141668037352376
5.5	0.00927767568161227	-0.00933879038294427	0.000451863811653961	-0.00312735941660598	0.000464480010059187	-0.00312733902589273	0.000864239594488668	0.0130977749657404
5.6	0.00882476746671132	-0.00893753767295448	1.65558503820847E-05	-0.00315528823347501	1.32508338439117E-05	-0.0031518219307644	0.00339709481881541	0.0121655988258305
5.7	0.00871690187770736	-0.00945963237020124	-0.000417144322520536	-0.00312918400926642	-0.000420869752356038	-0.00313288216364906	0.00544082086788877	0.0101777090596284
5.8	0.00844160439432053	-0.0102386073446439	-0.00085365775051134	-0.00303908476248221	-0.000852926845336983	-0.00304678798789604	0.00683088182385642	0.0078035494079283
5.9	0.00801630013985415	-0.0114287454675569	-0.00127307823104451	-0.00288537843347066	-0.00127147617668545	-0.00288954169017537	0.00761066626628222	0.0051303137734905
6	0.00602788938264624	-0.01302108229747	-0.00166169647788403	-0.00267650418306127	-0.00165569869749678	-0.00267986414741259	0.00691132822501703	0.00235656158377946
6.1	0.00409142291797744	-0.0125760051315051	-0.00201856422497409	-0.00242636798490221	-0.00201441515380226	-0.00243114361729348	0.00636926055570623	0.00101208970334846
6.2	0.00296152236681856	-0.0123720012312749	-0.00234009735354856	-0.00211045729962302	-0.00233651620287901	-0.00211914185318669	0.0060443565758845	-0.00085391142288211
6.3	0.00217819099521192	-0.012189836796774	-0.00260858939955983	-0.00176989714652695	-0.00261843060847438	-0.00177766675559089	0.00544172874975302	-0.00284079690673499
6.4	0.00156109271124626	-0.0125605024708743	-0.00283544138428977	-0.00138292906104116	-0.0028334523400244	-0.00138873723058721	0.00456689831747652	-0.00506168317251578
6.5	5.81289771318418E-05	-0.0126065254185373	-0.0029996412072188	-0.000982015260628108	-0.00300004577936708	-0.000980890685904461	0.0027466235812047	-0.00683634066745478
6.6	-1.56717515944027E-05	-0.0119590649991445	-0.0031070813651994	-0.000555264398416847	-0.00311778028997495	-0.00055827215200046	0.00152474549475404	-0.00814218191013987
6.7	-0.000257064036225111	-0.0122881859154025	-0.00315205113032359	-0.0001180218182963	-0.00315099913299845	-0.000111767219246218	-0.00064269398636038	-0.00948043435987443
6.8	-0.000801515073943729	-0.0124793408237755	-0.0031363603607618	0.000332167876165011	-0.00313544596266245	0.000336939138735283	-0.00320751067935695	-0.00982132431786572
6.9	-0.00145552019462641	-0.0129752938616975	-0.0030532697965706	0.000762756257848484	-0.00305368835775999	0.000767752877555889	-0.00558108150892926	-0.00959414349089474
7	-0.00356903884503362	-0.0129741032006613	-0.00292479323748919	0.00118282112320982	-0.00292620855249176	0.00118604958297223	-0.00854419812276251	-0.00851412959193426
7.1	-0.00414038419374928	-0.0112600098872232	-0.00272416207043948	0.00158475761730663	-0.00272656774735689	0.00159581391585699	-0.00994377139026716	-0.00609572383173046
7.2	-0.00404653192024805	-0.0107138343416573	-0.00248095892241155	0.00194654431162564	-0.00248112817944946	0.00195245514395079	-0.0108543280805518	-0.00420180153982174
7.3	-0.00410479577505796	-0.0105110780371229	-0.00218871974979963	0.00227156157612923	-0.00218594745149253	0.00227303251276624	-0.0114202368336252	-0.00210867472981578
7.4	-0.00415638357679623	-0.0109487499947042	-0.00184516295486341	0.00255646870924398	-0.00183791130891446	0.00256299018967508	-0.0114257178191478	-0.000275100149575039
7.5	-0.00593010745952652	-0.0120622682535598	-0.0014630102301134	0.00279309361995793	-0.00146405929531762	0.00279107760255052	-0.0117783087799376	0.00135989161226435
7.6	-0.00744163911013566	-0.0110048521782776	-0.00106623794970313	0.00296607853806914	-0.00105552875987497	0.00297640486525131	-0.0109374097175168	0.00411219525071365
7.7	-0.00833513097046608	-0.0106090916788541	-0.000636251796329235	0.00308778740828198	-0.000630682021563128	0.00308741967012231	-0.00951261323342928	0.00541545570159752
7.8	-0.00913512939907883	-0.010398449130819	-0.000188900811675591	0.00314736223225222	-0.000202585567502659	0.00314032288471579	-0.00800203962191137	0.00655810816845504
7.9	-0.0100678006183212	-0.0104332853304589	0.000237122672666721	0.00313182578705471	0.000248222038347135	0.00313147500456116	-0.0063385409674802	0.00743642851562183
8	-0.0120749732178182	-0.00946694193385724	0.000672653086760522	0.00307052344856131	0.00068093397106603	0.00306841390570674	-0.0050487953469409	0.00847113092056664
8.1	-0.0117836643442139	-0.00760807280611699	0.00110103414225235	0.00294571027647974	0.00109874330046222	0.00294246558754307	-0.0021454586905592	0.0095119399455262
8.2	-0.0114768022374694	-0.0070317642627437	0.00149255000213514	0.00276294111797045	0.00149176672520883	0.00277452819406792	0.000543062134091117	0.0092467351281398
8.3	-0.0114476098391291	-0.00665039356482866	0.00186500941738181	0.0025284609423594	0.00187007481261671	0.00252585847796752	0.00302373090346595	0.00854709217009187
8.4	-0.0115861536577931	-0.00663110239373549	0.00220976641885525	0.00224473433096617	0.00219861473857943	0.00224517408878699	0.00531367495324176	0.00710452729898562
8.5	-0.0133295765975301	-0.00626912459512175	0.00250174685504482	0.00191010096144395	0.00250175954633197	0.00191145003372258	0.00632334958733466	0.00545611958010496
8.6	-0.0135611372094984	-0.00392098361992049	0.00273433652541572	0.00155047332185511	0.00273012117181232	0.00154817765889971	0.00817485779409639	0.00428426865707535
8.7	-0.0128441038788026	-0.00273005040033333	0.00292303985192185	0.00114952235334351	0.0029218766070465	0.00114911533287767	0.00957550475524584	0.00178915843598013
8.8	-0.0120204694406818	-0.00206529590775409	0.00304952569948027	0.000730251435360088	0.00306048598318466	0.000728112411312879	0.0101055651766045	-0.00099990794238644
8.9	-0.011107157270653	-0.00229254448932112	0.00312068545903581	0.000301063450148732	0.00313000494596676	0.000293909392151999	0.0101602393626029	-0.00390669498298795
9	-0.011756750974402	-0.0029932871766448	0.00313479488280041	-0.000146275153087767	0.00314157950145393	-0.000140693889725917	0.00899489021385388	-0.00671011730592512
9.1	-0.0118070601742648	-0.00237107569273588	0.00308461205228507	-0.000580835521197629	0.00308482891757563	-0.000581028439413309	0.00815250838847088	-0.00868045398922555
9.2	-0.0118212241616622	-0.00255984134081061	0.00296653785191183	-0.00100021857573015	0.0029703518618654	-0.00100000721412664	0.00676874423653248	-0.0111652395130522
9.3	-0.0122907967417739	-0.00259052093656446	0.00279321931524907	-0.00140669111210097	0.00281122831033502	-0.00140717487911696	0.00465600178730528	-0.0132273874244945
9.4	-0.0129227591416405	-0.00261440339950618	0.00257615047394841	-0.0017776479050822	0.00257943980917832	-0.00178866305756894	0.00207630066376267	-0.0149814391527468
9.5	-0.0145600655801956	-0.00161263530359457	0.00230213457463622	-0.00213457166113748	0.00231690294165294	-0.00213528051387752	-0.00154505509575125	-0.0156344933314238
9.6	-0.0142439024103095	0.000460670064009284	0.00198126072008452	-0.00243129269758917	0.00198160126621736	-0.00242429853295151	-0.00427220751325263	-0.0153969722276208
9.7	-0.0135522578669309	0.00130737935627229	0.00162095656160218	-0.0026822557047209	0.00162922489967051	-0.00268385670281635	-0.00747825506959666	-0.0152118465490746
9.8	-0.0129865270973451	0.00181796304126461	0.00123828117425517	-0.00287670285478289	0.00123644446472296	-0.00288532269502936	-0.0109002164411444	-0.0141325233941971
9.9	-0.0125205341658504	0.00175997008384797	0.000828361418045352	-0.00302143901088174	0.000816511057195608	-0.00302402534068475	-0.0142545599287858	-0.0122967503183357
10	-0.0137383507775026	0.00179103852236551	0.000395203879741891	-0.00309517512814423	0.000394378801057424	-0.00310246225858447	-0.0179020131185254	-0.0094573144667174
10.1	-0.0136785350045006	0.00363448156985711	-3.35497905827451E-05	-0.00313077162384296	-3.81774388373021E-05	-0.00313352600460602	-0.0197669104129345	-0.00524218901210671
10.2	-0.0128795739754828	0.00446761460408761	-0.000471447341704288	-0.00309167570917021	-0.000484005812187021	-0.00309541408623795	-0.0207964549700264	-0.00143757818706577
10.3	-0.0120515246994875	0.00490645038604075	-0.00090198482851096	-0.00298883078972013	-0.000901779053565215	-0.00300216955734154	-0.0211191069021221	0.00265129611481807
10.4	-0.0112759721346378	0.00453278303647867	-0.00130822812157329	-0.00283950007442388	-0.00131138233087565	-0.00283737748482603	-0.0204046190990074	0.00641069187016189
10.5	-0.0122412283326624	0.00433929087420068	-0.00168532321887808	-0.00262292850271506	-0.00169146042529697	-0.00263015363213371	-0.0197119304875405	0.0102282869600612
10.6	-0.0122403050849861	0.00552296305821307	-0.00204444617676882	-0.00237050802750216	-0.00204593753719653	-0.00237560178188459	-0.0173913932898131	0.014176035498565
10.7	-0.0119549364679101	0.00637482106262604	-0.00235072341825138	-0.00205906855144477	-0.00235391432041815	-0.00207504113992848	-0.0145557260101727	0.017425978296021
10.8	-0.0112528346083818	0.00740098603434186	-0.00261589246046604	-0.00171307629129975	-0.00261296465789429	-0.00171523248822886	-0.0110749110367095	0.0203871798997819
10.9	-0.0101675661689873	0.00769108838950845	-0.0028312349775727	-0.00133893573575548	-0.00283051131645828	-0.00134404050005535	-0.00689653049935961	0.0224638905804104
11	-0.0105205056411096	0.00812815781573276	-0.00299811205503127	-0.000927201302706149	-0.00299110107817254	-0.000931471093045219	-0.00304090269001852	0.0240927154313491
11.1	-0.00913347060222011	0.00988061006403849	-0.00309384126353924	-0.00050837608837989	-0.00308612353072891	-0.000500095873127496	0.00243182133560462	0.0253198120370491
11.2	-0.00718903430822925	0.0101350774547623	-0.00313288417874411	-6.85082213142121E-05	-0.00313946533072855	-6.53131388932568E-05	0.00794221132260804	0.0247093652526859
11.3	-0.00533634792948525	0.00960569823300102	-0.00311072273905306	0.000369635440469321	-0.00311387574298951	0.000367473252863931	0.0133169433383672	0.0231625079559413
11.4	-0.00395533971513506	0.00828621150379982	-0.00302705632021575	0.000798790125503957	-0.00303167620829795	0.000798935982762839	0.0183263447406515	0.020355168251483
11.5	-0.00443071056958462	0.00725763231256648	-0.00289446401354698	0.00121018628433986	-0.00288696545909742	0.00121493381079224	0.0218754819389686	0.0167707851707247
11.6	-0.00353508371718472	0.00752347076562467	-0.00269026079791046	0.00160064455967068	-0.00269836060768938	0.00161031058418485	0.0259067369144092	0.0128917536708419
11.7	-0.00235959550644771	0.00646425065234893	-0.00243918457191857	0.00196547800826833	-0.00244093512695317	0.00196915642007148	0.0290135211900218	0.00749292705790581
11.8	-0.00163688814545784	0.00491296676659746	-0.00214308015819604	0.00228958770126377	-0.00215228067288638	0.00229934779764859	0.0309536262423213	0.00161467605141525
11.9	-0.00160226718462937	0.00256920873739493	-0.00180396971076934	0.00256341149946448	-0.00180400954055253	0.00256995760845002	0.0316755503947938	-0.0046164774126062
12	-0.00418611750649369	0.00139893638018646	-0.00142372720139452	0.00278450099601348	-0.00142820850547022	0.00278727280385215	0.0301028551887852	-0.0103192691769402
