# GHZ S RI R 50
0.2	-0.0138695854359535	0.00569198531354546	0.00304249002761976	-0.000885940855439327	0.00305294395762607	-0.0008857926857402	0.00592461929780067	0.00120218816861065
0.3	-0.0130343991850582	0.00609459117309362	0.00289562737788744	-0.00130172663773754	0.00288934119929382	-0.00131335716573765	0.00625700281608966	-0.00115501272425768
0.4	-0.0123081700872885	0.00662997785534599	0.00268073218180958	-0.00169525283320341	0.00267862790314174	-0.00169716193578618	0.00581104257517054	-0.00315555765556937
0.5	-0.0119439031220495	0.00747688999209839	0.00241100102130351	-0.00205089043294595	0.00241381044680774	-0.0020546129170785	0.00463811256020216	-0.00456248192221357
0.6	-0.0109070331869895	0.00852629954054911	0.00209874676145131	-0.00237061941892164	0.00209800320560744	-0.00237345816414749	0.00376009390060996	-0.00559677394804838
0.7	-0.0100427616665755	0.00911565976718185	0.00174810716018645	-0.00263986885030831	0.00175430346974732	-0.00264395928846635	0.0023773862658883	-0.00663109380769006
0.8	-0.00917248176663323	0.00970581407821951	0.00135500596989231	-0.002858794223729	0.0013632669496055	-0.00285720313616802	0.000709827504081962	-0.00714282679953904
0.9	-0.00836578582533896	0.0101184236550946	0.000951489533699139	-0.00300996349530149	0.000951468599834372	-0.00301936419067833	-0.000983801075774107	-0.00731280829784603
1	-0.00806728526698364	0.0104380295224572	0.000519480563007727	-0.00311829761973579	0.000519331564950171	-0.00312364652426062	-0.00311095670994393	-0.00701205740020804
1.1	-0.00755727468094204	0.0114916040946631	7.227056809116E-05	-0.00315743572524026	7.31555017850015E-05	-0.0031621546977521	-0.00472782608429952	-0.00543638679643702
1.2	-0.00666311479224211	0.011947645518192	-0.000365360666239045	-0.00312975098959334	-0.000364139819975941	-0.00314651548575417	-0.00531354863662872	-0.00384347175995673
1.3	-0.00593172720368504	0.0119246449166739	-0.000795223043553903	-0.00305546005696101	-0.000800152213862822	-0.00306310104146976	-0.00496318184939028	-0.00238241328122696
1.4	-0.00537301208547749	0.0113974054302113	-0.00122020309863173	-0.00291074276674704	-0.0012226140426591	-0.00291785978748569	-0.00431740871775663	-0.00184250798117835
1.5	-0.00506586758642774	0.0113319048963927	-0.00161132080163045	-0.00271212921883277	-0.00160935358554571	-0.00271766006955996	-0.00424841056984797	-0.00137001899485677
1.6	-0.00410863497366825	0.0115181965645889	-0.00197226409034517	-0.00245617983795093	-0.00197572648277218	-0.00245705782838941	-0.00429633528224344	-0.000618834518665481
1.7	-0.00331310975208739	0.0115977888265079	-0.00229609741371049	-0.00216301568361747	-0.00229813869885497	-0.00217158529311101	-0.00434621581829763	0.000386279070801558
1.8	-0.00253484428822239	0.0118429490025965	-0.00257230605646911	-0.00181491163718793	-0.00257746884674515	-0.0018203624903676	-0.00408482641085623	0.00149783810772128
1.9	-0.00181911600056649	0.0119066909655597	-0.00279727385434304	-0.00144656532636635	-0.00279377377656562	-0.00144038873946631	-0.00355100039976699	0.00251731426977852
2	-0.00136161111566885	0.0123318584096084	-0.00297119704023835	-0.00103651550530571	-0.00297393521351067	-0.00102969169600256	-0.00290382394116702	0.00379543196685391
2.1	-0.000145545761596881	0.0126727986522952	-0.00308682410353151	-0.000606857819421604	-0.00308891257242869	-0.000613539641601401	-0.00119750816588586	0.00463634277855417
2.2	0.00085691838092267	0.0125430146907263	-0.00314104461158473	-0.000177341120004022	-0.003142866140567	-0.000167640571557376	0.000564532927101417	0.0046340475275228
2.3	0.00162962176382183	0.0122441345420327	-0.00313344542295563	0.000263425270929941	-0.00314018137334318	0.000260512750887191	0.00215077938048684	0.00408512377480776
2.4	0.00218771553086427	0.0118508488299894	-0.00307406850820425	0.000696343673717807	-0.00307292350516951	0.000711428716164501	0.00352134394752119	0.00311915400604391
2.5	0.00220164450650276	0.0117250458398166	-0.00294117779511207	0.00112666494419484	-0.00295415775354529	0.00112793450107597	0.00432073694760176	0.00204992950959275
2.6	0.00284891654497351	0.0121810008904356	-0.00275288761812631	0.00152222869735597	-0.00277378270320616	0.00152609612022324	0.00553268961081126	0.00102867186294321
2.7	0.00382297512968889	0.0122682652585106	-0.00252207781594939	0.00189103426994599	-0.00252236597321679	0.00189611185906568	0.0064773474080942	-0.000705958321913494
2.8	0.00490987195214913	0.0121207524399669	-0.00222873604488337	0.0022159241703236	-0.00223857901552561	0.0022270833524784	0.00690194464271064	-0.00267709497632738
2.9	0.00598222718900551	0.0116930428083697	-0.00189448971850551	0.00250944680780846	-0.00189258394221281	0.00251835058910681	0.00686668110589169	-0.00466556475381247
3	0.0068920552523523	0.0113784767314739	-0.0015247849610592	0.00275462472366479	-0.00153983119636332	0.00274156383842967	0.00642360161487642	-0.00628973041601241
3.1	0.0082507140334484	0.0108536619097966	-0.00112623985631017	0.00293844556120607	-0.0011431820051148	0.00294381456179093	0.00610659808638853	-0.00808204455205091
3.2	0.00922989712071522	0.00990597658267938	-0.000708071375539868	0.0030644755558226	-0.000703827452376711	0.0030752851311506	0.00494245806236441	-0.0100067342134658
3.3	0.00994884460972883	0.00882085348314894	-0.000279454840720509	0.00313760665554218	-0.00027614788770444	0.00313323524679373	0.00334922597063097	-0.011747564808516
3.4	0.0103267645311713	0.00764464314841086	0.000166354126843667	0.0031477025341147	0.000156924088663863	0.00314876313090145	0.0012684977408944	-0.0133626887266733
3.5	0.0102647064709044	0.00687550230473832	0.000600795895426474	0.00309132518553655	0.000605804847295975	0.00309000391084799	-0.00146064396457411	-0.0143209712130869
3.6	0.0106801997108386	0.00625306729883276	0.00101968800275409	0.00297242128338955	0.00102627698531079	0.00297592590090913	-0.00391493393656644	-0.0147546323751841
3.7	0.0108810722859104	0.00542856342751462	0.00143645471992968	0.00279801421308557	0.00143467338586763	0.0028143784584323	-0.00671040653844099	-0.0148639040783459
3.8	0.011015651062898	0.00471018734347681	0.00180556671561843	0.00257286088557949	0.00181615361635167	0.0025792365346724	-0.00964448870374731	-0.014345618001723
3.9	0.0111124347428321	0.00403659979355289	0.00215380337979327	0.00229549538037086	0.00214920542055522	0.00229538934108332	-0.0125656493217503	-0.0131321557509441
4	0.0111730908531649	0.0037820169397026	0.00244457302656961	0.00197794151208962	0.00245599636739853	0.00198411241962716	-0.0150828831872285	-0.0108776501663905
4.1	0.0120012800931239	0.00328092872620492	0.00269875586621175	0.00161397737975991	0.00271530093473463	0.0016238087079748	-0.0163923500875556	-0.00849509687715763
4.2	0.0125433121369957	0.00222817859048525	0.00290299186492041	0.00121772682478495	0.00290421964963325	0.00122001809863039	-0.0175963685939799	-0.00626860799980277
4.3	0.0127819332939615	0.00109535779366354	0.00304778360974002	0.00080980974108714	0.00304894689932265	0.000818405337456104	-0.0185401533185632	-0.00393169144710342
4.4	0.0126477127518329	-0.000150075331614877	0.00312851072479179	0.000374881247266736	0.00313645358951059	0.000370263355244236	-0.0193012855449608	-0.0014179430955111
4.5	0.0120795392506174	-0.000827240572073693	0.00315569427299614	-6.94825903536629E-05	0.00315249122005488	-6.72267981992769E-05	-0.0197315635193824	0.00166053098044084
4.6	0.0120902200130284	-0.00142951075845956	0.00310456807104878	-0.000518350395494073	0.00311759553595478	-0.000506310931848002	-0.0189834936809703	0.00457855472242901
4.7	0.0119681190002731	-0.00222954576498506	0.00300353873622441	-0.000933100165904067	0.00300346711485132	-0.00094255455513912	-0.0180628223435638	0.00696400455776569
4.8	0.0117227971509262	-0.00307985594190533	0.00285582075301107	-0.00133724133484845	0.00284820559999892	-0.00135748471221973	-0.0168061544758477	0.00924999104971349
4.9	0.0114516765488511	-0.0039485793471087	0.00264196115684557	-0.0017368807063797	0.00263585145765381	-0.00172843233851609	-0.0152389322252359	0.011267336026301
5	0.0110524476800146	-0.00446720309456807	0.00236612692402534	-0.00207322315876496	0.00236890742535873	-0.00208567863697446	-0.0131576525304236	0.0134392868463239
5.1	0.0112828927852316	-0.0052180162183517	0.00204302996237136	-0.00239833513361214	0.00205628820951396	-0.00239582386120122	-0.0101298290091181	0.0147914868690266
5.2	0.0111556182796267	-0.00624298298628988	0.00170017209614343	-0.00265714330973916	0.00170068265071695	-0.00266131566716685	-0.00728986176201015	0.0154413346483293
5.3	0.0109200830556377	-0.00722315812136917	0.00130942424576871	-0.00287086553086086	0.00130567238905987	-0.00287345239697838	-0.00434877978047036	0.0157122961588418
5.4	0.0104385762294837	-0.00829351256823237	0.000896163765455016	-0.00303234124449755	0.000895275777437644	-0.00303480946607776	-0.00144322451508506	0.0152257660233808
5.5	0.00960796956204951	-0.00872071360488859	0.000454308909452629	-0.00312628636040191	0.000466922246967148	-0.00312625569946583	0.0011513076427708	0.0145041149276082
5.6	0.00937198460413625	-0.00946791705824954	2.07184632106795E-05	-0.00315692575337556	1.7407145291272E-05	-0.00315346197872471	0.00377632612347592	0.0127492706988881
5.7	0.00846847587474911	-0.0103024069444771	-0.000414178599374463	-0.0031322571243866	-0.000417903241856346	-0.00313596233643	0.00524220154422943	0.0106260873236261
5.8	0.00743713479912138	-0.0108394242975595	-0.000851703732118361	-0.00304243306565939	-0.0008509654022159	-0.00305014222268868	0.00615106633493136	0.00845501817064176
5.9	0.00619480581343088	-0.0111735227229229	-0.00127099673874743	-0.00288854920335039	-0.00126938943343461	-0.00289271356314593	0.00634226026668042	0.00633239980501005
6	0.00468572675025364	-0.0106700857363094	-0.00165960709259166	-0.00268290424913376	-0.00165359556496379	-0.00268625903142025	0.00591450617872701	0.00515656880854082
6.1	0.00460538052298877	-0.010023612667918	-0.00202083340463581	-0.00243241679396076	-0.00201667309915202	-0.00243719886610348	0.00676660236341603	0.00399317998331449
6.2	0.00463602033022831	-0.010356692212296	-0.00234330504965539	-0.0021145142943944	-0.00233971572181425	-0.00212321191866549	0.00735441559066351	0.00176111658455981
6.3	0.0044147210328338	-0.0112780391647771	-0.00261180499860304	-0.00177302966292546	-0.00262165806610247	-0.00178081262146913	0.00722653080440803	-0.00110536390118161
6.4	0.00335366780108603	-0.0124119696462414	-0.00283910998903453	-0.00138653103297444	-0.00283711487060527	-0.0013923471531356	0.00593088725733169	-0.00397559780508522
6.5	0.00210666201248742	-0.0125734605542736	-0.00300664667974741	-0.000983595056817105	-0.00300705192663842	-0.000982467848052829	0.00419173096707117	-0.00572094624682502
6.6	0.0014457080396889	-0.0129770509584322	-0.00311163024291355	-0.000553741458538364	-0.00312234562964677	-0.000556745429693388	0.00251213228736873	-0.00765403492179414
6.7	0.000521409266034578	-0.0132336429802708	-0.00315548594899935	-0.000117014241160769	-0.00315443056823829	-0.000110753289494088	-2.00937887985272E-05	-0.00880403586487792
6.8	-0.000351607512892068	-0.0134197956967259	-0.00314025567064682	0.000333122123619821	-0.00313933930559753	0.000337899242095117	-0.00268091444182786	-0.00919829104790967
6.9	-0.00159909929505284	-0.0136627204324971	-0.00305817527126709	0.0007654908510752	-0.00305859222921858	0.000770496273943362	-0.00553387818100316	-0.00891610663183528
7	-0.00294569386452439	-0.0128278993367397	-0.00292613640230778	0.00118818549375713	-0.00292754860462797	0.0011914192910135	-0.00803054680773031	-0.00715035149015263
7.1	-0.00327291137424238	-0.0124834571687077	-0.00272455449172978	0.00158718965509905	-0.00272695467849443	0.00159825288802483	-0.00929733452350408	-0.00568621164494016
7.2	-0.00411749527305777	-0.0123934009558564	-0.00248215296404973	0.00194931293318151	-0.00248231966194022	0.00195522880712403	-0.0108304480924246	-0.00398154906123763
7.3	-0.00512791974584407	-0.0122143277466045	-0.00218924102799881	0.00227534617148595	-0.00218646496715452	0.00227681656973069	-0.0118957314471637	-0.00189667448258151
7.4	-0.00654965566429087	-0.012172732784808	-0.00184323855410377	0.00256028428863849	-0.0018359745357376	0.0025668011138845	-0.0127623382927605	0.000123962193705443
7.5	-0.00858402210900455	-0.0110677619535448	-0.00146136554932134	0.00279265796999159	-0.00146241503452052	0.00279064310463837	-0.0133469733368189	0.00326019531862898
7.6	-0.00903511487394726	-0.00966564308205057	-0.00106741263360773	0.00296779960857406	-0.00105669830491013	0.00297813432157509	-0.0118710727356196	0.00611165315890626
7.7	-0.00967013473084075	-0.0088382799997457	-0.00063600330417115	0.00309085697835138	-0.000630428407268848	0.00309048737096711	-0.010299179702027	0.00769772142630591
7.8	-0.00992378329183685	-0.00830544080213372	-0.000187282689808542	0.00314999905558062	-0.000200982407443503	0.00314296174417857	-0.00849529203554188	0.00904342160074586
7.9	-0.0103437113245603	-0.00794098195146159	0.000238467683247399	0.00313285355502121	0.000249570888352162	0.00313249818133864	-0.00654361680433062	0.0102973450957109
8	-0.0103031149550904	-0.00689024109178758	0.000672271081030625	0.00307449417698181	0.00068056278892139	0.00307238530747134	-0.00406733380895557	0.0116778164101448
8.1	-0.00979578153963434	-0.00697302798660078	0.00110546687593806	0.00294969364295062	0.00110316934036871	0.00294644551167201	-0.000891514111352282	0.0114414244958422
8.2	-0.00998671560049931	-0.00702267319805295	0.00149769804627809	0.00276391725664395	0.00149692894553014	0.00277551754387486	0.00156363393392195	0.0109051979120764
8.3	-0.0103037006170072	-0.00700276174460034	0.00186901136246098	0.00252782369316477	0.00187407677979204	0.00252521388366216	0.00397228607015321	0.00995407015862645
8.4	-0.0110531129781018	-0.00694960265267016	0.00221274212944725	0.00224507547445198	0.00220158246047343	0.00224552221797315	0.00584634487358532	0.00842316152334307
8.5	-0.011936057285394	-0.00585889253872901	0.00250865898173798	0.0019093874485884	0.00250867373434509	0.00191073867078886	0.00746213118579847	0.00735375276451691
8.6	-0.0118514908120452	-0.00522270011844622	0.00273842952213569	0.0015456226403428	0.00273420804637213	0.00154333449052339	0.00950947427717315	0.00493680587240099
8.7	-0.0122009411099962	-0.00475592335078081	0.00292489654901847	0.00114528628358524	0.00292373263947544	0.00114488095174788	0.010204881505804	0.00204522801909963
8.8	-0.0125169232188716	-0.00419914108894455	0.00305109306982142	0.000726770180995285	0.00306205328921382	0.00072461756099956	0.0101070147374519	-0.000826972322681376
8.9	-0.0129860160922676	-0.00376268912550083	0.00312342400593128	0.00029654086072885	0.0031327394324484	0.000289367410368623	0.00925873631851967	-0.00345725462223457
9	-0.0134725504619831	-0.00255279802398878	0.00313347164401366	-0.00015412329868114	0.0031402682482077	-0.00014856081772932	0.00813561246966371	-0.00496079436169348
9.1	-0.0129118021714765	-0.00180728467911832	0.00308132552758564	-0.000584420109576302	0.00308154196164462	-0.000584613155469176	0.007659070666059	-0.00689401283583677
9.2	-0.0125755427910309	-0.00142203680236575	0.00296450584442055	-0.00100330166395404	0.0029683189496415	-0.00100309471604298	0.00649977671026575	-0.00892104187113322
9.3	-0.0122133305332026	-0.00127672456649829	0.00279078732232303	-0.00141077674677489	0.00280879365800096	-0.00141128777362964	0.00500852398413339	-0.0109007459064465
9.4	-0.0123215585891984	-0.00147965553939911	0.00257051242709712	-0.00178226350371554	0.00257377500159085	-0.00179327890833034	0.00265581831376757	-0.012905141634892
9.5	-0.0126121023484136	-0.000714383039289033	0.00229528756047649	-0.00213319885908152	0.00231002709384635	-0.00213392353159184	-0.000144803904976499	-0.0136115172210435
9.6	-0.0125529440870749	-0.000659152662880415	0.00197815824428389	-0.00243061286357957	0.00197850292527339	-0.00242362445911984	-0.00320871168946062	-0.0147339596916794
9.7	-0.0130602377768	-0.000327330973245971	0.00161672824469524	-0.00268219425097141	0.00162498884116904	-0.00268380356791367	-0.00727221950630137	-0.014699138725541
9.8	-0.0135521567512273	0.000230176710859274	0.0012329032428077	-0.00287503932540978	0.00123105689087658	-0.00288364659582914	-0.0113272222880834	-0.0135028015818053
9.9	-0.0142704805030643	0.00103131149002286	0.000824126480067749	-0.00301625810861816	0.000812297014041152	-0.00301882912149116	-0.0154913954129082	-0.0111207318694128
10	-0.0147338102923235	0.00285906921409486	0.000395929404971022	-0.00309204881674711	0.00039510772728513	-0.00309932921464059	-0.0186076109265238	-0.00690538844569116
10.1	-0.0139391802926021	0.00407116938448228	-3.60544306195295E-05	-0.00312875690011247	-4.06813630828619E-05	-0.00313150579835884	-0.0199474740060377	-0.00310357151432955
10.2	-0.0132960632055009	0.00484680037373173	-0.000473218125388896	-0.00308722572689457	-0.000485762896832058	-0.00309094944119227	-0.0209453445482404	0.00074888551420419
10.3	-0.0126747181961906	0.00529996414330045	-0.000901049215707089	-0.00298403035308012	-0.000900845859981412	-0.00299734836277636	-0.0212396016289997	0.00471297523860375
10.4	-0.0125440759647706	0.00559360141233029	-0.00130502475372009	-0.00283796205560756	-0.00130817773945368	-0.00283584361083552	-0.0210832817361525	0.00869660816793304
10.5	-0.0123086359622453	0.00696943273567819	-0.00168779732290431	-0.00262344462541537	-0.00169394219431337	-0.00263067031294707	-0.0197382292564985	0.0136967269078035
10.6	-0.0109698889982281	0.00772172286431442	-0.00204598491119274	-0.00236602269418685	-0.00204748179575953	-0.00237111060631672	-0.0166165460863096	0.0174817498689647
10.7	-0.00965585157787089	0.00800426054962432	-0.00234986050050883	-0.0020546414818997	-0.00235306187732444	-0.00207059302332951	-0.0129854252446355	0.0204964962444846
10.8	-0.00857311883528838	0.00766032482142181	-0.0026143078833191	-0.0017097025782515	-0.00261138440080055	-0.00171185841613038	-0.0091130223703122	0.0224188811527306
10.9	-0.00830727716366887	0.0071883387661872	-0.00283129915236004	-0.00133519276592112	-0.00283058140802337	-0.00134029580452604	-0.00563805335708502	0.0238739112270212
11	-0.00796468084379539	0.00785722914736017	-0.0029940961469911	-0.000918892187006808	-0.00298710841230023	-0.000923168500204785	-0.00138954403854075	0.0258355313337731
11.1	-0.0068362839125343	0.00769261075359587	-0.00308613028498295	-0.000505332308296311	-0.00307842786654705	-0.000497077806630079	0.00382352139324269	0.0258727537343114
11.2	-0.0061788263322091	0.00734204940656327	-0.00312651367209141	-6.76997488702485E-05	-0.00313308072888	-6.45097732764422E-05	0.00857948766483275	0.0251035138762534
11.3	-0.00552485807139044	0.00676675376382072	-0.0031048526703084	0.000370405048331768	-0.00310800090418587	0.000368248287752592	0.0134219097569776	0.0235175487601114
11.4	-0.00545892805654264	0.00606309045897067	-0.00301872112746241	0.000800014272647706	-0.00302332942922719	0.000800164653996386	0.0176480644809782	0.0209390458199672
11.5	-0.00538231446810856	0.00626465243821674	-0.00288425573056649	0.00120407839644136	-0.00287678788712435	0.00120881216224222	0.0216647524614155	0.0182422034808878
11.6	-0.00477572239450719	0.00553765969692994	-0.00268611571288957	0.00159375528794867	-0.00269420892793666	0.00160338960087314	0.0255420605274239	0.0134943790300432
11.7	-0.00493292063031131	0.00480216354333662	-0.00243557258109558	0.00195969711012516	-0.00243732216197877	0.00196336671096585	0.0277437780900964	0.00818421722384322
11.8	-0.00531766353954147	0.00442012227546315	-0.00213904377317249	0.00228268999751993	-0.00214822692009979	0.00229242065354595	0.0288428827904773	0.002887942322393
11.9	-0.00589467792225815	0.00454037591006389	-0.00180135537351433	0.00255234026530208	-0.00180140391071892	0.00255886427008266	0.0287625265124818	-0.00174497021258605
12	-0.00561844302241827	0.00581608602823545	-0.00142929429068135	0.00277516065023224	-0.00143377547183635	0.00277791413776295	0.0291207141527052	-0.00542922631283375
