# GHZ S RI R 50
0.2	-0.0138878017269382	0.00526891807121295	0.00304432834167074	-0.000885334378110423	0.0030547874837452	-0.00088518251734162	0.00599145432260301	0.000853193254418999
0.3	-0.0130688913634262	0.00572513548904084	0.00289805385621883	-0.00130135479891202	0.00289176848461967	-0.00131299551750991	0.00630138629220108	-0.00145199572688395
0.4	-0.0123319044561593	0.00634508833726782	0.00268368091178854	-0.00169549706953533	0.00268157571744656	-0.0016974086594101	0.00583349414737212	-0.00338091679206428
0.5	-0.0118010024706951	0.00703947039832293	0.00241384789215958	-0.00205204325512738	0.00241666104187679	-0.00205576831005948	0.00469814018388744	-0.00491125647287259
0.6	-0.0110327645051337	0.0079130438783979	0.00210149035539282	-0.00237206118083418	0.00210074710383394	-0.00237490278248991	0.00350083838741974	-0.00592763330289723
0.7	-0.0103333920158251	0.00858797260526551	0.00175087785553457	-0.00264199141234098	0.00175708209264709	-0.00264608388561264	0.00203695081124879	-0.00673546982956211
0.8	-0.00956381096173874	0.00927503235408858	0.00135742276739552	-0.00286168993708198	0.00136569280804393	-0.00286009454885228	0.000395891936291977	-0.00707907482975495
0.9	-0.00880269753850441	0.00988986593580415	0.000953203855628352	-0.00301338025168403	0.000953184697544897	-0.00302279219154282	-0.00117295583491045	-0.00708705634443266
1	-0.0081402578352842	0.0103010088061445	0.000520817915460019	-0.00312172496486311	0.000520670026723566	-0.00312707999708549	-0.00291054308109633	-0.006947384467143
1.1	-0.00760516950151563	0.0109078997835434	7.32282541121383E-05	-0.00316168092868004	7.41156685057823E-05	-0.00316640603422822	-0.00474546515206108	-0.00589740619822528
1.2	-0.00694658500182709	0.0110196125857424	-0.000365438369213106	-0.0031343833057978	-0.00036421328976571	-0.00315117215104335	-0.00574105204936069	-0.00458845406231498
1.3	-0.00670062615862782	0.0107302641379133	-0.000796285087783941	-0.00306009472252858	-0.000801221340508851	-0.00306774742718304	-0.00602003252994305	-0.00323758688309992
1.4	-0.0065103708844326	0.0104268623967219	-0.00122197521027023	-0.00291518708383502	-0.00122438961945916	-0.0029223149560866	-0.00573972863645393	-0.00225619112356064
1.5	-0.00606448146603247	0.0105264342291391	-0.00161399290886811	-0.00271698892419025	-0.00161202191218183	-0.00272252937732373	-0.00554276843313001	-0.00143352998045335
1.6	-0.00508315203041484	0.0109799261891154	-0.00197657495118986	-0.00246030007533823	-0.0019800440595558	-0.00246117885437967	-0.00536253099672054	-0.000112503708598283
1.7	-0.00403393961635819	0.0112821775734812	-0.00230115754805208	-0.0021661185519463	-0.00230320588390937	-0.00217470316361181	-0.00486620568847646	0.00111626945935303
1.8	-0.00300234274421056	0.0116411604556454	-0.00257794720741239	-0.00181714313573744	-0.00258312214062833	-0.00182260185400087	-0.00418835691855291	0.00220221734674467
1.9	-0.00195782790917675	0.0117541233040613	-0.00280371171638267	-0.00144800615041195	-0.00280020125749852	-0.00144181891375266	-0.00329712375154105	0.00304405250813582
2	-0.00119609009164789	0.0117964674127427	-0.00297867721432153	-0.00103594881968276	-0.00298141486761638	-0.00102910749001853	-0.00263347934570909	0.00378122932676981
2.1	-0.000217140380778911	0.0119470227767426	-0.00309346742251098	-0.0006044180011346	-0.00309556771305798	-0.000611110228739231	-0.00135125380690205	0.00471118054488457
2.2	0.000692840923313074	0.0118359986774831	-0.00314717725151183	-0.000173759082082291	-0.00314899011541331	-0.000164038006006527	0.000448202185295289	0.00493338109787744
2.3	0.00141504982463252	0.011608914528324	-0.00313899106060211	0.000268345577402025	-0.00314574384270229	0.000265437064865764	0.00221021215043481	0.0044942596155304
2.4	0.0020818688057497	0.0113788363790348	-0.00307860093120808	0.000702909852730129	-0.00307742793883979	0.000718021031124794	0.00393226637511444	0.00349091364050471
2.5	0.00248109642021786	0.0110189928566668	-0.0029431994007522	0.00113405452818807	-0.00295619554305667	0.00113535136983954	0.00499669452424966	0.00173532321428278
2.6	0.00293220851077726	0.0110988357733284	-0.00275391177901249	0.00152921306176333	-0.00277482836192526	0.00153312304904166	0.00558470857610415	0.000303594431100105
2.7	0.00365240574946867	0.011111638065582	-0.00252186779107763	0.00189849742944482	-0.00252214652122151	0.00190358251675567	0.0060459637740811	-0.00132825059571923
2.8	0.0045929687649386	0.0110788320145802	-0.00222677257835645	0.00222341064327095	-0.00223660395396554	0.00223460458599128	0.00624069419425856	-0.00297512189285585
2.9	0.00576987576818055	0.0107706691526162	-0.0018905403227349	0.00251606408389552	-0.00188861257167695	0.00252497175487503	0.00630128691049334	-0.00473458825962987
3	0.00677492446793996	0.0101949295589112	-0.00152049978436522	0.00275956791588592	-0.00153558225348837	0.00274652705587156	0.00573053889301847	-0.00652363940833444
3.1	0.00788829912349981	0.00967128354896634	-0.00112113023393082	0.00294358902861805	-0.00113807711375392	0.00294899870086745	0.00508900427887767	-0.0078728700875897
3.2	0.00880370152999308	0.00881474062728182	-0.000701552614117129	0.00306844957053065	-0.000697280543015627	0.00307925763222811	0.00407940263199184	-0.00938444483638354
3.3	0.00949254131714788	0.00786937729720003	-0.000272251177763514	0.00313993658260973	-0.000268952703523227	0.00313555509043778	0.0027308888034263	-0.0108480183457635
3.4	0.010035493273608	0.00688296483776843	0.000173266053236779	0.003148523292436	0.000163834779596942	0.00314960480755449	0.00106970514032714	-0.0123397446466994
3.5	0.0102128458806727	0.00587894419321822	0.000608012403739505	0.00309232150881452	0.000613022208622145	0.00309098828097242	-0.00150719737139365	-0.0136848442622896
3.6	0.010487264044973	0.00523834585762928	0.00102819437334626	0.00297120775481382	0.00103479614913256	0.00297469647412299	-0.00412079337405657	-0.0138261597001795
3.7	0.0107612732140581	0.00443850289490903	0.00144434646294761	0.00279472473473931	0.0014426090892417	0.00281109733424683	-0.00647949062754702	-0.0137774971347744
3.8	0.0109911830730208	0.00368659915475902	0.00181264031957782	0.00256822432423325	0.00182324527031949	0.0025745720440537	-0.00894387233772545	-0.0134760126966453
3.9	0.0112709158247188	0.0029019837268743	0.00216047223112371	0.00228988598612642	0.0021558732886705	0.00228979264138844	-0.0115183584482026	-0.012858341960246
4	0.0112981482123	0.00210081808349473	0.00245110898668502	0.00196945691027751	0.00246255240994656	0.00197558841969501	-0.0145215404591616	-0.0116093204520025
4.1	0.0115870337065942	0.00163266787273408	0.00270181414943124	0.00160389066456551	0.00271837776107543	0.00161366020632646	-0.0168128799519772	-0.0089366656896643
4.2	0.0119827033351633	0.00083506903091418	0.00290385433287324	0.00120765137957899	0.00290508791301123	0.00120993664184685	-0.0181742524773899	-0.00619736363424692
4.3	0.0122353110283237	-4.77400561135634E-05	0.00304686503046348	0.000799614839278782	0.00304805324029318	0.000808197332350228	-0.0190021121022235	-0.00353938534476527
4.4	0.0123704596024494	-0.00105747847502699	0.00312550289711656	0.000364154962038042	0.0031334199323291	0.000359517372270172	-0.0194249812016542	-0.000953477553057157
4.5	0.0121150367033679	-0.00207721093801687	0.00314844494416298	-7.915288657278E-05	0.00314525605311356	-7.68921492301061E-05	-0.0199444413115799	0.00151716520964836
4.6	0.0119217472419027	-0.00273387432610185	0.00309651980433772	-0.000524858562210806	0.00310954847278899	-0.00051287741839265	-0.01987902519595	0.00479779103289101
4.7	0.0118035192855615	-0.00351670878758873	0.0029948055212005	-0.000938414547675002	0.00299471100940048	-0.00094784843151418	-0.0189530481189411	0.00767398271726227
4.8	0.011548895466757	-0.00430481161042359	0.00284579444450907	-0.00134110809504077	0.00283814748444313	-0.00136128498415016	-0.0174987660907399	0.0103362262826097
4.9	0.0114671711913873	-0.00505526359516632	0.00263038727818538	-0.00173805783203228	0.00262431463475927	-0.0017296193913016	-0.015460751618673	0.0125245308066679
5	0.011230466180365	-0.00594516487594414	0.00235615169236881	-0.00207061381126613	0.00235890578532079	-0.00208303685200633	-0.013339968298409	0.0142711915540052
5.1	0.0113159906926042	-0.00667732701637198	0.00203400906534389	-0.00239553554608968	0.00204723775355925	-0.0023930518936901	-0.0103332166982972	0.0161268972216499
5.2	0.01128739612302	-0.00782298988375525	0.00169105320646803	-0.00265246537621892	0.00169155550309242	-0.00265662685645805	-0.00685094556368818	0.0167220839360434
5.3	0.0109759333284277	-0.00897954429525587	0.00130143980936753	-0.00286385676096451	0.0012976959034402	-0.00286643050341481	-0.0036254828933066	0.0164866643097843
5.4	0.0104770780297171	-0.0100559777929806	0.000890810911545898	-0.00302365014967899	0.000889923605907047	-0.00302610993115347	-0.000744375829433694	0.0154691942932652
5.5	0.0094677696357719	-0.0108862591180725	0.000450583399822238	-0.00311914334528978	0.000463166400704934	-0.00311912337690088	0.00097865599164879	0.014121051590928
5.6	0.00889102929589097	-0.0112156335779481	1.65059140535508E-05	-0.00314787955404231	1.32086698605915E-05	-0.0031444213787044	0.0030181132723852	0.0135005984158618
5.7	0.00818560326651018	-0.0118415947200342	-0.000416040764961437	-0.00312167808234678	-0.000419757123179193	-0.0031253674704752	0.00515727475605099	0.0119691880981599
5.8	0.00734228961423521	-0.0122959131379243	-0.000850917970138088	-0.003031767791694	-0.000850187259610884	-0.00303945186632257	0.00685942010805224	0.00978512594903804
5.9	0.00653846171673001	-0.0125802146949606	-0.0012685351277281	-0.00287906175923954	-0.00126693481999899	-0.00288321414981792	0.00800613355823534	0.00704021416161824
6	0.00541437686188078	-0.01302258557175	-0.00165686713299481	-0.00267196440710879	-0.00165087972343855	-0.00267531428867515	0.00751048100174737	0.0037418578619229
6.1	0.00452413538856089	-0.0127760001131264	-0.00201326098918777	-0.00242173931932154	-0.00200911936486597	-0.00242650296784219	0.00643639677760827	0.00211667786452253
6.2	0.00396118335982719	-0.0129797604692722	-0.00233347231743496	-0.00210677864834092	-0.00232989485836214	-0.00211544091539078	0.00584939018089322	0.00043276405955694
6.3	0.00341289780640658	-0.0133700882841625	-0.00260119899318701	-0.00176774081377401	-0.00261101150142204	-0.00177549974872269	0.00519081616782124	-0.00139207494903609
6.4	0.00277554800113162	-0.0140540397219986	-0.00282811196602216	-0.00138235556221894	-0.00282612226740121	-0.00138814943947782	0.00437019827051639	-0.00354895256176141
6.5	0.00168951634520714	-0.0147047701631466	-0.0029921694260026	-0.000981684246602147	-0.00299257379110712	-0.000980562496173215	0.00236770265786454	-0.00544102610131393
6.6	0.000967975422305214	-0.0149603610334748	-0.00309851162781642	-0.000556914006289831	-0.00310917995653534	-0.000559924612005453	0.000907381121949769	-0.0062189004304595
6.7	-1.81342395698832E-06	-0.0153327327484954	-0.00314404501004804	-0.000121827444648939	-0.00314300376855884	-0.000115587059063762	-0.000922818823731913	-0.00720343087581584
6.8	-0.00101061532100639	-0.0152736268844126	-0.00312939155539512	0.000326830187386881	-0.00312848624925215	0.00033159144197183	-0.00316420823568599	-0.00748348942169043
6.9	-0.00177840929481993	-0.0151908135274708	-0.00304712894456352	0.000756492173986997	-0.00304755379740197	0.000761476314036338	-0.0052593128018418	-0.00736329282062808
7	-0.00296872106171188	-0.0151103116790452	-0.00291900662142773	0.00117442873935519	-0.00292042385991319	0.00117764597294932	-0.00830913576488374	-0.00671091371812863
7.1	-0.00365894176842704	-0.0144357330036539	-0.00272121735174137	0.00157470127006491	-0.00272364252574257	0.0015857253943218	-0.010202505514719	-0.00395062836281457
7.2	-0.00434774446463497	-0.0142452098153054	-0.00248029432207519	0.00193635000150004	-0.00248047747768669	0.00194224765022879	-0.0108524257211634	-0.00153328811140812
7.3	-0.00532255114763869	-0.0139196155234323	-0.00218993631031785	0.00226137468356151	-0.00218717342167893	0.00226284957499015	-0.0108573018053491	0.000739343067029714
7.4	-0.00628206999487531	-0.0134856397623745	-0.00184837106523336	0.00254608640420363	-0.00184115241323934	0.00255261431354661	-0.0101698359050595	0.0024083699199402
7.5	-0.00763089177189584	-0.0131524285139584	-0.00146968286339993	0.00278336001122323	-0.00147072342291709	0.00278134405791341	-0.0100585987387004	0.00312419245696864
7.6	-0.00851435973036402	-0.0119971778543411	-0.00107453868702451	0.00295898671540353	-0.00106387608327046	0.00296933506948881	-0.00970068319368032	0.00516755950557136
7.7	-0.00904720734674269	-0.0113753904525111	-0.000645453181510338	0.00308247413201547	-0.000639888143563254	0.00308212460022243	-0.00849990502564784	0.00627615153505296
7.8	-0.00936455424807341	-0.0110726254302419	-0.000199105805080252	0.00314387855831971	-0.00021275491342458	0.00313680049143724	-0.00731137873610283	0.00714407263207888
7.9	-0.00959897308545933	-0.0110382613100341	0.000225963792889292	0.0031306510291462	0.000237057274462072	0.00313033948044863	-0.00615034090008513	0.00783095321850637
8	-0.0103961063744247	-0.0109348336246967	0.00066228617253862	0.00307265467318769	0.000670573799288259	0.00307057310170378	-0.00575182229435557	0.00889787834327447
8.1	-0.0104382510782196	-0.0103848391621307	0.00109191414570911	0.00294888186676026	0.00108963342574351	0.00294563037513121	-0.00350470736986447	0.0109809301893271
8.2	-0.0107804476463639	-0.0102203113504127	0.00148380045974809	0.00276756072396769	0.00148298070044136	0.00277914498518277	-0.000549837643820976	0.011555010140457
8.3	-0.0112720245673174	-0.00984048359112008	0.00185716939946128	0.0025349438416355	0.00186224411666727	0.00253235728685567	0.00236404096964554	0.011254393662734
8.4	-0.0116511980278729	-0.00935500673611662	0.00220388199813518	0.00225290937419297	0.0021927229213115	0.00225331421886152	0.00509791759927145	0.00986435709689217
8.5	-0.0125004739644534	-0.00891358304264656	0.00249779582807076	0.0019178663247587	0.00249780485266338	0.00191921610537991	0.00610918178665315	0.00784185343428154
8.6	-0.0128286317781126	-0.00772257531186901	0.00273065663751278	0.00155914590281043	0.0027264466752768	0.00155683690229509	0.00752283980540228	0.00713361230721289
8.7	-0.0129740883826161	-0.0070094958002516	0.0029212006476093	0.00115930195939201	0.00292003797769415	0.00115889107705489	0.00931549067083546	0.00524596282672365
8.8	-0.0131757165893508	-0.00622189058240944	0.0030498859662675	0.000740218905329968	0.00306086214297388	0.00073811164681415	0.0105478529786931	0.00265629234576696
8.9	-0.013081191664232	-0.00549862985247676	0.00312280541555707	0.000310287101266071	0.00313215429332082	0.000303152893035673	0.0113768859237986	-0.000547698733250224
9	-0.0131875407242694	-0.00511991376248668	0.00313760578622125	-0.000136820576429428	0.00314437849286774	-0.000131214401849974	0.0104815623400882	-0.00425089312035727
9.1	-0.0128459051164034	-0.00444851342969452	0.00309031123641695	-0.000571390039292079	0.00309052900319036	-0.000571582480084699	0.00924761478706412	-0.00657574308973549
9.2	-0.0125595336264201	-0.00443884395168656	0.00297427588387728	-0.000992533152045141	0.00297809517681645	-0.000992309576818313	0.00773832518269344	-0.00927506653800969
9.3	-0.0126177312211	-0.00439036798064827	0.00280205667274485	-0.00140084971540758	0.00282009741072544	-0.00140128136508339	0.00535620750828241	-0.0115732607041616
9.4	-0.0126869832325386	-0.00429970647907138	0.00258561395921242	-0.00177301557636539	0.00258894104845094	-0.00178403922634876	0.00242043652613971	-0.0134461158269174
9.5	-0.0132441376281935	-0.00389161336848675	0.00231381787671775	-0.002131476614538	0.00232861895179095	-0.00213213888228426	-0.00186398678568859	-0.0142460773031626
9.6	-0.0131868083638606	-0.00316177203305625	0.00199327732654377	-0.00243182301919175	0.00199359871502607	-0.00242481003429225	-0.0051906477961861	-0.013164868314815
9.7	-0.0133249191783643	-0.00280114683724482	0.00163216655822063	-0.00268515488104304	0.00164046087415735	-0.00268673875282745	-0.00809379020819285	-0.0122601728739728
9.8	-0.0136199279072514	-0.0022056511966379	0.00124875100153604	-0.00288150117708694	0.0012469305259028	-0.00289014906800062	-0.0109887126988347	-0.0109082579233098
9.9	-0.0137482630208698	-0.00141960231683199	0.000838300875714878	-0.00302839676132268	0.000826421587510759	-0.00303102009990464	-0.0137626964703227	-0.00929302285823578
10	-0.0142065615146473	-0.000736106033489935	0.000402876733582541	-0.00310529586539325	0.000402063523994344	-0.00311261038439323	-0.0174448144849953	-0.00715329649545017
10.1	-0.0140044989831145	0.000595935592717543	-2.88849349813648E-05	-0.00314130063607659	-3.352386799721E-05	-0.00314407129605999	-0.0198587760633044	-0.0027422626173816
10.2	-0.0135692752955544	0.00140232131330042	-0.000468599639237543	-0.00310258996629973	-0.000481194380700665	-0.00310635863894448	-0.0206931022519484	0.00139182140162642
10.3	-0.0130915785299751	0.00219086784719111	-0.000901215615542452	-0.00300037339483407	-0.000900991732392696	-0.00301375815780389	-0.0206285189954898	0.00542584978757594
10.4	-0.0123099148102021	0.00272709552217718	-0.00131043146392374	-0.00285148391629836	-0.00131359963055921	-0.00284935635131402	-0.0196080970917791	0.00869191003350236
10.5	-0.0120152672260991	0.0029189768174321	-0.00169066224296952	-0.00263273917849939	-0.00169681949735426	-0.00263999172139811	-0.0193381228472176	0.0115746284809333
10.6	-0.0112081298747156	0.0035473919958324	-0.00205048681995692	-0.00237887191000107	-0.00205198163232583	-0.00238398281343745	-0.0180237647499764	0.0159316757878573
10.7	-0.0106410477862145	0.00380709919917811	-0.00235828297038085	-0.0020663368271484	-0.00236148208301878	-0.00208236345537721	-0.0155805783396962	0.0197195673365533
10.8	-0.00997249091452937	0.00425839531753612	-0.00262494755600817	-0.00171849979442024	-0.00262201017086241	-0.00172066366049964	-0.0121878289212431	0.0232789795443193
10.9	-0.00905018750723267	0.00448308025106452	-0.0028410027450237	-0.00134162785680464	-0.00284027961771074	-0.00134674929209923	-0.00779835493708716	0.025672659352819
11	-0.00858432750775802	0.00441638984824642	-0.00300660292541407	-0.000928432539111672	-0.0029995748264952	-0.000932716837479101	-0.00412513975771581	0.02724157813119
11.1	-0.00759672101128672	0.00472344354028246	-0.00310319184554994	-0.000508894688338172	-0.00309544854095202	-0.000500592355748346	0.00107404748277265	0.0294206170808389
11.2	-0.00675364786914176	0.00434439982628726	-0.00314244141169044	-6.6807104993556E-05	-0.00314904060544132	-6.35983075295822E-05	0.00728467684312434	0.0296144234378198
11.3	-0.00615318962624198	0.00394470447329713	-0.00311945731037882	0.000373448354154758	-0.00312262139916331	0.000371282642943691	0.0136213654308469	0.0282701916720579
11.4	-0.0056519868471457	0.00347058628166716	-0.00303427629522563	0.000803691540241897	-0.00303890819556739	0.000803842056087037	0.0195794963881039	0.0251142028290173
11.5	-0.00578169772791089	0.00297476723569194	-0.00290191020365593	0.00121561178286725	-0.00289438699867572	0.00122036777353845	0.0233763066043733	0.0207033679727247
11.6	-0.00532767245181208	0.00300715691837122	-0.00269659761877855	0.00160868418568134	-0.00270471082659635	0.00161838921228639	0.0273459543072262	0.0168496814716641
11.7	-0.00491578928806876	0.0025270359266498	-0.00244325586292229	0.00197469175590103	-0.00244500599518419	0.00197838326059046	0.031072753342244	0.011237738574311
11.8	-0.00456757332745479	0.00213524812679105	-0.00214519682047766	0.00229911227859347	-0.00215440653208073	0.00230891307932391	0.0335315341913518	0.00454651645137516
11.9	-0.00408849136457319	0.00151844389400095	-0.00180495195963776	0.00257316709772237	-0.00180498185041724	0.00257973110958755	0.0341284962151739	-0.00298010086415978
12	-0.00454403020336122	0.000833352577671956	-0.00142233391793308	0.00279589327033048	-0.00142682315163791	0.00279868271531128	0.0313079798707842	-0.00993657979423077
