# GHZ S RI R 50
0.2	-0.0143041923576351	0.00424357185356687	0.00305106493656021	-0.000883416796745929	0.00306154347342196	-0.000883252371580704	0.00558708729274436	-0.00018555168556439
0.3	-0.0133740372277569	0.0051036534290847	0.00290679153363149	-0.00130013432534492	0.00290050857583673	-0.00131181170397713	0.00602635414758425	-0.00209018102114221
0.4	-0.0126219908274557	0.00630862263847493	0.00269472237368703	-0.00169624664615053	0.00269261389308321	-0.00169816758906135	0.00560406467968298	-0.00344171467611722
0.5	-0.010881138495842	0.00691918315205768	0.00242508895570865	-0.00205744123688854	0.0024279165395204	-0.00206117765934901	0.00573529258700029	-0.00509914688245672
0.6	-0.0109271287720421	0.0065559629691701	0.00211069431217435	-0.00237860714176607	0.00210995076511704	-0.00238145920725041	0.00373126835840026	-0.0074407862617426
0.7	-0.0110746308289098	0.00759099670694514	0.00176013080873388	-0.00265036790896673	0.00176636270365254	-0.002654469957769	0.00138678563448045	-0.00795868431437309
0.8	-0.0107517458693564	0.0086837048931291	0.00136557180475203	-0.00287301286394885	0.00137387641217264	-0.00287140400967195	-0.000760213715015388	-0.00794467486958767
0.9	-0.0106263112831787	0.0100653721972325	0.000958210184764203	-0.00302755640740477	0.000958192417942422	-0.0030370130967293	-0.00305322558530929	-0.00718698689304654
1	-0.00889158750414132	0.0122688388163547	0.000521575969487889	-0.00313450815078599	0.000521425191567184	-0.00313988466519767	-0.00375794927992509	-0.0051418794564538
1.1	-0.00716558090217149	0.0113902509423497	7.46563353479875E-05	-0.00317510367294585	7.55491933818714E-05	-0.00317984856398962	-0.00430796089395971	-0.00554069697123749
1.2	-0.007145707938969	0.011022404257731	-0.000367148806230616	-0.0031498007234345	-0.000365917244538918	-0.00316667206261379	-0.00587848078566732	-0.00475335024523022
1.3	-0.00715198896506107	0.0104585818084714	-0.000802022252145914	-0.00307535896203446	-0.000806987956092334	-0.00308304824869861	-0.00636581323660323	-0.00372728324342683
1.4	-0.0073432047979158	0.0101269309166299	-0.00123083125527295	-0.00292792434776226	-0.00123326456625076	-0.00293508395202544	-0.00646741398100001	-0.00283340771723387
1.5	-0.00606773031401484	0.00997475603490236	-0.00162177863825042	-0.00272932290121223	-0.00161979923969176	-0.00273488916252346	-0.00542810285338412	-0.0023520050930008
1.6	-0.00634811018035889	0.00984676829927725	-0.0019899487035327	-0.0024742122951402	-0.0019934394179712	-0.00247509454380737	-0.00659327839001561	-0.00172041280879215
1.7	-0.00562361708483835	0.0111882792159506	-0.0023188065276065	-0.00217595396332376	-0.00232088096859612	-0.00218458859715553	-0.00655365613758962	0.000534150364604564
1.8	-0.00444307975458786	0.0122296104073474	-0.00259709407801274	-0.00182256983232646	-0.0026023112335696	-0.00182805022522185	-0.00580946786038604	0.00236237975327045
1.9	-0.00307339742838331	0.0133164304121737	-0.00282270077130659	-0.0014507984725584	-0.00281915789707204	-0.00144458257592418	-0.00460216395379064	0.00427809445745361
2	-0.000213171561646977	0.0135239454113745	-0.00300215621101491	-0.00103747809672936	-0.00300489995355085	-0.00103058212911626	-0.00171802482800261	0.00523790325513939
2.1	0.000478803550775186	0.0118086592173414	-0.0031180040828957	-0.000596309819360606	-0.00312014626962443	-0.000603041437167193	-0.000658574898425747	0.00419096007866867
2.2	0.000580636688337275	0.011654438789583	-0.00316812781082646	-0.000160597906692008	-0.00316990819787904	-0.000150806329829517	0.000283068933833926	0.00428900248189563
2.3	0.000791901864960213	0.0116197478989033	-0.00315723114358602	0.000284847665775574	-0.00316403963809632	0.000281952989962594	0.00144649825646014	0.00402063314051643
2.4	0.000853757450426227	0.0121761978561444	-0.00309566309660412	0.000723189901555975	-0.00309440581123937	0.000738396347638526	0.00245717295206269	0.00386252750415053
2.5	0.0026298844747396	0.0132415114051238	-0.0029552108944414	0.0011633165790658	-0.00296828711847337	0.00116471706774236	0.00492507414225201	0.00369779093674389
2.6	0.00401007847872504	0.011907259033748	-0.00275529091510132	0.00155780361297169	-0.0027762774728957	0.00156189385400108	0.00660454458420729	0.000885103910665419
2.7	0.00448819990722119	0.0113226335692012	-0.00251892904862874	0.00192567934342558	-0.00251917118435931	0.00193078905830285	0.00691046036451174	-0.00142012231840665
2.8	0.00499222766442613	0.0109186667381074	-0.00221919961341671	0.00225062291472641	-0.00222898678256191	0.00226194307245337	0.00668047689178766	-0.00353113633499013
2.9	0.0056939165214844	0.0110194588785774	-0.00187582813837451	0.00254361048290385	-0.00187381218546614	0.00255253813106524	0.0062212379085681	-0.00491404341190915
3	0.00782123391751845	0.0105195832541834	-0.00149591732740778	0.00277946311674201	-0.00151115527544538	0.00276654826171914	0.00683150928837324	-0.00661117416381123
3.1	0.00816243617262082	0.00873102430987254	-0.00109839388541763	0.00295681857861953	-0.00111531916417781	0.00296237523474277	0.00545726634417655	-0.00942471360016626
3.2	0.0082863177782749	0.00816422138198939	-0.00067637957265223	0.00307938072117387	-0.000672008024984604	0.00309016949478697	0.00355691545538374	-0.0107333636740549
3.3	0.00853518839447173	0.00757268598476089	-0.000243534933296426	0.00314576192064193	-0.000240273452743495	0.00314134534117211	0.00163454555225898	-0.011864296250703
3.4	0.00872107756040718	0.0074196708169792	0.000203610446603385	0.00314545583774496	0.000194193796317039	0.00314662799932948	-0.000487796480858848	-0.0124357099959783
3.5	0.0103168565204279	0.0069517459220805	0.000630574581648221	0.00308278549448002	0.00063556628825157	0.00308141626699483	-0.00154778980433853	-0.0131641149735852
3.6	0.0101434314641672	0.00485687602137401	0.00105117168872094	0.00296310252272496	0.00105780019435524	0.00296653992134676	-0.00463760446563914	-0.0148838858971713
3.7	0.00939720574935055	0.00442668471990445	0.00146757273910088	0.00278048915201038	0.00146597786235663	0.00279686643686667	-0.00816419029671454	-0.0144671260169826
3.8	0.00913172510876526	0.00450002309920985	0.00183194554700111	0.00254832070280708	0.00184258821950953	0.00255456613498824	-0.0112433653099003	-0.0132194749233722
3.9	0.00945632324041107	0.00517120375551617	0.00217287688998756	0.0022678020347318	0.00216828826017884	0.00226774423321053	-0.0137883257327644	-0.0109323998091199
4	0.0119284269563677	0.00511977948752264	0.00246371210120838	0.00195090223541116	0.00247519258266976	0.0019569488700238	-0.0141772998518846	-0.00875896189319295
4.1	0.0125341360758065	0.00263888753696266	0.00271360615044991	0.00157658796350703	0.00273024146031981	0.00158619020101203	-0.0159434104182396	-0.00811371244283277
4.2	0.0122694672313378	0.00149264031859753	0.00290738339649461	0.00117724438889421	0.00290863506068091	0.00117951199054462	-0.0178701243684711	-0.00580392532973357
4.3	0.0120850949403262	0.000712047349973603	0.0030438738996848	0.000770045217113056	0.0030451340436729	0.000778588874893751	-0.0191114424969175	-0.00309616027467513
4.4	0.0119060341793763	0.000463775424533472	0.00311964272034247	0.000336511839345984	0.00312749759356133	0.000331820166169298	-0.0198561115782619	0.000298167086486686
4.5	0.0135430182533658	7.77766248521558E-05	0.00313847413094413	-0.00011350385812136	0.00313531928821665	-0.000111214632048064	-0.0182679356890608	0.00358162691091912
4.6	0.0134292668325748	-0.00267708747283776	0.00307183444956294	-0.000554843442075272	0.00308491145728869	-0.000543075779951249	-0.0177848749243491	0.00454869202883475
4.7	0.0124736953272696	-0.00386672355174892	0.00296515642619349	-0.000960215657195409	0.00296497338581324	-0.00096958319609015	-0.0176521287799135	0.00674280371184274
4.8	0.0115982855804033	-0.00475074849238003	0.00281333428710173	-0.00135702918903474	0.00280556108631141	-0.00137699264372876	-0.0168751941368044	0.00911274410931313
4.9	0.0108445369969787	-0.0049412066906148	0.00259387706090287	-0.00175014849409482	0.0025879311230739	-0.00174171554510912	-0.0155852548969019	0.011807029657842
5	0.0118872202944316	-0.00551774178314212	0.00231051930711906	-0.00207094329499744	0.00231312321109628	-0.00208325810748449	-0.0120514734009503	0.0137672127332105
5.1	0.0108433458339624	-0.00770683060788128	0.00199560852972614	-0.00238169481077011	0.00200870423474066	-0.0023793246508621	-0.0103007196111851	0.0138423847369425
5.2	0.0096595061707253	-0.00800399192405235	0.00165736292038197	-0.00263390030758829	0.00165783544676557	-0.00263802006109861	-0.00823904126388493	0.0152146262281039
5.3	0.0091845475744469	-0.00809246190539639	0.00127049275522827	-0.00283936502219257	0.00126677586385659	-0.00284188857343479	-0.00535303456015001	0.0161293126076075
5.4	0.00909159937637648	-0.00788036309290761	0.00086342755969893	-0.00298975186455941	0.000862538563600542	-0.00299217553550617	-0.00209839306060789	0.016545497321375
5.5	0.0109324810876506	-0.0088898368840148	0.000439404563557914	-0.00307712314511977	0.000451815165552973	-0.00307712363826856	0.00262999929314458	0.0150395678985773
5.6	0.00908716038852184	-0.011957160523106	1.31255763327769E-05	-0.00311276414111018	9.86864230573668E-06	-0.00310934121325423	0.00342961623529339	0.0114435096298786
5.7	0.00658660073089149	-0.0121455979916053	-0.000415490174556106	-0.00308595089747839	-0.000419169546060196	-0.00308959378702503	0.00355175288330139	0.0101943001157149
5.8	0.00473425890101243	-0.0115806827207236	-0.000842899422232245	-0.00299510672814037	-0.000842182740946768	-0.00300269988943558	0.00394990225225016	0.0090716630205537
5.9	0.00312881141805233	-0.00973912854271689	-0.001249488420355	-0.00284534666085745	-0.00124790265007177	-0.00284944624349466	0.00401644275744692	0.00875068458255363
6	0.00504274866260356	-0.00728499960533659	-0.0016350738735744	-0.00265141972271258	-0.00162913338948264	-0.00265472411036229	0.00672665954160354	0.00891270820293963
6.1	0.00632616124928655	-0.00915985599624169	-0.00199377983420456	-0.00239896652890127	-0.0019896769788325	-0.00240368429546816	0.00830817378772172	0.00518857239722823
6.2	0.00611988372410642	-0.0104540341366865	-0.00230671530192473	-0.00208591223112476	-0.00230316962387406	-0.00209447846839216	0.00828610510934677	0.00224904515082072
6.3	0.00542481014369611	-0.0119707961313172	-0.00256914494093492	-0.00175375781307616	-0.00257883429483919	-0.00176145208213334	0.00756301605128438	-0.000879853822021583
6.4	0.00412366114763935	-0.0125608899535882	-0.00279645060928755	-0.00137781523497259	-0.00279446206745934	-0.00138354687706161	0.00605374449491149	-0.00301680985801034
6.5	0.00469128126625019	-0.01402680100544	-0.00296436807543861	-0.000974900523150061	-0.00296476956816106	-0.000973789221021962	0.00592052162282376	-0.00585537837699355
6.6	0.00171694242661097	-0.0159747152026921	-0.00306019863507818	-0.000555893689296791	-0.00307073304571255	-0.00055888762587257	0.00209452676748015	-0.00874458898118932
6.7	-0.00026537077063946	-0.0153798556802122	-0.00310637036550585	-0.00013278845123764	-0.00310536605828112	-0.000126617782132119	-0.00105066294053464	-0.00886788815509276
6.8	-0.00164443267137237	-0.0148362876033247	-0.00309699219186448	0.000308005877473779	-0.00309611995900009	0.000312719829157698	-0.00387666695157673	-0.00861221846533163
6.9	-0.00282365467025902	-0.0133512754490728	-0.00301956477768402	0.000735944896123266	-0.00302000645493709	0.000740876908161264	-0.00647964616092887	-0.00688409509757633
7	-0.000655828527270679	-0.0128512153833366	-0.00288549739551726	0.0011467206333117	-0.00288690946817717	0.00114988955987954	-0.00585970315109203	-0.00572158524694527
7.1	-0.00252828360954225	-0.0156665808724839	-0.00269993863509616	0.00153275104689338	-0.00270242333981005	0.00154361713252589	-0.00887896379029165	-0.00688217813335026
7.2	-0.0052612952316531	-0.0153379442366949	-0.00247061934168573	0.00189330037421415	-0.00247085295259246	0.00189913244868616	-0.011897977711922	-0.0045867132822915
7.3	-0.00760592731279523	-0.0143819606386484	-0.00218767134432199	0.00221848950179418	-0.00218495009268674	0.00221997397746779	-0.0137213020800987	-0.00172133254915779
7.4	-0.0101848746269809	-0.0120393580721811	-0.0018514017962838	0.00250006991987785	-0.00184432567567396	0.00250659191307321	-0.0151443876873689	0.0022156169684652
7.5	-0.00896029535161726	-0.00850153047320658	-0.00149167395102897	0.00273223652342979	-0.00149267521552339	0.00273022862790768	-0.0125796886156353	0.0068028744732878
7.6	-0.00871623784816153	-0.00939185087611406	-0.00110891718529796	0.00292306011858961	-0.00109847574674519	0.00293348702450804	-0.0108216718716169	0.00706024669682484
7.7	-0.0095704262945933	-0.00853979972522986	-0.000682867171332049	0.00305486311949181	-0.000677331645779858	0.00305459044482096	-0.0097924544429322	0.0085525909437894
7.8	-0.00963184291238258	-0.00789970138160887	-0.000241215299467107	0.00312263954841992	-0.000254686657113526	0.00311541522360276	-0.00815767559856443	0.00988922352394042
7.9	-0.0091055662685483	-0.00696925084548126	0.000175807883389819	0.00311758114229656	0.000186847402260326	0.00311744472710861	-0.00570690713882748	0.0115401799304023
8	-0.00647203526435858	-0.00824336977203126	0.000611679726806043	0.00308174883586234	0.00061999670918665	0.0030798039276435	-0.00155186458137273	0.0112354418032033
8.1	-0.00857737525842665	-0.010891387788074	0.00105314313057053	0.00296281563299832	0.00105090529588018	0.00295953467111127	-0.00115422769402632	0.00932419057225485
8.2	-0.0104410349047196	-0.0103904553697809	0.00144618853361813	0.00278511455769582	0.00144521649373059	0.00279667951002	-7.68183650077004E-06	0.00993041466592954
8.3	-0.0117221712104156	-0.00958121799330138	0.00182123301916674	0.00256081804426378	0.00182634359254315	0.00255830329892604	0.00185173757950177	0.010025334081335
8.4	-0.0127730071390859	-0.00762818161563908	0.00217588176157476	0.0022906054426932	0.00216469064431961	0.002290847027765	0.0037810795997627	0.0103163435819333
8.5	-0.0102846058699657	-0.00644475297400762	0.00248676919268154	0.00195250689930697	0.0024867635981618	0.00195386207124535	0.00851602152484362	0.00913745633333996
8.6	-0.0114842433982926	-0.0088628369557008	0.00271616301960281	0.00159195351940754	0.0027119743269841	0.00158959404926939	0.00911589836012379	0.00435405340322637
8.7	-0.0137764442021651	-0.00821446227645506	0.00291257348763143	0.00119919153998906	0.00291141360417373	0.00119876488886669	0.00846674117288499	0.00216030432591429
8.8	-0.0154583833146719	-0.00672947747650939	0.00305212838238572	0.000782384231528794	0.00306317411892894	0.00078041028919136	0.00781377527880735	0.000264627347189717
8.9	-0.0167302619604419	-0.00394071157805389	0.00313599278865554	0.000346406697902254	0.00314547014546885	0.000339337729338363	0.00692117227593188	-0.000567876267517199
9	-0.0140980058409127	-0.00119507754628414	0.00314545196625927	-0.00010519936115504	0.00315218160402346	-9.95127890882259E-05	0.00879114292617324	-0.00140113340856035
9.1	-0.0134146659210542	-0.00207874992117077	0.00310956453023058	-0.000531122330183913	0.00310978574054497	-0.000531312495686857	0.00818876144686293	-0.00510322335588797
9.2	-0.0129396328808974	-0.00143397660897503	0.00300592738829107	-0.000959540812921412	0.00300976758565003	-0.000959265516747223	0.00707372573946196	-0.00711499611403957
9.3	-0.0121049261621926	-0.00143590927196746	0.00283885569190357	-0.00137811381029479	0.00285703250198699	-0.0013783367192448	0.00579608487547754	-0.00943987789916847
9.4	-0.0116674265845859	-0.00107410149121724	0.0026203023858212	-0.00175639887473432	0.00262376702753337	-0.001767454713784	0.00363545331473964	-0.0110510912810185
9.5	-0.00937277454646646	-0.00229543699415078	0.00235940148420722	-0.00211125494618618	0.00237430546424159	-0.00211170611003675	0.0027385263462037	-0.0135971667338996
9.6	-0.0118279853654005	-0.00481678450319303	0.002047417001496	-0.00243175909854139	0.00204764841283152	-0.002424665390427	-0.00300584358953732	-0.0165326405118752
9.7	-0.0141409508216369	-0.00400138120024555	0.00168105237793666	-0.00269787303882391	0.00168946013175317	-0.00269938235713585	-0.00847929501295722	-0.015589621743353
9.8	-0.015780136143112	-0.00255255887979069	0.0012930135208085	-0.00290127029301501	0.00129126251811971	-0.00291003558465018	-0.0131807823519964	-0.0134667304455776
9.9	-0.0170105626793304	0.000280134208726496	0.000883286157940653	-0.00305382279390174	0.000871299393628763	-0.00305661486773636	-0.0173966128623803	-0.00948432720523296
10	-0.0143484067109109	0.00256966755241729	0.000445006270781033	-0.00315276216459516	0.000444262756621313	-0.00316020856597399	-0.0178098999409107	-0.00540756826592647
10.1	-0.0145324510068251	0.00150696821656877	-8.1926363662261E-06	-0.00319372985698092	-1.28900331613366E-05	-0.00319657785467333	-0.020488772680696	-0.00355465985973246
10.2	-0.0151836271606148	0.00269615921210121	-0.000456966900979272	-0.00315409817840868	-0.000469736045530669	-0.00315800298033506	-0.0226117237273097	0.000890671716086027
10.3	-0.0153410789145712	0.0041446295340734	-0.000897213421585677	-0.00305489610349628	-0.00089690250033651	-0.00306849765227402	-0.0234422974695238	0.0057365793070757
10.4	-0.0150782524644221	0.00669910216414416	-0.0013192624926139	-0.00291353983116355	-0.00132250343564528	-0.00291138959826175	-0.0230789814732665	0.0114890088263989
10.5	-0.0112010182578812	0.00829586545158955	-0.00172644045465738	-0.00268581193315461	-0.00173272694472585	-0.00269320999445705	-0.0187877141293563	0.0162462469865767
10.6	-0.0100293331661434	0.00680399455091232	-0.00208753019195491	-0.00241549649968856	-0.00208905646798477	-0.00242068993263751	-0.0164581710571393	0.018313579597901
10.7	-0.0089125250074282	0.00656545338954577	-0.0023994034588981	-0.00209794187170563	-0.00240267238966721	-0.00211422964931076	-0.0133338228862968	0.0212700447672706
10.8	-0.00845435651841227	0.00580236948330091	-0.00267387941861791	-0.00174265948603926	-0.00267089586032029	-0.00174486688224452	-0.010087554113599	0.0233901409848709
10.9	-0.00854450234211061	0.00645106836345582	-0.00289790097066434	-0.00135008414100009	-0.00289719231146537	-0.0013552991610647	-0.00657258190955497	0.0262204460141447
11	-0.00530552449634854	0.00628722747444014	-0.003049794464251	-0.000919691877086766	-0.00304270867355219	-0.000924075967935452	0.000267277808317064	0.0274415733308547
11.1	-0.00611394727249267	0.00337900972430251	-0.0031456232650227	-0.000504816417185405	-0.0031377497264188	-0.00049643209692801	0.00363977982272901	0.0257271974654436
11.2	-0.00730675302965296	0.00326286453082106	-0.0031884436688193	-5.30728142196106E-05	-0.00319512379581732	-4.97864801026932E-05	0.00741423942830933	0.0257500856203174
11.3	-0.00807537138153496	0.00367369470834894	-0.00316148452742777	0.000399703848154436	-0.00316470831233745	0.000397528443831166	0.0117047267255713	0.0251074871163709
11.4	-0.00856005726464331	0.00515049378741918	-0.00306306080110771	0.000837807948034267	-0.00306774542331369	0.000837998006756116	0.0161849922259272	0.0241129420342403
11.5	-0.00554971255570557	0.00534245755007077	-0.00292881989144219	0.00124012424463846	-0.00292119623100999	0.00124490287031173	0.0232283261204315	0.0207538384714815
11.6	-0.00665220378465071	0.0028234469826882	-0.00272692514257125	0.00164812257342961	-0.00273510119327312	0.00165801791649371	0.025631984861838	0.0142183758386771
11.7	-0.00814265767031281	0.00332809754574167	-0.00246077985149165	0.00202302683062108	-0.00246252327296184	0.00202678485892956	0.0270888819691877	0.00964633621383254
11.8	-0.00880640683064962	0.00476465991057712	-0.00215004502748019	0.00234772757502596	-0.00215927621000581	0.00235773622854051	0.0282190445882147	0.00524244539440807
11.9	-0.00809516258057021	0.00767506303085231	-0.00180482884703271	0.00261620527509867	-0.00180480724718635	0.00262284295829874	0.0291054570538289	0.00206437479756361
12	-0.00260007818378657	0.00808649348812571	-0.00142109948909907	0.00285208503775493	-0.00142563596191801	0.0028549565585157	0.0333367210471277	-0.00349233762072723
