# GHZ S RI R 50
0.2	-0.0141218286864102	0.00553900939983221	0.00304411854876787	-0.000885296596137124	0.00305457699254304	-0.000885144819103472	0.00567597594433199	0.0010479134250019
0.3	-0.0132954529418666	0.00603049766087002	0.00289786775937534	-0.00130123547912206	0.00289158293988441	-0.00131287546107696	0.00600463848771094	-0.00122107475102236
0.4	-0.0125388142610762	0.00676782349474212	0.00268366160490366	-0.00169532363588696	0.00268155656491166	-0.00169723525053551	0.00559704706604553	-0.00302207537059496
0.5	-0.0117920235225745	0.00754695936788591	0.00241389491923959	-0.00205221898072749	0.00241670808024626	-0.00205594430341937	0.00481855076413705	-0.00450784182532038
0.6	-0.010987419449212	0.00829789761910189	0.00210120935527849	-0.00237215456695288	0.00210046588693678	-0.00237499600030938	0.00371002440979309	-0.0058596045326304
0.7	-0.0102814515302036	0.00898522936710294	0.00175063620026617	-0.00264195900993381	0.00175683988626862	-0.00264605163518206	0.00216207499223495	-0.00681222062925144
0.8	-0.00949754136665966	0.00965406449959776	0.00135723623599821	-0.00286170576217222	0.00136550619364109	-0.00286011086470829	0.000395044518541652	-0.00725687225483299
0.9	-0.00885081433734026	0.0102783855005592	0.000952846895229155	-0.00301363148787481	0.000952826497312556	-0.00302304381790314	-0.0014787949956999	-0.00721631174892566
1	-0.0082039011686493	0.0110835093434321	0.000519777733194477	-0.00312152900644742	0.000519628180156035	-0.0031268833755463	-0.00326743307579681	-0.00640445289214287
1.1	-0.00739054945966902	0.0118013518945542	7.27431096915318E-05	-0.00316091179628064	7.3629607227211E-05	-0.00316563586729998	-0.0045597450152737	-0.00515727538355968
1.2	-0.00655345591627145	0.0122679343431785	-0.00036571506628916	-0.00313370972601073	-0.000364492111272886	-0.00315049531918715	-0.00518794246807055	-0.00356432121145864
1.3	-0.00574876977220335	0.0122616083890175	-0.000796582535174042	-0.00305934374275673	-0.000801518924578547	-0.00306699412513445	-0.00475610356286248	-0.00209770514415487
1.4	-0.00521940468006658	0.0117497153165314	-0.00122228703446031	-0.00291395517872746	-0.00122470239023259	-0.00292108017743797	-0.00414120874802261	-0.0015527019628311
1.5	-0.00467099041466041	0.0115172389817072	-0.00161306399295147	-0.00271535669445386	-0.00161109422859134	-0.00272089387744763	-0.00382675968379074	-0.00126686833700915
1.6	-0.00407040648664433	0.0114327676597772	-0.00197548313147554	-0.00245981144052397	-0.00197895091750224	-0.0024606905223789	-0.00425137612281259	-0.000812728520437403
1.7	-0.00339443061687323	0.0116220872416691	-0.00230034870663182	-0.00216566288201717	-0.00230239585351243	-0.0021742451898318	-0.00445044641108263	0.000300788423485472
1.8	-0.00264817296528463	0.0119209163713724	-0.00257692732068105	-0.00181655396645928	-0.00258210014559357	-0.00182201082862211	-0.00423841461387392	0.00148021549718473
1.9	-0.0019200509217107	0.0121512752831977	-0.00280192379666676	-0.00144770117108299	-0.00279841633798945	-0.00144151671250711	-0.00369377170579315	0.00268829768859936
2	-0.000995119249799436	0.0125219365513125	-0.00297723391262931	-0.00103735558321361	-0.00297997469457308	-0.00103051777341856	-0.0025524083135763	0.00392352328723924
2.1	7.76249947343498E-06	0.0123639262658535	-0.00309317475367877	-0.000605195745406313	-0.00309527321239254	-0.000611888225873096	-0.00104603378016813	0.00424130980458093
2.2	0.000715253921961567	0.0122580256703216	-0.00314659308286441	-0.000174383281545123	-0.00314840765258171	-0.000164664275270361	0.000409927732155061	0.00424542188749733
2.3	0.00129382437260908	0.0120675197904624	-0.00313840207622588	0.000267282086010913	-0.00314515247434913	0.000264372035154254	0.0017829407516559	0.00380018509338866
2.4	0.00167162045429058	0.0119683941594562	-0.0030788399244356	0.000701252926943909	-0.00307767496704232	0.000716364075157911	0.00294974810465208	0.00314042958733747
2.5	0.00208482125679661	0.0122690955858044	-0.00294462257093511	0.00113399084714495	-0.0029576243255962	0.00113528587212982	0.00415285652973727	0.00253374387568781
2.6	0.00297807486234877	0.0123919472767815	-0.00275372401746264	0.0015294018261012	-0.00277463980093418	0.00153331342451107	0.00564665727806742	0.00118761973720983
2.7	0.00390002250747937	0.0123536545507932	-0.00252185411120008	0.00189801023169586	-0.00252213342826601	0.00190309479582459	0.00655835440464436	-0.000689377707489136
2.8	0.00487556595721356	0.012155069347076	-0.00222729932290278	0.00222306847531211	-0.00223713329296497	0.00223426096477497	0.00687407170736895	-0.0027328201693666
2.9	0.00586294009378684	0.0118874527865166	-0.00189110114502249	0.00251680730672977	-0.00188917282893164	0.00252571761423147	0.00674185834184188	-0.00457000699927128
3	0.00712758701151383	0.0115996537483569	-0.00151881302377312	0.00276002930861641	-0.00153390056698587	0.00274699828308714	0.00666408993645874	-0.0061614460791241
3.1	0.00833960531842167	0.0107541013742392	-0.00112063634801933	0.0029422373841782	-0.00113757551971966	0.00294764448004447	0.00621108250606667	-0.00831786753073677
3.2	0.00918546384026017	0.00984737943780351	-0.000701739205831175	0.00306766745262391	-0.000697469336237491	0.00307847352259658	0.00488800562472134	-0.0102201136681413
3.3	0.00983365587318164	0.00881188478971187	-0.000272147394762265	0.00313947153298222	-0.000268849502677138	0.00313509063121039	0.00319369069606946	-0.0119138906322938
3.4	0.010160342133883	0.00781556628282441	0.00017410564878836	0.00314724274879352	0.000164678373064246	0.00314832655904054	0.00103811336416125	-0.013326779227133
3.5	0.0105154864879001	0.00712645305144368	0.000606550113585068	0.00308927245117184	0.000611555072289551	0.00308794195407734	-0.00124848871775418	-0.0141876299717948
3.6	0.0108289439394389	0.00607319964244882	0.00102566550315505	0.0029707385890899	0.00103226212994505	0.00297423059463419	-0.00381227920699354	-0.0150796480819559
3.7	0.0107856963765117	0.00528352003613316	0.00144256885753435	0.002794761307889	0.00144082361048443	0.00281112894755778	-0.00688551525542167	-0.0151527537921043
3.8	0.010795199888692	0.00472011482560355	0.00181077933425444	0.0025681262482691	0.00182137743834791	0.00257447657790627	-0.00997073785988659	-0.0144508452800075
3.9	0.0109126371418046	0.00436871865204042	0.00215734216908285	0.00229015536313095	0.00215274615126399	0.00229005848041313	-0.0128732647791585	-0.0128670822235113
4	0.0116147858955588	0.00419697613643637	0.00244833827847241	0.00197335605903456	0.00245977341807444	0.00197950549717118	-0.0147143630577873	-0.0104905320983615
4.1	0.0124410841790783	0.00306287171890039	0.0027022343507968	0.00160692552035348	0.00271880058667719	0.00161671362902579	-0.0159771165348935	-0.00873831847716482
4.2	0.0126792555131916	0.00184791536414397	0.00290425213069887	0.00120978687255313	0.00290548485477198	0.00121207371107038	-0.0174596632675409	-0.0066916909988524
4.3	0.0126415297779407	0.000741744399782481	0.00304728221291692	0.000802073371010088	0.00304846461986149	0.000810659520885419	-0.0186737048708758	-0.00433929766817096
4.4	0.0122993764725924	-0.000216537855593897	0.00312727929152659	0.000367632700209288	0.00313520656691725	0.000363000090814402	-0.0196430045442406	-0.00152850996436388
4.5	0.0121734145631092	-0.000640336493002516	0.00315329083933711	-7.85165195147892E-05	0.00315009651534639	-7.62530837120978E-05	-0.0195824205302038	0.00184474630099055
4.6	0.0121667036777019	-0.00167306585131423	0.00309844653912721	-0.000526214844710024	0.00311148790107407	-0.000514229800953883	-0.0187720222206861	0.0042819227460171
4.7	0.0118354224779736	-0.00248113581136366	0.00299616211466596	-0.00093895911327159	0.00299606721625439	-0.000948397374442436	-0.0180501678465228	0.00659751963064396
4.8	0.0114565694975763	-0.00327007824302737	0.00284768334634578	-0.00134172342322206	0.00284003318988041	-0.00136191355765784	-0.0169381690862609	0.0089017801041089
4.9	0.0110741114185265	-0.00390914896278245	0.00263259753273647	-0.00174051612834243	0.0026265209553438	-0.00173206752107591	-0.0154968603235589	0.0111365111215715
5	0.0110865132730152	-0.00432297053964424	0.00235426100595625	-0.0020737537213145	0.00235700138754188	-0.00208618251317514	-0.0129720329277799	0.01339057101226
5.1	0.0110875806138391	-0.00543067695926943	0.00203284857891465	-0.00239525710599239	0.00204607376854529	-0.00239277718014117	-0.0101992413253141	0.0143107382918196
5.2	0.010715393216062	-0.00624220789346012	0.00169101298659829	-0.00265272750238964	0.00169151508380111	-0.00265688927435107	-0.00766246756625001	0.0151555551450804
5.3	0.0104796583643269	-0.00694424284537137	0.00130083146891676	-0.00286474484972821	0.00129708614653278	-0.00286731795133619	-0.00475910945657181	0.0157198697899503
5.4	0.0101726185586262	-0.0076675199928888	0.000888434145018737	-0.00302353569683755	0.000887545305533337	-0.00302599423582025	-0.00168768627912027	0.0156069203561747
5.5	0.0101748321297022	-0.00817628831797191	0.000450813764113752	-0.00311521976872592	0.000463381386955679	-0.00311519667464941	0.00176847708307199	0.0148072506099894
5.6	0.00972282709514165	-0.00966863198221314	1.92593364679853E-05	-0.00314740663306965	1.59595451961818E-05	-0.00314395184786382	0.00418219081042653	0.0122546373325525
5.7	0.00849818616385271	-0.0105034174600814	-0.000414493211644297	-0.0031223686963345	-0.000418208232010697	-0.00312606056462005	0.00527669951049641	0.0100979649059852
5.8	0.00730873202315954	-0.0109850390592955	-0.000849869637087067	-0.0030321011680072	-0.000849136234178028	-0.00303978507945628	0.00596236650510841	0.00799046922123327
5.9	0.00588349235809954	-0.0110575347160443	-0.00126596770416584	-0.00287890266320467	-0.00126436497985377	-0.00288305233325976	0.00590690269080223	0.0061933089500541
6	0.0050330361638626	-0.0101925162554556	-0.00165363039001341	-0.00267668273041347	-0.00164763301148801	-0.00268002509355724	0.0061703547847247	0.00550356747462028
6.1	0.00504950407741124	-0.0103583026784603	-0.00201502747165818	-0.00242573828030801	-0.00201087850548643	-0.00243050671312772	0.00722395594083817	0.0035380788105561
6.2	0.00461010211045262	-0.0108473341353426	-0.0023353886883783	-0.00210871118790718	-0.00233180772273639	-0.00211738077181934	0.00738933997636622	0.00111543366782984
6.3	0.00402941772618421	-0.0115769312766353	-0.00260251112826076	-0.00176941277132915	-0.00261232836211125	-0.00177717871572836	0.0069182349406678	-0.00159957619786395
6.4	0.00289827923923265	-0.01218398344769	-0.00283016817447925	-0.00138565736645226	-0.00282817259335376	-0.00139145600862183	0.0055492669663601	-0.00395843274257302
6.5	0.00238548420068867	-0.0123562528453318	-0.00299884196411543	-0.000982150135069003	-0.00299924657852091	-0.000981025864743537	0.0045909267333698	-0.0057414647296893
6.6	0.00138502763402446	-0.0131873667916223	-0.00310130738489335	-0.000553890271341528	-0.00311198654454593	-0.000556891236334806	0.00255131594371553	-0.00819179199689323
6.7	0.000314781255179455	-0.0132875525286323	-0.00314544922468465	-0.000120175030300351	-0.00314440415737178	-0.000113932553506579	-0.000190460434503366	-0.00921182213875949
6.8	-0.00064053085778743	-0.0133967753942134	-0.00313160793642606	0.000328020157515031	-0.00313070051799349	0.00033278466028592	-0.00298023982776906	-0.00952115096289238
6.9	-0.001960151786817	-0.0132546821215543	-0.0030506632038079	0.000760023171692616	-0.0030510845476888	0.000765014455941471	-0.00592998544884237	-0.0088069159623399
7	-0.0023934343682565	-0.0123463197179168	-0.00291702188887037	0.00118069468920803	-0.00291843265022899	0.0011839153835785	-0.00744903006292538	-0.00694205723404059
7.1	-0.00298423260448859	-0.0128671896884818	-0.00271854008607668	0.00157599465284392	-0.00272095534523798	0.001587014821271	-0.00895708437848616	-0.0064388076750364
7.2	-0.00427861884819726	-0.0127512871017259	-0.00247908281265842	0.00193764121445052	-0.00247926265399829	0.00194353866527222	-0.0110099272453618	-0.0047709361558791
7.3	-0.00557308155678801	-0.0124242491250076	-0.00218811840096553	0.00226350145639592	-0.00218535397628232	0.00226497402641866	-0.0124569826264647	-0.00255130656006466
7.4	-0.00730774846959184	-0.0119011468948313	-0.0018436090166243	0.00254737501773337	-0.00183638482445872	0.00255388870765043	-0.0137580544143564	3.7602667340285E-05
7.5	-0.00854388434053661	-0.0100614435969479	-0.00146694329219043	0.00277823582447297	-0.00146798195001111	0.00277622360257048	-0.0135674833904771	0.00404933718018202
7.6	-0.00873999964944021	-0.00936341985650138	-0.00107632870160583	0.00295718805918032	-0.001065677303595	0.00296754064244969	-0.011769936255449	0.00622800494502836
7.7	-0.00955544315101137	-0.00859254519433784	-0.000646043163587351	0.00308227371850816	-0.000640478189945292	0.00308192528804784	-0.0103660102867886	0.0078134483538551
7.8	-0.00989308235336616	-0.00793621197181564	-0.000199001321488545	0.00314300459894696	-0.000212646732265484	0.00313592871911774	-0.00860159335417935	0.00931444750286556
7.9	-0.0101742963271649	-0.00721890729046603	0.000224090487969019	0.00312816668142294	0.000235174902939252	0.00312786136361003	-0.00642003905975949	0.0109249885488926
8	-0.00913475869506105	-0.00664415113396184	0.000657359287592602	0.00307601807057488	0.000665656505128189	0.00307394957666099	-0.002856266084735	0.011864979905302
8.1	-0.00919530713553977	-0.00752981635552674	0.00109327729157357	0.00295305492872875	0.0010909935664797	0.00294979877734558	-0.000202095222583286	0.0106449205153128
8.2	-0.00985428023459355	-0.00762511787523606	0.00148586275081897	0.00276899181864181	0.00148504661825078	0.00278058462533024	0.00172552569317278	0.00999729178648071
8.3	-0.0105555882571951	-0.00752588634822964	0.00185801301513451	0.00253569236323021	0.00186308931655645	0.00253310451648982	0.00369373242774306	0.00912115142450909
8.4	-0.0116177891796358	-0.0069730372672243	0.00220446546276259	0.00225630704312719	0.00219329608991871	0.00225670531638136	0.00522981317871108	0.00813806196803848
8.5	-0.0116798346283998	-0.00557231049498596	0.0025051458995246	0.00191972927061381	0.00250515622933865	0.0019210820276761	0.00774742733035839	0.00740516486158396
8.6	-0.0117876705778188	-0.00567986627398006	0.00273447948051389	0.00155548331491158	0.00273026377748284	0.00155318000648614	0.00962908038893812	0.0041496741305611
8.7	-0.0125671547712738	-0.00513566915288407	0.00292272256864479	0.00115671149584388	0.00292155934072944	0.00115630165191959	0.0098409219584182	0.00127177693454697
8.8	-0.0131430715446816	-0.00436344681896586	0.00305184360285309	0.000738541717545356	0.00306282364510167	0.00073642613226052	0.00939813431943325	-0.00139466772519413
8.9	-0.0138211331201096	-0.00339703786227125	0.00312692670023418	0.00030651699766932	0.00313627722979443	0.00029936192332866	0.00825373812990684	-0.00343846619543272
9	-0.0135104071160426	-0.00170735033753081	0.00313557467506472	-0.000145288439517152	0.00314235906065397	-0.00013970366319078	0.00792527768126221	-0.00433648166664116
9.1	-0.0128698419241496	-0.00147824363364028	0.00308619557741885	-0.000573474393380132	0.00308641291872531	-0.00057366680347389	0.00760300771590833	-0.00674605454134852
9.2	-0.0125803186523295	-0.00101406446793979	0.00297244444679474	-0.000994013643705482	0.00297626233593734	-0.00099379257580499	0.00644184774235403	-0.00868163999346542
9.3	-0.0120947563815182	-0.000851254820712625	0.00280011868560879	-0.00140386881074052	0.00281815672421355	-0.00140432094963033	0.00512617717091761	-0.0106390188898691
9.4	-0.0121048194340073	-0.000904090195145246	0.00257951289751895	-0.00177665212648389	0.00258281415168937	-0.00178767216024038	0.00292232545125773	-0.0124927627581203
9.5	-0.0116227699112198	-0.000498903959991255	0.00230743248768054	-0.00212658666968311	0.00232219572518599	-0.00212725068524887	0.00101728091803855	-0.0135849002837589
9.6	-0.0121026334352501	-0.00123046947997943	0.00199286296000863	-0.0024290589385636	0.0019931809088178	-0.00242205116041128	-0.00255702492916819	-0.0156697004201442
9.7	-0.0130474333424297	-0.000814624128415436	0.00163060153631215	-0.00268401871139162	0.00163889076689435	-0.00268560365510516	-0.00714279292645121	-0.015648014284133
9.8	-0.0137677887972596	-0.000119195265822294	0.0012460797577698	-0.00287894798297404	0.00124425730284109	-0.00288758566431512	-0.0115252135009405	-0.0143375763252122
9.9	-0.014643492284849	0.00106390153970278	0.000837946968501859	-0.00302215948331054	0.000826091868232719	-0.00302478272551678	-0.015921482534823	-0.0115236929534277
10	-0.014275260803259	0.00301235170081743	0.000409141882342539	-0.00310434401455996	0.000408343507986985	-0.00311165985718427	-0.0181855470471183	-0.00712095010793767
10.1	-0.0137641545821567	0.00334990227172836	-2.84313262056773E-05	-0.00314310737847619	-3.30725060506465E-05	-0.00314588032217122	-0.0197936642778306	-0.00422653546779648
10.2	-0.0137410769682485	0.00411258240728052	-0.000468473238519417	-0.0031019921896263	-0.000481065488201917	-0.00310576027288916	-0.021461287670788	-0.000399436658636404
10.3	-0.0136115129963808	0.00488943890210836	-0.00089897488223853	-0.00299982058164165	-0.000898742593020364	-0.00301320018694145	-0.0223070558955636	0.00392484389528856
10.4	-0.0137154225101391	0.00599547987410583	-0.00130690179685936	-0.00285557201034395	-0.00131007555724046	-0.00285344788854943	-0.0224204748396474	0.00882481580276015
10.5	-0.0125095978886833	0.00787984653108401	-0.00169677849108297	-0.00263835733193452	-0.00170295644551502	-0.00264562434000753	-0.0199889306272497	0.0144517244104018
10.6	-0.0109606345060492	0.00820816387909949	-0.00205546729132769	-0.00237661780527493	-0.00205697137342348	-0.00238172872597585	-0.0165350994783348	0.0177637097706534
10.7	-0.00950080049739772	0.00836492421234672	-0.00236042293138189	-0.0020638259375166	-0.00236363885984245	-0.00207984896891517	-0.0127121573701028	0.0205898854737839
10.8	-0.00844614620129713	0.00776703561915673	-0.00262694777387477	-0.00171695972548064	-0.00262401125636373	-0.00171912639579097	-0.00890482772229429	0.0222494273952714
10.9	-0.00842995279278223	0.00753031074198959	-0.0028460463928791	-0.00133837189381437	-0.00284533084599862	-0.00134349967012701	-0.00562080014914887	0.0239094237963487
11	-0.00727638028981998	0.00821502725723076	-0.00300553550598797	-0.00091771179265364	-0.00299853026788732	-0.000922012570733896	-0.000484090509602832	0.025846037202264
11.1	-0.00649469625566114	0.00726522909825153	-0.00309734521952621	-0.000505167734724628	-0.00308961039480648	-0.000496888953360096	0.00439271256881041	0.0249610755982713
11.2	-0.00626426442597732	0.00696619268844816	-0.00313867979753288	-6.51435888441822E-05	-0.00314526940481722	-6.19353428215197E-05	0.00864386754138815	0.0241482399475006
11.3	-0.00584601060239285	0.00660591459532699	-0.00311612042497236	0.000376140498384024	-0.00311928361525234	0.000373979942014952	0.0130965262374977	0.0227127624653088
11.4	-0.00592121043558823	0.00637531299615531	-0.0030267736644456	0.000807686453646281	-0.00303139609476777	0.000807845203862049	0.0170626128581213	0.0206581858796751
11.5	-0.00497650545609742	0.00667995287003941	-0.0028920349465733	0.00120938657770189	-0.00288454218458734	0.00121412977000506	0.0220013409029084	0.0181856320526132
11.6	-0.0046662504551591	0.00521695975387376	-0.00269508077262911	0.00160283051497607	-0.0027031960015629	0.00161251126491331	0.0255913301154752	0.0126547099320676
11.7	-0.00529138609432419	0.00460222409421053	-0.00244164999676815	0.00197130705769388	-0.00244340015516366	0.0019749936904057	0.0272493729417295	0.00746771751377382
11.8	-0.00594793673459687	0.00461590302361225	-0.00214212281025053	0.00229473557575547	-0.00215131930844814	0.00230451770366176	0.0279997404587968	0.00265148006955322
11.9	-0.00641562849105704	0.00555731897605047	-0.00180350363060802	0.00256344267058603	-0.00180354262441307	0.00256998827764427	0.0280452717778098	-0.000991169508720795
12	-0.00462714282793822	0.00692473413853182	-0.00143113295936685	0.00279038506871539	-0.00143563007179559	0.00279315889811868	0.0301544665440937	-0.00449751332340966
