# GHZ S RI R 50
0.2	-0.014213428915651	0.00532220761540679	0.00304570873379658	-0.000884724429954679	0.00305617164014501	-0.000884569310074143	0.00557413291167932	0.000816554215265742
0.3	-0.0133802399307758	0.00587871167657839	0.00289999858483429	-0.00130085130740801	0.00289371471339882	-0.00131250025580911	0.00591618396776411	-0.00138827407149256
0.4	-0.0125958440865973	0.00670651642866286	0.00268628233055218	-0.00169548086563849	0.0026841765284038	-0.00169739470520816	0.0055497463015654	-0.00309948441546846
0.5	-0.0117316805675122	0.00735965457221281	0.00241642299321928	-0.00205318096277001	0.00241923948119782	-0.00205690847958909	0.00492378522092966	-0.00472593682631588
0.6	-0.0111799465366319	0.00807291761711038	0.00210369626232864	-0.00237334631549333	0.00210295315846717	-0.00237619027867163	0.00357588146295228	-0.00617055082237669
0.7	-0.0105335554483792	0.00892097486465632	0.00175318704443586	-0.00264378811220347	0.00175939791411325	-0.00264788234128814	0.00194598835370825	-0.00700609725422286
0.8	-0.00973539078299721	0.00970632774875826	0.00135948771936277	-0.00286425482164915	0.00136776573556093	-0.00286265581903063	0.000155961573493002	-0.00735925562376159
0.9	-0.00901200534640182	0.01048320971285	0.000954476696400101	-0.00301666863995523	0.000954458177581279	-0.00302609106093424	-0.00169294210466244	-0.00715877703715321
1	-0.00799959172405098	0.0112278466343108	0.00052111051609639	-0.00312458712363413	0.000520962184631086	-0.00312994700554977	-0.00312712560549303	-0.00633710906519703
1.1	-0.00731153672642327	0.0115464871318194	7.37370439518916E-05	-0.00316479974526358	7.46259887158032E-05	-0.0031695294044338	-0.00447956617059338	-0.00547131547376105
1.2	-0.00672312004156023	0.0118774163524638	-0.000365699620377963	-0.00313797840792773	-0.000364472308363437	-0.00315478635157874	-0.00531820638969903	-0.00403313742167535
1.3	-0.00628936787872702	0.0118449294622295	-0.000797486996522257	-0.00306362794637158	-0.000802429721394401	-0.00307128923228908	-0.00522093751097402	-0.00262790650547541
1.4	-0.00595239235476554	0.0116476220848757	-0.00122386852016181	-0.00291808026495008	-0.00122628694174444	-0.0029252153251297	-0.00479454856704749	-0.00182318655895058
1.5	-0.00527778962151677	0.0115278138074359	-0.00161552719181977	-0.00271988229335392	-0.00161355387677026	-0.00272542838252002	-0.00434925026098964	-0.00148995020986792
1.6	-0.00462896324112331	0.0117223874280604	-0.00197950697730423	-0.00246359137468504	-0.00198298098702973	-0.00246447113291417	-0.00478579942973852	-0.000832061249325023
1.7	-0.00365506770216117	0.0120189572500081	-0.00230504277437803	-0.00216844864369115	-0.00230709660390368	-0.00217704465220691	-0.00477163619598495	0.000389647797238607
1.8	-0.00268805174881514	0.0122978974218237	-0.0025821219378562	-0.00181849891806241	-0.00258730599602653	-0.00182396276578397	-0.00438759426168933	0.0015875536030772
1.9	-0.00172398609364835	0.0124466625193705	-0.00280779555522206	-0.00144889082070531	-0.00280427847490088	-0.00144269688392489	-0.00361494792111283	0.00277743452411227
2	-0.000736387518958149	0.0124016785406668	-0.00298398251882639	-0.0010367012139487	-0.00298672249760435	-0.00102984758201341	-0.00233474803152011	0.00364034408549771
2.1	-7.73470945327212E-05	0.0122764282631873	-0.0030990645204525	-0.000602899809091611	-0.00310117371976531	-0.000609601373740557	-0.0011213634182328	0.00391785609418517
2.2	0.000640817262019892	0.0123314368365201	-0.00315202116038495	-0.000171149474835525	-0.00315382786359071	-0.000161412273729214	0.000311217677505352	0.0040258754890981
2.3	0.00131971381325104	0.0122281140941518	-0.00314333872085558	0.000271682228444256	-0.00315010412454397	0.000268775786462579	0.00172307910478891	0.00365470985886499
2.4	0.00193394371295567	0.0121525564827055	-0.0030828876003291	0.00070712885843324	-0.00308169759006515	0.000722263355770128	0.0030610334472075	0.00307276529986682
2.5	0.00260411332292074	0.011976663007441	-0.00294640656076466	0.00114058657350273	-0.00295942267906913	0.0011419059745124	0.00455425887056803	0.00211460831836361
2.6	0.00302917750271484	0.0117817166688403	-0.00275468401723938	0.00153559045951283	-0.00277561918583245	0.00153953966068087	0.0056997150758022	0.000453673254109872
2.7	0.00358828064251656	0.0118499852914287	-0.0025217543631597	0.00190467982276902	-0.00252202534685593	0.00190977119635274	0.00630276914705993	-0.00137488198138235
2.8	0.00441499473984013	0.0119395102451223	-0.00222563057742888	0.0022297916734336	-0.00223545458116298	0.00224101540878444	0.00647821345464861	-0.00318897875320251
2.9	0.00555486126401801	0.0118743654972776	-0.00188766272739985	0.00252277334220151	-0.00188571483086118	0.0025316874243868	0.00648534710043415	-0.00483443872591877
3	0.00683293154185928	0.0113956517832483	-0.00151513468473514	0.00276451981657503	-0.00153025486157896	0.00275150565516907	0.00648852957829685	-0.00663450620872793
3.1	0.00782218893890153	0.0107998376096902	-0.00111620302719487	0.00294706444831553	-0.00113314791300504	0.00295250811518346	0.00582457266236387	-0.00868560590026106
3.2	0.00879272285861792	0.0101066469809872	-0.000695928202667376	0.00307149880936052	-0.000691632638065375	0.00308230440941707	0.0045552481453776	-0.0104407604856647
3.3	0.00958840752652859	0.0092031337392522	-0.00026564389850698	0.00314183488340364	-0.000262353421335776	0.00313744449484078	0.00292880683257289	-0.0120276801013121
3.4	0.0101901506331356	0.00827011872872069	0.000180420047064303	0.00314826139218557	0.000170990834749765	0.0031493643602786	0.000980805771111654	-0.0133491915637494
3.5	0.0106566949759699	0.00723916589247731	0.000613274857752076	0.00309045932405703	0.000618281035547875	0.00308911766033148	-0.00117504791337417	-0.0145194246186064
3.6	0.010774090349886	0.00635555552919125	0.00103367146102885	0.00296977017291347	0.00104028041012526	0.00297324751696294	-0.00394529151830858	-0.0153000943839226
3.7	0.0109884380150615	0.00569513413727174	0.00144998009162259	0.00279178243702963	0.0014482758105603	0.00280815840427945	-0.00685546267704958	-0.0152598444910838
3.8	0.0113059289749667	0.00501582547595048	0.00181739443825083	0.00256387062995666	0.00182800955037329	0.00257019512973027	-0.00972825630289818	-0.0146081431948057
3.9	0.011698412980554	0.0042839967721852	0.00216355000951895	0.00228498336327125	0.00215895302472585	0.00228489824672635	-0.0123959513955572	-0.0132589715905964
4	0.0120995910434271	0.00332610807715768	0.00245436490515473	0.00196554357849567	0.00246581857052125	0.00197165673311997	-0.0144049979605056	-0.0115109138377721
4.1	0.0121455576442756	0.00239280070257242	0.00270502770022023	0.00159770957014299	0.00272161087281357	0.00160744122626835	-0.0162859818074193	-0.00961875680545992
4.2	0.0122653577326357	0.00158325658217277	0.00290509339819325	0.00120064877452852	0.0029063314163783	0.00120293019146013	-0.0178631620307531	-0.00724241469913208
4.3	0.0123340370249022	0.000722509537794691	0.00304656774642574	0.000792794476775482	0.00304777296298164	0.00080136900943659	-0.0189851059532081	-0.00466192761272471
4.4	0.0122714128232876	-0.000170666463187505	0.00312464692014859	0.000357804054199196	0.00313255081573557	0.000353153178298915	-0.0196695726576893	-0.00173347695832295
4.5	0.0121394180789382	-0.00109358092692678	0.00314672239260021	-8.73988174231657E-05	0.00314354098360249	-8.5130777000375E-05	-0.0194555854484681	0.0011998293240929
4.6	0.0116202973714861	-0.00191277330796473	0.00309115424459401	-0.000532132925637666	0.00310419679157268	-0.000520200797029418	-0.0190248463794475	0.00369829472532098
4.7	0.011278100646197	-0.00240989551674354	0.00298827710529277	-0.000943794921093937	0.00298816143151675	-0.000953214701146146	-0.0183107976771651	0.0061832532966272
4.8	0.0109960091231012	-0.00294939080171727	0.00283863158468577	-0.00134522618429944	0.00283095263175986	-0.00136535629940905	-0.017141539726682	0.00863788578692202
4.9	0.010924878706106	-0.00344218818918564	0.00262220058038829	-0.00174154618950395	0.00261615725856271	-0.00173310658423158	-0.0154516816635545	0.0109783930866324
5	0.0109795551639425	-0.00420133708225447	0.00234542804458259	-0.00207138074509813	0.00234814519136964	-0.00208378060953987	-0.0128676367738268	0.0128618395097196
5.1	0.0108876529422043	-0.00494764648082373	0.00202492431985168	-0.00239290385023708	0.0020381239382724	-0.00239044841166023	-0.0102333032010616	0.0140099141383214
5.2	0.0109425623811034	-0.00576882928146772	0.0016829081679837	-0.00264877483700414	0.00168340280734878	-0.00265292718770821	-0.00741736451594267	0.0148100429280739
5.3	0.0108817640398669	-0.006800211238546	0.00129368147274616	-0.00285873707556493	0.00128994288839763	-0.00286129849280749	-0.00444885095522718	0.0151131886972817
5.4	0.0105745817976339	-0.0078433390777048	0.000883579347294081	-0.00301607380972941	0.000882690920452677	-0.00301852497522595	-0.00140168540921413	0.0148084538623072
5.5	0.00998407193920381	-0.0088765849752331	0.000447267266654047	-0.00310920588573563	0.000459809117020051	-0.00310919341409033	0.00163182024613436	0.0135615328389768
5.6	0.00902707780840244	-0.0095243699027659	1.51116373936476E-05	-0.00313956484739863	1.18245938751807E-05	-0.00313611439933904	0.00361408616482338	0.0116498864940423
5.7	0.0082482117023117	-0.00989375500767173	-0.00041655168451986	-0.00311305506132792	-0.000420259963245142	-0.00311673257320402	0.0050061965237649	0.00984566551097209
5.8	0.00757713047750195	-0.0102924972510024	-0.000849602583767426	-0.00302267179942826	-0.000848876894961752	-0.0030303339126663	0.00602790409214001	0.00784912546601491
5.9	0.00686416812094842	-0.0106160165221071	-0.00126433548343534	-0.00287044981051441	-0.00126273955574664	-0.00287458937624805	0.00653466430021071	0.00599974987956271
6	0.00617219348888222	-0.0111495027268322	-0.00165185219673735	-0.00266666064470276	-0.00164587684079263	-0.00267000011407299	0.00708714607786014	0.00423031424782021
6.1	0.00502291883369004	-0.0115881215305467	-0.00200878831727409	-0.00241570686354169	-0.00200465718386572	-0.00242045971887404	0.00726174847663233	0.00200538320717536
6.2	0.0040160635125939	-0.0117785304721576	-0.00232700147996	-0.0021011749156933	-0.00232343327130714	-0.00210981340091002	0.00701101552620461	-0.000221431981479153
6.3	0.00320261273036205	-0.0119940438123055	-0.0025932562467192	-0.00176388872682568	-0.00260303834886982	-0.00177163010218563	0.00636394066811262	-0.00255296301698107
6.4	0.00241965498080976	-0.0123006324282275	-0.00282024705750579	-0.00138103716767027	-0.00281825801395302	-0.00138681553973668	0.00533327831266267	-0.00467798462515319
6.5	0.00161435221630547	-0.0128292750395627	-0.00298546034830154	-0.000979700456667418	-0.00298586388880004	-0.00097858122406633	0.00419546707294119	-0.0069059800968921
6.6	0.000569247144339261	-0.012919860446838	-0.0030890214828194	-0.000556293403187038	-0.00309965676547991	-0.000559298591000753	0.00203289770375408	-0.00887993603584229
6.7	-0.000176164348894938	-0.0129370511403628	-0.0031346661008063	-0.000124214630926476	-0.00313363338131364	-0.000117991740314721	-0.000579496511148617	-0.0098898560863204
6.8	-0.000989590138879056	-0.0129087263687857	-0.00312132321089266	0.000322499020711752	-0.00312042559341537	0.000327248449321724	-0.00336898590383998	-0.0100277574437647
6.9	-0.00179398751789625	-0.0127669349411531	-0.00304027261630714	0.000751880583108873	-0.0030407009008982	0.000756852013198372	-0.0058781832670672	-0.00919774113968858
7	-0.00259482916035132	-0.0127472851265738	-0.00291033349970583	0.00116813747639566	-0.00291174871393485	0.00117134291061057	-0.00757724850090205	-0.00812826704010579
7.1	-0.00376868353293229	-0.012323724391202	-0.00271542190610096	0.00156471008465074	-0.0027178594948269	0.0015756946421549	-0.00959543195541625	-0.00694756145662206
7.2	-0.00451353533730875	-0.0116739504535421	-0.00247726051265491	0.00192599169060375	-0.00247745496194999	0.0019318725436581	-0.0113002126650044	-0.00492176344328564
7.3	-0.00517541737111154	-0.0111404212336214	-0.00218859168289718	0.00225094205395896	-0.0021858391407119	0.00225241851789782	-0.0124074720458265	-0.00251220854711853
7.4	-0.00586540365052011	-0.0106652446661504	-0.00184811785530856	0.00253464670383369	-0.00184093430322707	0.00254117004635501	-0.0130063619371036	0.000215202827293402
7.5	-0.00654080405975882	-0.010437249094493	-0.00147417720309288	0.0027700146218175	-0.00147520801839068	0.00276800150899635	-0.0122797891790005	0.00306506226238938
7.6	-0.00759244951188568	-0.0101037272723511	-0.00108238557124386	0.00294936252473638	-0.00107177957947418	0.00295972605478189	-0.0110597749468968	0.00504273681234328
7.7	-0.00846383940060791	-0.00954069382548811	-0.000654193234081835	0.00307474627725658	-0.000648637271317719	0.00307441530116333	-0.00966766112053686	0.00651895227148168
7.8	-0.009051583643167	-0.00919516272167392	-0.000209226414615615	0.00313751963196313	-0.00022282720022787	0.00313040888260403	-0.00799841325435978	0.00779701758044774
7.9	-0.00954151025114155	-0.00895219204370638	0.000213477019500141	0.00312615363748466	0.000224552674100057	0.00312588549658617	-0.00590600701962148	0.00894393821112841
8	-0.0101121963522182	-0.00883193687180613	0.000649202560977375	0.00307392764061613	0.00065749484775344	0.00307188150056427	-0.00337151436570436	0.00929921431583429
8.1	-0.0107843549700776	-0.00817465510144435	0.00108179903350093	0.00295145905112163	0.00107952984179448	0.00294820116330862	-0.00138355622200878	0.00919541979140652
8.2	-0.0110679546164826	-0.00753493094819783	0.00147374851519476	0.00277109349085495	0.0014728903443132	0.00278266896787187	0.000753535070213046	0.00906647044274381
8.3	-0.011380132308	-0.00702497780887595	0.00184730145095918	0.00254073395222251	0.00185238366170138	0.00253816673411306	0.00293998236780957	0.00854334635143857
8.4	-0.011736486143177	-0.0064235662542002	0.00219586017628416	0.00226202237956358	0.00218469634053903	0.00226238447289316	0.00506472049404354	0.00769564100768168
8.5	-0.0121571071424077	-0.00597910798598783	0.00249424749060058	0.00192637498292609	0.00249425270311994	0.00192772580379836	0.00738416282739621	0.00611357205672742
8.6	-0.0128928092092657	-0.00500630320082489	0.00272617435555928	0.00156723841788767	0.00272197102496319	0.00156491694443986	0.00873434747574166	0.00366194885384102
8.7	-0.013026044782508	-0.00379949125733507	0.00291814941106508	0.00116930679873829	0.00291698778795973	0.00116889194810388	0.00937942021639014	0.00123434438883234
8.8	-0.0128071017092187	-0.002800588031898	0.00304958317742088	0.000750955113712103	0.00306057423432343	0.000748883091258761	0.00941984250800183	-0.00122550150260971
8.9	-0.0123326702079714	-0.0021191325560591	0.00312534797993554	0.00031954780303121	0.00313472750106135	0.000312432465589118	0.0091233462061716	-0.00331083259031166
9	-0.0118422571083103	-0.00204515902185696	0.00313864338304069	-0.000128679003649545	0.00314540296012389	-0.00012305397361869	0.00906475982784892	-0.00541578295991347
9.1	-0.0117860038340897	-0.0020113239024263	0.00309413350972732	-0.000560794400135315	0.00309435208403755	-0.000560986183038703	0.00834909749781732	-0.00798381768248437
9.2	-0.0117162447734552	-0.00205683873389027	0.00298130938491614	-0.000983522871927357	0.00298513256229853	-0.000983285901645026	0.00705962535745608	-0.0103703436392656
9.3	-0.0119455493035718	-0.00215426941790906	0.00281051570617984	-0.00139425872345233	0.00282858437699755	-0.00139463527626084	0.00517011503182409	-0.0125444853709307
9.4	-0.0123732025729944	-0.0020573666341048	0.00259356264424667	-0.00176782951052121	0.00259692442276986	-0.00177885658877751	0.00272987759275414	-0.0142073515563111
9.5	-0.013008637547609	-0.00176301754325029	0.00232464117116965	-0.00212496056425736	0.00233946148014261	-0.00212556652928971	5.03543165381667E-05	-0.0155506239676008
9.6	-0.0137254805655588	-0.000843551792604748	0.00200669205281709	-0.00243024727435585	0.00200698881845989	-0.00242321687794151	-0.00372116954116687	-0.0164205078198642
9.7	-0.0138870710723878	0.000202206240452703	0.00164454772889359	-0.00268674866159869	0.00165286753056782	-0.00268831071958653	-0.00774893248940548	-0.016009738996324
9.8	-0.0138732343152734	0.00110049247336377	0.00126025991621067	-0.00288479944147206	0.00125846050132985	-0.00289347362866964	-0.0116765533301667	-0.0145513966443447
9.9	-0.0137542894480643	0.00195392666549603	0.000850432590917498	-0.003033017316898	0.000838532964995677	-0.00303568661620584	-0.0153270598411105	-0.0118950717872065
10	-0.0137039206088131	0.00248160603847285	0.00041500154151978	-0.00311578911509385	0.000414210157920357	-0.00312313435785637	-0.0177957116663821	-0.00864092100159894
10.1	-0.0138845519690586	0.00344580604386252	-2.20302104213069E-05	-0.00315352852918663	-2.6680961571967E-05	-0.00315632020549906	-0.0199715562698556	-0.00524944901468608
10.2	-0.0135295300996364	0.00449561987347045	-0.000463892117345233	-0.00311489601680044	-0.000476525080035973	-0.00311870452003644	-0.0214357529588769	-0.00119672005659434
10.3	-0.0129361540445529	0.00532240046629578	-0.000898287896113062	-0.00301377239063669	-0.000898034707751736	-0.00302720790633348	-0.0219783569033154	0.00327447595366123
10.4	-0.0121714546067843	0.0058682508921432	-0.00131060646644137	-0.00286728063890246	-0.00131379356156751	-0.00286514979230482	-0.0212857253138931	0.00791031412775195
10.5	-0.0115769308169425	0.00600004125316713	-0.00169797106986596	-0.0026466803552392	-0.00170415597491043	-0.00265397196618764	-0.0191157900059573	0.012047765023322
10.6	-0.0112819305609651	0.00642717624037653	-0.00205813479744897	-0.00238883243034413	-0.0020596344219859	-0.00239396407571095	-0.0166135570083364	0.0153046592467234
10.7	-0.0108183082863629	0.00686623677542341	-0.00236704213290468	-0.00207539953209719	-0.00237024872562438	-0.00209149142677682	-0.0135903379169615	0.0182415418674091
10.8	-0.0101666244056433	0.00738272918090426	-0.00263591368169874	-0.00172608285016499	-0.00263296358520364	-0.00172825559225983	-0.010197970631224	0.0208112337741163
10.9	-0.00949638546441246	0.00778771869415289	-0.0028544741126258	-0.00134555279685457	-0.0028537513875444	-0.00135069732771007	-0.00630801186385922	0.0230106295533501
11	-0.00880086435966844	0.0078884803001862	-0.00301694936241897	-0.000927884692340389	-0.00300990441344536	-0.000932190217643465	-0.00143041177897031	0.0243217440540343
11.1	-0.00827780875321455	0.00837365355364971	-0.00311346643051786	-0.000509679021819057	-0.00310569550030669	-0.000501351773755395	0.00322517474320599	0.0244201296997129
11.2	-0.00723265313063624	0.0086953298559119	-0.00315402671629483	-6.53105118947233E-05	-0.00316064838272008	-6.20862640128389E-05	0.00798288758370322	0.0239349166470707
11.3	-0.00597326436935315	0.00857662844534019	-0.00313045077193093	0.00037816547229389	-0.00313362874648587	0.000375995250978186	0.0128273849763921	0.0227023560508366
11.4	-0.00495242841449685	0.0080688809062172	-0.00304217268743349	0.000810587889558704	-0.00304681823452804	0.000810745709944212	0.0175546875161615	0.0206196298074531
11.5	-0.00437702460959616	0.00718077422454728	-0.00290948362768708	0.00122001118386439	-0.00290193794451946	0.00122477759743549	0.0222389893722501	0.0171535594124463
11.6	-0.00416291063386594	0.00665058363767987	-0.00270563433208169	0.00161693898945155	-0.00271377091791261	0.00162668742878569	0.0256706598149307	0.0124366683279476
11.7	-0.00370908048554796	0.00606425563070558	-0.00244938884982066	0.00198559679516242	-0.00245114002211164	0.00198930453701348	0.028128768034922	0.00739741862400236
11.8	-0.00333301090297281	0.00533222840013578	-0.00214824118379478	0.00231044822789619	-0.00215746408751734	0.00232029746611512	0.029747008697515	0.00219225411267975
11.9	-0.00306969841094875	0.00442971090622236	-0.00180681202597091	0.00258318961362081	-0.00180683316535174	0.0025897730320475	0.030613853104917	-0.00278787006972091
12	-0.00342566633574309	0.00336435742866921	-0.00142451843053835	0.00280959079074207	-0.00142902276212076	0.00281239807461017	0.0311803006321798	-0.00847979456439326
