# GHZ S RI R 50
0.2	-0.013666713461779	0.00558079380993856	0.00304239839935178	-0.000885722330375987	0.00305285182897045	-0.000885573560000474	0.00609393330332199	0.00106134576763883
0.3	-0.012939943502439	0.00588791620967552	0.00289565051632121	-0.00130146672758755	0.00288936541014635	-0.00131309743066657	0.00632326850864369	-0.00139079972973699
0.4	-0.0122795790613887	0.00636317901542141	0.00268079577556951	-0.00169501984017369	0.00267869168283533	-0.00169692905335536	0.00582796216264154	-0.00344750668230513
0.5	-0.0121311953669054	0.00712288238581495	0.00241103734403783	-0.00205042804042901	0.00241384697004402	-0.00205414987127553	0.00449653803124786	-0.00495582522325741
0.6	-0.0112083171481798	0.00841217857979038	0.00209921693389466	-0.00237015073735059	0.00209847398141885	-0.00237298960302628	0.00352955334848104	-0.00583744148357746
0.7	-0.0102686124688432	0.00909310739032793	0.00174868744439347	-0.00263960759542355	0.00175488476602422	-0.00264369693695647	0.00218582676679734	-0.00684626969934602
0.8	-0.00932958642757637	0.00972406405444706	0.00135562379411397	-0.00285861688570503	0.00136388472731781	-0.00285702408952997	0.000529394783797043	-0.00735159086269472
0.9	-0.00835930039879168	0.0101213814611169	0.000952244634584905	-0.00300973621882009	0.000952226048648434	-0.00301913695186077	-0.00107812464196016	-0.00751999508606016
1	-0.00798465010481267	0.0100340416323903	0.00052078921440743	-0.00311841922319394	0.000520642350826201	-0.00312376875440742	-0.00313901529042035	-0.00751508038192563
1.1	-0.00781556874177975	0.0109513127255956	7.32282446248364E-05	-0.00315817026284581	7.41147956197246E-05	-0.00316289010175081	-0.00498972983463345	-0.00604526560845781
1.2	-0.00707811545101099	0.0111859685896436	-0.000364578066031639	-0.00313053718209766	-0.000363352331766643	-0.00314730501358204	-0.00566065193897059	-0.00470127240301284
1.3	-0.00681894161882552	0.0109425027669366	-0.000794449981329478	-0.00305643917263294	-0.000799377919571235	-0.00306408353213017	-0.00571769612650677	-0.00352647293553826
1.4	-0.00662711312364678	0.0106645259270763	-0.00121947656472299	-0.0029121809132937	-0.00122188554269895	-0.00291930122800914	-0.0054358882063976	-0.00283758836898307
1.5	-0.00645718959968295	0.0110355042656624	-0.00161151160696216	-0.00271403838003614	-0.0016095418846142	-0.00271957177344983	-0.00550323739709326	-0.0020203929691015
1.6	-0.00507235739349933	0.0118643196472702	-0.00197275317183628	-0.00245739150297541	-0.00197621683425911	-0.00245827025676467	-0.00521859266239236	-0.000759670824318732
1.7	-0.00376546946937294	0.0120288529816203	-0.00229650700986563	-0.00216432353073528	-0.00229854724521744	-0.00217289682064721	-0.00488880605489862	0.000333501614763653
1.8	-0.00264573308777716	0.0121960344410821	-0.00257305050696096	-0.00181644475189473	-0.00257821431850691	-0.00182189953908802	-0.00436052943564351	0.00143116195557703
1.9	-0.00167894305209108	0.0119990943524416	-0.00279880027056811	-0.00144802966047535	-0.00279529911428136	-0.00144184842852936	-0.00358942247855913	0.00229121740016355
2	-0.0015025784380461	0.0120387491518697	-0.0029729023932659	-0.00103682193540241	-0.00297564146474144	-0.00102999417840237	-0.00309882488289269	0.00325625470269798
2.1	-0.000478444619196841	0.0127241707418934	-0.0030880757733499	-0.000607451967969681	-0.00309016440822993	-0.000614136868846716	-0.00149870806508	0.00432016011772628
2.2	0.000689654554461167	0.012722335842332	-0.0031428170175183	-0.000177818028125798	-0.00314464074672222	-0.000168112158230769	0.000372591071880334	0.00435214155964603
2.3	0.00165712028670132	0.0124554331451325	-0.00313546289639083	0.000263541545729826	-0.00314220312491854	0.000260627040770131	0.00205272062285539	0.00381536830779437
2.4	0.00254745217834106	0.0119131158942434	-0.00307574573679171	0.000697192170803975	-0.00307459788429787	0.000712285773171053	0.00364590007720371	0.00279172278407095
2.5	0.00253519673171692	0.0111240546468825	-0.00294216996629865	0.00112689470403711	-0.00295515413827767	0.00112816408912108	0.00447638622630932	0.00126437449797669
2.6	0.00270378206802063	0.0115236258921782	-0.00275500389723096	0.00152273616860277	-0.00277591362811832	0.00152660231772488	0.00540329857564165	0.000192621130826431
2.7	0.00345919579369821	0.0116796788369658	-0.00252399276813736	0.0018925067485993	-0.00252428109896355	0.00189758823098931	0.0062237804088228	-0.00156009208845588
2.8	0.00445117594132597	0.0116849970721111	-0.00223006048233193	0.00221779686906377	-0.00223990913007335	0.00222896530865396	0.00658062642216486	-0.00347091810181591
2.9	0.00557785259597923	0.0112619772010494	-0.0018953901371262	0.00251106505127964	-0.00189348252319627	0.00251997387064953	0.00660429277782298	-0.0054905236120025
3	0.00613220262531784	0.0108235254061862	-0.00152662637072699	0.00275669802164022	-0.00154168301848728	0.00274362301148389	0.00591524773810197	-0.00728636459321731
3.1	0.00735080093140371	0.010813992112196	-0.00112675579273969	0.00294185150102797	-0.00114371480022429	0.00294723021158729	0.0054782906710596	-0.00877546830402594
3.2	0.00849106881382452	0.0101287148967798	-0.000707641213707375	0.00306750439138955	-0.000703389655330822	0.00307832229066503	0.00436800716225765	-0.0105719618017888
3.3	0.00940812147407217	0.00922705062407873	-0.000278717402631935	0.00314038539293081	-0.000275408974070257	0.00313600920409479	0.00284619611642154	-0.0121853583785755
3.4	0.0101079504367402	0.00806584200748547	0.00016713371026975	0.00315086176341077	0.000157694316639118	0.00315192526575763	0.000972923997424622	-0.0137562420950656
3.5	0.00995180197593257	0.00703382969268033	0.000603542801983851	0.00309540245281192	0.000608558148462186	0.0030940762273437	-0.00183025498264979	-0.0149201095901739
3.6	0.0104133145280212	0.00684020615476785	0.00102356959004366	0.00297446771682664	0.00103016862634101	0.00297796959177861	-0.00424210033440965	-0.0150339628608382
3.7	0.011091062188986	0.00602878530174155	0.00144024835839954	0.0027993295161657	0.00143847981407267	0.00281571043532145	-0.00672008362637898	-0.0151777896504538
3.8	0.0116129277312267	0.00501734174567107	0.00180978166607137	0.00257374066680477	0.0018203851206884	0.00258011276928529	-0.00943671005074214	-0.0148614025412748
3.9	0.0119327045303274	0.00372445645698217	0.00215908348067246	0.00229547006539595	0.00215448014069725	0.00229536955490807	-0.0122161711345911	-0.0140357832259903
4	0.011319039917622	0.00269366048414504	0.0024496990208412	0.00197481466349785	0.00246114079068747	0.00198096898795705	-0.0151947472755596	-0.0123117816380714
4.1	0.0114964286534627	0.00265217957427119	0.00270164480803103	0.00161066235348857	0.00271820750036969	0.00162047334284507	-0.0169213702400663	-0.00958350116351755
4.2	0.0120210888084248	0.00192452586397434	0.00290555470407899	0.00121429038790099	0.00290678592010706	0.00121658079180392	-0.0181281377278522	-0.00714921635294938
4.3	0.0123626067704307	0.000960643305585934	0.00304982702086839	0.000805612171007523	0.00305100312926383	0.000814208522202135	-0.0190065137984474	-0.00466724914604282
4.4	0.0124562123626365	-0.000370669716098722	0.00312910661024945	0.000369648747860287	0.00313704167900819	0.000365017625832472	-0.0195472052851987	-0.00215335005273191
4.5	0.0114768689116183	-0.00152071203978387	0.0031537247231668	-7.3134477606106E-05	0.00315052622700616	-7.08762863280878E-05	-0.0201654531458635	0.000549518872752233
4.6	0.0110302427579753	-0.00154951120436048	0.00310393888735149	-0.000520906310636914	0.0031169755651483	-0.000508878473934546	-0.0196744138429665	0.00382993904573698
4.7	0.010997226424319	-0.0019621026379327	0.00300269644874073	-0.000936340948501782	0.00300261476935043	-0.000945795733850016	-0.01866190131591	0.0063938138564949
4.8	0.0109353005360597	-0.00250385753348792	0.00285399218852762	-0.00134055411085299	0.00284635340457617	-0.00136078675810401	-0.0172980018612911	0.00884299798909309
4.9	0.0110556544235198	-0.00328453919465784	0.00263916919782793	-0.00173903829369141	0.00263307063201646	-0.00173058654499171	-0.0154505512672236	0.0109041738591557
5	0.0105245092847651	-0.00403573085185817	0.00236515222461669	-0.00207480078992436	0.00236792575577298	-0.00208725909849829	-0.0134694504397606	0.0128417744413025
5.1	0.0109992558576931	-0.00423768111383133	0.00204065252438411	-0.00240169659460985	0.00205391823218336	-0.00239920130057483	-0.0102492069761191	0.0145434221246968
5.2	0.0114951169462304	-0.00544796183604461	0.00169632641538033	-0.00265949841704308	0.00169683099214013	-0.00266367138659201	-0.00701673557466625	0.0149641726993233
5.3	0.0114940926494563	-0.006923018437478	0.0013053305721448	-0.00287199145547398	0.00130157608075555	-0.00287457278453195	-0.00400542866645944	0.0148692973263735
5.4	0.0109619361530714	-0.00853194668062886	0.000892737948192515	-0.00303310162488727	0.00089184729528337	-0.00303556867463259	-0.0011623019370764	0.0140690629801325
5.5	0.00918809049657014	-0.0093128287816018	0.000449040834710717	-0.00312830805516004	0.000461659188764085	-0.00312829935805077	0.000799070541518325	0.0131102579834415
5.6	0.00887159240935917	-0.008947104129037	1.39993867545403E-05	-0.00315554748547693	1.06969224165338E-05	-0.00315207823356069	0.00346836481554123	0.0121267673328374
5.7	0.00874607770399912	-0.0095529002730734	-0.000419739263763341	-0.00312905924869291	-0.000423467985050622	-0.00313275460498274	0.00548513784096672	0.0100463345318572
5.8	0.00843630892323347	-0.0103741943777152	-0.000856289108981085	-0.00303840514928539	-0.000855564821279051	-0.00304610914365818	0.00683119911124255	0.00762798899664567
5.9	0.00793927987474657	-0.0116432025440302	-0.00127555319343061	-0.002883947402166	-0.00127395504872833	-0.00288811169313456	0.00753095702969753	0.00488212435027656
6	0.00576009953590896	-0.013171468191575	-0.00166335917059887	-0.00267464534035682	-0.00165736527984443	-0.00267800911163634	0.00664257950838089	0.00218403125808032
6.1	0.00384933016594776	-0.012656780464301	-0.00202014354507556	-0.00242454345353497	-0.0020159985928506	-0.00242932162175668	0.00613807417183672	0.000911684775047668
6.2	0.00265409790820402	-0.0124496030201531	-0.00234142650765784	-0.00210813970196894	-0.00233785319586069	-0.00211682566545485	0.00575565608087348	-0.0009571537752323
6.3	0.00182918933132399	-0.0122210549159865	-0.00260936561484293	-0.00176720035776765	-0.00261921067665443	-0.0017749594906627	0.00511228735509151	-0.0029037573187153
6.4	0.00116573826773279	-0.0125501934270831	-0.00283542836625857	-0.00138015062684168	-0.00283344468458633	-0.00138595810327462	0.00418827822439221	-0.00508642662159078
6.5	-0.000308635514582435	-0.0124020991419082	-0.00299939336285574	-0.000979536042885039	-0.00299979699404142	-0.000978411534713247	0.00239939625753988	-0.00667029543385611
6.6	-0.000206196674182391	-0.0117596266273339	-0.00310630996388084	-0.000552356035111929	-0.00311700717931842	-0.000555353332691886	0.00134972494350962	-0.00799121954388796
6.7	-0.000375220621466986	-0.0120849216548224	-0.00315040356519676	-0.000115317766568658	-0.00314934691492179	-0.000109067513391388	-0.000754228651704316	-0.00932633279086974
6.8	-0.000818728500590629	-0.0122938113643427	-0.00313409085150166	0.000334341960109605	-0.00313317340914579	0.000339109458789335	-0.00322337168643849	-0.00968091760205657
6.9	-0.00145043841409698	-0.0128596147089384	-0.00305077082820227	0.000764343531975293	-0.00305118571161377	0.000769337198625965	-0.00557816022180005	-0.00951765246715003
7	-0.00355766266544226	-0.0127326279226607	-0.0029219288852053	0.00118438747274665	-0.00292334068759993	0.00118761494936831	-0.00852432391081703	-0.00830666964330871
7.1	-0.00390908407070861	-0.0111012793134893	-0.00272056162068427	0.00158539049257747	-0.00272295689444403	0.00159643878920866	-0.00969735574301109	-0.00598192274271976
7.2	-0.00378740660633673	-0.010700615739914	-0.00247739333120577	0.00194623425901199	-0.00247755875916228	0.00195213957953495	-0.0105854001010157	-0.0042421912780231
7.3	-0.003841351364548	-0.0106142221206907	-0.00218535475533722	0.00227056178291193	-0.00218258433528308	0.0022720297751247	-0.0111559680284524	-0.00226732934640686
7.4	-0.00394035932669045	-0.0112106456631846	-0.00184191141918496	0.00255497674842123	-0.00183466328520434	0.00256148773444211	-0.0112301316942189	-0.000598216046073617
7.5	-0.00589753051375511	-0.0123348092303943	-0.00145966793213738	0.00279049925283526	-0.00146071684007578	0.00278848628096247	-0.0117645991236938	0.00104565228114847
7.6	-0.00735557438288329	-0.0113730553107562	-0.00106394777431674	0.00296265391023079	-0.00105324890134436	0.00297296375451898	-0.0108395815147817	0.00370766243364851
7.7	-0.00838911442611374	-0.0110596950593046	-0.000634725298275542	0.00308407185574275	-0.000629162583886236	0.00308370326139057	-0.00956847373881838	0.00492658618176716
7.8	-0.009323366803616	-0.0108218126893426	-0.00018809153193267	0.00314333010570223	-0.000201759872763813	0.00313630230991323	-0.00818812063122228	0.00609381879207404
7.9	-0.0103620764536459	-0.010759254981227	0.000237125539478918	0.0031274400909343	0.00024820941404793	0.00312708861661853	-0.00662590913318036	0.00707786230930703
8	-0.0123190795406316	-0.00952526147626051	0.000671095443561032	0.00306619793713881	0.000679364718407622	0.00306409302360119	-0.00528225514430264	0.00835844044424723
8.1	-0.0118836167647425	-0.00774052430725924	0.00109884836432463	0.00294226596135692	0.00109656129851803	0.00293902477784588	-0.00222991810733948	0.00931378497289081
8.2	-0.0116113889797518	-0.00718924154740551	0.00148989072204873	0.00275985035232417	0.00148910522590547	0.00277142251381383	0.000410544642957075	0.00901280420724766
8.3	-0.0116115953170853	-0.00678704972920217	0.00186168857885763	0.00252580996669101	0.0018667482667031	0.00252321267386304	0.00284608531074617	0.00833240613957451
8.4	-0.0118166228431003	-0.00674827314889488	0.00220566882087978	0.00224287854276288	0.00219453177379233	0.00224331198570051	0.0050555243140213	0.00691835591047243
8.5	-0.0135821030344933	-0.00616796311587267	0.00249771553850423	0.00190953672375471	0.00249772735916956	0.00191088428399821	0.00604689423837071	0.00550075522638624
8.6	-0.0136066328158318	-0.00384338947288191	0.00273036618519562	0.00155016985249473	0.00272615690141924	0.00154787454892904	0.00810787166067369	0.00429825170327248
8.7	-0.01286885743376	-0.00275915796499958	0.00291879075636146	0.00114998828290194	0.00291762917051826	0.00114958101624751	0.00952102338851102	0.00169612312921334
8.8	-0.0120810514105981	-0.00217694518682767	0.00304534418800761	0.00073170305728248	0.0030562930668758	0.000729574914561234	0.0100042135975054	-0.00116926007571999
8.9	-0.0112867545009855	-0.00248231062342758	0.00311705509380804	0.000303444494613297	0.00312637072239115	0.000296306241922689	0.00993322745790108	-0.00414096380993281
9	-0.012079059738564	-0.00304819227147722	0.00313165352035953	-0.000143785203836304	0.00313842694088054	-0.000138204666922141	0.00862753661914244	-0.00679518098491787
9.1	-0.0120900357662916	-0.00237895214314496	0.00308142657570771	-0.000577402971552305	0.00308164335192027	-0.000577595465959768	0.00782869759320249	-0.00870784002135976
9.2	-0.0121299800396533	-0.00247442254651585	0.00296421859133926	-0.00099588154602127	0.00296802800827739	-0.000995666322230785	0.00642670071967287	-0.0110887222512248
9.3	-0.0125073878746704	-0.00238933433410552	0.00279199180264785	-0.00140193038813703	0.00280998272632724	-0.00140239234918482	0.00442018147950476	-0.0130270030750781
9.4	-0.0130313069767999	-0.0023954192774149	0.00257583793870643	-0.00177295382712617	0.00257913717398999	-0.00178395481821996	0.00196260599399914	-0.0147615945950603
9.5	-0.0145133799486175	-0.00130662510581602	0.0023023061398287	-0.00212939425277193	0.00231705942277215	-0.0021300839310152	-0.00148183435652444	-0.0153306825930447
9.6	-0.0140028766685396	0.00058199297231231	0.00198308316968299	-0.00242597384722221	0.00198341274965199	-0.0024189857918682	-0.00399966749879147	-0.0152988340554205
9.7	-0.0133230906830491	0.00127726873448216	0.0016239452326634	-0.00267761313084732	0.00163220969945217	-0.00267919980546313	-0.00722051163868871	-0.0152838480082864
9.8	-0.0127892765365811	0.00168338746704881	0.00124206200961752	-0.00287278301478969	0.00124024035847484	-0.00288140000542943	-0.0106832692452604	-0.0143192170281253
9.9	-0.0124171255802454	0.00152562937068352	0.00083277860447629	-0.00301807871045519	0.00082094033426383	-0.00302068280334395	-0.0141352311675949	-0.0125816198127282
10	-0.0137006607873972	0.00165605755995945	0.000400927818041243	-0.00309269150261847	0.000400117193506482	-0.00309997615736195	-0.0178432235717331	-0.00963965481262846
10.1	-0.0135392676854357	0.00338108705039364	-2.76136567093846E-05	-0.00313007628339679	-3.22349680363963E-05	-0.00313283875880426	-0.0196045067388756	-0.00555539277410878
10.2	-0.0128328116788912	0.00407176977578532	-0.000465711902782378	-0.00309207343352277	-0.000478261631050752	-0.0030958342559194	-0.0207340879212501	-0.00190152358626304
10.3	-0.0121467242252446	0.00442371589931099	-0.000896371174561136	-0.00299020980696607	-0.00089614075546786	-0.00300354690523914	-0.021209201763765	0.00209781086869301
10.4	-0.0116033878296921	0.00402503216955474	-0.00130260850452012	-0.00284204960420127	-0.00130576686713022	-0.00283993326478462	-0.0207372929449717	0.00583837797908299
10.5	-0.0127360500884426	0.00407322733573876	-0.00168067471094987	-0.0026271756471997	-0.0016867996210365	-0.00263441545176812	-0.0202092756299981	0.00991021202785063
10.6	-0.0126885514889513	0.00540091624612077	-0.00204095538568022	-0.00237509227691357	-0.00204243814077034	-0.00238019065620817	-0.0178422303023687	0.0139977249749873
10.7	-0.0122786025825916	0.00639410969381557	-0.00234789995122527	-0.00206422374031724	-0.00235106282399041	-0.00208020869374306	-0.0149582998957678	0.017422364373987
10.8	-0.0115978341563596	0.00746577187169093	-0.00261409632853291	-0.00171890679414119	-0.00261116290032282	-0.00172105866880358	-0.0114361603147678	0.0203942836097364
10.9	-0.010531180377909	0.00778726621535351	-0.00283093658273247	-0.00134525846698045	-0.00283020283525446	-0.00135036584697239	-0.00727859203045201	0.022510978408357
11	-0.0108028885140466	0.00845298811431822	-0.00299927349296924	-0.000932756274944039	-0.00299224961685078	-0.000937018718114182	-0.0033336551728935	0.0243756283862014
11.1	-0.00918559696777226	0.010134786696308	-0.00309543855175563	-0.00051381122635216	-0.00308772824975919	-0.000505511956851564	0.00237131607264986	0.025527769849581
11.2	-0.0071948041910254	0.0103006914443634	-0.00313565217869316	-7.38055871160003E-05	-0.00314224472398773	-7.06185605785862E-05	0.00792266331358066	0.0248291471537037
11.3	-0.00535893781116055	0.00974442141061838	-0.0031147119040323	0.000365012795802497	-0.00311786485280134	0.000362843156505398	0.0132706207617775	0.0232272840782991
11.4	-0.00402384392096522	0.00837566566533548	-0.00303184711170828	0.000795394313161961	-0.00303647276681906	0.000795533696759443	0.018223675022597	0.0203811495534874
11.5	-0.00446194496503344	0.00744550752672071	-0.00289919063469413	0.00120739951407462	-0.00289169087645746	0.00121216251605222	0.021824935885023	0.0169392784703389
11.6	-0.00341837367581313	0.00758960598551603	-0.00269605659115896	0.00159848846651494	-0.00270418130807721	0.00160815400439281	0.0260189169728775	0.0129435832790377
11.7	-0.00228151691222054	0.00641185540796069	-0.00244547454819303	0.00196479228392002	-0.00244723286114825	0.00196847343789703	0.0290934289443241	0.00742734203977474
11.8	-0.00163896280800496	0.00480296063487793	-0.00214926868378702	0.00229028816953198	-0.00215849567721399	0.00230005116821711	0.0309594683740267	0.00149871851660285
11.9	-0.00169295351911887	0.00247448548786019	-0.00180969006293069	0.00256499380472785	-0.00180973781878576	0.0025715494433961	0.031596920112239	-0.00470470100089738
12	-0.00423916175006324	0.00155446055084795	-0.00142987321702478	0.00278698668310098	-0.00143436554880379	0.00278975671251113	0.0301012359280448	-0.0101421776305601
