# GHZ S RI R 50
0.2	-0.014258801582566	0.00437371897828906	0.0030500469529797	-0.000883691072489333	0.00306052254406041	-0.000883528497084419	0.00564888882510028	-3.6224297426003E-05
0.3	-0.013360237544283	0.00517319392670555	0.00290548119414041	-0.0013003327489605	0.00289919781042044	-0.00131200462521779	0.00605134883389502	-0.00200124568865313
0.4	-0.0125963300815158	0.00628367335825211	0.00269301514115161	-0.00169618826919352	0.00269090711901547	-0.00169810775218924	0.0056269553888595	-0.0034486484624977
0.5	-0.0110802401229919	0.00687456177739787	0.00242327045569552	-0.00205656430478952	0.00242609570564651	-0.00206029888300414	0.00549243707980685	-0.00510989212067583
0.6	-0.0110021099356166	0.0067724668227945	0.0021093189210503	-0.00237753690507756	0.00210857548903461	-0.00238038735945312	0.00359979261698913	-0.00712835855462804
0.7	-0.0109686478753373	0.00775847726700186	0.00175873445953141	-0.00264907229593655	0.00176496215169059	-0.00265317283169651	0.00146201820032844	-0.00764906409686473
0.8	-0.0105394208749392	0.00878536283940215	0.00136430751769743	-0.00287124200736196	0.00137260672577914	-0.00286963523290243	-0.000537860044288588	-0.00767470561336279
0.9	-0.0102392176747083	0.0100421743482197	0.000957463871376298	-0.0030252381864001	0.000957446082380734	-0.00303468762329825	-0.00259934526547285	-0.00705019241898986
1	-0.00860954269312369	0.0118123752989521	0.000521751633193006	-0.00313250787360284	0.000521601796240991	-0.00313788112210897	-0.00339422409445659	-0.00551909921564579
1.1	-0.00715836108782295	0.0111347056924392	7.45387732457551E-05	-0.00317320887131321	7.54309888102381E-05	-0.0031779509487225	-0.00429387120389126	-0.00574260411132067
1.2	-0.00704147036294851	0.0107656070441887	-0.000366833940435652	-0.00314753267461967	-0.000365603001021385	-0.00316439181477675	-0.00581712613574819	-0.0049303399731412
1.3	-0.007155334572492	0.0101846837618061	-0.00080104425854457	-0.00307312296687018	-0.000806005271980823	-0.00308080701875109	-0.00644969367179086	-0.00387713858062481
1.4	-0.00740250069203333	0.00996905607811831	-0.00122932658885108	-0.00292624069314868	-0.00123175660795585	-0.00293339604707577	-0.00660604759961037	-0.00281114994214014
1.5	-0.00629959267116258	0.00994550994988642	-0.00162088021050502	-0.00272787031265093	-0.00161890182342553	-0.00273343356100357	-0.00575378462227227	-0.00213954577633487
1.6	-0.00624907137837967	0.0100637060277561	-0.00198823874108271	-0.00247204883716132	-0.00199172643044301	-0.00247293029391843	-0.00651948605561787	-0.0011769040482824
1.7	-0.00536209658815884	0.0111776896247576	-0.00231626003759881	-0.00217438389204996	-0.00231833094354893	-0.00218301095608695	-0.00622633157184373	0.000856608825918208
1.8	-0.00416072716794616	0.0120661020849276	-0.00259430356156894	-0.00182176234845414	-0.0025995145713249	-0.00182723954364609	-0.00540747005618276	0.00249137651590155
1.9	-0.00277840149050419	0.0129123268278174	-0.00282015961229717	-0.00145038046227593	-0.00281662102136355	-0.0014441684846826	-0.00417940269566363	0.00409444285802776
2	-0.000365453266647525	0.0129378145146348	-0.00299882931133267	-0.00103669594645474	-0.00300157087124265	-0.00102980766015887	-0.00183331128556121	0.00482571261537857
2.1	0.000288378284465735	0.0116487935086074	-0.00311407201858413	-0.000597276044905225	-0.00311620814293343	-0.0006040009967994	-0.000866233479167491	0.0042915171261844
2.2	0.000567675759114818	0.0115470716969619	-0.00316486180682258	-0.00016245595439865	-0.00316664665419925	-0.000152675289671909	0.000293009105048432	0.00450466909356631
2.3	0.000919269078692146	0.0115122430968495	-0.00315440115961164	0.000282579036007014	-0.0031612013317996	0.000279682813435319	0.00166592342492938	0.00424834691310848
2.4	0.00121528472722214	0.0119304414308073	-0.00309276268919212	0.000720512858105208	-0.0030915160751413	0.000735703651184349	0.00298581888308892	0.00389449001635489
2.5	0.00282048358304169	0.0125242664256178	-0.00295265857487401	0.00115866719226302	-0.00296571950428163	0.00116005191947042	0.00525035355929241	0.00312250574387853
2.6	0.00390020629200771	0.0113748046038702	-0.00275504309633577	0.0015531118698138	-0.00277601803340434	0.00155717257698235	0.00649849321792951	0.000479575585426042
2.7	0.00434001909791682	0.0108778210848792	-0.00251933465067082	0.00192148960812071	-0.0025195823777023	0.00192659546854764	0.00669500027432872	-0.00168134098394568
2.8	0.00486899834593832	0.0105793841833066	-0.00222012818801307	0.00224643244929233	-0.00222992104206356	0.00225773309734663	0.00646801337267988	-0.00361786068886823
2.9	0.00568278565492415	0.0105995589841051	-0.0018777530313158	0.00253899475081111	-0.00187575083389121	0.00254791786829617	0.00613513362370143	-0.00504929108672104
3	0.00748888823974317	0.00998741552932264	-0.00150014681210948	0.00277600708830784	-0.00151535780526848	0.00276307059714691	0.00636516591147267	-0.00684316835337212
3.1	0.00787506015032632	0.00858204843885075	-0.00110190712631478	0.00295493048860388	-0.00111883643254781	0.00296046498229188	0.00500603534108501	-0.00912641889924574
3.2	0.00816460619228207	0.00804100250938625	-0.00068015786219763	0.00307752061329251	-0.000675801703479025	0.00308831161380201	0.00334369366647011	-0.0103223736268983
3.3	0.00852876425560564	0.00747782361130047	-0.000248132546488521	0.00314455204245801	-0.000244865398809304	0.00314014148963812	0.00162939073155418	-0.0113904123771882
3.4	0.00890392539040877	0.0072283074607954	0.000198334559132858	0.00314594593975992	0.000188915496237083	0.00314710233321928	-0.000222827837290024	-0.0120953536131326
3.5	0.0102673806112145	0.00656606585858008	0.000627217174218944	0.0030850204370437	0.000632212913179477	0.00308365647809127	-0.00156108454843158	-0.0130735875473847
3.6	0.0101960619090021	0.00486301319934382	0.0010480685125358	0.00296430445165265	0.00105469358218609	0.00296774896751099	-0.00454511763630031	-0.014301783672976
3.7	0.00980097712820808	0.00436683744838363	0.00146412798703834	0.00278259056522068	0.00146251200471109	0.00279896711189117	-0.0076061041712084	-0.0139228928909042
3.8	0.0097705198746975	0.00420781010304077	0.00182915418593722	0.00255145425059195	0.00183979181119729	0.00255771539179326	-0.0103423835523409	-0.0129765600651129
3.9	0.010218805642641	0.00442493796323297	0.0021716354914283	0.00227123372571224	0.00216704455640172	0.00227117111617454	-0.0127270736407307	-0.0112973429840906
4	0.0121006741817301	0.0039101741489713	0.00246239410233983	0.00195255378606647	0.00247387048898944	0.00195860812438014	-0.0138425358007416	-0.00972138686438148
4.1	0.0124326717989345	0.00188264655337646	0.00271129547295417	0.001579882085266	0.00272791669777921	0.00158950452369693	-0.016021078996727	-0.00856476743940271
4.2	0.0122893393930226	0.00085050121980716	0.00290633115559484	0.00118135810220963	0.00290758000465988	0.00118362779407093	-0.017850685821757	-0.00606813669932009
4.3	0.0122107340175707	2.88970400766818E-05	0.00304376727883707	0.000773990812064359	0.00304501729007326	0.000782538367446706	-0.0189697496850668	-0.00337483520015261
4.4	0.012142677502824	-0.000446280399362032	0.00311948511210243	0.000339929153172725	0.00312734561604149	0.00033524571402999	-0.0195862061133395	-0.00025032020488427
4.5	0.0132711835122655	-0.00122237150449923	0.00313782386713542	-0.000107888929009899	0.00313466580801019	-0.000105605937767509	-0.0186332914919311	0.00254377750944982
4.6	0.0128341070116904	-0.00347405810306593	0.00307471653911838	-0.000548912422490695	0.00308777707800877	-0.000537111445518707	-0.0186585757371652	0.0041476526780262
4.7	0.0118936302598687	-0.00442775196859672	0.0029693094245486	-0.000955774788004457	0.00296914277597551	-0.00096515041303446	-0.0185201408672522	0.00674293009570862
4.8	0.0110699529356633	-0.00506751512116967	0.0028180155910899	-0.00135357161542943	0.00281026853834934	-0.00137356522926983	-0.0176310240009583	0.00946660847674892
4.9	0.0105630484063979	-0.00515439749791361	0.00259920387102749	-0.00174682748542462	0.00259323762336747	-0.001738398534705	-0.0160154672601916	0.0122833645142971
5	0.0114130426868009	-0.00580002723144159	0.00231877729239674	-0.00206925672882166	0.0023214122728597	-0.00208158580054675	-0.0127371035370051	0.0141766731248277
5.1	0.0107041930493042	-0.00748988540567064	0.00200256266421837	-0.00238361034111978	0.00201568025322236	-0.00238121837424113	-0.0106018944695477	0.0149344212053455
5.2	0.00999018979197829	-0.00798215358719271	0.00166319065958229	-0.0026364638915001	0.00166366870909366	-0.00264059008466268	-0.00789248500339153	0.0161419931708243
5.3	0.00966139584080987	-0.00839764825258753	0.00127608475638756	-0.00284272146305987	0.00127236450390617	-0.00284525381371323	-0.00474451480318517	0.0166396547832867
5.4	0.00957614560964102	-0.00853727156272801	0.000869083069823916	-0.00299496535288497	0.000868195299737576	-0.002997395285912	-0.00147708595041776	0.0165578836633483
5.5	0.0107210498038827	-0.0097036117991424	0.000441628525671847	-0.00308501486866628	0.000454071575799395	-0.00308501102692788	0.00236923981328479	0.014843000779945
5.6	0.00916029659334854	-0.0119523650849495	1.32902144194046E-05	-0.00311838510425694	1.00272435065345E-05	-0.00311495614214342	0.0033954305862171	0.012274619711065
5.7	0.00731942386551909	-0.0122392348713271	-0.000415472501051245	-0.00309132856177856	-0.000419157307402181	-0.00309497855236863	0.0043288224558073	0.0110402487201901
5.8	0.00593627209960815	-0.0120534410423656	-0.000843770794832152	-0.00300083094552459	-0.00084305105271306	-0.00300843796588002	0.0053880920697539	0.00950860307411389
5.9	0.00479346849075777	-0.0110078435281223	-0.00125246807588813	-0.00285100273081451	-0.00125087965065855	-0.00285511095736872	0.00608827086904637	0.00818466459619919
6	0.00601713206047526	-0.0100327401390887	-0.00163880386881193	-0.00265365757614819	-0.00163285814040134	-0.00265696987558997	0.00797594144854946	0.00648943195501004
6.1	0.00606019300000752	-0.0118708754512982	-0.00199553430137353	-0.00240202012471127	-0.00199142597093456	-0.0024067423465345	0.00796442541538096	0.00278376916779828
6.2	0.00499670125823048	-0.0128320452297642	-0.00230980428461454	-0.00208962134307266	-0.00230625128701548	-0.00209819996894803	0.0069121370333649	0.000310698704164108
6.3	0.0038425580665238	-0.0135452173731133	-0.00257360052364471	-0.00175660019127407	-0.00258330673835982	-0.00176430701433753	0.00567868468842818	-0.00186809011942685
6.4	0.00277427296742068	-0.0135545001724299	-0.00280097987489172	-0.00137863809940578	-0.0027989908327463	-0.0013843786862418	0.004417463399637	-0.00335349149650262
6.5	0.00311736353660986	-0.0146564591558269	-0.00296700566958116	-0.000976823420854533	-0.00296740791901421	-0.00097571114150785	0.00391983425473864	-0.00572904414972046
6.6	0.000895255521035464	-0.0159171454287389	-0.00306601195349579	-0.000557987700473193	-0.00307656602108021	-0.00056099096218294	0.0009238609173598	-0.00761893628657075
6.7	-0.000623904823782192	-0.0155356255703594	-0.0031127372634398	-0.000132295044607986	-0.00311172939029338	-0.000126112039903443	-0.00153111810644984	-0.0078674963615918
6.8	-0.00179276637447016	-0.0150360111740293	-0.00310234495524033	0.000310154455797642	-0.00310146873398111	0.000314876346490493	-0.00397879514322295	-0.00769154754068494
6.9	-0.00258353613111832	-0.0138105697038502	-0.00302367771894575	0.000737843999277629	-0.00302411864547089	0.000742783189950227	-0.00610392712929597	-0.00637526559150708
7	-0.00112261033770021	-0.0137498348782807	-0.00289241101062325	0.00114881912003227	-0.00289382697304929	0.00115199512045107	-0.00641654435949119	-0.00576529344441955
7.1	-0.00277805136157618	-0.0155375787178726	-0.00270521055725588	0.00153906042003483	-0.00270769132955928	0.00154995576141127	-0.00930317749115165	-0.0055845913995232
7.2	-0.00478770405515788	-0.015202244706314	-0.00247352483778026	0.00189994134859394	-0.00247375235994897	0.00190578557558438	-0.0113701186153127	-0.00308111034772924
7.3	-0.00656833926235955	-0.0144305507147724	-0.00218959677538774	0.00222501121653234	-0.00218686875875156	0.0022264957468864	-0.0123071998248821	-0.000367400067390939
7.4	-0.00835908677211386	-0.0126212934552077	-0.0018534401488074	0.00250760962475794	-0.00184634151396131	0.00251414038364408	-0.0125830793657963	0.00276083881844001
7.5	-0.00743728282488752	-0.0106292074627434	-0.00148975970786172	0.00274298614015076	-0.00149076811825716	0.00274097494786498	-0.0103097915773769	0.00530020631984202
7.6	-0.0079742166096476	-0.0115440117464555	-0.0011031197766871	0.00293040771827022	-0.00109263549146849	0.00294082387037172	-0.00948446193797614	0.00535932859397859
7.7	-0.00922664298138274	-0.0109465520500916	-0.000676663563279367	0.00306031425222627	-0.000671121654342716	0.0030600284229119	-0.00904123118744228	0.00651421307416617
7.8	-0.00980940030321175	-0.0101830157286665	-0.000234382317123068	0.00312709156895694	-0.000247887009153569	0.00311988899738474	-0.00807944147731305	0.00789878851367976
7.9	-0.00958368636834996	-0.00921391549922385	0.000184579541960668	0.003121233649386	0.000195633325985312	0.00312106681793262	-0.00626142000346779	0.00950703515476607
8	-0.00794988925082905	-0.0101808300264641	0.000621557339787628	0.0030799128572311	0.000629868426845189	0.00307794128000635	-0.00342053457969081	0.00963175239671735
8.1	-0.00969415445082812	-0.0115310035576841	0.00105909296741168	0.0029599544948893	0.00105684878362183	0.00295667893850893	-0.00283140968597173	0.00958379557259972
8.2	-0.0110257480912273	-0.0109281842321432	0.00145183744040423	0.00278274871668495	0.00145088773757125	0.00279431741525216	-0.000939996562849226	0.0105616702670745
8.3	-0.0120129219447001	-0.0100825058214617	0.00182733580229991	0.00255745597052452	0.00183244213278558	0.00255492933006031	0.0014256487895153	0.0107672512874646
8.4	-0.0126449801192305	-0.0083597925223704	0.00218128680222046	0.0022843701653296	0.00217009914049743	0.00228464078242463	0.00391888781352704	0.0107171255525392
8.5	-0.0108965795783865	-0.00764545963540917	0.00248739724104346	0.00194676311535188	0.0024873937542405	0.00194811698748377	0.00769106139549549	0.00896239598803914
8.6	-0.0119813681885624	-0.0089247613289221	0.00271870001746156	0.00158820104772598	0.00271450754975581	0.00158584737309975	0.00833068674831113	0.00567362095690421
8.7	-0.0134927553699899	-0.00815849320545532	0.0029151217360251	0.00119346067954909	0.00291396093903482	0.00119303631343421	0.00872288591236539	0.00382942069326068
8.8	-0.0145675411681315	-0.00686445068064124	0.00305276838447527	0.000775411538816859	0.00306380589360065	0.000773414057245945	0.00903794632973304	0.00176092165142102
8.9	-0.0151186698462967	-0.0047272605128131	0.0031337791129554	0.000340460176438543	0.00314323520101239	0.000333380576100771	0.0092007804054091	2.032477816151E-05
9	-0.0130655767322793	-0.00329901366438134	0.00314566807673931	-0.000108965023475397	0.0031524052323853	-0.000103285865852436	0.0104536453687903	-0.00255739321037053
9.1	-0.0128815548468337	-0.0040994775704492	0.00310802341998179	-0.000538782486197314	0.00310824414347046	-0.000538973185669081	0.00915364175898712	-0.00628534270121006
9.2	-0.0129117413157117	-0.00376651571426419	0.0030009334631268	-0.000965958876153848	0.00300477091159846	-0.000965693114341004	0.00741925550571797	-0.00868038618260058
9.3	-0.0127855734370536	-0.0035320784103354	0.00283271461212814	-0.00138189087172975	0.00285086867155615	-0.00138214852610094	0.00528549178666436	-0.0108158739889689
9.4	-0.0125366904898377	-0.0028045900754859	0.00261590447787033	-0.00175850123700564	0.00261935168975282	-0.00176955298137249	0.00277101217611268	-0.012105878490041
9.5	-0.0110531845540206	-0.00352027435647921	0.00235344918626923	-0.00211676516882264	0.00236834843431199	-0.00211725423536066	0.000662307320714843	-0.014063685561938
9.6	-0.012754304164543	-0.00471793945549878	0.00203796758659296	-0.00243309659464914	0.00203821668450205	-0.00242601477532509	-0.00441590851477288	-0.0151675867364421
9.7	-0.0141731647644137	-0.00387715393466413	0.001672889594059	-0.00269642908453519	0.00168127976179587	-0.00269795207751335	-0.00873522124596111	-0.0139202831002328
9.8	-0.0151841444699065	-0.00260305061928321	0.00128604609248139	-0.00289906353028145	0.00128428268098868	-0.00290781242060298	-0.0124965044639308	-0.0119290543381481
9.9	-0.0157012136535534	-0.000352006613214904	0.000875497098834181	-0.00305201091408666	0.000863518928082018	-0.00305477324352696	-0.0157466899988313	-0.00874079619513882
10	-0.0136889655379863	0.0009670418365596	0.000435269393435977	-0.00314559337762723	0.000434507649771718	-0.00315301797799288	-0.0169582879905294	-0.00591483887561141
10.1	-0.0139408663500149	0.000434803513791757	-1.2604705254137E-05	-0.00318477353031279	-1.72929002093522E-05	-0.00318760702857398	-0.0198410959461257	-0.00339854900799596
10.2	-0.0143266893518998	0.00140871415473669	-0.000460069581807672	-0.0031459760713199	-0.000472813492352884	-0.00314985460127065	-0.0215764993955822	0.000906334951408275
10.3	-0.0143358168785847	0.00263110082172734	-0.000900057237414212	-0.00304586191982288	-0.000899769616372831	-0.00305943037734652	-0.022087878402051	0.00543992091993897
10.4	-0.0137333205906922	0.00451930394371249	-0.0013205180549223	-0.00290104243183125	-0.00132374375124761	-0.00289889312178283	-0.0212953248159082	0.0102133194018243
10.5	-0.0109128662438697	0.00505566042000243	-0.00171941256825402	-0.00267340671393979	-0.00172567287399553	-0.0026807702233677	-0.0184574547631863	0.0135856361419628
10.6	-0.0104910447133459	0.00395477539471791	-0.0020798654990298	-0.0024085521203639	-0.00208138482009788	-0.00241372945505396	-0.017237118374331	0.0162233610398186
10.7	-0.0102176579709408	0.0040463647021351	-0.00239161422700264	-0.00209220934917004	-0.00239486912611599	-0.00210844871015451	-0.0151111584456286	0.0197815153908514
10.8	-0.0100425358002819	0.00425430691104359	-0.00266469802096155	-0.00173801258038555	-0.00266172325032771	-0.00174021185474748	-0.0121570963774762	0.0231014102336791
10.9	-0.00959113615680206	0.00535716601468993	-0.00288612588789073	-0.00134867388547349	-0.00288541370032394	-0.00135386970391105	-0.00807745619986971	0.02643690059606
11	-0.00690254222451285	0.0051726506266304	-0.0030421985542355	-0.000924079287225299	-0.00303511732365055	-0.000928440890902723	-0.00202259007539566	0.0277447528346603
11.1	-0.00716553986577314	0.00350040305871423	-0.00313970152474081	-0.000505949751354821	-0.00313184740665116	-0.000497575260766591	0.00191561642549328	0.0277813163806882
11.2	-0.00751341054074654	0.00345935649264792	-0.0031809609792918	-5.53038033131744E-05	-0.00318762793831872	-5.20300749147862E-05	0.00689058778180016	0.0281937198690669
11.3	-0.00764258019003731	0.0037653148602286	-0.00315431635963839	0.000394786679552988	-0.00315752960972802	0.000392612525363905	0.0123452283570761	0.0275154753091158
11.4	-0.00743662862560801	0.00474066685476874	-0.00305939665502611	0.000830666847673142	-0.00306407363833898	0.000830847846954158	0.0179262078199933	0.0257899955152906
11.5	-0.00514728839625138	0.00430977097508836	-0.00292643830336862	0.00123794930461819	-0.00291882354631645	0.00124272593598036	0.0241719712668235	0.0214822539715527
11.6	-0.0057657756925948	0.00259207226867934	-0.0027210807984665	0.00164286341139715	-0.00272924162406792	0.00165273098027297	0.0271230587269883	0.0158145882996528
11.7	-0.00642154181739965	0.00270260640326327	-0.00245734341853668	0.00201509137412071	-0.00245908728617914	0.00201883816552914	0.0296981980342306	0.0107177030241219
11.8	-0.00652111273548521	0.00334168071771019	-0.00214955309826344	0.00233977123829475	-0.00215878205636765	0.00234974587034482	0.0315986034938385	0.00512543504271228
11.9	-0.00535298094482974	0.00467445912911293	-0.00180510315335485	0.00261094384208994	-0.00180508829275008	0.0026175728276831	0.0328543615888568	-0.000327082918934493
12	-0.00231586657272549	0.00364752890943405	-0.00141875941454232	0.00284322391593267	-0.00142328478427217	0.00284608470493492	0.0338177461362361	-0.00763671639365978
