# GHZ S RI R 50
0.2	-0.0143021567662175	0.00412868452162505	0.00305174662971168	-0.000883086429690131	0.00306222699732897	-0.000882920303096244	0.00552825023348494	-0.0003588955777055
0.3	-0.0133867841698974	0.00503616866008968	0.00290773013602095	-0.00129983886705405	0.00290144812011259	-0.00131152023365299	0.00596347036712967	-0.00221593949325487
0.4	-0.0126497118487462	0.00628561627998844	0.00269591330182274	-0.00169612332088491	0.00269380464302826	-0.00169804532141235	0.00556006067170461	-0.00351582743357995
0.5	-0.0109194041439509	0.00690400000724498	0.00242638026155372	-0.00205762407835369	0.00242920964368952	-0.00206136117786319	0.00579499285186892	-0.00519806853665632
0.6	-0.0110427069705113	0.00660660829309474	0.00211203165109767	-0.00237896520728894	0.0021112885178566	-0.00238181848736204	0.00375834372084238	-0.0076476660680305
0.7	-0.0111741062275318	0.00775530659951874	0.00176155508115948	-0.00265101092513756	0.00176779063972425	-0.00265511305326745	0.00135664986676337	-0.00818161058295668
0.8	-0.0107828831752066	0.00892567879699273	0.0013669628820738	-0.00287400729689058	0.0013752709737224	-0.00287239552083416	-0.000836527560668183	-0.00815864178864915
0.9	-0.0105418494051532	0.0103440026257281	0.000959440229152741	-0.00302885482597483	0.000959424778871667	-0.00303831631134468	-0.00316934422465026	-0.00733308028957162
1	-0.00865213963640879	0.0124260292189	0.00052270508597751	-0.00313598539598927	0.000522555704405489	-0.00314136473090261	-0.00374683693374536	-0.00518492876696466
1.1	-0.00701528129422452	0.0113501857628817	7.56634316597021E-05	-0.00317701943944312	7.65582717116036E-05	-0.00318176695681031	-0.00417103476196821	-0.00571585783763318
1.2	-0.00715410603188262	0.0108898612004598	-0.000366525899071961	-0.00315206584065523	-0.000365288804562343	-0.00316894842406391	-0.00575194497382585	-0.00507652334027278
1.3	-0.00742146965777233	0.0103313536975784	-0.000801847612896211	-0.00307785717889514	-0.000806815090843773	-0.00308555345645739	-0.00637701591892388	-0.00417892250519984
1.4	-0.00776707238999661	0.0102434610128217	-0.00123111175600431	-0.00293055723773984	-0.0012335452926524	-0.00293772314192991	-0.00663671305165569	-0.00323095432357825
1.5	-0.00645142533330868	0.010291342616956	-0.00162263184980666	-0.0027322009956866	-0.00162064934522137	-0.00273777189985627	-0.00555240400601769	-0.00272024602024721
1.6	-0.00655304912215668	0.0104240611792435	-0.00199162794251864	-0.00247691565451798	-0.0019951220227502	-0.00247779920503983	-0.00672180778714498	-0.00210216182235583
1.7	-0.005562352951278	0.0117733861655447	-0.0023210575865701	-0.00217830378685122	-0.00232313367727193	-0.00218694735720671	-0.00668204039984027	0.000170068757718713
1.8	-0.00421780861529076	0.0127197008278049	-0.00259984578761233	-0.0018245509443616	-0.00260506844748468	-0.0018300372609138	-0.0059162630949281	0.00203106967119097
1.9	-0.00275198797668499	0.0136347304242034	-0.00282602315208449	-0.00145236983524412	-0.0028224759400144	-0.00144614687963131	-0.00463711982151888	0.0039759399051581
2	-1.43916700813607E-05	0.0136009202956424	-0.00300611961662942	-0.00103818172042663	-0.00300886542684828	-0.00103127657739063	-0.00162313830255284	0.00483079697219302
2.1	0.000438311224915596	0.0119874027500689	-0.00312198923950544	-0.000596031170278836	-0.00312413620006426	-0.000602770287381692	-0.000640416648180395	0.00364015473938372
2.2	0.000544164163292484	0.0120020492136778	-0.00317206582155329	-0.000159509499688464	-0.00317384441438508	-0.000149705231057111	0.000189426747868478	0.00372437233180627
2.3	0.000874648971300876	0.0120683881658219	-0.00316098737329322	0.000286795072349776	-0.00316780574125846	0.000283900261436913	0.00127105455593149	0.00352185566056913
2.4	0.00114666141102998	0.0125928736426873	-0.00309903974159015	0.000726068151563196	-0.00309777116437462	0.000741292653247282	0.00228119567664998	0.00350607345722094
2.5	0.00301936336391547	0.0133278534953882	-0.00295766745705785	0.00116690349315573	-0.00297075742701288	0.00116831560632035	0.00494895729366554	0.00341056408293146
2.6	0.00413069906206952	0.0118287301371988	-0.00275716162153511	0.00156165885161905	-0.00277816841043175	0.0015657697959966	0.00673888209838401	0.000455479970614086
2.7	0.00440722637515495	0.011277275666048	-0.00252010478491955	0.0019300358017523	-0.00252034276727253	0.00193515149559125	0.00703371057193049	-0.00198272711893721
2.8	0.00479267100638983	0.0109876074537926	-0.00221941499300174	0.0022553064598846	-0.00222920172891011	0.00226664881107761	0.00674264237079044	-0.00416609653464562
2.9	0.00547669970474618	0.0111546318019728	-0.00187486553636186	0.00254825632630971	-0.00187283758538832	0.00255719066949765	0.0062564864506263	-0.00556314376587721
3	0.00743399115117164	0.0106388068182034	-0.00149420683376338	0.00278358465364532	-0.00150947254374157	0.0027706749668451	0.00689287298357035	-0.00734700375609242
3.1	0.00760231122812635	0.00918845289529472	-0.00109593242638366	0.00296081211776304	-0.001112866678744	0.00296639370207346	0.00540833705779124	-0.010242662311907
3.2	0.00783701266671755	0.00889234279976303	-0.000673103960270676	0.00308281293320996	-0.000668715271025783	0.00309360531652406	0.0034000838140491	-0.0115320585318246
3.3	0.00826937786757096	0.00849688840793521	-0.000239674709109142	0.00314848966059839	-0.00023641640741385	0.00314406549531506	0.0014129734404785	-0.012568819042592
3.4	0.00872140831450534	0.00841036294404513	0.000207769968143741	0.00314746194995079	0.000198348029847218	0.00314864696930698	-0.000668926845647031	-0.0129975389333008
3.5	0.0104202128604968	0.00780268800436324	0.000635204162299525	0.00308450378156996	0.000640198187407806	0.00308312676883622	-0.00154236029641535	-0.0137385126745877
3.6	0.010284629969108	0.00586139197700169	0.00105653287563032	0.0029637505115646	0.00106317173504722	0.00296718034186682	-0.00459668224295826	-0.015553555452282
3.7	0.00984385095820657	0.00547151178238013	0.00147306033224891	0.0027799642331926	0.00147149094770177	0.0027963550289601	-0.00814097377253188	-0.0151888206357779
3.8	0.00988658663951973	0.00536449738678249	0.00183738966664422	0.00254674223328643	0.00184804939892742	0.00255297332440981	-0.01123753552446	-0.0139351918222338
3.9	0.010412602524299	0.0056344676105117	0.00217825036672957	0.00226517072707412	0.00217365897650868	0.00226512122034854	-0.013717187624319	-0.0115993010449062
4	0.0126409440313422	0.00502102833287266	0.00246889991000069	0.00194662617160904	0.00248039819859297	0.0019526515121379	-0.0139398318403759	-0.00954567342422003
4.1	0.0127733857910006	0.00255674803621253	0.00271736960754304	0.00157100285036729	0.00273402785425486	0.00158057084028302	-0.0157406903840708	-0.00909187392891365
4.2	0.0123593949711956	0.00153736381706356	0.0029098126244484	0.00117097978915929	0.0029110691057992	0.0011732446379454	-0.0177775919739313	-0.0068862196516397
4.3	0.0121224693827814	0.00079080198569875	0.00304494764580635	0.000763315355038129	0.00304622601512931	0.000771854629872386	-0.0191424783584971	-0.0041951789978472
4.4	0.0119169795128936	0.000471678634996419	0.00311920099274258	0.000329453118551798	0.00312704244868734	0.00032474578404319	-0.0199346022084004	-0.000720416408097486
4.5	0.013232704829572	-0.000174802282735766	0.00313589428802069	-0.000120191403295505	0.00313274673196808	-0.000117897073000575	-0.0182605837617795	0.00251282678746069
4.6	0.0125735097497139	-0.00262959989771871	0.00306830486830555	-0.000560253671229177	0.0030813937896918	-0.000548520410162642	-0.0178975516005838	0.00336013171629827
4.7	0.0114399963231709	-0.00335327365598253	0.00296092204806942	-0.000964953991872644	0.00296072168917614	-0.000974313469345527	-0.0179438258358698	0.00558827539704659
4.8	0.0106088328523417	-0.00378602872833243	0.00280824507325414	-0.00136108269812785	0.00280044143116214	-0.00138101352348893	-0.0172822871059819	0.00812808600454911
4.9	0.0101356022488852	-0.00365950147343695	0.00258777971314254	-0.00175308635556866	0.00258185601161193	-0.00174465149185648	-0.0159470294395783	0.0110644440656397
5	0.0113132925857985	-0.00422284216574311	0.0023043643222486	-0.00207225584268552	0.00230694493084806	-0.00208456020889313	-0.0121873459644661	0.013060868332602
5.1	0.0104329909902299	-0.00604098376178921	0.00198932474568628	-0.00238234693488554	0.00200240954190566	-0.00238000153686437	-0.010375138159681	0.013069362208274
5.2	0.00974095290108533	-0.00628520496585884	0.0016507158863143	-0.00263333918176128	0.00165118075082119	-0.0026374544289127	-0.00830105821906023	0.0144111824861984
5.3	0.00959730275579251	-0.00660042561857215	0.00126395532764591	-0.00283734103791783	0.00126023966389014	-0.00283985478173833	-0.00540947236451935	0.0153630020085902
5.4	0.00965764508017457	-0.0066948122153811	0.000857578823619499	-0.00298636120978311	0.000856687578049054	-0.00298877974332226	-0.00202604288846247	0.0159104473618294
5.5	0.0112201228215068	-0.00802145528886797	0.000434174224907161	-0.00307325007766014	0.000446566565434989	-0.00307326905742348	0.00301554724727133	0.0143072261412448
5.6	0.00930256913019673	-0.0106291819019941	8.12732385334692E-06	-0.00310743887351049	4.88145519973214E-06	-0.00310401661849631	0.0039625109163275	0.0105205547303876
5.7	0.00735465910724482	-0.010697184113883	-0.00041928454766114	-0.00307935720984078	-0.000422962224571377	-0.00308298756361228	0.00419075324882174	0.00905458273816723
5.8	0.00610887605225902	-0.0104628416138972	-0.000845110491240035	-0.00298773351358961	-0.000844405375536252	-0.00299531176635321	0.00465066480196497	0.00768827927451704
5.9	0.00502003787715727	-0.00949518045631446	-0.00125016523302901	-0.0028378273623237	-0.00124858764309493	-0.00284192008055389	0.0047756201035854	0.00709461732257842
6	0.00656710840737098	-0.00865356049578415	-0.0016346127081417	-0.00264331064605327	-0.00162868994718622	-0.00264661482387637	0.00751232669892021	0.0066673206926936
6.1	0.0062295182907832	-0.0112129265958781	-0.00199084756595033	-0.00239096140926578	-0.00198675960147329	-0.00239567079378256	0.00843274820009471	0.0023280166821756
6.2	0.00451798589824111	-0.0120993025555807	-0.00230211981673352	-0.00207909814059708	-0.00229858866681735	-0.00208764464855217	0.00741901535438784	-0.000560380208565617
6.3	0.00301909605519843	-0.0124523470630071	-0.00256350501832547	-0.00174814620982672	-0.00257317360678784	-0.00175581659901637	0.0060705833589392	-0.00296380154358863
6.4	0.00187113713371717	-0.0119568938379445	-0.00279001092396935	-0.00137313728528816	-0.00278802986786343	-0.00137885536676535	0.00467991436061517	-0.00424136252714266
6.5	0.00262980143151837	-0.0128714701413881	-0.00295640582997386	-0.000971484405141829	-0.00295680594240812	-0.000970376079235778	0.00509854442860087	-0.00681701312004026
6.6	0.000194508679448938	-0.0140157010465424	-0.00305208923951432	-0.000554623991381297	-0.00306259566484531	-0.000557610706981091	0.00158279856784758	-0.00977033597125731
6.7	-0.00107681916199027	-0.0132469905844893	-0.00309832339720264	-0.00013281261876681	-0.00309732241647212	-0.000126657784635821	-0.00148897114004629	-0.00997487742416493
6.8	-0.00196460009997945	-0.0127087708964853	-0.0030888333717794	0.000306620353881885	-0.00308796431791594	0.000311321960993639	-0.00429766236331589	-0.00962319420586394
6.9	-0.00266360173627053	-0.0114010541326141	-0.00301126971429834	0.000732805153069568	-0.00301171186428644	0.00073772304184085	-0.00668952346826827	-0.0076666910462138
7	-0.00066968155911171	-0.0113752528085663	-0.00287839056287875	0.00114111135852088	-0.00287980133120729	0.00114427025352569	-0.00563712595404395	-0.00662951136250139
7.1	-0.00267369520344248	-0.01355635317148	-0.00269432651258898	0.00152646208490481	-0.00269681427080422	0.00153729806285765	-0.00850569198682881	-0.00801772689761479
7.2	-0.00474003045848722	-0.0128659262366116	-0.00246603780938109	0.00188592530422962	-0.00246627655749701	0.00189174192946944	-0.0114945448670035	-0.00593223902240602
7.3	-0.00621098323116959	-0.0119411377335507	-0.00218464638925998	0.00221005557086928	-0.00218193403301429	0.00221153946437536	-0.0133591712848116	-0.00315307117491717
7.4	-0.00767903525253088	-0.0101270206014258	-0.00185059620829241	0.00249102467215653	-0.00184354764020509	0.00249754119251025	-0.0147395058215377	0.000871036218368107
7.5	-0.00601885246286644	-0.00832020436880025	-0.00149264862677939	0.00272422283789922	-0.00149364475025991	0.00272221766784558	-0.0117576538414195	0.00515659462810104
7.6	-0.00668249568942906	-0.0102301302781467	-0.00111052094787686	0.00291487053170832	-0.00110011787219416	0.00292528850679582	-0.0101453047240076	0.00486203529506629
7.7	-0.00832532685994903	-0.00990159165825322	-0.000686185219044028	0.00304661870387139	-0.000680662202988385	0.0030463555738101	-0.00967920730933337	0.00613316782770978
7.8	-0.00929554874912471	-0.0092300224016169	-0.000246543875154725	0.00311497951312397	-0.000259970532410623	0.00310774646910312	-0.00846159619966919	0.00775151410087852
7.9	-0.00949050836599139	-0.00803899411742367	0.000168904407544594	0.00311148220885248	0.000179921310185131	0.00311136923072652	-0.00604804046992428	0.00981141862697244
8	-0.00774205975802853	-0.0091037787025822	0.000604076225282817	0.00307667444543506	0.000612380118662277	0.00307475066193892	-0.00146782890264926	0.00930451061905754
8.1	-0.0101648655377537	-0.0103231699467054	0.00104358946032939	0.00295914120862582	0.00104136447554666	0.00295586166730342	-0.00113884504602552	0.00732743669088058
8.2	-0.0116548778624428	-0.00919939342801811	0.00143588840830769	0.00278415066203196	0.00143488605321401	0.00279569227562012	-0.000173519381575549	0.00778073871611465
8.3	-0.0126257950615395	-0.0080680775514712	0.00181133732429057	0.00256238128618904	0.00181644782068019	0.00255988469962305	0.00140790259377394	0.00795914538057976
8.4	-0.0133158538906601	-0.00602306656423058	0.00216704672214714	0.00229380948970725	0.00215586827161375	0.00229402028003003	0.00327422284234555	0.00860091769155831
8.5	-0.0110910909912352	-0.00506134797224717	0.00247789009447325	0.001957048196204	0.00247788062604979	0.00195840156075509	0.00826534736072988	0.00752585675846124
8.6	-0.0124438147808672	-0.00654908015382424	0.00270873256029568	0.00159893440455628	0.00270455502968757	0.00159656408144607	0.00900932780799482	0.00272312176803686
8.7	-0.0139513406937132	-0.0052748756029009	0.00290706955965186	0.00120719046734481	0.00290591171456425	0.00120676059774001	0.00841069241401737	0.000438145228203474
8.8	-0.0146237804404748	-0.0037373349348303	0.00304820817617787	0.000790886498861937	0.0030592537709857	0.000788945898195049	0.00771018246056589	-0.00149000656407934
8.9	-0.0148042191365812	-0.00159435279805138	0.00313308511258736	0.000355395199258274	0.00314257748473151	0.000348358290777039	0.00687243750748214	-0.00222190950391723
9	-0.0121071932837935	-0.000393134951084308	0.0031446205039491	-9.46946864556689E-05	0.00315132869395081	-8.89878604973747E-05	0.00897928672367847	-0.00326907906311321
9.1	-0.0121864058715628	-0.00184127030657803	0.00311095053809442	-0.000521420578511001	0.00311117232044303	-0.000521610040928973	0.00818895634776533	-0.00731808061938966
9.2	-0.0124209943587025	-0.00150159843820673	0.0030086062717616	-0.000949952696304137	0.00301244515848236	-0.000949665324260092	0.00663570134993789	-0.00939374880934212
9.3	-0.0123643795867957	-0.00132623657534516	0.00284341034204589	-0.00136847800502833	0.00286158726675914	-0.00136863951894019	0.00503118120286313	-0.0113692849375151
9.4	-0.0123024131563478	-0.00055140021690901	0.0026275963747583	-0.00174705350279403	0.00263110339561506	-0.00175809935230048	0.00301486146687145	-0.0124096496571308
9.5	-0.0106561662760363	-0.00141620856197004	0.00236935226747235	-0.00210472656775562	0.00238427230180727	-0.00210512402797189	0.00257726631588217	-0.014910981052835
9.6	-0.0130021697467121	-0.00262937390986553	0.00205778123492451	-0.002427179134205	0.00205798860530566	-0.0024200775574259	-0.0028350330589645	-0.0179321916429182
9.7	-0.0144303998724732	-0.00125555128496099	0.00169261537331234	-0.00269520573874759	0.0017010386438478	-0.00269668719897229	-0.00812647963628747	-0.0172003532144313
9.8	-0.015130734220768	0.0002019425169384	0.00130548415797851	-0.00290123873017764	0.0013037618408466	-0.00291002423831037	-0.0127484054420508	-0.015212566688143
9.9	-0.0154222711461036	0.00243028670278867	0.000895721313563897	-0.00305732048644091	0.000883718490111829	-0.00306015992337607	-0.0167768666265044	-0.0112902852989669
10	-0.0128910971061364	0.00346226441730371	0.000455203884677028	-0.00315867707972756	0.00045448035165613	-0.0031661426764657	-0.0169048972011443	-0.00762809412335918
10.1	-0.0135958729154316	0.00228699218614933	1.28072411046024E-06	-0.00320141715483238	-3.41947782113355E-06	-0.00320428594866939	-0.0197107483524802	-0.00629984304890556
10.2	-0.0143523437184526	0.00334642741123449	-0.000449605663155297	-0.00316414878501472	-0.000462399740025073	-0.00316809944353432	-0.0223063642601434	-0.00218762152241615
10.3	-0.0145343172144731	0.0046439048087506	-0.000892903479796476	-0.0030661513123168	-0.000892560407934392	-0.00307979309222824	-0.0236384064614195	0.0027767503606242
10.4	-0.0141333593552451	0.00667769180939288	-0.0013179927395959	-0.00292430402715516	-0.00132124685090978	-0.00292215322521516	-0.0233445895130478	0.00889761948823303
10.5	-0.0111177861937699	0.00724977178421831	-0.00172557722519075	-0.00269528011423619	-0.00173186493296032	-0.00270270705875749	-0.0188278548030044	0.0135232663927197
10.6	-0.0112038421294572	0.00609174873834088	-0.00208793998291059	-0.00242631514813572	-0.00208945929705652	-0.00243152556616035	-0.016724283467977	0.0152734989769605
10.7	-0.0111038131197581	0.00656400022200867	-0.00240220357517972	-0.00210896392662575	-0.00240544912478966	-0.00212530617209875	-0.0141399447986813	0.0183255577520875
10.8	-0.0110096133283111	0.00702495776012231	-0.00267901230778356	-0.00175295029095589	-0.00267601545267125	-0.00175515910789903	-0.0112214387808541	0.0209577805866052
10.9	-0.0106489187142105	0.00853630863671404	-0.00290445667670659	-0.00135925239052358	-0.00290373680149348	-0.00136448219144847	-0.00748892306833655	0.0244166832604486
11	-0.00749255296880377	0.00863844440624489	-0.00305864279024387	-0.000929001868361442	-0.00305152342469319	-0.00093338717379881	-0.000139676071377808	0.025737129517274
11.1	-0.00806309224859622	0.00704327193866847	-0.00315717976601236	-0.000511207962217333	-0.00314928731419638	-0.000502779875712579	0.00351969759461993	0.023902522755522
11.2	-0.0081737238232105	0.00764980448743657	-0.0032007282866366	-5.67282533634581E-05	-0.00320743782717456	-5.34364260899778E-05	0.00734324386196511	0.0237331829677446
11.3	-0.00765708737774883	0.00828810859448138	-0.00317409304157347	0.000398292222991762	-0.00317732726627813	0.000396105383330212	0.0114277134286515	0.0231075202898467
11.4	-0.00689279850960555	0.00927847697395612	-0.00307629793147554	0.000838236109379475	-0.00308100174029622	0.000838422396435073	0.015983494799247	0.0223945438248553
11.5	-0.0037573895005881	0.00845772097588972	-0.00294292026933943	0.00124468584801449	-0.00293526317167194	0.00124948976396915	0.023435123554537	0.0189319222042365
11.6	-0.00455722263214305	0.00605125463167034	-0.00273856903092604	0.00165554056691608	-0.0027467794867486	0.00166547960986001	0.0259712665988079	0.0122523378264812
11.7	-0.00515770614094647	0.00602455876925269	-0.00247090766678903	0.00203223904522426	-0.00247265776417543	0.00203601357881965	0.0274593242779856	0.00756477403050468
11.8	-0.00518832901490106	0.00630195056399132	-0.00215871096525981	0.00235892443373913	-0.00216797938102818	0.00236898084493054	0.0286665598094814	0.0031670844058461
11.9	-0.00400891987838818	0.00732932091387328	-0.00181149204309866	0.00263039958671015	-0.00181146495923967	0.00263706955468717	0.0302971883680735	-9.71881272761721E-05
12	-0.000821788669555993	0.00582648338074861	-0.00142321682519493	0.00286730386655096	-0.00142776962613681	0.00287019547780037	0.0343236915739118	-0.00644122548802028
