# GHZ S RI R 50
0.2	-0.0139198234152268	0.0055295348595581	0.00304320754301314	-0.000885686273280341	0.00305366349006906	-0.000885536606554783	0.0059289921845216	0.00108904842095082
0.3	-0.0130625039123037	0.00598589690009569	0.00289656138920291	-0.00130153042553402	0.00289027574170149	-0.00131316489227474	0.00627804177925354	-0.00121490047309043
0.4	-0.0123155116037198	0.0065620086382919	0.00268188458133701	-0.00169523302450736	0.00267978004431704	-0.00169714312670038	0.00582962617307371	-0.00318206895467835
0.5	-0.0118460582401446	0.00739217573448011	0.00241222942805584	-0.0020512094476305	0.00241504051775559	-0.00205493278446356	0.00467469164320192	-0.0045840938889837
0.6	-0.0108433210859348	0.00831273255367159	0.00209992127058034	-0.00237110366164527	0.00209917794740493	-0.00237394356111529	0.00372816043654455	-0.00561502466348108
0.7	-0.0100576789164811	0.00888695485658635	0.00174932744205677	-0.00264058251376334	0.0017555270399921	-0.00264467337102683	0.00232396644009394	-0.00656703514541183
0.8	-0.00924621819012925	0.00949312651073743	0.00135616730768268	-0.00285982007951031	0.00136443169998873	-0.00285822668260448	0.000685371914111676	-0.00701298860604172
0.9	-0.00849703688175752	0.00997518536288382	0.000952452746912959	-0.00301127060463962	0.000952433364591687	-0.00302067587952369	-0.000947990237058855	-0.00714054737664408
1	-0.00810487549984549	0.0104267255883459	0.000520228710209092	-0.00311970037632831	0.000520080499766069	-0.00312505185397299	-0.00296329727652843	-0.00688065878701186
1.1	-0.00747421708468865	0.0113740065848854	7.29329816800014E-05	-0.00315909782949697	7.38193178843848E-05	-0.00316381913254855	-0.00462462455697837	-0.00546406642623444
1.2	-0.00661333298444875	0.0117281606172954	-0.00036502616867672	-0.00313167606116562	-0.00036380164138548	-0.00314845030875551	-0.00535752665279284	-0.00392987248347721
1.3	-0.00596453179164562	0.011648094889109	-0.000795284608966866	-0.00305751045610795	-0.000800215795751862	-0.0030651569936698	-0.00518550161692041	-0.00242312194616124
1.4	-0.00546586035492188	0.0111521769969337	-0.0012206246253103	-0.00291279964279943	-0.00122303622632292	-0.00291992161904029	-0.00459971414993791	-0.00170705880344799
1.5	-0.00506782580054746	0.0110566880883737	-0.00161205497954604	-0.00271432513743894	-0.00161008549255285	-0.00271985964963508	-0.00445112871223044	-0.00113427816394669
1.6	-0.00417006592964323	0.0111577168504355	-0.00197365248614504	-0.00245834438842097	-0.0019771176132198	-0.00245922339127015	-0.00441822715616351	-0.000264766587622812
1.7	-0.00341233502515766	0.0112678576481698	-0.00229798819414626	-0.00216488208175751	-0.00230003102957361	-0.00217345894695413	-0.00430636817813527	0.000771940268471534
1.8	-0.00262736851572861	0.0115559686941283	-0.00257459194247626	-0.00181643190935656	-0.00257975936413114	-0.00182188739001549	-0.00392669717992435	0.00183191341773896
1.9	-0.00185877127678844	0.0116786054847145	-0.00279995414071184	-0.00144774707814089	-0.00279645045760726	-0.00144156495871785	-0.00332054686673262	0.00275560687769627
2	-0.00124247519136651	0.0120494549356895	-0.00297442270882042	-0.00103707854678203	-0.00297716254243036	-0.00103024726886239	-0.00270957244096925	0.00387131666997158
2.1	-6.51152517528944E-05	0.0122226397167906	-0.0030900983666295	-0.000606521795844057	-0.00309219096716617	-0.000613209665953516	-0.00116988581236949	0.00473347109445998
2.2	0.000831187746857628	0.0120565921381826	-0.00314419348848749	-0.000176333240907397	-0.00314601315476498	-0.000166622488400742	0.000573723701773938	0.00483567325971362
2.3	0.00151145747678786	0.0117942537864627	-0.00313640505045263	0.000265088176429846	-0.00314314892205982	0.000262175814243383	0.0022216503161394	0.00435028851399608
2.4	0.00202258342759875	0.0115261021443657	-0.00307674123302345	0.000698728825314541	-0.00307558678446694	0.000713828234548102	0.00371166760813171	0.00337221272312696
2.5	0.0021921452992276	0.0115083300411334	-0.00294309342387193	0.00112973440483898	-0.00295608440041037	0.00113101411404044	0.00458473195290604	0.00210161134482537
2.6	0.00293642120763314	0.0118524030177653	-0.00275412853657876	0.00152545221756164	-0.00277503846634575	0.0015293376425762	0.00560163312325447	0.000946324179895346
2.7	0.00389846276984718	0.0118620460089881	-0.00252273337705629	0.00189450855465081	-0.0025230179288008	0.00189959056392843	0.00638057479549273	-0.000743739694638268
2.8	0.00495677775839731	0.0116842854559672	-0.00222865320979849	0.00221956263675332	-0.00223849466208513	0.00223073898268183	0.00672200179217738	-0.00260384301855897
2.9	0.00603746258627143	0.0112764034488244	-0.00189350164530418	0.00251301680871116	-0.00189158617873236	0.00252192519074719	0.00669094207265876	-0.00450204338444264
3	0.00705363472473312	0.0108984722937068	-0.00152314275894366	0.00275767128816477	-0.00153821001223202	0.00274461656203426	0.00619948525334229	-0.00612611435449418
3.1	0.00836490070381992	0.0102368830935743	-0.0011241793308163	0.0029412756781733	-0.00114112672614308	0.00294666374103815	0.00578400722026888	-0.00775004019904617
3.2	0.00926665683698963	0.00925419403395594	-0.000705414211350712	0.00306691676671336	-0.00070115709930364	0.00307772822588148	0.00469108779607235	-0.00949484963048346
3.3	0.00992142134537919	0.00818823949170285	-0.000276314624514781	0.00313945166424621	-0.000273010602433507	0.00313507463631938	0.00321976819872968	-0.0111256820837178
3.4	0.0102942329953954	0.00709365054484093	0.000169702152817583	0.00314882583011973	0.000160269335180347	0.00314989668867623	0.00130461975739184	-0.0127045729358064
3.5	0.0103727880719109	0.00631416481813916	0.000604189486485157	0.00309211039470423	0.000609199359290567	0.00309078346466725	-0.00133967032624026	-0.0137733487548523
3.6	0.0107778416789089	0.00555069863742867	0.00102352729174952	0.00297257674117489	0.00103012318858062	0.00297607540335245	-0.00381575780915482	-0.0141438583767443
3.7	0.0108901264418797	0.00468089864281343	0.00144035494143936	0.00279729543144395	0.00143859272122463	0.00281366776876358	-0.00645531031331166	-0.0142104537193245
3.8	0.0109469263006332	0.00399704776332034	0.00180930588668261	0.00257136814490887	0.00181990385410317	0.00257773247517069	-0.00921340546405183	-0.0137834354417955
3.9	0.01104722499604	0.00342939104783745	0.00215731565186713	0.00229335609830215	0.0021527163254071	0.00229325591021793	-0.0120180398973627	-0.0127964685572664
4	0.0112726289318759	0.00316217882631641	0.00244801411702806	0.00197488196748153	0.00245944909986549	0.00198103784466987	-0.0146815759416348	-0.0108797208598378
4.1	0.0120937774170758	0.00251160818750571	0.00270128574841478	0.00160991934038388	0.00271784623035711	0.00161972578849359	-0.0163160739373538	-0.00847136941532484
4.2	0.0125499530650698	0.00140645712792472	0.00290453165616637	0.0012132045138592	0.002905762781217	0.00121549368919606	-0.0176194349469695	-0.00611443171036282
4.3	0.0127044206088294	0.000304077654053355	0.00304839004759291	0.000805022051554742	0.00304956613653401	0.000813614130017132	-0.0185762109837448	-0.0036931910458596
4.4	0.0125626889081846	-0.000816074111142029	0.00312818435846074	0.000369869658237618	0.00313611766741867	0.000365240669250612	-0.0193018240487594	-0.00116832317988674
4.5	0.0121831369295241	-0.00146928252002519	0.00315392349761009	-7.45307237983836E-05	0.00315072576306461	-7.22709564564497E-05	-0.0198315754477316	0.00176073405525254
4.6	0.012234979291224	-0.00222067378192303	0.00310178207366874	-0.000522601831602362	0.00311481885763861	-0.000510589456040881	-0.0193639146887579	0.00482486917092685
4.7	0.0120612513176418	-0.00309823054306519	0.00300005362419807	-0.000936773272960353	0.00299996840134166	-0.000946220829877565	-0.0184920829276317	0.007457487644242
4.8	0.0117475236200631	-0.00395425655498064	0.00285158226564962	-0.00134029264826006	0.0028439439795529	-0.00136050867693192	-0.0171650446623579	0.00995714647263245
4.9	0.0114628476699072	-0.00474746110270354	0.0026368645101672	-0.00173900597288536	0.00263077301083494	-0.00173055702312507	-0.0154217530362794	0.0120956713088153
5	0.0112024917764537	-0.00530500997342028	0.00236078009096197	-0.00207384680913805	0.00236354159296325	-0.00208629152145887	-0.0132697066439937	0.0142035682449056
5.1	0.0113817587889797	-0.00620899804163652	0.00203782114721105	-0.002398052513303	0.00205106728917334	-0.00239556001985424	-0.0102032530414859	0.0157241778893605
5.2	0.0111321087610329	-0.00726327749933534	0.00169494813870364	-0.00265584362923653	0.00169545316681346	-0.00266001141349649	-0.00711361960212281	0.016390943153178
5.3	0.0108027272989634	-0.00817067051658485	0.00130448475262129	-0.00286839054911746	0.00130073516830473	-0.00287096976625081	-0.00401630601558447	0.0165103296167645
5.4	0.0103600421155546	-0.00906951339986485	0.000891968919750517	-0.00302871964981993	0.000891079901989533	-0.00303118339080377	-0.0010702873708347	0.0158370435544015
5.5	0.00978827608228841	-0.00953250905475133	0.000451110696572722	-0.00312228876115257	0.000463706427668659	-0.00312226848440488	0.00131301217176753	0.0149142767611599
5.6	0.00957409348603576	-0.0104729279944812	1.79239520562905E-05	-0.00315228079162378	1.46205578035261E-05	-0.00314881923422901	0.00378373672239978	0.0134586434934727
5.7	0.00860054577248544	-0.0114071264495581	-0.000416009689563323	-0.00312688551467378	-0.000419731291957054	-0.00313058179310413	0.00550807204474527	0.0115005325034674
5.8	0.00748176023292949	-0.0119685979691559	-0.000852288285347201	-0.00303668407149703	-0.000851556367719219	-0.00304438059805213	0.00674652358451112	0.00923829104984067
5.9	0.00620400907961302	-0.0122124095361152	-0.0012703423844595	-0.00288293965306505	-0.00126874001953566	-0.0028870977350998	0.00725460559501088	0.00674056038683987
6	0.00489476751679631	-0.0117418112036065	-0.00165822892212742	-0.00267730584633994	-0.00165222973421222	-0.00268065817303426	0.00671145398689636	0.00473362974093564
6.1	0.0047377449031668	-0.0113576848401683	-0.00201792520626558	-0.00242690322163296	-0.00201377487017965	-0.00243167776253349	0.00673316458759572	0.00326518156968553
6.2	0.0044996700210894	-0.0117277559646729	-0.00233917808387202	-0.00210988855434224	-0.00233559760910378	-0.00211856995713513	0.00665399734677636	0.00127642879419054
6.3	0.00410152381301392	-0.0124474198556241	-0.00260691952119593	-0.00176942613772354	-0.00261675424042295	-0.00177719339930324	0.00620965171464509	-0.00103780770538602
6.4	0.00315300170027297	-0.0133069917363016	-0.00283379649830662	-0.00138378217740898	-0.00283180541102374	-0.00138958737548992	0.00505777575805445	-0.00345183696296366
6.5	0.00222840617611789	-0.013573613473694	-0.00300037336581916	-0.000981634544277972	-0.00300077780188337	-0.000980509688385544	0.00335549287792762	-0.00506400710651754
6.6	0.0015369069753876	-0.0142272816996212	-0.00310507897991657	-0.000553455155500142	-0.00311577150574033	-0.000556455884389942	0.00184189326315234	-0.00656457278180247
6.7	0.000449622546353634	-0.0145645144218823	-0.0031490834560229	-0.000117923676425074	-0.00314803247481106	-0.000111674960909552	-0.000343909670967217	-0.00760478965781669
6.8	-0.000560482271468781	-0.014651079674784	-0.00313399964462427	0.000331096704562633	-0.00313308719536736	0.000335864481711001	-0.00276456686711171	-0.00798968934586377
6.9	-0.00173694521720804	-0.0146583967613783	-0.00305198336558358	0.000762231584716445	-0.00305240205723874	0.000767225994744818	-0.0053621848048051	-0.00780187266039808
7	-0.00274303982464848	-0.0139013511194649	-0.00292072691134153	0.00118302241851443	-0.00292213881824157	0.00118624786569196	-0.0079931287798344	-0.00635611580114306
7.1	-0.00307101541456893	-0.0138273991349474	-0.00272058192399615	0.00158124429362271	-0.00272298822838609	0.00159228259431114	-0.00944238076766111	-0.00450829301058957
7.2	-0.00407597465036548	-0.0138813816429612	-0.00247927135701424	0.00194264692444716	-0.0024794442085206	0.00194855065016666	-0.0106381580834418	-0.00252863795581937
7.3	-0.0053168363057507	-0.013683021442628	-0.00218768609136297	0.00226800011367229	-0.00218491748255004	0.00226947103757285	-0.011230368741844	-0.000398076747945948
7.4	-0.00688522107737384	-0.0133580605904064	-0.0018434668513257	0.002552456382505	-0.00183622698396653	0.00255897131783738	-0.0114942849788018	0.00139250946770885
7.5	-0.00864182210999767	-0.0120412310312447	-0.0014635413457562	0.00278558581765838	-0.00146458575199649	0.00278357257937356	-0.0117984209454117	0.00360941043968866
7.6	-0.00903888499351888	-0.0107752508096992	-0.00107039506369192	0.00296119283411088	-0.00105971494866241	0.00297152761305773	-0.0107546551814068	0.00595459094585061
7.7	-0.00969354542959437	-0.00997821623713416	-0.000640324181147257	0.0030846626778313	-0.000634757822460431	0.00308430336152019	-0.00951322037724165	0.0073168295496807
7.8	-0.00994720337551589	-0.00936530582495821	-0.000193042146777396	0.00314468563575614	-0.000206706796166719	0.0031376330613617	-0.00808772518524997	0.00857358959611165
7.9	-0.0101303768304096	-0.00890946850373683	0.000231566322800057	0.00312906705272837	0.000242655080158539	0.00312873546807357	-0.00651772141436638	0.00976541299783978
8	-0.00979154868682389	-0.008217371028323	0.000665248746247952	0.00307205738805369	0.000673534478144718	0.00306996782206189	-0.00465221351978178	0.0112228232987647
8.1	-0.00939576444270018	-0.0086360086237392	0.00109751162668084	0.00294845913703173	0.00109522420502364	0.00294520995919867	-0.00180869145718904	0.0117708950340191
8.2	-0.00983443034604506	-0.00886047293944579	0.00148949800073499	0.00276465808934062	0.00148870178978551	0.00277624451375897	0.000831053535771019	0.011667055381025
8.3	-0.0104178373504095	-0.00880383393622204	0.00186134143137209	0.00253046176468439	0.00186640934112974	0.00252786644389916	0.00342681807799506	0.0109501428341583
8.4	-0.0112433386754234	-0.00848961729571426	0.00220620021494955	0.00224899993104366	0.0021950458573785	0.002249420172293	0.00554809537441324	0.00949020213938502
8.5	-0.0118647606274739	-0.00738902326291163	0.00250249205967775	0.00191400421805004	0.00250250362703633	0.00191535457010548	0.00700690870822852	0.00822988411925925
8.6	-0.0117882287241748	-0.00695509008785184	0.00273322967008808	0.00155183703688553	0.00272901597071744	0.0015495392628457	0.0088891305189514	0.00637860753776905
8.7	-0.0123076181647311	-0.00660688192413419	0.00292119832937799	0.00115232690157217	0.00292003576461345	0.00115191875398155	0.0100110493741389	0.00389101609036236
8.8	-0.0128728954617676	-0.00599888120778213	0.00304879636079587	0.00073418552457648	0.00305976009331202	0.000732060325737398	0.0104877689540547	0.00111087541857601
8.9	-0.0134630163562169	-0.00526920603061111	0.00312214169642466	0.000304166469574891	0.00313147310674226	0.000297017189653936	0.0102812853321561	-0.00180807988137557
9	-0.0137205545199412	-0.00392792992386738	0.00313370576937026	-0.000145566251365687	0.00314048679540264	-0.0001399855605073	0.00927745341525154	-0.0041265356132898
9.1	-0.0131061549392746	-0.00326595939119626	0.00308358047395171	-0.000576365277000261	0.00308379747029327	-0.00057655779174294	0.00847399139770605	-0.00634338064723839
9.2	-0.0128119757018072	-0.00289945543046328	0.00296803089970631	-0.000995815563373201	0.00297184460553998	-0.000995598537088352	0.00707526335732747	-0.00858892537779286
9.3	-0.01247794001806	-0.00266227054877314	0.00279561441626917	-0.0014037954712096	0.00281362879608564	-0.00140425827189769	0.00522780825306226	-0.0106293463387283
9.4	-0.0124222721874922	-0.0026649872900629	0.00257697704024426	-0.00177578637226507	0.00258027302331626	-0.00178679809474893	0.00261971387650215	-0.0125371022647761
9.5	-0.0123497571409116	-0.00205293298720466	0.00230368460083748	-0.0021286764956813	0.00231844067319139	-0.00212935940720525	-0.000643244929556091	-0.0131973196815717
9.6	-0.0122417532826765	-0.00229215365580363	0.00198684695671936	-0.00242790851884844	0.00198717317609391	-0.00242091163245249	-0.00382178093960847	-0.0135754303682283
9.7	-0.0128635399591531	-0.00215052339434852	0.0016259799039502	-0.00268108155221771	0.00163425495146512	-0.00268267041907009	-0.00745676962818364	-0.0131634058060948
9.8	-0.0135199904976823	-0.00161780510006517	0.00124255577678825	-0.00287585133092333	0.00124073026742932	-0.00288447616953481	-0.0110168347690232	-0.011913459108819
9.9	-0.0142642350840861	-0.000655970374595463	0.000833679206254298	-0.00301957711737682	0.000821834959534224	-0.00302218438603011	-0.0146613988950446	-0.0098772719543588
10	-0.0144861002948026	0.00106387757538323	0.000403728890285315	-0.00309740311926559	0.000402922031247008	-0.00310470009418746	-0.017919604952026	-0.00640966543491181
10.1	-0.0137850446672279	0.00199146612058358	-2.91770354337597E-05	-0.00313525083833584	-3.38073457058858E-05	-0.00313801565157722	-0.0196790959225751	-0.00255875074407133
10.2	-0.013453390245665	0.00266996664141624	-0.000467867702450324	-0.00309525796040195	-0.000480433350963867	-0.00309901630407473	-0.020728540305637	0.00136232782365911
10.3	-0.0131295372571703	0.00333247085677699	-0.000897840499929786	-0.00299304106423235	-0.000897612389190085	-0.00300639159577924	-0.0209775183428705	0.00534517798071125
10.4	-0.0129589786506247	0.00405185288459498	-0.00130424609254194	-0.00284697233792425	-0.00130741004580735	-0.00284485307546953	-0.0206438189883446	0.00909690591989355
10.5	-0.0123083279218482	0.00546689414964791	-0.00168805894882677	-0.00263144458302263	-0.00169420783522179	-0.00263869427510936	-0.0197288183193451	0.013510473950681
10.6	-0.0108505614774397	0.00597981545680163	-0.00204743275700364	-0.00237447305707622	-0.00204892594410174	-0.00237957502797926	-0.0172779975811994	0.017493427587845
10.7	-0.00964422069223183	0.00611982246435702	-0.00235309567435874	-0.00206274769209669	-0.00235628471836959	-0.00207874302198323	-0.0140777502911467	0.0209033715950487
10.8	-0.00862824594368703	0.00583242534025132	-0.00261914413717094	-0.00171687532047109	-0.00261621087622844	-0.00171903352040769	-0.0103504384341741	0.0234800007673557
10.9	-0.00827069434022642	0.00555590376884348	-0.00283698344901285	-0.00134107992021467	-0.00283625922216784	-0.00134619476870681	-0.00659564438013626	0.0253151312949364
11	-0.00758611033728959	0.0060381846712896	-0.00300076283740159	-0.000924564755597858	-0.00299375243606383	-0.000928844308094519	-0.00246105598609662	0.027315038163399
11.1	-0.00647527260524461	0.00552232036101808	-0.00309442410052116	-0.000509272575816546	-0.00308670668084814	-0.000500988512765033	0.00280135844693623	0.0281314455926078
11.2	-0.00606248551005042	0.00493799532859414	-0.00313524993818308	-6.97275790735211E-05	-0.00314183730367384	-6.65325094628112E-05	0.008174033767199	0.0278144779955009
11.3	-0.00575574353837266	0.00442278463074808	-0.00311363564585475	0.000370005286320581	-0.00311679162135075	0.000367841095809562	0.0137154744902522	0.0263202573087745
11.4	-0.00583662376060829	0.00400499254854361	-0.00302761187995973	0.000800808382318658	-0.00303223323632751	0.000800956959144474	0.0186731436779456	0.0234758198503955
11.5	-0.00561859035970064	0.00424728338758004	-0.00289373366961255	0.00120721466984168	-0.00288624318800521	0.00121196532153686	0.0228038525885324	0.0201473077010127
11.6	-0.0050775081528364	0.00348948731341356	-0.00269411624268392	0.00159897980228566	-0.00270223292773539	0.00160864462665383	0.0267907370893405	0.0154939260765583
11.7	-0.0053709929330522	0.00286580009128852	-0.00244242086871467	0.00196618375894518	-0.00244417481858124	0.00196986482218658	0.0295212514318507	0.00992317761228803
11.8	-0.00577218195256582	0.00277378265109464	-0.002144803365639	0.0022904269639354	-0.00215401126312882	0.0023001906236971	0.0310330612684598	0.00397911451953895
11.9	-0.00600562914592689	0.00323049107879027	-0.00180591995720718	0.00256174468728648	-0.0018059651180541	0.0025682902609822	0.0310340351020257	-0.00175125390050482
12	-0.00523990710722347	0.00429277370311235	-0.00143073631633733	0.00278581513198159	-0.00143522887042183	0.0027885827197074	0.0302800505203801	-0.00654668932691238
