# GHZ S RI R 50
0.2	-0.0142655005367661	0.00523071592159709	0.00304577875107929	-0.000884777325955166	0.00305624192944731	-0.00088462230520496	0.00562554519827139	0.000821704180443941
0.3	-0.0134119358009913	0.00581538013001808	0.00290004073359048	-0.00130093956393947	0.00289375648280178	-0.00131258866057384	0.00597343155936651	-0.0013556897402014
0.4	-0.0125965563104996	0.00664692174790984	0.00268627351620663	-0.0016955806832166	0.00268416762999104	-0.00169749449131662	0.00558679395049237	-0.00307616357636335
0.5	-0.0116613484891332	0.00730140930829703	0.00241641488316017	-0.00205325132808063	0.00241923133690972	-0.00205697894348379	0.00485162692767782	-0.00465231594274998
0.6	-0.011036265834273	0.00789282708852828	0.00210365611515525	-0.00237346195603037	0.00210291290153217	-0.00237630594791024	0.00350675029255561	-0.00594527420968576
0.7	-0.0104362738218067	0.00863277677392051	0.00175309645385141	-0.00264388123867184	0.00175930721359917	-0.00264797575188052	0.00194689771162686	-0.00668577489172743
0.8	-0.00971315889000605	0.00936778711044343	0.00135937286251577	-0.00286431202089158	0.00136765094975452	-0.00286271335199172	0.000262692417566376	-0.00698302907779164
0.9	-0.00908062181544009	0.0101602434776988	0.000954372383516007	-0.00301668340606794	0.000954353555381697	-0.00302610577464462	-0.0014324420736751	-0.00681869267057007
1	-0.00809622718562811	0.0110400063366109	0.000521022011409097	-0.00312464183760215	0.000520873515175554	-0.00313000178167996	-0.00285305238418493	-0.00621733696731971
1.1	-0.0072446351347879	0.0114249171256023	7.35851308370487E-05	-0.00316480764005037	7.44738496638183E-05	-0.00316953734842009	-0.00438097844086599	-0.00539187516930071
1.2	-0.00655593175266936	0.0116979584200066	-0.000365825638567487	-0.0031379448300543	-0.000364599020450131	-0.00315475272400964	-0.00535181074268023	-0.00392412394861459
1.3	-0.00607238632999311	0.011601078481272	-0.000797583221073677	-0.00306358605266207	-0.000802526171383068	-0.00307124713726389	-0.0054002318359905	-0.00237476335051747
1.4	-0.00572656900215758	0.0113270224152902	-0.0012239431248841	-0.00291807368402866	-0.00122636172475326	-0.00292520874107018	-0.00496525536521868	-0.0013505346092819
1.5	-0.00500982146510809	0.0110953756872475	-0.00161568280816719	-0.00271987734667285	-0.00161370968520305	-0.00272542365274609	-0.0044981328906641	-0.000852770844862708
1.6	-0.00442551887818698	0.0110651888464299	-0.00197961502118535	-0.00246353320872385	-0.00198308908906645	-0.00246441284053517	-0.00470941564674947	-4.47219362636482E-06
1.7	-0.00362116598439555	0.0112969435753417	-0.00230515203620735	-0.00216843045049242	-0.00230720614865058	-0.00217702658411406	-0.00445027699196289	0.00115351750714762
1.8	-0.00275215932246912	0.0116089869710788	-0.00258228642762537	-0.00181850581115641	-0.00258747086718513	-0.00182396975217945	-0.00393156340501612	0.0021905220605016
1.9	-0.00181246035640161	0.0118324597314695	-0.0028080770286555	-0.00144885876187485	-0.00280455937738903	-0.00144266453893558	-0.00314338248472799	0.0031361311240012
2	-0.000711209923829435	0.0118276899420264	-0.00298426958998712	-0.001036490406011	-0.00298700910753255	-0.00102963608138556	-0.00214997150546519	0.00381893048211941
2.1	1.60683465245735E-05	0.0115309620777783	-0.00309932411042316	-0.000602647718249098	-0.00310143407828436	-0.00060934952313862	-0.0011288401517013	0.0043129552000993
2.2	0.000605108697753896	0.0114669875781006	-0.00315225583735597	-0.000170770444273677	-0.0031540614562049	-0.000161032359809393	0.000355448371574304	0.00459079194012879
2.3	0.00111684345748228	0.0113776435413635	-0.00314346645696732	0.000272171423569752	-0.00315023266270087	0.000269265847060356	0.00191676206401344	0.0042894620346879
2.4	0.00159594940411708	0.0114608553587043	-0.0030828375657955	0.000707684071182081	-0.00308164488423111	0.000722818721301593	0.00345620333495624	0.00358708823034147
2.5	0.00234811762680777	0.0115564319183246	-0.00294618992639426	0.0011410007180445	-0.00295920563439179	0.00114232201041378	0.00486469129942289	0.00226615538932522
2.6	0.00304015910203142	0.0113909771669381	-0.00275448493480775	0.00153600546390752	-0.00277541971515464	0.00153995775005383	0.0056757590311755	0.000592926089021229
2.7	0.00373003787970383	0.0113436946676729	-0.00252143536515104	0.00190508881229803	-0.00252170551262835	0.00191018021737736	0.0060981810189947	-0.00109293228466381
2.8	0.00459968809678895	0.0113175253852925	-0.00222519824196237	0.00223012759788625	-0.00223502009915278	0.00224135278635064	0.00621495094291743	-0.00272754046753275
2.9	0.00575067103519997	0.0111992796986337	-0.00188715388821379	0.00252294719639963	-0.00188520464679899	0.00253186049369631	0.00624220541355269	-0.004292672943816
3	0.00716036088407493	0.0106632322092297	-0.00151472750562452	0.00276463260069501	-0.0015298489160649	0.00275162081145787	0.0060612506011728	-0.00602824916589973
3.1	0.00821546815192235	0.00980687548869334	-0.00111566212675238	0.00294712730393463	-0.0011326053862439	0.00295257358098697	0.00535867125701433	-0.00769354549133298
3.2	0.00906592502646907	0.00892915907477393	-0.000695420960989505	0.00307139817753601	-0.000691124062081981	0.00308220241186253	0.00428970127347048	-0.00920970830289175
3.3	0.00971913314797005	0.00796010291156393	-0.000265235111664423	0.00314163918345737	-0.000261945418163898	0.00313724870650178	0.00291075509684978	-0.0106850165307078
3.4	0.0102193426927952	0.00707394718188937	0.000180692708475713	0.00314808207324913	0.000171264083626641	0.00314918582882325	0.0012153083712766	-0.012066210495333
3.5	0.0107753612285196	0.00609612392600856	0.000613644479783304	0.00309038534119511	0.000618650496072896	0.00308904307879526	-0.000973080691610569	-0.0133887342065176
3.6	0.010948760574979	0.00500923525761566	0.00103403313045838	0.00296954917344065	0.00104064234881673	0.00297302554757742	-0.00369630418298936	-0.0139637005540425
3.7	0.0109709931544417	0.00420955043998686	0.00145031093060235	0.00279157537274754	0.00144860869164662	0.00280795138798726	-0.00629393534939392	-0.0138991046538048
3.8	0.0110654080434576	0.00358878622439265	0.00181778326735706	0.00256365375525285	0.00182839943214797	0.00256997685637032	-0.00887344882494183	-0.0134634566344573
3.9	0.0113575639544843	0.00309376339767934	0.00216407454027667	0.00228466269819938	0.0021594773525277	0.00228457845669516	-0.0114185537138156	-0.0125710149294987
4	0.011983068458892	0.00235325387878341	0.00245483422108695	0.00196482296690024	0.00246628924389609	0.00197093284053024	-0.0138455144694363	-0.0112828062720014
4.1	0.0122691181771636	0.00124691566277511	0.00270518998164221	0.0015969515570706	0.00272177413433377	0.00160667857113139	-0.0161530156420613	-0.00921707074225557
4.2	0.0123365900440973	0.000244755674551065	0.00290509757531145	0.00119986431311776	0.00290633600434312	0.00120214522922555	-0.0178234657224172	-0.00666523072063383
4.3	0.012263335256517	-0.000642834716530975	0.0030463829389523	0.000792011321847571	0.00304758994914881	0.000800584557798927	-0.0189615023963968	-0.00401390544940155
4.4	0.0121260723991793	-0.00138223537161807	0.00312423815284128	0.000357048187471947	0.00313213976998202	0.000352396268908392	-0.0196515434321017	-0.00116662536795318
4.5	0.0122196182170144	-0.00212008449858363	0.00314605976754171	-8.78132197173059E-05	0.00314287932805063	-8.55452110022072E-05	-0.0198257991738757	0.00159647913409012
4.6	0.0119812411880467	-0.00313362777360344	0.00309071583636271	-0.00053238078840738	0.00310375797383891	-0.00052045146841354	-0.019786838807569	0.00452501659158982
4.7	0.0116446801605018	-0.00387178968016193	0.00298785499110691	-0.000944061100645922	0.00298773818415341	-0.000953479897696809	-0.0190681588439719	0.00744650956338578
4.8	0.0112674079922303	-0.00454374866441928	0.00283815225786334	-0.00134547109772291	0.00283047137370081	-0.00136559806638859	-0.0177239337842046	0.0102218786821947
4.9	0.011097678509715	-0.00502929368587313	0.00262163358263935	-0.00174164012631653	0.00261559211864138	-0.00173320089556787	-0.0157538381440942	0.0126728596028808
5	0.0112760714427819	-0.00577482142323286	0.00234509284035836	-0.00207137499934239	0.00234780890346173	-0.00208377404203035	-0.0131984874313932	0.0145349996916374
5.1	0.0111808986769766	-0.00682562843429633	0.00202445472836145	-0.00239301146143808	0.00203765375061491	-0.00239055799828021	-0.0103844051220944	0.0160607928880538
5.2	0.0109336911103579	-0.00775306098716138	0.00168238584393467	-0.00264871657660848	0.00168287988940618	-0.00265286855618559	-0.00710841389060947	0.0168671641043101
5.3	0.0106442901457592	-0.00861547264211557	0.00129323962927848	-0.00285854083235429	0.00128950121245035	-0.00286110157173752	-0.00385127631407645	0.0169021128666313
5.4	0.0103584727363251	-0.00933429336955691	0.000883330019044135	-0.00301587032230217	0.000882441525237317	-0.00301832122936439	-0.000760517593795394	0.0162058075923956
5.5	0.0102182470198754	-0.010231199599353	0.000446868450298254	-0.00310924159430577	0.000459410216645173	-0.00310923071916947	0.00177825015177052	0.0147592023900873
5.6	0.00953843960183522	-0.0113204621070471	1.46039015935662E-05	-0.00313928726906516	1.1317707750883E-05	-0.00313583659857233	0.00368657680680685	0.0134159305742075
5.7	0.00857939206950536	-0.0120440734604139	-0.000416929784637063	-0.00311265446728985	-0.000420638154857447	-0.00311633106774239	0.00558067994345798	0.0117992066083689
5.8	0.00760493294270309	-0.0125527880722721	-0.000849855948500041	-0.00302222418446593	-0.000849131234356641	-0.00302988549770773	0.00716051446649074	0.00955780188480744
5.9	0.00660369551925626	-0.0127027526923436	-0.00126453657057096	-0.0028700148969062	-0.00126294127852232	-0.0028741542269861	0.00811045212907126	0.00692853114124237
6	0.00602355993654381	-0.0128817700669733	-0.00165191047030471	-0.00266594168719509	-0.00164593667605702	-0.0026692813538739	0.00813726756896537	0.00387265002116382
6.1	0.00513284556926548	-0.0134452757239975	-0.00200839939031776	-0.00241525963847874	-0.00200426901621011	-0.0024200115799099	0.00702801061367581	0.00143752245830967
6.2	0.00400698146327936	-0.0137576601543787	-0.00232663156926133	-0.00210106288418588	-0.00232306330443025	-0.00210970021835522	0.00585407855582066	-0.000335192296159694
6.3	0.00306979302836189	-0.0138513627918411	-0.00259306283024766	-0.00176396740293138	-0.00260284414235638	-0.00177170903489249	0.00479972278605494	-0.00184267061582073
6.4	0.00238949578318704	-0.0139279722477216	-0.00282023250688177	-0.00138105337288406	-0.00281824342845401	-0.00138683172076716	0.00393848216572097	-0.00337778553257333
6.5	0.00207085642192376	-0.0145266858519642	-0.00298532762380411	-0.000979843220855861	-0.00298573121683921	-0.000978724040068334	0.0026995336746163	-0.00520722090343042
6.6	0.00107954557239095	-0.0152311124983446	-0.00308931209644377	-0.00055645516485472	-0.00309994834224411	-0.000559461018883617	0.000975369449433354	-0.0064010511103818
6.7	-4.87530160333556E-05	-0.0154980803455625	-0.00313503507993595	-0.000124071713669349	-0.00313400192865955	-0.000117848154760501	-0.000988241068534908	-0.00726617274407095
6.8	-0.0011752285727875	-0.0153843019378048	-0.00312156725462892	0.000322846507147126	-0.00312066907228913	0.000327596265520267	-0.00332540809391911	-0.00749399787660883
6.9	-0.00206355784378369	-0.0149235096031862	-0.00304027758352393	0.0007522055645527	-0.00304070538056263	0.00075717716911825	-0.00552589168142524	-0.00700566303750548
7	-0.00239207933507879	-0.0147221961355895	-0.00291058093991222	0.00116832201641547	-0.00291199620796326	0.00117152779130855	-0.00773020126395561	-0.00626440137702541
7.1	-0.00329946879302364	-0.0148631420244292	-0.0027155284332833	0.00156523221978286	-0.0027179648973344	0.00157621832503751	-0.00986710250139596	-0.00429156853724638
7.2	-0.00441045513587844	-0.0146581780413693	-0.00247718006553159	0.00192644770182445	-0.00247737376099363	0.0019323289858137	-0.0109180785640815	-0.00183588616839588
7.3	-0.00565605691313889	-0.0141936404578463	-0.00218848784478754	0.00225130718003573	-0.00218573498184095	0.00225278344463782	-0.0111589254729328	0.000575884165144736
7.4	-0.00692524691757357	-0.0133018932219999	-0.00184815676883761	0.00253503653333358	-0.00184097203068935	0.00254156012463557	-0.0107493513526905	0.00268178591216726
7.5	-0.00753871268940781	-0.0122593740173487	-0.00147396588967614	0.00277085879511292	-0.00147499729128643	0.00276884545945733	-0.00993193804755588	0.00404636627074793
7.6	-0.00819401855823339	-0.0117171038871416	-0.00108177193470351	0.00294983646816973	-0.00107116271571311	0.0029601982725566	-0.00936326692067953	0.00545599622196268
7.7	-0.00895537119429643	-0.0110982988081486	-0.000653599830792531	0.00307500439413298	-0.000648043706845223	0.00307467228370365	-0.00842538248506551	0.00657342614850617
7.8	-0.00935828776379235	-0.010560682570164	-0.000208729155780335	0.00313765483835558	-0.000222331524122592	0.00313054604367891	-0.00733853427414921	0.0076737982065934
7.9	-0.00936294318579659	-0.0101119756328777	0.000213943113290104	0.00312635667264025	0.000225019557507339	0.00312608691693046	-0.00595622676926688	0.00874522855843195
8	-0.00908182481220155	-0.0103846938876535	0.00064968719954819	0.0030737991334319	0.000657979092657622	0.00307175168841819	-0.0045610845234742	0.00951299351125619
8.1	-0.00955995330654799	-0.0107357649898168	0.00108173643388185	0.00295157866423572	0.00107946728022323	0.00294832061021807	-0.00276327448389571	0.0107260547981191
8.2	-0.0103120771737112	-0.0107241675244402	0.00147385564650715	0.00277171509934424	0.00147299658417481	0.00278329273204044	-0.000206247270986763	0.0111992591492261
8.3	-0.0111818112401512	-0.0103633480398266	0.00184791746757685	0.00254155786002335	0.00185300133130018	0.00253898977904431	0.0023532752552165	0.0109163523333968
8.4	-0.0119033408192952	-0.00945599188675587	0.00219703266909313	0.0022625191906308	0.00218586473583336	0.00226288317246487	0.0047810046993715	0.00996735335403905
8.5	-0.0119790623529817	-0.00870657533418142	0.00249528691504788	0.00192654757276071	0.00249529234288294	0.00192789879062314	0.00658248475753486	0.00822948333931919
8.6	-0.0124583446901362	-0.008263388174203	0.00272760979189105	0.0015672807065214	0.00272340426857631	0.00156495920607924	0.00782046024339474	0.00680654490481548
8.7	-0.0130265526976246	-0.0075195346573848	0.00291965931943467	0.00116877905367139	0.00291849711220834	0.00116836443251705	0.00923219932285021	0.00499661225882147
8.8	-0.0134820965834288	-0.00655849507668439	0.00305088434609185	0.000749944898438135	0.00306187812673577	0.000747867680262261	0.0102755618040216	0.00259228729478963
8.9	-0.0136071409635018	-0.00536006291034384	0.00312617921646476	0.000318300861296449	0.00313555782678425	0.000311179982324421	0.0109553271745561	-0.000176566356620813
9	-0.0129733825649235	-0.00454313106326687	0.00313951005694096	-0.000129842634491718	0.00314627361834909	-0.000124218393939971	0.0107855139128608	-0.00351709309004573
9.1	-0.0125793609591874	-0.00441229908311816	0.00309459270925913	-0.000562530944845742	0.00309481123726874	-0.000562722887261998	0.0095874282383467	-0.0063789568533637
9.2	-0.0124384486841342	-0.00434399199391831	0.00298115960670673	-0.000985150222716572	0.00298498335193841	-0.000984915163847549	0.00793974042631342	-0.00904195535704175
9.3	-0.0124813675511918	-0.0042283161999649	0.0028100358905163	-0.00139555420888563	0.00282810523671755	-0.00139593869092417	0.00555757948707243	-0.0112919339265514
9.4	-0.0124988487131759	-0.00389200641991145	0.00259318062171609	-0.00176880919378462	0.00259653905336437	-0.00177983819901225	0.0026693844646838	-0.0129368114184309
9.5	-0.0122946968750497	-0.00374275864533589	0.00232416576138472	-0.00212628044256329	0.00233898836062622	-0.00212689260504429	-0.000898685960775704	-0.0139830983568224
9.6	-0.0126878970645244	-0.00373264478016992	0.00200583822042473	-0.00243115144951694	0.00200613775346953	-0.00242412082698776	-0.00468657788239614	-0.0135940357105035
9.7	-0.0132095483135578	-0.00329271888478133	0.00164386021920599	-0.00268745670547969	0.00165218019372184	-0.00268902141018658	-0.0079571851336991	-0.0125935030684338
9.8	-0.0136949137278449	-0.00256974303707577	0.00125971289460979	-0.00288559026096747	0.00125791093689326	-0.00289426537429462	-0.0110191260575889	-0.0111156028694275
9.9	-0.013955422955764	-0.00141214855030049	0.000849763730124534	-0.00303417570109152	0.000837859761818848	-0.00303684217829404	-0.0138961084533352	-0.00915272254793466
10	-0.0135900926908596	-0.000597996835943362	0.000413718572074032	-0.00311672915785822	0.000412923734490251	-0.00312407583085191	-0.0167888514124637	-0.00693589797726838
10.1	-0.0136206441892041	-0.000134315598808299	-2.32107229630314E-05	-0.00315447531123428	-2.78639219211217E-05	-0.00315726610179911	-0.0194807489589056	-0.00337379456040665
10.2	-0.0137983733372459	0.000642775186749304	-0.000465630245674525	-0.00311594975579418	-0.000478270307868789	-0.00311975355529437	-0.0209322800066293	0.000755091426783004
10.3	-0.0138014494665685	0.0017710596513559	-0.000900727175694593	-0.00301439244232286	-0.000900483114006327	-0.00302783364719249	-0.0213383444334752	0.00513838206347042
10.4	-0.0132145643529658	0.00312562653531593	-0.00131347342324204	-0.00286685021737154	-0.0013166594441652	-0.00286471601258949	-0.020504228762738	0.00921054417476769
10.5	-0.0119104505619867	0.00381890565953367	-0.00170003936417082	-0.00264534241786004	-0.00170622996261277	-0.00265262916196518	-0.0192722387644903	0.0125742497904335
10.6	-0.0108643617344562	0.00395272814429292	-0.00205995767541754	-0.00238742704763723	-0.00206146109946114	-0.0023925578034382	-0.0177348081200675	0.0164485430687712
10.7	-0.010168364792433	0.00403891017605162	-0.00236856439239507	-0.00207360020691723	-0.00237178298801818	-0.00208968948856781	-0.0151865760857876	0.020108369782424
10.8	-0.00957601849174056	0.00421976535549456	-0.0026369963482071	-0.00172396368728292	-0.00263404812187646	-0.00172613846902446	-0.0118620754377349	0.0234521644971729
10.9	-0.00890428609514456	0.0046071504114584	-0.00285483599371096	-0.00134331793612506	-0.00285411695888931	-0.00134846194581624	-0.00766981830517712	0.026050492429781
11	-0.00768185087293057	0.00455786200457259	-0.00301721386117746	-0.000926188187857183	-0.0030101717790598	-0.000930497170731136	-0.00323100619469783	0.027610282020557
11.1	-0.00702475976401279	0.00409214375608196	-0.00311356502649314	-0.000507536857588047	-0.00310578908724263	-0.000499215512516804	0.00163279356702979	0.0290740101712706
11.2	-0.00661909594125533	0.00373723892506052	-0.00315353947686675	-6.32228365846364E-05	-0.00316015790720043	-5.99947708244397E-05	0.00747130213463457	0.0293268114635774
11.3	-0.00624585571876453	0.0035343118965525	-0.00312957575638208	0.000379954419883724	-0.003132754366234	0.000377786544566995	0.0136437723333735	0.0281775540136205
11.4	-0.00589944132789257	0.00352796394871287	-0.00304127925541657	0.000811944661611743	-0.00304592396681624	0.000812104730171737	0.0195113261750683	0.0254275451231686
11.5	-0.00520604624136647	0.00314388968257907	-0.00290856713083261	0.00122176288812501	-0.00290101887300615	0.00122652433685802	0.0241204368020137	0.0210761765333923
11.6	-0.00502650092155288	0.00244350893822322	-0.00270405175299376	0.00161823051714259	-0.00271218060261751	0.00162798176170211	0.0278500982671344	0.016490978256234
11.7	-0.00510839073475077	0.00204856976723659	-0.00244786848207212	0.00198644183838863	-0.00244961739620395	0.00199014971350351	0.0311259139172172	0.0109091773780577
11.8	-0.00508642697146732	0.00204699570986694	-0.00214688617451771	0.00231113726061635	-0.0021561032932821	0.00232098946629372	0.0332638430844096	0.00453577394797934
11.9	-0.00447025218206327	0.00225696063377747	-0.00180551292382123	0.00258419240232906	-0.00180553064017465	0.0025907759928366	0.0339906381835992	-0.00225946197864105
12	-0.00349968104260932	0.00173373565932313	-0.001422515462102	0.0028103944121918	-0.00142701760748738	0.00281320460174666	0.0325282067208489	-0.00913162686732126
