# GHZ S RI R 50
0.2	-0.0139716830898107	0.00491710200569977	0.0030467236654696	-0.000884630413805348	0.00305718968232132	-0.000884474015715334	0.00581995257540027	0.000410371915229648
0.3	-0.0131122335025163	0.00553492566982987	0.00290115452567929	-0.00130087235010814	0.00289487021560425	-0.00131252609295369	0.00618957423953492	-0.00173384580422172
0.4	-0.012399330320983	0.00635457859972835	0.00268761452281994	-0.00169566319730301	0.00268550824484222	-0.00169757814339726	0.0057538471241899	-0.00345386507107833
0.5	-0.0115246964607822	0.00708213408595476	0.00241795950204425	-0.00205383760189433	0.00242077798901667	-0.00205756655577186	0.00514379838992083	-0.00500974092513345
0.6	-0.0110337179727464	0.0076235432897781	0.00210489000280431	-0.00237432607374274	0.00210414675990378	-0.00237717146153062	0.00373451358384825	-0.00663431575545702
0.7	-0.0105923742424768	0.00849918968885814	0.00175432470496991	-0.00264489492314371	0.00176053904581853	-0.00264899049555951	0.00189652144361672	-0.00744732122777603
0.8	-0.00990670694376549	0.0093760243413102	0.00136054388512941	-0.00286565974282784	0.00136882622015863	-0.00286405895344276	-1.06344173747825E-05	-0.00771273374292226
0.9	-0.00927098080891759	0.0102306809045892	0.000955285034244392	-0.00301843499849305	0.000955267212355631	-0.00302786316218084	-0.00195396835744874	-0.00743515708088057
1	-0.0082533662549075	0.0111485891671185	0.00052135692114465	-0.00312641659884542	0.000521208405235818	-0.00313177960005921	-0.0033873232506846	-0.00643240773247348
1.1	-0.00740223411990538	0.0112226675814661	7.40163173186633E-05	-0.00316658087325526	7.49061189899496E-05	-0.00317131313584931	-0.00457072418952587	-0.00580686475603391
1.2	-0.0070642986756646	0.0111986902477481	-0.000365712738552246	-0.00314010904781866	-0.000364483361036531	-0.00315692816826004	-0.00565691847956601	-0.00472895082286998
1.3	-0.006976140301716	0.0109319189016109	-0.00079802357393923	-0.00306590462876814	-0.000802969818655751	-0.00307357165858089	-0.00590331356181138	-0.00356138035248861
1.4	-0.00689306562480327	0.0107459214375633	-0.00122493162877078	-0.00292021481309647	-0.00122735221816789	-0.00292735512056961	-0.00573153201190245	-0.00274927380030859
1.5	-0.00613290794016897	0.0108847711552625	-0.00161664373901986	-0.00272186316327849	-0.00161466891558515	-0.00272741320564029	-0.00519927513912819	-0.0021611373596186
1.6	-0.00544359768424704	0.0112587612566232	-0.00198125928994528	-0.00246592295537268	-0.00198473647798916	-0.0024668036288095	-0.00560119659434364	-0.00133275294014591
1.7	-0.00434302782914953	0.0118945935083059	-0.00230759832467317	-0.00217039088940421	-0.00230965513973267	-0.00217899535011964	-0.00546947365808369	0.000226634736697517
1.8	-0.00316488847116048	0.0123817083736534	-0.0025851576882565	-0.00181983594175006	-0.00259034821724559	-0.00182530434033147	-0.00487874869318338	0.00163736844248961
1.9	-0.00201863682625569	0.0126658055877963	-0.00281106022934221	-0.0014496761789198	-0.00280753795213769	-0.00144347673827169	-0.00392451265524475	0.00296982875006835
2	-0.000712442391682336	0.012689384061695	-0.0029878005954402	-0.00103715991619108	-0.00299054205469905	-0.00103029742168446	-0.00231612721236655	0.0039045013165941
2.1	4.50263811827386E-05	0.0123065304278985	-0.00310330595011676	-0.000601967788282747	-0.00310542147320517	-0.000608676660158252	-0.00100058987656156	0.00391493721711265
2.2	0.000688761517062516	0.0123047162073239	-0.00315582826946661	-0.000169180199890932	-0.00315763038505363	-0.000159430358167772	0.000353218791456679	0.00395968567097933
2.3	0.00133137723136101	0.0121966318169228	-0.00314667629681334	0.000274377179012558	-0.0031534515369285	0.000271472601181683	0.0017218240946239	0.00358167648057726
2.4	0.00189903208721305	0.012154029572838	-0.00308586760703935	0.000710489651729159	-0.00308466373500576	0.00072564066071528	0.00300389265828734	0.00303534391585308
2.5	0.00270022421061133	0.0121081173852851	-0.00294873447731971	0.00114517824257914	-0.00296176493095793	0.00114651342092832	0.00462816600323895	0.002217424199139
2.6	0.00328851052789742	0.0116947123833543	-0.00275539508457822	0.0015404499921768	-0.00277634520114284	0.00154442881174457	0.00594628819054667	0.00034074129588588
2.7	0.00382130582804691	0.0115917373950083	-0.00252159917610332	0.00190938389085308	-0.00252186419419281	0.00191447996245079	0.00652748936912248	-0.00166399495897587
2.8	0.00457105997344817	0.0115295166258794	-0.00222466767457742	0.00223447630451106	-0.00223448567821571	0.00224572187346335	0.0066253121720621	-0.00363622323984051
2.9	0.0055606857109992	0.0114177553456385	-0.00188564877935998	0.00252746883153151	-0.00188368678400676	0.00253638740044066	0.00647724798545783	-0.00533153196044583
3	0.00683848638287736	0.0109652141675854	-0.00151161788009624	0.00276839891898478	-0.00152676669356313	0.00275540142579856	0.00647997101764149	-0.00710098060997972
3.1	0.00766923263042192	0.0102559126219809	-0.00111260470426266	0.00294985315351083	-0.00112954924079098	0.00295532252866852	0.00565876675872456	-0.0092830817670831
3.2	0.00844862663163572	0.00967345143398514	-0.000691942837795438	0.00307388639128425	-0.000687630152168117	0.00308469093804896	0.00418888582380611	-0.010925726647983
3.3	0.00915934503817002	0.00892960964039513	-0.000261053034306575	0.00314353410137892	-0.000257767762861276	0.00313913697041557	0.00246622984212828	-0.0123514030386919
3.4	0.0097326536748272	0.00818911144249981	0.000185459637633849	0.00314879157897985	0.000176029729606411	0.00314990978679244	0.000480792325647347	-0.013469848306936
3.5	0.0103966740956117	0.00732048361949748	0.000617656715964562	0.00308984862973504	0.000622661416333754	0.00308849983985626	-0.00146588640343543	-0.0144689434635372
3.6	0.0105645292671508	0.00626671614073789	0.00103807365225216	0.00296916712096486	0.00104468926255138	0.00297263628074824	-0.00418970463152489	-0.0154279405653145
3.7	0.0106677014728506	0.00561095077263237	0.00145465811457109	0.00279022966179321	0.00145297874827338	0.00280661231665965	-0.00722469650518204	-0.0153792984169794
3.8	0.0109056807216906	0.00500825944237861	0.00182178048467375	0.00256125403446286	0.00183240720009416	0.00256756214523912	-0.0101859472649035	-0.0146363848422782
3.9	0.0112556576078504	0.00444992344886268	0.00216716054913873	0.00228158869894148	0.00216256340483797	0.00228151082159229	-0.0128942561679592	-0.0130926671790817
4	0.0119102468365582	0.00366867338496429	0.00245775605902485	0.00196217053694327	0.00246922092565714	0.00196826742682182	-0.0146358677071296	-0.011153373094873
4.1	0.0120565039323345	0.00253319146297414	0.00270830530977679	0.0015929018863811	0.00272490845912777	0.00160260406142468	-0.016399728386034	-0.00945651644475481
4.2	0.0121114127918175	0.00170527462869619	0.00290704633671087	0.00119493850120997	0.00290828857825907	0.00119721727288093	-0.0180269130708961	-0.00709979890715298
4.3	0.0121557020192131	0.000901509463894073	0.00304726062041774	0.000786850664834553	0.00304848166370993	0.000795420677706678	-0.0191641047802484	-0.00446355949472534
4.4	0.0121040050574747	0.000134471759871659	0.00312446162799085	0.000351931739371514	0.00313235478567045	0.000347267514668735	-0.0198314088918562	-0.00140662818929929
4.5	0.0122569604109073	-0.000657766157256045	0.00314570047531627	-9.412623868227E-05	0.00314252477552524	-9.18519746550419E-05	-0.0193133282915004	0.00167130928470944
4.6	0.0118694635489743	-0.00175803754118837	0.00308776540364928	-0.000538565066923893	0.00310082490217063	-0.000526670240582534	-0.0187160177722649	0.0038716050325291
4.7	0.0114706541244003	-0.00236728913882281	0.00298365310862779	-0.000949095962794841	0.00298351815815561	-0.000958507049878946	-0.0180496306582095	0.00621896975298148
4.8	0.0111417568423415	-0.00297384775326215	0.00283315035933647	-0.00134956317355894	0.00282543881689156	-0.00136965813054752	-0.0169257031798739	0.00858854200076214
4.9	0.011002112849001	-0.00346439257462995	0.0026158060921132	-0.00174507306466097	0.00260978661240882	-0.00173663007702767	-0.0153064450116246	0.0109234469993674
5	0.0112147005275137	-0.00422493083229292	0.00233750359260595	-0.00207321187171206	0.00234019040860662	-0.00208559874915445	-0.0125483669589744	0.0127942435477445
5.1	0.0110119913225318	-0.00525298598775817	0.00201747247578495	-0.00239231652884795	0.00203065409543534	-0.00238988756753141	-0.0100320363373374	0.0136249183819145
5.2	0.0108599166684899	-0.00605392033993579	0.00167598496911515	-0.00264706349064552	0.00167647227795914	-0.00265120979397093	-0.00744565520084416	0.0144328709431316
5.3	0.0107068148289235	-0.00697485403022551	0.00128706715768112	-0.00285582062626288	0.0012833310506043	-0.00285837190144771	-0.00458427341811631	0.0148469135991694
5.4	0.0103979808554766	-0.00784809792244472	0.000877388605465962	-0.00301155027856187	0.000876498255986526	-0.00301399538103462	-0.00154424652107165	0.0147165430883218
5.5	0.0101371809528648	-0.00884319522690983	0.000443084700247952	-0.00310302495235225	0.00045559975851541	-0.00310302552303418	0.00182406079872539	0.0135051136597629
5.6	0.00906304545413629	-0.00986331084245213	1.23141561141248E-05	-0.00313380965299613	9.03619572772892E-06	-0.00313036264492791	0.00368487062055525	0.0112042824263551
5.7	0.00801674097770321	-0.010202316147738	-0.000418669969815263	-0.00310690259851219	-0.000422374794599365	-0.00311056985687406	0.00479064313234951	0.00941991037699691
5.8	0.0071822649164771	-0.0104716436925372	-0.000850518241433954	-0.0030160140051076	-0.000849800524843806	-0.00302366170207384	0.00562581319210816	0.00755463495751078
5.9	0.00632308383294927	-0.0105624848721621	-0.00126349242420898	-0.00286375624819533	-0.00126190232966713	-0.00286788826113911	0.00596319855652643	0.00595940673714022
6	0.00588899582965738	-0.0107283160770945	-0.00164999455624652	-0.00266137795856082	-0.00164403089957122	-0.00266471389641047	0.00678164203218195	0.00459891401924041
6.1	0.00492914292969162	-0.011418777634337	-0.00200684299197143	-0.00241015282655947	-0.00200272221938336	-0.00241490004242713	0.00718007397752202	0.00212636260061105
6.2	0.00383112980870244	-0.0116734801248722	-0.00232364248156091	-0.00209575613705806	-0.00232008612268319	-0.00210437976235061	0.00685216865485043	-0.000176853158343487
6.3	0.00296272145059142	-0.0118890210486852	-0.00258871168043639	-0.00175940395325658	-0.00259847703998549	-0.00176712623306516	0.00615167467792622	-0.00252113961913842
6.4	0.00215960713368617	-0.0121078271323458	-0.00281522777572501	-0.00137790640049249	-0.00281324357184734	-0.00138367432654426	0.00509723591257136	-0.00455918844127227
6.5	0.00166518338229597	-0.0126815201427595	-0.00298063854877226	-0.000976591047417549	-0.00298104085969332	-0.000975473605524411	0.00428613844927447	-0.00683791636587812
6.6	0.000440183579531344	-0.0130294347311661	-0.00308245546066343	-0.000553929752955761	-0.00309306854082076	-0.000556924413229385	0.00193977250724114	-0.00909862542006051
6.7	-0.000396227169176396	-0.0128996331002948	-0.00312764814424371	-0.000123732277154059	-0.00312661733475677	-0.000117523401473728	-0.000783347640894138	-0.00997012899669657
6.8	-0.00116386122782298	-0.0127653333429914	-0.00311460553414121	0.000321461746102674	-0.00311371037539337	0.000326200997514808	-0.00354083279300062	-0.0100004082818044
6.9	-0.00191482406454757	-0.0124556224785331	-0.00303398652002904	0.000750034914549828	-0.00303441435815482	0.000754995916255037	-0.00600376037460113	-0.00898644852516102
7	-0.00220795679141708	-0.0123689041740015	-0.00290320595578807	0.00116496547749289	-0.00290461794705256	0.00116816281278574	-0.00717250713396868	-0.00784073839346029
7.1	-0.00340052162716048	-0.0124771548198447	-0.00270969172954658	0.00155898735721967	-0.00271213058606049	0.00156994286711059	-0.00919866565848616	-0.00722757192012592
7.2	-0.00439613209532102	-0.01190793016624	-0.00247326439216555	0.00191945876119992	-0.00247346346663426	0.00192532601901588	-0.0111780079049018	-0.00530788518577423
7.3	-0.00522819679667739	-0.0113487795165686	-0.00218588915785746	0.00224392535151387	-0.00218314406713619	0.00224540115325792	-0.0124897008234062	-0.0028815088932907
7.4	-0.00610528517019373	-0.0106923709629445	-0.00184649001377816	0.00252685996383297	-0.00183932987147422	0.00253337572134769	-0.0133249322355829	5.27711008935734E-05
7.5	-0.00645224461061494	-0.0100930062746872	-0.00147528720925649	0.00276110235349555	-0.00147631229647974	0.00275909225618069	-0.0122795453720479	0.00332112606137718
7.6	-0.00726044319394811	-0.0101969488794582	-0.00108584906519074	0.00294208089140825	-0.00107528112303827	0.00295244525374098	-0.0108053283664808	0.00487655545018919
7.7	-0.00820099453503261	-0.00978404179839525	-0.000658640475304048	0.00306855020260375	-0.000653092994294983	0.00306822973409797	-0.00948288579980829	0.00621546137578385
7.8	-0.00885596698437843	-0.00954444342599244	-0.000214834497360266	0.00313219848864688	-0.000228400478219147	0.00312507316755636	-0.00787410177130729	0.00740205116622775
7.9	-0.00942519395397718	-0.00924499136016869	0.000206329685339532	0.00312203842816447	0.000217389692867669	0.00312179489404124	-0.00581077905811148	0.00860345899938054
8	-0.00963716135804769	-0.00929730617811822	0.000641280478280756	0.00307297196955063	0.000649570895884658	0.00307094744163089	-0.00291861858668039	0.00883105724821073
8.1	-0.0107004167607487	-0.0090223434033814	0.00107514422258912	0.00295178714916319	0.00107288305449973	0.00294852672361787	-0.00128488109439906	0.00827240802432321
8.2	-0.0113448648225992	-0.00827609407535293	0.00146717621629042	0.00277233408148955	0.00146629504042384	0.00278390047065605	0.000471686823016827	0.00822874497700267
8.3	-0.0118849207721491	-0.00756613685428481	0.00184094045040117	0.00254344550320702	0.00184602566516097	0.00254089045329137	0.00241088726325167	0.00790619316894786
8.4	-0.0123916338773351	-0.00660446165546657	0.00219053293173974	0.00226658753774628	0.00217936983220294	0.00226692478479287	0.0043761707920494	0.00743830462120458
8.5	-0.0123781415376631	-0.00585509209292662	0.00249127330504154	0.00193096354143468	0.00249127618249752	0.0019323145645683	0.00715882265889938	0.00617412787323851
8.6	-0.0131074598210984	-0.00526461851400855	0.00272290548329125	0.00157160354808471	0.00271870702928879	0.00156927532442362	0.00852876368098617	0.0033110525829417
8.7	-0.0134831195120781	-0.00404801521706815	0.00291557083485686	0.0011748055806464	0.00291441014057226	0.00117438853551833	0.0089189560750465	0.000873742200783944
8.8	-0.0134472150320911	-0.00293347311016126	0.00304844924935729	0.000757065416565679	0.00305944565913128	0.000755014868673725	0.00874898473210702	-0.00147523782678392
8.9	-0.0131477092664125	-0.00196392028932846	0.0031257873830625	0.000325235267398228	0.0031351826495708	0.00031813438844169	0.00824648157627248	-0.00325471777589114
9	-0.0123158911119468	-0.00152147029540307	0.00313870193941392	-0.000123423695156058	0.00314545177217197	-0.000117787641525272	0.00852593282679261	-0.00494121509116934
9.1	-0.012140237167814	-0.0016470335153278	0.0030957389230165	-0.000554102635072683	0.0030959579432211	-0.000554293963953151	0.00796417701129785	-0.00764919679958239
9.2	-0.0119886337206123	-0.00157148774379629	0.00298498485248061	-0.000977447834199201	0.00298880944039023	-0.000977202315941834	0.00677933554347188	-0.00991309480368193
9.3	-0.0119866899488802	-0.00162612099552534	0.00281541065391396	-0.00138941401840132	0.00283349296124641	-0.00138975331580695	0.00514452442897423	-0.0120481519513664
9.4	-0.012184424994969	-0.00151598770623402	0.00259873623705528	-0.00176388694650963	0.00260212189807494	-0.00177491463218726	0.00295016911766145	-0.0137020841599292
9.5	-0.0123054852547169	-0.00146880925218383	0.0023315503072099	-0.0021206972768781	0.00234638257957483	-0.00212126692705594	0.000833174690093448	-0.0153022924518522
9.6	-0.0132127141381249	-0.00113221723614984	0.00201539425468823	-0.00242878956504967	0.00201567439702581	-0.00242174859673307	-0.00311464620530096	-0.0168251172614042
9.7	-0.0136446243074559	-0.000173019191434402	0.00165301280195608	-0.00268754454069719	0.00166134944246819	-0.00268909115532201	-0.00744412405611021	-0.0165420958646762
9.8	-0.0138015596602481	0.000720775018339708	0.00126835282634032	-0.00288715116238126	0.001266568168083	-0.00289584391558869	-0.0115805592155281	-0.0151022379585662
9.9	-0.0138288835610201	0.00170389285742228	0.000858634366136441	-0.00303677261336582	0.000846718548712531	-0.00303947285645612	-0.015412583451878	-0.0123057557247589
10	-0.0134330876941491	0.00230247087584537	0.000422868744762227	-0.00312304410399777	0.000422091273683357	-0.00313041030144961	-0.017537725044126	-0.00895816545239947
10.1	-0.0137605103696284	0.00275240035448092	-1.73764440941444E-05	-0.00316237504392466	-2.20360192903215E-05	-0.00316518147665924	-0.019862165898093	-0.00608856266596044
10.2	-0.0138079020640266	0.00373084786381852	-0.000461175228524936	-0.00312409079375551	-0.00047383818002595	-0.00312792602410689	-0.0217505477494552	-0.00210850878247372
10.3	-0.0135550103014748	0.00467883378944985	-0.000897308449215393	-0.00302352697322249	-0.000897038616713869	-0.00303700093191453	-0.0226610146212047	0.00250051192137568
10.4	-0.0130437434425294	0.00560172778677285	-0.00131189974213602	-0.00287797471882436	-0.00131509942331222	-0.00287584024016216	-0.022240911910526	0.00755586772181034
10.5	-0.0121072858761485	0.00608278798523467	-0.00170335953330886	-0.0026562510825599	-0.00170956453866697	-0.00266356936399925	-0.0196934231301223	0.0120967513388439
10.6	-0.0117928204978764	0.00639819075777387	-0.00206435630138633	-0.00239589335928563	-0.00206586057175783	-0.00240104026963444	-0.0171223762490827	0.015234703450518
10.7	-0.011234492023225	0.0070223097072737	-0.0023741222964464	-0.00208146538231249	-0.00237733893112546	-0.00209760482287588	-0.014043456834746	0.0183339563299357
10.8	-0.0105845917933713	0.00751309802395577	-0.002644341928067	-0.00173087257694594	-0.00264138319389051	-0.00173305256191784	-0.0105834584541954	0.0208718541343198
10.9	-0.00991348518880318	0.00808764003209547	-0.0028642449727981	-0.00134799710958499	-0.00286352317253085	-0.00135315819526473	-0.00665881934346525	0.0232510599407107
11	-0.0087170478471644	0.00827168406568436	-0.00302532686046684	-0.000927540163099183	-0.00301826807437008	-0.000931862704181921	-0.00124682709471975	0.0246315496468043
11.1	-0.00826126300593254	0.00830964638673929	-0.00312169010733796	-0.000509495651582255	-0.00311389527608489	-0.000501150778577137	0.00336051696896717	0.0242381332821659
11.2	-0.007419488206483	0.0086183445548765	-0.00316289102245184	-6.35157532522625E-05	-0.00316952919138603	-6.0278333830289E-05	0.00790715394426291	0.0236984610401108
11.3	-0.00629974315916181	0.00860487671488907	-0.00313896695232397	0.000382114392772314	-0.00314215592055386	0.000379940948355412	0.0125216421156652	0.0225562304081096
11.4	-0.00536867396482761	0.00833397847371854	-0.00304902644653721	0.000816200575906465	-0.00305368371474908	0.000816364199577279	0.0171230810701935	0.0207199947360772
11.5	-0.00435386342092743	0.00754224675589756	-0.00291580560016468	0.00122500297212522	-0.00290823809468801	0.00122977594703718	0.0222972402113398	0.0173608824203211
11.6	-0.00423590107297744	0.00663433394871169	-0.00271236940660751	0.00162433201827337	-0.00272052176517894	0.00163411753093934	0.025645856630447	0.0122398192032888
11.7	-0.00399212161970937	0.00611536966712917	-0.00245419871027547	0.00199494881498548	-0.00245595024738891	0.00199867022809779	0.0278693064261909	0.00724923979550474
11.8	-0.00370461634726482	0.0055743157323242	-0.00215084386254777	0.00232056730829065	-0.00216007805085905	0.00233045978615655	0.0293691832742771	0.0022486785909014
11.9	-0.00334685309311707	0.00507401761027926	-0.00180798322388923	0.0025931878357337	-0.00180799445927885	0.00259978979830114	0.0303152025787558	-0.00228510904138722
12	-0.00289380055673578	0.00409258848055321	-0.00142477742936316	0.00282159753203642	-0.00142929260830236	0.00282442189737996	0.0317832489033774	-0.00787116151029807
