# GHZ S RI R 50
0.2	-0.0137883602089018	0.00560452162513899	0.00304239836691065	-0.000885743868658392	0.00305285181726031	-0.000885595166253047	0.00606816914456408	0.00117542596091305
0.3	-0.0130488313009949	0.00591275546888933	0.0028956551657683	-0.00130151697826838	0.0028893698494832	-0.00131314768538799	0.00629692792339629	-0.00127628999639918
0.4	-0.0123425934480437	0.0064116138257247	0.00268078762439501	-0.00169512237900296	0.0026786834450914	-0.00169703156063867	0.00580020577754288	-0.00332182968861511
0.5	-0.0120785617370314	0.00712131138211096	0.00241092260488912	-0.00205056377562785	0.00241373202237182	-0.00205428576487309	0.00441584041037753	-0.00483500232273663
0.6	-0.0111428412489111	0.00829249377058144	0.00209907881562983	-0.00237022112702803	0.00209833573773206	-0.00237305992262705	0.00339657220029914	-0.00557960502728531
0.7	-0.0102328893152631	0.00889167186664285	0.00174852239492797	-0.00263968430223222	0.00175471943089822	-0.00264377396085582	0.00213155352003053	-0.00648149836379389
0.8	-0.00936057572251578	0.00946871079633946	0.00135539805229719	-0.00285867626444023	0.00136365898853713	-0.00285708408896957	0.000576463976493114	-0.00694213194072154
0.9	-0.00849409301786842	0.00989706570998826	0.000951945285005291	-0.00300973807588101	0.000951925848015195	-0.00301913854360433	-0.000907957251158232	-0.00712775833570969
1	-0.00810121327727366	0.00997061027265986	0.000520491383448587	-0.00311829966515521	0.000520344063912221	-0.00312364890110036	-0.00291299435069866	-0.0072908036329696
1.1	-0.0078060774029568	0.0109483373091041	7.29215580449448E-05	-0.00315803322430829	7.38076152587551E-05	-0.00316275293306123	-0.00495078727488154	-0.00586045145734975
1.2	-0.00693844849317108	0.0112357921900065	-0.000364922340954201	-0.00313028544483778	-0.000363698662703547	-0.00314705230220629	-0.0057091598187283	-0.00438310036789806
1.3	-0.00651195428551824	0.0109784018066497	-0.000794756997379877	-0.00305604475683946	-0.000799685419914456	-0.00306368776075539	-0.00578422776387616	-0.00302678535352037
1.4	-0.00623865603447074	0.0105781976832095	-0.00121966874901365	-0.00291166522592437	-0.00122207826968692	-0.0029187843480625	-0.00542232632252781	-0.00217942590941196
1.5	-0.0060358293635186	0.0107323170298057	-0.00161159411857872	-0.0027135200272196	-0.00160962523637838	-0.00271905292256327	-0.00546862640345844	-0.00132456881655729
1.6	-0.00482995317380346	0.011306095054404	-0.00197277100780009	-0.0024567619852671	-0.00197623425668169	-0.00245764015684127	-0.00509591753190984	6.76458754342241E-05
1.7	-0.00374197019110576	0.0114080679291147	-0.00229633909553675	-0.00216363565104362	-0.0022983799939773	-0.00217220707804398	-0.00460106871383487	0.00110002734777097
1.8	-0.00277021286098126	0.0116222446700485	-0.00257269942527754	-0.0018157777298895	-0.00257786272894201	-0.00182123079269693	-0.00400294452905985	0.00206197332920867
1.9	-0.00185201146073313	0.0115512788352555	-0.00279830001764878	-0.00144743350198478	-0.00279479907164365	-0.00144125401183656	-0.00324269740639875	0.00275174806253949
2	-0.00152387406213614	0.011653095019377	-0.00297228400966188	-0.00103623733180647	-0.00297502165024749	-0.00102941095546342	-0.00297179731518562	0.00357254018020924
2.1	-0.000438229133185168	0.0121795864525314	-0.0030871856911659	-0.000606997849696318	-0.00308927426982448	-0.000613680527700572	-0.00155381321135063	0.00483770939345582
2.2	0.000640191465630339	0.0120673988734721	-0.003141808232137	-0.000177603160937061	-0.00314363088505007	-0.000167900342663445	0.000394538475697651	0.00502869823328134
2.3	0.00145736289391682	0.0117840867447427	-0.00313439911987101	0.000263538090490815	-0.0031411371563886	0.000260624751155833	0.00221796296715405	0.00452951608926424
2.4	0.00218874970771615	0.0113822318608407	-0.00307464210934645	0.000696988553410246	-0.00307349444772562	0.000712076772674203	0.00397023123032823	0.00338782118647057
2.5	0.0022517072523361	0.0108642605321366	-0.00294098188685076	0.00112638987727295	-0.00295396076104744	0.00112765855105129	0.00472054991933316	0.00154378165027149
2.6	0.0026304153423564	0.0113028574629979	-0.00275400059843646	0.00152187782881153	-0.00277490206490718	0.00152574062330355	0.00530188544662115	0.000472585573045173
2.7	0.00349972466722031	0.0114100138664422	-0.00252317611968371	0.00189145877708859	-0.00252346489475937	0.00189653816253618	0.00594862413567936	-0.00109087080650707
2.8	0.00455326693179845	0.0113636415352278	-0.00222943572696004	0.00221655831019575	-0.00223928180677637	0.00222772070488889	0.00627335719465089	-0.00278223215364541
2.9	0.00575084954010825	0.010932294477437	-0.00189501942200937	0.00250962805699262	-0.00189311425254787	0.00251853334168371	0.00636485665316196	-0.00468448528936763
3	0.00651614754537001	0.0104201211120846	-0.00152669481409115	0.00275514273674796	-0.00154174174450542	0.00274206934815038	0.00559225248903363	-0.00643462430739602
3.1	0.00781918813194447	0.0101183629958906	-0.00112711718423819	0.00294046587081469	-0.00114407134404795	0.00294583810794876	0.00515183936602383	-0.00762450702266804
3.2	0.00887249532093986	0.00919670708314041	-0.000708186730659838	0.00306617190535703	-0.000703939616068056	0.00307698688669588	0.00424601866444908	-0.00925791241215825
3.3	0.00963623960987551	0.00815864438468772	-0.00027951814802718	0.00313909803255904	-0.000276209725717437	0.00313472448183421	0.00293486215821245	-0.0108410182742685
3.4	0.0101825147722081	0.00699203245153908	0.000166015797276525	0.00314970476842292	0.000156579681599098	0.00315076470506859	0.00123821598119254	-0.0125135767508838
3.5	0.0100547034344626	0.00598308080153893	0.000602221311635805	0.00309457037256201	0.000607235435605581	0.00309324640638782	-0.00164189149182886	-0.0138445678449003
3.6	0.0104644377001912	0.00560944760857157	0.00102217328357801	0.00297375043254534	0.00102876873388329	0.002977253326814	-0.00411327754812071	-0.0137647485998957
3.7	0.0109103520264496	0.00473203395551528	0.00143860744592855	0.00279882890270671	0.0014368331727438	0.00281520290823801	-0.00635432998220915	-0.0138219417076366
3.8	0.011200400626718	0.00383585876828279	0.00180797488668904	0.00257357886982202	0.00181857158809479	0.00257995326673665	-0.00881961211330852	-0.0136456844330403
3.9	0.0114171021741418	0.00283057674422455	0.00215724932222978	0.00229570884339177	0.00215264761168261	0.00229560617683782	-0.011490188950627	-0.0131809471462529
4	0.0110430842505045	0.00205590600515454	0.00244793518670392	0.00197526924336278	0.00245937014331182	0.00198142675224081	-0.0148277123356924	-0.0118383638012911
4.1	0.0114394047425071	0.00190211548870122	0.00269974572383629	0.00161151433773673	0.0027162968079734	0.00162133057432439	-0.0169561803788412	-0.00890359215897817
4.2	0.0119683313999657	0.00106663727582434	0.00290382893174601	0.00121565697635717	0.00290505833015854	0.00121794735856554	-0.0182003773868938	-0.00624121692621508
4.3	0.0122563256896997	0.000100393273942338	0.00304841818761486	0.000807361817719605	0.00304958836428243	0.000815956439512257	-0.0190197568356009	-0.00366857333467308
4.4	0.0123419504940288	-0.00108442709057847	0.00312806506411384	0.000371636574227108	0.00313600119639281	0.00036701190897437	-0.0195054932034402	-0.00123037476987886
4.5	0.0116640925230219	-0.00207155697422705	0.00315295063621824	-7.08654058089733E-05	0.00314975136702638	-6.86100880188935E-05	-0.0204018904454705	0.00130094311171211
4.6	0.0115422414768668	-0.0023277325074759	0.00310378228702577	-0.000518388837251052	0.00311680721026581	-0.000506353006544463	-0.0202184642915364	0.00493068057981116
4.7	0.011588657601642	-0.00304009017694976	0.00300306383948085	-0.000933875465887861	0.00300298957404286	-0.000943329163212331	-0.0191360090318847	0.00782579440198778
4.8	0.0114560145709834	-0.0038322093449223	0.00285479882959753	-0.00133816344332552	0.00284717682437507	-0.00135840032656618	-0.0175951102479407	0.0104546174640973
4.9	0.0114347871425302	-0.0047135520767167	0.00264041616258718	-0.00173671881999066	0.00263431103630951	-0.00172827276070446	-0.0155441254306362	0.0125139295864194
5	0.0109468887864481	-0.00552690075280384	0.00236704943205397	-0.00207262601093429	0.00236983438408121	-0.00208508174384518	-0.0136662080029611	0.0143727637091585
5.1	0.0112926220825609	-0.00602164183393857	0.00204302515979256	-0.00240012329035604	0.00205629004934265	-0.00239761583050521	-0.0103978574511336	0.0164170848787059
5.2	0.0114496669234223	-0.00728867965050385	0.00169893275835758	-0.0026583825811858	0.00169944110956267	-0.00266255571288456	-0.00679680688367531	0.0168886528207084
5.3	0.0112031590656512	-0.00859323798394951	0.00130818559275729	-0.0028713614588979	0.00130443271808205	-0.00287394668882201	-0.0035498917290754	0.0165605172885931
5.4	0.0106371038819716	-0.00990679133953259	0.0008958337770434	-0.00303309066756899	0.000894945200616578	-0.00303555922864111	-0.000726012841423755	0.0153924312313054
5.5	0.00920606623548656	-0.0105774480389215	0.000452040513301814	-0.00312920474148559	0.000464664105169046	-0.00312918469419777	0.000700327674651869	0.0142449033136454
5.6	0.00897567664803462	-0.0105817410452802	1.65694514166773E-05	-0.00315688829831725	1.32627530404528E-05	-0.0031534202432453	0.00313352211785415	0.0138339152095587
5.7	0.00854657339299442	-0.0113803500381794	-0.000417394263644984	-0.00313081482956073	-0.000421121678019614	-0.00313451487826253	0.0054856852251522	0.0120734130024067
5.8	0.00783737226395444	-0.0120950424444369	-0.000854302514864786	-0.00304064358702735	-0.000853571708066349	-0.0030483509462907	0.00724405162278795	0.00963911534494944
5.9	0.00702226975716087	-0.0128519620966469	-0.00127413587857074	-0.00288659538539343	-0.00127253367082894	-0.00289076091752706	0.00831571627066849	0.00651059400159929
6	0.0051780340685655	-0.0135898148179277	-0.00166260126901313	-0.00267727868667054	-0.00165660171173535	-0.00268064054748299	0.00716327904833397	0.0030704149748384
6.1	0.00404195208839087	-0.0129152253969005	-0.00201961452533277	-0.00242724669487083	-0.00201546405474258	-0.00243202468829177	0.0059988465246332	0.00188476311381011
6.2	0.00342277315390384	-0.0129547005124379	-0.00234139679816341	-0.00211102558893549	-0.00233781535388855	-0.00211971436016983	0.00544561333882391	0.000304233530061377
6.3	0.00287007831594845	-0.013172218417947	-0.0026099197591841	-0.00177007869519369	-0.00261976619392358	-0.00177784940593523	0.00481077847241718	-0.0014270789749953
6.4	0.00221243047623344	-0.0138454619495446	-0.00283652725664053	-0.00138280957661924	-0.00283453870423554	-0.00138861981439505	0.00396282701308127	-0.00361689238293232
6.5	0.000885688333694426	-0.0140760479399041	-0.00300073583440009	-0.000982062754135667	-0.00300114043662715	-0.000980937765544369	0.00177382028812179	-0.00513695351267532
6.6	0.00069454481269416	-0.0140612133341479	-0.00310833983919573	-0.000554838864809486	-0.00311904331976129	-0.000557845557105078	0.000807054414567988	-0.00578963458054452
6.7	-1.22150965033248E-05	-0.0145816117131765	-0.00315303017495095	-0.000117291888449837	-0.00315197634150659	-0.000111035658952881	-0.000867938945323155	-0.00696575967334997
6.8	-0.000876687528637236	-0.0147049133923292	-0.00313706891742441	0.000332981674343221	-0.00313615317888139	0.000337753919638842	-0.00304765661787003	-0.00741000465371982
6.9	-0.00171665364645666	-0.0149669292084889	-0.00305390298150094	0.00076352680222278	-0.00305432070604314	0.000768524772890596	-0.00526332026274174	-0.00756356463802394
7	-0.00348537454667001	-0.0146678297018719	-0.00292545802520738	0.00118404516050278	-0.00292687291643207	0.00118727511788621	-0.00878795780202165	-0.00662407203504635
7.1	-0.00377833910417354	-0.0135279509718066	-0.00272419041754613	0.00158609589291264	-0.00272659261869492	0.00159715551039558	-0.0102314051866838	-0.00353509325272622
7.2	-0.00412230597658477	-0.0134346046406705	-0.00248069440391593	0.00194772349002756	-0.00248086164388247	0.00195363535520339	-0.0106328945133689	-0.0013047963071229
7.3	-0.00484649523666251	-0.0133114666831105	-0.00218826499952365	0.00227265835238397	-0.00218549177683163	0.00227412855357795	-0.0105262607576601	0.000757592363725652
7.4	-0.00565567806676701	-0.0133666064830633	-0.00184444750283918	0.00255762914348914	-0.00183719205096889	0.00256414880774899	-0.00984814167866732	0.00203221731140427
7.5	-0.00764116426300023	-0.013376597344596	-0.00146157065952573	0.00279395859696979	-0.00146262082937179	0.00279194307453157	-0.0103634100725685	0.00263717400333065
7.6	-0.00857420661601949	-0.0118377455431032	-0.00106484980430552	0.0029662599159426	-0.00105413714931092	0.00297658061694846	-0.00994203183421871	0.00513665763067268
7.7	-0.00911202016489582	-0.0112637928155048	-0.000634915710243166	0.00308773573147459	-0.00062934665271763	0.00308736573722325	-0.00867944177572083	0.00623874414599428
7.8	-0.00951126636593008	-0.0109733201285964	-0.000187515079388294	0.00314702437836144	-0.000201201054192664	0.00313999188482228	-0.00748358510118221	0.00712474277077491
7.9	-0.00995243022789804	-0.0109732015638427	0.000238563973506925	0.00313099199308882	0.000249660617996984	0.00313063598993	-0.006416243416179	0.00781673516998818
8	-0.0111217569042692	-0.0102940379065242	0.00067347081786801	0.00306903898622632	0.000681747593770581	0.003066927357924	-0.00617121485437138	0.00931950362140562
8.1	-0.0105875662804478	-0.00949010503607452	0.00110140395515688	0.00294441052273749	0.00109911307900112	0.00294116754024834	-0.0033034223527553	0.0114183986841724
8.2	-0.0107034387354216	-0.00950212497561647	0.00149274216276039	0.00276154940250871	0.00149196223296672	0.00277313250471588	-0.000220917027258302	0.01167420634928
8.3	-0.0111135179101315	-0.00930714824058647	0.00186486125777931	0.00252690359021232	0.00186992382366689	0.00252430093862131	0.00266714242843803	0.0111317450220363
8.4	-0.011601545452789	-0.00914074516551307	0.00220900675625199	0.00224314068571224	0.00219786106392181	0.00224358225205296	0.00520107894981302	0.00945209428769827
8.5	-0.0130572100546639	-0.00847187383814511	0.00250061851398444	0.00190910698854661	0.00250063124435961	0.00191045541747615	0.00567909776969181	0.00771703129171072
8.6	-0.0130349058778041	-0.00678938811697345	0.00273321108626896	0.00154952591574151	0.00272899747577866	0.00154723166981506	0.00748431754592462	0.00732940817464652
8.7	-0.0128532837901971	-0.00612889788992158	0.00292156409304488	0.00114876203118353	0.00292040143814819	0.00114835528677246	0.00945955097752563	0.00526724312615038
8.8	-0.0128244475577978	-0.00553752467562819	0.00304778307967074	0.000729928776378598	0.00305873724005312	0.00072779128130611	0.0107275659688968	0.0024716884278427
8.9	-0.01270039650965	-0.00525436865942916	0.00311900354846143	0.000301369872049993	0.00312831921092576	0.000294220953792705	0.0114051573661417	-0.00103533199387362
9	-0.0133806848894714	-0.00494803345923513	0.00313354080362759	-0.000145933955472358	0.00314032217735968	-0.000140354337853218	0.00996619942589744	-0.00460079794076076
9.1	-0.01299199568135	-0.00399052088762051	0.00308308953093531	-0.000580338207396082	0.00308330629919575	-0.000580531013668491	0.00884459595712892	-0.00659996767340705
9.2	-0.0127085261086447	-0.00394572852777547	0.00296509655545268	-0.000999311458577045	0.00296890852148026	-0.000999099722513672	0.00736458795865426	-0.00920879571818807
9.3	-0.01274734327959	-0.0038425972574327	0.00279201392293143	-0.00140550100549026	0.00281001371675798	-0.0014059815244626	0.00506461118451434	-0.0114092220003656
9.4	-0.0129057205851018	-0.00386020078495745	0.00257518116131934	-0.00177645502133919	0.00257847046397271	-0.00178746452855797	0.00213347901365793	-0.0133409174423315
9.5	-0.013758814953209	-0.00304604763374043	0.00230085254185763	-0.00213311751178031	0.00231561187947985	-0.00213382501343282	-0.0022785649119336	-0.0137663684257143
9.6	-0.0131905781388142	-0.00203332274233724	0.00198043246358298	-0.00242919004725945	0.00198077124556576	-0.00242220060988274	-0.00504314122642263	-0.0126010194975406
9.7	-0.0130242798674123	-0.00182494258522294	0.00162064575025863	-0.00268003170853106	0.00162890909407025	-0.0026816293192671	-0.00773676754301061	-0.0119633433056984
9.8	-0.0131194201365434	-0.0014673221197053	0.00123832861605593	-0.00287446211931299	0.001236495660599	-0.00288307689176445	-0.0105552523018229	-0.0108683925647085
9.9	-0.013251645636701	-0.0011175112959158	0.000828617069602709	-0.00301903867890119	0.000816775936447619	-0.00302162648669988	-0.013456962189933	-0.00959152493537105
10	-0.0142525735569534	-0.000411022319565547	0.000396258261116283	-0.00309238878457011	0.000395437144503482	-0.00309967014196304	-0.0175888871318701	-0.0072852167559376
10.1	-0.0138308079902323	0.00115945072651865	-3.17665446594973E-05	-0.00312847205071845	-3.63892191314797E-05	-0.00313122699086612	-0.0196975337918808	-0.00271136936924516
10.2	-0.0132867369200597	0.00180309447125575	-0.000469280537868362	-0.00308972203558136	-0.000481827732779606	-0.00309346513248866	-0.0204681054549635	0.00121569153836168
10.3	-0.0128175169838427	0.00238875773218035	-0.000899383753813794	-0.00298720784809794	-0.000899169494961869	-0.00300053663328714	-0.0204769272188186	0.00507598153938163
10.4	-0.012273849704768	0.00260014546161723	-0.0013050106088149	-0.00283833287332262	-0.00130816404273396	-0.00283621437298379	-0.0197207267370355	0.00814328846015335
10.5	-0.0125754998949632	0.00314115315105073	-0.00168184571939945	-0.00262298362958963	-0.00168797246751467	-0.00263021032771593	-0.0199917998920187	0.0115089473914446
10.6	-0.011661951936371	0.00412794288090764	-0.0020413766556472	-0.00237106561958963	-0.00204286288714903	-0.00237615807996698	-0.0182822628982167	0.0160974540944328
10.7	-0.0109487849163344	0.00450139733523867	-0.00234770118369931	-0.00206004766691689	-0.00235087648069968	-0.00207601471847847	-0.0156416005876037	0.0198656535889533
10.8	-0.010202008591328	0.00497873428610443	-0.00261298231875596	-0.00171465062789632	-0.00261005398085666	-0.00171680301489789	-0.0121814599470101	0.023239663382485
10.9	-0.0092661950999416	0.00496799266981309	-0.00282867469658283	-0.00134132243601268	-0.00282794603398846	-0.00134642433951623	-0.00786657017590327	0.025432396654906
11	-0.00924451682724167	0.0052770603391393	-0.00299642641209481	-0.00092980587860662	-0.00298941325093665	-0.000934067852984047	-0.00454754625824577	0.0273615526758176
11.1	-0.00779968522337535	0.00597759905233758	-0.00309233286672815	-0.000511130341380342	-0.00308462552196278	-0.000502845585424914	0.00109281557569114	0.0296927617896077
11.2	-0.00661358350909259	0.00553729184361303	-0.00313188553388126	-7.16418329274691E-05	-0.00313846794947001	-6.8454323963711E-05	0.00745137512597996	0.0296884272356825
11.3	-0.00576388341801095	0.00491731214314526	-0.003110470359221	0.000366337995293991	-0.00311362047977276	0.000364172983482919	0.0138149650808652	0.0281155157373447
11.4	-0.00523847268818916	0.00404597347030578	-0.00302753203633943	0.000795777059128797	-0.00303215161009576	0.000795918423719762	0.0196011022012437	0.0247012419565121
11.5	-0.00574737079531698	0.00368441424782926	-0.00289491824782372	0.00120740456071486	-0.00288742540527919	0.00121215765053857	0.0230165857477206	0.0205833487328337
11.6	-0.00494297411486743	0.00383475374118305	-0.00269129105598497	0.00159759227260101	-0.00269939884460208	0.00160724806177399	0.027282384303189	0.0168484131557252
11.7	-0.00439604387496876	0.0030737334513096	-0.00244088256497515	0.00196270723931546	-0.00244263667184808	0.00196638336118634	0.0310070389322331	0.0110636185867857
11.8	-0.00411971807157228	0.00237215349618524	-0.00214519730793399	0.00228726628713787	-0.00215440684249508	0.00229701642288765	0.0333099069802336	0.00427946566245374
11.9	-0.00397510475398735	0.00140822630580296	-0.00180618535726587	0.00256144785243743	-0.00180623132692306	0.00256799323337331	0.0336515244663988	-0.0032649166954836
12	-0.00506480848588763	0.00120655275755866	-0.00142655927508645	0.00278242711362953	-0.00143104285238512	0.00278519346147994	0.0305524684481202	-0.00951136332959594
