# GHZ S RI R 50
0.2	-0.0138397046467914	0.00562789629674828	0.00304286229149131	-0.000885532428488715	0.00305331700070816	-0.000885382610416468	0.00592732734754421	0.00111312138355252
0.3	-0.0131117405433957	0.00595333244355503	0.00289631877335043	-0.00130133687459178	0.00289003400342406	-0.00131297039252024	0.00615864585756582	-0.00132101882702442
0.4	-0.0124157754440892	0.00651682122425673	0.00268169785735871	-0.00169511292995242	0.00267959346864804	-0.00169702289965673	0.00569871297480204	-0.00329121454824476
0.5	-0.0120785790822684	0.0072160891441122	0.00241182369980482	-0.00205099539994839	0.00241463427468807	-0.00205471829886505	0.00454922659768415	-0.00486124291035713
0.6	-0.011257434480847	0.00838003236129704	0.00209981913165096	-0.00237070260457851	0.00209907606467696	-0.00237354221860085	0.0034768453872153	-0.00585860037370345
0.7	-0.0103605893130042	0.00908877545885159	0.0017492911388577	-0.00264033925010277	0.00175549043502924	-0.00264442961584661	0.00209433612051468	-0.00683351554720999
0.8	-0.00945475415551737	0.0097282744433134	0.0013560722173647	-0.0028596046399173	0.0013643359917582	-0.00285801134484979	0.0004101936498473	-0.00732802299317508
0.9	-0.0085668948884864	0.0102085311990921	0.000952308992885774	-0.00301093221238696	0.000952289508509599	-0.00302033639717175	-0.00127331701932446	-0.0074164801170469
1	-0.00804420266219224	0.0103405222368763	0.000520447712473449	-0.00311928512215412	0.000520300000577621	-0.00312463598102196	-0.00318774071288596	-0.00720236823906517
1.1	-0.00775660422719858	0.01116416382931	7.3000855066085E-05	-0.00315904668395006	7.38872804895258E-05	-0.00316376789357711	-0.00493165207300991	-0.00582948354524497
1.2	-0.00697665802899726	0.0114927814181616	-0.000365092829509393	-0.0031314613328947	-0.000363868866612608	-0.00314823452217471	-0.0055697545723016	-0.00439057582600853
1.3	-0.00656079482328472	0.0112907992537392	-0.000795258764364197	-0.00305718288700452	-0.000800189585223668	-0.00306482855184156	-0.00548108335730459	-0.00316442935935691
1.4	-0.00630576786163124	0.0109532839673531	-0.00122040866414214	-0.00291252300093732	-0.00122281979855746	-0.00291964428403609	-0.00513725477534451	-0.0025177288542759
1.5	-0.00606115509676554	0.0111401713946549	-0.00161209520678213	-0.00271432996887033	-0.00161012576071936	-0.00271986454439589	-0.0051252310550952	-0.00187561018891466
1.6	-0.00492448964674896	0.0117798107111226	-0.0019737310650991	-0.00245779086020367	-0.00197719588556098	-0.00245866930817173	-0.00507856742449208	-0.000788970799449071
1.7	-0.00376678878482074	0.0119595719151733	-0.00229763070570797	-0.00216431664078218	-0.0022996735740742	-0.00217289163803033	-0.00488336459586872	0.000317745793343029
1.8	-0.00274806558044302	0.0121708543014364	-0.00257403155440866	-0.00181610086106542	-0.00257919782116555	-0.00182155530462236	-0.00444778065911659	0.00145196685562499
1.9	-0.00181812487864379	0.0121091156940356	-0.00279948455788	-0.0014476424811877	-0.00279598163261958	-0.00144146113755555	-0.00371104679114167	0.00243616629483132
2	-0.00141926262269127	0.0121868924614739	-0.00297389859117664	-0.00103659836445861	-0.00297663724771567	-0.001029768258301	-0.00301079621159872	0.00343002435518702
2.1	-0.000434187009639757	0.0126808367355786	-0.00308900592868433	-0.000606579539378843	-0.00309109725704912	-0.000613265333926981	-0.00146018590738771	0.00431562416839676
2.2	0.000654549251978403	0.012662955539687	-0.00314338472292278	-0.00017683970481169	-0.00314520563792086	-0.000167131673224789	0.000337915834219508	0.00434198687385271
2.3	0.00154338564365438	0.0123998496314826	-0.00313586754109863	0.000264497026174919	-0.00314260965533251	0.000261584040552552	0.00195048930017278	0.00381097488707126
2.4	0.00232418620670771	0.0119655192163223	-0.00307623240215512	0.000698232177890784	-0.00307507995391589	0.000713328822070337	0.0034449748734464	0.00288370495552226
2.5	0.002459847620373	0.0113865817437727	-0.00294232463198536	0.00112863831545669	-0.0029553113356769	0.00112991449236895	0.00441465463830301	0.00154385738918888
2.6	0.00273919521671879	0.0116817547951791	-0.00275436118344396	0.0015241524331333	-0.00277526982446776	0.00152802903184716	0.00543121904333952	0.000369736153130671
2.7	0.00349859019625792	0.0118082087956272	-0.00252321731585662	0.00189365578126791	-0.00252350342282615	0.00189873750121963	0.00624567116822354	-0.00140334803081442
2.8	0.00446969487370688	0.0118026822219131	-0.00222912649368644	0.00221887534879151	-0.00223897039481341	0.00223004859425116	0.00657754094015144	-0.00331603794377807
2.9	0.00559528210398829	0.0114491943993513	-0.00189403735542882	0.00251217097377055	-0.00189212475626431	0.00252107892620167	0.00659376606096852	-0.00526224201003524
3	0.00634479728107899	0.0109996693028981	-0.00152459586983807	0.00275701247123989	-0.00153965713415683	0.0027439496165523	0.00608573623790542	-0.00705717493589474
3.1	0.00752898103671053	0.0107968789708664	-0.00112523543673814	0.00294161562997469	-0.00114218805091492	0.00294700022505422	0.00561680123814996	-0.00871613097922408
3.2	0.00860795424798987	0.0100541334584761	-0.000706121305303209	0.00306716120950872	-0.000701865835749492	0.0030779748896583	0.00445586420206589	-0.0105528812748534
3.3	0.00945126752377931	0.00910901889566116	-0.00027709767007774	0.00313966895429655	-0.000273792292227945	0.00313529232818579	0.00287448830048894	-0.0122006978679288
3.4	0.0100574693750747	0.00798920994215398	0.000168655763783083	0.00314940502628505	0.000159221019131855	0.00315047284333071	0.000922023085488577	-0.0137287063101257
3.5	0.0100102784823755	0.00699604281985327	0.000603958812532398	0.00309354587395922	0.000608971066532045	0.00309221916692675	-0.00176705339459552	-0.0148586233249788
3.6	0.0103644632976138	0.00664204993311177	0.00102382536692683	0.00297308858526468	0.00103042261091428	0.00297658765232535	-0.00428601174988424	-0.0151245706947048
3.7	0.0108834036293237	0.00589261467328478	0.00144031851176441	0.00279772120331129	0.00143855490609213	0.00281409529630228	-0.00690389350372747	-0.0151991842702826
3.8	0.0113152733512342	0.00501859629199667	0.00180931821717817	0.00257202576151774	0.00181991727575395	0.00257839243638553	-0.00968817020470802	-0.0147544770455838
3.9	0.0116360584155962	0.00395588371517811	0.00215786671971144	0.002294108795089	0.00215326604447164	0.00229400841051953	-0.012453194979354	-0.013726489015723
4	0.0113457566402471	0.0030608285040661	0.00244870580873696	0.0019744603866565	0.00246014327861005	0.00198061402757745	-0.0151350122065655	-0.0118980418313766
4.1	0.0116128234295868	0.00280410920766983	0.00270091669996545	0.00160992471685717	0.00271747492331947	0.00161973120426149	-0.0167957784025641	-0.0093680765814665
4.2	0.0121146289449588	0.00201847093506787	0.00290447785679544	0.0012136859614793	0.00290570869684594	0.00121597541752721	-0.018022726261613	-0.00698086352724041
4.3	0.0124357570628593	0.00102312575792763	0.00304866729906239	0.000805388206057524	0.00304984275103233	0.000813981375446825	-0.0189161101923693	-0.00453187223167421
4.4	0.0124946267375049	-0.000254375919606792	0.00312831784722412	0.00036975922227095	0.00313625127319268	0.000365129741841425	-0.0194934572165154	-0.00197598640891433
4.5	0.0117478863217909	-0.00135052903152317	0.00315312474707729	-7.38254215891559E-05	0.00314992734726998	-7.15669337383624E-05	-0.019902926750393	0.000776312593070341
4.6	0.011334876697676	-0.00164977076449416	0.00310236045745155	-0.000521280379526399	0.00311539335198152	-0.000509260865291972	-0.0193922096691348	0.00380485871536348
4.7	0.0112148576795539	-0.00217147000072832	0.00300109667727511	-0.000936103010103398	0.00300101429060477	-0.000945552985169905	-0.0184672791520409	0.0062771399508501
4.8	0.0110476396128836	-0.00278979176578516	0.00285256718180886	-0.00134000651231314	0.0028449313794599	-0.0013602291225069	-0.0172014360629036	0.00866204785379836
4.9	0.0110323105145405	-0.00353551826991279	0.00263772854287705	-0.00173853141799998	0.00263163382429486	-0.00173008291910507	-0.015477347420962	0.0107622672117922
5	0.0105955254420108	-0.00425145853678627	0.00236301251677011	-0.00207349275244477	0.00236578217580355	-0.00208594165309805	-0.013401522934696	0.0127293732325704
5.1	0.0108990166176381	-0.00460235792561898	0.00203953099091558	-0.00239945035885475	0.00205278596186576	-0.00239695447055667	-0.0103536582507761	0.0142965873853402
5.2	0.0112243941349279	-0.00569118844802342	0.0016958167433551	-0.00265729843576352	0.00169632197619715	-0.00266146846852988	-0.00727141343754724	0.0148430033254429
5.3	0.0111789470004562	-0.00700862262827887	0.00130512807932529	-0.00286974404003515	0.00130137673271329	-0.0028723245137183	-0.00428972325679394	0.014890967912268
5.4	0.0106838823162343	-0.00843710811348034	0.000892818231561517	-0.00303041330758029	0.000891928951136762	-0.00303287859823685	-0.00141223752731994	0.0142443874423762
5.5	0.00923699518786626	-0.00922386780206065	0.000450698717085876	-0.00312529476713989	0.000463306096981564	-0.00312527781588904	0.000832847854045827	0.013267442759021
5.6	0.00876246581834316	-0.00917269228691204	1.62338072198543E-05	-0.00315382542677559	1.29306699020084E-05	-0.00315036040354481	0.0033287165019887	0.0120137861583301
5.7	0.00837548658146484	-0.00972225840062216	-0.000417441913319965	-0.0031278022896524	-0.000421166332783351	-0.00313149832202961	0.00510844651050712	0.0100105804374521
5.8	0.00786424530355979	-0.0103514783475751	-0.000853712887147726	-0.00303752325939325	-0.000852983486628674	-0.00304522296268386	0.00628255705597864	0.00778330160006422
5.9	0.00722475171312727	-0.0111831361357302	-0.00127242238060205	-0.00288374398960959	-0.00127082129922181	-0.00288790495315002	0.00686359073709253	0.0054426711706297
6	0.00553294120905141	-0.0121010138446224	-0.00166070997389682	-0.00267611307643279	-0.00165471314301469	-0.00267947092860451	0.006439352489865	0.00330705694069125
6.1	0.00422068038638386	-0.0116857694628547	-0.00201854847920371	-0.00242574567051071	-0.00201440063414981	-0.00243052107104901	0.00648554136246531	0.00193461579507048
6.2	0.00345309474896011	-0.0117243863743609	-0.00233981446357114	-0.00210933506879027	-0.00233623618045353	-0.00211801770377172	0.00650249027195768	-0.000159717750985684
6.3	0.00279305460251965	-0.0119528734000944	-0.00260782379993105	-0.00176876790708628	-0.00261766229544813	-0.00177653281662403	0.00601737686192628	-0.00253561645479815
6.4	0.00197673054009227	-0.0125504715811441	-0.00283448940753829	-0.00138232601600763	-0.00283250129902175	-0.00138813220211607	0.00494628287040162	-0.00497324718026738
6.5	0.000546732737086945	-0.0126376022207697	-0.00299937041693744	-0.00098091655938506	-0.00299977457030358	-0.000979792075091049	0.00318672833534517	-0.00677784071979391
6.6	0.000245640672704397	-0.0122706248581364	-0.00310550317394409	-0.000553779529559648	-0.00311619707547993	-0.000556781540075432	0.00175085667411417	-0.00833056134640118
6.7	-0.000174430232085822	-0.0125326805787181	-0.00314993791426664	-0.000117372857892821	-0.00314888550025366	-0.000111122684258131	-0.000568019780600012	-0.00959400652440337
6.8	-0.000790048927864186	-0.0127084630293197	-0.00313435525196436	0.000332170568684117	-0.00313344110844002	0.000336938753230087	-0.00318450072404238	-0.0099266361932777
6.9	-0.00158270987239162	-0.0130998867317044	-0.00305156395258849	0.000762791591754676	-0.00305198158406014	0.000767785657056065	-0.00568882951041606	-0.00960812647862974
7	-0.00337433030010321	-0.0129027983310035	-0.00292187385042861	0.00118282447736587	-0.00292328682872021	0.00118605066139678	-0.00835481250894882	-0.00834480071315187
7.1	-0.00392516533443692	-0.0116649759597374	-0.0027214656690505	0.00158303319650063	-0.00272386937747992	0.00159407817381412	-0.0097405434194185	-0.0063708445673525
7.2	-0.00413549036174092	-0.0112564546482804	-0.00247903746366141	0.00194437851643185	-0.00247920753848108	0.00195028398155739	-0.010928987623211	-0.00459689741530612
7.3	-0.0044954088104344	-0.0110669825748711	-0.00218716286694755	0.00226922965054247	-0.00218439322554248	0.00227069973709349	-0.0117592993780089	-0.0025213299550741
7.4	-0.00496527105848079	-0.0113314570499684	-0.00184353536874154	0.00255364452414793	-0.00183629186986084	0.00256016006362856	-0.0121505978627089	-0.000525848615223722
7.5	-0.00673444694140659	-0.0117931393839418	-0.00146259728055455	0.00278867433675031	-0.00146364390230587	0.00278666038430963	-0.0124974594392602	0.00169803871265129
7.6	-0.00799695638135159	-0.0107788439023848	-0.0010675414340655	0.00296257441551599	-0.00105684985237854	0.0029728995792071	-0.0114496388517957	0.00436607804378545
7.7	-0.00886929401705639	-0.0102692243596532	-0.000637883350760863	0.00308490272561168	-0.000632317731468986	0.00308453913026957	-0.010021885143079	0.00578265528012193
7.8	-0.0095720469334107	-0.00993736379207543	-0.000190920837790337	0.003144669385458	-0.000204589590463996	0.00313762631713732	-0.00844408583738475	0.00703643868232629
7.9	-0.0103693294347468	-0.00981340222535787	0.000234198559250218	0.00312920795674092	0.000245288223477463	0.00312886709615619	-0.00661769910634478	0.00809644810748344
8	-0.0117157457521183	-0.00880694886066474	0.000668770714672264	0.00306977943042742	0.000677049933948133	0.00306768050434881	-0.00482978387065204	0.00919928020223167
8.1	-0.0114507958822149	-0.00748984541608264	0.00109844710638652	0.00294555987773275	0.00109615947300846	0.00294231454178239	-0.0018898391238605	0.009739469266059
8.2	-0.011275362297602	-0.00701388148643894	0.00148986969116708	0.00276256723685429	0.00148907876839025	0.00277414785482256	0.000685258902268582	0.00940108619926311
8.3	-0.0113022337183131	-0.00669004923796553	0.00186179821097399	0.0025284879425538	0.00186686272193754	0.00252589123130003	0.00312760871156364	0.00865674532962354
8.4	-0.0115620760984497	-0.00662261227586725	0.00220640892065545	0.00224607582123623	0.0021952617292978	0.00224650358104999	0.0053110776200534	0.00726038911092858
8.5	-0.012939329212254	-0.0060939666819434	0.00250001373876829	0.00191169203618998	0.00250002543559558	0.00191304094122823	0.00667039966207181	0.00576891215702296
8.6	-0.0131174318996167	-0.00433492659214306	0.00273190596007002	0.00155154395772786	0.00272769428940254	0.0015492465965016	0.00856762710460092	0.00405153508381761
8.7	-0.0127419666623296	-0.00336777440098054	0.00292049240948005	0.00115156466544424	0.00291933013288396	0.00115115680615562	0.00966434027691627	0.00136249962760466
8.8	-0.0122856438531482	-0.00273697089639069	0.00304766058789208	0.000733072032800183	0.00305861899509818	0.000730944903840522	0.00987460448574364	-0.00145794022984068
8.9	-0.0117977977935882	-0.00273302627025555	0.00311994719917654	0.000303777666046813	0.00312927160313234	0.000296632931756489	0.00954596290640582	-0.00417168446288806
9	-0.012338942270142	-0.00287938377678913	0.00313329058797639	-0.000144224355689802	0.00314006823264397	-0.000138641657536567	0.0084685257541318	-0.00646765167634991
9.1	-0.0122469155958931	-0.00226165422384493	0.00308349702218373	-0.000577134682932825	0.00308371397528233	-0.000577327254691524	0.0077599555469227	-0.00843798711349733
9.2	-0.012165960612373	-0.00227309000964189	0.00296675993056432	-0.000996426085372789	0.00297057247325913	-0.000996210326737314	0.00646794071396316	-0.0107547465742961
9.3	-0.0123907305643248	-0.00225098220001746	0.00279416880258481	-0.001403428278854	0.00281217474669843	-0.00140389270998925	0.00458994850989056	-0.0127745014264554
9.4	-0.0128584650086494	-0.00230367730274527	0.00257684793790814	-0.00177474391044933	0.0025801459487424	-0.00178575235056207	0.0021438103474107	-0.0145702703964049
9.5	-0.0140588388512242	-0.00144228760170019	0.00230361419758703	-0.0021301396844376	0.00231837445413334	-0.00213082808122491	-0.00107640302018949	-0.0153460092205819
9.6	-0.0138992123079664	7.64028112629754E-06	0.00198469925889098	-0.00242803349981233	0.00198502923073625	-0.00242103961230398	-0.00395928224730914	-0.0156892975403001
9.7	-0.0136077847348622	0.000728507660035111	0.00162454042819187	-0.00268009219691669	0.00163281090996669	-0.00268168215135047	-0.00753949500359493	-0.0156085901456552
9.8	-0.013396078132917	0.00129439811285453	0.00124188759199166	-0.00287494296435233	0.00124006202642368	-0.00288356463055456	-0.0112824905973707	-0.0144726146507517
9.9	-0.0132853903950457	0.00156976635945801	0.000832698738442857	-0.00301962625153781	0.000820854501596476	-0.00302222971978103	-0.0149492646303005	-0.0123374044583625
10	-0.014193797315948	0.00216611762774611	0.000400994730767322	-0.00309543486693186	0.000400182728038791	-0.00310272582228034	-0.0183131903363127	-0.0089772972919315
10.1	-0.0139024059704164	0.00381726558998157	-2.92144922768516E-05	-0.00313233884911904	-3.38405597168862E-05	-0.00313510099979499	-0.0199740408485878	-0.00493746795764908
10.2	-0.0130956335068274	0.00462959560825488	-0.000467314253997803	-0.00309342812406452	-0.000479871979304772	-0.00309718529518896	-0.0209849242080714	-0.00114481270616184
10.3	-0.0122976350077217	0.0050186613455784	-0.000897644175005356	-0.00299146287718138	-0.000897417312774713	-0.00300480672880867	-0.0213237391425771	0.00288122904505948
10.4	-0.0117208759828914	0.00480496639467357	-0.00130419559623001	-0.00284409849701531	-0.00130735610969775	-0.00284197985398675	-0.0208106248691822	0.0067644731001098
10.5	-0.0123156815470865	0.00499790284053106	-0.00168439591386366	-0.00262840663513879	-0.00169053253526716	-0.00263564864874506	-0.0198011752013524	0.0109516048177876
10.6	-0.0119550257776558	0.00606520173721175	-0.00204409190854964	-0.00237461225711931	-0.00204557984152932	-0.00237971209749394	-0.0172151772145388	0.0148224608501244
10.7	-0.0114948287487151	0.00675065339930936	-0.00235075956878652	-0.0020633212269131	-0.00235393713147878	-0.00207931151859671	-0.0141839089094632	0.017926317030191
10.8	-0.0106483221835947	0.00740113046351467	-0.00261690234940177	-0.00171747918772401	-0.00261396933928424	-0.00171963469948451	-0.0106062655312907	0.0206168919856109
10.9	-0.00986652772393332	0.00757711484968044	-0.00283387420540854	-0.00134257736203784	-0.00283314610684993	-0.00134768805255761	-0.00666523823047545	0.0225383468314076
11	-0.00991682793589953	0.00808310266529704	-0.00300000654777171	-0.000928781703900929	-0.0029929891915871	-0.000933052469014742	-0.00253171854787244	0.024244512728933
11.1	-0.00863001167466511	0.00924193713058742	-0.00309538716062621	-0.00051106877964833	-0.00308767095323902	-0.000502777459217074	0.00284363678721303	0.0249529214873596
11.2	-0.00706518585206994	0.00933059696422476	-0.00313549302358994	-7.0997229016409E-05	-0.00314208224656936	-6.780453802216E-05	0.0080309865561122	0.0242212782945009
11.3	-0.00559788959277617	0.00882724929817798	-0.00311383439508526	0.000368153353926324	-0.00311698906378738	0.000365987303432629	0.0130889357441273	0.0226541474379929
11.4	-0.00458750418731687	0.00772975032792809	-0.00302940902519593	0.000798316201495563	-0.00303403214108609	0.00079846059704918	0.0177665189142461	0.0200265303333676
11.5	-0.004821253169758	0.00701200166400406	-0.00289654375031853	0.00120810773189497	-0.0028890466420879	0.00121286344969012	0.0215561067312556	0.0167737011968509
11.6	-0.00404479812211524	0.0069673472889178	-0.00269422831848222	0.00159951802754103	-0.00270234471354871	0.00160918504760093	0.0255040415301878	0.0125972077319094
11.7	-0.00325143125321655	0.00602224704420438	-0.00244295298107731	0.00196569946702726	-0.00244470782755922	0.00196938026268433	0.0282761542697908	0.00727857860955156
11.8	-0.00283131035005837	0.00481664406897805	-0.00214624016203599	0.00229025663259338	-0.00215545420209429	0.00230001954217655	0.0299401478269044	0.00168734544496769
11.9	-0.00295253402438018	0.00321536801368307	-0.00180718263797122	0.00256343482782513	-0.00180722795067654	0.0025699848049732	0.0304832691050511	-0.00389951520535461
12	-0.0046417800025232	0.0026121371866034	-0.00142886973540291	0.00278616294129111	-0.00143335990213425	0.00278893265865581	0.0297620876447142	-0.00902666113692507
