# GHZ S RI R 50
0.2	-0.014276461235722	0.00469142813626503	0.00304887222964255	-0.000883988986560737	0.00305934440339549	-0.000883828487080719	0.00555012796042494	0.000210019665043421
0.3	-0.0133517064004804	0.00547691828268836	0.00290396207246225	-0.00130044626187264	0.00289767867890597	-0.0013121117944472	0.00598664477456411	-0.00176769671820207
0.4	-0.0125818333467319	0.00653011433836955	0.00269119093718328	-0.00169587441599958	0.0026890836220238	-0.00169779239916365	0.00560253423992479	-0.00326057116622834
0.5	-0.0112122499615164	0.00723536809264803	0.00242158805492735	-0.00205558932763578	0.00242441119816933	-0.00205932196425599	0.00545093779024969	-0.00483822791952375
0.6	-0.0109347231712961	0.00732067072613296	0.00210784249973915	-0.0023764089005252	0.00210709917514898	-0.00237925763619273	0.00380932987125107	-0.00686421866337597
0.7	-0.0107414398646522	0.00827552118740016	0.00175732088791197	-0.00264756221885646	0.00176354414316717	-0.00265166079464557	0.00174796277056361	-0.00755913320878406
0.8	-0.0101922452127779	0.00924885893241845	0.00136320117251592	-0.00286929298031401	0.00137149462731063	-0.0028676877606689	-0.000259722571833368	-0.00771152966632348
0.9	-0.00978761271012296	0.0103519033572678	0.000956920640709947	-0.00302302160910121	0.00095690331387312	-0.00303246426553399	-0.00238856607295809	-0.00720198888154076
1	-0.0083990825515825	0.0119533328736369	0.000521574959411342	-0.00313052233378389	0.000521425473265186	-0.00313589222648708	-0.00345183314432068	-0.00558650041182596
1.1	-0.00705347587075157	0.0116082564175077	7.4501039156407E-05	-0.00317087997216401	7.53926252401626E-05	-0.0031756185650289	-0.00421200361875079	-0.00540089904410862
1.2	-0.00679545716267131	0.0115415952566181	-0.000366230711928004	-0.00314507235185361	-0.000364999076505454	-0.00316191799665652	-0.00542505081113901	-0.00435167666709778
1.3	-0.00658644517081197	0.0112753362739927	-0.000799856226261007	-0.00307082371932538	-0.000804811917638323	-0.00307850255269837	-0.00559479568005845	-0.00313873174987293
1.4	-0.00650117134529051	0.0110205090683304	-0.0012278005139347	-0.00292428706247509	-0.00123022723547501	-0.00293143752126638	-0.00542362233506232	-0.00232601888329324
1.5	-0.00545433223873431	0.0108822622137204	-0.0016191067303001	-0.00272578100485297	-0.00161712922594825	-0.00273133923057443	-0.00460974141709224	-0.00195667416434559
1.6	-0.00532794224066752	0.0108159483999143	-0.00198557640036751	-0.00247039027020679	-0.00198906054673351	-0.00247127204226457	-0.00551233923959628	-0.0014837087217534
1.7	-0.00454227268171049	0.0116687170964376	-0.00231331023116337	-0.00217346736173721	-0.00231537565835171	-0.00218208776270145	-0.00561466771284782	0.000291924464280594
1.8	-0.00349032903137852	0.01235996208036	-0.00259128930828076	-0.00182143094788902	-0.00259649342556507	-0.00182690595361304	-0.0051056823706392	0.00186940026818482
1.9	-0.00235462838604958	0.013023254140336	-0.0028170206864535	-0.00145042780400066	-0.00281348808059759	-0.00144421960307868	-0.00415253690941102	0.00351700987497492
2	-0.000331846832550608	0.0131846878553376	-0.00299519836013733	-0.00103764260678971	-0.00299794173992889	-0.00103076289705427	-0.00190876819780869	0.00454074262916097
2.1	0.000348872798028575	0.012134427373368	-0.00311105518968005	-0.000599301012787856	-0.00311318415188435	-0.000606022212505801	-0.000728922846230182	0.00396510985651787
2.2	0.000682983224992711	0.0121017605199984	-0.00316235438883197	-0.000164942275760173	-0.00316414595785212	-0.000155170417130441	0.000353395961227556	0.00404094763973538
2.3	0.00110577014602071	0.0120700018922349	-0.00315232186679732	0.000279595082152668	-0.00315911447226904	0.000276695013792905	0.00156957753174568	0.00375015361428869
2.4	0.00140887126178457	0.0123555139282234	-0.00309120936170722	0.000716826001489404	-0.0030899791605577	0.00073200682745995	0.00265616733022836	0.00346511179876955
2.5	0.00270252518798857	0.012947025721746	-0.00295254828169242	0.00115449958213606	-0.00296560419553448	0.00115586779059155	0.00472962379743391	0.00314573612076617
2.6	0.00373597539567541	0.0120952013715986	-0.00275568713754768	0.00154950265341498	-0.00277665848361908	0.00155353885620964	0.00636308249631651	0.000830024986852508
2.7	0.00426555974515213	0.0117689067101455	-0.00252057673166054	0.00191791999122686	-0.00252083015429586	0.00192302367392444	0.00687525110217195	-0.00134326231836244
2.8	0.00490220352731408	0.011537775115527	-0.00222222141176908	0.00224305145597981	-0.00223202520220967	0.00225433677940112	0.00683421102765246	-0.0034252034066826
2.9	0.00573131656270245	0.0115452817516628	-0.00188090132298811	0.00253623887596753	-0.00187891112617833	0.00254516366609573	0.00651482925647337	-0.00497424168255222
3	0.00745656910923526	0.011118120093641	-0.00150349419258387	0.00277463203561714	-0.00151869227220317	0.00276167663211677	0.00688563239143334	-0.00667439183196998
3.1	0.00805997601301886	0.0098559294288095	-0.00110522951747762	0.00295374901218651	-0.00112216530020007	0.00295926467357301	0.00582243471240663	-0.00927729968625193
3.2	0.00853930057035633	0.00929067741258117	-0.000683901226741593	0.00307706543165514	-0.000679557416562198	0.00308786286389462	0.00411428609145448	-0.0108033994676484
3.3	0.00904937436740666	0.00861267730915184	-0.000251923905806918	0.00314508899019393	-0.000248650668987418	0.00314068114293571	0.00226560099411507	-0.0121157577584754
3.4	0.00943256265466347	0.0081446671724683	0.000195103466284983	0.00314744178010558	0.000185679332485379	0.00314858872972098	0.000162743388789274	-0.0129638945487535
3.5	0.0105966791671131	0.00750350279049748	0.000624530270089526	0.00308631323411332	0.000629528422314819	0.00308495354529294	-0.00128415320470521	-0.0137692062054758
3.6	0.0106133394535256	0.00588121033280792	0.00104500746623227	0.00296635786064431	0.00105163055359853	0.00296981090297298	-0.00417068987240282	-0.0152180524273239
3.7	0.0102893821874545	0.00533879403885176	0.0014616898504769	0.0027854902053964	0.00146005486244112	0.00280187240122194	-0.00752876509063622	-0.0150068145563334
3.8	0.0102947489563096	0.00507548078317228	0.00182748662884011	0.00255471475783477	0.00183812344920363	0.00256099027556688	-0.0106037374782947	-0.0139681296394459
3.9	0.0106480954849655	0.00513427273766251	0.00217049307336945	0.00227443537483728	0.00216589997151403	0.00227436829601559	-0.0132437271699376	-0.011949323400511
4	0.0123019525598966	0.00473444401011896	0.00246117234638794	0.00195651588501988	0.00247264678354841	0.00196258723123078	-0.0141275702352392	-0.00978191621743502
4.1	0.0127323443181119	0.00278408999588017	0.00271167144324332	0.00158439825183674	0.00272829504722506	0.00159404832399561	-0.0157441090108756	-0.00879830885610121
4.2	0.0125837731845533	0.00168636354749602	0.00290771992722181	0.00118545749504929	0.00290896753378864	0.00118773053801511	-0.0175566961201507	-0.0066263354301721
4.3	0.0124346068729433	0.000792557018170514	0.00304581377060568	0.000777745424267845	0.00304705640876932	0.000786302143443642	-0.018841027762287	-0.00406671308555976
4.4	0.0121799967596212	0.000218462570452799	0.0031221542657651	0.000343649051160781	0.00313002751373701	0.000338969589384079	-0.0196921764846649	-0.000874826061204776
4.5	0.0129534906384729	-0.000340420013247095	0.00314231407043389	-0.00010459197467065	0.00313914910330562	-0.000102309272240811	-0.0186742711793295	0.0023861091899007
4.6	0.012564494683237	-0.00227151350814131	0.00307953130385383	-0.000547534330292975	0.00309260232707844	-0.000535707148472317	-0.0181727857736442	0.00387301647519464
4.7	0.0117332610938976	-0.00305153649124606	0.00297403091928736	-0.000955230835391906	0.0029738699439791	-0.000964619572982709	-0.0179282448502781	0.00616432670701626
4.8	0.0110653252434531	-0.00363838912992365	0.00282291368127789	-0.00135378989371275	0.00281516775783284	-0.00137381711663462	-0.0170817807183434	0.00863019666070541
4.9	0.0106073790864377	-0.00381938671893942	0.0026045180791848	-0.00174824935382511	0.00259853711553596	-0.00173980979597017	-0.0156943585560426	0.011290180038249
5	0.0113185441813842	-0.00431900229857539	0.00232313692560027	-0.00207273375328976	0.0023257778506324	-0.00208508465172569	-0.0124403918196593	0.0133858366930144
5.1	0.0107655882962115	-0.00587664174760467	0.00200570358097046	-0.00238714320028608	0.00201884097891583	-0.00238474704518072	-0.0102581750816888	0.0137867474748278
5.2	0.0101644263818388	-0.0063274572506255	0.00166592275039705	-0.00264058719335198	0.00166640170486606	-0.00264471991516936	-0.00797766961728659	0.0149580656783234
5.3	0.00997118720313751	-0.00676398098322818	0.00127792097693819	-0.00284764570493432	0.00127419418564997	-0.00285018190999972	-0.00505514604563113	0.0157532357673996
5.4	0.00989335477306817	-0.00707785404441383	0.000869300300841955	-0.00300044791881361	0.000868409986627135	-0.00300288162618248	-0.00178679324227634	0.0160124001989532
5.5	0.0108774601966744	-0.00807615160208156	0.0004404296124056	-0.00308918710035805	0.000452888476690301	-0.0030891903529228	0.00259055145948864	0.0147039272037274
5.6	0.00952233717659004	-0.0102927959712676	1.22965034324212E-05	-0.0031226142057721	9.03022437615667E-06	-0.00311917953939829	0.00407250052451875	0.0114360105500983
5.7	0.00779987798618431	-0.0106502496772037	-0.000417523390525107	-0.00309569703306282	-0.000421215331814976	-0.00309935069580535	0.00463627534277449	0.00975086228980274
5.8	0.00652883609185987	-0.0106498992665552	-0.000847000655989641	-0.00300461630120937	-0.00084628495759117	-0.00301223482902162	0.0052034267178584	0.00813003544860572
5.9	0.00528402872559711	-0.00999150866179556	-0.0012563288633673	-0.00285345493759973	-0.00125474186262481	-0.00285756947468378	0.00528968714340018	0.00708858071018593
6	0.00596716902778874	-0.00900096300399935	-0.00164202989665743	-0.00265593240944186	-0.0016360788924007	-0.00265925151840498	0.00708271945947613	0.00657016419747497
6.1	0.00592541282457004	-0.0105682062652531	-0.00200022328577688	-0.00240404862416482	-0.00199611245404315	-0.00240878077600119	0.00809058745037753	0.00320698739823277
6.2	0.0048840326820535	-0.0113389580669905	-0.00231492316948721	-0.00209015599914185	-0.00231137379855287	-0.00209874953288237	0.00764485794685472	0.000506881018258519
6.3	0.00384228231575161	-0.0119873163675397	-0.00257842886442566	-0.00175594977912273	-0.00258815442031695	-0.00176365540660121	0.00671647182421122	-0.0021114361896442
6.4	0.00268703840759583	-0.0120653290995944	-0.00280523904330677	-0.00137756816898782	-0.00280325309102733	-0.00138331672395686	0.00532504798782532	-0.00392588553130429
6.5	0.00288556069792383	-0.012788446634509	-0.00297233662997935	-0.000975290208506715	-0.00297273835747043	-0.000974175894743531	0.00509675311454762	-0.00625457793921317
6.6	0.000893657658124315	-0.0138658276806725	-0.003070560623727	-0.000554255555708495	-0.00308113190733287	-0.000557247292845067	0.00206830509338837	-0.00895726739694715
6.7	-0.000388408740782993	-0.0134214392276131	-0.00311602945449761	-0.000128030150194982	-0.0031150118420374	-0.000121842401047179	-0.000883692808711101	-0.00943266086816592
6.8	-0.00135338585471139	-0.0131095557522419	-0.00310492792391452	0.000314638254500275	-0.00310404448711076	0.000319363531405987	-0.00367581942307632	-0.00932513592481866
6.9	-0.00231961228228191	-0.0122315835991664	-0.0030261712481296	0.000742916331463341	-0.00302660580623008	0.000747861888938346	-0.00627567565653127	-0.00787773895932073
7	-0.00127753777957469	-0.0118518265339359	-0.00289322986541329	0.00115590108450257	-0.00289464095514139	0.00115908338625631	-0.0063080998015059	-0.00655356992621041
7.1	-0.00276154611871688	-0.013410812189381	-0.00270381514622348	0.00154514492944655	-0.00270627642114961	0.00155605132293832	-0.00871355530894596	-0.00712133934437966
7.2	-0.00458572864048976	-0.0129360335128105	-0.0024713605051702	0.00190556129761074	-0.00247157733030591	0.00191140914435104	-0.0113168152619808	-0.00511825493753626
7.3	-0.00604408603960433	-0.0122143112078994	-0.00218638794729332	0.0022304816495755	-0.0021836555777861	0.00223196161200616	-0.0129597641654715	-0.00251984518175247
7.4	-0.00768562824107747	-0.0108464059700251	-0.00184839376048316	0.00251276287141789	-0.00184127760539283	0.00251927981606948	-0.0142517545951355	0.000925995445818192
7.5	-0.00717963021186164	-0.00889758808434277	-0.00148322904923672	0.00274525030423089	-0.00148424148937887	0.00274324204132357	-0.0123810217130953	0.00505297739110112
7.6	-0.00764526450171355	-0.0097266655902603	-0.00109767973419958	0.00293160539751747	-0.00108717977284531	0.00294200044251857	-0.0107633683456499	0.00571998535922461
7.7	-0.00890851939925296	-0.00912785493447878	-0.00067091043361392	0.00306089480556817	-0.000665370242290985	0.00306059888349253	-0.00991668291537889	0.0071840376438823
7.8	-0.00954564394209811	-0.00841689433769383	-0.000228239415849279	0.00312641792445765	-0.000241753191779643	0.00311924411413283	-0.00845926158139841	0.00877261496957973
7.9	-0.00965550476311491	-0.00742685047417582	0.000190397311554989	0.00311855321497078	0.000201442531819798	0.00311836541683877	-0.00610543297331111	0.0106194788998177
8	-0.00811589872649316	-0.00786626941484412	0.000625105878380756	0.00307690473153005	0.000633408466500936	0.00307492378908621	-0.0020148565619737	0.0107137520296037
8.1	-0.00959509239972699	-0.00904390552924838	0.00106334914229264	0.00295708574465256	0.00106110068069651	0.00295381505922037	-0.000791418156784108	0.00913290416925787
8.2	-0.0107366726448116	-0.00842416124313936	0.00145578041566979	0.00277840176938149	0.0014548516230613	0.00278996465152775	0.000642718480105372	0.0092273910774932
8.3	-0.0115612192458395	-0.00773298141929723	0.00182992859186854	0.00255199654504478	0.00183502590765633	0.00254946368022267	0.00249020849318458	0.00898887637531647
8.4	-0.0123598379174199	-0.00632879276718413	0.00218195013714621	0.00227906861067255	0.00217077478876881	0.00227935360609478	0.00431869962243111	0.00890684715733288
8.5	-0.0110036986378614	-0.00528233092331343	0.00248861255150399	0.00194235849275737	0.00248861087443599	0.00194371161629795	0.00830127172480146	0.00783856347898543
8.6	-0.0119115999349815	-0.00632775863135594	0.00271883046469502	0.00158203249554907	0.00271463795936625	0.00157968824239618	0.00941098309610866	0.00366552622782195
8.7	-0.0132063213489172	-0.00539410433806915	0.0029133131788276	0.00118761399541153	0.00291215317832069	0.00118719189461759	0.00915341709863238	0.00118756688777463
8.8	-0.0139147446770825	-0.00416187195099486	0.00304983257140514	0.000770591027285817	0.00306085344589133	0.00076858226299555	0.0086154078223556	-0.00102305618305344
8.9	-0.0143508384906368	-0.00245257121060427	0.00313094404434083	0.000336498625848174	0.00314038223638331	0.000329415420670752	0.00772987815607396	-0.00233405597514609
9	-0.0126157205598902	-0.00101026830166445	0.00314158231057463	-0.000114244411543135	0.00314832089253137	-0.00010858388795146	0.00883899509440038	-0.00343977204013713
9.1	-0.0124132371621859	-0.00177250747762034	0.00310196854272267	-0.000541721892460434	0.00310218864626558	-0.00054191253651228	0.00816169923566584	-0.0068493882432944
9.2	-0.01243806740364	-0.00135629708748124	0.00299522109573516	-0.000967384828520478	0.00299905271929548	-0.000967123270981512	0.00673396180685747	-0.00887517249248496
9.3	-0.0121981838395929	-0.00117825216239405	0.00282722002562765	-0.00138274614881968	0.00284534754139014	-0.00138302173387975	0.00520241441541727	-0.0108599975835052
9.4	-0.0121738986902557	-0.000736036714486767	0.00260949907863358	-0.00175930011522517	0.0026129261100129	-0.00177033941721851	0.00304157699986599	-0.0122485508739319
9.5	-0.0109665290037111	-0.00111782834160199	0.00234565322810221	-0.00211427768444133	0.00236051684258406	-0.00211478143331369	0.00190484763430772	-0.0141800768160782
9.6	-0.0126309532100509	-0.0021780245347777	0.00203255117057977	-0.00242909653199433	0.00203280328799911	-0.00242202943900272	-0.00286915476745077	-0.0166976553628586
9.7	-0.0139372847006241	-0.00115754425318538	0.00166817060007108	-0.0026920196909955	0.00167654347413145	-0.00269354414712483	-0.0078663181151373	-0.0161256070202067
9.8	-0.014702507905311	5.70835954297391E-05	0.00128174494950173	-0.00289365749546812	0.00127998045729177	-0.00290238697503361	-0.0123454447943735	-0.0143295042739256
9.9	-0.0152530246953932	0.00196172223405826	0.000872258064718096	-0.00304457781397847	0.000860309292506183	-0.00304732913691261	-0.0164561918848912	-0.01082182964219
10	-0.0135406282486789	0.00346700026625205	0.000436017752101114	-0.00313807903882581	0.000435261910680191	-0.00314548690078879	-0.0174452724675898	-0.0068602190113114
10.1	-0.0137109470672076	0.00297185252218237	-1.15709630511037E-05	-0.00317880856989169	-1.62494724606355E-05	-0.00318163824423118	-0.0197748425715834	-0.00477926280424329
10.2	-0.0140502129997841	0.00398212446933853	-0.000458081569504745	-0.00313970878172989	-0.000470798176975007	-0.00314358364539608	-0.0218510391992494	-0.000684335917087734
10.3	-0.0139836777651333	0.00506929862013468	-0.000896204535968284	-0.00303986712937696	-0.000895909007453454	-0.00305340618166169	-0.0228067053039754	0.00399241786726615
10.4	-0.0136928844073688	0.00669398290660771	-0.00131439892963422	-0.00289692521706101	-0.00131762087370179	-0.00289478405347259	-0.0225564413982584	0.00948003535286122
10.5	-0.0113124850277555	0.00772439210564527	-0.00171479401725299	-0.00267247111055994	-0.00172104002635522	-0.00267983366323454	-0.018917443185837	0.0143282187764271
10.6	-0.0107115102539646	0.00705928675718144	-0.00207561125080697	-0.00240644590753595	-0.00207712548445234	-0.00241161700519333	-0.0163775314510019	0.0166721026450068
10.7	-0.0100511621402936	0.00731751817693386	-0.00238622871848611	-0.00209089142540126	-0.00238946552430517	-0.00210710825271326	-0.0133345040834446	0.0196373583651498
10.8	-0.00958432837461264	0.00725418777935227	-0.00265895408634458	-0.0017384188919043	-0.0026559812022609	-0.00174061174154505	-0.0100735787307768	0.0218727315012433
10.9	-0.00942162228786857	0.00797951185852891	-0.00288183433291125	-0.00135069812372694	-0.00288111686865435	-0.00135588818243367	-0.00654587522296804	0.024551674271994
11	-0.00710754584312951	0.00824180254795699	-0.003038209363002	-0.000924248627178379	-0.00303113471115871	-0.000928602118942916	-0.000193835591278807	0.02606628864755
11.1	-0.00723750698866924	0.00683258296205218	-0.0031341540843576	-0.000508411566490324	-0.00312632124904698	-0.000500042284458523	0.00385064704025813	0.0247173413514854
11.2	-0.00732107613171885	0.00707351072910502	-0.00317681748589401	-5.94713572474302E-05	-0.00318348027682155	-5.62107004336406E-05	0.00786707849334507	0.0243994282405888
11.3	-0.00690441427896605	0.00733588001532977	-0.00315173279319065	0.000390258527531409	-0.0031549400300775	0.000388082293872002	0.0122273784410054	0.0235127087805155
11.4	-0.00654605968492276	0.00788279027600492	-0.00305724663207479	0.000827031740323008	-0.00306191931727425	0.000827208222297105	0.016632329510531	0.0222107881805643
11.5	-0.00433348688801602	0.00756331133511161	-0.00292317255193764	0.00123185380119096	-0.00291557722027082	0.00123663274554328	0.0229999018969838	0.0190653524483016
11.6	-0.00473742414296435	0.00556192731033094	-0.00272146947972274	0.0016359942520445	-0.00272964092330992	0.00164583621837848	0.0259302347868245	0.0128949240417909
11.7	-0.00540083762000159	0.00537348890442082	-0.00245910339270772	0.00200945795663271	-0.0024608524986112	0.00201319913819211	0.0275389417019631	0.00802612416113008
11.8	-0.00569489346666069	0.00564178686201765	-0.00215163172986859	0.00233480832083861	-0.00216086950331064	0.00234476169511028	0.0286191248617628	0.00340909056296205
11.9	-0.00527281042004532	0.00676871497595439	-0.00180752596930771	0.00260498555179327	-0.00180752236371194	0.00261160720474917	0.0294809427735731	-0.00011690854049109
12	-0.00246697771883191	0.00647916958448593	-0.00142521390300896	0.0028378018928121	-0.00142974384688126	0.00284064923561869	0.0326601008251211	-0.00539116986858822
