# GHZ S RI R 50
0.2	-0.0139838364499887	0.00526537233008707	0.00304502896093501	-0.00088516306803063	0.00305549014730584	-0.000885009989246035	0.00580352268728674	0.000760360878311945
0.3	-0.01311777225309	0.00581614429699916	0.0028989338801386	-0.00130123420034505	0.0028926487420016	-0.00131287861048823	0.00617529047738835	-0.00145008406306001
0.4	-0.0123761076993191	0.00652503385926579	0.00268482077093635	-0.00169552632709767	0.00268271527888486	-0.00169743889402884	0.0057613568659987	-0.00327875310793371
0.5	-0.0117154836727133	0.00729719807475735	0.00241510729962437	-0.00205262760474558	0.00241792207303122	-0.00205635390388508	0.00492547458220434	-0.00478038807044573
0.6	-0.010986291080848	0.00808386422986013	0.00210241139401324	-0.00237280315165993	0.00210166804594125	-0.00237564584523922	0.00375250573814525	-0.00614093045616193
0.7	-0.0103335977190921	0.00885189553045528	0.00175180927071363	-0.00264285084308144	0.00175801630681388	-0.00264694431526951	0.00213273843532388	-0.00704618871310201
0.8	-0.00953635038721699	0.00961196864224854	0.00135829134509236	-0.00286285550995637	0.00136656496374946	-0.00286125865899132	0.000349727670958218	-0.0074176344897074
0.9	-0.00877877646048305	0.0102768156966369	0.000953757791432565	-0.00301493295849308	0.0009537388016136	-0.00302434980477686	-0.0014528383883575	-0.00732906899283243
1	-0.00802760615006986	0.0108755733820853	0.000520712739660792	-0.00312309868225353	0.000520564230389507	-0.00312845596243483	-0.00314396684752559	-0.00666884493013252
1.1	-0.00736326918820452	0.0113581003058453	7.33578874523004E-05	-0.0031629188442709	7.42458007714332E-05	-0.00316764577502758	-0.00453358910313386	-0.00564152088046892
1.2	-0.00679378200468885	0.011563987138737	-0.000365532171783223	-0.0031359289534292	-0.000364306035482583	-0.00315272599113259	-0.00539802604928707	-0.00432304407559184
1.3	-0.00645100213340211	0.0114615174525928	-0.000796827995215504	-0.00306169025732791	-0.000801767171061312	-0.0030693468369756	-0.00539667536087755	-0.00298255371867855
1.4	-0.00613932097672716	0.0112064491402267	-0.00122293410566451	-0.00291645951181427	-0.00122535057927756	-0.0029235905664382	-0.00499646883997203	-0.00222956679853016
1.5	-0.00555768254195454	0.0112398591102799	-0.00161457189743154	-0.00271806135575728	-0.00161260005368981	-0.00272360391263342	-0.00464821774084231	-0.00172602165483851
1.6	-0.00472495383653108	0.0115317369170369	-0.00197771458760082	-0.00246193741807345	-0.00198118584544115	-0.00246281690193068	-0.00488702006559285	-0.00095828448652738
1.7	-0.00373262112916701	0.0118633110315203	-0.00230296290671692	-0.00216734905482519	-0.00230501356869141	-0.0021759393071567	-0.00483615955491191	0.000298949512982684
1.8	-0.00273220261156146	0.0121932360293911	-0.00257996086257172	-0.0018178149751719	-0.00258514018875358	-0.00182327620940777	-0.00440741240625704	0.00154058667456632
1.9	-0.00177389832203605	0.0123256358633847	-0.00280555578292662	-0.00144837838406025	-0.00280204230055581	-0.00144218817338729	-0.00363944800835102	0.00270082927453162
2	-0.000912537747526102	0.012443621080715	-0.00298108419837506	-0.00103664787639392	-0.00298382374164306	-0.00102980100366444	-0.00250086505412711	0.00371884385570709
2.1	-3.05683641439045E-05	0.0124417215706719	-0.00309644104510589	-0.000603830266609191	-0.00309854564063455	-0.0006105276870154	-0.00107377607548339	0.00413348920567377
2.2	0.00078363562934376	0.012431054212958	-0.00314968261310584	-0.000172446279152342	-0.00315149240549639	-0.000162716877836583	0.000461268171114372	0.00418669941423541
2.3	0.00151788486739179	0.012266001598291	-0.00314116535853978	0.000269987161575529	-0.00314792442292151	0.0002670796287921	0.00194017802746713	0.00375656106640249
2.4	0.0021518278531827	0.0120615718717518	-0.00308083633503955	0.000704840869141059	-0.00307965574589513	0.000719964018658823	0.00331020234486228	0.00303589826786761
2.5	0.00262571456707798	0.0118536044820937	-0.00294526685531469	0.0011374848557462	-0.00295827501809936	0.00113879312382635	0.00460158266163316	0.00202102842548351
2.6	0.00312551322800068	0.0117990330200008	-0.00275424790554521	0.00153278702365223	-0.00277517428482081	0.00153671919347762	0.00579659754607763	0.000498674722877647
2.7	0.00378435260600386	0.0118224543035219	-0.00252168288751519	0.00190173868610931	-0.00252195742604261	0.001906826914374	0.00648790997418716	-0.0013612176542924
2.8	0.00466359989825411	0.0117961941272483	-0.00222616983067566	0.00222671359210862	-0.0022359973355342	0.00223792295249689	0.00671580112147861	-0.0032769691326212
2.9	0.00572922619576505	0.0115810136153788	-0.00188910939275976	0.0025197434326186	-0.00188717087275246	0.00252865494171793	0.00665862386735363	-0.00507226849439871
3	0.00681774838747212	0.0111594305447303	-0.00151720077652571	0.00276239467948387	-0.00153230508171624	0.0027493705233674	0.0064597309738079	-0.00681624895658631
3.1	0.00786118565808919	0.0106174310751776	-0.00111827539570408	0.00294503287674067	-0.00113521860354121	0.00295046023983729	0.00584533229197894	-0.00878195149521307
3.2	0.00878189874431878	0.00991803146173879	-0.000698626331579724	0.00306978188348628	-0.000694342567999204	0.00308058789057721	0.00454357115197976	-0.0105315996894736
3.3	0.00955125355173603	0.00904371325300742	-0.000268804609055625	0.00314081498921362	-0.000265510409493729	0.00313642902135766	0.00290847092117681	-0.0120870606168097
3.4	0.0101159035782408	0.00809788925653568	0.000177216231927746	0.00314820101728103	0.000167786630402734	0.00314929434631613	0.000936803619074573	-0.0134316579149406
3.5	0.0104580618349455	0.00718824464248182	0.000610568398313406	0.00309063139350957	0.000615575151953649	0.00308929415349779	-0.00135207494366894	-0.0144863545105325
3.6	0.0107153894570351	0.00638914401404036	0.00103047094627546	0.00297039282045957	0.00103707535118458	0.00297387643435248	-0.00397669953436617	-0.0151717651167248
3.7	0.0109489522187592	0.00567371153565325	0.00144697887455698	0.00279331973151323	0.00144525705084158	0.00280969377284475	-0.00684933841236809	-0.0151875638482193
3.8	0.0112312756319059	0.00497157110147694	0.00181489900779909	0.00256601950261547	0.00182550856913653	0.00257235570026654	-0.00974110052901393	-0.0145747398097704
3.9	0.0115406032572855	0.00423675009273924	0.00216161957129612	0.00228735124673668	0.00215702209558658	0.00228726169346	-0.0124877580056346	-0.0132577974348186
4	0.011825443848998	0.0034920001659161	0.00245227568037991	0.00196827551905767	0.00246372294143507	0.00197440134780684	-0.0146374187243389	-0.0113271365043745
4.1	0.01211575564348	0.00269516977296661	0.00270388036089229	0.00160136784707481	0.00272045657470897	0.00161112191273915	-0.0163100316592989	-0.00929182514196225
4.2	0.0123718820687154	0.00182299407772755	0.00290490672813268	0.00120431687169245	0.00290614271805784	0.00120660054346443	-0.0177607989123474	-0.00696231181155804
4.3	0.0125153498548459	0.000886052256747597	0.00304703626418093	0.000796329318136861	0.00304823299872542	0.000804908775048602	-0.0188066219796093	-0.004452940031273
4.4	0.0124595816167171	-0.00013359452258563	0.00312554361717923	0.000361334496098494	0.00313345579702799	0.000356690267248075	-0.0194851273693137	-0.00166065413539558
4.5	0.0121912479249914	-0.00101780910066105	0.00314881785546424	-8.35407702321653E-05	0.00314563161728083	-8.12752541758959E-05	-0.0194430151367572	0.00129391461095714
4.6	0.0118031713823992	-0.00180097790082784	0.00309420432031931	-0.000529383995885767	0.00310724515276816	-0.000517428790262556	-0.0189158722429475	0.00386326135905678
4.7	0.0114793494171874	-0.00237729470945178	0.00299160745271326	-0.000941703358041278	0.00299150069496066	-0.000951130901145063	-0.0181851868544129	0.00630115629241803
4.8	0.011190374621129	-0.00296914566748676	0.00284233797176494	-0.00134367580943429	0.00283467160396251	-0.0013638304382533	-0.0170161149533051	0.0087257035830478
4.9	0.011075843305818	-0.0035443233371278	0.00262651391842914	-0.00174066286326089	0.0026204562659323	-0.00173222092897755	-0.0153600828426794	0.0109926285795489
5	0.0110181875084221	-0.00422039008341611	0.00234993784296838	-0.00207210641090642	0.00235266801651855	-0.00208451945386129	-0.0128970517004167	0.0129714758833153
5.1	0.0110525858123643	-0.00498176950623625	0.00202868182651172	-0.00239426390388371	0.00204189447870594	-0.00239179737219926	-0.0101228247253576	0.0141373250855068
5.2	0.0110639119878597	-0.00588085294024819	0.00168656076390034	-0.00265070537314073	0.00168705867825635	-0.00265486214894927	-0.00732013413638275	0.01486839059288
5.3	0.0109553950584858	-0.00690838516089606	0.00129704453753636	-0.00286152060092176	0.00129330284399592	-0.00286408750333814	-0.0043772991464772	0.0151656407146374
5.4	0.010602837831588	-0.00796540676693906	0.000886213854705981	-0.00301985764005142	0.000885325334095341	-0.0030223126292805	-0.00136823572031778	0.0148274202118933
5.5	0.00994298662099493	-0.00881811886904651	0.000448505844706997	-0.00311303477969877	0.000461063528164095	-0.00311301957422681	0.00157118415603556	0.0137494950060069
5.6	0.00921313533413093	-0.00950227691468147	1.62235012152267E-05	-0.00314341368676164	1.2931220756216E-05	-0.0031399601476637	0.00376933494940121	0.0118389286661254
5.7	0.00840833019689741	-0.0100091083237939	-0.000416185330517875	-0.00311739709732733	-0.000419897534014868	-0.00312108070003681	0.0051662541405067	0.00991957091160836
5.8	0.00766298867268423	-0.0104615107632258	-0.000850293897334155	-0.00302714626356984	-0.000849565839546266	-0.00303481921895637	0.00615272305029401	0.00786356090456296
5.9	0.00682925284568144	-0.0108573672084664	-0.00126610454879251	-0.00287448166308958	-0.00126450637294118	-0.00287862703634283	0.00657309329237076	0.00590182664270379
6	0.00584985640544697	-0.0112086639791776	-0.00165369706966335	-0.00267026180910172	-0.00164771368254213	-0.00267360494699999	0.00681325703652247	0.00424583986526096
6.1	0.00487107642565265	-0.011412922031572	-0.00201177118631158	-0.00241957519735324	-0.00200763336257633	-0.00242433520083004	0.00710065395608249	0.00225312013367536
6.2	0.0039816511374278	-0.011608970987971	-0.00233107192842156	-0.00210414825965548	-0.00232749944971262	-0.00211280115202565	0.00693961278208063	3.98906091287082E-05
6.3	0.00324512940845609	-0.0118968270599755	-0.00259784505465307	-0.00176577567166278	-0.00260764482057958	-0.00177352584871102	0.00635905660456456	-0.00234089251989379
6.4	0.00240236633285406	-0.012327647282473	-0.00282480568581862	-0.00138198799938282	-0.00282281590205488	-0.00138777540334258	0.00526899777458259	-0.00457948903389423
6.5	0.00152051708434239	-0.0126807857423879	-0.00299058470669632	-0.000980339305729808	-0.00299098854524545	-0.000979218140496105	0.00402912044820315	-0.00661571135474934
6.6	0.000649871371731298	-0.0128207614995502	-0.00309441455149562	-0.000555199400783339	-0.00310506910798949	-0.000558202597684401	0.00205497147584048	-0.00858665794549391
6.7	-8.77185422924882E-05	-0.0128584875020237	-0.00313942815407898	-0.000122037113703238	-0.00313838920663801	-0.000115805733643387	-0.00051217895892139	-0.00960204980096594
6.8	-0.00083079943055808	-0.0128534140747244	-0.00312551277028578	0.000325379938942828	-0.00312461019049829	0.000330135426715779	-0.00320417511422664	-0.00976856087814213
6.9	-0.00166355578878684	-0.0128309223720133	-0.00304419783506455	0.000755320834887476	-0.00304462294837318	0.000760299952446249	-0.00572621326187797	-0.00908011643757843
7	-0.00256935375701439	-0.0126063950675787	-0.00291378019316364	0.00117315167414084	-0.00291519424976386	0.00117636380750535	-0.00756781895542493	-0.00782342890521441
7.1	-0.00344684856987418	-0.0122356191230919	-0.0027171517531128	0.00157011009342572	-0.00271957923264704	0.00158111232140552	-0.00930387078815485	-0.00663993660652697
7.2	-0.00418170751987289	-0.0117725731779753	-0.00247810557078482	0.00193144782689479	-0.00247829316826244	0.00193733644147036	-0.0109577215853204	-0.00476347146105741
7.3	-0.00487849367678855	-0.011371226265415	-0.00218855992965114	0.0022566350746931	-0.00218580195122581	0.00225810994837676	-0.0120401737150634	-0.00247884894086168
7.4	-0.00568166843411254	-0.0110961706153348	-0.00184684621193281	0.00254072521900719	-0.00183964354378302	0.0025472466632723	-0.0126807744973184	8.48312192381914E-07
7.5	-0.00670231046294716	-0.0107970303990356	-0.00147091008751669	0.00277536089154124	-0.00147194541070553	0.00277334750817032	-0.0122912518860803	0.00283552506205188
7.6	-0.00768017276892107	-0.0103749114718134	-0.00107874121278082	0.0029536684248512	-0.00106810963418809	0.00296402458973789	-0.0110417950265073	0.00487226102098423
7.7	-0.00865142276753954	-0.00983771972175317	-0.000649770083617433	0.0030785825652901	-0.000644209655444783	0.00307824223368437	-0.00976029730548475	0.00629896479324236
7.8	-0.00930569815497889	-0.0094172019420385	-0.000203877406036059	0.00314050626274124	-0.000217502060114483	0.00313341352360784	-0.00818646264118174	0.00763173681000398
7.9	-0.00987551989339329	-0.00907135697718643	0.000219587342161422	0.00312774388631485	0.000230669563743459	0.00312745440918102	-0.00619693750813751	0.00888173519121278
8	-0.0103348047285858	-0.00859513892200287	0.000654728689762236	0.003074050532184	0.000663020803017776	0.00307198936628518	-0.00366666810125956	0.00959878210136911
8.1	-0.0107065123634434	-0.00804506569249911	0.00108758164962089	0.00295121035762913	0.00108530547418211	0.00294795463046778	-0.00136687161722609	0.00948223209018624
8.2	-0.0109725487441629	-0.00750470484234273	0.00147975186270567	0.00276950499738619	0.00147891560367452	0.00278108735142893	0.000822922830063466	0.00929358536778141
8.3	-0.0112659222132805	-0.00703997581453764	0.00185285379185993	0.00253767698224276	0.0018579321457269	0.00253509894243018	0.00306193181383384	0.00873070656330906
8.4	-0.0116828965245469	-0.00652880893825359	0.00220025023297483	0.00225788342336373	0.00218908677839666	0.00225826689056425	0.00514558580602447	0.0077690539610612
8.5	-0.0122020395763777	-0.00586200596683416	0.00249811393077049	0.00192225778376806	0.00249812155384961	0.00192360882826503	0.00732886736374221	0.00638576766020602
8.6	-0.0126493944600187	-0.00495241981636573	0.00272956823891327	0.00156174404628484	0.00272535987041344	0.0015594310504495	0.00894400779878706	0.00392268690059655
8.7	-0.0127931441594491	-0.00394903076359129	0.00292007891758045	0.00116312511039735	0.00291891663033581	0.00116271271231387	0.00961494520926573	0.00133612383412664
8.8	-0.0126676581586456	-0.0030867598609615	0.0030501465449876	0.000744687364339477	0.00306113016760551	0.000742594200084861	0.00961797286315934	-0.00125378074750114
8.9	-0.0123987337482016	-0.00253514953798143	0.00312500618669725	0.000313556056203294	0.00313436945188361	0.000306425177073437	0.00917591050815718	-0.00351207845407165
9	-0.0121927963354203	-0.00224834855321773	0.00313742986315199	-0.000135418302664137	0.00314419957198599	-0.000129809546272561	0.00881882357442221	-0.005489098101843
9.1	-0.0120698201886548	-0.00208565689837488	0.00309077204298914	-0.000566963781155226	0.0030909900570737	-0.000567155893057268	0.0081216970612561	-0.0079387917971501
9.2	-0.0120312566085541	-0.00199434842160702	0.00297696919806147	-0.000988553791882568	0.00298078973866682	-0.000988324488004715	0.00677705648277547	-0.010195937818438
9.3	-0.0121383812819567	-0.00193335242529412	0.00280554494365928	-0.00139839377607135	0.00282359784272281	-0.00139880407111021	0.00497961676351386	-0.01221505005827
9.4	-0.012441672300334	-0.00183841679111268	0.00258788637128256	-0.00177147661776498	0.00259122350707194	-0.00178250108656744	0.00263024790569331	-0.0138855734764791
9.5	-0.0129237280982148	-0.00137434022727038	0.00231735109681899	-0.00212706903572558	0.00233215153429456	-0.00212770470719034	3.07493583992901E-05	-0.0150302551450538
9.6	-0.0133590623629476	-0.000684029009963724	0.0019997931939141	-0.002430414608346	0.00200010166235212	-0.00242339423356903	-0.00346731181361288	-0.0160327510025159
9.7	-0.0135633580957516	0.000159306215831828	0.00163785961859038	-0.00268588016130942	0.00164616563820768	-0.00268745398888411	-0.00748992705026688	-0.0157716328901829
9.8	-0.0136278661835361	0.000944942203499211	0.00125362620411237	-0.00288278991866181	0.00125181482639814	-0.00289144869957143	-0.0114375960896268	-0.0144119168194736
9.9	-0.0136753592551055	0.00171699703527102	0.000843911734651148	-0.00302937437621294	0.000832027522994992	-0.00303201920778459	-0.0152051959604434	-0.0118639602534181
10	-0.0137658452737938	0.00250998415453808	0.000410226333973488	-0.00311044117315706	0.000409427032756505	-0.00311777154127605	-0.0178283789254938	-0.0083952373987351
10.1	-0.0137006572573472	0.00346466466392696	-2.58001019773467E-05	-0.0031480957687958	-3.0446251139026E-05	-0.00315087704394946	-0.0197783080558943	-0.00499063261569122
10.2	-0.0133195290443352	0.00437916928411188	-0.00046679498248734	-0.00310863431522809	-0.000479409403970254	-0.00311242062811458	-0.0211877772108858	-0.00106131750514134
10.3	-0.0127657560203989	0.00506467645187816	-0.000899748089382149	-0.00300677412309099	-0.000899509926304821	-0.00302018304130038	-0.0217334491681587	0.00324859476591791
10.4	-0.0122210567294812	0.00548155419377221	-0.00131002428815497	-0.00286011339986845	-0.00131320289281735	-0.00285798464580477	-0.0212421708232125	0.00769246153855002
10.5	-0.0118440355091677	0.00589724966378326	-0.00169621333504684	-0.00264092958744625	-0.00170239062303815	-0.00264820457582694	-0.0193614385655247	0.0120512420679295
10.6	-0.0114654893435419	0.00638809782461527	-0.0020558796358247	-0.00238292751097899	-0.00205737992492593	-0.00238804845967148	-0.0167985660064875	0.0154092538156666
10.7	-0.0108373553496991	0.00700689910874382	-0.00236337195456791	-0.00206992834897158	-0.00236658072274231	-0.00208598597357395	-0.013738366250284	0.0185445982561783
10.8	-0.0101225589541259	0.00744152430396244	-0.00263107964662615	-0.00172166300863614	-0.00262813632755928	-0.00172383227468225	-0.0102329459202013	0.0210727759294498
10.9	-0.00949800287767463	0.00775275947456683	-0.00284920612483302	-0.00134259679872349	-0.00284848547696922	-0.00134773160445036	-0.00637984602400123	0.0231889906039703
11	-0.0088230961711181	0.00809848244356493	-0.00301175502888852	-0.000925089847311668	-0.00300472455605545	-0.000929390033752539	-0.00156637553324359	0.0247518125159367
11.1	-0.00803735722374949	0.00846300489296887	-0.00310692432853706	-0.000508028581136536	-0.0030991684480509	-0.000499720486064861	0.00333860297918973	0.0248161865624702
11.2	-0.00700949148106356	0.00863279375592656	-0.00314739152874323	-6.53827601296978E-05	-0.00315399948835356	-6.21657305556407E-05	0.00813243597746345	0.0242371374514449
11.3	-0.00582202993871728	0.00840330695684994	-0.00312426744144925	0.000376767307087531	-0.00312743861508607	0.000374600774641063	0.0129915378400174	0.0229260026708001
11.4	-0.00496350436550372	0.00781667239797319	-0.00303649744133912	0.000808547263504278	-0.00304113414685585	0.000808704029156379	0.0176272819832487	0.0207177253493659
11.5	-0.00445869612829198	0.00717766763868961	-0.0029031909960401	0.0012166340728352	-0.00289566334454722	0.00122139137497973	0.0222048056247041	0.0174453717597048
11.6	-0.00406207015656014	0.0065420357837767	-0.00270083061314339	0.00161170036679718	-0.00270895590346755	0.00162142249468799	0.0258234103389813	0.0126571750149531
11.7	-0.0037093563958939	0.00583738484735269	-0.00244597653246849	0.00197979060863495	-0.00244772697883939	0.00198348962247178	0.0282357057883165	0.00748567381218332
11.8	-0.00348738534212976	0.00508565492590613	-0.00214588056758277	0.00230424853380652	-0.00215509328125786	0.00231407129178436	0.0297371389641474	0.00219636327053268
11.9	-0.00342840325887251	0.00429278533301861	-0.00180525772852759	0.00257623560928443	-0.00180528448767808	0.00258280524844314	0.0303810694494907	-0.00277058503409463
12	-0.003760563427009	0.00371672176023708	-0.00142549481554052	0.00280175942553897	-0.00142999372294578	0.00280455456893941	0.0308427993397603	-0.00801550214408376
