# GHZ S RI R 50
0.2	-0.0141755141283734	0.00530526505827122	0.00304553578330336	-0.000885046261502543	0.00305599845538617	-0.000884892324066908	0.00563223511031064	0.000817397383680819
0.3	-0.013289659840104	0.005896482394617	0.0028996106622957	-0.00130120621930464	0.00289332543472021	-0.00131285344874923	0.00602259239626807	-0.00135317476406939
0.4	-0.0125054943819631	0.00670118772937918	0.00268569381499452	-0.00169572812624832	0.00268358794004984	-0.00169764139864831	0.00564409985037858	-0.00308955506607837
0.5	-0.0116336022848143	0.00743557971609287	0.00241585329179332	-0.00205332818044714	0.00241866891329753	-0.00205705572627489	0.00498890362719482	-0.00462408664401985
0.6	-0.0109833793177629	0.00806588202685762	0.00210288690766432	-0.00237349558365762	0.00210214327150371	-0.00237633900047737	0.00372356568026488	-0.00609551100787272
0.7	-0.0103864401087465	0.00885155424992812	0.00175224633544797	-0.00264368180541297	0.00175845507775983	-0.0026477766690896	0.00206728216003797	-0.00695018298483192
0.8	-0.00962998219668032	0.00962002128756169	0.00135854923830431	-0.00286391025982708	0.00136682574417011	-0.00286231344502375	0.000272696930291556	-0.0072969603573098
0.9	-0.00897150661750366	0.0103699649310894	0.00095361534560523	-0.00301617574192309	0.000953594828273642	-0.00302559598574588	-0.00159035058715387	-0.00713316197224972
1	-0.00808884040436822	0.0112396760442898	0.000520099759293556	-0.00312397807008021	0.000519949946345735	-0.00312933661218501	-0.00314623415732146	-0.00625891480511127
1.1	-0.00726491238123217	0.0116498231983297	7.28720929244813E-05	-0.0031637244002122	7.37594756217928E-05	-0.00316845265888747	-0.00443213862565761	-0.00532094417452307
1.2	-0.00664611550064093	0.0119891384616539	-0.000366298859934224	-0.00313675446633565	-0.000365075913742385	-0.00315355659735573	-0.00528696045973988	-0.00385583153460185
1.3	-0.00609095321311672	0.0119919410923582	-0.000797896397435056	-0.00306228682533915	-0.0008028390333866	-0.00306994407382133	-0.00510789839080875	-0.00237335191146045
1.4	-0.00564164075443601	0.0116697171492207	-0.0012241269468837	-0.00291658274358705	-0.0012265462327666	-0.00292371429044838	-0.00456974036104116	-0.00163240313332398
1.5	-0.0049407982985667	0.0114607371212916	-0.00161533528041614	-0.00271804530269787	-0.0016133643670722	-0.00272358893336606	-0.00410121618577831	-0.00132857067698726
1.6	-0.00438887935501307	0.0114590922483995	-0.00197883144270557	-0.00246205395878049	-0.00198230379135452	-0.00246293278590905	-0.00457250881961488	-0.000780690376785964
1.7	-0.00358950710530691	0.0117774400502988	-0.00230422021757197	-0.00216701855421146	-0.00230627432070874	-0.00217560996360645	-0.00464718929927012	0.000461020797666687
1.8	-0.00271321137308833	0.0121244939743517	-0.00258104390544059	-0.00181709219263289	-0.00258622610315849	-0.00182255224522549	-0.00430574144090668	0.00168605142517199
1.9	-0.00182935670976696	0.0123771955821637	-0.00280627328023239	-0.00144754924379024	-0.00280275742189009	-0.00144135971504667	-0.0036048307250944	0.00291440233280053
2	-0.00074847934709083	0.0125437028823084	-0.00298204496507246	-0.00103599040665126	-0.00298478307685629	-0.00102914122088337	-0.00231223393097454	0.00394308701339061
2.1	7.05492838107283E-05	0.0122992209876322	-0.00309727826081857	-0.000602419623161232	-0.00309938650396772	-0.000609117184332315	-0.000993032380840845	0.00417985053995143
2.2	0.00074348274795283	0.0122740718347094	-0.00314997555369764	-0.000170901416887827	-0.00315178065822251	-0.000161170479682274	0.000430885561295672	0.0042675100683492
2.3	0.00135473611017512	0.0121376730811853	-0.00314111994186542	0.000271449215200166	-0.00314788052462808	0.000268544739944009	0.00183994359675797	0.00387562104996657
2.4	0.00183399983384598	0.0120819989609469	-0.00308073842547314	0.000706251308511719	-0.00307955107081398	0.000721374984746902	0.00311251035258022	0.00325606090120621
2.5	0.00244806538840837	0.0121770712122015	-0.0029447895158923	0.00113950695285108	-0.00295779799270398	0.00114082381848838	0.00451414015527482	0.00243740588955832
2.6	0.00310415925868146	0.0120461804552049	-0.00275281846409924	0.00153430360867022	-0.00277373892683907	0.00153824855320233	0.00576540678902439	0.000835310937513882
2.7	0.00378806734104163	0.0120654497485499	-0.00252013578697586	0.00190275060171827	-0.00252040746879917	0.00190783797286236	0.00643162777346649	-0.000985557994058058
2.8	0.00467368460457409	0.0120446946163905	-0.00222455162378263	0.00222746965376121	-0.00223437124943744	0.00223868208486695	0.00664905668066051	-0.00284825825827502
2.9	0.00575945309009627	0.0119236436332592	-0.0018872129597882	0.00252041311008417	-0.00188526937978168	0.00252932173509521	0.00660518213871272	-0.00452539044308161
3	0.00712517554566964	0.011519025545158	-0.00151467624794021	0.00276218116791551	-0.00152978255122535	0.0027491729196211	0.00662846390989291	-0.00622496012378259
3.1	0.00819023942040398	0.0107164148838922	-0.00111648756628381	0.00294416625590147	-0.00113342065357316	0.00294959846465417	0.00602275050389235	-0.00834386003302973
3.2	0.00906664602127014	0.00991583193360598	-0.000696974818874013	0.00306886423788763	-0.000692687943118508	0.00307966400186885	0.00473229254786251	-0.0101229083169153
3.3	0.0097674002783412	0.00895055964093775	-0.000267128614335233	0.00313955679147055	-0.000263838048302099	0.00313517113375115	0.00309360102868293	-0.011737585397298
3.4	0.0102201066627638	0.00801354443696904	0.00017875487068531	0.00314620683558698	0.000169331536254933	0.0031473044334393	0.00107070614211873	-0.0130859588480576
3.5	0.0106919654031409	0.00713943318010434	0.000610835904465782	0.00308817871599221	0.000615838603293143	0.00308684130279335	-0.0010988050047487	-0.0141387819134126
3.6	0.0108414177519092	0.00609137892930204	0.00103050246812202	0.00296858137961191	0.00103710399061903	0.00297206179905115	-0.00383329556037973	-0.0150098378528486
3.7	0.0108539957161187	0.00539794483014435	0.00144682556820317	0.00279130146682804	0.00144510888733591	0.00280766624695373	-0.00684179625461968	-0.014974141161141
3.8	0.0109846702704006	0.00482711124090615	0.00181416814780803	0.00256389162250519	0.00182477169432883	0.00257022133351806	-0.00979406583996389	-0.0142748750306443
3.9	0.0112375547338512	0.00435329304718874	0.00216002984686745	0.00228556651740933	0.00215543585916344	0.00228547713499884	-0.0125527817082769	-0.0128161617012646
4	0.0118688928584256	0.0038015157845969	0.00245080711654873	0.00196763889808879	0.00246224793401639	0.001973763258408	-0.0144662055640458	-0.0108158017211171
4.1	0.0122537741338328	0.00272468013153826	0.00270265717629856	0.00160033399326887	0.00271922588599768	0.00161008175260548	-0.0161570913655179	-0.00899811532117469
4.2	0.0124016925203047	0.00177869741656595	0.00290315876273106	0.00120351694016126	0.00290439404808539	0.00120579918952647	-0.0177174939798376	-0.00668395172563242
4.3	0.0124388277912507	0.000865148698481262	0.00304510887600908	0.000796132253066798	0.00304630407480693	0.000804706607047332	-0.0188483677352798	-0.00414163171279959
4.4	0.012293433166241	1.59141711865712E-05	0.00312402360955274	0.000361759916050485	0.0031319329966278	0.000357119345567748	-0.0196102545190934	-0.00122416165710556
4.5	0.0123280844269655	-0.00064884318940478	0.00314772920878615	-8.38009586689543E-05	0.00314454427226475	-8.15359280597465E-05	-0.0193726027756221	0.00189868715765924
4.6	0.0121041644189729	-0.00168410753026097	0.00309213069002723	-0.000529243792720363	0.00310516373874849	-0.000517297339878094	-0.0187825229947101	0.00431916513793858
4.7	0.0117836298134693	-0.00238400143624262	0.00298966507607888	-0.000940778770751167	0.00298955928875104	-0.000950199920308043	-0.0180501237130694	0.0067388854414056
4.8	0.0114620375703306	-0.00310384127485446	0.00284078547856226	-0.00134233939653296	0.00283312741789576	-0.00136248269433255	-0.0168726610704379	0.00910641637577506
4.9	0.0112268279180381	-0.00370266880147972	0.00262522554272635	-0.00173938273883465	0.00261917036240325	-0.00173094625958701	-0.0152765485023003	0.0113687637035139
5	0.0113041050436068	-0.00436873967870935	0.00234803157114963	-0.00207013121001444	0.0023507602349558	-0.00208253321994254	-0.0126972039091721	0.0133474102431291
5.1	0.0111419742967147	-0.00539338365127339	0.00202808538388938	-0.00239132661430719	0.0020412858425644	-0.00238885606831837	-0.0100993561511757	0.0143538923261004
5.2	0.0108969274869483	-0.00618528796534353	0.00168678950980134	-0.00264805639736511	0.00168728922621073	-0.0026522101227132	-0.00743305825434609	0.0152135637864625
5.3	0.0107005082822002	-0.0070192549068407	0.00129766088156088	-0.00285909136151338	0.00129392279811576	-0.00286165852705807	-0.00449440978148339	0.0156334930904541
5.4	0.0103776064414386	-0.00784549668634812	0.000887063474367189	-0.00301723234324319	0.000886176810046729	-0.00301968599294284	-0.00145344257239682	0.015405466573774
5.5	0.0101509959015634	-0.0086651549006941	0.000450960816315193	-0.00311017547170496	0.000463508584298733	-0.00311014894850005	0.00175057756960224	0.0143005885224752
5.6	0.00928610141460591	-0.00980405582373641	1.91804163449324E-05	-0.00314220609474064	1.58861294455643E-05	-0.00313875696893069	0.00374911279418926	0.0121146744955285
5.7	0.0081527089754217	-0.0103052730891378	-0.000413418866577496	-0.00311679910413086	-0.000417126818990784	-0.00312048472707392	0.0049344652084562	0.0102974139299509
5.8	0.00713691573716871	-0.0105971378120538	-0.000847468643941007	-0.00302695269901396	-0.000846734295967916	-0.00303462271771261	0.00579533475926672	0.00838211610114087
5.9	0.00604797019306961	-0.0105467419198591	-0.00126285290012562	-0.00287488662748504	-0.00126125105941941	-0.00287902916315166	0.00608016176847478	0.00670770720790079
6	0.0055150398194419	-0.0101413618783397	-0.00165095965019451	-0.00267244723900855	-0.00164497176711568	-0.00267578419524962	0.00666071966810467	0.00554427709229237
6.1	0.00518424282591567	-0.0104161520275553	-0.00201029341086161	-0.00242140670406476	-0.00200615148719279	-0.00242616437492661	0.00734634638694142	0.0034656134579003
6.2	0.00473717193615615	-0.0108060787425506	-0.00232955795785797	-0.0021059599934412	-0.00232597887548151	-0.0021146104502622	0.00749183472021185	0.00115313215792075
6.3	0.00422496426811415	-0.01150664825926	-0.0025964579052086	-0.00176806825351979	-0.0026062515104522	-0.00177582712799273	0.00708805772067599	-0.00152056632076798
6.4	0.00329086760060114	-0.0122040850950292	-0.00282420487577162	-0.00138503049310589	-0.00282220907187489	-0.00139081746832855	0.00592015122700501	-0.00396291699264538
6.5	0.00257730761772501	-0.0128307677381648	-0.00299131392696537	-0.000982509663966735	-0.00299171859493454	-0.00098138824664925	0.00475665225972278	-0.00619507586333482
6.6	0.00126400302208528	-0.0134063778835129	-0.00309441998765572	-0.000557230908187649	-0.00310507386888866	-0.000560241226405664	0.00240583979811717	-0.00837319764598452
6.7	0.000190705300725201	-0.0134015650433453	-0.00313998266349135	-0.000124636690239446	-0.00313894860874383	-0.000118403159152688	-0.000326395071628747	-0.00928189373099965
6.8	-0.000781323000761278	-0.0133614740191854	-0.00312703900334549	0.000322859426419185	-0.00312614009551225	0.000327617581908955	-0.00312151899503192	-0.0094437120983578
6.9	-0.00185324853012768	-0.0131174320688704	-0.00304648604742614	0.000753758056353007	-0.00304691469335807	0.000758739821755869	-0.00581759402681737	-0.00864288015618906
7	-0.00235302083105695	-0.0127116300916978	-0.00291509316899683	0.00117206457663273	-0.0029165091238362	0.00117527686559376	-0.00741553103277003	-0.00728969180381681
7.1	-0.00340521607908665	-0.0128656872593001	-0.00271943241964062	0.00156838181681018	-0.00272187000456578	0.00157938589618237	-0.00939338687847873	-0.00640763188089945
7.2	-0.00456154694809222	-0.0124106458126804	-0.00248107043134092	0.00193064744275287	-0.00248126273818092	0.00193653937147926	-0.0113023174285943	-0.00439315639190917
7.3	-0.00564552334688612	-0.0118750173677426	-0.00219142823754121	0.00225674254609707	-0.00218866937035634	0.00225822013365172	-0.0125330194268839	-0.00196359072011034
7.4	-0.0069449420454515	-0.0111884479941962	-0.00184908528612408	0.00254109609395014	-0.0018418822187298	0.00254762454745012	-0.0133903091433462	0.000776206046669296
7.5	-0.00776099880949481	-0.00995009076887333	-0.00147416217338115	0.0027751705294336	-0.00147519604409778	0.00277315530120269	-0.0127869280278879	0.00416850437124562
7.6	-0.00826582529165796	-0.00937588595064353	-0.00108241591331025	0.00295548866068303	-0.00107178360309178	0.0029658641673807	-0.0112973922456398	0.0062403499280532
7.7	-0.00893989528280288	-0.00861973874047022	-0.000652531471930209	0.00308132974680337	-0.000646965054842527	0.00308099283499738	-0.00976635723018777	0.00780278984983056
7.8	-0.00920896224323695	-0.00821643363321113	-0.000205871754731667	0.00314363737139387	-0.000219506466894396	0.0031365295614989	-0.00793746318321622	0.00905934569180672
7.9	-0.00947078389121335	-0.00790596184638072	0.000217780840645526	0.00313104534153942	0.00022887444311329	0.00313076275866454	-0.00579573286639995	0.0102364564443346
8	-0.00922197313182342	-0.00779823702291948	0.000653693698609674	0.00307916287302285	0.000661999797184495	0.00307710404980058	-0.00294207597774133	0.0107423464893063
8.1	-0.00982705488008497	-0.00802816985821328	0.00108891522843983	0.00295577390361762	0.0010866359585955	0.00295251303023345	-0.000897458213307289	0.0102070495008557
8.2	-0.0103871790607529	-0.0076798787849787	0.00148168620435387	0.00277314392396769	0.00148084881544217	0.00278474147676102	0.00114476641162055	0.0100249352156957
8.3	-0.0109043776210776	-0.00731709055877966	0.00185511251801019	0.00254092662655093	0.00186019734191468	0.00253834548930356	0.00331593580620012	0.00942334099441763
8.4	-0.0115682046899242	-0.00668487747768808	0.00220327205444397	0.00226130476203148	0.00219209242834807	0.00226168799208468	0.00526861249050019	0.00851572814038955
8.5	-0.0116732977500788	-0.00587792594204748	0.00250300008001149	0.00192411715808733	0.00250300836076221	0.00192547034474637	0.00773372833148779	0.00718542430706814
8.6	-0.0122625989766117	-0.00559742024370201	0.0027334075330396	0.0015621619536396	0.00272919329179819	0.00155984842026068	0.00914098599134065	0.0043435203721136
8.7	-0.0128647544739247	-0.00468662886461503	0.00292382456672443	0.00116341411457259	0.00292266080656803	0.00116300165915534	0.00955012176247137	0.00183694018030373
8.8	-0.0131465484150752	-0.00371012450928442	0.00305426871782523	0.000744475677196886	0.00306526538486047	0.000742375737042095	0.00942469646911461	-0.000629750803456013
8.9	-0.0132842655236516	-0.00271708856242646	0.0031295463490878	0.000312013668302646	0.0031389181094169	0.000304866955325429	0.00883503774592031	-0.00265736449371415
9	-0.0127387018135351	-0.00174776217901605	0.00314020100013344	-0.000138187742478013	0.00314698166290663	-0.000132579535032909	0.00875733371506134	-0.00428288067429611
9.1	-0.0123538723143622	-0.00159796129633335	0.00309372413765144	-0.000568972139743472	0.00309394229012703	-0.000569164551417206	0.00819199378279377	-0.00680036051869324
9.2	-0.0120517671267766	-0.00138041376852808	0.00298015222713254	-0.000991702157556573	0.0029839778005822	-0.000991474977766438	0.00704177972648323	-0.00900220331315366
9.3	-0.0118531066875027	-0.00143638796463305	0.0028078655398829	-0.00140280451716906	0.00282594135007732	-0.00140323211373389	0.00543160573835289	-0.011193199784532
9.4	-0.0120215964157691	-0.0014668927899916	0.00258830342603175	-0.0017763592410888	0.00259163052746215	-0.00178739865177988	0.00305908618935945	-0.0130298679159651
9.5	-0.0120735609454545	-0.00128275705199904	0.0023174355347643	-0.00213050507625476	0.00233224669707873	-0.00213115287187635	0.000603804788935329	-0.0143644062554364
9.6	-0.0128776309436792	-0.00126958446243314	0.00199978831382075	-0.00243514175142942	0.00200010384720857	-0.00242811353600997	-0.00332132435164119	-0.0156901958075297
9.7	-0.0135519183708008	-0.000480182835212597	0.00163619016647324	-0.0026907228705545	0.00164450283308822	-0.00269230875166403	-0.00763693595746336	-0.0152808089058095
9.8	-0.0139924852121293	0.000404892335544398	0.00125069062899252	-0.00288681782615329	0.00124886595795905	-0.00289548107955773	-0.0117373702789935	-0.0137800572701543
9.9	-0.0144080021025469	0.00158659403125318	0.000840761629878502	-0.00303211331879085	0.000828867471704209	-0.00303474541272112	-0.0156811645944198	-0.0109832439197896
10	-0.0140827225202706	0.00287209371328964	0.000407222156034201	-0.0031140099648452	0.000406414004270554	-0.00312134680418507	-0.018011107807612	-0.00724056249611345
10.1	-0.0139722607338209	0.00356605204374349	-3.09074157570729E-05	-0.00315059148823523	-3.55618034935696E-05	-0.00315336749788013	-0.0200251967363382	-0.00397505801969955
10.2	-0.0137222414970157	0.00460063269296739	-0.000471916307794559	-0.00310943735916339	-0.000484542924168054	-0.00311320569967053	-0.0214670109715644	0.000135674702959628
10.3	-0.0132435459001877	0.00546803627056962	-0.000904360582710024	-0.00300674941222204	-0.000904141230316809	-0.00302016421468944	-0.0219602952229167	0.00456102384690025
10.4	-0.0127603136301254	0.00633763784845944	-0.00131459094471516	-0.00286032951658211	-0.00131776892074479	-0.00285819523889731	-0.0214775788669229	0.00922835817148916
10.5	-0.0116406803963089	0.00720926174319872	-0.00170284910753212	-0.00263979544194298	-0.00170904593703652	-0.00264706433574265	-0.0191346191581252	0.0138302774367584
10.6	-0.0107349349386875	0.00743477060979742	-0.00206125367132806	-0.00237924997721607	-0.00206276483634572	-0.00238436902247945	-0.0163449699474319	0.0170545561853754
10.7	-0.00973089945338318	0.00767443924788563	-0.00236760555644233	-0.00206547950670741	-0.00237084594619634	-0.00208153216054738	-0.0129770971160148	0.0199932632741244
10.8	-0.00891812591662682	0.00751005144273937	-0.00263451979355866	-0.00171657812639281	-0.0026315806212072	-0.00171875320378275	-0.00938489171817481	0.0221061461799576
10.9	-0.00860419307725277	0.00753497702894005	-0.00285214250555973	-0.00133632119516665	-0.00285143315746026	-0.00134145755554723	-0.00576819058609199	0.0239981958669668
11	-0.00765128530799648	0.00772833629830684	-0.00301162007597397	-0.000917408162954092	-0.00300460489237186	-0.000921721392222034	-0.00083691167302445	0.0254535851257084
11.1	-0.00724585046754499	0.00737503208084666	-0.00310538905963757	-0.000502210045114195	-0.00309762472498055	-0.00049392196278269	0.00368909101613617	0.0251780866018444
11.2	-0.00678041554949867	0.00742784962056486	-0.00314541952019691	-5.98333284602062E-05	-0.0031520174715324	-5.66068714022089E-05	0.00820329433674328	0.0247091409087625
11.3	-0.00604037450907011	0.00724784948016723	-0.0031212353604974	0.000382332472073539	-0.00312440822588391	0.000380173486930976	0.0129687251291603	0.0234866972053807
11.4	-0.00563077963200472	0.00700754276811618	-0.00303146661382193	0.000813631904190935	-0.00303609776679295	0.000813797652839731	0.0174453788405754	0.0214150227623178
11.5	-0.0048578375225279	0.0067104847799394	-0.00289757553289556	0.00121870819608376	-0.00289005217839329	0.00122344911779516	0.022244641212109	0.0182478954052383
11.6	-0.0047792503271984	0.00577533523713131	-0.00269610946953418	0.00161381961339695	-0.00270421398804803	0.0016235435177405	0.0255967041669454	0.0132097927604549
11.7	-0.0049142933433444	0.00536713523166311	-0.00244028000504822	0.00198140634205924	-0.00244202286471687	0.00198510403815399	0.0277336898151197	0.00820791390368423
11.8	-0.00501196011662688	0.00518639562536307	-0.00213944450490869	0.00230440575950169	-0.00214862969414349	0.0023142292872354	0.0290436767205863	0.0031770360895924
11.9	-0.00499871547348495	0.00540786257545455	-0.00179925712428823	0.00257420560813426	-0.00179927601017061	0.00258076461581075	0.029544331651975	-0.00123016190606118
12	-0.00405422944864588	0.00548581423425008	-0.00142117596471977	0.00279996434431347	-0.00142566708072229	0.00280276066768668	0.0307491073861675	-0.00609570952992791
