# GHZ S RI R 50
0.2	-0.013944915108451	0.0054123757761937	0.00304430062576217	-0.000885298587222034	0.00305475964579449	-0.000885146640363455	0.00583080045757889	0.000899449117427072
0.3	-0.0131485177785873	0.00585736212293688	0.00289807932988091	-0.00130132986948881	0.00289179405407895	-0.00131297070145751	0.00613302182327949	-0.0014165012784585
0.4	-0.0124172282948162	0.0065132701156626	0.00268376674550378	-0.00169554397872536	0.00268166149015096	-0.00169745563148655	0.00571095286657589	-0.00329688776633145
0.5	-0.0118987054516113	0.00719344881379304	0.00241383111238561	-0.00205221968511981	0.00241664418139645	-0.00205594498838177	0.00474380074048724	-0.00489136527067873
0.6	-0.0112074873305416	0.00818464686414507	0.00210143688714939	-0.00237217013803424	0.00210069352411243	-0.00237501175468743	0.00353950017576032	-0.006064730785134
0.7	-0.0104330902070538	0.00897506301669762	0.00175081505726592	-0.00264215357503781	0.00175701930782293	-0.00264624645586688	0.00203336661011114	-0.00696126883355639
0.8	-0.0095684800647257	0.00970574569933056	0.00135728511473063	-0.0028618997767332	0.00136555560433339	-0.00286030488226377	0.000305205636344662	-0.00736804456124367
0.9	-0.00871052060481759	0.0103197609345274	0.00095292153077959	-0.00301360126161079	0.000952901371854081	-0.00302301357336485	-0.00141295822786253	-0.00732470179048152
1	-0.00796686111935856	0.0106285575684227	0.000520441916123638	-0.00312175519730967	0.000520293392961888	-0.00312711015771859	-0.00311088095032177	-0.0069302839367943
1.1	-0.00758225043731929	0.0111886759192174	7.290317054897E-05	-0.00316170844918529	7.37901040429318E-05	-0.00316643367596267	-0.00475652518501935	-0.00582019479318988
1.2	-0.00697831259515434	0.0114671030447501	-0.000365851173359169	-0.00313435091027756	-0.000364628289258131	-0.00315113999930208	-0.0055751618421332	-0.00443697227316204
1.3	-0.00668803988756849	0.0113553378738668	-0.000796744002694735	-0.00305992884163789	-0.000801681361184048	-0.00306758067891987	-0.00561353863646516	-0.00311819368147176
1.4	-0.00641475668092965	0.011172371031724	-0.00122240103622006	-0.00291483040432058	-0.00122481651637882	-0.00292195750072074	-0.00524890911757081	-0.00231286145804342
1.5	-0.00595309325137106	0.0112898779229073	-0.00161423103835016	-0.0027165976008059	-0.00161226088493056	-0.00272213792966684	-0.00501418250483316	-0.00174725506082392
1.6	-0.00493151162433565	0.0118348615740333	-0.00197686774403768	-0.00245988239703333	-0.00198033683241442	-0.0024607605980333	-0.00508875258118944	-0.000751786310730866
1.7	-0.00374291633997896	0.0120818620564709	-0.00230136487917154	-0.00216556471589018	-0.002303414548282	-0.00217414835300897	-0.00486732691418049	0.000421098240561621
1.8	-0.00266138588970352	0.0123036925395581	-0.00257799946725456	-0.00181651969937945	-0.00258317481522273	-0.00182197698447862	-0.0043716179218976	0.00156721461384212
1.9	-0.00165030781426548	0.0122640072785039	-0.00280357519727686	-0.00144742257127434	-0.00280006427737919	-0.00144123660467735	-0.00355379449513561	0.0025766874291642
2	-0.00106422562522924	0.0121827637749453	-0.00297856316543883	-0.00103547461353864	-0.00298129969963705	-0.00102863349920567	-0.00266453429318718	0.00341203672398365
2.1	-0.000280441784517759	0.0124771131605067	-0.0030932294037164	-0.000603837400822492	-0.0030953305773463	-0.000610528546788216	-0.00131553856776708	0.00409748861089382
2.2	0.000671333147090941	0.0125244661275469	-0.00314678986395453	-0.00017326574956205	-0.00314860103641403	-0.000163545679281089	0.000345110753984091	0.00418824074133519
2.3	0.00150918784371362	0.0123426180799634	-0.00313853236212077	0.000268721459850193	-0.00314528461504692	0.000265814226185235	0.0019055325647728	0.00373747622788511
2.4	0.00229525860360546	0.0120249049975934	-0.00307816622375647	0.000703190803179571	-0.00307699159182831	0.000718300115127147	0.00340259604731246	0.00292736194384353
2.5	0.00264029071621006	0.0114385900651124	-0.00294268361754986	0.00113443492334355	-0.00295567811810344	0.00113573385001468	0.00458089636701356	0.00158292593233702
2.6	0.00280932420668031	0.0115070893795414	-0.00275323242995017	0.00152936832526607	-0.00277414499170081	0.00153328076017108	0.00549068682556449	0.000183103868739713
2.7	0.00338288798697722	0.0116852098392026	-0.00252123721711845	0.00189850459289681	-0.00252151528292847	0.0019035889095874	0.00611886472500755	-0.00154205974875262
2.8	0.00428431330064538	0.0118373737794049	-0.00222619368831268	0.00222333712905077	-0.00223602235174172	0.00223453054513061	0.00637665231737053	-0.00329926949418291
2.9	0.00549702489686765	0.0116534424991323	-0.00188995696016087	0.00251598134132792	-0.00188802828488326	0.00252488757797093	0.00647003303609645	-0.00506885554388292
3	0.00645502060670333	0.0111506430301834	-0.00151982582205162	0.00275925641666338	-0.00153490724920628	0.00274622013812992	0.00617266467747488	-0.006909083436863
3.1	0.00756247573206394	0.0108821672589254	-0.00112070630782716	0.00294319510131625	-0.00113764995563731	0.00294860525925535	0.00562413662002088	-0.00864653860074935
3.2	0.0086647816751506	0.0101842188289549	-0.000701150604754863	0.00306808146296581	-0.000696878078356379	0.00307888756426877	0.00448430592707896	-0.0104288576555724
3.3	0.00954848487537325	0.00926295356109567	-0.00027184439915017	0.00313950833811513	-0.000268546920153817	0.00313512710249422	0.00294008265789693	-0.0120469117279695
3.4	0.0102370964298581	0.00818804237312041	0.00017364323001545	0.00314792310080756	0.00016421382728987	0.00314900564253652	0.0010704349500028	-0.0135216490450442
3.5	0.0103733225647686	0.00706001173337803	0.000608066151166591	0.0030916313827293	0.000613074817452776	0.00309029814148318	-0.00142857298026877	-0.0147888314996893
3.6	0.0105880240166067	0.00655387763723416	0.0010282116400786	0.0029706621645643	0.00103481256119598	0.00297414990912903	-0.00409302507986964	-0.0152011509219274
3.7	0.0110542950014178	0.00584353963011622	0.00144428103846288	0.00279412328845653	0.00144254511107739	0.0028104930712579	-0.00676326287434194	-0.0152271239453241
3.8	0.0115035978728424	0.004982012128611	0.00181240951943949	0.00256761953825509	0.00182301267769062	0.00257396545117397	-0.00952531221164431	-0.0147611248912988
3.9	0.0118809026048279	0.00390593500086316	0.00216000435733097	0.00228939908173532	0.00215540640145412	0.00228930574800046	-0.0122263348684022	-0.0137406939200496
4	0.0116666183340585	0.00278541527254273	0.00245069064540593	0.001969313790638	0.00246213226215247	0.00197544503691204	-0.0148272131479412	-0.0121308466917527
4.1	0.0116036472347048	0.00240705193158456	0.00270145902154591	0.00160367470120403	0.00271802045596956	0.00161344292735062	-0.0168012559600632	-0.00971629701706959
4.2	0.0119156471011977	0.00178113796359708	0.00290340378960728	0.00120755390344814	0.0029046371315747	0.00120983886879043	-0.0182047930231119	-0.00717392953817523
4.3	0.0121690499499806	0.000969905343442991	0.00304644102756582	0.000799704336453033	0.00304762856216461	0.000808285847287864	-0.0191590899047451	-0.00454361525337113
4.4	0.0122881008272827	-7.96666760025407E-05	0.00312527816927107	0.000364406486289586	0.00313319512263451	0.00035976987662527	-0.0196693871602915	-0.0017608138531206
4.5	0.0117954615139442	-0.00117761938310567	0.00314839419900728	-7.91440408856825E-05	0.00314520535410879	-7.68833477846129E-05	-0.0198057020672639	0.000991373748814947
4.6	0.0113234079106438	-0.00153379941751363	0.00309627661290986	-0.000524769637302122	0.00310930404562809	-0.000512789269754953	-0.0193396041446624	0.00394402539546083
4.7	0.0112494120888412	-0.00198627526869163	0.00299465984099446	-0.000938201723690256	0.00299456581482652	-0.000947635003173609	-0.0183666609194643	0.00647021740911994
4.8	0.0111584736933933	-0.00259017574701245	0.00284579671145606	-0.00134088087035687	0.00283815130632275	-0.00136105765334145	-0.0170215370059744	0.00885624377609782
4.9	0.0112500371946572	-0.00331480351225559	0.00263049409910502	-0.00173797900838652	0.0026244210340767	-0.00172954068552256	-0.0151883799871044	0.0109663866267467
5	0.0109636615686557	-0.00423581255816201	0.00235607765804413	-0.00207049968417331	0.00235883178198643	-0.00208292217392224	-0.0129620914978129	0.0127081375269211
5.1	0.0110740700273981	-0.0046796889185491	0.00203421057873732	-0.00239535952049596	0.00204743903970835	-0.00239287474484343	-0.0101211547262612	0.0141681649584536
5.2	0.0113722042860259	-0.00572629930106284	0.00169132311685784	-0.00265250363741157	0.00169182571568042	-0.00265666531922583	-0.00707678166045657	0.0147498669909584
5.3	0.0113114631109671	-0.00705614374544837	0.00130162858498805	-0.00286404956254593	0.00129788445256044	-0.00286662362211258	-0.00412118392749659	0.0147794805064168
5.4	0.0108301109590861	-0.00844916727131363	0.000890832394620583	-0.00302382550724495	0.000889945017354842	-0.0030262854165646	-0.00124364394279546	0.0141650775190454
5.5	0.00943952544849308	-0.00944998925491784	0.000450836836871096	-0.00311919595736266	0.000463420188844696	-0.00311917501694852	0.00104475698227817	0.0129788972196226
5.6	0.00863260207942694	-0.00936729270880709	1.67236447387134E-05	-0.00314830464261041	1.34257174501202E-05	-0.00314484622478223	0.00320610205439877	0.0117592515303654
5.7	0.00820526024520894	-0.00969702985809477	-0.000416037017925598	-0.00312217897877664	-0.000419753879489866	-0.00312586903049244	0.00493933563517446	0.00997497442739864
5.8	0.00774339437312902	-0.0101873856373032	-0.000851066439634604	-0.00303224070174251	-0.000850335650989483	-0.00303992598891928	0.00615285348772673	0.00788937174921099
5.9	0.00723938167516443	-0.0108571954069516	-0.00126870368841012	-0.00287948745942598	-0.00126710312485302	-0.00288364044507551	0.00685935361196725	0.00572106903153358
6	0.00588877789525048	-0.0119297176093541	-0.00165723634839535	-0.00267262585700714	-0.00165124746050533	-0.00267597647866305	0.00678088653335368	0.00344476799303037
6.1	0.00438239792503047	-0.0117100486113888	-0.00201391525916716	-0.00242207357765551	-0.00200977318445079	-0.00242683862834254	0.00663838766738283	0.00187565652019227
6.2	0.00356336633278469	-0.0116512610662459	-0.00233404296973934	-0.00210696962208032	-0.00233046554606706	-0.00211563368271657	0.00660370007273593	-0.000119361241638255
6.3	0.00295429200814774	-0.011795652480287	-0.002601744092349	-0.00176794538757097	-0.00261155870436326	-0.0017757052904596	0.00616971917681183	-0.00241348667498734
6.4	0.00233963581133023	-0.0123842288340894	-0.00282883052089765	-0.00138267459834001	-0.00282684037884232	-0.00138846993995992	0.00530342727000694	-0.00483867849188106
6.5	0.000989831487795889	-0.0128793225513772	-0.00299324237354032	-0.000981653056828896	-0.0029936467385201	-0.000980530899971582	0.00363150650337302	-0.00705129864790602
6.6	0.000349666676542662	-0.0125380993434785	-0.00309936422515345	-0.000556710196594421	-0.00311003561133399	-0.00055972037947576	0.00185567455206521	-0.00863685692401043
6.7	-0.000177034893236401	-0.0127226107916378	-0.00314499314314136	-0.000121594343664353	-0.00314395105621925	-0.000115352186203955	-0.000574374222389845	-0.00982480009555257
6.8	-0.000877657326418838	-0.0127774033862545	-0.00313049012688759	0.00032727283405207	-0.00312958399950416	0.000332035717716599	-0.00327933809754852	-0.0100366834485081
6.9	-0.0015568649117764	-0.012994402457656	-0.0030482982893082	0.000757370676576032	-0.00304872241800626	0.00076235703147527	-0.00566849057961085	-0.00953915660394557
7	-0.00318966859988459	-0.0131032407839781	-0.00291968930727695	0.00117563338018102	-0.00292110615130193	0.00117885210967456	-0.00817180076166225	-0.00858088450957008
7.1	-0.00414470527250129	-0.011830852328914	-0.00272186184043742	0.00157587602753864	-0.00272428546513566	0.00158690470612245	-0.00996241056067504	-0.00658261914563902
7.2	-0.00441905939521316	-0.0111614549528045	-0.00248076968331761	0.00193782278829752	-0.00248095128588768	0.00194372288847908	-0.0112237021989123	-0.00455471960658681
7.3	-0.0047508016967089	-0.010744137093234	-0.00219002803790799	0.00226304377313427	-0.00218726352776636	0.00226451829493299	-0.0120384289531625	-0.00225541590274333
7.4	-0.00503500195120478	-0.010703650486718	-0.00184794061868202	0.00254767610037406	-0.00184071693490398	0.00255420321223118	-0.0122556795521235	7.27190865125424E-05
7.5	-0.00630095567726028	-0.0112386646000265	-0.00146925376589671	0.00278451126421121	-0.00147029518305623	0.00278249509033073	-0.0121047959619703	0.00223794207948698
7.6	-0.00755444032299485	-0.0103588544517928	-0.00107407061415517	0.00296044184524471	-0.00106340083998678	0.00297079099772143	-0.0110680261494896	0.00477357614541545
7.7	-0.00818366833874184	-0.00988796212868849	-0.000644633701696882	0.00308391478856438	-0.000639066590634161	0.00308356317983582	-0.00937553179678555	0.00616700080785088
7.8	-0.00872823918092491	-0.00984143613520052	-0.000197973289901128	0.00314517860055373	-0.000211630433822408	0.00313810303247682	-0.00762847513863006	0.00714891423485002
7.9	-0.00949049888725302	-0.0100359753146624	0.000227236276283828	0.00313174168493795	0.000238333808168455	0.00313142581097992	-0.00579605698754562	0.00785631319101643
8	-0.0111658383935199	-0.00963944514500229	0.000663814567767253	0.00307396971144893	0.000672105627162834	0.00307188386653409	-0.00423845123904802	0.00839309652583421
8.1	-0.0114819028418719	-0.00812981435710569	0.00109411423030866	0.00294969221127814	0.00109183056268145	0.00294644043625883	-0.00192716706209281	0.0091012273494254
8.2	-0.0114595796475279	-0.00741359012389147	0.00148608271713766	0.00276779457263672	0.00148526963493556	0.00277938406855367	0.000493520147927659	0.00900330374054449
8.3	-0.0115619047057786	-0.0068902803481374	0.00185939091983057	0.00253476027605803	0.00186446595376948	0.00253216969335986	0.00286273963527136	0.00846277269334643
8.4	-0.0117137782144888	-0.00660072448120828	0.00220607993401388	0.00225252855869555	0.00219491661503148	0.00225294007186604	0.00516151365299889	0.00729246991683761
8.5	-0.0129595129543872	-0.00633725822055031	0.00250031546917492	0.00191690192409324	0.00250032548337325	0.00191825230296197	0.00666112868099875	0.00553655248307265
8.6	-0.0135391960415053	-0.00444722476707256	0.00273269989837982	0.00155759180036759	0.00272848685719814	0.00155528522613412	0.00816645897607599	0.00394424166407993
8.7	-0.0131747812642699	-0.00315020028432065	0.00292293947103691	0.0011575209019226	0.002921776145981	0.00115711074388673	0.00925495266724838	0.00157194188991225
8.8	-0.012588350836091	-0.00225721819026162	0.00305139070590061	0.000738189962837725	0.00306236876094278	0.000736073906849659	0.00959168004924942	-0.00099520102529934
8.9	-0.0117739911365964	-0.00202411679756641	0.00312410796603511	0.000307857897079516	0.00313345420146917	0.000300713703259228	0.00957719738187769	-0.00347771954884161
9	-0.0119052540023056	-0.00244090171834	0.00313808272869758	-0.000139592500649137	0.00314486162967012	-0.00013399118714177	0.00891712444608335	-0.00602397616912073
9.1	-0.0118435909435928	-0.00194901419907328	0.00309054102177221	-0.000573892754428725	0.00309075868762223	-0.000574085404598793	0.00819734681486364	-0.00813306583551782
9.2	-0.0116351505529085	-0.00213364179207602	0.00297428124984876	-0.000995263234157362	0.0029781017861816	-0.000995042749399979	0.00703950915102959	-0.0106347048130428
9.3	-0.0119308631472813	-0.00234395781756754	0.00280153816260163	-0.00140381320522867	0.0028195834639653	-0.00140426157378593	0.00509007372262649	-0.0128970948533162
9.4	-0.0124655938011053	-0.00246221600003845	0.00258425479091407	-0.0017759505356224	0.00258757123813706	-0.0017869794648998	0.00257870605169321	-0.0147546542846879
9.5	-0.013846874890443	-0.00191253260551554	0.00231205305681829	-0.00213376060929247	0.00232685470016265	-0.00213443645857833	-0.000810643654440975	-0.0158565496057322
9.6	-0.014079104944664	-0.00022409387294757	0.00199124639729956	-0.00243412467982835	0.00199157459362304	-0.00242711090575639	-0.00409755196694874	-0.0159835529391062
9.7	-0.0137564923545842	0.000743668603338006	0.00162952610610723	-0.00268709015290439	0.0016378195231071	-0.00268868277586286	-0.00766218674963308	-0.0156625538306484
9.8	-0.0134359175977538	0.00144920579883695	0.00124569509505489	-0.00288280635731364	0.00124386547942496	-0.00289145227342533	-0.0113120723440316	-0.0143888729775594
9.9	-0.0130762367792839	0.00178348767857214	0.000835206708324518	-0.00302890873084319	0.000823326072078897	-0.00303152000226108	-0.0147569097965843	-0.0121940522274287
10	-0.0138515120705678	0.001914129029869	0.000400017784146868	-0.00310565833497103	0.000399197845235245	-0.00311297208594542	-0.0179974151739786	-0.0092829154563034
10.1	-0.0140076094902084	0.00354262215569807	-3.21558992537818E-05	-0.00314108829616493	-3.67974494681427E-05	-0.00314385396251505	-0.0201038334457473	-0.00525738005892255
10.2	-0.013343181242009	0.00457910876383742	-0.00047166679965903	-0.00310165601989466	-0.000484263482910919	-0.00310541140048087	-0.021262158906057	-0.00123434015344446
10.3	-0.0125289299198122	0.00524043485778719	-0.000903895774624827	-0.00299898961658644	-0.000903684598549526	-0.0030123722233353	-0.0215900107443185	0.00307755173974113
10.4	-0.0116213966740274	0.00523830762761986	-0.0013128135422932	-0.00285002401433716	-0.00131597949307938	-0.00284789387384831	-0.0207432868380562	0.00719321800569526
10.5	-0.0119490715508256	0.00503244458279173	-0.00169341366263719	-0.00263084723472379	-0.00169957844604565	-0.0026380929661883	-0.019439384259249	0.0109922012693407
10.6	-0.011789154070019	0.00600785513444061	-0.00205265881507847	-0.00237615060735666	-0.00205415889013577	-0.00238125883561694	-0.0170467622986677	0.0147628029268744
10.7	-0.0113374989199431	0.00667360762851373	-0.00235986546997405	-0.00206331343102432	-0.00236308071812407	-0.00207933257455401	-0.0140806733503884	0.0178845780292486
10.8	-0.0106591288427895	0.00741382797069697	-0.00262600107538796	-0.00171528664718518	-0.00262306676488333	-0.00171745296433217	-0.0105915157762752	0.0206402825508377
10.9	-0.00974135119567079	0.00771935462027634	-0.0028416798831925	-0.00133817495978571	-0.00284096251506504	-0.00134329577477197	-0.00647850715562666	0.0226612064871821
11	-0.00975670371957317	0.00781148313225623	-0.00300620058585844	-0.000924575057668302	-0.00299918074403099	-0.000928865249931035	-0.00229836849880319	0.0239476926634684
11.1	-0.00886231524018437	0.00911712841627754	-0.00310210353452725	-0.000505647303931949	-0.00309435617280433	-0.000497356651535554	0.00270105694268996	0.0247797401585616
11.2	-0.00730990938428596	0.00943740119647906	-0.00314099604500807	-6.38203923250962E-05	-0.00314758905449574	-6.06069301207352E-05	0.00787778884535278	0.0242519219290667
11.3	-0.0057121765192774	0.00909204188118438	-0.00311753437457711	0.000376223788762961	-0.00312069892994532	0.000374062171839751	0.013013442352521	0.0228758260907215
11.4	-0.00445637238152854	0.00811195515439465	-0.00303167490952466	0.000806146360126169	-0.0030363038808888	0.000806301270075017	0.0179311676750683	0.0203708560749272
11.5	-0.00463147704350829	0.00707090910018695	-0.00289902477167769	0.00121701765488793	-0.00289150298622966	0.00122176467720002	0.0218099189878457	0.0167282760555879
11.6	-0.00410720448677865	0.00720794103965301	-0.00269392831019642	0.00160988911056219	-0.00270202976482749	0.00161959516708277	0.025490195111866	0.0126967224637368
11.7	-0.00314257433619861	0.0064720821684841	-0.00244028187459555	0.00197556901922445	-0.00244202802706029	0.00197925987549739	0.0284037413133087	0.00757910290897389
11.8	-0.00243021648951005	0.00530471773916019	-0.00214196764306374	0.00229941969783878	-0.002151163548231	0.00230922186222225	0.030337176550382	0.00203155269448249
11.9	-0.00221820332725923	0.00352064146496262	-0.00180177929415384	0.00257269771046248	-0.00180180430254147	0.00257925713702586	0.0312109664286739	-0.00372900225943017
12	-0.00395809924120443	0.0021670570268844	-0.00141960399040958	0.0027950928702492	-0.00142408859076065	0.00279788354287066	0.0304523806028887	-0.00963789209093792
