# GHZ S RI R 50
0.2	-0.0141036618372382	0.00453979279661268	0.00304857220992762	-0.000884024939903944	0.0030590434720916	-0.000883864844014945	0.00581396478669815	0.000145157222239907
0.3	-0.0132463064048402	0.00523655746952043	0.00290359853249935	-0.00130049870889091	0.00289731503158611	-0.00131216271568048	0.00616977259375853	-0.00192179100736779
0.4	-0.0124935604554896	0.00618293166212094	0.00269061113533893	-0.00169590984630792	0.0026885039281755	-0.00169782732045296	0.00572133558448704	-0.00353314963903017
0.5	-0.0113417602415515	0.00676946921213844	0.00242085580391553	-0.00205508434525106	0.00242367805609074	-0.00205881602084324	0.00518844606832637	-0.00518226816139895
0.6	-0.0110862027661654	0.00703775880178351	0.0021075957959165	-0.00237584265101635	0.00210685278022693	-0.00237869090469504	0.00346471911782672	-0.00677799851420295
0.7	-0.0108262778903567	0.00795627361523905	0.00175706079898527	-0.00264707000188169	0.00176328304101478	-0.00265116775449781	0.00157536821382528	-0.00732693206000714
0.8	-0.0102671323219224	0.00890047140050777	0.00136292537087129	-0.00286862469648204	0.00137121692175822	-0.00286701974332378	-0.000259447657985962	-0.00741220916349992
0.9	-0.00974433271605194	0.00997042214624909	0.000956911389976608	-0.00302197036224154	0.000956894987154117	-0.00303141002744563	-0.00204869672935047	-0.00698053463353829
1	-0.00834094014555854	0.0111460826786784	0.000522469230488243	-0.00312985217423873	0.000522321447487252	-0.00313522124383229	-0.0030543008501338	-0.00611359566896876
1.1	-0.00729742619888912	0.0107854930364999	7.48665265435892E-05	-0.00317076211790882	7.57586320157518E-05	-0.00317550044408355	-0.00442359246968822	-0.00604321356756238
1.2	-0.0070933135287755	0.0104446855749356	-0.000365906484676272	-0.0031447192065804	-0.000364673504151058	-0.00316156267630953	-0.00590386557728762	-0.00518308145952944
1.3	-0.0073407406476701	0.00988413212274752	-0.000799252659462208	-0.0030705064644818	-0.000804206413908437	-0.00307818497411459	-0.00670255726210795	-0.0040732032778908
1.4	-0.00760071523265919	0.00980362204189483	-0.00122692747289717	-0.00292451583034349	-0.00122935208276449	-0.00293166668644892	-0.00686995217731281	-0.00282570588481701
1.5	-0.00671488174089007	0.0099723797286146	-0.0016193665354305	-0.00272648091610612	-0.00161738833799804	-0.00273204034585356	-0.00624113158336071	-0.00191167424079657
1.6	-0.00618379329955884	0.010422707942408	-0.00198567044189038	-0.00246990391204593	-0.00198915434159348	-0.00247078517955201	-0.00647509995362937	-0.000543140372278107
1.7	-0.00503838705844265	0.0112730053768655	-0.00231278606387293	-0.0021732057043745	-0.00231485066919987	-0.00218182469076043	-0.00584531963817763	0.00123235317419176
1.8	-0.00375363044045666	0.011942299586567	-0.00259079157677817	-0.00182164828347945	-0.00259599442840469	-0.00182712356374271	-0.00489694649828918	0.00261138805660663
1.9	-0.00235540935545944	0.0124276337607046	-0.0028172264411763	-0.00145069979896491	-0.00281369378191196	-0.0014444908309976	-0.00364746249651831	0.00379319048109763
2	-0.000583362298710989	0.0122267235684037	-0.00299497727096467	-0.00103649460515251	-0.00299771794756714	-0.00102961528821985	-0.00201946192389937	0.00426055730173554
2.1	3.57288190417599E-05	0.0115161786581621	-0.00310972912416459	-0.000599306203762619	-0.00311185666914946	-0.000606024815126678	-0.00113135627553529	0.00437770576279904
2.2	0.00054369711640973	0.0114759198212108	-0.00316158330188588	-0.00016543142915038	-0.00316337608102699	-0.000155662167171927	0.000290007002110315	0.00470463868122928
2.3	0.00107156150495749	0.0114284754095309	-0.00315179417712343	0.000279296673753122	-0.00315858536814837	0.000276396573330261	0.00189692217136565	0.0044466174758493
2.4	0.00164568622879637	0.0116287962955838	-0.00309010152181754	0.000716870418889143	-0.00308887033091513	0.000732046016164805	0.00356020072340536	0.00383000427544142
2.5	0.00292051316583014	0.0116124575065889	-0.00295064336961528	0.0011526283413446	-0.00296368962352718	0.00115399116979227	0.00547044481731956	0.00233591057305563
2.6	0.00357109897213119	0.0107903544263874	-0.00275600260188347	0.00154741608887218	-0.00277697150747741	0.00155143824676369	0.00618214784010743	4.09903330163136E-06
2.7	0.00396892698363189	0.0104878351291378	-0.00252104940045372	0.0019166606619396	-0.00252130486825492	0.00192176361881428	0.00627786799802637	-0.00191611027415679
2.8	0.00458023185520179	0.0103802493186111	-0.00222246414846161	0.00224178664917578	-0.00223226947748078	0.00225306607227785	0.00611786977919053	-0.00360515164901706
2.9	0.0055809482088356	0.0103208447881559	-0.00188141070315268	0.00253405549997883	-0.00187942625305312	0.0025429772684219	0.00598322960471496	-0.00509158607310957
3	0.00701442438415357	0.00961282634656667	-0.00150660459491966	0.00277308425949069	-0.00152178900353119	0.00276011163768941	0.00579237621169329	-0.00697383201254269
3.1	0.00756319126931214	0.00870272942002416	-0.00110707492165216	0.00295428173083216	-0.0011240195528821	0.00295979111698279	0.00457034039004799	-0.00864330934010053
3.2	0.00812909675390082	0.00815447551518029	-0.000685256463045456	0.00307715279963414	-0.000680916596886577	0.00308795332818694	0.00324032183259983	-0.00977566710735951
3.3	0.00868425455879107	0.00755129006841049	-0.000253782131688343	0.00314515519663425	-0.000250506092163899	0.00314074896602931	0.00179329946499024	-0.0108579516370234
3.4	0.00929218174294762	0.00708460552679945	0.000192414289282314	0.00314875073858577	0.000182985742732933	0.00314988983966947	0.00023741912997024	-0.0118160950099105
3.5	0.0102769288339064	0.00613706669652413	0.000624348492869188	0.00308972163507192	0.00062935225933385	0.00308836187510753	-0.00152893052129324	-0.0131246292878715
3.6	0.0103287571416772	0.00492895655462511	0.00104580034669086	0.00296735596362951	0.00105242642825899	0.00297080945233563	-0.00438646248596876	-0.0137708230003856
3.7	0.0103556110972065	0.00431094740898622	0.00146178709523302	0.00278645809730177	0.00146014974452637	0.00280284480281956	-0.00693286067990929	-0.0134909237234751
3.8	0.0105760755860568	0.00381308962690741	0.00182794848036574	0.00255618905527881	0.00183858930801562	0.00256246913814319	-0.00933386947078824	-0.0129402948792516
3.9	0.0110883271351849	0.00341134669126416	0.00217258525174161	0.00227573726679952	0.00216798865055567	0.00227567103521749	-0.0116312696449249	-0.0120027789106896
4	0.0120680136119215	0.00236396895889502	0.00246305995418011	0.00195425556042294	0.00247454033555538	0.00196031629965107	-0.0137591514628562	-0.011059477569933
4.1	0.0120105101511966	0.00102138500265365	0.00271066492059796	0.00158334107296356	0.00272728234607574	0.00159298469231022	-0.0164381989864091	-0.00917186025246272
4.2	0.0119813954410109	0.000221041044180821	0.00290718481856689	0.00118538684102048	0.00290843211879741	0.00118765956028496	-0.0181752338788973	-0.00638285036337416
4.3	0.0120128980683564	-0.000518040589430344	0.0030456090281199	0.000777374345908055	0.00304685239239288	0.000785930153118344	-0.0191766348020625	-0.00358151362063233
4.4	0.0121169325825921	-0.00114488045464059	0.0031209356705644	0.000342293907943221	0.00312880370260878	0.000337613429395055	-0.0196011070313221	-0.000638605929380852
4.5	0.0126607482394176	-0.00223997835101896	0.00313850886780498	-0.000102988949096297	0.00313534671149413	-0.000100710531936809	-0.0193377905815258	0.00174462513763276
4.6	0.012056794892723	-0.00371925583776922	0.00307941582084659	-0.000544257880419502	0.00309247185071079	-0.000532419901103781	-0.019691841009053	0.00423894034096278
4.7	0.0114026845118833	-0.00442634209222399	0.00297487635520472	-0.000953260239624702	0.00297472178578739	-0.000962649695361426	-0.0192721844795317	0.00722758220795227
4.8	0.0108353778058088	-0.00493493433519342	0.00282353197713408	-0.00135226685248056	0.00281579679891592	-0.00137229748795981	-0.0180703793723513	0.0101769861945083
4.9	0.0106873777953297	-0.0051353688129421	0.00260501802306174	-0.0017454971736999	0.00259903229487292	-0.00173706551402898	-0.0160281756324747	0.0128919917635827
5	0.011188218855129	-0.00601683453912088	0.00232780610039516	-0.00207005674733605	0.00233046872468361	-0.00208241006575218	-0.0131626206589126	0.0145620983692002
5.1	0.0108435116892986	-0.0071584824702001	0.00200917129643674	-0.00238856287358034	0.0020223213350068	-0.00238615683001276	-0.0106050833586298	0.0160323083308531
5.2	0.0106350065802029	-0.00797027968877874	0.00166793534177288	-0.00264177877129303	0.00166841602706565	-0.00264591408494437	-0.0072341847845161	0.0169428508910782
5.3	0.010398706578675	-0.00884538000632046	0.00128015611341076	-0.0028485611849974	0.00127642858459462	-0.00285110079963293	-0.00389268950862891	0.0169045784978143
5.4	0.0102000569775136	-0.00948464725007648	0.000872850563628731	-0.00300268571711208	0.00087196152674372	-0.00300512266313689	-0.00073290690856045	0.0162015392256185
5.5	0.0102778398366822	-0.0107778591987086	0.000440656710788458	-0.00309529594905263	0.000453139848883473	-0.00309530175291421	0.00190414564450427	0.0143243844861898
5.6	0.00901743414195437	-0.0119019505879732	9.76623677460741E-06	-0.00312504106988615	6.50022324129834E-06	-0.00312160108858352	0.00319262515095923	0.0130390578987829
5.7	0.00794761672651168	-0.01224470662713	-0.00041914248086302	-0.00309698600376272	-0.000422837863113646	-0.00310063972114148	0.00501835187778602	0.0118364053116481
5.8	0.00708366201699985	-0.0124559803961412	-0.000848478151919222	-0.00300616892388432	-0.000847764461818976	-0.00301379230672236	0.00675717111192863	0.00987924249511311
5.9	0.00642991041493878	-0.0123128331887917	-0.00125959850446323	-0.00285528074388936	-0.00125801296113616	-0.00285940037373246	0.00809253170643308	0.00747652540877341
6	0.00663670087690932	-0.0129335611129083	-0.0016459581133887	-0.00265269400415809	-0.00164001378391501	-0.00265602199442294	0.0088484731360651	0.00385515774859902
6.1	0.00531873108381706	-0.01430744357236	-0.00199933655230179	-0.00240174327988448	-0.00199522999563939	-0.00240647293434196	0.00716976913805429	0.000607262864771404
6.2	0.00361584560362151	-0.0147240085115	-0.00231434729068798	-0.00208986975829497	-0.00231079814693338	-0.00209846138843993	0.00534172129165239	-0.0012047996647637
6.3	0.0022631305434676	-0.0146052272020928	-0.00257886217869607	-0.00175570901939539	-0.00258858952300208	-0.00176341381603818	0.0038627517400338	-0.00243363414109156
6.4	0.00161747633313872	-0.0142633903191017	-0.00280527822189143	-0.0013754102644086	-0.00280329644667414	-0.00138115837617769	0.00304199688082023	-0.00351462440641297
6.5	0.0015366160196993	-0.0151349722456702	-0.00296819570986719	-0.000975624513648916	-0.00296859751862333	-0.000974511770707997	0.00199393276225566	-0.00557968909852441
6.6	0.000161288749300594	-0.0156325070551682	-0.00307065891403158	-0.000557319155054953	-0.0030812294952866	-0.000560321661933559	-9.02914824911294E-05	-0.00644195317096835
6.7	-0.000878529292960621	-0.015568670397151	-0.0031174149435759	-0.000128937574735862	-0.00311639855343522	-0.00012274672750364	-0.00187641533767285	-0.00693611620768325
6.8	-0.00185408563682914	-0.015157981656082	-0.00310524235031248	0.000314824071292994	-0.00310435858773528	0.000319549807106652	-0.00399100036021934	-0.00687854657419025
6.9	-0.00226234498568301	-0.0143357984755005	-0.00302482962914832	0.000741309349291744	-0.00302526592131632	0.000746252057901827	-0.00566109197060356	-0.0060929673238476
7	-0.00190736414567665	-0.0147326750210172	-0.00289704157924597	0.00115213806730508	-0.00289845865339447	0.00115532033549445	-0.00727476663090819	-0.00601881400638614
7.1	-0.00329921844637976	-0.0151183884910025	-0.00270740392498072	0.00154680130842378	-0.00270986951149663	0.00155772122168866	-0.00994577939297621	-0.00417314887419421
7.2	-0.00443239881127673	-0.0147086147834468	-0.00247278489368255	0.00190718442658791	-0.00247300108724135	0.00191303627313166	-0.0109406912375342	-0.00143789994676899
7.3	-0.00554444743069252	-0.0140979296973885	-0.00218783704224521	0.00223122154211266	-0.00218510356809805	0.00223270268777603	-0.010938563844282	0.00113317142991628
7.4	-0.00639623141042938	-0.0129394690026533	-0.0018521703117651	0.00251429963554536	-0.00184505068072313	0.00252082870421151	-0.00998481209319883	0.0033883769965984
7.5	-0.00605353904613357	-0.0126102976621929	-0.00148403726486831	0.00275271170458531	-0.00148505378470527	0.00275069988951251	-0.00825705802371432	0.0038416147117219
7.6	-0.00718157936659442	-0.0131188768334316	-0.00109361726812675	0.00293511144328908	-0.00108309435537157	0.00294549577623127	-0.0081650785398592	0.00414538632848692
7.7	-0.00844686697507753	-0.0127626254892665	-0.000667793835520766	0.00306224984112297	-0.000662252798678848	0.00306194796170747	-0.00788727311081269	0.00498419327034109
7.8	-0.00927561771440695	-0.0122440341887258	-0.000225701869025262	0.00312775667366881	-0.000239226619264834	0.00312059156105345	-0.00729981442221898	0.00605437030639897
7.9	-0.00942756118912599	-0.0116705275512122	0.000194854320583467	0.00312083824912206	0.000205908305022128	0.00312063506273701	-0.00618492265100496	0.00719394832536606
8	-0.00942569325294651	-0.012470250613549	0.000631967140623257	0.00307274017787061	0.000640257783595224	0.00307074097569567	-0.00520641796916969	0.00757736443633645
8.1	-0.0107416969568254	-0.0123040683840163	0.00106353445690729	0.00295222064584716	0.00106128733118684	0.00294895596274274	-0.00434091037623627	0.00953163881558152
8.2	-0.0115931864146952	-0.011631390515185	0.00145522513607204	0.00277629887520442	0.00145429875598792	0.00278785408418561	-0.00179534381281792	0.0108001171539623
8.3	-0.0123676778402152	-0.0107435881151901	0.00183063189226053	0.00255045814050396	0.00183572665987567	0.00254792357060558	0.000954835513441155	0.0111067738341796
8.4	-0.0126462908181956	-0.00932306670332267	0.00218296531760619	0.00227464744140074	0.00217179913631813	0.00227494563829597	0.0039134353454829	0.0106557600870745
8.5	-0.0120769443580174	-0.00904361447133024	0.00248281262199015	0.00193914094794585	0.00248281050590325	0.0019404912627034	0.00629189221395864	0.00839514570725967
8.6	-0.0130371541373197	-0.00870701673975426	0.00271661283117855	0.00158388173167251	0.00271242366329956	0.00158153459705192	0.00701115599616901	0.00703918851597755
8.7	-0.0136048598195892	-0.0076733443213877	0.0029129849447638	0.00118777551107243	0.00291182507052453	0.00118735334204354	0.00856768010813139	0.00564348425853011
8.8	-0.0139197325808002	-0.00650307984932511	0.00304848369374326	0.000769470706132633	0.00305949854231029	0.000767460304429367	0.00993783903294567	0.00346442884999975
8.9	-0.013611104549055	-0.00508644719740966	0.00312674023512435	0.000337241398916429	0.00313616880912951	0.000330170976899816	0.0112230871954646	0.000796089057128796
9	-0.0123308705451482	-0.00498191112945701	0.00314297996703765	-0.000108899214408123	0.00314971141680387	-0.000103224966953661	0.0116819076474427	-0.00343082135880071
9.1	-0.0124372926643135	-0.00538842069697809	0.00310419385588941	-0.000542838081618737	0.00310441408213886	-0.000543028920016319	0.00994523426001347	-0.00686676140568257
9.2	-0.0126451642167299	-0.00543513314887583	0.00299426302805074	-0.000968290890724488	0.00299809397670384	-0.000968030793171286	0.00793353438483696	-0.00969182134554534
9.3	-0.0130568128659179	-0.00519183266481916	0.00282593895538738	-0.00138120391794251	0.00284405601247209	-0.0013814746043716	0.00515343033815332	-0.0118528030002565
9.4	-0.0130242746137672	-0.00441664245800043	0.00261225672751513	-0.00175639882183671	0.00261569832904712	-0.00176743615652385	0.00227882651119946	-0.0131248663325662
9.5	-0.0127100668284277	-0.00465836593796903	0.00234834292256422	-0.00211917858963187	0.002363231093711	-0.00211969183900786	-0.00133365626314173	-0.0145464571101981
9.6	-0.0135477150949759	-0.00431989015562609	0.00202953981674997	-0.00243065765478225	0.00202979926473996	-0.00242359246770627	-0.0056095500435974	-0.0136835226038598
9.7	-0.0139365476561241	-0.00351287745798314	0.00166690618449157	-0.00269128588465209	0.00167527531692461	-0.00269281154087741	-0.00866781677719549	-0.0122405091990016
9.8	-0.0142192843265532	-0.00253529382469963	0.00128215509041142	-0.00289387586770478	0.00128039118387991	-0.00290260651653914	-0.0114320089535595	-0.0105186569486283
9.9	-0.0139694973734784	-0.00116771261417203	0.00087093629435921	-0.00304815000150828	0.000858973980679499	-0.00305089548563838	-0.0137124507241634	-0.00842154903212393
10	-0.0130492211841162	-0.00106602732968822	0.000428942085003761	-0.0031360216978507	0.000428171237167815	-0.00314342091393878	-0.0161459195594767	-0.00705093105877346
10.1	-0.0135440998125793	-0.000851176337359078	-1.21563782177385E-05	-0.00317445762241047	-1.68290224046335E-05	-0.00317728254119326	-0.0193936376878522	-0.00367970886764457
10.2	-0.0137595229705824	-2.1444635764187E-05	-0.000458253510478546	-0.00313799129148437	-0.000470963917195522	-0.0031418624345317	-0.0208651467512636	0.000544945223684631
10.3	-0.0136896543306538	0.00110802285494201	-0.000898376793352807	-0.00303795991732788	-0.0008980925837437	-0.00305149402308872	-0.021156506494688	0.00491836422235976
10.4	-0.0127279378862946	0.00237026616148088	-0.00131741712808328	-0.00289007000685041	-0.00132063025598072	-0.00288792655284543	-0.0199272272784734	0.00879966147628052
10.5	-0.0112415789292271	0.00199892539354756	-0.00170734685729385	-0.00266414651176032	-0.00171356706447379	-0.00267148697984506	-0.0187764422437539	0.0110002263674777
10.6	-0.0113705107706901	0.00167147410631252	-0.00206887481488336	-0.00240632438612884	-0.00207037873714979	-0.00241149056709417	-0.0184835530069289	0.0145423415982352
10.7	-0.011611969197123	0.00208783660786731	-0.00238174285713762	-0.0020912985666934	-0.00238495981831682	-0.00210750284781803	-0.016905318394633	0.0186767332974721
10.8	-0.01157066637933	0.00310862785110106	-0.00265412847054943	-0.00173845533616918	-0.00265115750294422	-0.00174064291145157	-0.0140562219534401	0.0229510418290051
10.9	-0.0104550839659812	0.00448698444263007	-0.00287364154746887	-0.00135314987709049	-0.00287291623046794	-0.00135832825084809	-0.0093732139079333	0.026645140577363
11	-0.00869755970133303	0.00417773178042214	-0.00303644551979649	-0.000934855258368658	-0.00302935313529107	-0.000939186918581442	-0.00446829871759861	0.0279685990168207
11.1	-0.00835189474303196	0.00402215977743249	-0.00313678528524202	-0.000512124651829103	-0.00312895312615856	-0.000503738954355824	0.00013453696411395	0.0299718261733213
11.2	-0.00772153622206102	0.00406043831333762	-0.00317721137007071	-6.19945164088022E-05	-0.00318387766720819	-5.87386816542669E-05	0.00640141766482455	0.03072810784728
11.3	-0.00712124685749677	0.00418142807405652	-0.00315193722951366	0.000385944729657617	-0.00315514118516231	0.00038376437143463	0.0130242185709082	0.0299200246283361
11.4	-0.00617995604157747	0.00446590605548866	-0.00306207310933918	0.00082078098882058	-0.00306675066641757	0.000820946877870889	0.0196978831746243	0.0273239480148197
11.5	-0.00496148184371455	0.00339158016952913	-0.00293044221025986	0.0012355882222805	-0.00292282643445287	0.00124037796358051	0.024865105898814	0.02211314862877
11.6	-0.00503859613849775	0.0027703702784457	-0.0027209901688951	0.00163816789575396	-0.00272915689768969	0.00164801748952291	0.0284103398422086	0.0175566179618324
11.7	-0.00469522654095495	0.00252179543969514	-0.00245981867572557	0.00200880894156332	-0.00246156898573285	0.00201254976580898	0.0322272226452122	0.0119847547359351
11.8	-0.00409032576968386	0.00231306890919948	-0.00215473569712498	0.00233511852254115	-0.00216398675069099	0.00234507317672652	0.0350136012121127	0.00519083161666605
11.9	-0.00252288946041566	0.00176987393821352	-0.00180969942601689	0.00261069177605051	-0.00180969274911279	0.00261732580574852	0.0366102995376465	-0.00278048036710961
12	-0.00215956253081212	-0.000405521162686022	-0.00141846082406813	0.00283930797171652	-0.00142298234739068	0.00284216337648095	0.0342031188843796	-0.0114462561510436
