# GHZ S RI R 50
0.2	-0.0138110725254149	0.00562411525258851	0.00304246374640588	-0.000886007223324718	0.00305291765770329	-0.000885859288392169	0.00602877296759311	0.00117714710062181
0.3	-0.0129593456533594	0.00602368317492843	0.00289554347158614	-0.00130181752056822	0.00288925694103337	-0.00131344767247546	0.00637102339821748	-0.00118348728687651
0.4	-0.0122210305432277	0.00650422084083921	0.00268052352766394	-0.00169532331048296	0.00267841923802102	-0.00169723221608943	0.00591383522041358	-0.00324463067797633
0.5	-0.0119492656539649	0.00732342891230853	0.00241077083044033	-0.00205071425186567	0.00241357998141211	-0.00205443640882327	0.00456798530104363	-0.00465608754494407
0.6	-0.0108855480495393	0.00843355400038953	0.00209869308074737	-0.0023704651154789	0.00209794961604982	-0.00237330373980288	0.003686909002364	-0.00550812338917132
0.7	-0.00999986353205169	0.00899562271962317	0.00174803671922965	-0.00263973015722032	0.0017542327494074	-0.0026438203608263	0.00237740597735369	-0.00647976354226604
0.8	-0.00912240642378742	0.00957591499468068	0.00135493851263243	-0.0028585796579622	0.00136319889503023	-0.00285698860165097	0.000797378890304486	-0.00695393830525508
0.9	-0.00825405455205847	0.00996464332094866	0.000951565544165256	-0.00300960032944668	0.000951545154214777	-0.0030190000630615	-0.000725508003004372	-0.00717021121429694
1	-0.00796941961581814	0.0100971299339986	0.000519929473575636	-0.00311817642325835	0.000519781260584771	-0.0031235252721168	-0.00284640034177319	-0.00721527294131869
1.1	-0.00757274910944081	0.0111516311518636	7.24598652424995E-05	-0.00315755928955703	7.33451132890523E-05	-0.00316227840087357	-0.00472670801602272	-0.00568795543028143
1.2	-0.0067127984657927	0.0114926916058608	-0.000365211292540085	-0.00312981317463479	-0.000363989601344743	-0.00314657784697677	-0.0054525037581848	-0.00417067894815272
1.3	-0.00616604454986137	0.011387052838802	-0.000795009598423153	-0.00305557432662882	-0.000799938287890105	-0.00306321581608463	-0.00537252263521744	-0.00269911757580334
1.4	-0.00569960200510846	0.0109380106097674	-0.00121996297118944	-0.00291112312697406	-0.00122237328130762	-0.0029182410108763	-0.00481799092991601	-0.00195259153942751
1.5	-0.00544987208989441	0.0109567207063009	-0.00161168249110798	-0.0027126708027105	-0.00160971492968061	-0.0027182028150401	-0.00481665032900221	-0.00127486569152692
1.6	-0.00434957919933176	0.0113062662974545	-0.00197262415734765	-0.00245616378131509	-0.00197608686490116	-0.00245704151143211	-0.00459505979096295	-0.000177086992320405
1.7	-0.00345798102778311	0.0113803108016681	-0.00229627318066224	-0.00216301359604408	-0.0022983148792461	-0.00217158347020268	-0.00436580622870829	0.000826169882005817
1.8	-0.00261748630095494	0.0116410617210973	-0.0025725420304603	-0.00181499901129776	-0.0025777053315021	-0.00182045017947882	-0.00393776484534386	0.00186812881775385
1.9	-0.00180479790405773	0.0116626070718527	-0.00279782444161728	-0.00144653010705953	-0.00279432328085761	-0.00144035290848266	-0.00328969065029335	0.00270381599488725
2	-0.00145195045122276	0.0119770589751074	-0.00297146530650917	-0.0010357359281667	-0.00297420168893056	-0.00102891140904254	-0.00292607139361051	0.00377423031620362
2.1	-0.000220196477899135	0.0124863704283425	-0.00308654276492065	-0.000606530927283397	-0.00308863157468892	-0.000613211852292119	-0.00131865992186008	0.00495642322103825
2.2	0.000890195938513185	0.0123485710678068	-0.00314093519880735	-0.000177179227223431	-0.00314275617988973	-0.000167478953728631	0.000631400049711321	0.00507386302100823
2.3	0.00173282555153774	0.012026443716034	-0.00313337615317768	0.000263716797840031	-0.00314011228246835	0.00026080495383756	0.00242744944004458	0.00452668727048724
2.4	0.00241992421724941	0.0115668056608872	-0.0030736424084575	0.000696826627236423	-0.00307249481283814	0.000711909986127804	0.00407805197832585	0.00337232229739784
2.5	0.00240626961169463	0.0111542538188087	-0.00294032788674711	0.0011262854621185	-0.00295330403517637	0.00112755443693123	0.00477816041267841	0.00173818002817766
2.6	0.0028714328111888	0.0116248389742109	-0.00275291371506486	0.0015217686926871	-0.00277380798367897	0.00152563311209668	0.00554393552526611	0.000708469897341561
2.7	0.00377831803896553	0.0117422381198854	-0.00252208561897096	0.00189090271522792	-0.00252237394668334	0.00189598017719793	0.0062811676320822	-0.000884794787113554
2.8	0.00486856305977389	0.01166409944983	-0.00222856079235982	0.00221573519792343	-0.00223840299360642	0.00222689343298981	0.00666133242539241	-0.00265598173169104
2.9	0.00603392387318599	0.0112042410459585	-0.00189440028493148	0.00250877200401154	-0.00189249581698147	0.00251767431080087	0.00672232112477979	-0.00461114091328696
3	0.00682501022784838	0.0107567992069419	-0.00152580143420578	0.00275420809385303	-0.00154084375389311	0.00274114146443575	0.00602648072608617	-0.00631663917729281
3.1	0.00815956736886825	0.0103588939691383	-0.00112667365291919	0.00293889556697331	-0.00114361931615467	0.00294426423564948	0.00563555743938259	-0.00770576496319229
3.2	0.00916893231176299	0.00940546029488232	-0.000708242016545418	0.00306468813840935	-0.000703998169002516	0.00307549871738352	0.00463820243671707	-0.00944281783476421
3.3	0.00989622711678177	0.00833807587972813	-0.000279807768408648	0.00313774277689381	-0.000276500169104269	0.0031333714929084	0.00322651151559755	-0.0110861973102091
3.4	0.010352575663677	0.00714726435720135	0.000165664811419154	0.00314833271819529	0.000156232756592597	0.00314939135565169	0.00138149693781299	-0.0127653313971218
3.5	0.0101809704158118	0.00624167907847995	0.000601264134246432	0.00309279846262539	0.00060627545357958	0.00309147625965418	-0.00151812495370719	-0.0139555695897161
3.6	0.010579290029641	0.00581631266673559	0.00102061764707205	0.00297269772416727	0.00102720869104152	0.00297620131404166	-0.00399598092075684	-0.0140014292793917
3.7	0.0109131984674689	0.00499038278555977	0.00143703581851016	0.00279812491075193	0.00143525670498731	0.00281449131345644	-0.00643233941988917	-0.0140370206427632
3.8	0.011139679628482	0.00420317744169762	0.0018062228434497	0.00257309332324136	0.00181681247306901	0.00257946876352763	-0.0090452869894643	-0.0137084180297092
3.9	0.0113118925900374	0.00335500182616981	0.00215510492817712	0.00229557577303512	0.00215050555229354	0.00229547100788376	-0.0117944581288382	-0.0129750643672195
4	0.0110812509105233	0.00285079450368091	0.00244566871528135	0.00197635396349941	0.00245709529727065	0.0019825175959271	-0.014882201033675	-0.0112603862880463
4.1	0.0117291515426992	0.00265938238232152	0.00269844634449738	0.00161292708769546	0.00271498950050313	0.00162275199317972	-0.0166580697583041	-0.00842362423184011
4.2	0.0123860088034259	0.00175934647982777	0.00290282967086944	0.00121710888936663	0.002904057673106	0.00121939968260118	-0.0177713417902881	-0.00588546037038486
4.3	0.0127775901554638	0.000676232118426595	0.00304770162287181	0.000808991029170755	0.00304886690501598	0.000817585552392455	-0.0185070175230857	-0.00344735600642556
4.4	0.0128537431301653	-0.000656469277539939	0.00312780292218701	0.000373555509542382	0.00313574181195609	0.000368935772723818	-0.0190191183809422	-0.00112124507461677
4.5	0.0121806245781655	-0.00164314723597135	0.00315365561225889	-6.94012125756036E-05	0.00315045460331739	-6.71469153151882E-05	-0.0198173416466666	0.00147487692675893
4.6	0.0120792182443287	-0.00209743518446696	0.0031040195697768	-0.000517438011345157	0.00311704107683779	-0.000505397840954203	-0.0194979859276793	0.00481032174450051
4.7	0.0120007996744356	-0.00289798798763629	0.00300331414171338	-0.000932645965238882	0.00300324363186152	-0.000942099313027722	-0.018538961363321	0.0075010545581451
4.8	0.0117654174161945	-0.00372995483170055	0.00285540122170672	-0.00133682853631376	0.00284778866676443	-0.00135706882405215	-0.0171492212044317	0.0100120622610486
4.9	0.0116005046758719	-0.004619825197845	0.00264148040947092	-0.00173568950201369	0.00263537079701208	-0.0017272453691705	-0.0153082114986161	0.0120485357767935
5	0.011071154468377	-0.0053038927718516	0.00236760876927196	-0.00207195398051137	0.00237039716231991	-0.00208440885301284	-0.0134405153635102	0.0140432888850525
5.1	0.0113612517479941	-0.00585714736528443	0.00204405102724015	-0.00239878949074063	0.00205731313158206	-0.00239627538379083	-0.0102643217900202	0.0159094396197242
5.2	0.0113925163012021	-0.00701703781059374	0.00170060881198683	-0.00265743191789558	0.00170111972481114	-0.00266160487381743	-0.00692120275027165	0.0164729680861231
5.3	0.0111335314416126	-0.00817962466983558	0.00131005733267001	-0.00287096435342431	0.00130630549527422	-0.00287355214474816	-0.00377448421358479	0.016363889244822
5.4	0.0105844570611181	-0.00939707992430461	0.000897502877555738	-0.00303304111196435	0.000896615442074797	-0.00303551045863939	-0.000934893677792081	0.0154146815437687
5.5	0.00932016271092013	-0.0099470367625782	0.000454199443307015	-0.00312877455821852	0.000466822553790066	-0.00312874573470291	0.000813932527734723	0.0144383059781128
5.6	0.0090802453548971	-0.0101919231198114	1.93499459450905E-05	-0.00315774786578668	1.60392825551026E-05	-0.00315428175799046	0.00329043497890195	0.0136264814081446
5.7	0.00841035674953309	-0.0109732345368987	-0.00041506703994415	-0.00313254681986694	-0.000418793146735128	-0.00313625151178002	0.00529224952976806	0.0117962110980129
5.8	0.00751609553679441	-0.0115065659402443	-0.000852487321095537	-0.00304288748128212	-0.00085175038206546	-0.00305059836918449	0.00672351369055185	0.00956837814780411
5.9	0.0065439546647623	-0.0119191625242325	-0.00127264725255412	-0.00288916851124684	-0.00127104098454957	-0.00289333513844237	0.00751658578838895	0.00694179701986917
6	0.00491969313780556	-0.0119584319266115	-0.00166161292466354	-0.00268115196671014	-0.00165560502016447	-0.00268451129347425	0.00669117125185072	0.00448146309048962
6.1	0.00452090253767815	-0.0111061410907145	-0.00202067014613721	-0.00243100203347226	-0.00201651258681312	-0.00243578332645041	0.00653007074847087	0.00348292560929394
6.2	0.00455910164284519	-0.0113667017641602	-0.00234325580218675	-0.00211387326042792	-0.00233966822489986	-0.00212257010421249	0.00676360476448066	0.00157949890495974
6.3	0.00435994707768739	-0.0122133728715795	-0.00261209416662058	-0.00177224367352858	-0.00262194860677875	-0.00178002359681632	0.00653270026577627	-0.000896254839924315
6.4	0.00347250772849489	-0.013431376090997	-0.00283894454853341	-0.00138475173104089	-0.00283695282657166	-0.00139056710395251	0.00544058676821539	-0.00368911392147898
6.5	0.00191528493804894	-0.0137914191270027	-0.00300425794425506	-0.000983111792659272	-0.00300466298211321	-0.000981985482587574	0.00312327487331634	-0.00541633635592741
6.6	0.00137421995160186	-0.013945791960058	-0.00311103841211387	-0.000554701799303858	-0.00312175139661921	-0.000557708933589011	0.00174237248377149	-0.00647376264618541
6.7	0.000459025353963908	-0.0143313470595753	-0.00315541765533125	-0.000117211808814628	-0.0031543626914081	-0.000110950911014371	-0.000315266311895245	-0.00757991301827485
6.8	-0.000461118099888349	-0.0144364214817509	-0.00313968568595968	0.000333195964209742	-0.00313876928106072	0.000337972198342517	-0.00268000228076946	-0.00797540796094806
6.9	-0.00147782180277537	-0.0147068669082881	-0.00305694647901984	0.000764481478532751	-0.00305736432778587	0.000769484529638182	-0.00513570644730553	-0.00802444970912728
7	-0.00318434763925991	-0.0142082742214508	-0.0029274638264194	0.00118609989637231	-0.00292887871779696	0.00118933306213153	-0.00843286222403422	-0.00680561660359093
7.1	-0.00351671656969928	-0.0133411123771245	-0.00272598521620787	0.00158750277562501	-0.00272838804153517	0.00159857055683404	-0.00986132488284359	-0.00421388654982998
7.2	-0.0041048922272571	-0.0132553058938645	-0.00248276437409099	0.00194965231586576	-0.00248293131599599	0.00195556947818019	-0.0106789410061288	-0.00213046398124188
7.3	-0.00500447924000029	-0.0130972494968866	-0.00219001811222473	0.00227534839151254	-0.00218724183635701	0.00227681953236138	-0.0109887383839237	-4.02118122298879E-05
7.4	-0.00610821536998558	-0.0131069651539704	-0.00184520257340714	0.00256079414023688	-0.00183793763735037	0.00256731717481699	-0.0108550371464438	0.00145541657998465
7.5	-0.00826334452516718	-0.012665805887406	-0.00146202936982189	0.00279618584156678	-0.00146308066786591	0.00279416913016641	-0.0115453824565577	0.00289913835512346
7.6	-0.00911322078335471	-0.0110061209345055	-0.00106571965133164	0.00296958224536641	-0.00105499437349399	0.00297991311598713	-0.0108883614252098	0.00566259003707042
7.7	-0.00968434870522674	-0.010184153738722	-0.000634660522419139	0.00309172763086538	-0.000629084771657694	0.00309135532172424	-0.0095359712172384	0.00707057528212525
7.8	-0.00994208327168297	-0.0096736179384486	-0.000186060305005404	0.00315096945002516	-0.000199766762886357	0.00314393568773134	-0.00807571686699901	0.00823485656168821
7.9	-0.0102671243193562	-0.0095005348736611	0.000240782657753781	0.00313423887180673	0.000251891116022649	0.00313387553630067	-0.00661020686557484	0.00916409079400022
8	-0.0109446726694909	-0.00858964408485237	0.000675959969734161	0.00307275738584785	0.000684246620021067	0.00307063865305789	-0.00564139583650032	0.0107593245136345
8.1	-0.0102708227554715	-0.00805935259642187	0.00110619247954488	0.00294734102284136	0.00110389481308759	0.00294409599833951	-0.00251061546920192	0.0121794623302787
8.2	-0.0102413544913099	-0.00804793600535493	0.00149800968888763	0.00276251618902693	0.00149724432743748	0.00277411270886879	0.000566906937001794	0.012244227645991
8.3	-0.0103925853742463	-0.0079636428234305	0.00186965691090104	0.00252642851774838	0.00187472001954119	0.00252381714809258	0.00355578816183715	0.011518298897928
8.4	-0.0107874096525461	-0.00802974990107859	0.00221311754277625	0.00224225650627235	0.00220196436698923	0.00224271095460801	0.00606754089173462	0.00967121550591597
8.5	-0.0120147846117221	-0.00742968260865962	0.00250559992640475	0.00190742526334636	0.00250561453719654	0.00190877493426713	0.00692615079033742	0.00793206576851061
8.6	-0.0119859091530823	-0.00631220054491484	0.00273689692051505	0.00154619019987841	0.00273267776985557	0.00154390114339124	0.00878271020285026	0.0067060014076821
8.7	-0.0120915012125945	-0.00587461935319899	0.00292423462893461	0.00114535938004174	0.00292307097782607	0.00114495400965301	0.0102618219614105	0.00425017301674695
8.8	-0.0123037226850864	-0.00537442396857891	0.00305004832571877	0.000726470976299053	0.0030610047177744	0.000724318930254128	0.0110060945833029	0.00134950226532216
8.9	-0.0124971412711731	-0.00508873949420219	0.003121276720421	0.000297316753765801	0.00313058824779612	0.000290150919232238	0.0111092192604043	-0.00195842893256766
9	-0.0132503914221237	-0.00446316510172793	0.00313410612257122	-0.000151273510761812	0.00314089869440604	-0.00014570392053391	0.00962621519953031	-0.00489368953500385
9.1	-0.012886058028003	-0.0035255307063369	0.00308263135147926	-0.000584476293332473	0.00308284788637752	-0.000584669405849942	0.0086024722346969	-0.00683391961053949
9.2	-0.0126459854110593	-0.0033067744116245	0.00296458276758642	-0.00100346947603698	0.00296839603600626	-0.00100326268335691	0.00715113713483896	-0.00920348438393066
9.3	-0.0125756811304535	-0.00313118843342176	0.00279083279412662	-0.00141008317940563	0.00280883766624355	-0.00141059047943584	0.00506510062205956	-0.0112841583116501
9.4	-0.01272898401317	-0.00319365825034669	0.00257241603589334	-0.00178124496484851	0.00257568640425619	-0.00179226183020586	0.00227861505490928	-0.0132268338176085
9.5	-0.0134414765274151	-0.00236009681696179	0.00229704174032908	-0.0021359634917271	0.00231179597892429	-0.00213669280486031	-0.00170678946654316	-0.013691318103401
9.6	-0.013094764239982	-0.00166022665112553	0.00197708642500478	-0.0024321104171565	0.00197743512159219	-0.00242512112681677	-0.0046378127140246	-0.0131973706147714
9.7	-0.0132622627936446	-0.00136252347884154	0.00161615366183727	-0.0026827309454281	0.00162441429335682	-0.00268434237544485	-0.00785778966349965	-0.0126644378078698
9.8	-0.0136029486715975	-0.000819869344592027	0.00123278587241262	-0.0028760161676881	0.00123093766161447	-0.00288462549080814	-0.0111522389477506	-0.0114047969308941
9.9	-0.0140124153845783	-0.000117903609237211	0.000822864185654148	-0.00301861047916307	0.000811025881553389	-0.00302117613211815	-0.0145143672579953	-0.00958640218861333
10	-0.0148210402363246	0.00128064366215271	0.000391786246989041	-0.00309150354022051	0.000390955414550927	-0.0030987803807891	-0.0183186577494945	-0.00636331025488607
10.1	-0.0140209998523287	0.00301431389667623	-3.72237123413478E-05	-0.00312668818099616	-4.18486540576751E-05	-0.00312943350967029	-0.0199264678106629	-0.00173161960998756
10.2	-0.013054063984247	0.00380266276390439	-0.000473913819411154	-0.0030860568731944	-0.000486455404889554	-0.00308977586236659	-0.0203474030763722	0.00227793061813239
10.3	-0.0121609822376668	0.00418835650153171	-0.000902324717386985	-0.00298271476165796	-0.000902128261822491	-0.002996029070026	-0.02004646546955	0.0059898203258223
10.4	-0.0115868974121556	0.00411376904394141	-0.00130640843154599	-0.0028344922988478	-0.0013095569831711	-0.00283237286736931	-0.0193144544665352	0.00899009343093339
10.5	-0.0118358929088584	0.00464314843463413	-0.00168432376908293	-0.0026196495054671	-0.00169045664044232	-0.00262686515613039	-0.0191369294422745	0.012526295351733
10.6	-0.0107512778876623	0.00545003567954076	-0.00204290708942474	-0.00236605662287642	-0.00204439919945765	-0.00237114242707126	-0.0170929974096064	0.0168066506704761
10.7	-0.00989675249276149	0.00571183603642681	-0.0023479433798114	-0.00205505524596612	-0.00235113551500652	-0.00207100241778235	-0.0142064624006818	0.0202831975105175
10.8	-0.00899575883700928	0.00579733088230663	-0.00261239197278112	-0.00170996591540765	-0.00260946898014746	-0.00171211955862643	-0.0105869219281518	0.0231639490716103
10.9	-0.00840675974596772	0.00553468437758468	-0.0028280473132354	-0.00133655164020285	-0.00282732584563067	-0.00134165022928428	-0.00664215631598458	0.0249457690421407
11	-0.0083957014855862	0.0058835831527557	-0.00299387304763426	-0.000923747347358663	-0.00298687618388518	-0.000928014812613099	-0.00316739887134942	0.0268169518095056
11.1	-0.00716317035670902	0.00623416969795669	-0.00308809931564209	-0.000507032476763628	-0.00308039502342242	-0.000498768772015649	0.00221937509758286	0.0284010253749825
11.2	-0.00628322732411645	0.00580258951406	-0.00312756450677908	-6.85583780100847E-05	-0.00313413466123601	-6.53690666625538E-05	0.00797046474578255	0.0281705746653759
11.3	-0.00560997580092615	0.00519571069983807	-0.00310579245340137	0.000368970456157458	-0.00310894039639112	0.000366811622837817	0.0137944462237256	0.0266057271051037
11.4	-0.00535384432221834	0.00440042662420819	-0.0030216785844797	0.000798014443212856	-0.0030262904783399	0.000798160967047512	0.0190031342936679	0.0234434493429559
11.5	-0.00578360247881347	0.00430994121818379	-0.0028881744685018	0.00120674583177589	-0.00288069408757186	0.00121148435667278	0.0224794136123466	0.0198222950601626
11.6	-0.00510321284060245	0.00424760130907538	-0.00268621099913699	0.00159607452825075	-0.00269430149053451	0.00160571778678901	0.026563300480675	0.0158494920746528
11.7	-0.00483803237711483	0.00357398185454671	-0.00243578285647859	0.00196074380466519	-0.0024375320937182	0.00196441475072262	0.0297746103134243	0.0102823272956329
11.8	-0.0048173186456609	0.00303778021195542	-0.00214002940894851	0.00228407500439463	-0.0021492167922965	0.00229381156925245	0.0316735435369241	0.00399969053464031
11.9	-0.0050121726804436	0.00251310007925825	-0.00180163990143299	0.0025560023749439	-0.0018016845630884	0.00256253300003917	0.0317331166229407	-0.00258354041971266
12	-0.0057557725732848	0.00294931816004645	-0.00142519073938697	0.00277665860227659	-0.00142966731187864	0.00277941782874219	0.0295706696434165	-0.00790319704753211
