# GHZ S RI R 50
0.2	-0.0148948679425868	0.0031046019145951	0.00305879262358588	-0.000881175067664787	0.00306929336794236	-0.000880996097126461	0.00497318980300348	-0.00137353439088582
0.3	-0.0138060066710821	0.00448791709892167	0.00291681963458654	-0.00129867682782129	0.00291053968276183	-0.00131039629796583	0.0055970964384882	-0.00275824698773237
0.4	-0.0129755341136004	0.0063421530917928	0.00270729395529472	-0.0016970138070645	0.00270518180725712	-0.00169894541977647	0.00530611204464417	-0.0034647288383583
0.5	-0.0100045054950455	0.00685396159722102	0.0024379499410908	-0.002063182510618	0.00244079417818973	-0.00206693131344034	0.00679626076674985	-0.00528548949240088
0.6	-0.0108904189229293	0.00533238300773197	0.0021215586657728	-0.0023857836750714	0.00212081519373307	-0.00238864780798524	0.00398865104317894	-0.00898512209393365
0.7	-0.0118202007180351	0.0068251940150679	0.0017710398708522	-0.00265973267523655	0.00177730390456328	-0.00266384491058278	0.000781178039970502	-0.00919869385337418
0.8	-0.0118338988049354	0.0083932703266673	0.00137522351615815	-0.00288569070305415	0.00138356717700589	-0.00288406541256796	-0.00183517090703746	-0.00880156424340823
0.9	-0.012153090327274	0.0105851219815755	0.000964463865363537	-0.00304328009215302	0.00096444963031754	-0.00305278704911382	-0.00476104046549373	-0.00721504882979274
1	-0.00907962398485619	0.0143732864906931	0.000523696328159867	-0.00314895646033062	0.000523544383679233	-0.00315435766393182	-0.00418466967267592	-0.00332747182361447
1.1	-0.00628892883221747	0.0117565043757461	7.72105020609065E-05	-0.00319093481083291	7.81110871688351E-05	-0.00319570282328072	-0.00343619856788759	-0.00538932343576519
1.2	-0.00707592737795549	0.0109158677128087	-0.000368321822709876	-0.00316788990178533	-0.000367078285842672	-0.00318485719600724	-0.00565646517800191	-0.00515347533020095
1.3	-0.00764672089071582	0.0102469823206459	-0.000807726526418571	-0.0030934455915079	-0.000812724135579285	-0.00310117921052742	-0.00658847658823777	-0.00436592395746153
1.4	-0.00827046423403604	0.0103393902283687	-0.00124006200797301	-0.00294361646845287	-0.00124251461646374	-0.00295081488504833	-0.00712811939358944	-0.00322823184028164
1.5	-0.00604949955621284	0.00998001679650878	-0.00163082988898187	-0.00274514193206212	-0.00162883860381881	-0.0027507399562223	-0.00512827095774363	-0.00315080113660664
1.6	-0.00736024445339684	0.0094036738581884	-0.00200564859421627	-0.00249092549109152	-0.00200916493296407	-0.00249181215796324	-0.0075279209316974	-0.00326366098741386
1.7	-0.00669895498279792	0.0115994460672256	-0.00233917105004428	-0.00218804401231564	-0.00234127447583412	-0.00219673809501274	-0.00785813522371613	-0.000149082504891182
1.8	-0.00525102511453414	0.0130888421756088	-0.00261940103570108	-0.00182987430204923	-0.00262466692122101	-0.00183538224325959	-0.0070130207185867	0.00227213339983987
1.9	-0.00346441155964691	0.0148494595172671	-0.00284561506218079	-0.00145500778493613	-0.00284203410629056	-0.00144875571831665	-0.00541194606722471	0.00508872373644936
2	0.00119643597891521	0.0147439454587129	-0.00303015482049561	-0.00103883930156812	-0.00303290474481167	-0.00103187812885582	-0.00044514024856212	0.00587607358056646
2.1	0.00117915928220641	0.0113948705661992	-0.0031464493588985	-0.000587132285590399	-0.00314863968125879	-0.000593909804230974	7.01404776221993E-05	0.00292838590109521
2.2	0.000470247255650066	0.011433462223289	-0.00319283133461924	-0.000145638160972973	-0.00319457516638374	-0.00013576368010489	7.47172189492125E-05	0.00302209956039455
2.3	0.000311556727788213	0.0117592163089588	-0.00317887525586899	0.000304095343675338	-0.00318574949165115	0.000301216399628172	0.000650499265344298	0.00307241188240522
2.4	0.000106581648017639	0.0130848502978339	-0.00311529348616448	0.000747310397479436	-0.00311393547929352	0.000762627004987729	0.00116100943823061	0.0038535628719839
2.5	0.0033835038222178	0.0149832204283041	-0.00296814743852335	0.00119644005471633	-0.00298131167667873	0.00119795859215115	0.00522102821635557	0.00494395974855475
2.6	0.00519056877569657	0.0120596044060567	-0.00275735749340286	0.0015900338043467	-0.0027784262139292	0.0015943261511495	0.00773337651756049	0.000584697114121522
2.7	0.00508535956733718	0.0110349396836221	-0.00251592237909228	0.00195690235722599	-0.00251612286344894	0.00196204081614273	0.00765850355561798	-0.0023453381038044
2.8	0.00502754975142852	0.010575138109671	-0.00221041471684722	0.00228183771741933	-0.00222015071417488	0.0022933026240782	0.0069110609792815	-0.00472452374938256
2.9	0.00540130562457487	0.0112484965199064	-0.00185873817938893	0.00257437227468098	-0.00185662247767189	0.0025833207854764	0.00606285555268937	-0.00561132402434146
3	0.00852232299975163	0.0107003327729804	-0.00146912580097786	0.00280143029536339	-0.00148453495856456	0.00278865239495968	0.00784966248140586	-0.00737232078762898
3.1	0.00792865279363351	0.00806898508386692	-0.00107295038595353	0.00297243230994101	-0.00108985506458217	0.0029781562984178	0.00562481732785477	-0.0115209346972951
3.2	0.00747414547071878	0.00807937876009857	-0.000647903442328346	0.00309175750448091	-0.000643419341647699	0.0031025244935167	0.00289159815506051	-0.0124761225706194
3.3	0.00756558442458913	0.00802005869155522	-0.000211599995285912	0.00315206119982764	-0.000208379820038921	0.00314760586435388	0.000524136035255144	-0.0131508132219447
3.4	0.00782328424192958	0.00871243977592702	0.000236465829999301	0.00314243632537169	0.000227064106235297	0.00314370668814246	-0.00177043503056644	-0.0127347744109651
3.5	0.0109317113226768	0.00835968606832325	0.000656202742783135	0.00307425682290986	0.000661177672684619	0.00307284645393817	-0.00115240456720229	-0.0131875491419392
3.6	0.0102727285255384	0.00508029900040324	0.001078167535777	0.00295433004519334	0.00108482866215573	0.00295770844986399	-0.0047626342827562	-0.0163763496234338
3.7	0.00895872789112613	0.00504724572488478	0.00149420497735038	0.00276463458327968	0.00149277214428045	0.00278101928823816	-0.00921202657515032	-0.0156177211019991
3.8	0.00864213348439297	0.00565512964628929	0.00185431760155164	0.00252642106296914	0.00186500584422067	0.00253255214957273	-0.0126655482285076	-0.0135910009948333
3.9	0.0093463624812272	0.00712548942648057	0.0021887014637716	0.0022433262201667	0.00218412213720876	0.00224330997547252	-0.0149291705425457	-0.0100021885900177
4	0.0137282105393718	0.00681399370171157	0.00247965527988653	0.00192728712351031	0.00249118253203638	0.00193322580902449	-0.0129743367876251	-0.00762266727866243
4.1	0.0138466067925474	0.0025335651336388	0.00272595487916408	0.00154387718122305	0.00274266520118463	0.00155327900581322	-0.0147211837657315	-0.0089287430769112
4.2	0.0127509378450579	0.00128152193898572	0.00291039694581484	0.00114179871825115	0.00291166898515062	0.00114404516023769	-0.0173557190929443	-0.00696669805466457
4.3	0.0121087497369441	0.000694685635063095	0.00303939285591496	0.000735404742627776	0.0030407362377798	0.000743900424251105	-0.0190820117090751	-0.00413829298772065
4.4	0.0117083333869933	0.00107422216328601	0.00311069798155067	0.000303478183828179	0.00311847404931305	0.000298725288810755	-0.0200495661950795	2.66823278740293E-05
4.5	0.014692832924761	0.000759631620651564	0.00312259154761086	-0.000151191011107906	0.00311947915290127	-0.000148873950996565	-0.016633347921154	0.00366537386646359
4.6	0.0138571281048308	-0.00356389292032608	0.00304214772927646	-0.000585665703779991	0.00305525953924633	-0.000574136692503783	-0.016286325799382	0.00254864611979575
4.7	0.0118700781439898	-0.0045160607832776	0.00293092394082785	-0.000982363800382348	0.00293064738549433	-0.000991652107872915	-0.0171595404264929	0.00443315096602083
4.8	0.0104477859948178	-0.00486077153430577	0.00277603509412996	-0.00137266875485661	0.00276813498741369	-0.00139238553607625	-0.0170858326757737	0.00698462908622841
4.9	0.00951106615294107	-0.00405770697430765	0.00255216936328934	-0.00176027531704454	0.00254636385245954	-0.00175186000081999	-0.0162133867384904	0.0105616884304766
5	0.0120020831944205	-0.00444644223549609	0.00226199241283648	-0.00206777901544077	0.00226444502018261	-0.00207996722773801	-0.011070827246683	0.012649958026903
5.1	0.0100293295282607	-0.00751261944083075	0.00195470360938968	-0.00236555927678487	0.00196765247916159	-0.00236330705682539	-0.0104165762168722	0.0112572625291051
5.2	0.00841305882764207	-0.00698362328668662	0.00162087800384379	-0.0026122541692455	0.00162131917901449	-0.00261632688340076	-0.00935791435589711	0.0133271819444644
5.3	0.00815921917693282	-0.0064154561521147	0.00123754855440813	-0.00281076418604781	0.0012338640166263	-0.00281323366863036	-0.00663590457660038	0.0151464350521381
5.4	0.00861392083657817	-0.00535828143242977	0.00083588825504888	-0.00295154790904262	0.000834999576319812	-0.00295393251249905	-0.00290036051927768	0.0168297840468263
5.5	0.0127158102461355	-0.00702557065402381	0.000427932462119615	-0.00303310140332789	0.000440162588515659	-0.00303312238711348	0.00462438401083597	0.0148700862916725
5.6	0.00956048428414322	-0.0118743187864972	8.2527632478498E-06	-0.00307359086011254	5.04201416953323E-06	-0.00307020610527585	0.00429794718366501	0.00882668501478808
5.7	0.00620095903889367	-0.0115005064161175	-0.00041486941519368	-0.00304525973107395	-0.000418506669430967	-0.00304884965515341	0.00304443662260068	0.00778057210530729
5.8	0.00425666939090626	-0.0104091609290938	-0.000833355752937717	-0.00295370352013557	-0.000832653799998406	-0.00296119357757957	0.00272165862392035	0.00729202487359429
5.9	0.0027449289999471	-0.00768130559284216	-0.00122856737837831	-0.0028078384269641	-0.00122699805039144	-0.00281187952819675	0.00233409395822949	0.00853468844363047
6	0.00708918535300054	-0.00491828577905958	-0.00161138799482978	-0.00262503549002839	-0.00160550735184146	-0.00262829083079353	0.0078837647499986	0.0101928087430872
6.1	0.00820606350749876	-0.00960701653929595	-0.00196868405267738	-0.00237142206521942	-0.00196462759634156	-0.00237608130413014	0.0103729928879191	0.00374750707990585
6.2	0.00640767618670579	-0.0114150690594423	-0.00227377805659183	-0.00206260233985003	-0.00227026482919589	-0.00207105274644173	0.00931144719671879	-8.9130734210086E-05
6.3	0.00455555086449517	-0.0124161250605341	-0.00253122385594559	-0.00173865341544759	-0.00254076710125264	-0.00174627688618726	0.00762908741273009	-0.00314881367905587
6.4	0.00303634353478604	-0.0115645193538938	-0.00275887651246826	-0.00137205119967359	-0.00275689006823468	-0.00137770889417354	0.00587601223470073	-0.00406602897401621
6.5	0.00532444620402484	-0.0133693354727711	-0.0029280343189889	-0.000969101286857852	-0.00292843321837585	-0.000968003673289342	0.00789213163654552	-0.00754804953375483
6.6	0.000904716728391593	-0.0159390728066669	-0.00301578763360942	-0.000558636692673183	-0.00302616546957427	-0.000561625064599075	0.00239464606175015	-0.0120172455389956
6.7	-0.00132343004492107	-0.0143863005236931	-0.00306374874753516	-0.000147385193984756	-0.00306279054911381	-0.000141292500666154	-0.00168441884803449	-0.0114726603541654
6.8	-0.00264686832892196	-0.0133122207046094	-0.00305952035616305	0.000285247484895366	-0.00305868788921436	0.00028990685521011	-0.00496503739833125	-0.0105931831289197
6.9	-0.00355508339015978	-0.0106219440799246	-0.00298640148927416	0.000709550531462877	-0.00298686593174519	0.0007144189669084	-0.00760239960984821	-0.00721954793225253
7	0.00149594833019184	-0.0104325895148368	-0.00284967483698052	0.00111056797613025	-0.00285108648458875	0.00111368003812455	-0.00343049458085173	-0.00598532375703647
7.1	-0.00171939757287891	-0.0156291474301132	-0.0026779298278061	0.00148421018795486	-0.00268048974933784	0.00149490032641502	-0.00747967501873548	-0.0105122465356785
7.2	-0.00553619795301914	-0.0147248754852193	-0.00246041409102105	0.00184314212866474	-0.00246070776874444	0.00184889933933846	-0.012297028745206	-0.00829898220444395
7.3	-0.0081601096744398	-0.0131571596586434	-0.00218638292182027	0.00216759908287837	-0.0021837106961763	0.00216909627019322	-0.0154300317333894	-0.00491960946630542
7.4	-0.0107365392968007	-0.00947467053924696	-0.00185847476223359	0.0024461067170605	-0.00185156695199164	0.00245263259542019	-0.018088121955522	0.00109567308526842
7.5	-0.00643417958280458	-0.0054251512092232	-0.00151823807942991	0.00267777537729872	-0.00151919619097118	0.00267577421209228	-0.0125741271559091	0.00773902091134289
7.6	-0.00650270230772163	-0.0091015960816998	-0.0011461875791089	0.00288223692872913	-0.00113599398113903	0.00289274536902823	-0.0103060705443924	0.00571785950336654
7.7	-0.00857858915626568	-0.00870741276707578	-0.000724930830122522	0.00302167213109259	-0.000719432152020424	0.00302148687653209	-0.0103042176092381	0.00715007101415248
7.8	-0.00944972047365146	-0.0076558258232578	-0.00028989214366184	0.00309673138881354	-0.000303151969483697	0.00308934066667043	-0.0089667015604691	0.0092014279601855
7.9	-0.00889385981703422	-0.00559829498130682	0.000118590746486687	0.00310230294139624	0.000129567404672912	0.00310236625877122	-0.00565020235864401	0.0121695891475927
8	-0.00459259865438678	-0.00816450115413918	0.00055527947052798	0.00308746926162791	0.000563617174056394	0.00308567706831227	0.00144145532906955	0.010393537153396
8.1	-0.0086904378010361	-0.0119786614556674	0.00100413583510575	0.00297445930706249	0.00100195412489206	0.00297114838530376	0.00027459396981296	0.00554967074990913
8.2	-0.0115178011420318	-0.0104442623150165	0.00139799835436026	0.00280426899941847	0.00139683778857101	0.00281579877667826	-0.000164460761526555	0.00636168016810216
8.3	-0.0131529188790302	-0.0088046083517835	0.00177629183598947	0.00259094582714303	0.0017814432606665	0.0025885202373994	0.00070596142106768	0.00708035946283336
8.4	-0.0141932138848736	-0.00534942092579027	0.00214065768102177	0.00233275248687564	0.00212944008058274	0.0023328012674594	0.00222745701562315	0.00921925800631299
8.5	-0.00892716853666562	-0.00400159311178551	0.00246648158857488	0.00199327389982933	0.00246645686636203	0.00199463294223482	0.0103959975594031	0.00857329787565181
8.6	-0.0111216091854442	-0.00865726145017384	0.0026955487714075	0.00163445675620574	0.00269139043951328	0.00163203185450999	0.0103595312559496	0.000534984619581685
8.7	-0.0144943251331987	-0.00735245002859141	0.00290070429805243	0.00124872479442466	0.0028995483283529	0.0012482785447743	0.00789911367208394	-0.00179065893833472
8.8	-0.0163785973987356	-0.00512271377830051	0.00305250856288551	0.000833660285026619	0.00306363128475721	0.000831851931743972	0.00594622020045316	-0.00306218552433448
8.9	-0.017439024040171	-0.00107500488400229	0.00314737724441317	0.000392161631575438	0.00315700277628363	0.000385188909545442	0.0041481801736392	-0.00188050891640381
9	-0.011921523375503	0.00173411840562734	0.00315478070954277	-6.14487313147801E-05	0.00316144758842877	-5.56537921990616E-05	0.00903474128413587	-0.00113999723918651
9.1	-0.0119998939781716	-0.0014518659244173	0.00313295235217757	-0.00048168804412878	0.00313317777017289	-0.000481875403485549	0.00842691314208858	-0.00688880743403602
9.2	-0.0123650552437868	-0.000808683680920502	0.00304171682250768	-0.000917779778425188	0.00304557863867071	-0.000917440951990814	0.00683461877929612	-0.00870014886593212
9.3	-0.0119843469595719	-0.000705640106220574	0.0028812725288611	-0.00134592394458908	0.00289959151421071	-0.00134587505965267	0.00562768005007763	-0.010798872074825
9.4	-0.0117062120629878	0.000687145213248883	0.00266454757406297	-0.00173004114201881	0.00266819953766833	-0.00174112325201754	0.00382092738542513	-0.0112452497461671
9.5	-0.0075972341799531	-0.00169086968814941	0.0024177369481021	-0.00208684102547932	0.00243277705861504	-0.00208702730534861	0.0060104630928635	-0.0152897117279965
9.6	-0.0122927298018303	-0.00536503641089966	0.00211230757011411	-0.00242893117970936	0.00211242703591728	-0.00242174528278151	-0.00171825716722658	-0.021052604475327
9.7	-0.0154475365149356	-0.0034187477277987	0.0017422809672961	-0.00270909885118126	0.00175082142643477	-0.00271050632110202	-0.00886693339672395	-0.0198929104660448
9.8	-0.0171845430518204	-0.00108950767874079	0.00135097303114008	-0.00292276633118199	0.00134932014218002	-0.00293167527516327	-0.014661961807378	-0.0170837854910223
9.9	-0.0182089224026075	0.00304236795559495	0.000941201964165082	-0.00308614666035011	0.000929078417155572	-0.00308915605375288	-0.0195213985630178	-0.0112851517172159
10	-0.0128288588565733	0.00509954472263976	0.000494454839645991	-0.00320809571051687	0.000493793340456297	-0.00321569603934655	-0.0168871432575961	-0.00654631646885276
10.1	-0.0139815809720785	0.00191059593470266	2.09298178634989E-05	-0.0032544315740511	1.61693571739352E-05	-0.00325737669800484	-0.020163773752857	-0.00720644343394439
10.2	-0.015651751401802	0.00334740674562429	-0.000439402265222303	-0.00321700408263955	-0.000452378403820532	-0.00322108786085905	-0.0237530306545682	-0.0027028191629504
10.3	-0.0162956478321298	0.00537171346502802	-0.000891693659681666	-0.00312160177002801	-0.000891273714632133	-0.0031354677366078	-0.025640959375886	0.00305875207565803
10.4	-0.015880452089622	0.00919104407100233	-0.00133066550617786	-0.00298473369870913	-0.00133398969537669	-0.00298255593208248	-0.0254084882233595	0.0111202104555533
10.5	-0.00953893071769974	0.0102743562206842	-0.00176155772664557	-0.00274509994353039	-0.0017679739680686	-0.00275266252149967	-0.0174387553728793	0.0164759255108007
10.6	-0.00953116032095643	0.00690502309612279	-0.00212495172531828	-0.00246146644719156	-0.00212650348789005	-0.00246675709838734	-0.0150370535002286	0.0159865106115389
10.7	-0.00961784405175353	0.00679168518823032	-0.00244360700089023	-0.00213892416062153	-0.00244692875565835	-0.00215552165030295	-0.01257875066956	0.0184003673893672
10.8	-0.0101153218141143	0.00667229345099267	-0.00272776690249265	-0.00177475354199173	-0.00272472651376044	-0.00177700665176042	-0.0102227406524773	0.0204256079407494
10.9	-0.0102479958739748	0.00903190193023276	-0.00295926966417459	-0.00136530145870366	-0.00295856702408351	-0.00137062039143836	-0.00686379964449453	0.024853406593839
11	-0.00443310708783542	0.0087735181528712	-0.00310021296526974	-0.000920537127412143	-0.00309303817146667	-0.000925018566547659	0.0032481176106351	0.0257856108957455
11.1	-0.00671107392123783	0.00439627873815646	-0.00319942320647175	-0.000505597184557776	-0.00319139768109439	-0.000497091907184966	0.00529804367639929	0.0210495535211661
11.2	-0.00857136184890622	0.0052363395666496	-0.00324480857442744	-4.08523079554541E-05	-0.00325159277553162	-3.7480539874011E-05	0.00741002949432904	0.020964203173378
11.3	-0.00942040453028078	0.00679607388008348	-0.00321296033813022	0.000425395702380825	-0.00321625203808506	0.000423202489011789	0.00982600300457826	0.0210103975116893
11.4	-0.00927959601857684	0.00976711223257612	-0.00310261010141469	0.000871414266849391	-0.00310736276721202	0.000871639566766705	0.0135857833656297	0.0222701830269281
11.5	-0.0030581317567484	0.0091535853930641	-0.00296899682471896	0.00127029914370353	-0.00296123807102565	0.00127512197855718	0.0244158696077164	0.0191577111192369
11.6	-0.00547105879385889	0.00452893423115092	-0.00276458511217339	0.00169568174322412	-0.00277284108166332	0.00170580803818517	0.0253716507712813	0.0101516664728034
11.7	-0.00753552346541013	0.00547466522120143	-0.00248423004907123	0.00207883237074058	-0.0024859694935163	0.00208266901812877	0.0253170951466412	0.00629172576703526
11.8	-0.00818110304459615	0.00724820662957593	-0.00216076642115868	0.00240480628962448	-0.00217004432243922	0.00241505890501678	0.0257801285175685	0.00340988538855122
11.9	-0.00620801433593945	0.0111036630518054	-0.00180932294248613	0.00267282193169422	-0.00180924159196692	0.00267956207767526	0.0280751332459771	0.00309384852942493
12	0.00184867437028958	0.00917821331482069	-0.00141579798129808	0.00292105856983813	-0.00142038698067058	0.00292403413884235	0.0373620007874996	-0.00364226017406934
