# GHZ S RI R 50
0.2	0.00605884612260839	0.00106223985276207	0.00304837116477474	-0.000897831732955702	0.00305873959424991	-0.000891022493172353	-0.0138562409274615	0.00474995450718337
0.3	0.00625992413782225	-0.000836909459946847	0.00290420076638259	-0.00132119582856553	0.00289695388071878	-0.00130825753607231	-0.0131763368584438	0.00497987288967166
0.4	0.00598808527392982	-0.0023706805058196	0.00267264322410907	-0.00169291969888692	0.00267791122598242	-0.00170147988766331	-0.0127233071012405	0.00562523522544022
0.5	0.00535997989354484	-0.00367485372915157	0.00241388313927893	-0.00204958755266024	0.00242542159471846	-0.00206182630755212	-0.0121889217766569	0.00635613022865014
0.6	0.00447338642424909	-0.0047399587819212	0.00210145796297963	-0.00236405689539646	0.00210067230309413	-0.00237120644439217	-0.0116154259587247	0.00700030347057324
0.7	0.00327237928935217	-0.00553547847503358	0.00175442457478106	-0.00264183617220563	0.00175246860657573	-0.00264203526090019	-0.0111469657792685	0.00758511472308017
0.8	0.0019212657746758	-0.00601683965761301	0.00136911969900837	-0.00285927703256939	0.00135652038756696	-0.00286382807094553	-0.010737132515339	0.00822543923516734
0.9	0.000389881087939277	-0.0060631994863974	0.000952163125196712	-0.00302292253935154	0.000953199873926163	-0.00303362185456315	-0.0103736698123456	0.00888873726344813
1	-0.00109740796711022	-0.00570563993550252	0.000527403713558928	-0.00312647143871154	0.000517541582194739	-0.00312721325923465	-0.0099892729443338	0.00965203071326603
1.1	-0.0024745388208698	-0.00504192970791525	7.18137207291437E-05	-0.00315543371754106	6.83096302713174E-05	-0.00317308605614225	-0.00960493666413386	0.0105985861130225
1.2	-0.00366557297294839	-0.00439868107168711	-0.000370337509784768	-0.00314499486039226	-0.000371149738554758	-0.00314291839180319	-0.0087236647563913	0.0116298022433822
1.3	-0.0049117112971675	-0.00395104690793075	-0.000797530593508494	-0.00306194793050807	-0.000800770675447599	-0.00306395394678962	-0.00712984242535899	0.0123975858861341
1.4	-0.00604709157800579	-0.00341488086951549	-0.00121895088747619	-0.00291383898858034	-0.00121773675028586	-0.00291937278506746	-0.00537863150874369	0.01232980433669
1.5	-0.00654393284195494	-0.00238028455982766	-0.0016199704699847	-0.00271808080055726	-0.00161835686625983	-0.00272658241761669	-0.00396241272401338	0.0118904552016249
1.6	-0.00647233176149254	-0.00100999116374754	-0.00198071567166012	-0.00246573116464684	-0.00198092591097745	-0.00247096657816927	-0.00327701326120671	0.0117330139568935
1.7	-0.00595308190685803	0.000354049869582525	-0.00230935733087201	-0.00216889520404246	-0.00231032399569243	-0.00216263234795117	-0.00257298944290941	0.011801586947298
1.8	-0.0051599469076549	0.00172911328947514	-0.00258061058999802	-0.00181737465268307	-0.00259157869397208	-0.00182301397351778	-0.00190594892206385	0.0118298033495623
1.9	-0.00404919106992825	0.00284390931280316	-0.00280617207419325	-0.00144657795338311	-0.00281861581637959	-0.00144042416591084	-0.00134219302199065	0.0119049545974635
2	-0.00270437847067498	0.00365804218282286	-0.00298205581779781	-0.00103877229345781	-0.00299168076438967	-0.00103406315236922	-0.000799736519300662	0.0121435865856784
2.1	-0.00120679983259599	0.00401720530280859	-0.00309568671519868	-0.00061014623299696	-0.00309160209825533	-0.000612138472442474	-1.51198968841524E-05	0.0123547195692657
2.2	0.00024662803792781	0.00399949248376521	-0.00315315322704645	-0.000171599002266225	-0.00316446056103942	-0.000174435712115434	0.00103180157620246	0.0123866157839783
2.3	0.0015593507567008	0.00355422730143118	-0.00314850008206245	0.000272107678303315	-0.0031481979856546	0.000265222504049375	0.00203602134565798	0.0120465074321486
2.4	0.00265879142842702	0.00290903808185631	-0.00307596346224186	0.00071074802006486	-0.00307850595674132	0.000706489538290792	0.00285306895064015	0.0115977203941782
2.5	0.00360074802807269	0.00204709415617223	-0.00293870482973634	0.00112332135078789	-0.00294959669632366	0.00112970556799837	0.00353212053181245	0.0111001306498868
2.6	0.00444853109342664	0.000982032717627459	-0.00276449206610124	0.00152662425422284	-0.0027609366588128	0.00151429627901033	0.00419603250817644	0.0106465226885052
2.7	0.00516869676763648	-0.000312738452846061	-0.00251819622319241	0.00189818141036163	-0.00252347826041502	0.00189819393871141	0.00479527937414899	0.0101614683081252
2.8	0.00572822648796705	-0.00182780932575498	-0.00223482045819677	0.00222578169710319	-0.0022270002149673	0.00223557247465008	0.00531560883895221	0.00976022320360095
2.9	0.0061018540451213	-0.00354916536661269	-0.00189994495585493	0.00252594510474627	-0.0018962346660911	0.00252551647559419	0.00598553534724449	0.00950829858786677
3	0.00612024220278025	-0.00547749193156215	-0.00151307737250882	0.00276122100599381	-0.00152786065807751	0.00276732956539606	0.00683770905844522	0.00929625944409872
3.1	0.00573710516352465	-0.00751628445420183	-0.0011222652418498	0.00293808967167571	-0.00111760242715883	0.00294643295242203	0.00775309659670543	0.00893579510302123
3.2	0.00471795013777496	-0.00953760065394652	-0.000701234682873528	0.00307488354970826	-0.000702980121681847	0.00307427365088885	0.00852652522512137	0.0084992342735562
3.3	0.00316180987012724	-0.0114084956939563	-0.000262348693386975	0.0031442131886783	-0.000260701632294519	0.00314047072294869	0.00935914269786008	0.0078461661026076
3.4	0.00108340235806825	-0.0128305089371741	0.000184838907370032	0.00313756605417784	0.000178642665767303	0.00315414027549816	0.0100664506672886	0.00691877010685974
3.5	-0.00127603103984749	-0.013844177520105	0.000606861294003012	0.0030940711526986	0.000612458896903139	0.00309414268471712	0.0104252138761387	0.00580988800869847
3.6	-0.00388468764994203	-0.0143338364550331	0.00103549840090865	0.00297416100175834	0.00104369246828367	0.0029738370626388	0.0106198400889085	0.0049442137955982
3.7	-0.00659800411239685	-0.014271715907469	0.00144611710224379	0.00279242162074143	0.00143653973172588	0.00280610906896085	0.0109337297081808	0.00411173357545904
3.8	-0.00932409154530007	-0.0135829637213608	0.00182415898839363	0.00256451433467172	0.00182657191829669	0.00257366419633697	0.0111674477959288	0.00314902636310495
3.9	-0.0117532445341529	-0.0122975367615548	0.00216975456947124	0.00229064239581064	0.00216248610153826	0.00228886954176444	0.0111723378463561	0.00216120693737133
4	-0.0138068901217214	-0.0105917062067684	0.00245410116763387	0.00196875912177076	0.00245854824344806	0.00196632003439903	0.0110790446618504	0.00141140326948584
4.1	-0.0154685714569201	-0.00861415531640099	0.0027055845514311	0.0016081718851197	0.00270433259947452	0.00160890901036081	0.0111764903156594	0.000847652168778715
4.2	-0.0168334820346667	-0.00637495866421092	0.00290419907849494	0.00120637932088025	0.00290865607295317	0.00119765857529955	0.0114258961925794	0.000198964847434965
4.3	-0.0178393543168092	-0.00394050522033097	0.0030464765780483	0.000793841047156753	0.00305289063956934	0.000786031659210363	0.0116502101756181	-0.000731927165062482
4.4	-0.0184951775781155	-0.00124437981878247	0.00312194354130549	0.000359463551313698	0.00312431522456803	0.000357204733956595	0.011566610674295	-0.00172408723251132
4.5	-0.0186329792088305	0.00161266973180407	0.00314379308866337	-7.86025349431911E-05	0.00314914875010548	-8.1980996682155E-05	0.0113488530454266	-0.00257759080506637
4.6	-0.0182926927963557	0.00442291317265587	0.00309884771118	-0.000521266927917857	0.00310009033988963	-0.000508358800082688	0.0110738795885285	-0.00336528169043319
4.7	-0.0173962886183621	0.00716512651380079	0.0029928208054171	-0.000939736774266769	0.0030080899153267	-0.000949366887735608	0.0107802957340275	-0.00412845401587896
4.8	-0.0160714370414217	0.00973943865454888	0.00283103876915336	-0.00135332217460156	0.00283950625285864	-0.00135941772920035	0.0104620572119143	-0.00487451641654189
4.9	-0.0140718577178293	0.0120580334673225	0.00260969246087704	-0.00173682369503361	0.00261385953067692	-0.00173392522361371	0.0101026670375079	-0.00552580887317918
5	-0.0115626006166198	0.0138311762998226	0.00234948492394358	-0.00209121216677948	0.00235310720180762	-0.00208855395099969	0.00995122032168836	-0.00600999179190007
5.1	-0.00858645936291082	0.014993308772531	0.00203835679994205	-0.00240095871855798	0.00204065710485693	-0.00239960473587379	0.0100161628991591	-0.00658399974046581
5.2	-0.00559444315644237	0.0154553717238741	0.00168061163745104	-0.00264992260993275	0.00168231735743427	-0.00265506241799498	0.0101251577086669	-0.00733307498484539
5.3	-0.00264614158668628	0.0153945382943823	0.00129391600072351	-0.00286435070079645	0.00129704744182019	-0.00286229379744296	0.0100967237702237	-0.00821228836561212
5.4	0.000196050423484434	0.014868437780527	0.00086932879162744	-0.00301082004296065	0.000886460920964621	-0.00302203407408247	0.0098420340452457	-0.00927532416371953
5.5	0.00283285368463662	0.0138725368800897	0.000456168726722376	-0.00310769208295466	0.000466198348729542	-0.00311711883495719	0.00921172112518131	-0.0102875914190739
5.6	0.00514995476959214	0.0123773444704831	1.83073729555059E-05	-0.00314288428209321	9.79026423989924E-06	-0.00314608944269818	0.00832756534734681	-0.0109518514888105
5.7	0.00693860169867971	0.0105340581077291	-0.000411930301428206	-0.00311158050625284	-0.000428521820617565	-0.00311521834235471	0.00748031831015708	-0.0113325440086412
5.8	0.00822944966918516	0.00849604483661443	-0.000856812952290529	-0.00301599132531839	-0.00086035683908712	-0.00302995446904638	0.00672528686575188	-0.0118849076941725
5.9	0.00904510358379949	0.00645799024042148	-0.00126056925276748	-0.00287555566254239	-0.00126878567040455	-0.00287546629581069	0.00567656515224403	-0.0124943147208572
6	0.00947848984958551	0.00432967482641284	-0.00165752226934165	-0.00266905731294862	-0.00165396764845584	-0.00266922686199982	0.00426443360487073	-0.0128004360329708
6.1	0.00953508862662458	0.00209489549310392	-0.0020112769252175	-0.00241455594858647	-0.00201290978102495	-0.00241055787184681	0.00303837021030844	-0.0126038705967842
6.2	0.00909765375275541	-0.000254216272534389	-0.00232269256567918	-0.00210166798570231	-0.00232640367468954	-0.00211351208788312	0.00225824558106273	-0.0123756035383463
6.3	0.00820725274016253	-0.00253933479462579	-0.00259913002296447	-0.00176773568067123	-0.00260823500729329	-0.00176200236220469	0.00171471659070848	-0.0124850615614671
6.4	0.0068566459536727	-0.00465467447567435	-0.00282418358190339	-0.00137795426802113	-0.00281448322713055	-0.00138285220139417	0.00110394142838104	-0.0127463136350545
6.5	0.00519592385075618	-0.00651285930451765	-0.0029797834735785	-0.000974091920709227	-0.00298762481728383	-0.000969616808788128	0.000512922898558125	-0.0129423162082669
6.6	0.00315036096768005	-0.00794910383916375	-0.00308727892158535	-0.000550435046931252	-0.00308890968934426	-0.000554402265408832	9.04908939178102E-05	-0.0131000075150965
6.7	0.000787908535377443	-0.00875993160993769	-0.00313756478722367	-0.000114099043794456	-0.0031463977011599	-0.000107833433406336	-0.000477453731146002	-0.0133487212709047
6.8	-0.00168887927922731	-0.00881556952678847	-0.00311612112028971	0.000325892972743459	-0.00312718916785974	0.00033092918022678	-0.00129844175234629	-0.0135450728271527
6.9	-0.00401990010459206	-0.00820332811702368	-0.00304116705947232	0.000757840326382702	-0.00304414776292065	0.00076022503488146	-0.00230207985670312	-0.0135414479607061
7	-0.0060005512225274	-0.00708956622528934	-0.00290520629998603	0.00117729183608646	-0.00291800674537361	0.00117509658664846	-0.0033297734617459	-0.0132789440159698
7.1	-0.00775738779655659	-0.00567365711406514	-0.00272839765838814	0.00156498053037091	-0.0027247452554372	0.00157362925043972	-0.00424784434998037	-0.0126449471552673
7.2	-0.00931044296645572	-0.00392394093968256	-0.00247316761950629	0.00193204948874386	-0.00247968480909991	0.00193412056116246	-0.00469644857637968	-0.011883422963608
7.3	-0.0106745600693912	-0.00179545008933767	-0.00217913492217488	0.00225050470709112	-0.00219032910776712	0.00225554000361493	-0.00475211953736683	-0.0115009039613317
7.4	-0.0116583808740795	0.000723108962550089	-0.00183913243019775	0.00253339740869387	-0.00184601427959079	0.00254697366787538	-0.00501217317931018	-0.0116652268903418
7.5	-0.012013164651014	0.00348625630491749	-0.00147512419147258	0.00277272812867405	-0.00146815192812184	0.00278011746450906	-0.00552713383678247	-0.0119766775737356
7.6	-0.0115606359554765	0.00616934092621892	-0.00107042321118197	0.00295168949025391	-0.00107179033643263	0.00294699898145192	-0.0061745147245557	-0.0122428221519484
7.7	-0.0106134967404021	0.00854483424648225	-0.000643425428441786	0.00307374789445209	-0.000644762141452439	0.00307268627576893	-0.00700014468660529	-0.012778427221446
7.8	-0.00891569829230743	0.0105415856832333	-0.00021880873187244	0.00312383039311414	-0.000226612660827647	0.00313026796306751	-0.00811118879979623	-0.0130829049197048
7.9	-0.00658284153178216	0.0119891395055886	0.000221423175293705	0.00313205222715657	0.000229351400446645	0.00313355954680567	-0.00939145871382168	-0.0129250565391053
8	-0.00385392900228431	0.0127670883637919	0.000662582453604956	0.00306116504762571	0.000662656841481074	0.00306605845417082	-0.0106482411111498	-0.012289674017533
8.1	-0.00105091892475827	0.0128788862801074	0.00107274065187312	0.00294467626107363	0.00109186327513774	0.00294578947104124	-0.0114939131110874	-0.011325221005827
8.2	0.00153775840019764	0.0124707582492877	0.00147726071097022	0.00276504480269361	0.00148650803270869	0.00275787207579833	-0.0118905837736114	-0.0103750888463248
8.3	0.00394562556225081	0.0116843490742831	0.00185374821072574	0.00252727510572749	0.00185208536278179	0.00254080873886468	-0.0121541372963223	-0.0097510926872927
8.4	0.00619832827026755	0.0105935337780596	0.00218974312848764	0.00225081460776816	0.0021867159760272	0.00225058545225776	-0.012665638527584	-0.0093270387686378
8.5	0.00829497076699235	0.00901457304294682	0.00247603390388984	0.00192138716647074	0.002475132339577	0.00192456661408608	-0.0134597875912263	-0.00865967682343036
8.6	0.01001637024881	0.00697207930756009	0.00272287917388662	0.0015621430516754	0.002732382723428	0.00155562302445028	-0.0140820015983342	-0.00767153285418394
8.7	0.0112197220970639	0.00452542929204863	0.00290956913206887	0.0011604428502877	0.00291512419820816	0.00116117527738781	-0.0143228057660753	-0.00668486335282887
8.8	0.0118264074356031	0.00192541522692846	0.0030472627241911	0.00075040472526019	0.00305304456623353	0.000741659841521127	-0.0144461124190483	-0.00606709244416893
8.9	0.0120315284095039	-0.000768113101754148	0.00312599835298528	0.000317049673318146	0.00312513196376161	0.000314801716609879	-0.0145921020441681	-0.00554680268954841
9	0.0118019867769765	-0.00364215808882986	0.00313724534545378	-0.000125884049763626	0.00314039365118007	-0.00012177757796537	-0.0147811940626492	-0.00489496356316737
9.1	0.0110206613371977	-0.00669027273412587	0.00309260051218532	-0.000567338244882924	0.00309545945562029	-0.000554436495259156	-0.0147590426511893	-0.00412593982061799
9.2	0.00939780458497252	-0.00965455357046576	0.00298460798017587	-0.000985354191813026	0.00299227191153021	-0.000988215967810664	-0.0145521478201057	-0.00350872253632621
9.3	0.00704985408208807	-0.0121599058779418	0.00281741708534978	-0.00139142409643877	0.00281669588941361	-0.00139641731681434	-0.0143277177493439	-0.00307516701543122
9.4	0.0041900634241493	-0.0140670643533715	0.00259618665188105	-0.00178280019969389	0.0026026862856692	-0.00177518671290229	-0.0143586545771863	-0.00272857119883106
9.5	0.000900302928529323	-0.015225759924557	0.00232194782610109	-0.00211845682069967	0.00232936648726842	-0.00211979103949338	-0.0145263532970103	-0.00209184355320188
9.6	-0.00272698973413469	-0.015731039208528	0.00200553960825029	-0.00242366519880446	0.00200586788221371	-0.00242268193871298	-0.0146925903855418	-0.00126546010232426
9.7	-0.00659244979738691	-0.0153393829950495	0.00163862399332659	-0.00267586628557157	0.00164417581057872	-0.00268316826445085	-0.0145619831747694	-0.000381516673270903
9.8	-0.0104432536377929	-0.0139823557094235	0.00125364749100011	-0.00288637894945302	0.00125933554285311	-0.00287786385913323	-0.0143461262595852	0.000267903240801294
9.9	-0.0139210557942719	-0.011585505027474	0.000848041976074872	-0.00302718687877998	0.000840702165263031	-0.00302597191013523	-0.0144121388401226	0.000836834890841482
10	-0.0167750470358522	-0.00848645515900611	0.000417307019259244	-0.00311793862427847	0.000409831381867012	-0.00313040625830197	-0.0145904224773969	0.00163765170964874
10.1	-0.0188902770917228	-0.00487111947362433	-2.56991788213604E-05	-0.00315076968076499	-3.59503516412621E-05	-0.00314538807106205	-0.0144707203739187	0.00261226176755202
10.2	-0.0202903306812794	-0.000877157208170473	-0.00047284500510412	-0.00311503705057728	-0.000476260171596085	-0.00311226039007204	-0.0139254277534816	0.0034760017804617
10.3	-0.0208715895514695	0.00349491596819074	-0.000906497008944065	-0.00301019074062383	-0.000898382124281027	-0.00301926211280502	-0.0132388622356652	0.00391586831924951
10.4	-0.0204096971777052	0.00801527812411389	-0.00130497227276603	-0.0028561559431869	-0.0013032647903719	-0.00286235727025901	-0.0126841641952389	0.00396320887497027
10.5	-0.0189235253320042	0.0123976463517722	-0.00169776155308604	-0.00265787255475651	-0.0016946731585904	-0.00264484844519689	-0.0124493994784089	0.00412127824046112
10.6	-0.0165484570628297	0.0163394040447149	-0.00205177659452593	-0.00238808688242672	-0.00204958108415757	-0.00239191241878976	-0.0121945114968974	0.00447300040660583
10.7	-0.0135087738741786	0.0198810073957555	-0.00236835058592846	-0.00208612464287924	-0.00236485747602407	-0.00208082998006375	-0.0117349239131626	0.0049058574878086
10.8	-0.00973851239725	0.0229470519265946	-0.00263886552559136	-0.00172583413209264	-0.00263364528822762	-0.00173476923358443	-0.0112972843108292	0.00512569606202632
10.9	-0.00528545705696264	0.0253696499989564	-0.00284836132456736	-0.00135118792174206	-0.00285355994151547	-0.00135046179666928	-0.0111249452406537	0.00529767251033338
11	-0.000135694006723312	0.0268449141798243	-0.00300883578521372	-0.000933901301017907	-0.00301368242090338	-0.000940660758543669	-0.0110044803033306	0.00583777511918551
11.1	0.00527984060793763	0.0271616733628235	-0.00311840583562121	-0.000507848836926022	-0.00310752591011908	-0.000504972264773516	-0.0105014001698396	0.00658801975923367
11.2	0.0106323328934489	0.0263234899008967	-0.00314864927682855	-6.87721048891752E-05	-0.00315581408202891	-7.36255383145101E-05	-0.00942429128117722	0.00716840708358338
11.3	0.0157856866509534	0.0244939680299479	-0.00312248538777363	0.00038152519372034	-0.00313404711116857	0.000371456814406588	-0.00797137368069121	0.00721302685497301
11.4	0.0205053466514716	0.0217794378838979	-0.00304912481576623	0.000810991441889197	-0.00304420283239362	0.000818577940011862	-0.00686205020051601	0.00668832803323985
11.5	0.0247459542095332	0.0181003160427552	-0.0029057895437568	0.00122830329107799	-0.00290857801449668	0.00123860345295094	-0.00625171076599071	0.00594655781236458
11.6	0.0282743971289703	0.0134888656387192	-0.00271098341591931	0.00162035396643718	-0.00271096481075403	0.00162330138978057	-0.00570002993026474	0.00522242223113029
11.7	0.0307924963132295	0.00827309605390363	-0.00244885686847798	0.00197663768905521	-0.00244942156269312	0.00198526396423475	-0.00510988074206627	0.00426836135923228
11.8	0.0323590183419177	0.00277776734320182	-0.0021523860387219	0.00231016689603014	-0.00215651089838684	0.00231187067580712	-0.00482229320786531	0.00307543654652853
11.9	0.0331488662665903	-0.00293382555000605	-0.00180165808283311	0.00258730755006082	-0.00181470907999552	0.0025916311528078	-0.00509635919347473	0.00214582592700214
12	0.0328013106104142	-0.00886918573165071	-0.00142669170949717	0.00281102418903407	-0.00142609347767269	0.0028124389499408	-0.00570076970814032	0.00176986349994589
