# GHZ S RI R 50
0.2	0.00605405752211335	0.00352962863473082	0.00304835382439702	-0.000895769103604773	0.00305871606914824	-0.000888954708507092	-0.0138663927017936	0.00719748493052859
0.3	0.00660340633869472	0.000140903605694582	0.00290518337913514	-0.00131766351505537	0.00289792309604364	-0.00130473575405366	-0.01284268933336	0.00593110957166429
0.4	0.00584234788300316	-0.00233031777324252	0.00267565604702886	-0.00168834378685218	0.00268093903140605	-0.00169689511557962	-0.0128830394838094	0.00563168774495336
0.5	0.0044530068688284	-0.00382478367655186	0.00241977751287011	-0.00204497190374143	0.00243134979817706	-0.00205718975665997	-0.0131163217597301	0.00616238703192072
0.6	0.00306568686860331	-0.00447428475134315	0.00211047356344702	-0.00236092119516217	0.00210970693750241	-0.00236808117681052	-0.0130572662000694	0.00721102864721627
0.7	0.00190044142083361	-0.00466165935224344	0.00176605718368151	-0.0026417948423152	0.00176409787739305	-0.00264200032368139	-0.0125777045136511	0.00839944192454085
0.8	0.0010357871466396	-0.00478762737970268	0.00138202119016089	-0.00286364874209445	0.00136939805795871	-0.00286825218263037	-0.0117117665229636	0.00940897454553547
0.9	8.29021825069659E-05	-0.00495977271816214	0.000964409906628024	-0.00303240771550476	0.000965480632163968	-0.00304314710437685	-0.0107873777590063	0.00998337393793922
1	-0.00112942901743891	-0.00510197382035247	0.000536857211000811	-0.00314082520798092	0.000526947786120963	-0.00314159227639791	-0.0101111616821925	0.0102930451928223
1.1	-0.00271279327671747	-0.00494631666813005	7.63383759808729E-05	-0.00317342444577187	7.28372126225741E-05	-0.0031911825205309	-0.00987594109093853	0.0107530440633045
1.2	-0.00440035155643019	-0.00447284664875831	-0.000372003555675863	-0.00316469990278703	-0.000372821279960244	-0.00316261064087963	-0.00941554201259561	0.0116007050121703
1.3	-0.00599907513529565	-0.00383105337616189	-0.00080578687563122	-0.00308082759545786	-0.000809049845775965	-0.00308284320561234	-0.0081223499449898	0.0125110129560744
1.4	-0.00719303391721766	-0.00308503255592911	-0.00123322078104012	-0.00292934613457757	-0.00123201160698051	-0.00293491740356371	-0.00642260530522338	0.0126395292143998
1.5	-0.00766207463670154	-0.0018426053085325	-0.00163865510976274	-0.00272818500315884	-0.00163706142659166	-0.0027367411890112	-0.00495921990947383	0.0123984758263808
1.6	-0.00744631560339753	-0.000192025164265617	-0.00200138613458946	-0.00246920214102251	-0.00200162049163089	-0.00247446253560804	-0.00417172264181543	0.0124821691148674
1.7	-0.00660722625584122	0.00133351036351453	-0.00232940398014721	-0.00216558407901778	-0.0023303425114541	-0.00215929189383882	-0.00317655469987907	0.0126952326405566
1.8	-0.00547359847047731	0.00263418416079592	-0.00259747487103495	-0.00180828862213279	-0.00260850333058376	-0.00181388367353417	-0.00220318463852129	0.0126424518046281
1.9	-0.00422069349333976	0.00351443653132112	-0.00281820526884518	-0.00143363854065518	-0.00283063463447715	-0.00142740839728196	-0.00150683109334075	0.012501490778624
2	-0.00293853604551393	0.00414521203892683	-0.00298846822184531	-0.00102434930532255	-0.00299807370715094	-0.00101959026518298	-0.00101828721106207	0.0125630532535983
2.1	-0.00156049722130248	0.00449517689887095	-0.00309688235872597	-0.00059669852673233	-0.00309280806622676	-0.000598707244343177	-0.000348613693348559	0.0127529391345971
2.2	-0.00010745133574175	0.00458715591934713	-0.00315057532794796	-0.000161030583833365	-0.00316188074221936	-0.000163827180205839	0.000680386566497711	0.0128808871159616
2.3	0.00136092157457473	0.00419409628129237	-0.00314426112578771	0.000278822712550427	-0.00314397474864285	0.000271944805242526	0.00180863591157826	0.0126030230771946
2.4	0.00263419917959327	0.00343744614291911	-0.00307233318061088	0.000713796281919485	-0.00307487848788046	0.000709544695699888	0.00277992984901223	0.0120672178204361
2.5	0.00360515788310319	0.00234720746350071	-0.00293754441844802	0.00112399168531726	-0.00294843124966588	0.00113037779083992	0.00350137405607164	0.0113857166702304
2.6	0.00432259889546671	0.00112746241021693	-0.00276672499123229	0.00152697436898023	-0.0027631641753619	0.00151463897271098	0.00407197281988776	0.0107919617076574
2.7	0.00490185648101542	-0.000182569635720321	-0.00252357466275095	0.00190051286791902	-0.00252886625002953	0.00190052311461428	0.00455615649233421	0.0102792812077466
2.8	0.00539728383297774	-0.00167734228809325	-0.00224196795965604	0.00223203059862099	-0.0022341261397861	0.00224185231218313	0.00502143017237158	0.00989210663972474
2.9	0.00571006751012163	-0.00342302861546021	-0.00190654293927312	0.00253725920090817	-0.00190281758705608	0.00253682701386888	0.00565330226828389	0.00963212279238066
3	0.00561051937178728	-0.00534317347204767	-0.0015163515375247	0.00277738370998878	-0.00153119926250327	0.00278354580718598	0.00643947291623226	0.00942536685525338
3.1	0.00511064874205262	-0.00726228597480052	-0.00111983783771926	0.00295769752460342	-0.00111512457544086	0.00296607336381369	0.0072804968181853	0.00913330566256956
3.2	0.00408720427261133	-0.0091201877805237	-0.000691275271018086	0.00309545766679369	-0.000693033348118855	0.00309485222271661	0.00805664716476922	0.00881467030503963
3.3	0.0026106533657353	-0.0108939061790289	-0.000244345538129408	0.00316245805024321	-0.000242712847126635	0.00315868563645083	0.0089679408947077	0.00822774933687176
3.4	0.000599732969498292	-0.0123048491304277	0.000209866694043657	0.00315003917905372	0.000203770887332641	0.00316673463282421	0.0097559747701793	0.00728692393764702
3.5	-0.00176880758908183	-0.0133282959819648	0.000636684514217567	0.00309824706599765	0.000642300228177351	0.00309826829247263	0.0101412730572964	0.00611669398327535
3.6	-0.00439349944587223	-0.0137349227421423	0.00106662300514965	0.0029681318830943	0.00107482565789031	0.0029677258388352	0.0103129878522546	0.00525019067876325
3.7	-0.00704719594832023	-0.0135541853058885	0.00147453023708144	0.00277601312351704	0.00146510011023518	0.00278979384714078	0.010632610331799	0.00444613447169907
3.8	-0.0096197560056683	-0.0128067007427722	0.00184613671414246	0.00253924990048306	0.00184863827132353	0.0025483519844689	0.0109217248424566	0.00349693730743462
3.9	-0.0119017023057018	-0.0115773162025695	0.00218238588150611	0.00225941339280412	0.00217513241300767	0.00225771899702945	0.0109805968548182	0.00246557156045795
4	-0.0138982369877609	-0.00997264936858311	0.00245591238107211	0.00193566661994869	0.00246031129395716	0.00193320440338949	0.0108813271550034	0.00164955635629897
4.1	-0.0155622601687057	-0.00805022915712126	0.00269673514778616	0.00157728193094758	0.00269549765949156	0.00157802234182494	0.0109280817164211	0.0010621751133652
4.2	-0.016902867976992	-0.00582738543019368	0.00288656283852228	0.00118146537971192	0.00289093816347734	0.00117279328240189	0.0111465064093333	0.000441298711946502
4.3	-0.0178419172050403	-0.00345058193560381	0.0030233507925578	0.000777331989757934	0.00302968561576209	0.000769567772270682	0.0113912459279059	-0.000482420019512607
4.4	-0.018475823107907	-0.000879245852066699	0.00309725396479081	0.000352291875553957	0.00309960342703902	0.000350048032183553	0.011327319462011	-0.00149631693231375
4.5	-0.0186902698906886	0.00185394641152545	0.00312122920241724	-7.73451094297538E-05	0.00312654713982249	-8.06981240868788E-05	0.0110918767648763	-0.00238758199635757
4.6	-0.0184880259550643	0.00462850693425813	0.00308130108780213	-0.000513876895610853	0.00308251840973727	-0.00050104315109897	0.0107826339539994	-0.00317040590317055
4.7	-0.0176995775198542	0.00742595027705761	0.00298169038648371	-0.000929505321825103	0.0029969126177048	-0.000939062140320252	0.0104539789395452	-0.00391080715979861
4.8	-0.0163898436909027	0.0100851388359499	0.00282611669996186	-0.00134352470924427	0.00283457384541818	-0.00134958530437183	0.0101627765449136	-0.00462501013839789
4.9	-0.0143939925530567	0.0124318322340941	0.00260928537088317	-0.00173022899577899	0.00261344226574323	-0.0017273272180137	0.00981884983318641	-0.00528202886215982
5	-0.0119190109194169	0.0142277831331366	0.00235085313669291	-0.00208936515514589	0.00235447324256937	-0.00208670447699671	0.00966364527479611	-0.00579485636310405
5.1	-0.00896468472450133	0.0154660430911113	0.00203838298839074	-0.00240390168109277	0.00204068575449127	-0.00240254810317192	0.00970093586465335	-0.00638430264857457
5.2	-0.00590718797219465	0.0160150724586084	0.00167657324942092	-0.00265612515204887	0.00167826961364254	-0.00266127365653255	0.00979131816998933	-0.0071179481933956
5.3	-0.0028334160564239	0.0159611037003427	0.00128406340211282	-0.00287112798994332	0.00128720465765301	-0.00286908142460082	0.00977604763554654	-0.00797161596480558
5.4	8.66621354659359E-05	0.0153496524661174	0.000853456905617722	-0.00301476542332128	0.0008705272038389	-0.00302606661052888	0.00954540642142829	-0.00903506850396269
5.5	0.00270529419394113	0.0142654859017699	0.000435607822772612	-0.00310571803063551	0.000445561480485064	-0.0031151940013848	0.00891135637203378	-0.0100660842295448
5.6	0.00495977520331643	0.0127543361207181	-4.07845911927348E-06	-0.00313248708016758	-1.25898062664998E-05	-0.00313562100628786	0.00798886717344683	-0.0107279987149083
5.7	0.00674328071124878	0.0109350089900806	-0.000432287845994639	-0.00309186917807873	-0.000448816583101075	-0.0030953671074585	0.00712693996833256	-0.0110682980118822
5.8	0.00806492456757261	0.00891490688563921	-0.000870836212349053	-0.00298767818929443	-0.000874448179423365	-0.00300151311473324	0.00637664030182364	-0.0115549126963785
5.9	0.00891903319430756	0.00682932950857597	-0.00126493482014027	-0.00284136174085686	-0.00127307336595412	-0.00284122682587692	0.00538213047908707	-0.0121190598782049
6	0.00933229067826863	0.00462165829542747	-0.00164975896760477	-0.00263308304470514	-0.00164624422447181	-0.00263326473400445	0.00404038978257877	-0.0124239218610083
6.1	0.00931531971949959	0.00235192821734944	-0.00199117624843325	-0.00238168244497268	-0.00199278217642167	-0.00237772996368653	0.00286716858139243	-0.0122511321713748
6.2	0.00882188794714264	3.86766492097931E-05	-0.00229206730740436	-0.00207673472120041	-0.00229572390451919	-0.00208843214322557	0.00212683047155323	-0.0120393342457272
6.3	0.0079564169507333	-0.00219586359816195	-0.00256145866173558	-0.00175412815858935	-0.0025704693696723	-0.00174849438933219	0.00165498873772066	-0.0121507893607661
6.4	0.00659822686136826	-0.00429434281288772	-0.00278439867757971	-0.00137777447984082	-0.00277478200145522	-0.00138256320457915	0.00107197857437668	-0.0124526351967968
6.5	0.00489203215502408	-0.00611671957559522	-0.00294314361068233	-0.000986747620684155	-0.00295094110391904	-0.00098237517375731	0.000462383011944282	-0.012705423494574
6.6	0.00283061616144938	-0.00747106739228951	-0.00305816280828947	-0.000573580766457764	-0.00305974549111474	-0.00057753136927645	-9.00262096124747E-06	-0.0128953804628597
6.7	0.000532822044420695	-0.00821918495801959	-0.003118992394243	-0.000143806084102901	-0.00312783672181538	-0.000137660778714018	-0.000609855563259245	-0.0131426405375945
6.8	-0.00185468515096323	-0.00830104480036132	-0.00310920569549905	0.000294453583812964	-0.00312028699954899	0.000299365559833483	-0.00142716526787655	-0.0133302156194072
6.9	-0.00417631957982006	-0.00773527528065278	-0.00304484490460298	0.000729159644469472	-0.00304784425807202	0.000731514478987002	-0.00243890709381875	-0.0132985062651482
7	-0.00621556853658969	-0.00668382418513076	-0.00291676442940602	0.00115493482748339	-0.00292955677902613	0.0011526356192994	-0.00344078554749185	-0.0130847515088589
7.1	-0.00806066174893918	-0.00523498459076219	-0.00274396308099374	0.0015507479872393	-0.00274035846444841	0.00155943769074592	-0.00438556988282451	-0.0125126715174602
7.2	-0.00963868649836937	-0.00337984965813957	-0.00248864677407019	0.00192614900041557	-0.00249519110851138	0.00192819628092384	-0.00490640313238108	-0.0117715258431065
7.3	-0.0109355286567303	-0.00117296915513484	-0.00219095425613144	0.00225106966857672	-0.00220219228855087	0.0022560898951861	-0.00501408046830334	-0.0113480859213848
7.4	-0.0117744169411238	0.00145164435296152	-0.00184506874709659	0.00253731560305271	-0.00185197608371697	0.00255091523636353	-0.00535637919984765	-0.0113099178552357
7.5	-0.0120213615535852	0.00414579521027872	-0.00147467478172227	0.00277621791832878	-0.00146769135757279	0.00278360948671421	-0.00581003115085317	-0.0115672701610536
7.6	-0.0116945598741815	0.00659359335375498	-0.00106492827879684	0.00295114131328425	-0.00106630180184331	0.00294645654080314	-0.00633502892415632	-0.0121032463237596
7.7	-0.010587258583607	0.00893334239338769	-0.00063592496064254	0.0030666376549626	-0.000637260046525735	0.00306558141323304	-0.00713741470413603	-0.0124390473948893
7.8	-0.00891396799508894	0.0108299858632511	-0.000213240808799903	0.00310941832106749	-0.000220998591744757	0.00311583686815842	-0.0081753564657561	-0.0127501169665294
7.9	-0.00640105522758505	0.0120591989209553	0.000220978059661799	0.0031114419634153	0.000228854778422755	0.0031129368496864	-0.00934347204407771	-0.0123892231127875
8	-0.00419882713262301	0.0129113565088541	0.000652811627124605	0.00303765351113426	0.000652878270997245	0.00304250789472128	-0.0106919186075553	-0.0122505314864819
8.1	-0.00136090968567032	0.0130425411530578	0.00105229355157794	0.00292262704087253	0.00107124291597059	0.00292380158014536	-0.0114401476159706	-0.0111654646036677
8.2	0.00114643234519419	0.0127724978759362	0.00144671516156361	0.0027495489399134	0.00145592464377177	0.0027424983496515	-0.0118830576187029	-0.0102690652707072
8.3	0.00354081066784489	0.0120893876354716	0.00181611650410913	0.00252278231561828	0.0018143478354683	0.00253618951040077	-0.0121780210635627	-0.00966066869663048
8.4	0.00578983101785428	0.0110630881269037	0.00214974365105853	0.00225999873929902	0.00214673960008956	0.0022597373275662	-0.0126897189778488	-0.00925598395160132
8.5	0.0078674691764737	0.00955269439063391	0.0024394804800361	0.0019447377607543	0.00243854165631235	0.00194789068126769	-0.0134826084668009	-0.00864674556594588
8.6	0.00958815529040756	0.0076203778599495	0.00269512311250936	0.00159778920574934	0.00270470038490778	0.00159141776007831	-0.0141530575093872	-0.00774186410808643
8.7	0.0108448338492449	0.00531070801119022	0.00289506283314291	0.00120419517503404	0.00290061198944218	0.00120500984121216	-0.0145341998184885	-0.00681242527632211
8.8	0.0115959314770136	0.00277091378384085	0.00304802771003296	0.000796875838091713	0.00305395661835436	0.000788180716944601	-0.0147910765343526	-0.00616332641239766
8.9	0.0119435703330126	2.69836413772327E-05	0.00314199600544038	0.000360298521785719	0.00314115365353827	0.000358024636276834	-0.0150088088504298	-0.0055511515890955
9	0.0117758109375894	-0.00295943648161608	0.00316593477214547	-9.12740376414618E-05	0.00316906369667997	-8.70960587028525E-05	-0.0151924516057054	-0.00483333914077529
9.1	0.0110480995110861	-0.00611400624479983	0.00312963926841199	-0.00054508516767165	0.00313241044967968	-0.000532024427511258	-0.0151166634399623	-0.00405458969800482
9.2	0.00940840394778326	-0.00916397559775664	0.00302446081056937	-0.000976985094650809	0.00303222923312078	-0.000979829095733465	-0.0149353348621234	-0.00342911564212112
9.3	0.00703325722048637	-0.011755591208418	0.00285470129733245	-0.00139631903460571	0.00285399119194788	-0.00140137160239018	-0.0147224291438214	-0.00293403571267516
9.4	0.00406100268168029	-0.0136697240520145	0.00262640407998773	-0.00179828515406445	0.00263296271977101	-0.00179058130036843	-0.0146861297901112	-0.00240389803723549
9.5	0.000648822962459207	-0.0149444620199232	0.00234225227159486	-0.00213998201784784	0.00234973963775013	-0.00214133399332464	-0.0148209147255791	-0.00185812823005068
9.6	-0.00308701165029187	-0.0153512478236574	0.00201534151469102	-0.00244642953718857	0.0020156744466483	-0.00244543956849743	-0.0149438918663209	-0.00106543458822631
9.7	-0.00696745790956074	-0.0148156986625249	0.00163946213956281	-0.00269527186101092	0.00164502209244426	-0.00270263003733925	-0.0148274768011697	-0.000201468658406281
9.8	-0.0107398739731863	-0.0133515635295319	0.00124898887081013	-0.00289933982765016	0.0012547205896204	-0.00289081464794386	-0.0146280325800131	0.000480525593872011
9.9	-0.014074541375197	-0.0109764384276913	0.000842326846067886	-0.0030325300566383	0.000834981306192964	-0.0030312974814596	-0.0146308736992434	0.00106447439833245
10	-0.0168705485664744	-0.00791534685671591	0.000414871527487095	-0.00311680458889221	0.000407390357943037	-0.00312926110847882	-0.0147609650180742	0.00186942599841291
10.1	-0.0189591048630171	-0.00434449340436106	-2.15862650634133E-05	-0.00314634982491406	-3.18299124141684E-05	-0.00314098908465633	-0.014608317707552	0.00281385410949294
10.2	-0.020341402567655	-0.000392585796762787	-0.000460928074920157	-0.0031118688412592	-0.000464347871786514	-0.00310910877281813	-0.0140706758579206	0.00365431259787897
10.3	-0.0209212768852547	0.00391353227984289	-0.000888028721743182	-0.00301297150938111	-0.000879867368925371	-0.00302198748117543	-0.0134016584912184	0.00411066430380145
10.4	-0.020565180039557	0.00827513171419285	-0.00128336266054253	-0.00286841066536591	-0.00128160512695143	-0.0028746028130123	-0.0127865769003805	0.00413769629341231
10.5	-0.019167705032492	0.0126902244025581	-0.00167792999966627	-0.0026814652792492	-0.00167495405457759	-0.00266837434567199	-0.0125515004396431	0.00433928245706725
10.6	-0.0169549946671013	0.0166893478377612	-0.00203936890949815	-0.00242208312758712	-0.00203712270224076	-0.00242590815881693	-0.0122880119592151	0.00462520284303001
10.7	-0.0140227271798172	0.0203697375202441	-0.00236799395985522	-0.00212730013708806	-0.00236452325400331	-0.0021219258070362	-0.0118844282228883	0.0049976868534721
10.8	-0.0102761113701925	0.0235932151687884	-0.00265370460625724	-0.00176876580015403	-0.00264834610478788	-0.00177775664376212	-0.0115178056808008	0.00522017267328257
10.9	-0.00580969304313842	0.0262160372532483	-0.00287860994012784	-0.00138980265999985	-0.00288388596395437	-0.00138910258063275	-0.011442832080183	0.00542947076242104
11	-0.000579606331084093	0.0278243229397295	-0.00305251557493133	-0.000961964723195379	-0.00305740946099875	-0.000968852847628926	-0.011299165757063	0.00598478967569787
11.1	0.00496534612423288	0.0282664521572277	-0.00317107739252759	-0.000520733364941451	-0.00316001518545298	-0.000517792938128337	-0.0108079359267324	0.00668759079930433
11.2	0.0105201509692452	0.0275053615286768	-0.00320385026471361	-6.37830845214308E-05	-0.00321114991713959	-6.8707308700111E-05	-0.00982243034127182	0.00724220159282817
11.3	0.0158665572777572	0.0254937189168895	-0.00317347977454746	0.00040448923162131	-0.00318529093774533	0.000394310973633344	-0.00836178829572543	0.00718235028336297
11.4	0.0207662785615169	0.0226563934055248	-0.003089959025168	0.000849083325260525	-0.00308489693021351	0.000856747199789212	-0.00732453866292573	0.00679362332672733
11.5	0.0251565171693767	0.0188525690335145	-0.00293160814162427	0.00127659640583631	-0.00293432184007537	0.00128706603721736	-0.00667107941698899	0.00627856290526745
11.6	0.0286858103174347	0.0140265026643835	-0.00271955429965171	0.00167252434755233	-0.0027194978062151	0.0016755033770632	-0.0060549288901233	0.00555850838525813
11.7	0.0311530147524924	0.00863042868587472	-0.00244055576628986	0.00202581174398816	-0.00244100566729429	0.0020345127745772	-0.00544720415729671	0.00463369136666416
11.8	0.0326358803205068	0.00298979085701318	-0.00213020170499268	0.00235088577095246	-0.00213432199218044	0.00235265493194051	-0.00509254527138199	0.0035581166612657
11.9	0.0331568854005131	-0.0026992803118534	-0.00177073788987271	0.00261533616739164	-0.00178375419726541	0.00261983842105241	-0.00534838125400877	0.00285797310429407
12	0.0327272031128583	-0.00879879223408354	-0.00139322170976962	0.00282564095898708	-0.00139260751542295	0.00282704785187802	-0.00572835573524506	0.00222136155094439
