# GHZ S RI R 50
0.2	0.00571542021281337	-0.000243681138744097	0.00304833580015356	-0.000899376431730346	0.00305870873929785	-0.000892571196702958	-0.0142157563883716	0.00343814069079599
0.3	0.00592441842487456	-0.00124215566438311	0.00290339979970508	-0.00132379884625305	0.00289616307479805	-0.00131085300435757	-0.0135244401468983	0.00458449357710994
0.4	0.00605736183018243	-0.00237780876733566	0.00267036743532047	-0.00169626266285901	0.00267562427824559	-0.00170482922014734	-0.0126410922942884	0.00563941849136635
0.5	0.00581858170798003	-0.00375437538754775	0.00240953890255816	-0.0020529608725367	0.00242105244164648	-0.00206521488213834	-0.0116794539588107	0.00628599376636941
0.6	0.00504007027911294	-0.00513811477808125	0.00209487593536249	-0.00236639752277242	0.00209407629271465	-0.00237353953345782	-0.0109709463690378	0.00657249849390977
0.7	0.00363247426442822	-0.00619996377743453	0.00174593761305103	-0.00264201504571404	0.00174398399868308	-0.0026422094274502	-0.0107116928090935	0.00684244831431444
0.8	0.00193579053452571	-0.00669110840687314	0.00135964387285854	-0.00285635262376109	0.00134706085255779	-0.00286086505324999	-0.0106766355296871	0.00744246767850839
0.9	0.000172984046552373	-0.00649036005337008	0.000943022242888199	-0.00301636522768191	0.000944033264869206	-0.0030270363655156	-0.0105755095758245	0.0083562766713392
1	-0.00127469862735702	-0.00581913869917842	0.00052008651420326	-0.00311639964655907	0.000510257763931877	-0.00311712162704021	-0.0101544302456094	0.00945868416397856
1.1	-0.00239521560879935	-0.0050154838302686	6.78375232523573E-05	-0.0031426394069025	6.43271296033598E-05	-0.00316021561172208	-0.00948195878391386	0.0105591151359172
1.2	-0.00334672319427557	-0.00448150010303905	-0.000370046953601009	-0.00313076742646138	-0.000370854647723527	-0.00312869989253584	-0.00832914323925195	0.0114487397238653
1.3	-0.00455073921715764	-0.00421857094053243	-0.000792619774201068	-0.00304802628761814	-0.000795844004783678	-0.0030500242510095	-0.00669948318783754	0.011984907208356
1.4	-0.00575234748795456	-0.00376048622008735	-0.0012097358426536	-0.0029019883508041	-0.00120852039354711	-0.00290749525270167	-0.00503042250633057	0.0117931883760632
1.5	-0.00633922110849197	-0.00279895903165952	-0.00160748743120948	-0.00270972377882673	-0.00160586343228573	-0.00271818565064467	-0.00372967594047014	0.0112359522316044
1.6	-0.00643917795559085	-0.00148360677529657	-0.00196656766670957	-0.00246175794950099	-0.00196676297180729	-0.00246697413653109	-0.00324719540676597	0.0109869802512912
1.7	-0.0061107979052822	-4.35197490652743E-05	-0.00229527182116136	-0.0021694649186679	-0.00229625535520398	-0.00216322465704998	-0.00280822641717425	0.0111394599848659
1.8	-0.00540758467107777	0.00149510519962773	-0.00256829023376426	-0.00182189242718647	-0.0025792130994742	-0.00182755588492584	-0.00226782033772995	0.0113963815292083
1.9	-0.0042499121150036	0.00274916210060404	-0.00279671813335616	-0.00145382854138556	-0.00280916285454834	-0.00144772713340565	-0.00163928248136398	0.0116698426804786
2	-0.00281921022267926	0.00359382308194724	-0.00297600587003862	-0.00104726827136103	-0.00298563685379774	-0.00104259400291575	-0.000957389017732099	0.0119526838428799
2.1	-0.00130219676009849	0.00391060899570137	-0.00309282106746912	-0.000618346174265449	-0.00308873260786525	-0.000620326507424892	-0.000119451008838159	0.0120818386877097
2.2	8.33584120075686E-05	0.00388014125517472	-0.00315259382672666	-0.000178314703951517	-0.00316389441617233	-0.000181175360345013	0.000837275762524869	0.0120525737947511
2.3	0.00132246246871489	0.00351757751619274	-0.00314895099362859	0.000267478633260411	-0.00314863875999143	0.000260593793221272	0.00170935338979189	0.0117970363446851
2.4	0.00243647340194883	0.00299844313843255	-0.00307602723596075	0.000708078949687426	-0.00307856576932758	0.0007038190887398	0.00251480818507001	0.0115472848986332
2.5	0.00349079754030616	0.00221613023392758	-0.00293724022265032	0.00112178804391267	-0.00294812730275946	0.00112816522599685	0.00335739073959499	0.0111980659201808
2.6	0.0044492396497955	0.001121384592926	-0.00276093102132738	0.00152488537026385	-0.00275738084784709	0.00151257262132692	0.00422267519713235	0.010721159920748
2.7	0.00519940308981049	-0.000242295768916681	-0.0025127546091016	0.00189473136167494	-0.00251802588732728	0.00189474473631161	0.00491153042355229	0.0101173332523111
2.8	0.00574426937548682	-0.00178558582399611	-0.00222844540852206	0.00221932620253569	-0.00222064789279708	0.0022290890048508	0.00543648664130151	0.00963826140557133
2.9	0.0061252491951783	-0.00351081823309692	-0.00189427158671253	0.00251568065148995	-0.00189057470761697	0.00251525551782029	0.00613434270654613	0.00933306281928744
3	0.00615064833743549	-0.00547864200938104	-0.00151010307871282	0.0027473110552499	-0.00152483028710708	0.002753374037352	0.00700977561600261	0.00900661606552161
3.1	0.00572516429972762	-0.00758185360201406	-0.00112372297525983	0.00292153490475651	-0.00111910159978727	0.0029298493170431	0.00785798748352939	0.00848594912700178
3.2	0.00461349833293212	-0.00960847862775984	-0.000708511338036517	0.00305746233004636	-0.000710246151056026	0.00305684933291643	0.00844446998552992	0.00796249567530014
3.3	0.003005557013228	-0.0114139906561075	-0.000275905952507659	0.00312836402735163	-0.000274248959536653	0.00312464669953646	0.00910374422610197	0.00737683598576918
3.4	0.000946353050346938	-0.0127736265588804	0.000165672472272779	0.00312587961861665	0.000159404179576903	0.00314235001064015	0.00975644811514387	0.00657635622934051
3.5	-0.0013644763758005	-0.0137799781757288	0.000583674372302437	0.00308845424182096	0.000589253775368626	0.00308856402267435	0.0101454222376015	0.00553583395712338
3.6	-0.00398231260661695	-0.0143162906103268	0.00101077891495393	0.00297612088011792	0.00101895911779383	0.00297586000468194	0.0103276848479001	0.00463819469405922
3.7	-0.00675294116644777	-0.0142623755291768	0.0014227571901302	0.00280221510910218	0.00141307616028903	0.00281581676003831	0.0105362790368634	0.0038221440942491
3.8	-0.00952233574204486	-0.0135231340755681	0.00180485126012874	0.00258118405618902	0.00180719218910117	0.00259036034496168	0.0106813905321536	0.00300098842171498
3.9	-0.0119347865455401	-0.0121839960191439	0.00215663654050465	0.00231228971942701	0.0021493663655963	0.00231045686944414	0.0107428708464387	0.00219682777549812
4	-0.0139529182666154	-0.0104799588661768	0.00244837470155953	0.00199263266639322	0.00245285379412061	0.00199021684682736	0.0108173976700537	0.00151704055679054
4.1	-0.0156251839389324	-0.00853480597792868	0.00270734305646352	0.00163155936386153	0.0027060812520779	0.00163229200232288	0.0110352390292759	0.000886450652794312
4.2	-0.0170427433486089	-0.00628890351596522	0.00291244198653438	0.00122670258681424	0.00291696409646742	0.00121796123053163	0.0112846960601556	0.000166761958563762
4.3	-0.0180805989206934	-0.00379064928432863	0.00305922438026478	0.000809324502652935	0.00306570072215219	0.00080149880688208	0.011484458418778	-0.000723298817110812
4.4	-0.0187024372990308	-0.00103087300692582	0.00313677185029352	0.00036923834441649	0.00313916125544322	0.000366974183563064	0.0114765939156701	-0.00164434208248449
4.5	-0.01877775075458	0.00183225890526039	0.00315831844493859	-7.42096043060923E-05	0.00316370375676915	-7.75954506595814E-05	0.0114148647426743	-0.00252315812139028
4.6	-0.0184097902139061	0.0045989476488969	0.00311112477645501	-0.000521013484848028	0.00311236278383374	-0.000508054893111415	0.0112271659130872	-0.00347700353861222
4.7	-0.0175369811882192	0.00730865412634095	0.00300178015306679	-0.000941654613805469	0.0030170962896472	-0.000951308574513582	0.0108828886774317	-0.00439663827285725
4.8	-0.0162541837112087	0.00988043311230349	0.00283669536997506	-0.00135534642962671	0.00284518017252605	-0.00136145193904113	0.0104307896777833	-0.00518452624680687
4.9	-0.0142527753500384	0.0122188346979748	0.00261306364631275	-0.00173716535902154	0.00261723323437575	-0.00173426201295566	0.0100362166360494	-0.00579536225535335
5	-0.0117380884971605	0.0139762138656356	0.00235236895089875	-0.00208885333585337	0.00235598879402793	-0.00208619038748074	0.00991018472103577	-0.00629927618533109
5.1	-0.00880931730197731	0.01511627522159	0.00204284580601299	-0.0023959538895683	0.00204514258262487	-0.00239459543300992	0.00991948599966314	-0.00695259832083188
5.2	-0.00589591338856498	0.0156178193541267	0.00168852044032809	-0.00264346450397593	0.0016902421034619	-0.00264859680638586	0.00987430249732488	-0.00768776574314418
5.3	-0.0029773891170532	0.0156508194623262	0.00130639585165083	-0.00285847832490857	0.00130951805442655	-0.00285640782174508	0.00975966233270256	-0.00840884150064082
5.4	-9.35238976032741E-05	0.0151946282212124	0.000886304478856931	-0.00300810359709763	0.000903509142925751	-0.0030192318590895	0.00959955769268282	-0.00932054479156687
5.5	0.0025886629689232	0.014200334764119	0.000476466401886832	-0.00311035414798604	0.000486572958240128	-0.0031197347602012	0.00913841445728232	-0.0103532676128413
5.6	0.00489401616792266	0.0126858370419061	3.95981790854759E-05	-0.00315271260936022	3.10757543486911E-05	-0.00315598545947563	0.00830179804934372	-0.0111792443380453
5.7	0.00662512040576854	0.0108932858071238	-0.000392641301413631	-0.00312909563223817	-0.000409286396980079	-0.00313286389110915	0.00730743708983796	-0.0116602891715844
5.8	0.00792019161582298	0.00895575996917636	-0.000842809927778406	-0.00304054607279814	-0.000846286314934468	-0.00305462017584939	0.0063846246815911	-0.0121337864564942
5.9	0.00882420633504906	0.00700751024806851	-0.00125429204080949	-0.00290501804989209	-0.00126257297733546	-0.00290497398713157	0.0053123880228571	-0.0125363162538878
6	0.00938472550808244	0.00488551843169311	-0.0016608469831081	-0.00270038304785718	-0.00165725953053382	-0.00270053862579	0.0040576887102019	-0.0126992572056332
6.1	0.00952161369473773	0.00257838755583083	-0.00202442120100311	-0.00244414715157379	-0.00202608148840199	-0.0024401140381412	0.00301462805685461	-0.012539313372527
6.2	0.00909026183328432	0.000150238961493359	-0.00234451593385272	-0.00212594349972395	-0.00234825281369683	-0.00213791435381947	0.00228944758155363	-0.012430422088134
6.3	0.00816756379414888	-0.0021846916662946	-0.00262731889891444	-0.00178413271599006	-0.00263651392580376	-0.00177833341682983	0.00171475851214592	-0.0125967840153969
6.4	0.00681544568005208	-0.0043667075588349	-0.0028554158579475	-0.00138463051814258	-0.00284563181264446	-0.00138960051956457	0.00118322390413361	-0.0128993860610313
6.5	0.00510166024956522	-0.00631612493183774	-0.00301031465272677	-0.000971046459789216	-0.00301820854175539	-0.000966500304139005	0.000660327938340648	-0.0132840751522298
6.6	0.00292870543650532	-0.00777992306138615	-0.00311388620217919	-0.000538891423553385	-0.00311554982278458	-0.000542880877949988	9.1692528884641E-05	-0.013667328455908
6.7	0.00045105462859276	-0.00850557267997162	-0.00315780386089193	-9.6445769212509E-05	-0.00316665519774115	-9.00893743521814E-05	-0.000771069704642062	-0.0139338367508031
6.8	-0.00204272420414488	-0.0084270501865396	-0.00312873529688384	0.000346500962640184	-0.00313982439910971	0.000351628551802541	-0.00177288385830353	-0.0139218501052954
6.9	-0.0042968379259581	-0.00776192955754279	-0.00304644081331597	0.000778274057227876	-0.00304941696651769	0.000780684062523592	-0.00269114198199128	-0.0137392997732727
7	-0.00622159817592434	-0.00665694131099165	-0.00290463501326927	0.00119494455598722	-0.00291747197705003	0.00119281271827589	-0.00357074159970766	-0.0134663805522633
7.1	-0.00799483984782334	-0.00528050763855789	-0.00272444250128059	0.00157837612639711	-0.00272074898111031	0.00158701796132636	-0.00447538881761255	-0.012989568093162
7.2	-0.00961814132656994	-0.0035118184468575	-0.0024684430056146	0.00194089255390485	-0.00247495725040444	0.00194298527324659	-0.00513690846991911	-0.0123302948903313
7.3	-0.0110157070656236	-0.00127613040136545	-0.0021760008653118	0.0022559418881323	-0.00218719152006022	0.00226100152004101	-0.00548278388374742	-0.011794402500502
7.4	-0.0119527746237618	0.00129799893287426	-0.00183893071698159	0.00253750960451076	-0.00184580843674975	0.00255110545062878	-0.00578507798377554	-0.011678901757591
7.5	-0.0122142008631082	0.00409874834569096	-0.00147797451639608	0.00277799665784591	-0.00147098905391057	0.00278540017963322	-0.00613572739881879	-0.0116666340073594
7.6	-0.0115987968739553	0.00687537661292129	-0.00107511143689605	0.0029603144765612	-0.00107648059717537	0.00295560882842137	-0.00657215605075155	-0.0116311265439874
7.7	-0.0107300084682135	0.00920390657601485	-0.000647652959177526	0.00308706165796416	-0.000648995111057502	0.00308599474098365	-0.00720684755715565	-0.0123073113267048
7.8	-0.00897869887913585	0.0112161091035998	-0.000219878059316239	0.00314184571021122	-0.000227726565587944	0.00314832085704846	-0.00814823286043901	-0.0125938866817146
7.9	-0.00672003977067517	0.0126451913517382	0.000226234963797738	0.00315356592733581	0.00023421980885394	0.00315507542320661	-0.00917750922275411	-0.0126789755352436
8	-0.00377590300627221	0.0133079677326582	0.00067524458079312	0.00308348362388972	0.00067533150882877	0.00308841511425121	-0.0101826085015927	-0.0121497753862192
8.1	-0.00113286619192495	0.0133866879593534	0.00109382050401282	0.00296463518583046	0.00111310618913225	0.00296567845244913	-0.011214798617804	-0.0116845993813333
8.2	0.00139772560400987	0.0129739144948595	0.00150606230593864	0.00277900789520821	0.00151534292202939	0.00277172041189824	-0.0119255861690837	-0.0109005672808452
8.3	0.00381019568847449	0.0122220994651941	0.00188794701451245	0.00253211888757134	0.00188637806533711	0.0025457698352223	-0.0124464753309402	-0.01017783802906
8.4	0.00611350661346214	0.0111186371700753	0.00222588992295066	0.00224465140039432	0.00222284052670971	0.0022444498464576	-0.0129925900471679	-0.00958387696805085
8.5	0.00822740000268796	0.00945765506379141	0.0025098496655616	0.00190376640570387	0.00250897867739994	0.0019069719648628	-0.0136895881457747	-0.00889889524041802
8.6	0.00987500245714201	0.00732593702381569	0.00275038073025424	0.0015342460328047	0.00275983578653592	0.00152759060545143	-0.0143183203739262	-0.00806096291353695
8.7	0.0109501629022876	0.00485630251146242	0.00292721998953488	0.00112512580621764	0.00293279012739504	0.00112578923670309	-0.0147616485044468	-0.00717986104709194
8.8	0.0114540524442103	0.00235208275026434	0.00305322853812731	0.00071151252873005	0.00305889471481943	0.000702705214187874	-0.015159113236513	-0.00641125887909204
8.9	0.0116552677778106	-0.000218758565681959	0.00311982833021916	0.000278976027157365	0.00311893803782602	0.000276745484097305	-0.0153673887794277	-0.00556560106162605
9	0.011476572266047	-0.00302830018761466	0.00312034795643883	-0.000158917393154524	0.00312352471576878	-0.000154865047141842	-0.0153856311269448	-0.00468101292068323
9.1	0.0106887362749906	-0.00603450509459262	0.00306784736140951	-0.000592231953921271	0.00307080704912769	-0.000579438001153275	-0.015211437858825	-0.00386329202432008
9.2	0.00907829947475156	-0.00894044448341213	0.00295591191059891	-0.00100054387665796	0.00296349968501484	-0.00100344228479523	-0.0149302022148295	-0.00322522022011995
9.3	0.00678686822903171	-0.0113836262692561	0.00278863760907076	-0.00139695760495688	0.00278789363874785	-0.00140190965138352	-0.014596825950149	-0.00270429709601271
9.4	0.0040434477851488	-0.01333084207615	0.00257055565060635	-0.00178024589980429	0.00257703867979709	-0.00177271258511361	-0.014392427917839	-0.0024051483683243
9.5	0.000799849294767765	-0.0144987654419155	0.00230165930107546	-0.00211072183280618	0.00230902690271867	-0.00211206626474889	-0.014318360483459	-0.00190801458900533
9.6	-0.00285801432241275	-0.0150873879034912	0.00199109077951737	-0.00241380007345876	0.00199141881265477	-0.00241282257320161	-0.0144854518892894	-0.00140967034630093
9.7	-0.00679709993159868	-0.0147100160809556	0.00162915872064608	-0.00266668591447865	0.00163468031148925	-0.002673963969936	-0.0145932180895083	-0.000718897933972217
9.8	-0.0106896170264635	-0.0133079328371397	0.00124705383700134	-0.00287970882343534	0.00125273525726071	-0.00287122352381124	-0.0146290074737092	9.64585009399799E-08
9.9	-0.0141841017142392	-0.0108371473690204	0.00084176896417228	-0.00302359661941582	0.000834443136163819	-0.00302237179899768	-0.0147734388752316	0.000791937354124717
10	-0.0170175830005566	-0.00772939964826562	0.000408943180478506	-0.0031164949577604	0.000401441483689865	-0.00312893327784391	-0.0148349962132368	0.00167925595038234
10.1	-0.0191506980004849	-0.00409982787861497	-3.77865010517969E-05	-0.0031493965991983	-4.80128641525868E-05	-0.00314397780574462	-0.0146638323963244	0.00258621007637407
10.2	-0.0205609349473037	-4.00692292470411E-05	-0.000488990158452341	-0.00311097100189083	-0.000492388988796531	-0.003108177785354	-0.0142210714150395	0.00343098780028297
10.3	-0.021075760032834	0.00441513412781799	-0.000925539979757791	-0.00300069704387696	-0.00091749490083836	-0.00300981216402137	-0.0135998199672256	0.00404415465822419
10.4	-0.0204812940879015	0.00895089298513148	-0.00132454575682436	-0.00283926708792969	-0.00132289122356832	-0.002845467639691	-0.0128697261298066	0.00429403372822235
10.5	-0.0188758015234937	0.0132552398922366	-0.00171451749894074	-0.00263253760929193	-0.00171132654502161	-0.00261959160456424	-0.0123171190830786	0.00442925013714192
10.6	-0.0164523075392139	0.0170780110836669	-0.00206180795162406	-0.00235516871150692	-0.00205966060436356	-0.00235899211812233	-0.0118812981845604	0.00453809360163868
10.7	-0.0134133736855835	0.0205204423078779	-0.00236841599294314	-0.00204793165546099	-0.00236490261672791	-0.00204271102911289	-0.0114589803841994	0.00475686730961441
10.8	-0.0096516208593894	0.023496755965217	-0.00262657406698835	-0.00168634142794357	-0.00262148124338635	-0.00169522970662062	-0.0110863084126299	0.00492185842574198
10.9	-0.00522176223593042	0.0257765950576403	-0.00282344514889534	-0.00131493255788294	-0.0028285759357209	-0.00131417879076229	-0.010811810372799	0.00506569804087435
11	-0.000187576549619989	0.0271125729952836	-0.00297255105098869	-0.000905700597672763	-0.00297736622359535	-0.000912342880122023	-0.0105926623962073	0.00537922439692803
11.1	0.00501403898961045	0.0273517967207086	-0.00307394778180921	-0.000491416805255704	-0.0030632197955585	-0.000488613829606207	-0.0102060293650833	0.0057725617380034
11.2	0.0101198946645468	0.0265687910698362	-0.0031008721137638	-6.65130373075673E-05	-0.00310793001358007	-7.12900198603117E-05	-0.00951956204240505	0.00612960737099368
11.3	0.0151086097683458	0.0249831744344102	-0.00307648588610148	0.000369166378591896	-0.00308785287410792	0.000359224356214118	-0.00859041879689107	0.00634304938072577
11.4	0.0197779365121081	0.0224562300170608	-0.00300954180779915	0.00078588572294144	-0.00300472343983848	0.000793386702198219	-0.00767463111834513	0.00611682909505238
11.5	0.0239879224663558	0.0189146368054112	-0.00287649331995128	0.00119382024432879	-0.00287931253191362	0.00120397047436442	-0.00708942058015327	0.00552318365229344
11.6	0.02753055252784	0.0144796090553652	-0.00269391817904314	0.00158090212715133	-0.00269392321155587	0.00158381713942044	-0.00661633179577348	0.00494109979826547
11.7	0.0301167059400868	0.00945362150637886	-0.00244421697195456	0.00193702268025834	-0.00244485306142423	0.001945565848109	-0.00616439328201637	0.00422409095371302
11.8	0.0318428677377437	0.00410091306976583	-0.00215849100964132	0.00227418988058416	-0.00216260256254941	0.0022758438283182	-0.00586258271246297	0.00341995794273877
11.9	0.0328444964892163	-0.00149016158548868	-0.00181550462240603	0.00255799937372779	-0.00182852736309154	0.00256218447860913	-0.00575037162423873	0.00297856848382191
12	0.0326570938927003	-0.00765508238936577	-0.00144451364925778	0.0027894711624737	-0.00144392904420468	0.00279088578480798	-0.00593572947422522	0.0024418774061853
