# GHZ S RI R 50
0.2	0.00511327125194919	0.000358330394292602	0.00304835369032953	-0.000899330852925844	0.0030587265389369	-0.000892525449574972	-0.0148170299630639	0.00404088427668449
0.3	0.00573659141368919	-0.000843612607549903	0.00290344147747744	-0.00132377949939625	0.00289620454320404	-0.00131083361534733	-0.0137115225721635	0.00498338982990225
0.4	0.00600648027627204	-0.00241017892268027	0.0026704034619276	-0.00169626884722359	0.00267566039906694	-0.00170483547241191	-0.0126923226927319	0.00560723247788831
0.5	0.00555283221279918	-0.00417219418341175	0.00240956245453559	-0.00205297346649136	0.00242107611055728	-0.00206522755641652	-0.0119471588384069	0.00586936843026739
0.6	0.00435613198178142	-0.00565434324665562	0.00209489567378076	-0.00236641051045934	0.00209409603931588	-0.00237355257424448	-0.0116576185449502	0.00605984421301835
0.7	0.00260790821757268	-0.00647213098928991	0.00174595422489448	-0.00264203220165846	0.00174400059633212	-0.00264222658755578	-0.0117379162148498	0.00657640725328572
0.8	0.00088320832331146	-0.00655172181083701	0.00135965375380774	-0.00285636938108319	0.0013470706588931	-0.00286088184506918	-0.0117283698043717	0.0075889696066548
0.9	-0.00056989409887215	-0.00607514413667918	0.000943033230920421	-0.00301637569258149	0.00094404428201119	-0.00302704687287335	-0.0113153943758601	0.00877715652487291
1	-0.0015964979983995	-0.00549116075554416	0.000520108866040259	-0.00311641382489955	0.000510280065315379	-0.00311713587075217	-0.0104736211043919	0.00978950468926396
1.1	-0.00252430216181412	-0.00509788547689703	6.78625994707376E-05	-0.0031426723708843	6.43523046107094E-05	-0.00316024879021228	-0.00961201084272271	0.0104780769677396
1.2	-0.0036726382418453	-0.00496658497756803	-0.000370037080792325	-0.00313081846917419	-0.000370844797965421	-0.00312875090681244	-0.00866034461106984	0.0109673900752858
1.3	-0.00521267283691835	-0.00479721385573271	-0.000792627163250224	-0.00304807811231478	-0.000795851443344325	-0.00305007611474049	-0.00736787985031448	0.0114142881785042
1.4	-0.00658574828881694	-0.00426898279380083	-0.00120975454504208	-0.00290203699498152	-0.00120853907324756	-0.00290754398757329	-0.00586960267736652	0.0112952848198694
1.5	-0.00733046396871377	-0.00323394866111619	-0.00160752339954728	-0.00270976408394394	-0.00160589940115145	-0.00271822610350763	-0.00472592648218068	0.0108140473832615
1.6	-0.00759453633435613	-0.00168219153364174	-0.0019666124959452	-0.00246178049104352	-0.00196680783857278	-0.00246699675227054	-0.00440453186034721	0.0108045732723808
1.7	-0.00721948826552584	9.9281924489238E-05	-0.00229531117634099	-0.00216946835738279	-0.00229629467158029	-0.00216322802695996	-0.00391421470710027	0.0112981993631182
1.8	-0.0062572290324194	0.0018336124151998	-0.00256831674042357	-0.00182188812211035	-0.00257923970642778	-0.00182755154886661	-0.00311180521151599	0.0117476608521698
1.9	-0.00482852035318495	0.00303372428127696	-0.00279673923717902	-0.00145382774176634	-0.00280918401066528	-0.00144772625699304	-0.00221303367630673	0.0119636577170322
2	-0.00331375938966478	0.00368596954782168	-0.00297602850732889	-0.00104726888154683	-0.00298565954663475	-0.00104259455993723	-0.0014500355570399	0.012053159975541
2.1	-0.00190755086717485	0.00389136823065145	-0.00309284600208208	-0.000618344223962465	-0.00308875751554633	-0.000620324580997801	-0.000724861171060362	0.0120735614141992
2.2	-0.000649466626278448	0.00395242721625333	-0.00315261868193798	-0.000178307674323331	-0.00316391936637516	-0.000181168322660796	0.000106212985748931	0.0121384997923162
2.3	0.000644161370196946	0.00379166230534245	-0.00314897154620181	0.000267489275450921	-0.0031486593297334	0.000260604387967671	0.00103686866118082	0.0120841412256737
2.4	0.00201142411038017	0.00336048174591652	-0.00307604009227072	0.000708088038298978	-0.00307857864539995	0.000703828162494826	0.00209734424921091	0.0119177934465956
2.5	0.00332015831498538	0.00241795660879732	-0.00293725534690852	0.00112178904229613	-0.00294814248621868	0.00112816623831607	0.00319125167574659	0.0114034767010086
2.6	0.00432419129649755	0.00104647609951409	-0.00276095762896709	0.00152488388183184	-0.00275740737475117	0.00151257106075091	0.00409622314772568	0.0106490928781316
2.7	0.00495103077599563	-0.000487553414203144	-0.00251279289422439	0.00189474037435073	-0.00251806423275512	0.0018947537226028	0.00465769631494961	0.00987795710855816
2.8	0.00539162778466376	-0.00207633136777075	-0.00222848486645807	0.00221935303755181	-0.00222068726181577	0.00222911600731864	0.0050771950890273	0.00935621838100746
2.9	0.00571618205412155	-0.00386536756259302	-0.00189429944895037	0.00251571927270833	-0.0018906025140498	0.00251529413144611	0.00571692295666376	0.00898897700224605
3	0.00560985560915957	-0.00593315348027744	-0.00151011848337896	0.00274735697274898	-0.00152484589897198	0.00275342008749229	0.00645775634857192	0.00856649316922401
3.1	0.00495373891748964	-0.00803386563833431	-0.00112372954213197	0.00292159268010059	-0.00111910804474272	0.00292990722029484	0.00707549339990226	0.0080551520768936
3.2	0.00366280192229218	-0.00989202526534837	-0.000708493331140014	0.00305751045583809	-0.00071022817337267	0.00305689746603839	0.00748687270571115	0.00770559734202857
3.3	0.00204787495601882	-0.0114802007234886	-0.000275881543754356	0.00312840420431281	-0.000274224563757186	0.00312468681696921	0.008145097775171	0.00733832574076835
3.4	9.75899573520579E-05	-0.0127352809676591	0.000165700186762324	0.00312591863080903	0.000159431947873069	0.00314238928681615	0.00890982094005253	0.00663987753177035
3.5	-0.00215438392617773	-0.0137597955974392	0.000583721052744446	0.00308849710880021	0.000589300547292431	0.00308860682413617	0.00935788052879238	0.00557985253577806
3.6	-0.00482438984813436	-0.0142964912658135	0.00101083329372859	0.00297615537076731	0.00101901362372576	0.00297589438602829	0.00948779966312661	0.00468430623559267
3.7	-0.00764231836150603	-0.014114935948343	0.00142282231095673	0.0028022355307492	0.00141314134550012	0.00281583753847754	0.00965324990015812	0.003997948161106
3.8	-0.0103072255379723	-0.0132084011441203	0.00180492259816153	0.00258118953449013	0.00180726372203976	0.00259036591432543	0.00990831520006809	0.00334107898781145
3.9	-0.0125014382517846	-0.0118409415947972	0.00215671167147069	0.00231227748723797	0.00214944136262021	0.00231044475824861	0.0101892058852934	0.00255850675736172
4	-0.0143734207364209	-0.0102760299920813	0.00244844617315728	0.00199260058196246	0.0024529252620659	0.00199018463615256	0.0104053560294655	0.00173499511340659
4.1	-0.0160631284783946	-0.00847685958095755	0.00270740400678183	0.00163151138522429	0.00270614220825894	0.00163224405900853	0.0106007200162826	0.000959299983143816
4.2	-0.017550162539389	-0.00625308078087558	0.00291249136786086	0.00122664383102401	0.00291701330748247	0.00121790230703629	0.0107799908794095	0.000220490786993279
4.3	-0.0185656379881355	-0.00371221676461089	0.00305926475231003	0.000809256399307689	0.00306574095007901	0.000801430494219474	0.0110037648884992	-0.000627620901900645
4.4	-0.0190808465587723	-0.000992220461577001	0.00313679785699657	0.000369158179580237	0.00313918721534992	0.000366893944404437	0.0111008010127266	-0.00159206552262185
4.5	-0.0191114349386649	0.00171098366357069	0.00315832181426436	-7.42973458113608E-05	0.00316370704143623	-7.76833473675493E-05	0.0110775095155058	-0.00263205593760244
4.6	-0.0188508786398192	0.00431957973587481	0.00311110554684533	-0.000521090780201015	0.00311234387803219	-0.00050813224508547	0.0107757001495872	-0.0037395757528783
4.7	-0.0181497793511987	0.00701429340103787	0.00300174505221849	-0.000941724316422805	0.00301706089102107	-0.000951378613313359	0.0102587054634889	-0.0046665293088378
4.8	-0.0169507368403236	0.00967635207445839	0.00283664850888671	-0.00135540035948819	0.00284513312635548	-0.00136150601780269	0.00972662586426165	-0.00535983441862153
4.9	-0.0149302155250595	0.0120596883484212	0.00261301066214508	-0.00173720934508677	0.00261718028497814	-0.00173430610497971	0.00935292580845998	-0.00592596017611245
5	-0.012437183539253	0.0137762966346468	0.00235231203793816	-0.00208888756963265	0.00235593191191567	-0.00208622471098634	0.0092030565500108	-0.00646907455168432
5.1	-0.00962844947832058	0.0149341802534945	0.00204278721106393	-0.00239598129305521	0.00204508400206793	-0.00239462288940556	0.00909314029681209	-0.00709847862239273
5.2	-0.00678331719934039	0.0155954792169022	0.00168845852739697	-0.00264348825725774	0.0016901800769309	-0.00264862057356071	0.0089871002429735	-0.00767017631073216
5.3	-0.00375479802637866	0.0157876045041416	0.00130632678708065	-0.00285849760622522	0.0013094490254121	-0.00285642718080633	0.0089897681729439	-0.00823659968745357
5.4	-0.000688292326254897	0.0153159695885047	0.000886225133656091	-0.00300811422642492	0.000903429449867043	-0.00301924287908801	0.00901166570356454	-0.00917153151095714
5.5	0.00204741521290825	0.014170150695862	0.000476377430945568	-0.00311034902182251	0.000486483667856464	-0.00311972985877715	0.00859643581846268	-0.0103577936628596
5.6	0.00423293365336092	0.0125662077087025	3.95077797468069E-05	-0.00315268609477921	3.09853362098675E-05	-0.00315595867280601	0.0076351569967353	-0.0112666825904682
5.7	0.00583458440672609	0.0108704279997794	-0.000392738423238815	-0.00312906235911765	-0.000409383528541299	-0.00313283006254448	0.00651655669216458	-0.011643961679159
5.8	0.00715715481708305	0.0091218087714718	-0.000842905072385884	-0.00304048961394522	-0.000846381903947066	-0.00305456347008708	0.0056312539725947	-0.011929520196581
5.9	0.00825850410801914	0.00726646268592731	-0.00125438383053342	-0.00290493392269668	-0.00126266465863809	-0.00290488955273018	0.00476067549808269	-0.0122479609657325
6	0.00902139883184087	0.00504464104908837	-0.00166092133271392	-0.0027002637517129	-0.00165733395735665	-0.00270041946895741	0.0037037852237454	-0.0125210912468775
6.1	0.00921037961473308	0.0025435030148906	-0.00202445882771765	-0.0024440001578475	-0.00202611891257183	-0.00243996709353255	0.00270238928623575	-0.012557144372366
6.2	0.00871151942270588	-3.70522100260049E-06	-0.00234450719007366	-0.00212578803677462	-0.00234824435242329	-0.00213775834228798	0.0019040051350525	-0.0125628087384356
6.3	0.00775096743747229	-0.00237866277078715	-0.00262726314440132	-0.00178398104602913	-0.00263645761916359	-0.00177818171404961	0.00128928262853738	-0.012766916138264
6.4	0.00638514724817867	-0.0046582449364497	-0.00285531832362639	-0.001384500995667	-0.00284553483904513	-0.00138947099920147	0.000738824106319495	-0.0131658170048351
6.5	0.00452619018603851	-0.00672949592164046	-0.00301018675585747	-0.000970951070736646	-0.00301808019400367	-0.000966405003482881	6.35266679109908E-05	-0.0136637951781965
6.6	0.0021109855004718	-0.0081473200029446	-0.00311374427119967	-0.000538836249145902	-0.00311540785129995	-0.000542825499151756	-0.00074511176656397	-0.0139866938988999
6.7	-0.00048488571670473	-0.00864647631606747	-0.00315766369253734	-9.64254336667254E-05	-0.00316651460279935	-9.00692769017393E-05	-0.00171281928903927	-0.0140190533261117
6.8	-0.00287898161674762	-0.00836711898848938	-0.00312860064111505	0.000346496274541584	-0.00313968925345117	0.000351623680723386	-0.00260316687731258	-0.0138116135086808
6.9	-0.00496150917082198	-0.00769526106887171	-0.00304631166337956	0.000778242272278372	-0.00304928768975178	0.000780652176817045	-0.00334983551251887	-0.0136325098114466
7	-0.0068466463993692	-0.00672010405858865	-0.00290451667716717	0.00119488579212635	-0.00291735309590019	0.00119275400583816	-0.00419756424909457	-0.0134909038840635
7.1	-0.00876099971052394	-0.00540773727533323	-0.0027243442548156	0.00157829363516834	-0.00272065094353047	0.0015869351492841	-0.00524720328052378	-0.013068588784649
7.2	-0.0105461435871078	-0.00349494209775541	-0.00246837313802025	0.00194079641559503	-0.00247488716711084	0.0019428889915442	-0.00606086139646522	-0.0122540861326385
7.3	-0.0119151150784057	-0.000979658082317827	-0.00217595907482487	0.00225584693782759	-0.00218714943981672	0.0022609062846092	-0.00636018641299966	-0.011440319088882
7.4	-0.0126032709163194	0.00177657304228206	-0.00183890416614144	0.0025374276188912	-0.0018457818214616	0.00255102305098652	-0.00640230299316713	-0.0111584657813884
7.5	-0.0125616678950934	0.00453595073746249	-0.0014779486698149	0.00277792424858406	-0.00147096340252092	0.00278532761624815	-0.00645247103361371	-0.0112066827088426
7.6	-0.0117617721760296	0.00711994417754679	-0.00107508168570985	0.00296024136534752	-0.00107645081619282	0.00295553583636219	-0.00671558770495769	-0.0113750664137697
7.7	-0.0108538330689701	0.00931380560519743	-0.000647630988073714	0.00308696889602413	-0.000648973100235811	0.00308590201232216	-0.00732129461071661	-0.012188136075576
7.8	-0.00904397468438651	0.0111779982917632	-0.000219873569246201	0.00314174051098197	-0.000227721819115195	0.00314821543428247	-0.00821306039162665	-0.0126273104224801
7.9	-0.00680731140888066	0.0123522586157866	0.000226212819417232	0.00315344935581327	0.00023419736025974	0.0031549588301315	-0.00928321289997695	-0.0129653956168742
8	-0.00405908416268363	0.0127908467965754	0.000675184088223563	0.00308336514110193	0.000675270959992884	0.00308829643135479	-0.0104990120229711	-0.0126469463386085
8.1	-0.00173725322447736	0.0128383558823914	0.00109373158068957	0.00296452633268041	0.00111301643957726	0.00296556983461755	-0.0118552500672698	-0.0121894242965061
8.2	0.000576222709878982	0.0125993603565712	0.00150594476704345	0.00277892144090703	0.00151522513880927	0.00277163444442447	-0.0127710302356447	-0.0112146516028308
8.3	0.00297477057261216	0.0120468334067645	0.00188780997847644	0.00253205901016028	0.00188624077370725	0.00254570935952372	-0.0132905424416268	-0.0102912427024529
8.4	0.00536646266112514	0.011004207367999	0.00222573738647042	0.00224461878727853	0.00222268812161735	0.00224441715933592	-0.0137436350514434	-0.00964270660476196
8.5	0.007489645935876	0.00927957073908796	0.00250968486305015	0.00190376669755203	0.0025088138095584	0.00190697209567655	-0.0144363709251733	-0.00902172176442624
8.6	0.00900290641448	0.00712687817549009	0.00275021224035136	0.00153428646229494	0.00275966716207697	0.00152763165670057	-0.0152013050220745	-0.00819428523043355
8.7	0.00992835306529456	0.00480975734131397	0.0029270630042371	0.00112520513050365	0.0029326329047952	0.00112586876756432	-0.0157827096067823	-0.00714831762044619
8.8	0.0104614326693308	0.00256177640453775	0.00305308883288402	0.000711625163102257	0.00305875520711057	0.000702818414545401	-0.0161306320621889	-0.00612497099038753
8.9	0.0108748317330508	0.000134138603000271	0.00311971090922054	0.000279120060111206	0.00311882075603142	0.000276889547449313	-0.0161150127240365	-0.00515266501066053
9	0.0108955470474059	-0.00273000464158033	0.00312026214751221	-0.000158743619311377	0.00312343859128488	-0.000154691223900774	-0.0159382846200799	-0.00433819016455063
9.1	0.0101631381993989	-0.00584413304790428	0.0030678093229956	-0.000592036728726478	0.00307076818488465	-0.000579242905674319	-0.0157175208569443	-0.00363243198165906
9.2	0.00857097776791688	-0.00877572404211759	0.00295592200153428	-0.00100034178704294	0.00296350982240833	-0.00100323967056741	-0.0154203299851071	-0.00302122321638985
9.3	0.00637033530122259	-0.0112462094504608	0.00278869966047484	-0.00139676274529695	0.0027879560184345	-0.00140171478938049	-0.0149985642181133	-0.00253429684761794
9.4	0.00371624596101472	-0.0133432291998609	0.00257066387638534	-0.00178006213416614	0.00257714636065516	-0.00177252841606108	-0.0147171711115203	-0.00239168781719339
9.5	0.000414718207749964	-0.0146959060106678	0.00230178979508058	-0.00211058357469654	0.00230915748506416	-0.00211192755913811	-0.014716391403074	-0.00207450089923831
9.6	-0.00343951205772972	-0.0153618499395968	0.00199124334033033	-0.00241369528999198	0.00199157131782039	-0.00241271776514204	-0.0150872895127554	-0.00163682783742088
9.7	-0.00754151805413856	-0.0148794125809313	0.00162932631385912	-0.00266661580090594	0.00163484837191449	-0.00267389360319662	-0.0153502054881036	-0.00082534390372108
9.8	-0.0114334142080577	-0.0133098959787268	0.00124723005524307	-0.00287967438990249	0.00125291107109107	-0.00287118866895467	-0.0153695563031424	6.19931806993302E-05
9.9	-0.0148018494247623	-0.010772815177169	0.000841935448663218	-0.00302360009400308	0.000834609446528619	-0.00302237562718303	-0.0153821086866768	0.000910045508806987
10	-0.0175597941646526	-0.00772787838492746	0.000409107103701884	-0.00311652502531174	0.000401605912604271	-0.00312896392643716	-0.0153739267325488	0.00172870324538368
10.1	-0.0197268816291629	-0.00414991953947521	-3.76269371057984E-05	-0.00314945660204461	-4.78537645197552E-05	-0.00314403822912638	-0.0152403072312287	0.0025875034284733
10.2	-0.0211707318376878	-3.66822636292145E-05	-0.000488844102425223	-0.00311106288025531	-0.000492243146898864	-0.00310826977451983	-0.0148265214818768	0.00348918416039894
10.3	-0.0215987970520535	0.00448938945159475	-0.000925416459847677	-0.00300081486518176	-0.000917370742380544	-0.00300992981513826	-0.0141120186912777	0.00416641440190201
10.4	-0.0208555409771422	0.00896369715101454	-0.00132444726246425	-0.00283940216006776	-0.00132279239695234	-0.00284560279439041	-0.0132379898602059	0.00434154374190138
10.5	-0.0192103193429693	0.0130841151852085	-0.00171444367602376	-0.00263268542227178	-0.00171125322461758	-0.00261973892836708	-0.0126624781196764	0.00428819474060648
10.6	-0.0169058073267263	0.0167657746774373	-0.00206175810512172	-0.00235532504081382	-0.0020596105281678	-0.00235914845457133	-0.0123593937764275	0.00426785711018971
10.7	-0.0140107865795634	0.0202111512914109	-0.00236838846265758	-0.00204809799487665	-0.00236487522760664	-0.00204287706037032	-0.0120801898158209	0.00450307855357951
10.8	-0.0102913428208284	0.0232430411260061	-0.00262657261129524	-0.00168651900102085	-0.00262147920545976	-0.00169540730421235	-0.0117451304544173	0.00472816185714111
10.9	-0.00584911906558852	0.0254995128470925	-0.00282347996582429	-0.00131513010958669	-0.00282861098183718	-0.0013143765853435	-0.0114594577283	0.00484659245568155
11	-0.000901794712993851	0.026747547732239	-0.00297263874405087	-0.000905898230385159	-0.00297745378642334	-0.000912541068540616	-0.0113368278421004	0.00508058550536794
11.1	0.00409263211138256	0.0269924319212313	-0.00307408952452343	-0.000491591546832824	-0.00306336109606134	-0.000488787902751562	-0.0111576743958569	0.0055000874998609
11.2	0.00902116363598399	0.0263977235150767	-0.00310105268416376	-6.66467245898169E-05	-0.00310811080140651	-7.14242849303457E-05	-0.0106315201577189	0.00606377065251926
11.3	0.0140095958726144	0.0250948367872705	-0.0030766875036787	0.000369071156391592	-0.00308805480399798	0.00035912809315791	-0.00967394971682294	0.00656334675992022
11.4	0.0188396853341879	0.0227324706906385	-0.00300976610794917	0.000785839399533231	-0.00300494766668264	0.000793341031142281	-0.00858136065107584	0.00648696592894982
11.5	0.0231819918597494	0.0192097873715882	-0.00287671656085588	0.00119383529573285	-0.00287953619827464	0.00120398615168942	-0.00786288746363186	0.00589811063447306
11.6	0.0267879802416229	0.0148034462431263	-0.002694129146852	0.00158096440544438	-0.00269413422922853	0.00158387961684725	-0.00732233128667298	0.00534058274737158
11.7	0.0294766330230091	0.00986946450480983	-0.00244441073418279	0.00193712503896636	-0.00244504697750455	0.00194566878877274	-0.00675738992149546	0.00470441398495451
11.8	0.0314285322462097	0.00455291482176829	-0.0021586640635927	0.00227433633131794	-0.00216277592504343	0.00227599036553403	-0.00622651555562047	0.00391452795307392
11.9	0.0326761018057082	-0.00118175950914865	-0.00181563911339634	0.00255818634018109	-0.00182866281218965	0.00256237174626487	-0.00588277778042748	0.00330458476253479
12	0.0325627558521324	-0.00762434311024557	-0.00144459810133947	0.00278967705080121	-0.00144401344616702	0.00279109176929185	-0.00602237079470511	0.00248416881603454
