# GHZ S RI R 50
0.2	0.00638154652781589	0.000754166645890201	0.00304834888869157	-0.000897878985012765	0.00305871740261346	-0.000891069930834779	-0.0135421158139686	0.00443320974170319
0.3	0.00636091498483405	-0.00103539106398399	0.00290415866224572	-0.00132123851772628	0.00289691205175071	-0.00130830018110421	-0.013083869627712	0.0047774337878334
0.4	0.00601453315281311	-0.00233565626438782	0.00267259085360607	-0.0016929566509214	0.00267785865444608	-0.00170151687213629	-0.0126955664619292	0.00565902606615991
0.5	0.00550053942416311	-0.00342957280569603	0.00241381977648602	-0.00204962526184798	0.00242535787526216	-0.00206186417856936	-0.0120325012258265	0.00659188614459229
0.6	0.00483678738296234	-0.0044378907700016	0.00210137538156938	-0.00236409417314658	0.00210058953289735	-0.0023712436396236	-0.0112286879023574	0.00727233302437247
0.7	0.00381659688659981	-0.0053588517486192	0.00175431783268532	-0.00264186493394176	0.0017523618795362	-0.00264206395577644	-0.0105881664684517	0.0077091591076114
0.8	0.00248022171372909	-0.00605337818598618	0.00136898747325417	-0.00285928915765539	0.00135638816657348	-0.00286383963496019	-0.0101855330172768	0.00812720076684312
0.9	0.00078628054585158	-0.00624055691518554	0.00095200384434928	-0.00302290578794642	0.000953040076311101	-0.00303360493571401	-0.0100034600750056	0.00866210948840354
1	-0.000921514115647652	-0.00583389780658429	0.000527223436541241	-0.00312640843900589	0.000517361552542576	-0.00312714971763436	-0.00983619028217403	0.00949922382179455
1.1	-0.00240134800012857	-0.00495202570894571	7.1632673261791E-05	-0.00315531004192015	6.81277280859982E-05	-0.00317296146813964	-0.00952434103829431	0.0106767171020633
1.2	-0.00349258997656211	-0.00409011179892748	-0.000370496292635733	-0.0031448075723724	-0.000371308360696199	-0.00314273116750747	-0.00850725626151655	0.0119084920654266
1.3	-0.0045604190967891	-0.00358264846912978	-0.00079764699901673	-0.00306170822260782	-0.000800886983187047	-0.0030637139332011	-0.00672213992580187	0.0127013524950498
1.4	-0.00559858800494594	-0.00307848707475757	-0.00121900928565351	-0.0029135592435508	-0.00121779552254092	-0.00291909268957866	-0.00487704343376925	0.0125777087281384
1.5	-0.00601019515434734	-0.00208505313722492	-0.00161995640912221	-0.00271777958929443	-0.00161834332289279	-0.00272628056429718	-0.00338205060279064	0.0120731846672136
1.6	-0.00585548839391064	-0.000838946668008705	-0.00198062789470207	-0.00246543160744084	-0.00198083831209916	-0.00247066653545216	-0.00263924185183001	0.0117660637275864
1.7	-0.00536355625548664	0.000350028561274212	-0.00230920040585622	-0.00216861589212085	-0.00231016678730592	-0.00216235361079505	-0.00200344410102595	0.0116579517333487
1.8	-0.00470940837439113	0.00162651772067386	-0.00258039230431463	-0.00181713124075448	-0.00259135943206663	-0.00182276973751376	-0.00150198954441649	0.0116144184642375
1.9	-0.00374146221648421	0.00277538780941177	-0.00280589955067305	-0.00144638220459821	-0.00281834188880611	-0.0014402288705324	-0.00107557139741252	0.0117549620249461
2	-0.00244031905565951	0.00369606836060446	-0.00298174203559344	-0.00103863851516563	-0.00299136591041237	-0.00103392981117985	-0.000550554917169324	0.0121079971038466
2.1	-0.000883234652442203	0.00411799729898644	-0.00309534991005986	-0.000610081031810976	-0.0030912657365052	-0.000612073053166482	0.000309966184527735	0.0123607524177822
2.2	0.000637440438712834	0.00405482248613416	-0.00315280990920093	-0.000171602740170178	-0.00316411599630996	-0.000174439222424932	0.0014090809427506	0.0123221484998943
2.3	0.00191932322445699	0.00350667550288338	-0.00314816574751886	0.00027203974377022	-0.00314786359878372	0.000265155311685318	0.00234761361998077	0.0118833678940072
2.4	0.00288302463004073	0.00282260255142653	-0.00307565010497109	0.000710626065624516	-0.00307819226636185	0.000706367993843376	0.0030123605846791	0.0114357499144823
2.5	0.00369204590978009	0.00205202626958994	-0.00293840998065426	0.00112315615166352	-0.00294930078904643	0.00112953952053463	0.00358574965749251	0.011072292618289
2.6	0.00451790306701222	0.00113741446761671	-0.00276421175723323	0.0015264116488991	-0.00276065654437287	0.0015140850897648	0.00427890845477161	0.0107755268188404
2.7	0.00530313882935168	-6.41364448126852E-05	-0.0025179381053712	0.0018979148889909	-0.00252321952888327	0.00189792731964767	0.00497703170046269	0.0103578991221973
2.8	0.00591668364803274	-0.00154994614710591	-0.00223459427125084	0.00222545815185315	-0.00222677520760993	0.00223524789585967	0.00556246814421128	0.00996254151834371
2.9	0.00632051713839309	-0.00323076677950174	-0.00189976526829217	0.00252556261639427	-0.00189605545244495	0.00252513414468085	0.00627895062961046	0.0097358022118706
3	0.00641172308571809	-0.00510206926269756	-0.00151296341929701	0.00276078069395804	-0.00152774485140269	0.00276688787372129	0.00722795262966085	0.00954671116651158
3.1	0.00615188970062951	-0.00714107727038669	-0.00112223438542294	0.00293759520145892	-0.00111757266346352	0.00294593744648555	0.00826687012921596	0.00912861193523191
3.2	0.00522617159481919	-0.00924881906786935	-0.000701314381754937	0.00307435958317303	-0.000703059510093057	0.00307374967223883	0.00909588062847954	0.0085578893642869
3.3	0.00367296176920105	-0.0112293313564665	-0.000262551429220288	0.00314368024834491	-0.000260904344368345	0.00313993852117748	0.00987957603648885	0.00778661236401854
3.4	0.00153825621968439	-0.0127015666348384	0.000184500541742847	0.00313705815503825	0.000178303715202543	0.00315362899069373	0.0105036817693161	0.00682911106947178
3.5	-0.000849901896374176	-0.0137012330074899	0.000606382108885586	0.00309362330183021	0.000611978759128644	0.00309369550355591	0.0108360979522099	0.00574311348932791
3.6	-0.00343177493844801	-0.0141894643528791	0.00103489653379883	0.00297382229740968	0.00104308930100393	0.00297349960070283	0.0110551325352896	0.00486054954646151
3.7	-0.0061212631341795	-0.0141916978097747	0.00144542091085595	0.0027922322931472	0.0014358427155629	0.00280591599844476	0.011356226522672	0.00394686845411151
3.8	-0.00890402272188954	-0.0135869659421638	0.00182341019941213	0.00256450005002051	0.00182582103768472	0.00257364907745633	0.011485089049893	0.00292576606291945
3.9	-0.0114491945440166	-0.0123109878901341	0.0021690026721044	0.00229081773341947	0.00216173547657714	0.00228904356306948	0.0113647078065526	0.00198773663859154
4	-0.0135790038595699	-0.0105263610238101	0.00245340486494101	0.00196911712266259	0.00245785204397938	0.0019666792932584	0.0112353733001286	0.00135628953582345
4.1	-0.0152298139102007	-0.00846847026619552	0.00270499270915401	0.00160869161518554	0.00270374067848313	0.00160942838547442	0.011386832763833	0.000864184917288219
4.2	-0.0165583260084699	-0.00621605147368345	0.00290375074616566	0.00120702417098076	0.00290820963276	0.00119830497531112	0.0116782741332121	0.000204450761085182
4.3	-0.0175808468053549	-0.00380126044429102	0.00304619123426457	0.000794567997444042	0.00305260703015211	0.000786760419540217	0.0118724883889481	-0.000739104182894743
4.4	-0.0182952303662914	-0.00107688193779629	0.00312183647185564	0.000360223893379364	0.00312420869221349	0.000357965669266203	0.0117461277201793	-0.00167083798480995
4.5	-0.0184550712859248	0.00187179699210737	0.00314385824530334	-7.78568263488761E-05	0.00314921478854926	-8.12340656967851E-05	0.0115623295488647	-0.00242265789721836
4.6	-0.0180554652524688	0.00476776319396624	0.00309906198596436	-0.000520579881127366	0.00310030172403426	-0.000507671071478146	0.0114007078395727	-0.00316698620417005
4.7	-0.0170691712638466	0.00752092674635708	0.00299315186322881	-0.000939129421893493	0.00300842370830484	-0.000948756643123427	0.0112034345542189	-0.0039828370340981
4.8	-0.0157038578901116	0.0100520536689832	0.00283145776186992	-0.00135280733437089	0.00283992691982463	-0.00135890145090179	0.0108955616980304	-0.00480463924586622
4.9	-0.0137136412724984	0.0123546978640439	0.00261017293040219	-0.0017363979784078	0.00261433964454361	-0.0017334985302755	0.0105142933517548	-0.00547145444690609
5	-0.0111893896945963	0.0141537465324111	0.00235001397093994	-0.0020908651377401	0.00235363592185667	-0.00208820607936992	0.0103936768164628	-0.00594588526170216
5.1	-0.00814930600313926	0.0153074964623943	0.0020389301673533	-0.00240068390365076	0.00204123032591227	-0.00239932940235982	0.0105142927235712	-0.00657902705679427
5.2	-0.0051245150222113	0.0156885952922521	0.00168123052147092	-0.00264972044437434	0.00168293736224131	-0.00265486017275928	0.0105954066481819	-0.00743855955488412
5.3	-0.00223581498883519	0.0155511622618652	0.00129459064856495	-0.00286423205933628	0.00129772182432466	-0.00286217438375065	0.0104481867855137	-0.00835716135752051
5.4	0.000512623450183877	0.0150395759098847	0.000870057646659009	-0.00301081012719559	0.000887193344870071	-0.0030220210044988	0.0101064143603673	-0.00934188501585708
5.5	0.00312365712754553	0.0141257092223582	0.000456942915110315	-0.00310781514139359	0.00046697553016451	-0.00311724020740692	0.00950894398042081	-0.0102579240471015
5.6	0.00550273833767852	0.0126786777240936	1.90978026061258E-05	-0.00314317079166122	1.05807094090585E-05	-0.00314637838655447	0.00872087262098627	-0.0109275200914631
5.7	0.00735724039176988	0.010788732255714	-0.000411154509442636	-0.0031120437153957	-0.000427746955911618	-0.00311568635245127	0.00789941734855669	-0.0114135536972792
5.8	0.00863065407348803	0.00865602471502898	-0.000856109071852249	-0.00301665542105112	-0.000859649639595572	-0.00303062152351257	0.0070457138516642	-0.0120532019665098
5.9	0.00934031168751793	0.00657630118587143	-0.00125999045939712	-0.00287641559886279	-0.0012682083547783	-0.00287632850705432	0.00585032373313418	-0.0126242267053276
6	0.0096681496762384	0.00450866345426749	-0.00165714450136883	-0.00267009127383936	-0.00165358906534954	-0.00267025987934738	0.00437609915115085	-0.0127853473880335
6.1	0.00970090010046475	0.00238155067105738	-0.00201115855895385	-0.0024157027141362	-0.00201279288266782	-0.00241170404143857	0.00321170149974911	-0.0124640033577474
6.2	0.00930095500161012	9.70422357639581E-05	-0.00232286877056446	-0.00210284221049042	-0.00232657812252099	-0.00211469067719828	0.00251961062825074	-0.0122063355819953
6.3	0.00842846168283057	-0.00216598770032773	-0.00259960546246694	-0.00176886026348957	-0.00260871462590124	-0.00176312699349019	0.00200952522031822	-0.012313083385751
6.4	0.00708296033205905	-0.00422439909362303	-0.00282493808211213	-0.00137893487640185	-0.00281523344879309	-0.00138383283774174	0.00145123183830626	-0.0125243177697033
6.5	0.0054988225485289	-0.00601271438976252	-0.00298075746709643	-0.000974855720524101	-0.00298860232438804	-0.000970380007236605	0.000998889000232438	-0.0127227764649895
6.6	0.00358088230450143	-0.00746898190583926	-0.00308840071792015	-0.000550933192968503	-0.00309003173416704	-0.000554902071842667	0.000685077665702353	-0.0130230106725501
6.7	0.00127926540900701	-0.00839395834255761	-0.00313875318723188	-0.000114312322738424	-0.0031475898033506	-0.000108044804972125	6.87835796730358E-05	-0.0134496383686515
6.8	-0.0012498831900047	-0.00854790591986482	-0.00311729629681902	0.000325958906066917	-0.00312836858863914	0.000330996803143092	-0.000902365396715715	-0.0137016929029407
6.9	-0.00366624465540992	-0.00793450715538143	-0.00304226478109707	0.000758160110194189	-0.00304524653697611	0.000760545730626177	-0.00199383148162304	-0.013619467080461
7	-0.00566531287101863	-0.00675038340494739	-0.00290617201178177	0.00117782344303075	-0.00291897701832662	0.00117562795782372	-0.00297694516013664	-0.0132748329005819
7.1	-0.00734915155953372	-0.00529979844037162	-0.00272920331440403	0.00156566825531595	-0.00272554916452315	0.00157431961063717	-0.00379368828028532	-0.0126847230987376
7.2	-0.00882041337908999	-0.0036216728657522	-0.00247379298979468	0.0019328394977237	-0.00248031205598079	0.00193491170965884	-0.00423972338150272	-0.0120831041355022
7.3	-0.0102006200852592	-0.00163351134059798	-0.00217959372993576	0.00225134694773786	-0.00219079080625972	0.00225638464560911	-0.00446255446852416	-0.0118300839602974
7.4	-0.0113144485550089	0.000787994629027014	-0.00183944639062258	0.00253426553892445	-0.00184632907992214	0.00254784620722011	-0.0049544464173247	-0.0119586440091815
7.5	-0.0118315939328984	0.00357669320706731	-0.00147531586332008	0.0027736171722635	-0.00146834107339632	0.00278100801521428	-0.00561171494769926	-0.0120773712849033
7.6	-0.0114713025492582	0.00637285015901489	-0.00107049825646453	0.00295260034655129	-0.0010718661242064	0.00294790862481829	-0.00625468536048971	-0.012137613302304
7.7	-0.0105499798722082	0.00882648372601597	-0.000643372814171775	0.00307468850170966	-0.000644709997032826	0.00307362667939162	-0.00701657609627755	-0.0125706539558095
7.8	-0.00887783472145297	0.0109084626952779	-0.000218614835493279	0.00312479543075147	-0.000226420593512913	0.00313123560195548	-0.00807013208289725	-0.012762828747697
7.9	-0.006540430143372	0.012488229385254	0.000221793385522313	0.00313303259772022	0.000229724289977065	0.00313453964147392	-0.00919356863139812	-0.0124877650831418
8	-0.00369179649697447	0.0133946905342412	0.000663160004225684	0.0030621214464328	0.000663234983020969	0.00306701649569173	-0.0102144323189422	-0.0118450117777745
8.1	-0.000726199998853044	0.0135236162281947	0.00107353541715285	0.0029455679295107	0.00109266496920117	0.00294667883953296	-0.0108727353461151	-0.0110562882916626
8.2	0.0019770316808116	0.0130269206022263	0.00147828610873495	0.00276580488425552	0.00148753558351164	0.00275862790663682	-0.0112605379483764	-0.0103269162105753
8.3	0.00439142619287219	0.0121397372936807	0.00185499015710968	0.00252783069934515	0.00185332958703805	0.0025413697956673	-0.0116388315067854	-0.00981280020321337
8.4	0.00659807129625552	0.0110225977923087	0.00219116214606727	0.00225109442716845	0.00218813378641545	0.00225086597719025	-0.01223179140763	-0.00936269126217603
8.5	0.00869267028418824	0.00948147501061734	0.00247755027653652	0.00192132358179029	0.00247664937286807	0.00192450448706022	-0.0129862562392595	-0.00865613799497255
8.6	0.0104866685750107	0.0074508536741015	0.00272439624921294	0.00156170037692694	0.0027339007500931	0.00155517462617197	-0.0135219860792409	-0.00774484220116463
8.7	0.0117655013765911	0.00492663506247547	0.00291097013909677	0.00115962408401438	0.00291652727427148	0.00116035447536224	-0.0137813694715172	-0.00693062226452109
8.8	0.0123560410598395	0.00219768565268216	0.00304845352436627	0.000749245935642405	0.00305423305743963	0.000740496004526597	-0.0140799294088559	-0.00643068840935546
8.9	0.0124525743907112	-0.000566569875998808	0.00312688429158744	0.000315612732206149	0.00312601661253952	0.000313364667482453	-0.0144264797073361	-0.00585598167519196
9	0.0121205744161473	-0.00341221020478069	0.00313775382059271	-0.000127503809280737	0.00314090479099093	-0.000123398190465906	-0.0146891959038419	-0.00505499229647027
9.1	0.0113015444616718	-0.00640806988671182	0.00309269390184721	-0.000569029595833728	0.00309555996343304	-0.000556127714351086	-0.0146434079605873	-0.00419471380219599
9.2	0.00966216899895774	-0.0093517556348095	0.0029842983273196	-0.000986998060025029	0.00299196128863392	-0.000989864080540258	-0.0144343367483735	-0.00354278208325299
9.3	0.00726470029543105	-0.0118311305567449	0.00281674041282892	-0.00139291453911663	0.00281601660499997	-0.00139790746867574	-0.0142356503968861	-0.00302477941353259
9.4	0.00436691908561043	-0.0136546243278985	0.00259520491726823	-0.00178406041617373	0.00260170820797767	-0.00177645045220106	-0.0142022819480067	-0.00254604086436748
9.5	0.00110889364630329	-0.0147082818399664	0.00232077387678054	-0.00211943031706275	0.00232819139847039	-0.00212076801123977	-0.014206548210061	-0.00185039039968793
9.6	-0.00241715167865156	-0.0151727281000671	0.00200424758046645	-0.0024243446096159	0.00200457626948804	-0.00242336159248067	-0.0142189293863268	-0.00112383279361473
9.7	-0.00620183698856063	-0.0148318063388265	0.00163729130619083	-0.00267626346267279	0.00164283936361511	-0.00268356698806979	-0.0140813491797003	-0.000410104281790874
9.8	-0.0100556822213403	-0.0135542233783248	0.00125231988943955	-0.00288653060726337	0.00125801069507073	-0.00287801888180253	-0.0139879132050761	0.000156504769182622
9.9	-0.0136002624838681	-0.0111823633748627	0.000846759492445794	-0.00302713365035359	0.000839421080692587	-0.00302591598536583	-0.0141657279010333	0.000785052151584127
10	-0.0164905437627645	-0.00804284704884301	0.000416066658419666	-0.00311770385229	0.000408587215946211	-0.0031301670642692	-0.0143327431055313	0.00167518096900997
10.1	-0.0185841564467887	-0.00439521762511351	-2.68977888456194E-05	-0.00315036104773575	-3.71456112293695E-05	-0.00314497620887519	-0.0141535389206375	0.00264854918469282
10.2	-0.0199641753238545	-0.000425711383938852	-0.000473995282487338	-0.00311445000047227	-0.00047740892707962	-0.00311167237108584	-0.0136320253425484	0.00345420767549711
10.3	-0.0205898413227258	0.00391362086042953	-0.000907585462292234	-0.00300941410777342	-0.000899475340569573	-0.0030184875081052	-0.0130485150326356	0.00392264024754973
10.4	-0.0202038396754368	0.00847154290086246	-0.00130598008598098	-0.00285517385998965	-0.00130427547777378	-0.00286137497051164	-0.0125243181214818	0.00411917189155111
10.5	-0.018785595366555	0.0129122369268104	-0.00169865162027489	-0.00265665588603516	-0.00169555795828288	-0.00264363540804292	-0.0121423759147754	0.00434996791608423
10.6	-0.0162952825800134	0.0169723543052895	-0.00205245671512441	-0.00238663221032485	-0.00205026344375086	-0.00239045796544088	-0.0117383512069725	0.00473414327402075
10.7	-0.0132396409935954	0.0204921024195773	-0.00236877343199063	-0.00208444927229625	-0.00236527861858121	-0.00207915763580459	-0.0112041239890736	0.00499274009112693
10.8	-0.00938449005544528	0.0235577193211996	-0.00263889305936464	-0.00172399941146092	-0.00263367884036488	-0.00173293429970429	-0.0107860962117213	0.0052164703820517
10.9	-0.00493209542849161	0.0259951711424746	-0.00284794940266871	-0.0013492849089367	-0.00285314570567301	-0.00134855651338592	-0.0105896304763028	0.00540941042365509
11	0.000266525666417411	0.0275154003872563	-0.00300794008084227	-0.000932070143494083	-0.00301278774807708	-0.000938824318997965	-0.0103483042623907	0.00591440428426412
11.1	0.0057910591569175	0.027827425730031	-0.00311704316100002	-0.000506227000964805	-0.00310616750668713	-0.000503356648701493	-0.00974395846440356	0.00648354715977089
11.2	0.0112352346345783	0.0268901116420986	-0.00314689361246588	-6.7501025651987E-05	-0.00315405626065518	-7.23489075806732E-05	-0.00873233167408131	0.00681343812810791
11.3	0.0163834586903578	0.0249156318778906	-0.00312043326051288	0.000382339891739505	-0.00313199124532196	0.000372281602874334	-0.00752184305928241	0.00670943380290478
11.4	0.021019488479764	0.0221143435348631	-0.00304690475943592	0.000811284430266257	-0.00304198395256976	0.000818864618817102	-0.00663567717933987	0.00622357465703104
11.5	0.025184552926286	0.018419577261202	-0.00290356351978408	0.00122804130491092	-0.00290634804613384	0.0012383349921104	-0.00612433166672596	0.00557705221410579
11.6	0.0286695575972745	0.0137969359265	-0.00270889765126085	0.00161956457383766	-0.00270887869273432	0.00162250994612741	-0.00564207946021032	0.00489824495127973
11.7	0.0311246263656317	0.00854154901446362	-0.00244705446586068	0.00197539052910079	-0.00244761832488719	0.00198401084173557	-0.00518671077807464	0.00399443038639131
11.8	0.0325657638585215	0.00303856314569159	-0.00215096154069625	0.00230855402238028	-0.0021550836210715	0.00231025656665105	-0.00504598634590819	0.00298128715579728
11.9	0.0332160893691163	-0.00257548670208536	-0.00180068706816663	0.00258546646130903	-0.00181372986416638	0.00258978617464029	-0.0053231808628856	0.00235701590461845
12	0.032840776292315	-0.00836117082701399	-0.00142617166410469	0.00280909921643286	-0.00142557398557052	0.00281051317866079	-0.00572092710439236	0.00217843104106549
