# GHZ S RI R 50
0.2	0.00503394008764706	0.0068838559903925	0.00304837758584672	-0.000893789734866542	0.00305873399751918	-0.000886970272268459	-0.0148964211394369	0.0105275347373026
0.3	0.00662707209305346	0.00174354957684956	0.00290607588092404	-0.00131435165216337	0.00289880314438797	-0.00130143384456235	-0.0128329476063655	0.00750640517438082
0.4	0.00562373448888347	-0.00234493054663357	0.00267841890594453	-0.00168403709265059	0.00268371578380988	-0.0016925799811883	-0.0131136828077385	0.0055844292700946
0.5	0.00313610458619582	-0.00464768553055177	0.00242524326699323	-0.00204060657804446	0.0024368469723218	-0.00205280459855965	-0.0144431238015777	0.00529267963618318
0.6	0.000585608210525009	-0.00503534272406927	0.00211888191522451	-0.0023579421649761	0.00211813313319562	-0.00236511179346469	-0.0155562869894248	0.00658125787898681
0.7	-0.00107558504582347	-0.00423531876769804	0.00177692057918896	-0.00264173312506641	0.00177495816822129	-0.00264194458306357	-0.0156007571339169	0.00874073561079038
0.8	-0.0015094731906218	-0.0033807639253527	0.00139406238604654	-0.00286773065491867	0.00138141701427517	-0.00287238300261083	-0.0143439922488769	0.0107389960269593
0.9	-0.00144545083361009	-0.00325066241283159	0.000975836433551181	-0.0030412929486331	0.000976938835411771	-0.00305206984442997	-0.0124288509014935	0.0116562446691604
1	-0.00176755777877001	-0.00397642306845526	0.000545642815377985	-0.00315431563231053	0.000535688970053649	-0.00315510612163617	-0.0108452317980506	0.0114380130653785
1.1	-0.00322517835972908	-0.00489573330569367	8.04198740290472E-05	-0.00319034984174234	7.69204891093814E-05	-0.00320820717465461	-0.0104159387086657	0.0108504797393781
1.2	-0.00563159888852285	-0.00524169903562581	-0.000373835516565918	-0.00318319891908168	-0.000374658233606436	-0.00318109755808059	-0.0105830005125262	0.0108575011362512
1.3	-0.00811573544540603	-0.00464471109275896	-0.00081388481599631	-0.00309845992938802	-0.000817169499613272	-0.0031004841778143	-0.0101146512662832	0.0116556686503949
1.4	-0.00972732064944696	-0.00357110168047809	-0.00124701918265645	-0.00294367951362025	-0.00124581548948272	-0.00294928604609603	-0.00882646256786391	0.0120813778709637
1.5	-0.0104070041069088	-0.00190624126112846	-0.00165663099598653	-0.00273724981510917	-0.00165505766766711	-0.00274585715684603	-0.00756420466598931	0.0122400171288766
1.6	-0.0102421502480502	0.000410128814777826	-0.00202116497248413	-0.0024717766302236	-0.0020214231423863	-0.00247705993353033	-0.00688242774489613	0.0129446275684838
1.7	-0.0089899791011	0.00259488984606539	-0.00234840007856952	-0.00216152470105466	-0.0023493104299644	-0.00215520576625412	-0.00552216981906336	0.0137988350218457
1.8	-0.00710480838733667	0.0041099624387029	-0.00261314790269767	-0.00179861780823932	-0.00262423179210131	-0.00180416697056024	-0.00384285557180862	0.0139699061266623
1.9	-0.00530816677413103	0.00466756933014797	-0.00282892091889305	-0.0014202797407834	-0.00284133098491201	-0.00141397680898055	-0.00260850221608758	0.0135386678672167
2	-0.00397068467079391	0.00482166128825741	-0.00299342262302881	-0.0010096950336907	-0.00300300460817381	-0.00100488905721807	-0.0020425461596316	0.0131321480017184
2.1	-0.00289423006568361	0.00500147993735508	-0.00309647410738279	-0.000583270726879439	-0.00309241196325905	-0.000585294504475033	-0.0016622311105302	0.0131283784343776
2.2	-0.00163607263285817	0.0053639695779781	-0.00314629102646438	-0.000150819649586461	-0.00315758808531143	-0.000153576229445514	-0.000854078344656578	0.0135003593374714
2.3	9.30437065338666E-05	0.00534053096947152	-0.00313831484761306	0.000284785916110086	-0.0031380430468048	0.000277919180225932	0.000486266561001669	0.0136051456481689
2.4	0.00194435718367575	0.00456904315016202	-0.00306710909747049	0.000715703878613792	-0.00306965474492009	0.000711461022948309	0.00200930812975606	0.0131019198216068
2.5	0.00330756799860323	0.00299171825865603	-0.00293500018506629	0.00112317357079029	-0.00294587748460754	0.00112955476035158	0.00315241380086897	0.0119955422432032
2.6	0.00394239869873786	0.00121113570613159	-0.00276784153408076	0.00152554381045704	-0.00276427340058676	0.0015132093158885	0.00370152164560529	0.0108544657474486
2.7	0.00420258584818869	-0.000356728980144711	-0.0025281276347593	0.00190084070651496	-0.00253342565206968	0.00190084681645168	0.00390637900510985	0.0100582208627014
2.8	0.00448805757783027	-0.00191413959289401	-0.00224857139257421	0.00223605484320928	-0.00224071654510287	0.00224590437918225	0.00417650907246556	0.00959137404266811
2.9	0.00463535399043754	-0.00380685233770678	-0.00191295216476152	0.00254608127334276	-0.00190921403835132	0.00254564739514243	0.00467711392147385	0.00919088365458556
3	0.00417553549947929	-0.00585190803967226	-0.00151994428672668	0.00279082897481087	-0.00153484905637455	0.0027970328402551	0.00516410113557979	0.0088326686642365
3.1	0.00321506607307651	-0.00758987784077958	-0.00111837781058041	0.00297447721557755	-0.00111362258019581	0.00298288235625655	0.0055733472272987	0.00864931976680275
3.2	0.00193672479159809	-0.00901190307162626	-0.000683036115565738	0.00311325959383182	-0.000684805103291726	0.00311265778385381	0.00607981690570647	0.00869689027347817
3.3	0.000541145188898176	-0.0103606182339085	-0.000228860200365332	0.00317828661763041	-0.000227239812684474	0.00317448827830381	0.00704331606524364	0.00850321838022417
3.4	-0.00124205882167868	-0.0115971436019515	0.000231716194342374	0.0031607620227225	0.000225708447156012	0.00317756245735634	0.00805633686400311	0.00772369720458699
3.5	-0.00354031826130475	-0.0126409824607497	0.000662934824813449	0.00310150197481786	0.000668565748970489	0.00310147876937816	0.0085422629643849	0.00648474950987929
3.6	-0.0062284979102542	-0.0129423066269174	0.00109406053456984	0.00296209588065598	0.00110226895933607	0.0029616169107067	0.00864102739442813	0.00564327140496802
3.7	-0.00886348604496012	-0.0124482849071044	0.00149942848114898	0.00276044004441107	0.00149013300399149	0.00277429956101201	0.0089083125664671	0.00506403595798501
3.8	-0.0110983635958634	-0.0114094874361576	0.00186494870396676	0.00251550355317086	0.00186752837154653	0.00252455877369488	0.00941903605453145	0.00438170176132998
3.9	-0.0128989016836766	-0.0102276110829717	0.00219227485844553	0.00223021435629437	0.00218503924186097	0.00222859084788952	0.0098705243184156	0.00334809405132371
4	-0.0146418393829594	-0.00895872606926004	0.00245540649521333	0.00190497186404464	0.00245975938525839	0.00190249144932687	0.0099891372851555	0.00224895488172182
4.1	-0.0163649615983834	-0.00730310606866224	0.00268597744261585	0.00154913008533821	0.00268475373440974	0.00154987240125884	0.00995171659534876	0.0014179644804662
4.2	-0.0177877063304461	-0.00510149189547625	0.00286748115915285	0.00115962534405121	0.00287178400365191	0.00115100713578444	0.010033847216406	0.000807943483495143
4.3	-0.0185804895242533	-0.00271698617294964	0.00299933796543214	0.00076419146254815	0.00300560217278928	0.000756479534684178	0.0103704393131711	-2.90374872763298E-05
4.4	-0.0190275040050973	-0.00037162628767303	0.00307233866953536	0.000348639259962851	0.00307466857673453	0.0003464129203045	0.0105105730747712	-0.00114535165121923
4.5	-0.0192927594308068	0.00197158952283769	0.00309912093410254	-7.25846672731442E-05	0.00310440554846598	-7.5906646814073E-05	0.0103226231330267	-0.00234096972559092
4.6	-0.0194290617734033	0.00451903379165799	0.00306484865281258	-0.000503163965154782	0.00306602667062698	-0.000490401068255617	0.00980812287326348	-0.00334090656004245
4.7	-0.0190022188464043	0.00737225293375938	0.00297215281798029	-0.000916251944347145	0.00298734147720438	-0.000925720997424679	0.00919324943385006	-0.00408985632749142
4.8	-0.0178006984213353	0.0102390684687045	0.00282317910729386	-0.00133100466344539	0.00283163401159802	-0.00133702255818694	0.00882353157735618	-0.00466238696149111
4.9	-0.0158026870074072	0.0126530180733477	0.00261120072597318	-0.00172116288064922	0.00261534510375589	-0.0017182528295962	0.00850371869323711	-0.00529121650072999
5	-0.013439968274391	0.0144297387447886	0.00235495424837022	-0.00208524320653764	0.00235856981962681	-0.00208257556958519	0.0082739534202493	-0.00589277911507958
5.1	-0.010689191170641	0.0158229367404922	0.00204167316359041	-0.00240483816120098	0.00204397718861573	-0.00240348197173389	0.00809135012159721	-0.0064450201748245
5.2	-0.00763188051853285	0.0167154663062489	0.00167640395811564	-0.00266079250452668	0.00167809808690494	-0.00266594875308693	0.0080700972503243	-0.00691464963271828
5.3	-0.00425833772017321	0.016884557672716	0.00127868342165202	-0.00287713634487433	0.00128183275329301	-0.00287509499479153	0.00822592028384228	-0.00751059407185783
5.4	-0.00101643166828775	0.016164273366914	0.000842428361506824	-0.00301903008347689	0.000859462184899995	-0.00303039937769318	0.00827322393000146	-0.00858288365460461
5.5	0.00164871482405924	0.0148063930224719	0.000419909797159332	-0.00310530662519539	0.000429808441158021	-0.00311482393584281	0.00771950601179801	-0.00982737257774592
5.6	0.00368875924968555	0.0131871794705094	-2.20481413167054E-05	-0.00312491336700562	-3.05569612015108E-05	-0.00312799088690757	0.00660787419415206	-0.010608694793162
5.7	0.00529860451456354	0.0115437129102135	-0.000449107646528871	-0.0030760245299209	-0.000465586757012617	-0.0030794076788155	0.00553813083653159	-0.0107834542817678
5.8	0.00673313563321122	0.00982733560071704	-0.000882490792024774	-0.00296389540863921	-0.000886159372666577	-0.0029776226157933	0.00483006580303045	-0.0109097904722485
5.9	0.007954978299189	0.00780703160079002	-0.00126811283529356	-0.00281191053486662	-0.0012761837139166	-0.00281173779101097	0.00419846092010607	-0.0112712166805312
6	0.00864966816051218	0.00532790579767999	-0.00164187259140923	-0.0026017082922841	-0.00163839324237516	-0.00260189946568855	0.0032536208152528	-0.0117272402952781
6.1	0.00860204212074867	0.00271879355936124	-0.00197175733783974	-0.00235307899597849	-0.00197334108023959	-0.00234916852871538	0.00221527371829229	-0.0118796552270477
6.2	0.0079363067993137	0.000289107350819051	-0.00226274447215342	-0.00205570587620652	-0.00226634316246734	-0.00206727256981505	0.0014147380902853	-0.0118537351492981
6.3	0.00705028736907053	-0.00193383400074199	-0.00252563421577961	-0.00174409763056965	-0.00253456439835279	-0.00173856251463157	0.000967219793163414	-0.0120135669148363
6.4	0.00568519015240484	-0.00419613609691364	-0.00274701902378919	-0.00138079011521653	-0.00273747219588634	-0.00138546957528928	0.00044123358890619	-0.0125307806511587
6.5	0.00369654242796344	-0.00619837195072606	-0.00290942310991927	-0.0010021028987852	-0.00291718815949211	-0.000997832107518334	-0.000388582717494218	-0.0130904915907441
6.6	0.00123106024213893	-0.00740099056250091	-0.00303238531160698	-0.000598791904784667	-0.00303391997626227	-0.000602731261090111	-0.00130668505393785	-0.0133014313092995
6.7	-0.00118190829907328	-0.00774306494623965	-0.00310398712829154	-0.000174855923980295	-0.00311285545500838	-0.000168827122584569	-0.00216870233915109	-0.0132290450460926
6.8	-0.00334545970759074	-0.00756564145530208	-0.00310584895613519	0.000262363884512841	-0.00311695741552659	0.000267153617297057	-0.00288323897836086	-0.0131048973033428
6.9	-0.00544426519602468	-0.00703175210059063	-0.00305194005938917	0.000700356358161601	-0.00305496190734533	0.000702682920296196	-0.00368868965668263	-0.0130094799218586
7	-0.00751301114418787	-0.00618715454480092	-0.00293160846084418	0.00113281483569642	-0.00294440480330218	0.00113040533149566	-0.00461907709069084	-0.0129938697485847
7.1	-0.00963822673739401	-0.00474261066193942	-0.00276282749665078	0.00153702365346048	-0.00275927035094423	0.00154576429847985	-0.0057874446318864	-0.0125507006829331
7.2	-0.0114377989628851	-0.00254742750954569	-0.00250756834017357	0.00192113879086445	-0.00251414752637576	0.00192316148741438	-0.00661783671653578	-0.0116181884577445
7.3	-0.0126009854679099	0.000147010455094575	-0.00220641011773357	0.00225313836584204	-0.00221770741465262	0.00225814372736748	-0.00677392855682385	-0.0107273022138068
7.4	-0.0128854525509803	0.0031665059465268	-0.00185466285910484	0.00254367121391152	-0.00186161136969942	0.0025573087348938	-0.00682626585148469	-0.0101333152997915
7.5	-0.0125341995921296	0.00571216277567657	-0.00147753613167429	0.00278326447108298	-0.00147053407030528	0.00279067209845598	-0.00670017289932997	-0.010317523908067
7.6	-0.0120855120294218	0.00770851041986397	-0.00106188273906661	0.00295520504398943	-0.00106326382024973	0.00295051796539351	-0.00689855889348693	-0.011321239274284
7.7	-0.0107670911329833	0.00967923918885735	-0.00062954217798764	0.00306487018643112	-0.000630877960384483	0.00306381747670166	-0.00748060996485884	-0.0117950059722592
7.8	-0.00908496433785403	0.0112510501806646	-0.000207241661470266	0.00310051546919397	-0.000214965243521417	0.00310692826076495	-0.00838246216498587	-0.0123603112498898
7.9	0.286785846431548	-0.0993469203251288	0.000813848631252714	0.00256087941291457	0.00079829802396449	0.00248016427796651	0.419889661973336	0.230874505628808
8	0.320954373025199	0.187621868113998	0.00117310799246587	0.004363891500038	0.000477427985476962	0.00604108805097657	2.74815270051453	1.71956379462242
8.1	-0.00264674472940719	0.0126830577500866	0.00103563636591721	0.00290361907007012	0.00105443871781887	0.00290484103830733	-0.0122577688649281	-0.0117771073915703
8.2	-0.000514318825544598	0.0127925502366022	0.00142021965406021	0.00273602042900083	0.00142939599282446	0.00272907583604049	-0.0130974123271337	-0.0107163725231533
8.3	0.00186924150683918	0.0124833884494646	0.00178255484636365	0.00251936144969397	0.00178069005475994	0.00253265773749617	-0.0134694152787047	-0.00983423884024603
8.4	0.00424470743710951	0.0115741249826105	0.0021137678625939	0.00226952232877965	0.0021107837806468	0.00226923099030259	-0.0138535257900917	-0.00936232644170787
8.5	0.00628649397126942	0.0100185468225946	0.00240687590487483	0.00196773078247821	0.00240590172987606	0.00197086089605226	-0.0146348086920432	-0.0089260697969254
8.6	0.00778288453491373	0.00817871716610796	0.00267119038729472	0.00163233286783441	0.00268084382356968	0.00162609560018682	-0.0155726516946231	-0.00816234088712539
8.7	0.0089163362542218	0.00621859443041536	0.00288406401924659	0.00124604853608198	0.00288961251197064	0.00124694060629649	-0.0163117911281442	-0.00709181548921463
8.8	0.00982359192036921	0.00408382372226701	0.00305175215401757	0.00084072586223984	0.00305782320449054	0.000832068250143992	-0.0167370930397767	-0.00606358338998305
8.9	0.0105518382726827	0.00150651061610287	0.00316019462172671	0.000400418775894398	0.00315937340458691	0.000398118540325465	-0.0168137402772459	-0.00511306553132369
9	0.0106892347570268	-0.00160067758282747	0.0031960133147133	-5.99970996779004E-05	0.0031991286667603	-5.57489070846431E-05	-0.0167485879872766	-0.00431019266125825
9.1	0.0101568601988665	-0.00490900373728299	0.0031673870534093	-0.000526126640832647	0.00317008441891605	-0.000512904439358156	-0.0164878926006434	-0.0035411811012575
9.2	0.00858619404738313	-0.00808552526938259	0.00306455888758069	-0.000971770881513672	0.00307243212310699	-0.000974605337714766	-0.0162387935084425	-0.00292673764287503
9.3	0.00633203655231567	-0.0108488665520292	0.00289194317567894	-0.00140431689824365	0.00289123940343788	-0.00140943029351885	-0.0158655109390692	-0.00242401195362967
9.4	0.00334039195783585	-0.0130060239228306	0.0026562953839538	-0.00181701980645967	0.00266292319381468	-0.00180922769806549	-0.0156238651518833	-0.00196009872915533
9.5	-0.000340170939650964	-0.0146364835362359	0.00236173434894274	-0.00216510269213178	0.00236929334342053	-0.00216648077213346	-0.0158032437434925	-0.0017770945462371
9.6	-0.00444628233746182	-0.0150139041600067	0.00202345857352878	-0.00247309738062919	0.00202379754925025	-0.00247210049402401	-0.0161458525162312	-0.0011371356872464
9.7	-0.00853348769595716	-0.0141702323027686	0.0016373801420828	-0.00271855809001024	0.00164294087689056	-0.00272598460858483	-0.016272907069592	-0.000154267826458818
9.8	-0.0121897225810736	-0.0123749813563637	0.0012399939321729	-0.00291561304452101	0.00124578602023548	-0.00290708380343811	-0.0160860992483836	0.000801895799179146
9.9	-0.0152010710599119	-0.00996277219020111	0.000831038860126569	-0.00303996004010197	0.000823688701163413	-0.00303869581978348	-0.0158408251995445	0.00150174135121806
10	-0.0178432267520798	-0.00705801332502916	0.000406176854701928	-0.00311598756849251	0.000398666624927832	-0.00312841608522996	-0.0157840747880013	0.00219881831994855
10.1	-0.0199861430519679	-0.00360087828135162	-2.36680724470485E-05	-0.00314031534951939	-3.38885032254562E-05	-0.00313495795382389	-0.0156602420918709	0.00300082071477438
10.2	-0.0214014462814659	0.000418536724112736	-0.000454439083923948	-0.00310539534874946	-0.00045785568550746	-0.00310264767988056	-0.015219863471874	0.00389916905412903
10.3	-0.021823258056232	0.00476757517775044	-0.000873806827998851	-0.00301125945623941	-0.000865622422076103	-0.00302022498705226	-0.0144498969777713	0.00451684767000347
10.4	-0.0212500357141184	0.00900210099916151	-0.00126478333192669	-0.00287549106612902	-0.00126298731125221	-0.00288166989504712	-0.0136092422316012	0.00456629833705932
10.5	-0.020008988260179	0.0130201781739735	-0.00165997161454303	-0.0026994533977426	-0.00165709277848724	-0.00268631548148249	-0.0131941094947177	0.00442120944585309
10.6	-0.0182529271910779	0.0168701446844869	-0.00202773521507275	-0.00245020857205288	-0.00202544642640522	-0.00245403137767309	-0.013054688755093	0.00427280526793702
10.7	-0.0154960024234147	0.0207268945766023	-0.0023672814462426	-0.00216233373832844	-0.00236383059608096	-0.00215689184017541	-0.0129241358699932	0.0047093732152991
10.8	-0.0118226427825143	0.0241464563236406	-0.00266683316550878	-0.00180547817362086	-0.00266135650238255	-0.00181451812356497	-0.0126826905066964	0.00497587181779277
10.9	-0.00739018206985125	0.0268763158856269	-0.00290565078570062	-0.0014224612151186	-0.00291099430502202	-0.00142178182992246	-0.0127068120428781	0.00510992382261562
11	-0.00227348156788014	0.0285192266000618	-0.00309148862038356	-0.000984818375382595	-0.0030964281474662	-0.00099181670025902	-0.0127131817530557	0.00552813582870176
11.1	0.00307235068063368	0.0291556897910344	-0.00321777327287061	-0.00052959412476168	-0.0032065485801481	-0.000526606170236744	-0.0125850260975215	0.00617616211874615
11.2	2.71943096334709	2.80842114099967	0.00918650800097013	0.00425541065599453	0.0171967206969935	0.0230792694089993	-0.714147256959605	-0.892822768158232
11.3	0.63261612790697	0.332434477666172	-0.00889211902025257	-0.0127147818740839	-0.00952499200501876	-0.0102189576187258	0.334224597912953	3.07346744233744
11.4	0.0194529094065581	0.02432620889163	-0.00312384218045615	0.000886541848932871	-0.00311864788278974	0.00089426472384047	-0.00948236028640009	0.00731708551629941
11.5	0.0242147876431983	0.0205030343800831	-0.00295086040509547	0.00132307598709073	-0.00295349046773254	0.00133369381864536	-0.00859540987548741	0.00718539693874681
11.6	0.0278965722763071	0.0155129993912937	-0.00272194595888243	0.00172192996518221	-0.00272185087295578	0.00172493432258932	-0.00776593920996715	0.00657352622474184
11.7	0.0305046474099263	0.0100363929190693	-0.00242639549602123	0.00207132365722701	-0.00242672709675689	0.0020800807901851	-0.00694750570772724	0.00583343296372422
11.8	0.0322536767112737	0.0042519371645288	-0.0021024024533975	0.00238684798811603	-0.00210650815426207	0.00238867971786212	-0.00613585706031631	0.00496884040467698
11.9	0.0328812682286944	-0.00168692609509497	-0.00173477299001419	0.00263741558134215	-0.00174772144961631	0.00264208890159909	-0.00597134293360692	0.00423468170600666
12	0.0323370881034356	-0.0082971079348661	-0.00135556502870951	0.0028325690733812	-0.00135493641870564	0.00283396412272478	-0.00597095027832664	0.00302735970562001
12.1	0.0304097243798559	-0.0144219425820788	-0.000951731806775642	0.00298761941863965	-0.000955303614154207	0.00298683731339307	-0.00618450099010951	0.00245477335134701
