# GHZ S RI R 50
0.2	0.00668643150849058	0.00314253195009054	0.0030482351588979	-0.00089583366002756	0.00305859729628794	-0.000889019781193545	-0.013292952231793	0.00674805868827285
0.3	0.00684731158770029	-0.000175741071369498	0.00290503229191425	-0.0013176349193155	0.00289777249623476	-0.00130470768103107	-0.0126584053804425	0.00558474382334371
0.4	0.00587699552596263	-0.00229759043248891	0.00267554857711626	-0.00168822268826325	0.00268083142361554	-0.00169677352141647	-0.0128403775564487	0.00565343527550287
0.5	0.0045954203770259	-0.00339380644683641	0.00241977189942749	-0.00204480382095526	0.0024313442538897	-0.0020570207832496	-0.0128659073400912	0.00652416487172518
0.6	0.00356136344889436	-0.00384681350420107	0.00211059254910368	-0.00236077995945563	0.00210982634284551	-0.00236793992658227	-0.0124038281035933	0.00762727529554603
0.7	0.00276322568629604	-0.00415501547295113	0.00176628254587934	-0.00264176313834601	0.00176432319186763	-0.00264196875248594	-0.0116193048324242	0.00854052143973998
0.8	0.00203578709728217	-0.00462484237214546	0.0013822809310962	-0.00286380111616082	0.00136965704870545	-0.00286840558455133	-0.0107674142808535	0.00914500530464513
0.9	0.00089385857583447	-0.0051144516932212	0.000964583580801774	-0.00303276785421497	0.00096565462972337	-0.00304350856005152	-0.0101605626990932	0.00948719741674848
1	-0.000708525623161538	-0.00529982938582646	0.000536825238489892	-0.00314133977218122	0.000526914224517864	-0.0031421065937589	-0.00985215807257243	0.00992126409393521
1.1	-0.00259940085484319	-0.00484346075184991	7.60185678249834E-05	-0.00317398308623088	7.25149332494148E-05	-0.00319174387477863	-0.00972127695593358	0.0107701433841658
1.2	-0.0042774082401178	-0.00392745026396137	-0.000372640467881121	-0.00316516999840081	-0.000373457952296582	-0.00316308023337864	-0.00900134038016162	0.0119428253776973
1.3	-0.00562590790115098	-0.00303451627374979	-0.000806714145043862	-0.00308106352570004	-0.000809978119518716	-0.00308307857079778	-0.00735545103577543	0.0128658385085884
1.4	-0.00661951145584457	-0.0022503596580632	-0.00123434821626505	-0.00292920468241403	-0.00123314084302051	-0.00293477690587155	-0.00547437201352439	0.0128582836730992
1.5	-0.00689907151460199	-0.00101146078571181	-0.00163982375672128	-0.00272756974183978	-0.00163823358149158	-0.0027361267877652	-0.00387761416489649	0.012449335748043
1.6	-0.00643619694167675	0.000499127980110717	-0.00200240452478878	-0.0024680915536895	-0.00200264133222653	-0.00247335147174975	-0.00302396296635024	0.0122257679322701
1.7	-0.00548895131497765	0.00171249947805201	-0.00233007335311864	-0.00216402226793601	-0.00233100855068131	-0.00215773074463233	-0.00219528612473803	0.0121192828006341
1.8	-0.00449829445391946	0.00272099507525869	-0.00259760737735471	-0.00180641129813634	-0.00260863533577115	-0.00181199901297605	-0.00154539037678069	0.0119595235480347
1.9	-0.00351675845135568	0.00353053954564818	-0.00281767242804552	-0.001431645723446	-0.00283009335105329	-0.00142541226374671	-0.00108083744460542	0.0119586890455217
2	-0.0024110186948336	0.00430902890266925	-0.00298722483651526	-0.00102250638709069	-0.00299682290970975	-0.00101774594422273	-0.000588981542543104	0.0122180865618027
2.1	-0.000987226529989335	0.00483910153659265	-0.00309500834771064	-0.000595273705244401	-0.00309093744598002	-0.000597282428572691	0.000236196699068822	0.0124409105566088
2.2	0.000644441609279086	0.00493115964169671	-0.00314824820216674	-0.000160239404362384	-0.00315954573808161	-0.000163031498723897	0.00133653391080971	0.0123975267456117
2.3	0.00218648434083023	0.00432390631850936	-0.00314173722546986	0.000278849807848738	-0.00314145162077583	0.000271977350477948	0.00229863039704304	0.011939813319728
2.4	0.00327350160433931	0.00334182942228053	-0.00306990419740568	0.000713047600153964	-0.00307244721665188	0.000708799286560594	0.00297811198832617	0.0114568147945596
2.5	0.00390633305427096	0.00225011954138158	-0.00293546126223621	0.00112258284695628	-0.002946340776453	0.00112896200217902	0.00355455927389389	0.0110606444039126
2.6	0.00439962077669313	0.00126563600559269	-0.00276515256036227	0.00152506704558401	-0.00276159078177563	0.00151274164605405	0.00424809053611039	0.0107383898760767
2.7	0.00497051875594486	0.000202511361750317	-0.00252262383327248	0.00189833054087217	-0.00252791195316963	0.00189833881900735	0.00494896812268361	0.0102979882447111
2.8	0.00551558187191795	-0.00116520980370545	-0.00224163291686201	0.00222980365629893	-0.0022337997459066	0.00223962308083164	0.00554281849736948	0.00988372651633215
2.9	0.00581637326066971	-0.00278587904080365	-0.00190674313777986	0.00253518034235472	-0.0019030194033752	0.00253475001901834	0.0062853821335194	0.0096425721115004
3	0.00576451947858055	-0.00448530385441717	-0.00151693339003354	0.00277557857367849	-0.00153177766809506	0.00278173167343663	0.00728262702219056	0.00941338251760426
3.1	0.0054949986752216	-0.00620757921225868	-0.00112062489858206	0.00295618416779277	-0.00111591669882041	0.0029645588923509	0.0083415898742919	0.00892691307385866
3.2	0.00477492804394697	-0.00806348497784	-0.000692147599708812	0.00309419834020855	-0.000693904886025502	0.00309359247040589	0.00916061801322424	0.00829209355259257
3.3	0.00348830013473222	-0.0100120202757196	-0.000245208613347134	0.00316134502003094	-0.000243575333932664	0.0031575743340625	0.00991566623451409	0.00747556922853191
3.4	0.00147471712145736	-0.0115925969478705	0.000209015554325108	0.0031489484684426	0.00020291785049522	0.00316563636788285	0.0105229889134751	0.00649560126965254
3.5	-0.000955402219504417	-0.0126270841203779	0.000635763120505391	0.00309706151028705	0.000641376438915182	0.00309708390642497	0.0108644420371487	0.00536359525760071
3.6	-0.00351950187221762	-0.0129825991717975	0.00106549817010762	0.00296682111128101	0.00107369670460782	0.00296641687497741	0.0110708302887208	0.00442625257769436
3.7	-0.00600075793870425	-0.0128676067817686	0.00147303484981869	0.00277461836815914	0.00146360760140427	0.00278838861701386	0.0113115783770021	0.00344569347058921
3.8	-0.00850548205673691	-0.0123713940437786	0.00184411830121196	0.00253789752878717	0.00184661561352117	0.00254699366737921	0.0113443978267736	0.0024227918198974
3.9	-0.0109667742748405	-0.0113755530665993	0.00217974757914089	0.00225832463837099	0.00217250076680601	0.00225662901849819	0.0111692647144922	0.00155812030707303
4	-0.0132423582501862	-0.00976973991893255	0.00245268515607565	0.00193511671199849	0.00245708125748845	0.00193265896188633	0.011067399197129	0.000999503390865155
4.1	-0.0150285858606879	-0.00767393832959687	0.00269305219138852	0.00157755861238569	0.00269181540974852	0.00157829747180275	0.0112733770625205	0.000512538337585815
4.2	-0.0163092604464458	-0.00535713175722799	0.00288270181500571	0.00118280370226663	0.00288708034876975	0.00117414391983704	0.0115690631970127	-0.000176552568203609
4.3	-0.0172316761057633	-0.00306836383288962	0.00301967145772792	0.000779835146826191	0.00302600862300486	0.00077208502087144	0.0117277103008012	-0.0011150280172029
4.4	-0.0180381290595819	-0.000575208995111624	0.0030941915069826	0.000355917906171061	0.00309654182719364	0.000353678934419721	0.0116134188395149	-0.00197359952451481
4.5	-0.0184959278147413	0.00228482929942095	0.0031191611266679	-7.28105127467728E-05	0.00312448016464281	-7.6153552453052E-05	0.0115295526380953	-0.00267715862958418
4.6	-0.0183666291378621	0.00535399742137733	0.00308051304722646	-0.000508796728508425	0.00308170968663302	-0.000495967708489694	0.0115025251469392	-0.00346276622488333
4.7	-0.0174400899951735	0.00838055662421276	0.00298228582277375	-0.000924310975979029	0.00299751900638666	-0.000933839770312819	0.0113513563802083	-0.00439678870270592
4.8	-0.0159664673879085	0.0110590665450197	0.00282808051233239	-0.00133865281813033	0.00283654695276956	-0.00134469862672233	0.0110344182485016	-0.00529430226071025
4.9	-0.0139535092090311	0.0133805909611491	0.00261242425408849	-0.00172607416169679	0.00261657675646843	-0.00172316518672217	0.0106475509490263	-0.00598631176405996
5	-0.0114978185724161	0.0152864705323695	0.0023548747116288	-0.00208619832351028	0.00235849159340246	-0.00208353108260654	0.0105784392266976	-0.00652818873485973
5.1	-0.00838408937710837	0.0166772492949854	0.00204291543948641	-0.00240188472061287	0.0020452171784576	-0.00240052706567875	0.0106955696539818	-0.00731680169923039
5.2	-0.00505228315805731	0.0171655205382729	0.00168122423041102	-0.00265527570766874	0.00168292873733475	-0.00266042473498454	0.0106415829355876	-0.00829517223604981
5.3	-0.0018817904790253	0.016835766522018	0.00128853291659904	-0.0028713444650567	0.00129167359457213	-0.00286929259706797	0.0103363613127541	-0.00916922102847611
5.4	0.000853622006088518	0.0160254593839555	0.000857475699514513	-0.00301585561747937	0.000874570552638355	-0.00302714508733553	0.00996951907310534	-0.0100195548731893
5.5	0.00323922045823813	0.015026552539898	0.000439067331181559	-0.00310740298934331	0.000449037454656272	-0.00311687532302262	0.00947210083675907	-0.0108826423426181
5.6	0.00549745495480135	0.0137632154348724	-1.20761832232369E-06	-0.00313452183386923	-9.72160915362936E-06	-0.00313766559946874	0.00875326508179152	-0.0116426385464402
5.7	0.0075426961045002	0.0120482656062952	-0.00042989761727961	-0.00309402669784811	-0.000446432927747433	-0.00309754076491174	0.00787825341038378	-0.0122578866004747
5.8	0.00911413452266178	0.00980321761192336	-0.000868766773115327	-0.0029898914038121	-0.000872368948362536	-0.00300373622556446	0.0068277962240824	-0.0128900774866415
5.9	0.00990419044692969	0.00733388851290414	-0.00126299130809449	-0.00284366016236634	-0.00127113339746222	-0.00284353228253638	0.00551317841910362	-0.013266525924476
6	0.00995321580226982	0.00493197248842226	-0.00164787295155353	-0.00263562487389569	-0.00164435673212681	-0.00263580329611222	0.00413575652377322	-0.0131931301662741
6.1	0.00958560868401449	0.00279804083273704	-0.00198937470788933	-0.00238463949189253	-0.0019909853861326	-0.00238068728954313	0.00320856477064834	-0.0127883298611062
6.2	0.00898625424726011	0.000718591839592387	-0.00229050910452725	-0.00208025615843216	-0.0022941533055239	-0.00209196247759086	0.00269843538878724	-0.0125935902687503
6.3	0.00809653100634822	-0.001431705809438	-0.00256037727724951	-0.00175832907509568	-0.00256939968347258	-0.00175270445107859	0.00229629391300405	-0.0127408914896059
6.4	0.0065599343236844	-0.00341094523942424	-0.00278415072455979	-0.00138260085473305	-0.0027745212729238	-0.00138737880542136	0.00188146570199094	-0.0129597418541652
6.5	0.00476179393028785	-0.00484387576145623	-0.00294402384601549	-0.000991976011437122	-0.00295183419899071	-0.00098761179734194	0.00162224138215884	-0.0133285539307695
6.6	0.00300357555059861	-0.00579844465814211	-0.00306040901111066	-0.000578868802527881	-0.00306198723942442	-0.00058282587929563	0.0013235979324024	-0.0139653751803669
6.7	0.00120372685702563	-0.00653705645869859	-0.00312269840597281	-0.000148705347882349	-0.00313156315586641	-0.000142565691588805	0.000482099555271305	-0.0146332902020613
6.8	-0.000938648275291368	-0.00695077969876608	-0.00311427271141101	0.000290447040693499	-0.00312537759835719	0.000295350508776634	-0.000731929110088911	-0.014872032773188
6.9	-0.00338884889515363	-0.00665052094349388	-0.00305101203597982	0.000726478002710792	-0.00305401957839506	0.000728833004123037	-0.0018940608798989	-0.0146229223091415
7	-0.00566609192008736	-0.00552065104228427	-0.00292359678475091	0.00115392439630996	-0.00293641098937667	0.00115160671697226	-0.0027366466228942	-0.0142800494175371
7.1	-0.0074664772108122	-0.00375827635617747	-0.00275094985848218	0.00155154189542029	-0.00274734541078459	0.00156025258661613	-0.0034882033437092	-0.0139171997967923
7.2	-0.00862676089778923	-0.00174882211532166	-0.00249518050584418	0.00192876296842007	-0.00250174016924957	0.00193081063356908	-0.00413908569698678	-0.0135849775865081
7.3	-0.00943478847624993	0.00015648091696563	-0.00219652407010527	0.00225525014172728	-0.00220778843705899	0.00226027751644744	-0.00476717007320227	-0.0133751389554261
7.4	-0.0101250694525494	0.00211833177449565	-0.00184925918720197	0.00254269507225263	-0.00185618250603122	0.00255632375291509	-0.00569262357527055	-0.0130849836680509
7.5	-0.0107464857263729	0.00425049578588253	-0.0014772607213731	0.00278231011060494	-0.00147026130014406	0.0027897159066487	-0.00637997234383181	-0.0127445717948732
7.6	-0.0109449679336246	0.00659965440186011	-0.00106583470087066	0.00295739094955785	-0.00106721282663014	0.00295269749516163	-0.00674651369231049	-0.0128049971548807
7.7	-0.0102188370593133	0.00898011602333628	-0.000635296574835103	0.00307254873835938	-0.000636634685964212	0.0030714913615898	-0.00726791909954891	-0.01289171165652
7.8	-0.00887823287595208	0.0109580636868441	-0.000211411438807451	0.00311460563555609	-0.000219177302169774	0.0031210400087425	-0.00805315448132079	-0.0129944216299961
7.9	-0.00686516142191172	0.0124054562809492	0.000223659055582742	0.00311571407792838	0.000231548151241635	0.003117205108721	-0.00875911173251247	-0.0124704207885345
8	-0.00482962988697393	0.0139989225842745	0.000655928812933177	0.00304095653139265	0.000655999217392002	0.00304581693322423	-0.00949561655609791	-0.0125161999335767
8.1	-0.00179042873923291	0.0147669948108108	0.0010555072239271	0.0029251252874825	0.00107447839178942	0.00292628784469047	-0.00988390133768685	-0.0120245855776338
8.2	0.00128145691314903	0.0147693151750901	0.00144987874550727	0.00275147482293982	0.00145909332792703	0.00274441138147245	-0.0104640864202195	-0.0117140958583287
8.3	0.00408223389902824	0.0139177874730738	0.00181924043063107	0.00252437085107459	0.00181747692206066	0.00253779239282952	-0.0111328127228435	-0.011313850508763
8.4	0.00633923505686799	0.0126659940554104	0.00215297134442267	0.00226140203288707	0.00214996405677015	0.00226114167038966	-0.0118234759079623	-0.0107910646602957
8.5	0.0082567194794734	0.0112425082723397	0.00244298827959117	0.00194594817359034	0.00244204965672464	0.00194910500183753	-0.0124672358902139	-0.0101317278636625
8.6	0.010076085333927	0.00965607181175374	0.00269908752557688	0.00159868221697645	0.00270867406496068	0.00159229907866138	-0.0129618576107753	-0.00952230653713765
8.7	0.0117896880805559	0.00751806751667786	0.00289956345639637	0.00120451923124253	0.00290512055856051	0.00120533247996502	-0.0135191144224443	-0.00902961841911758
8.8	0.013055917872695	0.00472228295976259	0.00305304824328491	0.000796319010411907	0.00305898103586796	0.00078760746855207	-0.014300710923185	-0.00859483011662096
8.9	0.0135457179724314	0.00144795208823564	0.00314731421417308	0.000358506539701702	0.00314646879371641	0.000356229637667285	-0.0149997490621975	-0.00775164880257932
9	0.0131442357195125	-0.00189947869870495	0.00317113481244995	-9.45490626051507E-05	0.00317427308589565	-9.03671885606885E-05	-0.0152993089825508	-0.00664449895624451
9.1	0.0121918120983964	-0.00517060167299533	0.00313421280125768	-0.000549925641445762	0.00313700501686735	-0.000536846437386386	-0.015169815913522	-0.00566199186732405
9.2	0.0104445099609627	-0.0082793893495078	0.00302786457435836	-0.000983232204712893	0.003035641223944	-0.0009860927948373	-0.0149788425027904	-0.00492883351548132
9.3	0.00786360356348854	-0.0110412205719161	0.00285641596144271	-0.00140363461085241	0.00285569554325989	-0.00140869343803858	-0.0147637176438341	-0.00417785950673779
9.4	0.00447883388244687	-0.0129644243757903	0.00262603669135463	-0.00180614269803528	0.00263262004736146	-0.00179844262078024	-0.0144416295471178	-0.00337510667322963
9.5	0.000673215134340349	-0.0138640847490967	0.00233969883091425	-0.00214766638558324	0.00234719082895328	-0.00214903721960742	-0.0140875996177504	-0.00280970256744158
9.6	-0.00304288604923095	-0.0137396176533456	0.00201067497750633	-0.00245327328778638	0.00201101063659287	-0.00245228343150384	-0.0138902409356801	-0.00240087202449983
9.7	-0.00652610115907007	-0.012920618943685	0.00163302401207796	-0.0027006159828135	0.00163856680786344	-0.00270799159360735	-0.0138835239207039	-0.00199094515552527
9.8	-0.00991437157284302	-0.0116100050985294	0.00124128255092378	-0.00290274169986533	0.00124703715385767	-0.00289423161020124	-0.014063939955448	-0.00143749283637723
9.9	-0.0132399426078715	-0.00957609207559324	0.000834053588075362	-0.00303371646947894	0.000826713794010384	-0.0030324649681993	-0.0143026183538018	-0.000615208529928087
10	-0.0162792000052856	-0.0065990796536882	0.000406713911111929	-0.00311572426131363	0.00039920638024768	-0.00312815337392101	-0.0143095891024725	0.000411355082704935
10.1	-0.0184479411209222	-0.00283590023393665	-2.89603572397646E-05	-0.00314321078355044	-3.91813498690353E-05	-0.00313783122814326	-0.0139739986867987	0.00127510426836456
10.2	-0.0196118893917982	0.00117664132950884	-0.000466977557646451	-0.00310711115569869	-0.000470387339836006	-0.00310434717562985	-0.013543350799635	0.00193811207123188
10.3	-0.0200638835138898	0.00517377822251072	-0.000892460461567408	-0.00300718249030703	-0.000884327180182498	-0.00301620141722328	-0.0131412016729278	0.00252772244369105
10.4	-0.0199768281849635	0.00927355837231246	-0.00128619432527193	-0.00286216889975826	-0.00128444944784056	-0.00286835497066358	-0.0125393231656218	0.00302402750300403
10.5	-0.0191626131628918	0.0137120595020424	-0.00167929197947545	-0.00267516563829953	-0.0016763017709915	-0.00266209804583355	-0.0118222583742322	0.00340016355862193
10.6	-0.0171965773040893	0.0181816238181516	-0.00203950977028562	-0.00241605522363933	-0.00203727159021058	-0.00241987762480075	-0.0111173467889551	0.00347707479637447
10.7	-0.0141196868065064	0.0222397179754589	-0.00236720710139935	-0.00212164031039821	-0.00236373493711132	-0.00211627737182364	-0.0106083047098665	0.00348810629813227
10.8	-0.0102203911540487	0.0255411184057452	-0.00265218022401374	-0.00176347872494905	-0.00264683880005796	-0.00177246369716236	-0.0103133137569383	0.00355546074577349
10.9	-0.00587247942243764	0.0282307805383403	-0.00287646793529612	-0.00138478602168631	-0.00288173638977851	-0.00138408092299547	-0.0101233909328512	0.00377407131089392
11	-0.000763873990848804	0.0302452092298599	-0.00304971469822342	-0.000957172409575281	-0.00305461032220605	-0.000964045982803905	-0.00967456264939733	0.00409690572546057
11.1	0.00506981947970119	0.031308355369875	-0.00316752296489809	-0.000516126670132261	-0.0031564717689402	-0.000513203801349124	-0.00905204449224995	0.0041930631370359
11.2	0.0113989790971274	0.0308741124635008	-0.00319941197458356	-5.94567888944318E-05	-0.00320670783364891	-6.43644100481752E-05	-0.00843753311947461	0.00407972607749723
11.3	0.0175564716878626	0.0285443146970384	-0.0031679731654977	0.000408336872591281	-0.00317978031602904	0.000398191107600924	-0.00774669072162638	0.0037907592299661
11.4	0.0228320413503705	0.0251007279713944	-0.00308326338317493	0.000852163286448913	-0.00307819885227651	0.000859806177753057	-0.00730894069192158	0.00361166667137428
11.5	0.0272495632636437	0.0207990859326565	-0.00292375495380096	0.00127844262111226	-0.002926447358529	0.00128889518799341	-0.00693649911525199	0.00340766821844198
11.6	0.0307722234533092	0.0156714905690011	-0.00271075815307625	0.00167265897637066	-0.00271069738440625	0.00167563099695412	-0.00649663758986128	0.0028829716834783
11.7	0.0333217001930085	0.00983054860875596	-0.00243129889858815	0.00202378706674813	-0.00243173566050068	0.00203246562792139	-0.00621486735604652	0.00220632995978701
11.8	0.034584314035512	0.00349127872925234	-0.00212106548117606	0.00234638964645087	-0.00212517138165608	0.00234815840031582	-0.00612502941401321	0.00172397148544132
11.9	0.0343689700400548	-0.00273757104850637	-0.00176255314916485	0.00260834049145169	-0.00177552260219496	0.0026128397137596	-0.00615220347093124	0.00181859906028178
12	0.0329975735009108	-0.00869393123664291	-0.00138672441542253	0.00281639061004786	-0.00138611162317755	0.00281779217620674	-0.00584209750084629	0.00164769167165259
