# GHZ S RI R 50
0.2	0.00591350369483273	-0.000658632011392017	0.00304844946154807	-0.000899448673830628	0.00305882290270363	-0.000892643282774955	-0.0140729948565315	0.0029682857874488
0.3	0.00597356987310952	-0.00146254310170177	0.00290350614368146	-0.00132400199988689	0.00289626957913568	-0.00131105510434219	-0.0135305311995853	0.00433914151230153
0.4	0.00608490464893648	-0.00239509891325125	0.00267036889064693	-0.00169660547762773	0.00267562525958618	-0.00170517301552878	-0.0126079137068016	0.00561473795192157
0.5	0.0059318258528047	-0.00361881342265617	0.00240933117278596	-0.00205338950660437	0.00242084336331386	-0.00206564565691266	-0.0114695784616588	0.00636360186616857
0.6	0.00529527546932672	-0.00494687637788803	0.00209439381546591	-0.00236678697061414	0.00209359278075979	-0.00237392876144615	-0.0105710374737085	0.00657852061939372
0.7	0.00401398114082728	-0.00606180024192977	0.00174519038501676	-0.0026422078224149	0.00174323688078026	-0.00264240173858542	-0.0102386776438869	0.00665351250823142
0.8	0.00235895400618057	-0.00667888808261775	0.00135873006989282	-0.00285620239902128	0.00134614806649769	-0.0028607110496827	-0.0102997093237359	0.0070686983452575
0.9	0.000520070236873714	-0.00659871685733171	0.000942110674792191	-0.00301577606610696	0.000943119085713809	-0.00302644460885506	-0.0103946192602197	0.00793965696256058
1	-0.00108973960865374	-0.00595320837817011	0.000519388929793512	-0.0031153612893424	0.000509563604688424	-0.00311608140077756	-0.0101154447408072	0.00917302298666195
1.1	-0.00236029594752694	-0.00503631745852282	6.75866152273147E-05	-0.0031412486005932	6.40765456660958E-05	-0.00315881675361325	-0.00940421594526792	0.0104672088544683
1.2	-0.00334237761600988	-0.00431025896240616	-0.000369683776801433	-0.00312922249555169	-0.00037049118452706	-0.00312715604172931	-0.00806348848354922	0.01143511330679
1.3	-0.00446522108952341	-0.00391621124445406	-0.000791577379070346	-0.00304661973238427	-0.000794799532017372	-0.00304861733616451	-0.00628193104709347	0.0118906938565165
1.4	-0.00560210900016041	-0.00341542048626238	-0.00120808401788623	-0.00290103314300328	-0.0012068671285948	-0.00290653694006462	-0.00456927994117944	0.0116028729200423
1.5	-0.00612535697699959	-0.00240755386281865	-0.00160542977026961	-0.00270948001186692	-0.00160380200162018	-0.00271793765293557	-0.00323202691346212	0.0109432148822227
1.6	-0.00609675039903084	-0.00109443102022194	-0.00196442961136781	-0.00246238449170769	-0.00196462145121385	-0.00246759940772394	-0.0027735746256357	0.0105293112507466
1.7	-0.00565573022782282	0.000233603343451534	-0.00229342611045959	-0.00217097546790397	-0.0022944142239609	-0.00216473654311594	-0.00247960817680382	0.0105549182661942
1.8	-0.00495650322238043	0.0016173388770174	-0.00256710740186039	-0.0018241189187299	-0.0025780268925866	-0.00182979163149132	-0.0021099404251629	0.0108219763409999
1.9	-0.00391040092309084	0.0027822400371489	-0.00279645021161318	-0.00145647105029889	-0.0028089035840952	-0.00145037748812284	-0.00156006111081557	0.0112051257879127
2	-0.00259849232053731	0.00366270296897881	-0.00297678286281137	-0.00104993667503406	-0.00298642213519041	-0.00104526690493443	-0.000832012325620895	0.0115752601942479
2.1	-0.00110169975639146	0.0040864297415417	-0.00309459193752395	-0.000620620467846774	-0.0030904994667017	-0.000622599730435979	9.03006562612181E-05	0.0116819253365681
2.2	0.00037748949366838	0.00411077563271306	-0.00315514533245526	-0.000179831612734205	-0.00316645410375685	-0.000182699559008203	0.00105096244741733	0.0115498452569473
2.3	0.00172180976532574	0.00366549788409625	-0.00315193562061	0.000266971651687821	-0.00315162144655407	0.000260080501173982	0.00181211637609578	0.0112329542906338
2.4	0.00281420091190614	0.0029708931402216	-0.00307901652533597	0.00070866991374799	-0.0030815573803649	0.00070440586632986	0.00248699037788529	0.0110556360312452
2.5	0.00369155941785273	0.00207976481017268	-0.00293980602166175	0.00112337283955763	-0.00295070221325238	0.00112975798667122	0.00331909887358051	0.0108705480055583
2.6	0.00445144780655426	0.00104166273922123	-0.00276274731637516	0.00152721785977498	-0.00275919862662471	0.00151489319208286	0.00430868299393258	0.010498238419109
2.7	0.00511767955489395	-0.000181401817028798	-0.00251360817090726	0.00189742393115174	-0.00251888329905804	0.00189744005580396	0.00513115857580456	0.00987515383381595
2.8	0.00565568002157035	-0.00163076029150543	-0.00222833491883353	0.00222196044736292	-0.00222052695254131	0.00223172395598098	0.00571963632885076	0.00934127091674525
2.9	0.00599974087580986	-0.00328725338932847	-0.00189335263861398	0.00251788690124776	-0.00188965461767236	0.00251745918450508	0.00647371430644654	0.0090110813181148
3	0.00597784652750719	-0.00510975472971862	-0.00150869885805595	0.00274882240270161	-0.00152342532294595	0.00275489583892813	0.00745416930795273	0.00862933103033736
3.1	0.00560949246585011	-0.00701364660688882	-0.00112223078732428	0.00292229582587763	-0.00111760472929366	0.00293060824220593	0.00838248172664145	0.00794546548749737
3.2	0.00469192500142373	-0.00891714386759631	-0.00070729254114711	0.00305759294023431	-0.000709027510079112	0.00305698064459443	0.0089309782872119	0.00724395203397215
3.3	0.00327750706495639	-0.0107633482807137	-0.00027522110974403	0.003128155974005	-0.000273565043726489	0.00312443861242551	0.00945957739464095	0.00655992667437709
3.4	0.00128351754385802	-0.012237626940663	0.000165744210378316	0.00312571994344921	0.000159476650775371	0.00314218967684699	0.0100096834444409	0.00577299231638156
3.5	-0.00105749471461345	-0.0132818626486652	0.000583266782858584	0.00308872206019025	0.000588846502982123	0.00308883264680742	0.0103946779245671	0.00475734139857844
3.6	-0.00365707461653935	-0.0137523710065799	0.00101021159114635	0.00297709825894449	0.001018393798436	0.00297683953795887	0.0105904417987964	0.00380371000610669
3.7	-0.0062810339078353	-0.0136786528402749	0.00142247393975278	0.00280398645715246	0.00141278387575676	0.00281759114058006	0.0107259659109967	0.00289105104883324
3.8	-0.00890621504622724	-0.0130898647332086	0.00180530431799554	0.00258361305497623	0.00180764394589887	0.00259279665836943	0.0107158735255145	0.00206588667712716
3.9	-0.0113551894235693	-0.0119845541420209	0.00215819212079227	0.00231502898044174	0.00215091532399191	0.00231319267400321	0.0106802661991765	0.00138870360551491
4	-0.0135736922506435	-0.0103891437612966	0.00245120129008684	0.0019951696851836	0.00245568590595461	0.00199275122267891	0.0108050887472192	0.000843553163089942
4.1	-0.0154088129639547	-0.00836724635231894	0.00271140288757745	0.00163332340902131	0.00271013946718043	0.00163405729783362	0.0111367033293339	0.000229706541852077
4.2	-0.0168328338892406	-0.00601863417722152	0.00291742899915368	0.00122715094773339	0.00292195372313164	0.00121839421865556	0.0114254831557036	-0.000555631844977327
4.3	-0.0178250429714127	-0.00354286364372269	0.00306463251558764	0.000808087087827432	0.00307111253101122	0.000800243966256624	0.0115840554854065	-0.00146326125752857
4.4	-0.0185240256518734	-0.000883804624720834	0.00314193178127666	0.000366156958835441	0.00314432216449701	0.000363886611129872	0.0115692662636889	-0.00230617277211235
4.5	-0.0188062688938816	0.00198770605103862	0.00316255108649015	-7.90275331447995E-05	0.00316793874881046	-8.2426076986157E-05	0.0116195518588452	-0.00311424501491778
4.6	-0.0186013414566841	0.00495091746325757	0.00311379229820817	-0.000527182180530682	0.00311505492119829	-0.000514210810303693	0.0115927954016186	-0.00412780329200445
4.7	-0.0176868643943307	0.0079006487783974	0.00300246767616037	-0.00094853641429883	0.00301777751654171	-0.000958229674613847	0.0113145345536261	-0.00520645984501763
4.8	-0.0162496294972735	0.0105685606532287	0.00283522091922277	-0.00136220173426036	0.00284369686032388	-0.00136832880889866	0.0108072031952103	-0.00610889613532409
4.9	-0.0141830488170192	0.0128735388512267	0.00260958981396848	-0.00174321068444729	0.00261376644289549	-0.00174031616369255	0.0103635504423375	-0.00673144221050532
5	-0.0117098288573018	0.0146763013136876	0.00234733734622593	-0.00209347242455729	0.00235096214084293	-0.00209081788317239	0.0102812144148499	-0.00725368701044827
5.1	-0.00871500271893108	0.0159802053040966	0.00203693107180978	-0.00239873785989809	0.00203922931561342	-0.00239738474575416	0.0103160107845327	-0.00803605043499746
5.2	-0.00555227411296576	0.0165312273592756	0.00168250517029364	-0.00264433307944972	0.0016842163983865	-0.00264946432048174	0.0101464245035381	-0.00890334672311432
5.3	-0.00243966312982062	0.0163559348062014	0.00130093142705854	-0.00285767014169707	0.00130405369600995	-0.00285560622274448	0.0098447464292541	-0.00959018725521884
5.4	0.000357292222946244	0.015635494437613	0.000881900134320696	-0.00300610720559365	0.000899074473170126	-0.00301724433744824	0.00963931289587	-0.0103373967260686
5.5	0.00278271566312829	0.0146131612831343	0.000473272958467016	-0.0031078021893246	0.000483361601280785	-0.00311718273739234	0.00931171189976587	-0.0112854670879822
5.6	0.00497634986360304	0.0133241209473233	3.75320378834686E-05	-0.00315016960278671	2.90144450764189E-05	-0.00315343428843791	0.00860724594113962	-0.0122222675732291
5.7	0.00688790394934353	0.0117197544404306	-0.000393922750355876	-0.00312699531857193	-0.000410559520421453	-0.00313075318675136	0.00754929225888351	-0.0128923308284222
5.8	0.00848026621618406	0.00970084273205656	-0.000843765171291864	-0.00303908250322257	-0.000847246135622924	-0.00305315000820046	0.00642239142665369	-0.0134182215085631
5.9	0.00948512422273557	0.00741610894606528	-0.0012554366284523	-0.00290413473274187	-0.00126371661051929	-0.00290408700848336	0.00518630192888576	-0.013664069099396
6	0.00982641776277929	0.00499291119934293	-0.00166257448255805	-0.00269976351061612	-0.00165898669111905	-0.00269992113937871	0.00396973772101841	-0.0135968420741768
6.1	0.00961857010886091	0.00265579756752327	-0.00202692651315309	-0.00244330386207868	-0.00202858416124748	-0.00243926825227641	0.00311584764672223	-0.0133361510561552
6.2	0.00899271220711814	0.000382258736700764	-0.00234769745659125	-0.00212431985461639	-0.00235144846439727	-0.00213629155442168	0.00253763292782084	-0.013280683175197
6.3	0.00800681050089334	-0.00186405473288308	-0.00263082842547676	-0.00178124886952497	-0.0026400192109781	-0.0017754346111141	0.00202070422299572	-0.0134902282681986
6.4	0.00647442130242868	-0.00398431414887396	-0.00285863470034938	-0.0013801993475538	-0.00284885613028566	-0.00138518747985583	0.00160029526579742	-0.0137927241827418
6.5	0.00456984069365066	-0.00562318411302049	-0.00301254815633382	-0.000965104506910833	-0.00302043368447094	-0.00096054209377519	0.00126322688212006	-0.0143206376878639
6.6	0.00254058294464526	-0.00663322607756086	-0.00311443763439245	-0.00053175178244497	-0.00311610989996817	-0.000535736632828835	0.000717802421865186	-0.0150162795201159
6.7	0.000517824313391966	-0.00717473565405255	-0.00315612707902875	-8.87392272593912E-05	-0.00316495766588557	-8.23652399358364E-05	-0.000378422988262359	-0.0155077979857252
6.8	-0.00161565159332921	-0.00731690140646537	-0.00312458375198566	0.000353887084471707	-0.00313564847972578	0.00035903674763254	-0.00165557997045788	-0.0154489915656175
6.9	-0.00389820514942796	-0.00696260672441397	-0.00303994091957137	0.000784414765682787	-0.00304290675716109	0.000786828263295432	-0.00263626191227457	-0.0150678426461208
7	-0.00607868829923941	-0.00588274404493221	-0.00289629442442724	0.0011989835910159	-0.00290911083238689	0.00119688418169105	-0.0033607913838744	-0.0147142263965395
7.1	-0.00792749536393517	-0.0041906936286934	-0.00271508236625974	0.00157976688905685	-0.00271138134788746	0.0015883814924649	-0.00413035034391988	-0.0144105876324978
7.2	-0.00919425055141948	-0.00212313625972858	-0.00245913172672711	0.00193935210231641	-0.00246562578295995	0.00194144873626096	-0.00491865119009483	-0.0140244515911687
7.3	-0.0100023718046743	-2.40973516085712E-05	-0.00216776064165324	0.00225174036007987	-0.00217891520978293	0.00225679663673224	-0.00563386191953657	-0.0135596020906735
7.4	-0.0106260362560178	0.00196924966222785	-0.00183260182497686	0.00253123118159987	-0.00183945398724474	0.00254479202070828	-0.00626155034482112	-0.0132008425931412
7.5	-0.0110620201474579	0.00413190344668543	-0.00147403860431443	0.00277050102214191	-0.00146707204389176	0.00277788472694836	-0.00665030977442657	-0.0127876403302959
7.6	-0.0108991780707491	0.00655807331607908	-0.00107372412510269	0.00295259593612074	-0.00107508793725736	0.00294790125653101	-0.00685731127532054	-0.0124361771288012
7.7	-0.0103547602004476	0.00885746317166984	-0.000648551849629157	0.00308001053376629	-0.000649890356418007	0.00307894489818545	-0.00734545280997948	-0.013045489686
7.8	-0.00895596527947946	0.0107910215442289	-0.000222427099704408	0.00313614676998594	-0.000230267928323651	0.00314260326670893	-0.00810096238100962	-0.0132114616762154
7.9	-0.0072632075364947	0.0123678872429499	0.000222759571647017	0.00314952094365183	0.000230732082334365	0.00315103641819007	-0.0087667980542569	-0.0132682791473235
8	-0.00477062401640146	0.0135274049003962	0.000671621277204682	0.0030810942962236	0.000671703388484132	0.00308602101261244	-0.0093589192268561	-0.0129595370555939
8.1	-0.0020978509181029	0.0143727774240989	0.00109068060619044	0.0029635323229423	0.00110995249676442	0.00296459053768842	-0.0102502817049093	-0.0129783345929202
8.2	0.000897514369375259	0.014417287998562	0.00150379254456707	0.00277867026196471	0.00151307334369135	0.00277139134320376	-0.0111477952842815	-0.0125960356690845
8.3	0.00378116786833315	0.0136464478869216	0.00188663517972295	0.00253189981210041	0.00188506272788364	0.00254554615427011	-0.0119653437794081	-0.0119808851182293
8.4	0.00620475632736315	0.012322135727498	0.00222528768501959	0.00224394992650364	0.00222223917409492	0.0022437484953209	-0.0126366013916216	-0.0112922179797594
8.5	0.00816405008691025	0.0106601677629293	0.0025094354772336	0.00190220368672263	0.00250856585367466	0.00190540822411859	-0.013241019775655	-0.0105884838420301
8.6	0.00979501402233678	0.00886178600927877	0.00274948762648819	0.00153176200160399	0.0027589330432126	0.00152510557322241	-0.0137893514479862	-0.00996875814742052
8.7	0.0112794166978742	0.00671869652437313	0.00292521825763136	0.00112204344098667	0.00293078356923191	0.00112270240749075	-0.0144180151847685	-0.00939952280999858
8.8	0.0123976305685316	0.00407802950715929	0.00304969945060179	0.000708410952109845	0.00305535190728709	0.00069961125889999	-0.0152296900252871	-0.00869198899322346
8.9	0.0128850255213408	0.00095246636985339	0.00311465297188359	0.0002766506707907	0.00311376288242119	0.00027442447332399	-0.0157384181035337	-0.00757313854147686
9	0.0125029810468461	-0.00231986544483135	0.00311380961160208	-0.000159632080032667	0.00311698112566103	-0.000155589220009358	-0.0157336992541289	-0.00636324277782695
9.1	0.0114218654186778	-0.00539121166302832	0.0030606069963027	-0.000590655911066184	0.00306355894994644	-0.000577892125599199	-0.0153998944529993	-0.00543505218642519
9.2	0.00975736884194666	-0.00830241735442579	0.00294893936752288	-0.000996364658956458	0.00295650942578209	-0.000999251498952011	-0.0150782222570652	-0.00477872808321021
9.3	0.00739941566683699	-0.0109541750265572	0.00278301739891899	-0.00139027011235096	0.00278228083832049	-0.00139521025071929	-0.0147290583882993	-0.00412198077948629
9.4	0.0042592652369577	-0.0130958725485374	0.00256729431960471	-0.00177158938756662	0.00257374889934288	-0.00176406350136995	-0.0143126680131058	-0.00364221573360204
9.5	0.000554816836731541	-0.0140692439868015	0.00230141711167221	-0.00210110758501079	0.00230877194221528	-0.00210243281206788	-0.013904655294963	-0.00320779436822263
9.6	-0.00326154563387386	-0.0141137534954772	0.00199414155840825	-0.00240440875953965	0.00199446643360504	-0.00240343204290726	-0.0138761076958123	-0.0030476140499186
9.7	-0.00687458105751726	-0.0133160502722432	0.00163523959977241	-0.00265878987212407	0.00164077655932919	-0.00266604317566041	-0.0141198976293422	-0.00270329308706331
9.8	-0.0103041845990914	-0.0119558494347897	0.00125543234041044	-0.00287428022378042	0.00126108414734583	-0.00286578156605601	-0.0144615816916784	-0.00206214852409897
9.9	-0.013647809921866	-0.00985670664959115	0.000851324821647369	-0.00302125454995964	0.000843994440283221	-0.00302005256350169	-0.0147830899533951	-0.00109273618886377
10	-0.0166921075529059	-0.00695300752417484	0.000418501579793675	-0.00311741941827049	0.000411031754477601	-0.00312988861817528	-0.0147754673920004	-6.46275192005448E-05
10.1	-0.0189908269821494	-0.00320902234573324	-2.93653958220782E-05	-0.00315328326779162	-3.96186167777327E-05	-0.00314788545335993	-0.014513945513752	0.000791067895317057
10.2	-0.0202624278436649	0.000956396447104244	-0.000482637006278796	-0.00311710492978262	-0.000486047723372192	-0.00311431501528143	-0.0141659910241302	0.00154849473974234
10.3	-0.0206037560002548	0.00516778333257389	-0.000921795552024588	-0.00300807026387947	-0.000913718555409305	-0.00301718789762344	-0.0137105967896466	0.00228787843262712
10.4	-0.0202347757269752	0.00930386568416055	-0.00132344668999355	-0.0028468021240806	-0.00132178052030542	-0.0028530130622984	-0.0129197290934718	0.00282577377087015
10.5	-0.0191957897141419	0.0135643550658583	-0.00171575610082199	-0.00263931398224707	-0.0017125696553474	-0.00262633909093763	-0.0120342289623308	0.0030893489916655
10.6	-0.0171677992816586	0.0178193472702012	-0.00206470200056338	-0.00236043294642867	-0.00206254905268341	-0.00236426263461008	-0.011288796556114	0.00301151811655416
10.7	-0.0140641932814582	0.0217393310705693	-0.00237207508331355	-0.00205139612641054	-0.00236855643759869	-0.00204616685151726	-0.0108156290174151	0.00294620064795108
10.8	-0.0100888787402645	0.0248514902580018	-0.00263010349080039	-0.00168810125485088	-0.00262500548289023	-0.00169700139314182	-0.0105271395537448	0.00299628051540593
10.9	-0.00570647446528879	0.0270957015563669	-0.00282613832313742	-0.00131554664430345	-0.00283127341831405	-0.00131479126747814	-0.0101932258060005	0.00316446289266032
11	-0.000926099751144219	0.0287319451623919	-0.00297409631806049	-0.000905937962863596	-0.00297891436566414	-0.00091258320669136	-0.00976290973258557	0.00331718014282942
11.1	0.00434675178894013	0.029652115586633	-0.00307449020307465	-0.000492117544546913	-0.00306376053563225	-0.000489311897460477	-0.00930787445942304	0.00327863270378218
11.2	0.0101225272875889	0.0294168160445213	-0.00310098096377931	-6.8307925742363E-05	-0.00310803643858576	-7.30892133525567E-05	-0.00892658591357094	0.00319391607167636
11.3	0.0160538278088346	0.0277986662571141	-0.00307702529786577	0.000366021647060651	-0.00308838265162044	0.000356067418435327	-0.00858683306658952	0.00328747802399971
11.4	0.0212458170432629	0.0247002033799365	-0.00301141496443757	0.000781626507892323	-0.00300660653525965	0.00078913637960637	-0.00805442008185464	0.00330590443548731
11.5	0.0254936018264113	0.0207115978718239	-0.00288040421964132	0.0011891352285374	-0.00288324406442594	0.00119928610400758	-0.00753961964398282	0.00293934924202653
11.6	0.0291390680924973	0.0160705972356392	-0.00270024146277394	0.00157678409522346	-0.00270025280198467	0.00157970224101013	-0.00716016275931242	0.00245260238560248
11.7	0.0320338673731625	0.010676290735263	-0.00245278965026847	0.00193464186739024	-0.00245344650547585	0.00194319792268487	-0.00694350835290788	0.00189828521133865
11.8	0.0338453426661574	0.00454180569210823	-0.00216871053565848	0.00227459187824901	-0.00217283546043695	0.00227624033383061	-0.0068031851491585	0.00153574122982333
11.9	0.0343045077635307	-0.00183132744883672	-0.0018262232103647	0.00256190728832059	-0.00183929358132897	0.0025660780236222	-0.00650171601047688	0.00165372986005853
12	0.0331587587007353	-0.00821742093704655	-0.00145440069079561	0.00279708548206271	-0.00145381635825283	0.00279850617903301	-0.00612681491183737	0.00132753886267908
