# GHZ S RI R 50
0.2	0.00603552420655082	0.00370381334114565	0.00304827710992538	-0.000895774124261799	0.00305863917596488	-0.000888959970235983	-0.0138762026978739	0.00738044531101493
0.3	0.00662126488702487	0.000204228122593511	0.00290508818263198	-0.00131760877994624	0.00289782810565245	-0.00130468148586296	-0.0128157862797058	0.00599825992299496
0.4	0.00583116084239774	-0.00234780514499229	0.00267559919356728	-0.00168822105564097	0.00268088218683284	-0.00169677195472969	-0.0128947389543916	0.0056148405953223
0.5	0.00438371605746973	-0.00387089179828184	0.00241981059883689	-0.0020448127035664	0.00243138315237987	-0.00205702973549901	-0.0132005789850287	0.00612459357327953
0.6	0.00295032828406877	-0.00449938161820937	0.00211062121494365	-0.00236079043341366	0.00210985503471283	-0.00236795046487746	-0.0131952731409612	0.00721391950477901
0.7	0.00177788434222889	-0.00464316536251785	0.00176630195127133	-0.00264176774331889	0.00176434258913182	-0.00264197336677489	-0.0127151023107793	0.00846771009545026
0.8	0.000945033278662055	-0.00473825490892561	0.00138230142442572	-0.00286378688104808	0.0013696775932542	-0.00286839144160984	-0.0117970442453111	0.00951749160137167
0.9	3.90907912507102E-05	-0.00491530950115266	0.000964631004780134	-0.00303273870403662	0.000965702231542519	-0.00304347934645733	-0.0108079605584702	0.0100765054444066
1	-0.00114311994282121	-0.00509662168301536	0.000536910993614802	-0.00314132501778283	0.000527000000888355	-0.00314209210996354	-0.0101036224302691	0.0103251433166639
1.1	-0.0027331626989173	-0.00498970140317181	7.61257648171957E-05	-0.00317400784477018	7.26226962758525E-05	-0.00319176890375635	-0.00990079350009945	0.0107245032316373
1.2	-0.00445651507282077	-0.00454318003391687	-0.000372534045483037	-0.00316524164274224	-0.000373351619756056	-0.00316315186848423	-0.00950632548891779	0.0115591966669689
1.3	-0.00608779053966417	-0.00389849658118117	-0.000806622701441029	-0.00308117474221578	-0.000809886688646014	-0.00308318996025902	-0.00825686663454945	0.012502381049866
1.4	-0.0072923862305159	-0.0031419798425443	-0.00123428158864564	-0.0029293496812346	-0.00123307396813377	-0.00293492204887178	-0.00656507935025595	0.0126645545867358
1.5	-0.00776591102230504	-0.00188725615626616	-0.00163979740339909	-0.00272773561415966	-0.00163820687340092	-0.00273629295182589	-0.00510030208194934	0.0124600918502867
1.6	-0.00754238694513612	-0.000214911964986311	-0.00200241489956703	-0.00246826014461366	-0.0020026515547971	-0.00247352029749674	-0.00428049422242476	0.0125860364476485
1.7	-0.00667983682850366	0.00132578463119771	-0.00233011387992939	-0.00216418893265392	-0.00233104930665615	-0.00215789715402711	-0.00322501325809742	0.0128139713170542
1.8	-0.00551693008235532	0.00262014017909618	-0.00259767917300666	-0.001806578419089	-0.00260870749957384	-0.00181216674189304	-0.00219918082082324	0.0127296338315819
1.9	-0.00424745079763638	0.00347782211343038	-0.00281778970408554	-0.00143180834994048	-0.00283021150874221	-0.00142557489971049	-0.00149300799286613	0.0125367121225242
2	-0.00296795090605975	0.00408596039388138	-0.00298739128428327	-0.00102264345729379	-0.00299699008539968	-0.00101788294034543	-0.00103282178229677	0.0125689091791304
2.1	-0.00160186573768567	0.0044277113350676	-0.0030952130873028	-0.000595366879172554	-0.00309114186944078	-0.000597375673565963	-0.000390705996828274	0.0127711924363997
2.2	-0.000152852015632361	0.00452534232618004	-0.0031484753117401	-0.000160277223576104	-0.00315977364415225	-0.000163069614513576	0.000648754965529969	0.0129287030690765
2.3	0.00132728011360162	0.00413696419763683	-0.00314196523660966	0.000278871234478	-0.00314167961373398	0.000271998277998785	0.00182160551894185	0.0126508344985283
2.4	0.00262102636317955	0.00337011146615475	-0.00307011058019081	0.000713119750089327	-0.00307265380659936	0.000708871162535747	0.0028245360121961	0.0120659790446093
2.5	0.00359988537326442	0.00225583084202173	-0.00293564433838878	0.00112268597411444	-0.0029465245092817	0.0011290656582789	0.00352660645245024	0.0113215118204001
2.6	0.00430934180729557	0.00101448718232091	-0.0027653171828139	0.00152519969234496	-0.00276175531238438	0.00151287343881205	0.00404099798189232	0.0107010790038912
2.7	0.00487600631373581	-0.000305183213698956	-0.00252276241194757	0.00189849504922745	-0.00252805088282346	0.00189850340850113	0.00448110835913294	0.0102021533028193
2.8	0.00536431856801845	-0.00180467801669614	-0.00224173659617494	0.00222999092580543	-0.00223390273063023	0.00223981084097106	0.00492735118326275	0.00983086823423183
2.9	0.00566865672719197	-0.00355751596649678	-0.00190681399290445	0.0025353763732004	-0.00190309003288662	0.00253494595096867	0.00553555982489831	0.00957863590047643
3	0.005555910475565	-0.00548298539391238	-0.00151697674924045	0.00277578658080823	-0.00153182186143797	0.00278194036567173	0.00628652880417205	0.00939984183257461
3.1	0.00504857750000626	-0.00739484652161088	-0.00112064089642878	0.00295641035314827	-0.00111593220048723	0.00296478555586291	0.00711779778154589	0.00917239501355725
3.2	0.00402105795493111	-0.00924468124447751	-0.00069212492156061	0.0030944298277399	-0.000693882344220746	0.00309382395598747	0.00792695125554984	0.00890444546355279
3.3	0.00255078569758246	-0.011010838377545	-0.000245149877093854	0.00316159090542917	-0.000243516565994661	0.00315781989337816	0.00889192373517312	0.0083322256567213
3.4	0.000548476674659285	-0.0124229603320552	0.000209126522438568	0.00314920700528982	0.000203028800919359	0.00316589648855802	0.00971242711863116	0.0073719564711842
3.5	-0.00181828084728648	-0.0134487688533328	0.000635945293881468	0.00309731845177992	0.000641559125094973	0.00309734062486226	0.0100941196301613	0.00618972641109755
3.6	-0.00444266255200534	-0.0138587409327956	0.00106574890680602	0.00296705075017407	0.0010739482034999	0.00296664606342757	0.0102705708656383	0.00533768606932852
3.7	-0.00709173104830713	-0.0136727171672694	0.00147335104946929	0.00277479824827842	0.00146392373380073	0.0027885704285052	0.0106264213873067	0.00455301962879158
3.8	-0.00964955032489774	-0.0129235694827945	0.00184449075680901	0.0025380099010037	0.00184698899788921	0.00254710675072784	0.0109700648971811	0.00358122615323294
3.9	-0.011914660426378	-0.0117045951952575	0.00218016169931869	0.00225834906465129	0.00217291403057462	0.00225665392871095	0.0110476745040123	0.00248674746423523
4	-0.0139032778799696	-0.0101184645441697	0.00245311271325418	0.00193503867836654	0.00245750896244352	0.00193258024335717	0.0109125321245263	0.0016218855734887
4.1	-0.0155689337684599	-0.00821165917778477	0.00269346404353216	0.0015773727030008	0.00269222724556406	0.00157811177035359	0.0109145090695686	0.00103665368514503
4.2	-0.0169114526069492	-0.0059980727884016	0.00288306855539758	0.00118251179601308	0.00288744627278155	0.00117385080346824	0.0111267286049522	0.000438689121862784
4.3	-0.0178483082425828	-0.00363121893186634	0.00301996294121682	0.000779449624274983	0.00302629937537078	0.000771698129959409	0.0113884588420114	-0.000492971129449172
4.4	-0.0184808810631024	-0.0010770477322858	0.0030943698431356	0.000355460779917671	0.0030967199165187	0.000353221360284635	0.011315064823575	-0.00154497144763736
4.5	-0.0187037014118974	0.00163628066753812	0.00311920749796794	-7.32916984790926E-05	0.00312452611984727	-7.66356181534086E-05	0.0110271631675332	-0.00245505817570164
4.6	-0.0185181408182269	0.00439960658013942	0.00308043909832505	-0.000509252293153728	0.00308163763460007	-0.000496423444771316	0.0106678539309131	-0.00320438145392501
4.7	-0.0177467484315063	0.0071958854760715	0.00298211720126565	-0.00092471709911171	0.0029973488494251	-0.00093424790500469	0.0103308124910137	-0.0038879451912646
4.8	-0.016445872636934	0.00985619787531249	0.00282784276387923	-0.00133899004003719	0.00283630822775853	-0.00134503681217459	0.0100677478496042	-0.00457869919038868
4.9	-0.0144562841415911	0.0122034023263309	0.00261214268889788	-0.0017263454849041	0.00261629543260791	-0.00172343709528798	0.00973597549846525	-0.00524130008148711
5	-0.0119903517313986	0.0140001480779705	0.00235456620972502	-0.00208641196960924	0.00235818329791747	-0.00208374522341124	0.0095651335604073	-0.00574362695437937
5.1	-0.00904436844661395	0.0152473074985041	0.0020425867090904	-0.00240205185431387	0.00204488853996949	-0.00240069449810341	0.00960973172082265	-0.00628799940560208
5.2	-0.00598428289639896	0.0158100486729857	0.00168087253276694	-0.00265540075264515	0.00168257639852871	-0.00266054984225253	0.00975973474443116	-0.00699495185843343
5.3	-0.00289670566439316	0.015763097497821	0.00128815148114513	-0.00287142004470388	0.00129129231915445	-0.0028693686117484	0.0098065835006263	-0.00788595268134406
5.4	3.69006199961638E-05	0.0151464582538284	0.000857069886961962	-0.00301586636616337	0.000874162775284502	-0.00302715761793011	0.00957699773520433	-0.00901679880914678
5.5	0.00265984765450508	0.0140522507258445	0.00043865097069871	-0.003107341992409	0.000448619498626808	-0.00311681525065956	0.00889082124863525	-0.0100723678330592
5.6	0.0049118478672935	0.0125363960354267	-1.61805426930767E-06	-0.00313439067871746	-1.01321010135826E-05	-0.00313753319803909	0.00793292696263468	-0.0106929644689811
5.7	0.00669617938937632	0.0107200455976896	-0.000430309026769065	-0.00309383808192988	-0.000446844135681086	-0.00309734970816747	0.00710580350582497	-0.0109777886309129
5.8	0.00802612426745948	0.00870268455395518	-0.000869178606937737	-0.00298962075671505	-0.000872782708868106	-0.00300346438897452	0.00643644667426818	-0.0114721257163888
5.9	0.00889289292861495	0.00661134091793015	-0.00126339174753491	-0.00284327764835941	-0.00127153332617097	-0.0028431484123852	0.00548816035322325	-0.0121201663790206
6	0.00931405681156015	0.00438972943950349	-0.00164820714421041	-0.00263510595063249	-0.00164469125433383	-0.00263528498955045	0.00410733644084519	-0.0125175994104992
6.1	0.00929685303763431	0.00210640160236939	-0.00198958041843236	-0.00238400714376586	-0.00199119019677339	-0.0023800550996176	0.00285061146731715	-0.0123709222670031
6.2	0.00880155736428003	-0.00021429054842579	-0.00229054827692884	-0.00207956337691157	-0.0022941940035038	-0.00209126740855492	0.00206166966097401	-0.0121318586609667
6.3	0.007934236206544	-0.00245772730497216	-0.00256023780840806	-0.00175761799468953	-0.00256925779288949	-0.00175199283443588	0.00157445490179742	-0.0122381520256613
6.4	0.00657686767863804	-0.00456715931404389	-0.00278382579462584	-0.00138193042079237	-0.00277419886906802	-0.00138670887819442	0.000942080242919122	-0.0125466859205364
6.5	0.00486372607784942	-0.00639971786826452	-0.00294353522925476	-0.000991402863676328	-0.00295134341420103	-0.000987038583811035	0.000261528821598253	-0.0127393262107901
6.6	0.00279361262708601	-0.00775593297449901	-0.00305979532536797	-0.000578434616915184	-0.00306137360433791	-0.000582390666627373	-0.000201740571801018	-0.0128122546336731
6.7	0.000494783539343359	-0.0085017350742504	-0.00312200417332834	-0.000148430478019233	-0.00313086644542111	-0.000142291524309428	-0.000700827506453971	-0.0129966570946707
6.8	-0.00188753680202601	-0.00858661667393828	-0.00311354038106708	0.000290552258573619	-0.00312464244298598	0.000295455212301882	-0.0014232102289237	-0.0132260320294733
6.9	-0.00420246754578448	-0.00803462096578184	-0.00305027802543829	0.000726415001397177	-0.00305328478743209	0.0007287695600055	-0.00242402549952633	-0.0132724269673192
7	-0.00625023030812858	-0.00699471180552358	-0.00292290639724418	0.00115369719240889	-0.00293571767467087	0.00115138021989434	-0.00348588806389059	-0.0130780860235524
7.1	-0.00811013529759611	-0.00554764106836006	-0.00275033486483406	0.00155117484517529	-0.00274673128270902	0.0015598835817629	-0.00446252438392704	-0.0124396976014731
7.2	-0.00969904281541912	-0.00368182067590435	-0.00249467147409878	0.00192828057106534	-0.00250122973182668	0.00193032763684053	-0.00491728392273747	-0.0116174755090214
7.3	-0.0109949862400808	-0.00145851912062987	-0.00219613572682453	0.00225468333416273	-0.00220739785867889	0.00225970920814375	-0.00488689266810923	-0.0111993522937573
7.4	-0.0118116419173799	0.00116953515390506	-0.00184900156633776	0.0025420705479872	-0.001855924128466	0.00255569603236094	-0.00510595922038401	-0.0112837840503664
7.5	-0.0120416510422622	0.00385665395485369	-0.00147713970856978	0.00278165641903851	-0.00147014216567095	0.00278906116798718	-0.00556714265218662	-0.011707760174513
7.6	-0.0117103788751837	0.00631158076445495	-0.00106584772441102	0.00295674264235999	-0.00106722523825546	0.00295204999024303	-0.00621087941147191	-0.012332032922799
7.7	-0.0105955796102388	0.00862046703323869	-0.000635425689305184	0.00307193226974464	-0.000636763469437339	0.00307087498045661	-0.00708017444612642	-0.0127148319716755
7.8	-0.00891390580409355	0.0105022078384509	-0.000211634994513326	0.00311403284985913	-0.000219400013589177	0.00312046542502984	-0.00820377238285766	-0.0130566731205675
7.9	-0.00644397415393983	0.0116954312891408	0.000223341975981525	0.00311519365089283	0.000231229570146971	0.00311668512770582	-0.00948162002424094	-0.0127293838032042
8	-0.00420295100145697	0.0125701779571512	0.00065555028781503	0.00304049382709279	0.000655620254554769	0.00304535340372597	-0.0110012903349125	-0.0124100805653977
8.1	-0.00140165029010709	0.012684470070352	0.00105507818192671	0.00292471192495773	0.00107404599092716	0.00292587588845263	-0.0117682083555841	-0.011184326882355
8.2	0.00110320053129512	0.0124213871821035	0.00144938096895915	0.00275109799825841	0.00145859447732563	0.00274403662521802	-0.0121211569727284	-0.0101596641967106
8.3	0.00350241153988638	0.0117425432129063	0.00181864317680726	0.00252404681574082	0.00181687874230962	0.00253746555014085	-0.0123058018620202	-0.00954059290383189
8.4	0.00575752673786511	0.0107127663882862	0.00215226141119745	0.00226117958514872	0.00214925478027412	0.00226091892941278	-0.0127887369220427	-0.00918594889799521
8.5	0.00783552014700348	0.00919571265682812	0.00244219984552285	0.001945883836771	0.00244126097438995	0.00194903986867515	-0.0136275646382675	-0.00857601438388421
8.6	0.00955261319021516	0.00726189396287334	0.00269827512364339	0.00159879609301972	0.00270786074609008	0.00159241582353983	-0.0143158093455062	-0.00758134686659
8.7	0.0108140236095749	0.00495815588945304	0.00289877091571287	0.00120480173156327	0.00290432676797763	0.00120561581864399	-0.0146140935791062	-0.0065557662483798
8.8	0.01157510286265	0.00242177336862276	0.00305229221209178	0.000796771172051573	0.00305822557852646	0.000788062516420428	-0.0147229694979259	-0.00590437715429289
8.9	0.011936492332617	-0.000329674801411478	0.00314663522513603	0.000359144521821557	0.00314579047631663	0.000356867863114068	-0.0148439083878037	-0.00539569556268882
9	0.0117763497434922	-0.00333340884656964	0.00317059943924572	-9.37306026987587E-05	0.00317373610185036	-8.95486727116728E-05	-0.0150337414081738	-0.00478822779972657
9.1	0.0110422328599884	-0.00651532328556119	0.0031338808828196	-0.000548963642541926	0.00313666900686501	-0.000535885684439575	-0.0149921184905249	-0.00407148508245872
9.2	0.00939412748358652	-0.00957669062941012	0.00302777964811654	-0.000982188429855033	0.00303555618136862	-0.000985046296688702	-0.0148290564099428	-0.00347642068673763
9.3	0.00701139089192041	-0.0121777788326749	0.00285660914719351	-0.00140258435812255	0.00285589042829901	-0.00140764295725462	-0.0146483413394216	-0.00304197810284887
9.4	0.00403605175032899	-0.0141063096844973	0.00262650929046227	-0.00180517484912321	0.00263308974432153	-0.00179747295575284	-0.0146946974038405	-0.00256610386710577
9.5	0.00059998410395707	-0.0153737578789822	0.00234037955878347	-0.00214687476409265	0.00234787192752672	-0.00214824312183325	-0.014954922258555	-0.0019598272926184
9.6	-0.00314796403045476	-0.0157729131364115	0.0020114962807916	-0.00245269475872159	0.0020118316350712	-0.00245170477354884	-0.0151193007506639	-0.00104103287729613
9.7	-0.00703088061983504	-0.0152239288863776	0.00163390775435491	-0.00270025451946616	0.00163945301460033	-0.00270762881942781	-0.0149278138545445	-7.37200362165539E-05
9.8	-0.0107955407416814	-0.0137488397315515	0.0012421824844159	-0.00290257144353586	0.00124793503611059	-0.00289405919177835	-0.014613361521357	0.00060241702860314
9.9	-0.0141209996148691	-0.0113719594500926	0.000834928138935571	-0.00303371136432818	0.00082758747957785	-0.0030324617432036	-0.014577043010846	0.00110017521301403
10	-0.0169035390973924	-0.00831140071749731	0.000407557843864491	-0.00311587267697638	0.000400052934546363	-0.00312830475738821	-0.014748087274804	0.00185463783629297
10.1	-0.0189793364068257	-0.00474358837955331	-2.81715133874555E-05	-0.00314350347740527	-3.83947887031472E-05	-0.0031381260072417	-0.0146254781629313	0.00282697557108526
10.2	-0.0203466141578906	-0.000797046242614182	-0.000466267521622053	-0.0031075252358871	-0.000469678305526615	-0.00310476181720753	-0.014037267201477	0.00369166055746993
10.3	-0.020909653658972	0.00349715005256737	-0.000891833557187767	-0.00300769058672608	-0.000883697331739138	-0.0030167084681598	-0.01330704877681	0.00407693151482151
10.4	-0.0205420915758986	0.0078376974444487	-0.00128562937836386	-0.00286275686331871	-0.00128388284045821	-0.0028689431142924	-0.0127265769059819	0.00398749211774845
10.5	-0.0191418150057883	0.0122284264725483	-0.00167880633016132	-0.00267585495549409	-0.00167581903129096	-0.00266278527945196	-0.0126361751174206	0.0041535301789199
10.6	-0.0170360226836732	0.0161768881836944	-0.00203912232268438	-0.00241687387695298	-0.0020368828801863	-0.0024206961488428	-0.0124688712829991	0.00439343907973039
10.7	-0.014014419382056	0.0198742774997954	-0.00236693790503343	-0.00212255637274143	-0.00236346674577907	-0.00211719179953681	-0.0120751614238898	0.00498295992788773
10.8	-0.0102751850070761	0.0230880380706534	-0.00265208915241462	-0.00176450386187219	-0.00264674435317203	-0.00177348870525158	-0.0116866316752894	0.00523160552695731
10.9	-0.00581626587247725	0.0256986479305946	-0.00287661796683859	-0.00138588316351609	-0.00288188763373832	-0.00138517945395814	-0.0116521771865375	0.00544102473824611
11	-0.000596806426662288	0.0272945805188442	-0.00305013282850117	-0.000958254520001894	-0.00305502760889753	-0.000965131037557093	-0.0115770270290502	0.00608030400592381
11.1	0.00493304906805608	0.0277287391668012	-0.00316819620724675	-0.000517121355015976	-0.00315714296785956	-0.000514194727615255	-0.0110763895885412	0.00695186054159216
11.2	0.0104736490678753	0.0269664085179567	-0.00320030558103103	-6.03045225488527E-05	-0.00320760223864382	-6.52154327238278E-05	-0.00994379689993931	0.0076513738639121
11.3	0.0158086925990241	0.0249612490437559	-0.00316906574678922	0.000407679478365602	-0.00318087407760288	0.000397527612007036	-0.00827382792682441	0.00759024278575636
11.4	0.0207045455920114	0.0221205195336671	-0.00308452411444372	0.000851742662334511	-0.00307945960815581	0.000859389362891509	-0.00709278860291497	0.00710242277193607
11.5	0.0250858819774167	0.018305643085618	-0.0029251263181146	0.00127832006707077	-0.00292782190904639	0.00128877603059157	-0.00637798142322203	0.00647684210559557
11.6	0.0285996056376478	0.0134798849520764	-0.00271215640591495	0.00167287977146054	-0.00271209612210168	0.00167585302093504	-0.00572595790818667	0.00568792155682652
11.7	0.0310534978964323	0.00809112756147546	-0.00243260597130439	0.00202436318815316	-0.00243304400211488	0.00203304546222181	-0.00504652391094866	0.00466330788395208
11.8	0.0325281049108022	0.00245787786327823	-0.00212217122515398	0.00234728739920463	-0.0021262790747376	0.00234905665682854	-0.00466680750187036	0.00339233891161917
11.9	0.0330552703318609	-0.00323263481413633	-0.00176335541429544	0.00260946656373378	-0.00177633061079274	0.00261396762041889	-0.00502271220942005	0.00248439827289953
12	0.0326071530269633	-0.00931047878534812	-0.00138720459692162	0.00281761869409791	-0.00138659149833514	0.00281902082505727	-0.00563911946441539	0.00179826374933439
