# GHZ S RI R 50
0.2	0.00600914981333516	0.00592044255896572	0.0030483041902292	-0.000893863101736399	0.00305866063505161	-0.000887044042864024	-0.0139117249365732	0.00957431476354327
0.3	0.00692858696840364	0.00108836559635945	0.00290600504740044	-0.00131432992676874	0.0028987325164928	-0.00130141239540136	-0.0125216869038197	0.00685568754353687
0.4	0.00569971112052288	-0.00231003665771902	0.00267838748346176	-0.00168395496027267	0.00268368438617592	-0.00169249757053572	-0.0130385742137296	0.00562036064494294
0.5	0.00356332893140413	-0.00399780851207995	0.00242526721783674	-0.00204048914311958	0.00243687111861723	-0.00205268655775241	-0.014032461713264	0.00595218137096489
0.6	0.00168565012707793	-0.00424348273134381	0.00211897366710801	-0.00235781119730571	0.00211822524593193	-0.00236498078095963	-0.0144808597434775	0.00740427580431625
0.7	0.000555469507543181	-0.00384467377966024	0.00177709495375558	-0.00264162030975468	0.00177513255429573	-0.00264183189598893	-0.0139854540253316	0.009186063297438
0.8	0.000154653895076621	-0.0036338372659115	0.00139430640400339	-0.00286768937708672	0.00138166110290491	-0.00287234276817379	-0.0126733280737408	0.0105502950898013
0.9	-0.000254043138534103	-0.00392309484805052	0.00097609195360192	-0.00304134770473856	0.00097719516487879	-0.00305212496165495	-0.0112117438059668	0.0110362180972434
1	-0.00120314365717193	-0.00452684900877427	0.000545871475884822	-0.00315443181109122	0.000535917204144468	-0.00315522297733217	-0.0102581051040934	0.0109154307343076
1.1	-0.00296091842995003	-0.00484977463619036	8.06333333035539E-05	-0.00319050741930115	7.71349415708512E-05	-0.00320836589338314	-0.0101586046457942	0.0109112146803576
1.2	-0.00510757517981708	-0.0045684639878687	-0.000373633996538735	-0.00318341256399523	-0.000374456909569637	-0.00318131113705709	-0.010102849868565	0.0115623299964583
1.3	-0.00706990886873614	-0.00377045272687312	-0.000813730199018051	-0.00309874037092296	-0.000817014980956841	-0.00310076499229566	-0.00912879123415549	0.0125968082158598
1.4	-0.00834804961826901	-0.00280543958664661	-0.00124693870367368	-0.00294400835293349	-0.00124573455340608	-0.0029496152851608	-0.00750492781786208	0.0129421715776165
1.5	-0.00876884417179059	-0.00133759364011748	-0.00165662488434892	-0.00273761794542354	-0.00165505087587488	-0.00274622602958492	-0.00597345469816121	0.012930228431881
1.6	-0.00839712811945231	0.000573905946732079	-0.00202126248507935	-0.00247217638047073	-0.00202152039117881	-0.00247746031231425	-0.00505711627277537	0.0132535532062338
1.7	-0.0072496116438079	0.00224255955395728	-0.00234862886886401	-0.00216191112356112	-0.00234953959902379	-0.00215559137425927	-0.00375972528627936	0.0135925725090079
1.8	-0.00578556572946124	0.00346148625262443	-0.00261349647663053	-0.00179892469386926	-0.00262458188063938	-0.00180447485550974	-0.00247458292785204	0.0134387408652286
1.9	-0.00439979174740671	0.00411427494462631	-0.00282932822130927	-0.00142047251744809	-0.00284174003252713	-0.00141416864758525	-0.00165744113452473	0.0130706518259601
2	-0.0031800685367861	0.00456709719802135	-0.00299384094337081	-0.00100978289849282	-0.00300342413906762	-0.00100497612341899	-0.00123685191861568	0.0129556005046337
2.1	-0.00191897336884635	0.00490844100860985	-0.00309688127413701	-0.00058327554374254	-0.00309281865841621	-0.000585299670185994	-0.000688427456000758	0.0131357319721897
2.2	-0.000464116259822796	0.00510689221699897	-0.00314667901430424	-0.000150757880094325	-0.00315797752284507	-0.000153514508689095	0.000333008092870963	0.0133698413838727
2.3	0.00115857001920983	0.00475961222352286	-0.00313868148971562	0.000284900225306321	-0.00313840983246369	0.000278032664290698	0.00160312070183896	0.0131451095353531
2.4	0.00259818014343037	0.00388440784107639	-0.00306746473555405	0.000715860516751494	-0.00307001078835607	0.000711617204546284	0.00272866045584381	0.0124952993297058
2.5	0.00358945218933259	0.00257425700724988	-0.00293534607661773	0.001123388278495	-0.00294622460378493	0.00112977054598972	0.00346951562679312	0.0116138319513196
2.6	0.00418112864506655	0.00121036538360275	-0.00276816329535251	0.00152582301254453	-0.00276459503978549	0.00151348679141366	0.00392316455084858	0.0108854260511489
2.7	0.00463141431356852	-0.000116577261270179	-0.00252841837853353	0.0019011732160823	-0.00253371711979912	0.0019011794793353	0.00428496236702353	0.0103565422775903
2.8	0.00506644582165338	-0.00160229302005278	-0.00224884151595919	0.00223645016744321	-0.00224098522467423	0.00224630094169987	0.00469214795725181	0.00998421946130545
2.9	0.0053102129446537	-0.00338043441005715	-0.00191318604129831	0.00254657511325205	-0.00190944730155782	0.00254614103349553	0.00526991710477477	0.00971561633243343
3	0.0050894056520257	-0.00528751539386705	-0.00152008784786784	0.00279141903462759	-0.00153499506516605	0.00279762477812818	0.00597234859212735	0.00953430657392107
3.1	0.00449201547824216	-0.00707928205158083	-0.0011183878900932	0.00297513268409573	-0.00111363115110962	0.00298353912590098	0.00674867620416904	0.00935686940705472
3.2	0.0034689373330627	-0.00878716131785269	-0.000682901863308941	0.00311398366462361	-0.00068467128164503	0.00311338188544869	0.00755218172307521	0.00916579658376007
3.3	0.00206801924813498	-0.010473023579215	-0.000228519703275084	0.00317901546768005	-0.000226899425578099	0.00317521609163504	0.00856367373682866	0.00864204874205272
3.4	0.000119994188621912	-0.011873769103323	0.000232268327658012	0.00316141092136148	0.000226261944730671	0.00317821595456281	0.00943960808583184	0.0076787450144298
3.5	-0.00226098457012257	-0.0129010743455533	0.000663648447457533	0.00310201273543776	0.000669280518918264	0.00310198847579334	0.00984024874140038	0.00644880369393828
3.6	-0.00488923246045234	-0.0132341860886421	0.00109492325698255	0.00296241624455548	0.00110313313405898	0.00296193536848258	0.0100057848606467	0.00559120192699087
3.7	-0.00748114012685291	-0.0129455673904253	0.00150037386343869	0.00276053027793437	0.00149108029153105	0.00277439446594931	0.0103544394224181	0.00481978428504286
3.8	-0.00990473705475184	-0.0121497870983386	0.00186590576060869	0.00251533858445555	0.00186848829588269	0.00252439435571889	0.0107236722018187	0.00386437531616306
3.9	-0.0120475307307714	-0.0109817908662107	0.00219316216613979	0.00222980089987915	0.00218592531363144	0.00222817935630024	0.0108373913187005	0.00275472824987286
4	-0.0139935886055764	-0.00947815661618815	0.00245615296777357	0.00190435354864254	0.00246050539791565	0.00190187164052018	0.0107075885247837	0.00185239381857561
4.1	-0.0156612966285761	-0.00760854158141356	0.00268653691642579	0.00154835593308643	0.00268531339705709	0.00154909864740398	0.0106816024442949	0.001248607386498
4.2	-0.0169746088657447	-0.00540278311590787	0.00286782045612403	0.00115875814835364	0.00287212069146176	0.00115013867419279	0.0108705977297559	0.000667870799717511
4.3	-0.0178422443647036	-0.00309504930192109	0.00299944791780767	0.000763300662075234	0.00300570967721122	0.000755587214734333	0.0111464667530106	-0.000258605778214941
4.4	-0.0184616333383535	-0.000656803004352365	0.00307224726149911	0.000347805392656354	0.00307457644024184	0.000345578569527375	0.0110924783923029	-0.00131615658793618
4.5	-0.0187615749682656	0.00195293088390849	0.0030988859290495	-7.33271515278508E-05	0.00310416937116923	-7.66501727076323E-05	0.0108082492433915	-0.00225007281964338
4.6	-0.0186958188819551	0.00470516901911574	0.00306450703778091	-0.000503818252185776	0.00306568784844211	-0.000491056570824879	0.010446531286855	-0.00299506937089693
4.7	-0.018011259306213	0.00755432662694551	0.00297174349234288	-0.000916806511184091	0.00298692905853357	-0.000926278047676928	0.0100867498318642	-0.00368436486114196
4.8	-0.0167150635721702	0.0102823541806217	0.00282272266878592	-0.00133148387760565	0.00283117579726339	-0.00133750307175875	0.00984101940931754	-0.00436852009483717
4.9	-0.0147328862646458	0.0126525667237046	0.00261070672818287	-0.0017215802101187	0.00261485144094435	-0.00171867115115423	0.00951275209423426	-0.00503904852582211
5	-0.0122988130705837	0.0144774330702891	0.00235440666957927	-0.00208561559945362	0.00235802259768278	-0.00208294883853493	0.00934013234787033	-0.00556922218051908
5.1	-0.00936389057666845	0.0157965248117425	0.00204105483337571	-0.00240515674498419	0.00204335903478542	-0.00240380111800174	0.00935703427764334	-0.00614388503612998
5.2	-0.00624036012464834	0.0164291907385624	0.00167570654493186	-0.0026610379214248	0.00167739940336339	-0.00266619428922667	0.00946476536068697	-0.00685006239391347
5.3	-0.00304893494764815	0.0163811350190652	0.00127789451793221	-0.00287727975470777	0.00128104416535866	-0.00287523930674592	0.00949242895443178	-0.0077031853862646
5.4	-5.63582916854096E-05	0.0156941617701772	0.000841561062296496	-0.0030190278968819	0.000858590579362336	-0.00303040087464133	0.00928030737153974	-0.00880123227026906
5.5	0.00255175098998076	0.0145329448720937	0.000418985947612805	-0.0031051302775763	0.00042888093967068	-0.00311464949878968	0.00861609030763209	-0.00985790014160475
5.6	0.00475873850347401	0.0130064699701203	-2.29938387752216E-05	-0.00312452628953404	-3.15025568755638E-05	-0.00312760085241447	0.00764520503990251	-0.0104947083524129
5.7	0.00654879642231765	0.0112097274946016	-0.000450007096409917	-0.00307537876829376	-0.000466484578523129	-0.00307875615051623	0.00679561592116701	-0.0107655374774038
5.8	0.00790709653118358	0.00919756040015371	-0.000883264362835601	-0.00296299057174489	-0.000886936613700224	-0.00297671372337043	0.00609387498471563	-0.0112009121848414
5.9	0.00880012599291303	0.00705452295030238	-0.00126867296862585	-0.00281077889122348	-0.00127674169585387	-0.00281060363884561	0.00517159063038533	-0.0117728618581116
6	0.00918966455407149	0.00476102074347105	-0.00164213672676491	-0.00260042078544737	-0.00163865850612248	-0.00260061292958189	0.00386905920510299	-0.0121272268619379
6.1	0.00909705161697554	0.00245581272943506	-0.00197169297122707	-0.00235172837701321	-0.00197327511597183	-0.00234781885895654	0.00269738773654467	-0.0119863556138946
6.2	0.0085526113937297	0.000178217314832488	-0.00226233809473129	-0.0020543881876604	-0.00226593804399609	-0.0020659495644177	0.00197149667923352	-0.0117700483005168
6.3	0.00770678697844422	-0.00201421095735557	-0.00252490387745146	-0.00174291273652215	-0.00253382934255764	-0.0017373782892446	0.00155415554531491	-0.0118841845458717
6.4	0.00634188492733933	-0.00410761350027574	-0.002746012520246	-0.00137983008581484	-0.00273647044100769	-0.00138450878083521	0.000973650035259033	-0.0122311515995923
6.5	0.00458615194781796	-0.00590288193269201	-0.00290823043826207	-0.00100142986799115	-0.00291599174497238	-0.0009971603204152	0.000307401665123496	-0.0125081313076595
6.6	0.00250435742885478	-0.00718098112656321	-0.00303109209657515	-0.000598432692329923	-0.00303262622655603	-0.000602370292551652	-0.000208009912870206	-0.0126667409969358
6.7	0.000265421754465993	-0.00787195756341488	-0.00310267816976877	-0.000174815429784044	-0.00311154282640309	-0.000168789261962528	-0.000786619146724259	-0.0128800249405266
6.8	-0.0020427659937823	-0.00798107456576509	-0.00310461755706025	0.000262107093917988	-0.00311572180033768	0.000266894365231365	-0.00155290510629685	-0.0130831418837331
6.9	-0.00435627280012136	-0.00746006291089754	-0.00305085170233412	0.000699864758974426	-0.00305387259570461	0.000702190223600023	-0.00257046823942822	-0.0130659606005655
7	-0.00645062074574802	-0.00646250633378297	-0.00293069417608951	0.00113215383502047	-0.00294348585625637	0.00112974399852986	-0.00358085106441288	-0.0129010584312703
7.1	-0.00837423394240707	-0.00498161164558268	-0.00276208286355868	0.00153625462253677	-0.00275852772791394	0.00154499278371511	-0.00456258146683948	-0.0123452912232851
7.2	-0.00997334916034706	-0.00303111476371139	-0.00250698572714598	0.00192030355178921	-0.00251356308994374	0.00192232498403745	-0.00510809114109917	-0.0115794483954369
7.3	-0.0112066578164982	-0.00075423954375662	-0.00220596084718193	0.00225225718987305	-0.0022172552317238	0.00225725999453544	-0.00518425891270516	-0.0111216348691115
7.4	-0.0118943556843571	0.00196627405799721	-0.00185434111240604	0.00254273273268064	-0.00186128879979629	0.00255636550083715	-0.00553057283499352	-0.0109695229045852
7.5	-0.0120346977500393	0.0045810718328539	-0.0014773463491115	0.00278227607164817	-0.00147034712078557	0.00278968209492175	-0.00591941613446817	-0.0112626661105858
7.6	-0.0118109103757649	0.00686634230146709	-0.00106182909776957	0.00295418586012334	-0.00106320931006513	0.00294950011085242	-0.00644423711074801	-0.0120589417222311
7.7	-0.0105821831669658	0.00912048293920312	-0.000629626366372927	0.00306381952563384	-0.000630961617751258	0.00306276703101544	-0.00722879554259517	-0.0122810705596785
7.8	-0.00893092853246039	0.0109293493230594	-0.000207474011575853	0.00309942668456518	-0.000215195560256732	0.00310583650949371	-0.00825349163342911	-0.0126174089271419
7.9	0.292439071925393	-0.108165534431009	0.000841429616317523	0.00256552717703813	0.000829080931099255	0.00247452316824328	0.433733755683271	0.236132157745517
8	0.341432825308793	0.179251522306937	0.00132950458773126	0.00414266215724371	0.000867050265034913	0.00614749518502079	2.88347921231462	1.64342511116453
8.1	-0.00166741982157505	0.013027282092664	0.00103470157170275	0.00290256257824343	0.00105349573071787	0.00290378723294949	-0.0115690424530086	-0.0110303286839784
8.2	0.000761611285048588	0.0128681072860321	0.00141897884772528	0.00273510939198841	0.00142815261323495	0.00272816993724092	-0.0120028747221625	-0.0101151755311709
8.3	0.00313768233312008	0.0122732601619963	0.00178101647275614	0.00251871914070934	0.00177914872275933	0.00253200880676742	-0.0122665264435777	-0.00951886196072983
8.4	0.00537524263493043	0.0113036796513422	0.00211200741895955	0.00226926740532133	0.0021090247756358	0.00226897512474336	-0.0127637905589224	-0.00916193578671531
8.5	0.00742777735405094	0.00986049057511101	0.0024050336581634	0.00196794232576414	0.00240405854923469	0.0019710707214333	-0.0135818263772743	-0.0086076137774266
8.6	0.00914661364636298	0.00803819374697743	0.00266940668662804	0.00163302659966757	0.00267905957752306	0.001626796337348	-0.0143075087084253	-0.00773185750254088
8.7	0.0104638644347732	0.00585530914588865	0.0028824848423579	0.00124719975771911	0.00288803110334106	0.00124809451846713	-0.014772003003858	-0.00680500397417421
8.8	0.0113482378255004	0.00337240103169585	0.0030505020456475	0.000842262605861287	0.00305657652762918	0.000833610652039539	-0.015076479299353	-0.00613215145397847
8.9	0.0118269942265894	0.000586343507092608	0.00315937956913943	0.000402227807867037	0.00315855987176105	0.000399927502898071	-0.0153182933007762	-0.00549394716583555
9	0.0117217802810333	-0.0024990371626524	0.0031956881301144	-5.80597126831656E-05	0.00319880056367711	-5.38101186157017E-05	-0.0155098655185293	-0.00477047280258632
9.1	0.011064906691715	-0.00575858355445233	0.00316754663434455	-0.000524205462453766	0.00317023595539753	-0.00051098229497054	-0.0153999486514084	-0.00400436672825181
9.2	0.0094139439493435	-0.00890155864326599	0.0030651605670702	-0.000969998069072062	0.00307303554513541	-0.000972827974689527	-0.015251233366087	-0.00338634213084588
9.3	0.0070089599329063	-0.0115876651248011	0.00289290464180549	-0.00140279927910974	0.00289220366477288	-0.0014079133865095	-0.015067264859666	-0.00286862108863141
9.4	0.00393370062614244	-0.013523300827991	0.00265752281270007	-0.00181583554163989	0.00266414728749852	-0.00180803915929737	-0.0150117563917711	-0.0022117044704774
9.5	0.000381623453524506	-0.0148919612849937	0.00236312113766808	-0.00216424083575275	0.00237068184593155	-0.00216561539552499	-0.0151930039071243	-0.00170369810031927
9.6	-0.00345422616499718	-0.0152078994973899	0.002024896688237	-0.00247256723482445	0.00202523526462086	-0.00247157003867301	-0.0152978396956634	-0.000868450187395227
9.7	-0.00734812786461905	-0.014541394320409	0.00163878352352536	-0.00271831768905498	0.00164434826918892	-0.00272574309638045	-0.0151498981047902	3.64652352897007E-05
9.8	-0.0110492529286187	-0.0129800603091981	0.00124132513726846	-0.00291558933652632	0.0012471148147522	-0.00290705649512049	-0.0148994208770289	0.000746324244231582
9.9	-0.0142567560659517	-0.010623636782485	0.000832314700074184	-0.00304007580978006	0.000824963014354094	-0.00303881420866486	-0.0148226847473728	0.00130200666018633
10	-0.0169964822454758	-0.0075922061919435	0.000407408460356381	-0.00311623008640354	0.000399901981591009	-0.00312866302776183	-0.0149242273981805	0.00208238753532346
10.1	-0.0190515479775315	-0.00405712704946641	-2.24411932481644E-05	-0.00314067893173171	-3.26648748543472E-05	-0.00313532493316356	-0.0147545998332772	0.00300958118031747
10.2	-0.020402646522984	-0.000146182783984212	-0.000453181165883203	-0.00310591579970666	-0.000456599285463367	-0.00310316927638251	-0.0141980244911519	0.00383855790475937
10.3	-0.0209700931223333	0.00408578194320866	-0.000872516175808438	-0.0030120099829858	-0.000864326684967785	-0.00302097276484315	-0.013513753035643	0.00427189778767601
10.4	-0.0206184098998139	0.00843001249351631	-0.00126350660536993	-0.00287655006804996	-0.00126170718696637	-0.00288272888055885	-0.0129503677953976	0.00432143218757864
10.5	-0.019404767206179	0.0127219296912934	-0.00165881440674797	-0.0027008910170752	-0.00165594221739808	-0.002687748957257	-0.0127067778824202	0.00443971539794063
10.6	-0.0173468430819185	0.0167713667267001	-0.00202686097070968	-0.00245200758554591	-0.00202456939747917	-0.00245583007698574	-0.0124934709569335	0.00471018449762106
10.7	-0.0145153894391135	0.0205754592260964	-0.00236681407309404	-0.00216447205809901	-0.00236336525674604	-0.00215902625941942	-0.0121429761040985	0.00508110096923495
10.8	-0.0107950021572732	0.0239383692806321	-0.00266692212097057	-0.00180780668964859	-0.00266143784007691	-0.00181684731654495	-0.0118244376992018	0.00532044657546102
10.9	-0.00634029624148774	0.0267504449111843	-0.00290636356212669	-0.00142478586384183	-0.0029117101995965	-0.0014241090607566	-0.0118756138753148	0.0055485223638704
11	-0.0010371021649626	0.0284889703262232	-0.00309280770218706	-0.000986959152362265	-0.00309774659584217	-0.000993964085808801	-0.0117533095935872	0.00616697178711318
11.1	0.00463143255154034	0.0290515481197492	-0.00321963984089726	-0.000531395003540823	-0.00320840915248665	-0.000528400020604303	-0.0112701356850481	0.00692409738305483
11.2	2.60958698508615	2.90429204225194	0.00912794064139104	0.00464901950208242	0.0159594388836549	0.0230343525068836	-0.718422459708626	-0.88975354942896
11.3	0.660051543757281	0.307934370255279	-0.00919595891050472	-0.012836065802481	-0.00979329938819589	-0.0101659553796024	0.196144525524188	3.0610600964407
11.4	0.0209801524552343	0.0232306900177506	-0.00312654016739254	0.000886554772039548	-0.00312134343458007	0.000894284986609935	-0.00765171016700592	0.00707530970336372
11.5	0.0255174497178383	0.0192952399908118	-0.00295345545900407	0.00132375449105456	-0.00295608912633516	0.0013343806486843	-0.00692919619062971	0.00671262880467051
11.6	0.0290476758775585	0.0142583164485224	-0.00272425467488218	0.00172322739089416	-0.00272415963944502	0.00172623421930008	-0.0062281735025341	0.00597025291174016
11.7	0.031459508581259	0.00868317119952798	-0.0024282387221887	0.00207311173733069	-0.00242857014131533	0.00208187592210761	-0.00555542076931176	0.00502591744861977
11.8	0.0328735748828542	0.0028989414417931	-0.00210368188214463	0.0023889553211635	-0.00210779046656413	0.00239078900726763	-0.00508093679296696	0.00397574944529211
11.9	0.0331536262792001	-0.00280494424733099	-0.00173547111475096	0.00263962736511625	-0.00174842779165124	0.00264430658201275	-0.00540758364976987	0.00328300207333497
12	0.0325339606582021	-0.00900961908492995	-0.00135575348226574	0.00283470270696968	-0.00135512413706385	0.00283609849711673	-0.00572342439473835	0.00244342241777118
12.1	0.0307657954631929	-0.0148354685848404	-0.000951518371169117	0.00298959042445664	-0.00095509244402939	0.00298880878010215	-0.00595221744778775	0.00227444526825822
