# GHZ S RI R 50
0.2	0.00563569705311724	0.00417452564307388	0.00304831327871899	-0.000895726429047334	0.00305867529406336	-0.00088891204693539	-0.0143523918670733	0.00777041028687241
0.3	0.00652592475701403	0.000508834985601184	0.00290513673090596	-0.00131759145070904	0.00289787642436875	-0.0013046640880148	-0.0129889439645509	0.00626468100026831
0.4	0.00579217534865639	-0.00237124069336932	0.00267564134777151	-0.00168822593586777	0.00268092445456355	-0.00169677690768058	-0.0129247527852728	0.00557826351160054
0.5	0.00411979140661107	-0.00413735632907961	0.00241984098773995	-0.00204482616099585	0.00243141369380288	-0.00205704328183369	-0.013326686280811	0.00577101187349514
0.6	0.00234877508241718	-0.0047404142783023	0.00211064384199966	-0.00236080459431359	0.00210987767236864	-0.00236796468554671	-0.0135944627762622	0.00670394808963214
0.7	0.000975206424540038	-0.00460377968460968	0.00176631952236826	-0.00264178019202346	0.00176436014832528	-0.00264198582152443	-0.0133940793481052	0.00804034536738376
0.8	0.000226644086127026	-0.00436708731371425	0.00138231860497778	-0.00286379259020936	0.00136969474255951	-0.00286839722060405	-0.0125843180457561	0.00934261683941023
0.9	-0.000375950435986797	-0.00441070156562536	0.00096465971862343	-0.00303274113417217	0.000965731038960146	-0.00304348180482363	-0.0114562615157561	0.0101421921035382
1	-0.00128192328433496	-0.00476473358445222	0.000536952202191233	-0.00314134055497239	0.000527041149393044	-0.00314210777069994	-0.0104489501791489	0.0104310532619145
1.1	-0.00287001823952792	-0.0049988401674682	7.61639120797328E-05	-0.00317404254829023	7.26610129338756E-05	-0.00319180384763888	-0.00998723242334652	0.01060224033168
1.2	-0.00488460497539885	-0.0047641093819169	-0.000372506886172764	-0.00316528815326924	-0.000373324492732943	-0.00316319835911958	-0.00956929162985177	0.0110773522578626
1.3	-0.00682150336416536	-0.00404717566144413	-0.000806601664740783	-0.0030812257081211	-0.000809865675968616	-0.00308324098807429	-0.00849788270580627	0.0117909618152239
1.4	-0.00815515791020587	-0.00312734555593839	-0.00123426712016511	-0.0029294090653411	-0.00123305941720253	-0.00293498150524275	-0.00695935328096316	0.0118943363664354
1.5	-0.00870801995076923	-0.00168756479459589	-0.00163979827177865	-0.00272779848294014	-0.00163820762954051	-0.00273635595087693	-0.00564354028065639	0.011662669713802
1.6	-0.00846499665197928	0.000271147830558401	-0.00200242569129731	-0.0024683212994038	-0.00200266230068358	-0.00247358154439609	-0.00503552251263009	0.0118647581305552
1.7	-0.00737681204823181	0.00205019136560187	-0.00233013014598681	-0.00216425267878515	-0.00233106565951068	-0.00215796080124584	-0.00410473239771132	0.0123235468993363
1.8	-0.0059056377024632	0.00335496559662241	-0.00259770666369186	-0.00180665038141998	-0.00260873513554966	-0.00181223896786545	-0.00299887646043843	0.0124864713583095
1.9	-0.00447420285588879	0.00402756114079259	-0.00281784169077948	-0.00143188321735415	-0.00283026389611216	-0.00142564977856462	-0.00207835512201759	0.0123785125954778
2	-0.00325902976559774	0.00446338702620364	-0.00298746900305304	-0.0010227061513118	-0.00299706814092329	-0.00101794559661974	-0.00145134891366149	0.01230191293225
2.1	-0.00204860052626831	0.00482488787208753	-0.00309530766889519	-0.00059540821964568	-0.00309123630646097	-0.000597417048784344	-0.000824137903562733	0.0123354413683477
2.2	-0.000618347277815825	0.00510564961165622	-0.00314857792782775	-0.000160295394231217	-0.00315987661933564	-0.000163087923084501	5.95586913988174E-05	0.0124563816788444
2.3	0.00106656451692347	0.00483836764354619	-0.00314206897932742	0.000278875469108012	-0.00314178333623971	0.00027200228709384	0.0011309206528564	0.0123436096404592
2.4	0.0026143003392239	0.00393624851429456	-0.00307020644384061	0.000713143607405915	-0.00307274975202736	0.000708894887952296	0.00225677698748361	0.0119798793098387
2.5	0.0036387122846963	0.00250944284443529	-0.00293573564779676	0.00112271901399651	-0.00294661615833001	0.00112909888916306	0.00325231656304889	0.0112891368966339
2.6	0.00414176207453989	0.00104830275718983	-0.0027654114257867	0.00152524440890638	-0.00276184941305765	0.00151291775617694	0.00400478689867441	0.0104953640616872
2.7	0.00447187013623814	-0.00027257073020293	-0.00252285644291728	0.00189856076361496	-0.00252814510575582	0.00189856911642477	0.00449655126521297	0.00977260940008907
2.8	0.00483708329489834	-0.00170570831732813	-0.00224182057546958	0.00223007949315771	-0.00223398639653292	0.00223989977832202	0.00492204160449212	0.0092713604551059
2.9	0.00501812806180821	-0.00344140440955779	-0.00190687833284913	0.00253548245483697	-0.00190315422955881	0.00253505200131571	0.00556185705208148	0.00890013561278082
3	0.00469235144509201	-0.0052741454383471	-0.00151701957407707	0.00277590768554643	-0.00153186524149263	0.00278206181326003	0.00630828277738845	0.00850340340651673
3.1	0.0040247702887702	-0.00690884151232743	-0.00112066290538756	0.00295655165836585	-0.00111595392288934	0.00296492718779346	0.00696844050805082	0.00804856912273683
3.2	0.00305177584151368	-0.00842276118180588	-0.000692107967016314	0.00309456295192948	-0.000693865468348018	0.00309395708132961	0.00749660430245294	0.00771097920954103
3.3	0.00181197178927152	-0.0100013947335622	-0.000245111482644698	0.00316171983938494	-0.000243478164240569	0.00315794865314559	0.00824970025796619	0.00725767850406953
3.4	4.0342294826964E-06	-0.011428550227908	0.000209186841077582	0.00314933606452063	0.000203089136080466	0.0031660263496398	0.00903809871576471	0.00644968394910849
3.5	-0.00233732927905341	-0.0125000480874467	0.000636045590606977	0.00309744582556465	0.000641659679668514	0.00309746787071483	0.00947348886283819	0.00528700060263318
3.6	-0.00497346190974488	-0.0128212574596477	0.00106587776339394	0.00296716635488824	0.00107407744578641	0.00296676143482624	0.00960364412390676	0.00436677076319218
3.7	-0.00748020359376459	-0.0124733246251598	0.00147351579291047	0.002774887951726	0.00146408846110176	0.00278866112832087	0.00978429314871396	0.00360331770944896
3.8	-0.0097437793207887	-0.0117335343687694	0.00184468780597886	0.00253806236172291	0.00184718654584213	0.00254715956800661	0.0100139560582622	0.0028485003093263
3.9	-0.0118227925114582	-0.0107713099074669	0.00218038249436483	0.00225834994287611	0.00217313438463157	0.00225665508914713	0.0102150797272416	0.00200501509799619
4	-0.0139042833400328	-0.00945711451443748	0.00245333675613045	0.00193497821791031	0.00245773305361176	0.00193251941192739	0.0103476055121883	0.00118876104841454
4.1	-0.0157792976768072	-0.00759615308963927	0.00269366840045418	0.00157725332363065	0.00269243160536181	0.00157799250018911	0.0105047092448934	0.000453649915331784
4.2	-0.0171809424193403	-0.00527723727536189	0.0028832375269379	0.00118234811395661	0.00288761477756178	0.00117368655670894	0.0106810780340202	-0.000258605436581203
4.3	-0.0180190038394776	-0.00292273198725497	0.00302010078262487	0.000779250841688574	0.00302643682303478	0.000771498678107112	0.0109084104089001	-0.00112380340565686
4.4	-0.0186516825875554	-0.000559104122741544	0.00309446627643336	0.000355231011138679	0.00309681623028643	0.000352991360941336	0.0109830631793056	-0.00208058389604141
4.5	-0.019110145497142	0.00199848629653669	0.0031192528255493	-7.35465016801833E-05	0.00312457126301622	-7.68909087550004E-05	0.0109518086961443	-0.0030797103867968
4.6	-0.0192359745064986	0.00486016747148884	0.00308042891565083	-0.00050951498458192	0.00308162853625427	-0.000496686101564101	0.0107161299912814	-0.00411586765961158
4.7	-0.0185987768292614	0.00793174450302379	0.00298204058874108	-0.00092498055604833	0.00299727142317798	-0.000934512715074289	0.0102774986803783	-0.00506427367173519
4.8	-0.0172129339230854	0.0107827913112248	0.00282770083893327	-0.00133922973948617	0.00283616569724154	-0.00134527721246028	0.00984363864254029	-0.00581591408053798
4.9	-0.0151672691810365	0.0131529636743231	0.00261194682513906	-0.00172653996645957	0.00261609974536855	-0.0017236319874479	0.00947879431474878	-0.00645860995826261
5	-0.0127907260864999	0.0150096732152489	0.00235433562525412	-0.00208655105923313	0.00235795283895386	-0.00208388467665008	0.00934397924312209	-0.00706751721237721
5.1	-0.00986896458243542	0.016504794171296	0.00204234023126986	-0.00240213140129743	0.00204464209283887	-0.00240077426243105	0.00925679516678764	-0.00779974043013938
5.2	-0.00656514377408754	0.0172905807705437	0.00168063237905877	-0.00265542391226279	0.00168233583302638	-0.00266057294021296	0.00911489350435173	-0.00850434079873092
5.3	-0.00314466366725262	0.0171637849237944	0.00128793149299164	-0.00287140380401266	0.00129107235284762	-0.00286935263309467	0.00900546144388185	-0.00913654549078392
5.4	-0.000131654628141018	0.0162518702972803	0.000856865017588217	-0.00301582901830258	0.000873956731791001	-0.00302712095771071	0.00892462765329213	-0.0100281598260262
5.5	0.00227146609003501	0.0150029495847292	0.000438445226873266	-0.00310728373060457	0.000448412889768307	-0.00311675734917882	0.00849770100447626	-0.0111294301980248
5.6	0.0043092815728335	0.0136623920722509	-1.82465616010098E-06	-0.00313429617780237	-1.03386537179841E-05	-0.00313743804117854	0.00758643665638251	-0.0120153194036836
5.7	0.00618825766617138	0.012162917807302	-0.000430514196075723	-0.00309370838425179	-0.000447049023180515	-0.00309721872757898	0.00650699634377919	-0.0124685309835321
5.8	0.0079085784153733	0.0102226270636018	-0.000869356826360402	-0.00298944426310438	-0.000872961769802814	-0.00300328710792292	0.00552820106673296	-0.0127839250930705
5.9	0.00908745100892427	0.00780713885652066	-0.00126353692562954	-0.00284306523540799	-0.00127167814159874	-0.00284293543220747	0.00456572812046811	-0.0130227621599226
6	0.00942812477000884	0.0051245698841634	-0.00164831418938112	-0.0026348616528861	-0.00164479848239714	-0.00263504093233394	0.00352906561447863	-0.0131488713245607
6.1	0.00903924575094235	0.00263670110043665	-0.00198964174517668	-0.00238373292620598	-0.00199125115128341	-0.00237978098445143	0.00266621230926229	-0.0130840225139439
6.2	0.00826524308385626	0.000406075603317597	-0.00229055082242832	-0.0020792675970769	-0.00229419715192531	-0.00209097062355844	0.00203128277366797	-0.0130757053817988
6.3	0.00731312990780346	-0.0017784520337679	-0.00256016399914017	-0.00175730844310565	-0.00256918291144685	-0.00175168309047377	0.00158051162042268	-0.0132745811353458
6.4	0.00572058781795785	-0.00393844014735796	-0.00278367378820758	-0.00138163420411024	-0.00277404799639973	-0.00138641286211219	0.00116061594456922	-0.0136794540043289
6.5	0.00360820280847678	-0.00552777057477122	-0.00294330676743425	-0.000991140655442982	-0.00295111395100032	-0.000986776355961895	0.000650285683575524	-0.0142773456574555
6.6	0.00145163233385191	-0.00628873589777991	-0.00305950073979501	-0.000578231040951958	-0.0030610790374538	-0.000582186601161873	-6.60908868774061E-05	-0.0148417378064754
6.7	-0.000436501794634127	-0.00659098435683035	-0.00312166594732608	-0.000148300654164207	-0.00313052702076836	-0.000142162053923021	-0.00110110392375723	-0.0151338306449497
6.8	-0.00232368837506392	-0.00673048590615272	-0.00311317847061147	0.000290602567521367	-0.00312427913844406	0.000295505260867199	-0.00215101525788519	-0.0150577558073155
6.9	-0.00451671307463581	-0.00649427349131678	-0.00304991479146778	0.000726372168624	-0.00305292117310619	0.000728726495212657	-0.00305951965690822	-0.0148056620450214
7	-0.00680859005646452	-0.00556882255792299	-0.00292256759280698	0.00115356900794822	-0.00293537739722301	0.00115125232353018	-0.0038601821441276	-0.0146593932234301
7.1	-0.00885887221535671	-0.00380673195700725	-0.00275004638664276	0.00155097312467219	-0.00274644329801715	0.0015596809336947	-0.00484068537427495	-0.0143703874604626
7.2	-0.0101818253617905	-0.00146770327412486	-0.00249446012221829	0.00192803275571851	-0.00250101776024194	0.00193007947550713	-0.00573242094333964	-0.0137868505901034
7.3	-0.0107824204478447	0.00087789411208126	-0.00219600232052214	0.00225443429969011	-0.00220726360584876	0.00225945946034579	-0.006295714332696	-0.0131214782920152
7.4	-0.0109384426965947	0.00303183325509063	-0.00184891435889376	0.00254185718126541	-0.00185583666638156	0.00255548157425263	-0.0067931659703841	-0.012509505791084
7.5	-0.0110500062357637	0.00492131999004722	-0.00147705343969109	0.00278146871440115	-0.00147005638285368	0.00278887300477361	-0.00694898043672364	-0.0122474426016336
7.6	-0.0110829714266683	0.00685619782201619	-0.00106574897408637	0.00295654736548439	-0.00106712643256931	0.00295185504933986	-0.00704067291055647	-0.0126387512672327
7.7	-0.0103552924087826	0.00892165636973688	-0.000635334815077018	0.00307169757512266	-0.000636672503318759	0.00307064038717654	-0.00747455062972141	-0.0130105592781648
7.8	-0.0090422103167573	0.0106175597203663	-0.00021157323295946	0.00311375757951464	-0.000219337469847625	0.00312018968691296	-0.00819839593969978	-0.0133776569341824
7.9	-0.00716215108260564	0.011688666167807	0.000223355277630154	0.0031148650071673	0.000231242063890965	0.00311635623503405	-0.00892406127478016	-0.0132323993812914
8	-0.0056594362219757	0.0130416163245897	0.000655454582969952	0.0030401335901893	0.000655524513786952	0.00304499258551841	-0.0100475882401622	-0.0136614799333004
8.1	-0.00313109685571506	0.0139361928181713	0.00105487075058033	0.00292435602621933	0.00107383605998005	0.0029255202916211	-0.0109326887537526	-0.0132140133197887
8.2	-0.000301876233465708	0.014349028318388	0.00144906832491206	0.00275080662874033	0.00145828095741433	0.00274374658919243	-0.0118543802325036	-0.0126177861164614
8.3	0.00260676773697107	0.0138186035891725	0.0018182674823231	0.00252384020897406	0.0018165024736623	0.00253725716865482	-0.0125251291650304	-0.0119029482715368
8.4	0.00504165852833455	0.0125893055785472	0.00215184138720034	0.00226104725240877	0.00214883514529092	0.00226078642371087	-0.0130626898198411	-0.011309144109188
8.5	0.00691274205559074	0.0110442495380198	0.002441729642921	0.00194583494948165	0.00244079063401993	0.00194899050231845	-0.0137067096602061	-0.0107776860185228
8.6	0.00848079642432895	0.00951723342617156	0.00269776188491097	0.0015988684148859	0.00270734692934227	0.00159248995841247	-0.0144388455542093	-0.0102045232575985
8.7	0.0100610068512304	0.00770814811218607	0.00289826562644956	0.00120502730652197	0.0029038207018323	0.00120584200693381	-0.0152191610244738	-0.0094739337983037
8.8	0.011507966885329	0.00530052957283659	0.00305185513666671	0.000797146967801754	0.00305778919476371	0.0007884401091769	-0.0159690025764467	-0.00864774977519329
8.9	0.0123902642367563	0.00214696706303599	0.00314631898686217	0.000359631964370312	0.00314547468103173	0.000357355353053102	-0.0163652845085216	-0.00757836534001696
9	0.0122647347404018	-0.00135965687407571	0.0031704230993577	-9.3185937764319E-05	0.00317355886086163	-8.90037281691077E-05	-0.016373181986564	-0.00652628368178316
9.1	0.0114045896141681	-0.00478119238558138	0.00313385213903113	-0.000548402139104573	0.00313663790031987	-0.000535324215298204	-0.0161184898254557	-0.0056533867921541
9.2	0.00971316700940262	-0.00796311193108876	0.00302788002486867	-0.00098164946048973	0.00303565687318055	-0.000984505935588527	-0.0158589495028813	-0.00497084118294366
9.3	0.00726615842872239	-0.0108697409284546	0.00285682097054974	-0.00140210209832265	0.00285610309322444	-0.00140716078067003	-0.0154844412111822	-0.00430367497769121
9.4	0.00388843245691438	-0.0130871696017317	0.00262680018749234	-0.00180474904614302	0.00263337939216709	-0.00179704609143645	-0.0150597471915456	-0.00375138425833105
9.5	-0.000164669625121249	-0.0142496675957938	0.00234071935232439	-0.00214652096974528	0.00234821195899463	-0.00214788817527032	-0.0148313356475216	-0.00349820392298826
9.6	-0.0042351685310176	-0.0140943453878867	0.00201189809445672	-0.00245240816021775	0.0020122332987931	-0.00245141811255044	-0.0149473290691129	-0.00318490737689751
9.7	-0.0078834938417387	-0.0129895875917378	0.00163436494875283	-0.00270005789069417	0.00163991148134584	-0.00270743148450352	-0.0151783883012848	-0.00259073224443684
9.8	-0.0111319890242176	-0.0114240675793301	0.00124266919094151	-0.00290248425264092	0.0012484206468678	-0.00289397082300969	-0.015326746149382	-0.00177668138277831
9.9	-0.0142064416401854	-0.00940196823559486	0.000835390961351616	-0.00303373450246391	0.00082804978884132	-0.0030324858505341	-0.0153498385026028	-0.000879936046773791
10	-0.0171859108536108	-0.00660367721810979	0.000407986493101283	-0.0031159730829158	0.000400482843342258	-0.00312840676123319	-0.0152433965839741	1.54280354241758E-05
10.1	-0.0194756104975562	-0.00289569556774585	-2.77743085413523E-05	-0.00314366137288095	-3.7998767521591E-05	-0.00313828493510044	-0.0149871438916888	0.000787352130086941
10.2	-0.0206608916196611	0.00125257543301407	-0.000465895643453869	-0.00310773895126572	-0.000469306948125221	-0.00310497582894737	-0.0146205734182161	0.00155201801546071
10.3	-0.0209014512606157	0.00530603196716433	-0.000891492158527347	-0.00300796590737902	-0.000883354334309393	-0.00301698321683933	-0.0140617898569069	0.00226023574975951
10.4	-0.0206166405663479	0.00917617659761697	-0.00128533869002441	-0.00286309609208153	-0.00128359124958379	-0.00286928249358739	-0.013210426454253	0.00263353075153915
10.5	-0.0198984164335433	0.0132820829355265	-0.00167856286716563	-0.00267625126152765	-0.00167557709808063	-0.00266318033773805	-0.0124480104426001	0.00269260689494026
10.6	-0.0183074936058483	0.0175523619851884	-0.00203894836727358	-0.00241730431984399	-0.00203670827532388	-0.00242112656300207	-0.0119504699391179	0.00248082704714913
10.7	-0.0153792910862137	0.0218051325127082	-0.00236684793090954	-0.00212303596009523	-0.00236337719931151	-0.00211767050407292	-0.0116612745882434	0.00257087997107002
10.8	-0.011511260067329	0.0252061882854109	-0.00265208635241982	-0.00176500589031257	-0.00264673990744023	-0.00177399080729749	-0.0114297508171318	0.00270126900675123
10.9	-0.00721119008329829	0.0278315237299886	-0.00287669799900494	-0.00138642218446407	-0.00288196827044317	-0.00138571915107525	-0.0112515990601197	0.00284208711169356
11	-0.00234740558335329	0.0298116876509314	-0.00305034567001178	-0.000958797215086793	-0.0030552400338132	-0.000965675213878481	-0.0109902904849833	0.00303603978198681
11.1	0.00315198149006408	0.0310999868907511	-0.0031685581883098	-0.000517622416181877	-0.00315750383838509	-0.000514693887400982	-0.0107230502652129	0.00317964710324361
11.2	0.00936442563686672	0.0311497759200204	-0.0032008057655487	-6.07035183526872E-05	-0.00320810298262516	-6.56160952420337E-05	-0.0103901776494417	0.00340057254090688
11.3	0.015791541898664	0.0292657176641827	-0.00316966508138981	0.000407423764777905	-0.00318147443965547	0.000397268893492383	-0.00965866315786657	0.00356713223675172
11.4	0.0214575168567262	0.0259866205270016	-0.00308517070645922	0.000851672865600659	-0.00308010581517531	0.000859321389998311	-0.00898063659304813	0.0036657866496648
11.5	0.0261679090206242	0.0216603114140281	-0.00292573578307144	0.00127843359481803	-0.00292843234262039	0.00128889141820297	-0.00837524883352552	0.00354927225323104
11.6	0.0298704272401791	0.0165068397509803	-0.00271269865629972	0.00167311918554548	-0.00271263843685971	0.00167609298443124	-0.00778779524175132	0.00307504548810919
11.7	0.032690811468452	0.0106812266987038	-0.00243307742740859	0.00202469155763803	-0.00243351567234581	0.00203337539532124	-0.00730177478442629	0.00251962856916097
11.8	0.0343460511174283	0.00416839444946872	-0.00212258269947032	0.00234769988508041	-0.00212669132047889	0.00234946943094166	-0.00683324815328595	0.00206105304222029
11.9	0.0343851817899722	-0.00252229297412611	-0.00176369625953044	0.00260994905365922	-0.00177667390681289	0.00261445090390446	-0.00647549301772098	0.00189059568646258
12	0.032894558439378	-0.00900435642531152	-0.00138743170026924	0.00281820136299268	-0.00138681845610931	0.00281960376163986	-0.00604630740955799	0.00124928758954477
