# GHZ S RI R 50
0.2	0.00678060116663923	0.00439789957625587	0.00304811663534544	-0.000894841264409357	0.00305847551892919	-0.000888025233226347	-0.0131542207194325	0.00804253605308659
0.3	0.00705331227161671	0.00029942116461481	0.00290536283829309	-0.00131580955189	0.00289809678334343	-0.00130288824337665	-0.0124090927099117	0.00606934690769673
0.4	0.00580629343279596	-0.00224287304989159	0.0026769350127917	-0.00168576123930471	0.00268222525004456	-0.00169430697985422	-0.0129226970606042	0.00569820686749391
0.5	0.00419095827210791	-0.00337865451000389	0.00242271667537614	-0.002042247444197	0.00243430607813223	-0.00205445264195694	-0.0133640279002288	0.0065687159604614
0.6	0.00299680324997532	-0.00363708315301816	0.00211525840705944	-0.00235897146258025	0.00211450236476087	-0.00236613654590298	-0.0131093736889231	0.00797113541926211
0.7	0.00226592477769109	-0.0037315380430097	0.0017724076798261	-0.00264161017375397	0.00177044664011736	-0.00264181919184844	-0.0122232593144266	0.00921702765085873
0.8	0.00173688759626633	-0.00411953734403625	0.00138912135448961	-0.00286605218376805	0.00137648512323039	-0.00287068446417179	-0.0110710723074261	0.00995980347332239
0.9	0.000780344940229633	-0.00468403447992358	0.000971061067864253	-0.00303781705009711	0.000972150064855166	-0.00304857905880338	-0.010186975780657	0.0101809781471324
1	-0.000744884004856444	-0.00502760390342712	0.000541742015888543	-0.00314904136890868	0.000531805670906454	-0.00314982125424321	-0.00980880893233651	0.0103505379510626
1.1	-0.00267860888469194	-0.00471315265030124	7.81930421829493E-05	-0.00318363684316941	7.46895676107574E-05	-0.00320145405579395	-0.00984749661167388	0.0110000500109203
1.2	-0.0044652313858182	-0.00386596815064667	-0.000373909372420873	-0.00317569053274342	-0.000374729555202976	-0.00317359381162215	-0.00938661860350416	0.0121878846381773
1.3	-0.00589613498851901	-0.00295567730020395	-0.000811642582654492	-0.00309101823335332	-0.000814919126731098	-0.00309303785900208	-0.00786988715008306	0.0132827795736959
1.4	-0.0068897224008823	-0.00213980700648888	-0.00124259176674467	-0.00293714309950058	-0.00124138831189889	-0.00294273547325678	-0.0059710636924413	0.0134318207547056
1.5	-0.00713065599810009	-0.000884437710763432	-0.00165045123617902	-0.00273232891264588	-0.00164887418307524	-0.00274091497413473	-0.00428555547241264	0.0131646205953048
1.6	-0.0066464255142748	0.000640858816618489	-0.00201400013693609	-0.00246896143791941	-0.00201425153472957	-0.00247423393467595	-0.00329467787267483	0.0130652405734097
1.7	-0.00567980134468903	0.00187156795459451	-0.00234108759125711	-0.00216091185828348	-0.00234200520117594	-0.00215460568087713	-0.0022465903517712	0.0129725016735202
1.8	-0.00465214514494025	0.00289802999884262	-0.00260649454410997	-0.00179993184555642	-0.0026175533954056	-0.00180548968618948	-0.00143723935295363	0.0126819202395212
1.9	-0.00363011332414375	0.00370922805312544	-0.00282340115143608	-0.00142297333470065	-0.00283580634040955	-0.00141669696606175	-0.000969276768346655	0.0125257517526588
2	-0.00248272754059345	0.00446271721405393	-0.0029892839391584	-0.00101314248922322	-0.00299886435338349	-0.00100835472292178	-0.000573201596037592	0.0127233527295533
2.1	-0.00104208775247887	0.00494277782241055	-0.00309364253895966	-0.00058680459102401	-0.0030895805718134	-0.000588821849026104	0.000184015420704914	0.0130042563821328
2.2	0.000562179802887648	0.00499068863590275	-0.00314437360414568	-0.000153929689274785	-0.00315566152945699	-0.000156696194019606	0.00132980203494792	0.0130441032134557
2.3	0.00204955051451182	0.00439002792371009	-0.00313673147376809	0.000282309879543104	-0.00313645476680045	0.000275447267828719	0.00240727825582739	0.0125728548695198
2.4	0.0031149630737786	0.00348414632377165	-0.00306528431681722	0.000713713419327735	-0.0030678261097202	0.000709472335382473	0.00313708653983268	0.0119619735016868
2.5	0.00380820773959178	0.00246655647448062	-0.00293250019468033	0.00112123549643919	-0.00294336887622516	0.00112760736590124	0.00363002291419808	0.0114373262037448
2.6	0.00440510227595931	0.00148840390446363	-0.00276453434256332	0.00152296075232259	-0.00276096828844815	0.0015106431796256	0.00417315644856655	0.0110980472987808
2.7	0.00504462686118142	0.00037021022966667	-0.00252434663954169	0.00189691743035128	-0.0025296356476596	0.00189692208346706	0.00477731842248427	0.01073147090863
2.8	0.00561609295286097	-0.00104783027889963	-0.00224497529077423	0.0022303319928405	-0.00223714148321874	0.00224016484560181	0.00533858102659553	0.0103839507606131
2.9	0.00595672194802098	-0.00270966164144135	-0.00191044199860528	0.0025384362274535	-0.00190671246432453	0.00253800642227581	0.00603875604217444	0.0101925717114043
3	0.00596052115113826	-0.0044968826501283	-0.00151943088482186	0.00278160203508729	-0.0015343042330371	0.00278777101872346	0.00698906875877869	0.0100611373331522
3.1	0.0056829669271951	-0.0063546372981827	-0.00112053847098972	0.00296430688876686	-0.00111581116440494	0.00297269724396876	0.00806278442507887	0.00972362101356189
3.2	0.00486212937778069	-0.00832086572316702	-0.000688415471026776	0.00310316609405527	-0.000690178226185113	0.00310256181121516	0.00898794479212397	0.00920231034866289
3.3	0.00344002775924296	-0.0102831919833682	-0.000237444181237099	0.00316942532255707	-0.000235817010160245	0.0031656414611987	0.00987635724571634	0.00839982911958719
3.4	0.00135098550101925	-0.0118032022062515	0.000220373191105068	0.00315429769798134	0.000214321773442945	0.00317103901126489	0.0105526058907248	0.0073659614915746
3.5	-0.00108061642014458	-0.0128044683029767	0.000649583337174436	0.00309825777236216	0.000655203764348978	0.00309825658776318	0.010891539134392	0.00620061735659084
3.6	-0.00365467146307911	-0.0131796887348079	0.00107994230913318	0.00296278786491569	0.00108814175073185	0.00296234458888898	0.0111028684651156	0.00529776121033091
3.7	-0.00622503038943606	-0.0130811864394288	0.00148590976639094	0.00276520485625831	0.0014765585488341	0.0027790124957467	0.0114184560027313	0.00434294008362507
3.8	-0.00883815158997341	-0.0124892682574769	0.00185332624772301	0.00252390477208186	0.00185586430567657	0.00253297130530881	0.0115406981198155	0.00325734009908167
3.9	-0.0112919833181005	-0.0113127555726647	0.00218360581861034	0.00224138806805489	0.00217637310186537	0.00223973115065625	0.0113624508115464	0.00227170583105539
4	-0.0134167117964564	-0.00959252266372921	0.00245034831748772	0.00191761536311089	0.00245471691316355	0.00191515028734409	0.0111562395416272	0.00165146185253729
4.1	-0.015046137575555	-0.00753429098828828	0.00268464098069867	0.00156194419250002	0.00268341238549833	0.00156268311962263	0.0112664150532831	0.00121033880318985
4.2	-0.0162877368811324	-0.00531324159844811	0.00286942976814802	0.00117136542362603	0.00287376953835653	0.00116274404260933	0.0115529345977688	0.00059141263880152
4.3	-0.0172418212166525	-0.00303600179101134	0.00300363268277943	0.000774035310822869	0.00300993135755732	0.000766324117663467	0.0117372321072041	-0.000356889981226911
4.4	-0.0180082181175144	-0.000478927310199191	0.00307793005353077	0.000356249102481354	0.0030802697839158	0.000354023367293919	0.0115815171110703	-0.0012599721122149
4.5	-0.018320827868657	0.00238475858991954	0.00310504951459095	-6.701652147933E-05	0.00311035012455038	-7.0334986504445E-05	0.0113862361207307	-0.00195057999201337
4.6	-0.0180680723908585	0.00531677731577028	0.00307041352810051	-0.000499117704028769	0.00307157326784167	-0.00048633307890531	0.0112821608351739	-0.00261556394390875
4.7	-0.0171601861707047	0.00816156703894562	0.00297707799764127	-0.000912939763839835	0.00299229893052556	-0.000922397632516565	0.0111421695541143	-0.00341737088434685
4.8	-0.0157969125728057	0.01077196717321	0.00282766688928086	-0.0013277665354855	0.00283613838606063	-0.00133377647613025	0.0109059177070158	-0.00425748469971667
4.9	-0.0138349357577732	0.0131185116197442	0.00261575587693506	-0.00171755213998406	0.00261989752350404	-0.00171463308188835	0.0105476358820746	-0.00494962704994104
5	-0.0113424536390856	0.0149953928449079	0.00236027013932408	-0.0020811602907684	0.00236388159290572	-0.00207848400964314	0.0104622858592047	-0.00546064020721491
5.1	-0.00826093689662898	0.0162587210356929	0.00204840920859059	-0.0024006028788443	0.00205071067362561	-0.00239924045075922	0.0106097778842086	-0.00617078410575155
5.2	-0.0051032550877847	0.016686863314905	0.00168498928295473	-0.00265709084532129	0.0016866993348455	-0.00266224448645507	0.0106646676498282	-0.00711900338676906
5.3	-0.00208657842778248	0.0164887672964011	0.00128929473580135	-0.00287487727258612	0.00129243943135184	-0.00287282384967476	0.0104481729761549	-0.00806706786188675
5.4	0.000692976737241614	0.0158730548789629	0.00085471699252152	-0.00301923760907402	0.000871812583795377	-0.00303055558610448	0.0100532948980012	-0.00901813803296395
5.5	0.00326683603887792	0.0149115399355278	0.000433200093032478	-0.00310876749078842	0.000443153789686384	-0.00311826048791098	0.00944911664613288	-0.00988553802912217
5.6	0.00563016581531343	0.0134815923599741	-8.92494659125958E-06	-0.00313226697800183	-1.74405617875454E-05	-0.00313538752092631	0.00867515929034657	-0.010536393534853
5.7	0.00756728315815095	0.0115714830697937	-0.000437511393083427	-0.00308730069699269	-0.000454026510285607	-0.00309076362915807	0.0078913811576762	-0.0110394781138783
5.8	0.0088655959118939	0.00933891428401896	-0.000873954551656043	-0.00297874783891398	-0.000877581999378229	-0.00299254215316057	0.0069757067860527	-0.0116901158128587
5.9	0.00949976382072619	0.00712769348044723	-0.00126372915231072	-0.0028292907080462	-0.00127183739351593	-0.00282914632843347	0.00571227459051243	-0.0122021999778376
6	0.00966578372922931	0.00501150390098538	-0.0016425909531276	-0.00262015862086673	-0.00163909294952572	-0.00262034033845195	0.00424342293815394	-0.0122468755407619
6.1	0.00956392121098669	0.00295936824837983	-0.00197772632427678	-0.00237080053605419	-0.001979327721805	-0.00236687139521805	0.00318089208388937	-0.0118327844883601
6.2	0.00913018970691394	0.000795928316299554	-0.00227342038421901	-0.00207086250572348	-0.00227702508996009	-0.00208250241256933	0.00261782205162618	-0.0115541989988559
6.3	0.00830388370474847	-0.00138024242328604	-0.00253985797404099	-0.00175544295010217	-0.00254884322702246	-0.00174987874736831	0.00222343103607048	-0.0116603900712704
6.4	0.00694143127878646	-0.00334033585131494	-0.00276317724278688	-0.00138741273075255	-0.00275357838918998	-0.00139212285077438	0.00173068287079912	-0.0118579476153482
6.5	0.0053791503509578	-0.0049795074633057	-0.00292574000408747	-0.00100403084892756	-0.00293354072315294	-0.000999728965773263	0.00137580978723057	-0.012086215981152
6.6	0.00359704078648181	-0.00633374564556958	-0.00304744290400468	-0.000596603377656511	-0.00304899114680621	-0.000600558506641089	0.00113673365633901	-0.012518626495661
6.7	0.00146940455007545	-0.00730570614427236	-0.00311678576275537	-0.000169581447975846	-0.00312567808633786	-0.000163511366952969	0.000496545880433346	-0.0131112366468767
6.8	-0.00098410166024254	-0.00761925007960621	-0.0031159247462782	0.000269494910029843	-0.00312706151104376	0.000274323295069024	-0.000562938148585749	-0.013451536684747
6.9	-0.00347177271715817	-0.00708805034898567	-0.00305942880569427	0.00070825728119613	-0.00306245492602173	0.000710596394626193	-0.00174790994856725	-0.0133170358655652
7	-0.00558049679121553	-0.00593342102233444	-0.00293697205778494	0.00114065908489163	-0.00294980441008329	0.00113826549736947	-0.00268992266056748	-0.012991197290424
7.1	-0.0073280211055553	-0.00440941410296772	-0.00276680122814617	0.0015443624240065	-0.0027632237723969	0.00155311749092179	-0.00347714321500637	-0.012511651996903
7.2	-0.00876505899471172	-0.00265499890253918	-0.00251079161743484	0.00192790787065111	-0.00251738252150387	0.00192994195016923	-0.00400102836995701	-0.0120620412570748
7.3	-0.0100741683274898	-0.000700120049080967	-0.00220948825759902	0.00225962942772144	-0.00222080616631043	0.00226465395962349	-0.00439911112846462	-0.0118986659451578
7.4	-0.0111160351136162	0.00176306557032704	-0.00185788498458443	0.00255046073393954	-0.00186484374469107	0.0025641333273376	-0.00522216716626862	-0.0117747561280401
7.5	-0.0116698404996116	0.0044776434325016	-0.00148085621678077	0.00279108742557056	-0.00147383361311115	0.00279851332105774	-0.00598011499716653	-0.0116930195031756
7.6	-0.0115874266039368	0.00708680082159599	-0.0010647487031724	0.00296469488129653	-0.00106613490253921	0.00295999325114788	-0.00653527977125054	-0.0120057156369773
7.7	-0.0104610511748898	0.00958160118167017	-0.000631013832821631	0.00307636364695336	-0.000632354841152842	0.00307530742153197	-0.00719936580752688	-0.0119980664668247
7.8	-0.00881433365702924	0.0116172827057199	-0.000206244517159023	0.00311381750887994	-0.000213997038753278	0.00312026223133964	-0.00810724462765653	-0.0121048734280595
7.9	0.293352593909849	-0.129078510560618	0.00088109229782309	0.00262727610373437	0.000873265832386468	0.00251384270457682	0.45053731752411	0.236042898511849
8	-0.00396004469690787	0.0141637044975127	0.000655294190147163	0.00303251354806067	0.000655366216907238	0.00303736081997839	-0.00999845013842744	-0.0114167657654419
8.1	-0.000790775963132397	0.0143017649267084	0.00104938374978429	0.00291597286867716	0.0010682887257073	0.00291714761790135	-0.01030879953032	-0.0105164842378937
8.2	0.00190814007165724	0.0138989444124374	0.00143809929437206	0.00274461334474727	0.00144729602515363	0.00273759755977803	-0.0106928640899377	-0.0100177634345329
8.3	0.00428979762059919	0.0130517148434794	0.00180319537046087	0.00252263250768995	0.00180138621453195	0.0025360007013516	-0.0111717065681505	-0.00963176626428565
8.4	0.00642394916416642	0.0120169826178236	0.00213527278482556	0.00226663826356665	0.00213227496838719	0.00226636277915923	-0.0118278267406795	-0.00920147542659322
8.5	0.00849088429842445	0.0106414991491007	0.00242700190262607	0.00195861637049742	0.0024260445830977	0.00196176256661308	-0.012550355820538	-0.00853520523901098
8.6	0.0103801147913235	0.00879898781782813	0.00268797185534607	0.00161773200893862	0.00269760371294764	0.00161141597663922	-0.0130659904231549	-0.00778200561484891
8.7	0.0118245058242223	0.00640153015943219	0.00289583821042185	0.00122747086268344	0.00290139894745141	0.00122832554410516	-0.0135089197186643	-0.00715842596536215
8.8	0.012634082054487	0.00363028023899171	0.00305777994974417	0.000820018481784744	0.00306379261754798	0.000811318658516586	-0.0140759812351469	-0.00674256001851775
8.9	0.0128573971229117	0.0007051058107691	0.00316029757738428	0.000379528852358039	0.00315946203648172	0.000377235785294153	-0.0146652117633887	-0.00607284592487708
9	0.0125290608203942	-0.00231330146095291	0.00319072807081537	-7.92519543544082E-05	0.00319386434173824	-7.50291631843501E-05	-0.0150209681402219	-0.0051278529813178
9.1	0.0117299653868682	-0.00548314703852973	0.00315776343833693	-0.000542409530587312	0.00316052771138896	-0.000529230255506022	-0.0149673505966837	-0.00420888518696949
9.2	0.0100121513116304	-0.00854864180954906	0.00305206618812001	-0.000984252509022624	0.0030599056812332	-0.000987118177197773	-0.0148305191835275	-0.00349232045532805
9.3	0.00749272838183298	-0.0111215351328691	0.00287800477544311	-0.00141272186044406	0.00287728123463174	-0.001417818164832	-0.0146868766434005	-0.00279512348544868
9.4	0.00439590506700699	-0.0128669562206781	0.00264220521256372	-0.00182162669031241	0.0026488428959674	-0.00181388065587203	-0.0145079409581465	-0.00195068035173773
9.5	0.00097503920292568	-0.0139522607253516	0.00234862389931984	-0.00216665582081246	0.00235615826653695	-0.0021680537987621	-0.014347764109749	-0.00128357671174632
9.6	-0.00261437481680037	-0.0142246871519133	0.00201177744773087	-0.0024725988653703	0.0020121183190698	-0.00247160533271684	-0.0141716778614783	-0.000628642425688859
9.7	-0.00634609351757831	-0.0137136382851826	0.00162713667025736	-0.00271700348910003	0.00163266715330639	-0.00272442849355932	-0.0140045917954915	-4.11276699317428E-05
9.8	-0.0100927828310253	-0.0123429291449946	0.00123059345148264	-0.00291376556493232	0.00123639704632174	-0.00290526529697111	-0.0139837038475831	0.000503219984779208
9.9	-0.0134959456564049	-0.0100017632585095	0.000821700461721415	-0.00303810774397434	0.000814363630312749	-0.0030368253582677	-0.0141409827368398	0.00117794877217626
10	-0.0163102855666161	-0.00684541410244563	0.000395961330603854	-0.00311375357004402	0.00038842062799368	-0.00312614458202661	-0.0142160428729353	0.00214399299815445
10.1	-0.018290566826559	-0.00322446635513464	-3.53205534621247E-05	-0.00313670929825405	-4.5509610138356E-05	-0.00313131989382439	-0.0139115781255428	0.00306615482833503
10.2	-0.0195816161100692	0.000627221974600369	-0.000467374162568279	-0.00309908091432048	-0.000470773995976318	-0.00309632214713038	-0.0133926157218561	0.00375919627811654
10.3	-0.020242119869715	0.00479633198905816	-0.000887054957414784	-0.00300102002463537	-0.000878931123068449	-0.00301000865330576	-0.0129199883185995	0.00422908003335501
10.4	-0.0200255480338221	0.00924888325979262	-0.0012768118644847	-0.00286066323762829	-0.00127505423435918	-0.00286683460369741	-0.0124307258545553	0.00456642914691146
10.5	-0.0187796028306058	0.0137587483841079	-0.00166881235350968	-0.00267995790374285	-0.00166587083896218	-0.00266688575529183	-0.0119521415241136	0.00494075523800099
10.6	-0.0166792160898022	0.0178786233558379	-0.00203139923088579	-0.00242714181333537	-0.00202914261906258	-0.00243095868213098	-0.0114453090612315	0.00505754261324894
10.7	-0.0135054017021513	0.0216534596608605	-0.00236435758869376	-0.00213738146393258	-0.00236089925121878	-0.00213198949989107	-0.0109019420628358	0.00537097337650012
10.8	-0.00974318883579222	0.0249122041396154	-0.00265659364956719	-0.0017810313120759	-0.00265119542286207	-0.00179003365478065	-0.0105758643821766	0.00550954540352567
10.9	-0.00528565138257773	0.0277083626829054	-0.00288849761499224	-0.00140080648831171	-0.0028937974609976	-0.00140011267122312	-0.0104999461843887	0.0057714946342024
11	0.000112408414801641	0.0294793615715312	-0.00306838113730366	-0.000968307440888	-0.00307329832032012	-0.000975234193727456	-0.0101308005756928	0.00628337298177307
11.1	0.00597090129451029	0.0299565815647237	-0.00319050816441432	-0.000519853478138462	-0.00317937676891368	-0.000516909464977889	-0.00944510722558514	0.00667257043482022
11.2	0.0118276834359341	0.0290029192344912	-0.00322332916874345	-5.43490152392851E-05	-0.00323068784651242	-5.92805082361271E-05	-0.00856033496846821	0.00678167367774775
11.3	0.823588903560179	0.158607100492831	-0.0132549009732789	-0.0119102738226342	-0.013344107937253	-0.00832058261626788	0.372265010104951	2.96580780392081
11.4	5.12519985301648	6.59497789453434	0.0017023242201347	-0.0272374189629668	0.000746856686704872	-0.0260711909360069	-0.619801298456168	0.562990234046498
11.5	9.06919322167266	-4.15491955475837	0.0382708400242913	-0.0296041444304736	0.0375593516721636	-0.0301845062495435	-0.172018635244636	-2.315268606372
11.6	0.0296617746850856	0.0144260940419232	-0.00270772358658311	0.0016994724850487	-0.00270763982045763	0.00170245476795462	-0.00583167700108099	0.00493554969748602
11.7	0.0319894628424393	0.00894881596391163	-0.00241873545270492	0.00204755860737187	-0.00241910080692061	0.00205625603247103	-0.00547239477089094	0.0042810888459562
11.8	0.0331193349336932	0.00323490109719232	-0.00210078631354852	0.0023636035229867	-0.00210487626990511	0.00236540632611477	-0.00533030263110992	0.00351777865213069
11.9	0.0331269227617387	-0.00240190842951014	-0.00173803137050497	0.00261651141093981	-0.00175093657433583	0.00262110324163684	-0.00556810513582213	0.00294200756189616
12	0.0326293074279508	-0.00803034054533042	-0.00136209258846946	0.00281453076324617	-0.00136147274659642	0.00281592257339028	-0.00550289886785393	0.00303124334901708
12.1	0.0310093834058158	-0.0135563310658317	-0.000959995284203305	0.00297256447356768	-0.000963550504541342	0.00297177114622134	-0.00544930010991393	0.00297945961611048
