# GHZ S RI R 50
0.2	0.00564628743702285	0.00254462344264444	0.00304838051667901	-0.000896952327071083	0.00305874635155693	-0.000890140839455788	-0.0143346446918558	0.00615784308588672
0.3	0.00629408363560445	-0.000125881794894924	0.00290463001726303	-0.00131974064462265	0.00289737752074266	-0.00130680662346523	-0.0132105655874965	0.0056486482872634
0.4	0.00588930593954966	-0.00236828203287469	0.00267388985444088	-0.00169105348918448	0.00267916401777825	-0.00169961008950239	-0.0128204482701187	0.00560271201285915
0.5	0.00473934741947877	-0.00400356128911026	0.00241629249540529	-0.002047699694508	0.00242784477968164	-0.00205992989933831	-0.0127039979852981	0.00593736290572126
0.6	0.00331304416303333	-0.00489502593668172	0.00210514150748156	-0.00236275820599856	0.00210436365395092	-0.00236991199080078	-0.0126218209470189	0.0065999634467207
0.7	0.00190996732240894	-0.00517878032501596	0.00175918847319152	-0.00264178875738766	0.00175723115467195	-0.00264199047288347	-0.0124306246391704	0.00752962729196305
0.8	0.000819530580652484	-0.00518092090513885	0.00137442207825555	-0.00286102502722675	0.00136181318163322	-0.00286559762290178	-0.0119339717168975	0.00858828950851589
0.9	-0.00018139230914433	-0.00512517164141118	0.000957227818951129	-0.00302676508161166	0.000958278675127557	-0.00303748070368977	-0.011185810101	0.00945951813780969
1	-0.00126604756908734	-0.00512463448047918	0.000531353898452082	-0.00313233192316072	0.000521472431744943	-0.00313308433299521	-0.0103688526149428	0.0100651324737101
1.1	-0.00269723041747667	-0.00500767923371874	7.37534099067219E-05	-0.00316282373064192	7.02509732498632E-05	-0.00318051960260499	-0.00979750978807473	0.0105681115946909
1.2	-0.00435626066777483	-0.0046593334647788	-0.000370947054059393	-0.00315312376279939	-0.000371761598188309	-0.00315104204236209	-0.009088430131547	0.0111686098937577
1.3	-0.00603656464028771	-0.00408367592920836	-0.000800863038946005	-0.00306976089614944	-0.000804112519268252	-0.00307177095268602	-0.007807874711664	0.0117902464769633
1.4	-0.00731910003282425	-0.00332698789101897	-0.00122477647643243	-0.00292028366241732	-0.00122356424791429	-0.00292583292413185	-0.00622333663975943	0.0117601785757635
1.5	-0.00790612165250272	-0.00205781261454278	-0.00162764167908707	-0.00272230857304855	-0.00162603611005075	-0.00273083275646605	-0.00494072683965145	0.0113814861858843
1.6	-0.00779086315023559	-0.000301411454226474	-0.00198922665663877	-0.00246722328197562	-0.00198944676434401	-0.00247246906523784	-0.00441564441796945	0.01140778497389
1.7	-0.00695630873912666	0.00138028158102979	-0.00231762501874773	-0.00216758617853586	-0.00231858017400921	-0.00216131116252452	-0.00370343557036823	0.0117778668070777
1.8	-0.00574011608224988	0.00277086597743519	-0.00258757940214726	-0.00181367974446034	-0.00259857247908674	-0.00181930100292082	-0.002819778149589	0.0120176302815695
1.9	-0.00439545882834748	0.00363734422282505	-0.00281116633897896	-0.00144128369754312	-0.00282360438372825	-0.00143509841795194	-0.00198466794869332	0.0120792387845275
2	-0.00311110366991184	0.00420956007269774	-0.00298474347763035	-0.00103284257821901	-0.00299436054570131	-0.00102811279835071	-0.00130678402302374	0.0121337743245701
2.1	-0.00180332440514353	0.00456183548362014	-0.00309621700821695	-0.000604589450955962	-0.00309213661586095	-0.000606588530882207	-0.000591415520208239	0.012178023752991
2.2	-0.000388529749439234	0.00474949745637204	-0.00315210199250167	-0.000167206779270184	-0.00316340860160998	-0.000170026832126454	0.000298466698099031	0.0122260351414484
2.3	0.00115587977714663	0.00445953335023663	-0.00314672347969698	0.000274915090316985	-0.00314642795639253	0.000268032963700053	0.00126653870083379	0.0120778331816106
2.4	0.00257568424609718	0.00368396426854743	-0.00307439217607182	0.000712019242243882	-0.00307693581599295	0.000707763721895026	0.00227369802571953	0.0118009018992093
2.5	0.00361383064809119	0.00245552893755247	-0.00293812896946057	0.00112355531411403	-0.00294901840228517	0.00112994007775174	0.00325556212182055	0.0112675797057105
2.6	0.00425449421849342	0.00110384675228685	-0.00276532993476534	0.00152665799517922	-0.00276177221745451	0.00151432751582703	0.00410051041102145	0.0105800963116615
2.7	0.00470621149993861	-0.000226610505755744	-0.00252038308483771	0.00189897832214379	-0.00252566885320966	0.00189898972037401	0.00468766719786282	0.0098689899100494
2.8	0.00512389695753654	-0.00168391729643306	-0.00223781222909034	0.0022281693214403	-0.00222998385477195	0.00223797294911805	0.00515449510604616	0.00935609432555599
2.9	0.00536768343049705	-0.00340710243569342	-0.00190279270097974	0.00253043391678181	-0.00189907624798526	0.00253000407306015	0.00583213295230691	0.00899468165774132
3	0.00514781620363305	-0.00528051269038429	-0.00151462605275174	0.00276776526924885	-0.00152943631221723	0.0027738947958095	0.00664394038716644	0.00858555657208598
3.1	0.00454929467863491	-0.0070539891795549	-0.00112150591297857	0.00294614708343837	-0.00111682283216847	0.0029545042986191	0.00736050993906018	0.00805207159228284
3.2	0.0035332933502836	-0.00871270508179764	-0.000697355711471178	0.00308342140767856	-0.000699106378292837	0.00308281320951363	0.00786422861327792	0.00761527614322753
3.3	0.00219057699436435	-0.0103537054760463	-0.000255115642947844	0.00315186754971943	-0.000253474218586118	0.00314811265459228	0.00853850049824004	0.0071189700896939
3.4	0.000312851525333017	-0.0117636891800333	0.000195034183413652	0.00314289734872265	0.000188878284656525	0.00315952224351853	0.00926190594410339	0.00633628298249599
3.5	-0.00202055657017952	-0.0128193697582341	0.000619124929909008	0.00309600718940769	0.000624730360592548	0.00309605811488779	0.00968772757131102	0.00522091321358809
3.6	-0.00465929182348781	-0.0132027349164212	0.00104837711128726	0.00297187667989367	0.00105657525522652	0.00297151892694787	0.00983076304089089	0.00429206732346053
3.7	-0.00724626360675242	-0.0129362040778885	0.00145794879200811	0.0027858122636765	0.00144843168477234	0.00279953910387251	0.00998559304594079	0.00349964178698458
3.8	-0.00965799632644289	-0.0121946131060048	0.00183338538196373	0.00255418665339623	0.00183583522285657	0.00256331724124362	0.010146079802272	0.00275125162287563
3.9	-0.0118373783779025	-0.0111244253739706	0.00217514783691368	0.00227777261487051	0.00216788517630953	0.00227603233575314	0.0102990227791855	0.00197531326997325
4	-0.0139097728560555	-0.00969816278324352	0.00245501560481612	0.00195503198215422	0.00245944280282596	0.00195258305761116	0.0104534678525957	0.00123506048130746
4.1	-0.0157392111019796	-0.00780781224555609	0.0027020448099116	0.00159527636870383	0.00270079886168843	0.00159601492812621	0.0106690458584823	0.00051974259044755
4.2	-0.0171568468856309	-0.00549675937079113	0.00289694521154641	0.00119590531685203	0.00290136791088528	0.00118720452495439	0.0108701795268338	-0.000220708175936579
4.3	-0.018059622157959	-0.00307738462269854	0.00303686028069661	0.000786831467760012	0.00304324097124066	0.000779040668096018	0.0110698688669961	-0.00108697581693151
4.4	-0.0186820168743879	-0.0005830354313003	0.0031115833634502	0.000356349403626039	0.00311394563851872	0.000354096799665768	0.0111287944210216	-0.00200253998241754
4.5	-0.0190222286007502	0.00207052323909743	0.0031342335370821	-7.81507346467385E-05	0.00313957313266754	-8.15185552763748E-05	0.0111344163415375	-0.00295501223180551
4.6	-0.0190048154415631	0.00490793953676866	0.00309133216347927	-0.000518157666694591	0.00309256418346839	-0.000505281382303699	0.010955824770407	-0.00400847583119952
4.7	-0.018292922014778	0.00788898559260726	0.00298798399910406	-0.000935330900438825	0.00300323267829955	-0.000944929387142095	0.0105431953091001	-0.00499992706128244
4.8	-0.0169248575709777	0.0106734357935027	0.00282885466403686	-0.00134899107160232	0.00283731755062868	-0.00135507116704639	0.010067450438471	-0.0057797317074417
4.9	-0.0148724029256006	0.0130310166260807	0.00260950551779389	-0.00173376382851367	0.00261366786769258	-0.00173086382006569	0.00968198755824073	-0.00640133897430047
5	-0.0124510227499986	0.0148477940066059	0.0023501736969835	-0.002090129433143	0.00235379466781358	-0.00208746993215788	0.00956546109777709	-0.00698513869686732
5.1	-0.00953176817529459	0.0162398194199624	0.00203860616094018	-0.00240193280587766	0.00204090731537208	-0.00240057875618898	0.00950062602573348	-0.00773167143291325
5.2	-0.00633576085290446	0.0169505318219206	0.00167924697748594	-0.00265235963759223	0.00168094939331664	-0.00265750295541768	0.00933590182651837	-0.00846400587496686
5.3	-0.00304768809539423	0.0168631923362204	0.00129015854914449	-0.0028671553066529	0.00129329399213256	-0.0028651023049088	0.0091773290751405	-0.00908558890595274
5.4	-7.45040755224875E-05	0.0160624886390488	0.000863030407926669	-0.00301256986240975	0.00088013878561387	-0.00302381939194182	0.00908258148204009	-0.0099277081799873
5.5	0.00238564127886507	0.0148776952034716	0.000447838433967523	-0.00310706161379031	0.000457837739999237	-0.00311650888819823	0.00869575794924706	-0.0109984502445293
5.6	0.00447903607780041	0.0135027468575249	9.1225296576414E-06	-0.003138780294906	6.0734502231471E-07	-0.00314195639083833	0.00783279169153471	-0.0119118956950715
5.7	0.00631655976120772	0.0119388344894443	-0.00042036199647855	-0.00310360146944403	-0.000436928453978127	-0.00310718169989342	0.00673968711218359	-0.0124193591365979
5.8	0.00792911259473571	0.0100108915714717	-0.000862672766622137	-0.00300439832173072	-0.000866245070904064	-0.00301830898096335	0.00571001927035918	-0.0127726707011174
5.9	0.00904347453022791	0.00772440737742383	-0.00126245558379729	-0.00286147020598062	-0.00127064001410183	-0.00286136186466136	0.004680788881369	-0.0129909712965525
6	0.0094489365750072	0.00518775381440339	-0.00165439025610888	-0.00265417076866019	-0.00165085209281815	-0.00265434542115479	0.00361448063677819	-0.0130565046525157
6.1	0.00919664271283887	0.00273982661901034	-0.00200300922244798	-0.00240088698733441	-0.00200463082341006	-0.00239690775983336	0.00276614481235381	-0.0129477890170031
6.2	0.00850029889522814	0.000453737552698451	-0.00231000220269511	-0.00209123493135573	-0.00231369092687683	-0.00210301790676012	0.00214187691646714	-0.0129372909829591
6.3	0.00754141216053238	-0.00176769600588223	-0.0025834187466478	-0.00176197131136032	-0.00259248413212416	-0.0017562793888629	0.00166569280812506	-0.0131421715788726
6.4	0.0060065970989316	-0.00392185512851223	-0.00280748384307518	-0.0013777929749205	-0.00279781884889514	-0.00138264524730491	0.00124601891630887	-0.0135168844293967
6.5	0.00399807843469206	-0.00559315373466624	-0.00296429312532043	-0.00097935318514892	-0.00297211573982252	-0.00097492130460999	0.000778650946327182	-0.014101442474709
6.6	0.00183959158391239	-0.00652216089028418	-0.00307487199023979	-0.000560203999312903	-0.00307648237641259	-0.000564164068562355	8.87958135362111E-05	-0.0146997087198628
6.7	-0.000192209090914315	-0.00691765377155635	-0.00312958489278473	-0.000126762590521524	-0.00313842249997546	-0.000120548395549785	-0.000982156679049802	-0.0150225398754094
6.8	-0.00221852727422579	-0.00699352032267165	-0.00311311707829911	0.000312376274356932	-0.00312419071141199	0.000317359033160194	-0.00209110363073334	-0.0149193312581268
6.9	-0.00441636355926703	-0.00666021038964866	-0.00304275720464519	0.000745398854048708	-0.00304574599242166	0.000747770600790063	-0.00299962537950429	-0.014619579431909
7	-0.00661775022049951	-0.00569602554818657	-0.00291028479115653	0.00116750622960257	-0.0029230817617284	0.00116526543508482	-0.00376622230426363	-0.0144230068639113
7.1	-0.00860365859018694	-0.00402687880016212	-0.00273533088426068	0.00155868804379708	-0.00273169962710789	0.00156735503587267	-0.00469705014633077	-0.0141386435613856
7.2	-0.00999467427412735	-0.00182228227866064	-0.00248019362014119	0.00192941807798325	-0.00248672316627331	0.00193147844685995	-0.00557893455682914	-0.0135981805822294
7.3	-0.0107780613573777	0.000491731359571659	-0.00218467396239892	0.00225080281015124	-0.00219588874476761	0.00225583116562319	-0.00618947003972061	-0.0129569684915946
7.4	-0.011145919877267	0.0027317935567788	-0.00184214896195475	0.00253533185179754	-0.00184904380614688	0.00254891971686239	-0.0067153880094984	-0.012400421668288
7.5	-0.0113102777185723	0.0048470109359586	-0.00147531293936847	0.00277466043948629	-0.00146833494889435	0.00278205235266217	-0.00691305860287131	-0.0120840950828426
7.6	-0.0111769136482958	0.00696554748425913	-0.00106829592775143	0.0029520230844642	-0.00106966603121931	0.00294733411087986	-0.0069812552076307	-0.0122739966864468
7.7	-0.0104206760743741	0.0091351006101729	-0.000640265555711549	0.00307133406124935	-0.000641601865842808	0.00307027456609285	-0.00744090066786636	-0.0127119523017923
7.8	-0.00900020406534624	0.0108994950284354	-0.000216287865725518	0.00311830744018441	-0.000224073249402303	0.00312473862707457	-0.00815886192731095	-0.0130343212549519
7.9	-0.00711477909236782	0.0121410644888602	0.000221569946196953	0.00312382940660975	0.000229477835062125	0.00312533095976121	-0.00888139748923526	-0.0130207214535103
8	-0.00517667000045159	0.0132411004894708	0.000658908871281721	0.00305158067459885	0.000658980576436428	0.00305645826870449	-0.0098261376112192	-0.0132036806857928
8.1	-0.00265114341295337	0.0139937002138747	0.00106463220221968	0.00293554727210171	0.00108368395679105	0.00293668386956964	-0.0107700272312809	-0.0129177269361398
8.2	0.000124723668769629	0.0142149360950886	0.00146491117038488	0.00275850873695058	0.00147414219600254	0.0027513855600583	-0.0117162974137114	-0.0123661802172707
8.3	0.00293302009624717	0.0136332771270257	0.00183837497662613	0.00252519680140385	0.0018366696233097	0.00253867801262328	-0.0124389140605425	-0.0116514512238262
8.4	0.00535465290029345	0.0124263118880135	0.00217325764475906	0.0022543314392248	0.00217024018515972	0.00225408918397174	-0.0130066007808694	-0.0110118171587533
8.5	0.00729159848361303	0.0108350605207858	0.00246080410209175	0.00193077396184961	0.00245988734836087	0.00193394222206056	-0.0136321407915792	-0.0104291173311842
8.6	0.00886951378762887	0.00914693840309351	0.00271113513311452	0.00157672808932128	0.00272066823045402	0.0015702701372756	-0.0143196170355219	-0.0098434682815249
8.7	0.0103143562956023	0.00718929741774005	0.00290324429936655	0.00117857418275317	0.0029087963732087	0.00117934082820709	-0.0150708188674772	-0.00913672832814829
8.8	0.0115407800515133	0.00475910832343072	0.00304731613833328	0.000769858731042615	0.00305315924656616	0.000761135518706375	-0.0158342994823741	-0.00831219377515975
8.9	0.0122589668157992	0.00173227143612256	0.00313251814632455	0.000335298038004968	0.00313166197916695	0.000333039298409051	-0.0162357013689302	-0.00720852646984191
9	0.0120990050218285	-0.00161431899781911	0.00314921872742019	-0.000111197075941433	0.0031523586176375	-0.000107060530607573	-0.0162141229967816	-0.00611650736607415
9.1	0.0112103130663551	-0.00490299831946415	0.00310821269595542	-0.000557855470805018	0.00311103421466574	-0.000544886689345951	-0.0159349748166966	-0.00524461046043484
9.2	0.00954717742521373	-0.00797821902239344	0.00300148958386737	-0.000981788870660661	0.00300919777956612	-0.000984643064744947	-0.0156585459243597	-0.00456937766155265
9.3	0.00717009675203099	-0.010753856390697	0.00283323931453362	-0.00139355423321054	0.00283252274433605	-0.00139857266504897	-0.0152810124528677	-0.00390248973578951
9.4	0.00395719482470627	-0.012926539095331	0.00260897602948355	-0.00178947768909785	0.00261550102782708	-0.00178182599601508	-0.0148541764238315	-0.00338510251051518
9.5	0.000121790702872719	-0.0141161414971824	0.00233046169268286	-0.00212773531851679	0.00233790948544837	-0.00212907749575066	-0.0145644699975549	-0.00312021236668392
9.6	-0.00386173636930512	-0.0141444389272019	0.00200953219752867	-0.00243346730814971	0.00200986251710472	-0.00243248122300392	-0.0146689427834382	-0.00286743985964359
9.7	-0.00758528250767358	-0.0132112403907479	0.00163875376770478	-0.00268422772991951	0.00164430841775335	-0.00269155399091413	-0.0149362429411418	-0.00233500331659749
9.8	-0.0109883322903345	-0.011685344319408	0.00125137246315304	-0.0028919857707233	0.00125707986304337	-0.00288346702638826	-0.0151550162049681	-0.00154514259177239
9.9	-0.0141593460176962	-0.00956118848558488	0.000845210747957074	-0.00302951898857225	0.000837868774257135	-0.00302829561336976	-0.0152486048847224	-0.000603426009840129
10	-0.0171149712128361	-0.0066984100928838	0.000415760721717307	-0.00311740508510319	0.000408281034844349	-0.00312986633635285	-0.0151645298338399	0.000332204983724042
10.1	-0.0193898691339179	-0.00301183757412034	-2.45359003519757E-05	-0.00314865036444431	-3.47821046314563E-05	-0.00314327611896287	-0.0149123344897369	0.00112765191671621
10.2	-0.0206528165202587	0.00113030358316039	-0.000468356529686201	-0.00311320265121617	-0.000471772668308041	-0.0031104326944759	-0.0145605843541196	0.00190136097656664
10.3	-0.0209641601682713	0.00530727711485872	-0.000899102492242842	-0.00301062123893005	-0.00089097125827759	-0.00301966905095872	-0.0140274258234757	0.00263784407381115
10.4	-0.0205915849676541	0.0093529893722064	-0.00129600473344265	-0.00286038859034112	-0.00129427760263392	-0.0028665847691575	-0.0131740041240509	0.00306633381310323
10.5	-0.0196504055868502	0.0135066425244579	-0.00168919450680582	-0.00266679201703358	-0.00168615291110711	-0.00265374413901722	-0.0123616243226627	0.00317249764577521
10.6	-0.0178082898106385	0.0177340220275848	-0.00204595957553998	-0.00240145619895533	-0.00204374369039951	-0.00240528029828722	-0.0117985730361944	0.00303472563196875
10.7	-0.0149597757282597	0.0217109235507888	-0.00236727828664765	-0.00210274457333648	-0.00236379602047879	-0.00209741824327908	-0.0114737974863609	0.00297644691053701
10.8	-0.0110275072943884	0.0250469597955139	-0.00264396268377556	-0.00174353284671861	-0.00263868527798105	-0.00175248758352098	-0.0112288028736021	0.00314944559629833
10.9	-0.00666039131489232	0.0275438860068309	-0.00285987390749918	-0.00136748681849759	-0.00286510345122164	-0.00136677283488905	-0.0109850614745849	0.00330683639216308
11	-0.0017862347412803	0.0293360061219258	-0.00302611604769963	-0.000946148122814769	-0.00303097955271395	-0.000952960891957223	-0.0106773274636587	0.00347459334762311
11.1	0.00359672887141243	0.0303730875326906	-0.00313971021028236	-0.000513993441476496	-0.003128756878187	-0.000511087733502047	-0.0103775504846961	0.00355862281820449
11.2	0.00951645444494738	0.0302491378427556	-0.00317132042157615	-6.75390966553439E-05	-0.00317853939205015	-7.24234873462437E-05	-0.0100547741667625	0.0037070488757111
11.3	0.0156222158328109	0.0285356388922755	-0.00314367387276125	0.000390293163896851	-0.00315533643685523	0.000380176606886051	-0.0094693803677112	0.00391999218907494
11.4	0.0210490066488111	0.0254343699332955	-0.00306626538147214	0.000826200683126439	-0.0030612867106795	0.000833820354778934	-0.00881678160345851	0.00401298000440931
11.5	0.0255849345051355	0.0213004058060123	-0.00291674421276891	0.00124791691806185	-0.00291950329328311	0.00125828715623496	-0.00822053976188159	0.00379589891801019
11.6	0.0292691694700711	0.0163768608942285	-0.00271477236405752	0.00164168657721504	-0.00271473840094945	0.00164464715298612	-0.00769748886715264	0.00333005365269369
11.7	0.0320906371618921	0.0107837088313247	-0.00244562396449493	0.00199678741435487	-0.00244614193444037	0.00200544466212681	-0.00728974124765865	0.00279782433999067
11.8	0.0338257664811341	0.00454785865374643	-0.00214338444106495	0.00232684500084142	-0.0021475075370362	0.00232857551027046	-0.00691006546560432	0.00238816297031194
11.9	0.0341017016089308	-0.00195503190700162	-0.00178895920567426	0.0025986040176103	-0.00180199539433673	0.00260300024202177	-0.00656618604688108	0.00223143032737963
12	0.0329749471017606	-0.00831190526742251	-0.00141297438488588	0.00281690401809913	-0.00141236965220383	0.00281831551957994	-0.0060849899244115	0.00184899515394447
