# GHZ S RI R 50
0.2	0.00628796060087598	-0.00103522940426142	0.00304843250585115	-0.000899488284759277	0.00305880602213481	-0.000892683044179464	-0.0136919080622132	0.00259863566854769
0.3	0.00608649719865843	-0.00170665496591843	0.00290346788301847	-0.00132403284506264	0.00289623154666353	-0.00131108593919218	-0.0134108325248206	0.0040984393914196
0.4	0.00611752339318685	-0.00236327338775129	0.00267032660655071	-0.00169662451986101	0.0026755828282288	-0.00170519205314406	-0.0125757705168228	0.00564788971191654
0.5	0.00610970249644243	-0.00334658573997056	0.002409287909101	-0.00205340879556396	0.00242079985989821	-0.00206566502227391	-0.0113030299259119	0.006643374902968
0.6	0.00574233452177842	-0.00462371997819815	0.00209433980420774	-0.00236680962097829	0.00209353864894709	-0.00237395135520559	-0.010140823449394	0.00692465772658122
0.7	0.00467022422533045	-0.00590571708369324	0.00174511925744682	-0.00264222699386356	0.00174316576323217	-0.00264242086548266	-0.00959251681780116	0.00684957634582433
0.8	0.00301732250049357	-0.00678667868886858	0.0013586410573253	-0.00285621114001653	0.00134605905469319	-0.00286071941272158	-0.0096345634974111	0.00700774475173091
0.9	0.000968638439722082	-0.00686910587804722	0.000942003164537452	-0.00301576680406386	0.00094301122521963	-0.00302643524056513	-0.00992466864883494	0.00770647750143514
1	-0.000905528713983979	-0.00614682954126086	0.000519264941443711	-0.00311532296654211	0.000509439770924325	-0.00311604270384103	-0.00991224095351797	0.00899736614356567
1.1	-0.00227540493894108	-0.00495696674463206	6.74578832766825E-05	-0.00314116883489605	6.39471958685959E-05	-0.003158736384666	-0.00932338629923268	0.0105545055648925
1.2	-0.00310532383066119	-0.00398670681968141	-0.000369799650530302	-0.00312909655213493	-0.000370606944532838	-0.00312703013814889	-0.00785746456924406	0.011780405959246
1.3	-0.00400614368880752	-0.00355742538498006	-0.000791665978110761	-0.00304645687415518	-0.000794888072926302	-0.00304845426234236	-0.00586308502708623	0.0122972144016262
1.4	-0.00503802796130678	-0.00311505343075367	-0.00120813567142873	-0.00290084014533009	-0.0012069190568987	-0.0029063437123183	-0.0040431316615557	0.0119677302706552
1.5	-0.00546527568669318	-0.00216676921435873	-0.00160543228721751	-0.00270926783934118	-0.00160380490851573	-0.00271772505066992	-0.00260683047449544	0.0112660154751724
1.6	-0.00535007943151056	-0.00101904407401452	-0.00196438039001772	-0.00246216787281175	-0.00196457237762241	-0.00246738245177097	-0.00204313159540206	0.0107065500458383
1.7	-0.00496853510130484	9.36860595406118E-05	-0.00229332657238483	-0.00217076797559581	-0.00229431445610125	-0.00216452944967237	-0.00177764791779053	0.010518639154085
1.8	-0.00445313796429216	0.00137559605621762	-0.00256696042363811	-0.00182393234465746	-0.00257787924478404	-0.00182960441479366	-0.0015717157880252	0.0106641480688393
1.9	-0.00357516744597512	0.00260080370102567	-0.00279625894460305	-0.00145631531366569	-0.00280871126672362	-0.00145022202181334	-0.00119383187784473	0.0110837678299376
2	-0.00229740268563086	0.00361206154494042	-0.00297655580001345	-0.00104982493790007	-0.0029861942608289	-0.0010451554484571	-0.00051974202310495	0.0115786715932037
2.1	-0.000718552187618557	0.00409399798211015	-0.00309434274626033	-0.000620560019350256	-0.00309025061410761	-0.000622539134601335	0.00047222556834015	0.0117590960971604
2.2	0.000830287895151866	0.00404514946902074	-0.00315488762101391	-0.000179825134634568	-0.00316619546286583	-0.000182692876422057	0.00151348159135026	0.0115729149387626
2.3	0.0021145132351011	0.00347819900806957	-0.00315168403715758	0.000266926954357377	-0.00315136983761844	0.000260036360499428	0.00224066260510571	0.0111317055332829
2.4	0.00303338376776067	0.00276000184873011	-0.00307878329773324	0.000708583766121566	-0.00308132391174841	0.000704320026078478	0.00275557360065402	0.0109009693154141
2.5	0.00376913005982763	0.00200590475668281	-0.00293958692969977	0.00112325588894223	-0.00295048233115842	0.00112964042865328	0.00342605487005808	0.0108197462220566
2.6	0.00453822658060868	0.00115215701081329	-0.00276253839454945	0.00152706692312416	-0.00275898987133336	0.00151474328925604	0.00438593926439558	0.010625867379912
2.7	0.00530868056109306	2.13980413073472E-05	-0.00251341496397374	0.00189723397409076	-0.00251868964234727	0.00189725003839807	0.00528656466624311	0.0101143966686298
2.8	0.00592162029698492	-0.00141404973970277	-0.00222816417371193	0.0022217293281178	-0.00222035704607428	0.00223149206222435	0.00594162000315495	0.00961228197288233
2.9	0.00631249890589304	-0.00303915364640432	-0.00189321514809934	0.0025176132356873	-0.00188951747351505	0.00251718562394909	0.00673114922065381	0.00932429694679446
3	0.00639150060325446	-0.00481919714620414	-0.00150860871163327	0.00274850695030106	-0.00152333381498599	0.00275457942521521	0.00779377856429772	0.00900873497465777
3.1	0.00617203612896247	-0.0067633003752581	-0.00112219802550876	0.00292193891681417	-0.00111757273576979	0.00293025056110557	0.00886801572684799	0.00832774621013925
3.2	0.00534056140462848	-0.00880696921212858	-0.000707340035149998	0.00305721695762797	-0.000709074781933673	0.00305660465894492	0.00953024638915641	0.00752271139852931
3.3	0.00389210180118626	-0.01079468570168	-0.000275353304495671	0.00312777197691615	-0.000273697238370246	0.00312405514163751	0.0100632330486057	0.00670389375319472
3.4	0.00180895813339129	-0.0123168239711771	0.000165517872667349	0.00312534867392736	0.000159249993616963	0.00314181598028694	0.0105436294049188	0.00585388638503612
3.5	-0.000566372095856333	-0.0133385431027655	0.000582937323220614	0.00308838495824349	0.000588516337634632	0.00308849599468977	0.0108897884096388	0.00485440617158861
3.6	-0.00313300843646391	-0.0138205837764339	0.00100979085608832	0.00297683192725733	0.0010179720808578	0.00297657405236209	0.0111188533747134	0.00390466662123125
3.7	-0.00575296397931959	-0.0138388447231508	0.0014219766544655	0.00280382203754644	0.00141228613867962	0.00281742397550358	0.0112849037154165	0.00291545305977735
3.8	-0.00847997830817047	-0.0133359820929058	0.0018047584086819	0.00258357263053425	0.0018070965434924	0.00259275554129138	0.0112096382289458	0.00198806645973047
3.9	-0.0110748254104608	-0.0122031786801012	0.00215763248636245	0.00231512773646332	0.00215035667743838	0.00231329051355049	0.011036497059656	0.00129603008344579
4	-0.013356963786993	-0.0104880921875074	0.00245067257077132	0.00199540731419961	0.00245515721407515	0.00199298978577828	0.0110689058728423	0.000841887825580395
4.1	-0.0151496554241561	-0.00837769378091263	0.00271094385788582	0.00163368681992619	0.00270968039249525	0.00163442044226109	0.011411410449547	0.000323877129448959
4.2	-0.0165257386482915	-0.00603072252382629	0.00291707045608498	0.00122761423296291	0.00292159653051668	0.00121885873054485	0.011744341671604	-0.000443713197281992
4.3	-0.0175430418613002	-0.00357653116564857	0.00306438952939193	0.000808621140401537	0.0030708707740625	0.000800779445788878	0.0118897392555295	-0.0013747440799785
4.4	-0.0183007016652302	-0.000866089806327084	0.00314182057607659	0.000366727211652773	0.0031442113414872	0.000364457333612495	0.0118084329830204	-0.00218984174185002
4.5	-0.0185725382435863	0.0021185900302611	0.0031625720921908	-7.84565880595035E-05	0.003167960379711	-8.18541662005935E-05	0.0118304436765812	-0.00289416287532751
4.6	-0.0182588732797219	0.00515635419686309	0.00311393328176737	-0.000526647650916625	0.00311519366330573	-0.000513675856126183	0.0118720565130567	-0.00380389464077924
4.7	-0.0172306844889864	0.00807149758296878	0.00300270765256641	-0.000948057486706855	0.0030180195324812	-0.000957748435347848	0.0117032503983416	-0.00486995424497977
4.8	-0.0157633926819324	0.0106586846057326	0.00283553812215517	-0.00136179533728284	0.00284401534055296	-0.00136792126879162	0.011249630215602	-0.00582790105032414
4.9	-0.0137213089725615	0.0129390323325677	0.00260995935570352	-0.00174287815305859	0.00261413570339727	-0.00173998287805568	0.0107937617715982	-0.00647732719429769
5	-0.0112240008950642	0.0147612405112801	0.0023477450749412	-0.0020932070420025	0.00235136962047129	-0.00209055185186148	0.0107239463037436	-0.00697123975141638
5.1	-0.00815830662051228	0.0160205325835761	0.00203736924932543	-0.00239853438306942	0.00203966738674172	-0.00239718087354457	0.0108338128045322	-0.00776097729271628
5.2	-0.00499760121557136	0.0164505208828615	0.00168297013289287	-0.0026441883751204	0.00168468220001822	-0.00264931956831297	0.0107077590671917	-0.00872548876143584
5.3	-0.00200138180884011	0.0162056129010028	0.00130142971520902	-0.00285758603632146	0.00130455179232913	-0.00285552154634281	0.0103369197452259	-0.00951020778478655
5.4	0.000683253009135935	0.0155492965355263	0.000882434688534991	-0.00300609759380635	0.000899611634893115	-0.00301723240099516	0.0100153544848588	-0.0102448669472922
5.5	0.00312005783681953	0.0146402701533232	0.000473842175762457	-0.00310788512807536	0.00048393299867554	-0.00311726441063172	0.00965359285394731	-0.0110932659252668
5.6	0.00541799428390301	0.0133718856848295	3.81166566067838E-05	-0.00315037027551342	2.95991058109647E-05	-0.00315363675032203	0.00902555580931012	-0.0119695332822871
5.7	0.00738106314607398	0.0116649058638896	-0.000393341957959877	-0.00312732168840142	-0.000409979318356169	-0.00313108311316787	0.00804903239330706	-0.0126981772459847
5.8	0.00889603412385371	0.00953505667931798	-0.000843232703220779	-0.00303955883467146	-0.000846711160114451	-0.00305362845824785	0.00690522282118686	-0.0133398327989821
5.9	0.00974549098176502	0.00725559756059094	-0.00125499144594887	-0.00290475811539759	-0.00126327247297651	-0.00290471210193159	0.00554552793847278	-0.0136420492741306
6	0.00999123103787836	0.00496284356788243	-0.00166227277830355	-0.00270052039425551	-0.00165868440399379	-0.00270067730743127	0.00420075744992563	-0.0135092231379435
6.1	0.00981533355478832	0.00276733671829252	-0.00202681338519709	-0.00244415126472498	-0.00202847213452626	-0.00244011524570347	0.00331307178120966	-0.0131233224230697
6.2	0.00927400719291209	0.000547769610698946	-0.00234780151776997	-0.00212519590311373	-0.00235155112110616	-0.00213717080412111	0.00277630807995826	-0.012988899778434
6.3	0.00832796017490954	-0.00168678455324305	-0.00263115738516692	-0.00178209824405253	-0.00264035128579706	-0.00177628411678971	0.00228382822531712	-0.0131697939920475
6.4	0.00684071566251916	-0.00375140547310143	-0.00285917710507639	-0.00138095020561699	-0.00284939533275243	-0.00138593826206107	0.0018726338439002	-0.0134084293130622
6.5	0.00507292149230357	-0.00536710671203179	-0.00301326329078193	-0.00096569956486916	-0.00302115147180174	-0.000961136776454775	0.00162713511844133	-0.0138574445196287
6.6	0.00318100400746972	-0.00649637393247895	-0.00311527294888433	-0.000532150151739024	-0.00311694536783559	-0.00053613625864816	0.0012342753987256	-0.014579263034735
6.7	0.00114971214620055	-0.0072271655806754	-0.0031570205091115	-8.89234279184813E-05	-0.00316585392928185	-8.25480720047042E-05	0.000212808120021597	-0.0152107813817717
6.8	-0.00112306165487618	-0.00746129378481081	-0.00312547499737758	0.000353914734483753	-0.00313654297146674	0.000359065596735574	-0.00112706144924592	-0.0152764523144879
6.9	-0.00351754151160818	-0.0070482462489124	-0.00304078013792276	0.000784640209895984	-0.00304374678979868	0.000787054383612437	-0.00221520103455435	-0.014897675536691
7	-0.00567490639635693	-0.00587046458125495	-0.00289703708609899	0.00119937681905564	-0.00290985696770986	0.00119727717349571	-0.00296716609423802	-0.0144591542426452
7.1	-0.00740936366063473	-0.00419281345277772	-0.00271570123930385	0.0015802865067639	-0.00271199890470056	0.00158890313134172	-0.00364885679883987	-0.0141102536967601
7.2	-0.00863118843636088	-0.00228199447824102	-0.00245960553769514	0.00193995245163525	-0.00246610101710037	0.00194204995261411	-0.00433446736652085	-0.0138107366591418
7.3	-0.00957192450109707	-0.000349790081994259	-0.00216809981904652	0.00225237435136438	-0.00217925654063467	0.00225743244458439	-0.00506681961467911	-0.0135193725579558
7.4	-0.0104297477542918	0.0016274240531445	-0.00183283087398	0.00253187285703758	-0.00183968364259504	0.0025454369528129	-0.00584718815760921	-0.0132744487504408
7.5	-0.0110428875902962	0.00394334423650785	-0.001474184152658	0.00277114909656356	-0.00146721575650122	0.00277853391785522	-0.00642779009884021	-0.0128329152833589
7.6	-0.0109160017139286	0.00657716187265025	-0.00107379407822577	0.00295325643619873	-0.00107515840928113	0.00294856086279125	-0.00676008063564663	-0.0123520010198024
7.7	-0.0103415238990178	0.00897563364299597	-0.000648532875268843	0.00308070212782141	-0.00064987172271816	0.00307963633293831	-0.00726807317771595	-0.0128790094167838
7.8	-0.0089168013790911	0.0110315102173823	-0.000222304311682253	0.00313686354529148	-0.000230146546053958	0.00314332192435453	-0.00806390004485818	-0.0129479823941212
7.9	-0.00710193292500039	0.0127601576707369	0.000223016384464294	0.00315025699385589	0.000230990892853959	0.00315177231377636	-0.00871343656545276	-0.0128426936922975
8	-0.00437969310570012	0.0139839191186255	0.000672041588162531	0.00308181704276641	0.000672124121267889	0.0030867449955867	-0.00919018300049084	-0.0123803347718819
8.1	-0.00148842250632135	0.014703856412444	0.00109126982408194	0.00296420571969509	0.00111054692070484	0.00296526225920823	-0.00987657742514281	-0.0123778439001717
8.2	0.00156867986469109	0.014538651524093	0.00150455563921051	0.00277923817090864	0.00151383804893376	0.00277195608736554	-0.0106353575131182	-0.0121002866128576
8.3	0.00437223758593495	0.0136335291839063	0.00188755330847179	0.00253231154724203	0.00188598253759394	0.00254596193133708	-0.0114423107593824	-0.0116074232988293
8.4	0.00671288923098941	0.0123091710215728	0.0022263309362654	0.00224416144950306	0.00222328153410833	0.00224396053281756	-0.0121686649602721	-0.0109552796742471
8.5	0.00869618604185754	0.0106899863865177	0.00251055206268079	0.00190216931233851	0.0025096829134176	0.00190537492799414	-0.0127803176257885	-0.0102089428751717
8.6	0.0104226753071553	0.00883951510263307	0.00275061309934081	0.00153145167972643	0.00276005928166191	0.00152479103402745	-0.0132455331799584	-0.00957082670073899
8.7	0.0119298111369251	0.00652434813861987	0.00292626693201272	0.00112145193263498	0.00293183380170585	0.0011221094123662	-0.0137776865859462	-0.00909288131604783
8.8	0.012903863878913	0.00373254025918929	0.0030505976954458	0.000707561059798443	0.00305624848658632	0.000698757586423159	-0.0146064385869264	-0.00854326129369067
8.9	0.0131836903643736	0.00061861421488701	0.00311532663371893	0.000275588208904796	0.00311443558412273	0.000273361918844364	-0.0152486835574212	-0.00751178246017939
9	0.0127004305050063	-0.00252002993823999	0.00311420366269069	-0.0001608354125314	0.00311737717182904	-0.000156793164239937	-0.0153699713083881	-0.00626338878815248
9.1	0.011637222429107	-0.00549684347679894	0.0030606899298597	-0.000591918151396167	0.00306364719774954	-0.000579154211921484	-0.0150686425318175	-0.00526194597710492
9.2	0.00997294217413815	-0.00838437387478408	0.00294871954358286	-0.000997594699281732	0.00295628890689173	-0.00100048471646169	-0.01475568583155	-0.00458643128265968
9.3	0.00756684790142829	-0.010973614875069	0.00278252203537311	-0.00139138605438207	0.00278178352479499	-0.00139632599222768	-0.0144626238636316	-0.00391226247471169
9.4	0.00444473025575584	-0.0129715028489917	0.00256657385909709	-0.00177253975652279	0.00257303120327325	-0.00176501646412322	-0.0141034077475878	-0.00333886596007021
9.5	0.000871220871680017	-0.0138503053756951	0.00230055579301672	-0.00210184663851847	0.00230790981921643	-0.00210317446583795	-0.0136625342176606	-0.00278147648313605
9.6	-0.00277546597263387	-0.0139464560150282	0.00199318674199194	-0.00240493586422861	0.0019935119308669	-0.00240395932283919	-0.0135100738331065	-0.00256735767492464
9.7	-0.00633726101751777	-0.0133044467470993	0.00163424339859616	-0.00265910912100905	0.0016397775541128	-0.00266636364562975	-0.0136490455986426	-0.00228537874009593
9.8	-0.00985729378811012	-0.0120531757878668	0.00125442913042509	-0.00287441106381241	0.00126008306261817	-0.00286591492013636	-0.0139897211009494	-0.0017470594920843
9.9	-0.0133211201451107	-0.00992937049858945	0.000850352961339421	-0.003021220433078	0.00084302362678883	-0.00302001639707447	-0.0143904512688326	-0.000819081892661933
10	-0.0163796227331268	-0.00694237644028664	0.000417562624499876	-0.00311724092442906	0.000410089920923579	-0.00312970677401742	-0.0144304244035837	0.000250406814985417
10.1	-0.0186269780250953	-0.00318244130741565	-3.02681526235858E-05	-0.00315296793774908	-4.05188254451035E-05	-0.00314756770389449	-0.014148911033291	0.00114185917805604
10.2	-0.0199052658439154	0.000930071837920154	-0.000483494973684401	-0.00311665154597264	-0.000486904536946132	-0.00311386091977244	-0.013779277156494	0.0018696717112052
10.3	-0.0203413749813138	0.00514517672560808	-0.000922594982346711	-0.0030074756868061	-0.000914521563778169	-0.00301659476134694	-0.0133769487231701	0.00256709129993476
10.4	-0.0200308171822516	0.00940641062024583	-0.00132417344130914	-0.00284606286712205	-0.00132250938507901	-0.00285227360038973	-0.012679537223463	0.00314529662428898
10.5	-0.0189233711685191	0.0137729446805261	-0.00171639989386322	-0.00263840785333966	-0.00171320960186032	-0.00262543569336388	-0.0118142425668025	0.00350096850081124
10.6	-0.0167166412895742	0.0180806643996597	-0.002065180084467	-0.00235937933322572	-0.00206302875144354	-0.00236320916067997	-0.010999363076039	0.00354243637525546
10.7	-0.013519455132187	0.0219085565144357	-0.00237236090430767	-0.00205019714191484	-0.00236884107199888	-0.00204497004169219	-0.0104343895878764	0.00347900876300339
10.8	-0.00955035798218864	0.0249539809770518	-0.00263013596127239	-0.00168679153257394	-0.00262504225166017	-0.00169569156070129	-0.0101173650769	0.00349557070100575
10.9	-0.00516221363651387	0.0272143405357113	-0.00282586909165243	-0.00131417651874078	-0.00283100255883797	-0.00131341948228358	-0.00979134556278885	0.00367945574138368
11	-0.000274985300480543	0.028848867689893	-0.0029734839850258	-0.000904603136104768	-0.00297830287003216	-0.000911244594327463	-0.0093077180622654	0.00388947556137061
11.1	0.00512437984534038	0.0296314514801648	-0.00307353643897529	-0.00049091681952114	-0.00306280973842153	-0.000488115758347463	-0.00872379590406946	0.00385081905976986
11.2	0.0108891501464753	0.0291585151869003	-0.00309973120403219	-6.7348901373569E-05	-0.00310678522423331	-7.21261120564661E-05	-0.00823104431890983	0.00365138258512689
11.3	0.0166318417751789	0.027355592464858	-0.00307554810507124	0.000366659411877801	-0.00308690295357399	0.000356712614008408	-0.0078916422416768	0.00356793582390678
11.4	0.0216059400404223	0.0242574267252985	-0.00300979986856853	0.000781883660476855	-0.00300499217540815	0.00078938890282214	-0.00746139957615372	0.00348579290593186
11.5	0.0257504012633419	0.0203477815190529	-0.00287877932729566	0.00118898379511085	-0.00288161618685715	0.00119913002738265	-0.00702926352830062	0.00311331893963391
11.6	0.0293322604756558	0.0157351657846432	-0.00269870981935734	0.00157625022048611	-0.0026987208622576	0.0015791668818181	-0.00668967010944598	0.00261154894856527
11.7	0.0320995050796535	0.010356072328974	-0.00245144916858921	0.00193377525518552	-0.00245210527956859	0.00194232698942	-0.00653686369227863	0.00200255374002082
11.8	0.0337434058987455	0.00435218350744301	-0.00216762470257946	0.00227345027615292	-0.0021717475604613	0.00227509790284348	-0.00653757783995715	0.00161760395347591
11.9	0.0341369402254662	-0.00175873102655453	-0.00182544990777054	0.00256057883817699	-0.00183851410747956	0.00256474695693347	-0.00639736706134886	0.0018327285692854
12	0.0331372821024092	-0.00792141085739631	-0.00145395113665567	0.00279566932357898	-0.00145336719010745	0.00279708940804637	-0.00606286776287524	0.00167632449013001
