# GHZ S RI R 50
0.2	0.00565722186151279	-0.000128929482270378	0.00304835636469662	-0.000899323195306759	0.00305872919725662	-0.000892517764662673	-0.014328778377406	0.00349688162122162
0.3	0.0059307001916545	-0.00118515775090954	0.00290344420656524	-0.00132373076341411	0.00289620712801433	-0.00131078505445442	-0.0135730393376905	0.00461464504167258
0.4	0.00604634301726101	-0.00240578870980489	0.00267043787593111	-0.00169618412743943	0.0026756950294697	-0.00170475055879102	-0.0126464421565127	0.00560119446051776
0.5	0.00571688110897186	-0.00381663745521453	0.0024096444633441	-0.00205287414634614	0.00242115861067261	-0.0020651277601558	-0.0116853832843325	0.0061617441834617
0.6	0.00484417116212476	-0.00514153269060756	0.00209502842719299	-0.00236631364296845	0.00209422915853201	-0.00237345578309985	-0.0110247850796611	0.00637895848691414
0.7	0.0034192686754574	-0.00608297827902566	0.00174614471828164	-0.00264195372334027	0.00174419107771802	-0.00264214823639568	-0.0108384623648185	0.00662761804243711
0.8	0.00180726031657636	-0.00648157841153284	0.00135990242511566	-0.00285633814491228	0.00134731935668176	-0.00286085166761276	-0.0108587193508734	0.00726288884218481
0.9	0.000169164082064939	-0.00629687308100156	0.000943318818028246	-0.00301642184827159	0.000944330784346931	-0.00302709338224535	-0.0107539173240124	0.00824099702156721
1	-0.00122715164297972	-0.00574806545578583	0.000520397549186073	-0.00311654480586285	0.000510568258873358	-0.00311726771081539	-0.0102604405137767	0.0093804536566691
1.1	-0.00244049467636638	-0.00506721536792505	6.81293384338864E-05	-0.00314288123554991	6.46202698758996E-05	-0.00316045914743965	-0.00948871787990171	0.0104400025503196
1.2	-0.00356568827724684	-0.00452926926530847	-0.000369802550272117	-0.00313110161673394	-0.000370610506977823	-0.00312903395620086	-0.00828487116295759	0.0112183869853483
1.3	-0.00487059644802317	-0.00415034654935399	-0.000792449972157733	-0.00304843770933839	-0.000795674396688161	-0.0030504361724681	-0.00667919894406476	0.0116544368935859
1.4	-0.00608594105778555	-0.00359919552273724	-0.00120966776887775	-0.00290245726016355	-0.00120845173650777	-0.00290796478022629	-0.00504340025940185	0.0114152529023874
1.5	-0.00667861219920337	-0.00254064368122261	-0.00160753857879439	-0.00271021965252632	-0.00160591378524835	-0.00271868263211156	-0.0037762037820358	0.0108086119847095
1.6	-0.00670533308547153	-0.00109164520874152	-0.00196674161852732	-0.00246224634813113	-0.0019669366743619	-0.00246746335709886	-0.00337580089670882	0.0105278668395809
1.7	-0.00620643395683217	0.000403406613187595	-0.00229556324988331	-0.00216991413850409	-0.00229654719549681	-0.00216367288805452	-0.00302420907667364	0.0107201529026466
1.8	-0.00535672395214885	0.00186152214901867	-0.00256868367235313	-0.00182227023568895	-0.00257960826466522	-0.0018279349430083	-0.00250548919704091	0.0110608085893377
1.9	-0.00417708411769978	0.00297524195200777	-0.00279719099155758	-0.00145411310999455	-0.00280963795401431	-0.00144801077157608	-0.00182295891181739	0.0113919605333839
2	-0.00283653281731554	0.00375106066737417	-0.00297652871650328	-0.00104744414734709	-0.00298616137273179	-0.00104276903830076	-0.00106692764839393	0.0116566375208181
2.1	-0.00140156800186416	0.0041253819933664	-0.0030933631985716	-0.000618412772407828	-0.00308927405865363	-0.00062039350066243	-0.000207476463857893	0.0117130616929351
2.2	2.23219067833235E-05	0.00420113268529156	-0.00315313263820379	-0.000178281156855666	-0.00316443520399858	-0.00018114207012859	0.000695924145968701	0.0116320684862281
2.3	0.00140719839484194	0.00384814414712414	-0.00314947253741044	0.000267599566809682	-0.00314916041776081	0.000260713564793884	0.00149585451072223	0.0114088306681128
2.4	0.0026306266942571	0.00317942702898842	-0.00307652454171604	0.000708275481043955	-0.00307906360820833	0.000704014970863663	0.00229926310686189	0.0112575826317137
2.5	0.00361986887035346	0.00219268047327797	-0.00293771564442378	0.00112205306789073	-0.00294860443168678	0.00112843161251981	0.00324328868770472	0.0109782420714278
2.6	0.00438298084392942	0.00101816392367224	-0.00276138875697338	0.00152522635896084	-0.00275783824823327	0.00151291131538605	0.00423574150278597	0.0104691058774684
2.7	0.00497875311091492	-0.000278356891992113	-0.00251318539724043	0.00189515912717372	-0.0025184576826091	0.00189517264201864	0.00498620876000128	0.00977230676579256
2.8	0.00546442996833453	-0.0017431850740343	-0.00222883632130735	0.00221985358791107	-0.00222103689247911	0.00222961816268396	0.00552121029359287	0.00922427758073544
2.9	0.00577586821717507	-0.00342794132933774	-0.00189459220651892	0.00251632222297822	-0.00189089451685683	0.00251589684169106	0.00624694154617843	0.00886785456076649
3	0.00568385697976252	-0.00529207550748541	-0.00151031175893136	0.00274806322696171	-0.00152504218902189	0.0027541285212095	0.00716014502469996	0.00844419152947138
3.1	0.00521102514824703	-0.0071775460818987	-0.00112378239950434	0.00292238811067459	-0.00111915915058237	0.0029307043245003	0.00797988785929741	0.00778429759164931
3.2	0.00421595183272234	-0.00899364021719812	-0.000708371274768812	0.00305837580312279	-0.00071010662913324	0.0030577628277626	0.00845435552723557	0.00716725282728609
3.3	0.00280954056410331	-0.010736900521011	-0.00027553746739509	0.00312928776525138	-0.000273880536546774	0.00312556915009301	0.00899449906228441	0.00658626720443433
3.4	0.000870907950487166	-0.012167085148809	0.00016628421142082	0.0031267444299036	0.000160017097970892	0.00314322066786843	0.00960400947066572	0.00584066095092782
3.5	-0.00144661870528407	-0.0132188887450236	0.000584527543506286	0.00308919581689525	0.000590108545764152	0.00308930438504862	0.010013162699395	0.00480934052327123
3.6	-0.00406990148342167	-0.0136830566503594	0.00101183641460028	0.00297665819370906	0.00102001875789578	0.00297639509147964	0.0101867840608854	0.00385721829529153
3.7	-0.00670620490007643	-0.013541206175623	0.00142396290221282	0.00280248031204631	0.00141428359578596	0.00281608829073806	0.0103058673100124	0.00300588947960345
3.8	-0.00926739875972319	-0.0128752515775733	0.00180612609947988	0.00258113691700697	0.0018084706653036	0.00259031442502805	0.0103525106728064	0.00225331646093141
3.9	-0.0116049833460509	-0.011766121741803	0.00215788909426512	0.00231191456680904	0.00215061690653959	0.0023100840750813	0.010419385593466	0.00157847935955963
4	-0.0137539231785815	-0.0102435400035919	0.00244950446170555	0.0019919536339198	0.00245398324059014	0.00198953571267325	0.0106036757056536	0.000962067596876169
4.1	-0.0155958139142329	-0.00829180726257968	0.00270826934148508	0.00163062228053607	0.00270700771032399	0.00163135550201281	0.0109176753788264	0.000283224330271151
4.2	-0.017044931206889	-0.00595726734082993	0.00291310303080846	0.0012255825760349	0.00291762182554775	0.00121683889301692	0.0111710324859286	-0.000505199479815155
4.3	-0.0180204052520986	-0.0034745556773318	0.00305960147695479	0.000808105185903169	0.00306607477314104	0.00080027674995988	0.0113408634862322	-0.00138961936373725
4.4	-0.0186731519669119	-0.000853016675692228	0.00313686565282357	0.000368003724426287	0.00313925413241298	0.000365738664352807	0.0113753194664375	-0.00225205895572782
4.5	-0.0189498204677208	0.00193059536318562	0.00315815628226065	-7.53976710777149E-05	0.00316354008827543	-7.8785404767986E-05	0.0114411734920619	-0.0031334740276733
4.6	-0.018811491853138	0.004821321798639	0.00311074554228194	-0.000522104978943507	0.00311198815325389	-0.000509147630199479	0.0113633816614673	-0.00420770252587383
4.7	-0.0179899114778274	0.00776959732973432	0.00300122660265719	-0.000942623335298794	0.00301653823469563	-0.000952281871580576	0.0110089509692024	-0.00528306014264728
4.8	-0.0165989361483065	0.010482763432575	0.0028360042621841	-0.00135617752272491	0.00284448631379343	-0.00136228534489951	0.0104736985961427	-0.00614252818108424
4.9	-0.0145337501962888	0.0128136180608368	0.00261227153442349	-0.00173785810844911	0.00261644169512218	-0.00173495636720378	0.0100467326565207	-0.00674795849681755
5	-0.0120816064033556	0.014608931326952	0.00235149402135622	-0.00208942131547961	0.00235511439689221	-0.00208675975879774	0.00995616931320139	-0.00729407960011586
5.1	-0.00914430107237364	0.0159393426140275	0.00204189410505116	-0.00239640294501935	0.0020441911186592	-0.00239504534823652	0.00993732458295412	-0.00806956449139679
5.2	-0.00600200372173841	0.0165779937159648	0.00168749347441956	-0.00264379080110407	0.00168921328156422	-0.00264892322036191	0.00974310352518597	-0.00886556892405883
5.3	-0.00282373610828182	0.0164786133318976	0.00130527966968135	-0.00285866799781088	0.00130840230364692	-0.00285659877349013	0.0094989010267028	-0.0094873904748686
5.4	6.56242771494933E-05	0.0157468482616152	0.000885095649939452	-0.00300812071101467	0.000902294397762416	-0.00301925420698366	0.00937606856979136	-0.0102528242898376
5.5	0.00251795940562794	0.0146532342481931	0.000475166254050421	-0.00311015263131997	0.000485267797997935	-0.00311953609253528	0.00906346200500519	-0.0112749290816799
5.6	0.00465991838098492	0.0133259242022586	3.82527194069668E-05	-0.00315222083471476	2.97302793716815E-05	-0.00315548953705504	0.00829583919317962	-0.0122470962996781
5.7	0.0065281354605736	0.0117710949773623	-0.000393955363063527	-0.0031282674253483	-0.000410598666038025	-0.00313202747177518	0.00719004832861765	-0.0128603404876444
5.8	0.00814230070513449	0.00982922234491094	-0.000843965627119241	-0.00303935669160618	-0.000847447476593895	-0.00305342548192521	0.00608100355525959	-0.0133009094494912
5.9	0.009237995996955	0.00757115556472827	-0.00125518641202123	-0.00290350908042534	-0.00126346463111281	-0.00290346131770375	0.00493722326306917	-0.0135101532298848
6	0.00966112095930866	0.0050905899019375	-0.00166136988385642	-0.00269862475277573	-0.0016577838831721	-0.00269878181695464	0.00381057819042007	-0.0134943785257866
6.1	0.00946463581061655	0.00266531108314953	-0.00202450626846699	-0.00244224742189283	-0.00202616419564154	-0.00243821543046123	0.00297650129275206	-0.0133224401843351
6.2	0.00880496076595815	0.000345083321574393	-0.0023441211004146	-0.00212403376716797	-0.00234786046808055	-0.00213599730544784	0.00236859928977905	-0.013316875066184
6.3	0.0077990595749107	-0.00191725271526418	-0.00262644115267854	-0.00178233603340524	-0.00263562934099407	-0.00177653702753945	0.001834062871954	-0.0135443940823909
6.4	0.00625891942496738	-0.00407895766790009	-0.00285409981000828	-0.00138309733052	-0.00284432273936251	-0.00138806691259356	0.00141026078313557	-0.0138899357167822
6.5	0.00428542025513742	-0.00576306442918399	-0.00300866295827672	-0.000969884236360516	-0.00301655117284553	-0.000965339357805874	0.00100740354368483	-0.0144700453146965
6.6	0.00215355017455834	-0.00674014052843749	-0.00311201413057383	-0.000538174183135658	-0.003113677204838	-0.000542160950406081	0.000356479161313841	-0.0151410897571347
6.7	9.33571357286836E-05	-0.00717931222400867	-0.00315584706247489	-9.62043333974922E-05	-0.00316469253346633	-8.98513798206885E-05	-0.000783158922337013	-0.0155327711690401
6.8	-0.00198533160434807	-0.00724564337205636	-0.0031268322921042	0.00034628224015738	-0.00313791465931154	0.000351406681202554	-0.00200714533641813	-0.0153954867021365
6.9	-0.00419471554957836	-0.00690655466072058	-0.00304470432979478	0.000777646892811617	-0.00304767887981911	0.000780055321235019	-0.00291196355652227	-0.0150251600480728
7	-0.0063726112513694	-0.00589054342227852	-0.00290314777504435	0.00119399782912381	-0.00291597743499821	0.00119186590361142	-0.00362735031084983	-0.0147407028483198
7.1	-0.00829767487364592	-0.00421967380330743	-0.00272323931156525	0.00157721239232999	-0.00271954880524468	0.00158585024234654	-0.00447155455131835	-0.0144674782227931
7.2	-0.0096402784989479	-0.00207463310490713	-0.00246754121907186	0.0019396101477289	-0.0024740526492159	0.00194170093131438	-0.00533742122181104	-0.0140124661487302
7.3	-0.010432186439016	0.000158141788164285	-0.00217535606926834	0.00225462649591917	-0.00218654247059442	0.00225968227346402	-0.00603816597038179	-0.013422991324646
7.4	-0.0109310110215842	0.00224141893280272	-0.00183848130959837	0.00253619486018215	-0.00184535788253895	0.00254978404893382	-0.00655653938884514	-0.0129773122632961
7.5	-0.0112260349570376	0.00438392029410991	-0.00147766008992692	0.00277666464212994	-0.00147067838470745	0.00278406582234246	-0.00681892074420932	-0.0125870815845084
7.6	-0.0109999894664636	0.00671761070445256	-0.00107492256300652	0.00295893240998538	-0.00107629069088783	0.00295422867116097	-0.00696383083286809	-0.0123535884367123
7.7	-0.0104168185134209	0.00894769001039852	-0.000647636791812392	0.00308557959094916	-0.000648978227514295	0.00308451304296132	-0.00742270961906851	-0.0129959388645988
7.8	-0.0089878022215752	0.0108039591045632	-0.000220081343927024	0.0031402682414956	-0.000227926607495368	0.00314673940251604	-0.00814997910348021	-0.0132327016795449
7.9	-0.00730454448986804	0.0122516024754664	0.00022572801123752	0.00315190287358023	0.000233708390776443	0.0031534125366634	-0.0088332037905025	-0.0133883370524568
8	-0.00492099016878654	0.013321739093484	0.000674345328571967	0.00308181502177604	0.000674431391694378	0.00308674367944817	-0.00953285713968171	-0.0131947371453366
8.1	-0.00239482952038931	0.0141540573063762	0.00109248311569919	0.00296306365281725	0.00111175674255628	0.00296411061747863	-0.0105572088010452	-0.0131972320728654
8.2	0.000507543705953704	0.0142842241251056	0.00150428300828068	0.0027776976455008	0.00151355992024095	0.00277041753272014	-0.0115419195580437	-0.0127273330941243
8.3	0.00338501093155089	0.0136023804269539	0.00188579292956894	0.00253121170790413	0.00188421986119108	0.00254485335885939	-0.0123535112375387	-0.0120221422946311
8.4	0.00583986343243888	0.0123064047502734	0.00222346145375037	0.00224424903124637	0.00222041407449755	0.00224404621445462	-0.0129775934170954	-0.0113117937918479
8.5	0.00779352040889805	0.010627941151451	0.00250728220456125	0.00190395817786712	0.00250641001557955	0.00190716130218363	-0.0135765967028072	-0.0106431550202935
8.6	0.00936562645562669	0.00884126914337893	0.00274782632213014	0.00153509418734426	0.00275728011662296	0.00152844856078973	-0.0141874639260806	-0.01003585918331
8.7	0.0107952195540706	0.00678402886386385	0.00292489140237	0.00112664587989935	0.00293045817135056	0.00112731297002842	-0.0148845064997094	-0.00939340836309454
8.8	0.0119478594360514	0.00426323389742326	0.00305132354481723	0.000713624852146375	0.00305699422872317	0.000704825902435808	-0.015680636006037	-0.00857748862676001
8.9	0.0125475582826926	0.00119409380284456	0.00311852315779792	0.000281528440059743	0.00311763506346179	0.000279297905222888	-0.0160985410829225	-0.00740750386569597
9	0.0122645879662822	-0.00211662000101321	0.0031197411685032	-0.000156135373667667	0.00312291360421962	-0.000152081203564429	-0.0160190756705082	-0.00623333961069717
9.1	0.0112188347934007	-0.00526405798966527	0.00306795955303061	-0.000589431442898188	0.00307090749573309	-0.000576636587794242	-0.0156752561394868	-0.00535431559584329
9.2	0.00955610706556548	-0.00820972805048739	0.00295667463312145	-0.000997929975555475	0.00296426465314782	-0.00100082166162957	-0.0153566100124772	-0.00470332579588701
9.3	0.00722053593639	-0.0108923371828271	0.00278993877909815	-0.00139469120560726	0.00278919891600339	-0.00139964410978602	-0.0149720382825479	-0.00404985544888337
9.4	0.00409374062360536	-0.013103138665809	0.00257225196485651	-0.00177840879516359	0.00257872975135711	-0.00177086950682057	-0.0145146046312129	-0.00362664315116648
9.5	0.00034047873579507	-0.0141558571785382	0.00230357788350031	-0.00210933481825582	0.00231094760790073	-0.00211067398443392	-0.014134992344163	-0.0032689306586533
9.6	-0.00357722759456715	-0.0142134962491436	0.00199313854705598	-0.00241284924480027	0.00199346595759922	-0.00241187133760398	-0.0141923851062196	-0.00312627204833875
9.7	-0.00726329761222853	-0.0133460494832456	0.00163124415812005	-0.00266614707661267	0.0016367716567124	-0.00267342295261983	-0.0144977815201623	-0.00271976770237271
9.8	-0.0106840628355905	-0.0118942796313749	0.00124911894326255	-0.00287953192019796	0.00125479624131047	-0.0028710412825895	-0.0148224936151329	-0.00199746676852186
9.9	-0.0139549076739367	-0.00975601124086645	0.000843758128724529	-0.0030237185838708	0.000836430046203569	-0.00302249790606744	-0.0150679662176373	-0.000997291022364685
10	-0.0169519150897006	-0.00687112257863846	0.000410865838922462	-0.00311687689726594	0.00040336998837498	-0.00312932213699308	-0.01501556893032	-1.93710843595495E-06
10.1	-0.0192444465671739	-0.00314487493002167	-3.59115521228851E-05	-0.00315002754984425	-4.61431292108378E-05	-0.00314461382155839	-0.0147591961802507	0.000825721760367023
10.2	-0.0205046495052352	0.00103703338873672	-0.000487157296569572	-0.00311187658951555	-0.000490558516002815	-0.00310908493794012	-0.0144166794341668	0.00160088762640151
10.3	-0.0207890028261142	0.00525634313538467	-0.000923773331930454	-0.00300192152348121	-0.00091572064146778	-0.00301103327900557	-0.0139149723017534	0.00236249799301398
10.4	-0.0203551806610838	0.00933638216009114	-0.0013228942381414	-0.00284085125095268	-0.0013212350280309	-0.00284705211809111	-0.0130566259543472	0.00286104853995543
10.5	-0.0193158308288777	0.0134963598064049	-0.00171307415104099	-0.00263453114420197	-0.00170989176774113	-0.00262157916814332	-0.0121605387120236	0.00303168942602495
10.6	-0.0173716556849087	0.0176437881369448	-0.00206072482915922	-0.00235755222022979	-0.00205857382797676	-0.00236137530974734	-0.0114701532191421	0.00286205088763485
10.7	-0.0143387593274323	0.0216015386832977	-0.00236779834659064	-0.00205068095639755	-0.00236428761804783	-0.0020454553236373	-0.0110798082390488	0.00282339046808136
10.8	-0.0104037172469992	0.0247416897286903	-0.00262658428821543	-0.00168933111397173	-0.00262148166689348	-0.00169821992063067	-0.0108160590860563	0.00289921573701543
10.9	-0.00604931107930092	0.0269978976285353	-0.00282416859105955	-0.00131801534218124	-0.00282930320456742	-0.00131726520162959	-0.010493049801548	0.00304952038838053
11	-0.0013143954387403	0.0286277834411336	-0.00297406398183219	-0.000908655083820632	-0.00297887763274901	-0.000915305996368947	-0.01011211387403	0.00316842761783806
11.1	0.00388140049063122	0.0295831549269464	-0.00307623298458007	-0.000494015444121749	-0.00306549779369118	-0.000491202467247637	-0.00975627625442972	0.00314345125455517
11.2	0.00961006403669464	0.0294486137645169	-0.0031038099565341	-6.85037238321988E-05	-0.00311087166894113	-7.32896814445893E-05	-0.0094535453502833	0.00315443592712541
11.3	0.0155835726960674	0.0279209287660523	-0.00307989307401325	0.000367969210927282	-0.00309126683258254	0.000358010942084958	-0.00907684238574226	0.00337948492583261
11.4	0.0208598252323844	0.0248786443400231	-0.00301317333303374	0.000785601543813249	-0.00300835250901916	0.000793112670609838	-0.00847189964372906	0.00346354577249262
11.5	0.0251782847072832	0.0208893400969284	-0.00288002968202359	0.00119446096014576	-0.00288285456229834	0.00120462194433255	-0.00791558582392468	0.003113800834165
11.6	0.028851116754545	0.0162284751410019	-0.00269713466391358	0.00158236019313007	-0.0026971400477815	0.00158527848239336	-0.0075008687006528	0.00264573228958885
11.7	0.0317735655378452	0.010841539027774	-0.00244692040247398	0.00193913988441526	-0.00244755724649328	0.00194769245445938	-0.00722603937023836	0.00213294251474591
11.8	0.0336452877153887	0.0047021649800827	-0.00216058160376836	0.00227680682652989	-0.00216469738250075	0.00227846290868544	-0.00697903068044372	0.00177955775658595
11.9	0.0341789579667787	-0.00176631757226455	-0.00181691210228266	0.00256091505775677	-0.00182994737610747	0.00256510666270222	-0.00653855095611768	0.00179801791814599
12	0.0330192023938665	-0.00819579928433483	-0.00144525584742439	0.00279250231495586	-0.00144467034703176	0.0027939181663667	-0.00615918861525288	0.00139669254575234
