# GHZ S RI R 50
0.2	0.00571298512904119	0.00177636962296875	0.00304830348619526	-0.000897682604445492	0.00305867130082947	-0.000890873189694821	-0.0142200186148077	0.00544423550181202
0.3	0.00620092268430401	-0.000441033594001098	0.00290419712274742	-0.00132091308821087	0.00289694947303228	-0.00130797586506169	-0.0132535813671328	0.00536499385211419
0.4	0.00593836749672763	-0.00234621365360819	0.00267281206255301	-0.0016925265409612	0.00267808109474132	-0.00170108584293403	-0.0127716365681071	0.00564376315895972
0.5	0.00507785131022926	-0.00388958710862111	0.00241432456093983	-0.00204917748117978	0.00242586558771332	-0.00206141433071371	-0.0124407363479747	0.00611752775748658
0.6	0.00387920733018131	-0.00494154090579911	0.00210220945848505	-0.00236379578179767	0.00210142538473537	-0.00237094620080738	-0.0121655992924111	0.00673202799273219
0.7	0.00248891621410659	-0.00549978890719312	0.00175542576759622	-0.00264190979678844	0.00175346946976008	-0.00264210941339024	-0.0119069027062233	0.00750787345070031
0.8	0.00119276857785642	-0.0056862663427948	0.00137020562176625	-0.00285982959169402	0.0013576035292021	-0.00286438496295623	-0.0114900838960404	0.00842619120200882
0.9	-7.98329749469818E-05	-0.00558597984396997	0.000953101981480726	-0.00302401742897959	0.000954141076691495	-0.00303472103655217	-0.0109079785040753	0.00926574847281832
1	-0.00129125381365077	-0.0053401708170861	0.000527938353022331	-0.00312805907234558	0.00051807113713457	-0.00312880209833514	-0.0102384458412582	0.00997291107114722
1.1	-0.00258945786447286	-0.00496926618846347	7.16928404295771E-05	-0.00315732983801909	6.81857313075981E-05	-0.00317499258109006	-0.0097065557330003	0.01065455143864
1.2	-0.00395883598287089	-0.00456872028025124	-0.000371254104260672	-0.00314692158476619	-0.000372066402164932	-0.00314484361548695	-0.00892083320580823	0.0114046435687103
1.3	-0.00544423099192779	-0.00414159274032385	-0.000799241692374158	-0.0030635513884303	-0.000802484598465146	-0.00306555738015807	-0.0075328208221767	0.0120735870273045
1.4	-0.00669038143143081	-0.00352753308544718	-0.00122130977456163	-0.00291478043592763	-0.00122009812966522	-0.0029203180458697	-0.00589923496563503	0.0120326109704319
1.5	-0.00727612436055065	-0.00240555819088031	-0.00162269996332319	-0.00271810662613341	-0.00162109189975612	-0.00272661324628058	-0.00458245636396911	0.0116329467390846
1.6	-0.00727175185386893	-0.000846565938001945	-0.00198342203156811	-0.00246472249343092	-0.00198363686954437	-0.0024699592286149	-0.00402214761560155	0.011605004374965
1.7	-0.00667618993781704	0.000741150664887092	-0.00231162895408242	-0.00216689894048998	-0.00231258975644488	-0.00216063459418469	-0.00332794803591764	0.011892326903043
1.8	-0.00568565891425635	0.00222481084947862	-0.00258207044759483	-0.00181462888714242	-0.00259304271818866	-0.00182025679382255	-0.00252136050954308	0.0120821183565448
1.9	-0.00440153726033153	0.00328196824452192	-0.00280659770763252	-0.00144343483028224	-0.00281903143877422	-0.0014372713321653	-0.00177504618456061	0.0121651188336751
2	-0.0030196021714117	0.00396831380465726	-0.00298135853057695	-0.00103565250902685	-0.00299097429063037	-0.00103093759959507	-0.00114170750744128	0.0122924456069933
2.1	-0.00160427398898451	0.00427196373276825	-0.00309396875116194	-0.000607475954109501	-0.00308988842912574	-0.00060946976471818	-0.000406163860307264	0.0124041700554973
2.2	-0.00022467988702982	0.00433264273542688	-0.00315067586450192	-0.000169716758013721	-0.00316197554194944	-0.000172544905978669	0.000534178199307009	0.0124618722531228
2.3	0.00114217248007638	0.00402001100253819	-0.00314563793543394	0.000273001692808608	-0.003145338581699	0.000266122454715982	0.00151800075541664	0.0122638591410719
2.4	0.00241200790624339	0.00341547088286413	-0.0030731334815803	0.000710631936917979	-0.00307567444125992	0.000706377631768641	0.00246898329569506	0.0119387015038174
2.5	0.00350025232595711	0.00243712900052408	-0.00293628860801746	0.00112235443022834	-0.0029471715477992	0.00112873322683162	0.00335011831962749	0.0114165684884843
2.6	0.00435147255358827	0.00120324269072158	-0.0027627314214081	0.00152508932728431	-0.00275917666193504	0.0015127708198221	0.00412418714429475	0.0108089899097086
2.7	0.00497997036220021	-0.000177505112570067	-0.00251719515586473	0.00189644707779543	-0.00252247410856156	0.00189645828836845	0.00470223744871312	0.0101845729155143
2.8	0.00547150242551578	-0.00170379726995443	-0.00223448303738018	0.0022241940481731	-0.0022266689173837	0.00223398280457112	0.00517771947686123	0.00972402820575892
2.9	0.00580424859171059	-0.00345373294681191	-0.00190004553565866	0.00252474621534528	-0.00189633619096733	0.00252431864823326	0.00584208112888426	0.00941266413467399
3	0.00572868260427704	-0.00542482808854502	-0.00151330247020362	0.0027605139937626	-0.00152808439464923	0.00276661903805128	0.0066526784635902	0.00908903324428251
3.1	0.00520018049273933	-0.00742983553730827	-0.00112229955333758	0.00293779970049161	-0.00111763748159375	0.00294614249603978	0.00742812348275867	0.00864382546284871
3.2	0.00407851457748035	-0.00931963029327174	-0.000700836525555776	0.00307476799037507	-0.000702581923114856	0.00307415833107793	0.00802209065672624	0.00823351691658599
3.3	0.00253580506424765	-0.0110416922778738	-0.000261448473536607	0.00314394497753011	-0.000259802628691018	0.00314020246095503	0.00876187840939967	0.00770914642065143
3.4	0.00053334910647996	-0.0123933750805843	0.00018613427261358	0.00313680523372538	0.000179946433203081	0.00315337848915074	0.00949095726577302	0.0068904222344593
3.5	-0.0017878228384647	-0.0134097363176382	0.000608302063534476	0.00309255316315943	0.000613897552920923	0.00309262163899419	0.00989747623583456	0.00579268020941387
3.6	-0.00442447949618069	-0.0138772801998203	0.00103666167149882	0.00297175154338458	0.00104485061900129	0.00297142287922851	0.010056207737288	0.00490208811032504
3.7	-0.00714876130132357	-0.0137193321082241	0.001446547781682	0.00278920228182819	0.00143698662300131	0.00280288382279392	0.0102774201456618	0.00412179550521785
3.8	-0.00978772075406433	-0.0129249600417778	0.00182345697426316	0.00256077238351829	0.00182587189707115	0.00256991097246468	0.010487459243257	0.00331234047920483
3.9	-0.0120705758952316	-0.011631215603099	0.00216765307291286	0.00228683990219672	0.00216039368183295	0.00228507192064826	0.0106070330243521	0.00245603366488734
4	-0.0140362481162391	-0.0100167690208251	0.00245056949851845	0.00196547780709795	0.00245500950729339	0.00196304195312674	0.0106729310688877	0.00170184833647883
4.1	-0.0157124892787003	-0.00812388712952239	0.00270079847704593	0.00160598975547044	0.00269954847165812	0.00160672542947982	0.0108348395220324	0.00104412912620406
4.2	-0.0171151995908885	-0.00589177383470969	0.00289859979137453	0.00120579175362479	0.00290305358957119	0.00119708824759229	0.0110502825222369	0.000351743848633771
4.3	-0.0180982176589104	-0.00343468855617509	0.00304067675221489	0.000795105352058383	0.00304708669133072	0.000787314567555931	0.0112674022038398	-0.00052781257505258
4.4	-0.01869365818787	-0.000777537490646264	0.00311665010039669	0.000362588093809187	0.00311902075100993	0.000360335598971062	0.0112796567328668	-0.00147574377112478
4.5	-0.0188265702483438	0.00197465972870897	0.00313963869505513	-7.38813048333467E-05	0.0031449920415914	-7.72473170172824E-05	0.0111922157631043	-0.00239865825618052
4.6	-0.018576837511447	0.00470466939585937	0.00309634627679939	-0.00051544553010883	0.00309756567112559	-0.000502549395860374	0.0109556385188652	-0.00334362361649931
4.7	-0.0177985423370235	0.00745869809229031	0.00299221291534755	-0.000933486640555475	0.00300748783549476	-0.000943081085958643	0.0105737607464088	-0.0042251176730118
4.8	-0.0165277251659082	0.0101034741034069	0.00283233271270959	-0.00134731446930381	0.00284080796810265	-0.00135339112609373	0.010154072017413	-0.00497273370826431
4.9	-0.014525568918693	0.0124619810842572	0.00261261306482768	-0.0017316860151357	0.0026167741320588	-0.00172878009113683	0.00978316023416917	-0.00559191341511174
5	-0.012041775744273	0.0142315543961549	0.00235356393144566	-0.00208736718328566	0.00235718205500661	-0.00208470212220196	0.00964772570368904	-0.00612486739704087
5.1	-0.00913859225120998	0.0154349881488725	0.00204300027495774	-0.00239861849811827	0.00204529929892394	-0.00239726029885792	0.00962682250951516	-0.00677778072124265
5.2	-0.00617187455588376	0.0160162307230858	0.00168521834597774	-0.00264903350458682	0.00168693215113306	-0.00265417375056853	0.00958130530885973	-0.00748336559227067
5.3	-0.00314120984937204	0.0160579986250821	0.00129804811320774	-0.0028646422953914	0.00130117912803986	-0.00286258047267599	0.00950291485095018	-0.00819105616397387
5.4	-0.000186170772861271	0.0155243907818927	0.00087268791308765	-0.00301188115363783	0.000889841205119762	-0.00302308613334761	0.00936605015624149	-0.00913003826248219
5.5	0.00247864139776376	0.0144482489138225	0.000458735140824521	-0.00310904221548269	0.000468777250619264	-0.00311846661328032	0.00887879871927072	-0.0101914305889657
5.6	0.00472515153041274	0.0129180756424375	2.02459745375604E-05	-0.0031441461872135	1.17273850591429E-05	-0.00314735787969649	0.00799017702713189	-0.0109995413951018
5.7	0.00645272963688092	0.0111491614499962	-0.000410288661465187	-0.00311253759289895	-0.000426882025439716	-0.00311618554576972	0.00699592698375267	-0.0114225624651624
5.8	0.00777276060888083	0.00922982064274835	-0.000855090378365982	-0.00301664400026631	-0.000858626269010431	-0.00303060991820881	0.00610092568335795	-0.0118365893757808
5.9	0.00871346590530834	0.00724329465653305	-0.00125843004665863	-0.0028761045102101	-0.00126664559425506	-0.00287602085749172	0.00509350987703774	-0.01222137121473
6	0.00926286721679602	0.00505031469505496	-0.00165480213700558	-0.00266989003450395	-0.00165124819103435	-0.00267005643293415	0.00389374502180821	-0.0124134862800818
6.1	0.00933841027169978	0.00270517551720897	-0.0020080232192983	-0.00241611422745517	-0.00200966006479568	-0.00241211909408611	0.00287037582650694	-0.0122899441572789
6.2	0.008854786885529	0.000301823885904607	-0.00231921588956404	-0.00210436589840619	-0.00232290970449727	-0.00211621223104641	0.00215617488634848	-0.012189793673617
6.3	0.00794373544541957	-0.00198987029968182	-0.00259590667209124	-0.00177183727575392	-0.00260502011004015	-0.0017661196862973	0.0016260738849266	-0.0123509079064978
6.4	0.00658720624193564	-0.00415630486685861	-0.00282188062774749	-0.00138347563109306	-0.00281216987992266	-0.00138835567690751	0.00110926624551144	-0.012682027194561
6.5	0.00483576480693211	-0.00607733345536506	-0.00297900238746191	-0.000980723812527757	-0.00298685637323266	-0.000976263192856455	0.000555710415180905	-0.0130960540671045
6.6	0.00264664332539918	-0.00747104486352262	-0.00308852136867834	-0.000557646861825128	-0.0030901447248502	-0.000561620807676617	-5.14851654755841E-05	-0.0134702181224149
6.7	0.000223797572446394	-0.00813863173831037	-0.00314109611278962	-0.00012113999770232	-0.00314995346077457	-0.000114886268546213	-0.000908806609631805	-0.013710746028682
6.8	-0.00218856358331298	-0.00808012129667415	-0.00312186134028782	0.000319891764641691	-0.00313295790446992	0.000324912951559676	-0.0018699250595584	-0.0137038002280339
6.9	-0.00442968675648607	-0.00746523252551832	-0.00304871120846421	0.0007536332951466	-0.00305170240029568	0.000756017182360211	-0.002789652431263	-0.0135361416932024
7	-0.00640732631657681	-0.00641894751339578	-0.00291386620918561	0.00117546273897974	-0.00292669315842863	0.00117324214657235	-0.00367506500791176	-0.0133170711718561
7.1	-0.00826186570369312	-0.00501454616992189	-0.00273733559521477	0.0015657578401076	-0.00273368411426222	0.00157443332307158	-0.00462386554567197	-0.0128668270762203
7.2	-0.00990927213300158	-0.00315031865930206	-0.00248142888051087	0.00193541773959986	-0.00248796549988654	0.00193748942738079	-0.00532856785792404	-0.0121879198065477
7.3	-0.0112476645390198	-0.000838496595009223	-0.00218593201449352	0.00225602358470373	-0.00219715894187863	0.00226106912342263	-0.00567425105495765	-0.0116127642714661
7.4	-0.0120620779813341	0.00181832559478998	-0.00184387389583992	0.00254043035340383	-0.00185077310171773	0.0025540440216032	-0.00600941340939216	-0.01136627054036
7.5	-0.0122264100812902	0.00456411997744082	-0.00147754799448382	0.0027804716069088	-0.00147055450527801	0.00278787638161013	-0.00631097400310942	-0.0113515009633014
7.6	-0.0117115987546249	0.00712493102352882	-0.00107055436474633	0.00295928341165562	-0.0010719283013167	0.00295458324476957	-0.00665410500486782	-0.0115802190678159
7.7	-0.0106972677312461	0.00942362415027577	-0.000641634517325543	0.00308048083454525	-0.000642974938186963	0.00307941844541579	-0.00727799240254764	-0.0120953425964408
7.8	-0.00896747616698178	0.0113348200501769	-0.000215724086121367	0.0031292434897776	-0.000223533831537191	0.00313570032845789	-0.00817920730313926	-0.01241889942923
7.9	-0.00660451675816788	0.0126359245656439	0.000225182037537439	0.00313601089197293	0.000233122568783868	0.00313751147186266	-0.00919525375409209	-0.0123749052260074
8	-0.00406701263129518	0.0132892917821436	0.000666383991027036	0.00306378485915235	0.000666463397889119	0.00306868344755013	-0.0102922164795248	-0.012192250215525
8.1	-0.0014233373407389	0.013396578591143	0.00107617131057604	0.00294637417833992	0.00109531177185589	0.00294747224997326	-0.0112722373640733	-0.0115743267339136
8.2	0.00104388106099986	0.0131106525934659	0.00148017577430231	0.00276628954113674	0.00148942584578875	0.00275910530534859	-0.0119980993368814	-0.0107868727344001
8.3	0.00345048249390495	0.0124504757370628	0.001856278267895	0.00252851285858502	0.00185461974456699	0.00254205795669569	-0.0125067810448732	-0.0100643179369553
8.4	0.00575635238107032	0.011400156262913	0.00219223104543307	0.00225233805591275	0.00218920111535173	0.00225210938907988	-0.0130345031155782	-0.00949992595582967
8.5	0.00785475755398293	0.00979227395907978	0.00247891622704414	0.00192323254259782	0.0024780139958429	0.00192641553694209	-0.0137399055611901	-0.00886905938676678
8.6	0.00949718472816398	0.00775241160432225	0.00272659820425826	0.00156409710633417	0.00273611414007197	0.00155756788778914	-0.014417693093343	-0.00807549856072944
8.7	0.0106203185772235	0.00540739065259769	0.00291440555994821	0.00116202697142675	0.00291996970834091	0.00116276001813476	-0.0149461802181787	-0.00719762591160025
8.8	0.0112518279131812	0.00295610313309898	0.00305326250611101	0.000751025398234282	0.00305905303639049	0.000742262334751611	-0.0153943490648465	-0.00640744803136339
8.9	0.0115775501065139	0.000339160926581014	0.00313288140166753	0.000316057334349729	0.00313201194855558	0.000313805013712171	-0.0156275607374571	-0.00553746964093639
9	0.0114507300161832	-0.00256817274304519	0.00314440691560299	-0.000128990345901363	0.00314756620536944	-0.000124877176531723	-0.0156581037958988	-0.00464839441871769
9.1	0.0107011196704897	-0.00566534276949595	0.00309924632203547	-0.000572783851061017	0.0031021291604044	-0.000559855027014742	-0.0154782893586962	-0.00383085869122144
9.2	0.00908126746060767	-0.00864200881865852	0.00298986223782449	-0.000992986650984494	0.00299753907034357	-0.000995868804518467	-0.0152211930711353	-0.00318266335078752
9.3	0.00677397392582952	-0.0111622941873966	0.00282045304041549	-0.00140077396290929	0.00281971908431693	-0.0014057764722391	-0.0148944501469016	-0.00262912829857011
9.4	0.00393646992931562	-0.0131352695947154	0.00259636172715516	-0.00179308821589678	0.00260289394058854	-0.00178547759953435	-0.0146652215700616	-0.00222073784349739
9.5	0.000591540505590499	-0.0143987855674019	0.0023190705385113	-0.00212864665617585	0.00232649637424415	-0.00213000523231851	-0.0145991037870098	-0.00178912398554203
9.6	-0.00316400954625714	-0.0149075774007751	0.00199972371942345	-0.00243272266933343	0.0020000555399412	-0.00243173945692313	-0.0147612239198013	-0.00127373299579187
9.7	-0.00711918630333393	-0.0144093712079708	0.00163041667279805	-0.0026828169879857	0.00163594665893121	-0.0026901415933588	-0.014864229301745	-0.000553340798727519
9.8	-0.0109474217845125	-0.0129182134952815	0.00124386829130115	-0.00289061677712803	0.00124958516670154	-0.00288212097491576	-0.0148741121565409	0.000201580323546188
9.9	-0.0143176782688756	-0.0104634564818044	0.000837738336892145	-0.00302844761331681	0.000830406147200599	-0.00302720929102281	-0.0149426082522797	0.000987004485521688
10	-0.0171039332409702	-0.00739339527349065	0.000407472507172441	-0.00311628493172709	0.000399966101894221	-0.00312871825571858	-0.0149701629284784	0.00185604157771723
10.1	-0.0192210234798561	-0.00380391642370307	-3.41906595047604E-05	-0.00314666062504931	-4.44141294463341E-05	-0.00314125818039096	-0.0147851100399751	0.00273808663276726
10.2	-0.0206216753753348	0.000224355079708623	-0.000479378538253039	-0.00310922097031771	-0.000482782072762373	-0.00310644056548781	-0.0143422254286012	0.00357278877294024
10.3	-0.0211333111833689	0.00463001239133264	-0.000910848645770608	-0.00300355488238543	-0.000902764468510645	-0.00301262723565204	-0.0137157946264938	0.00418594207326584
10.4	-0.0206318047855717	0.00904071180613926	-0.00130734657447915	-0.00284950671030555	-0.00130565156599692	-0.00285570071931445	-0.0129544292394701	0.0043813579461442
10.5	-0.0190863816372324	0.0133583413465055	-0.00169856256002406	-0.0026517542642462	-0.00169546240374709	-0.0026387535532357	-0.0124289659168023	0.00453190857959454
10.6	-0.0168010138422783	0.0172244585920623	-0.00205157287578588	-0.00238282654697385	-0.00204938421799791	-0.00238664935675711	-0.0120278896238328	0.00460918639759795
10.7	-0.0138540256920965	0.0207824642009444	-0.00236772734930335	-0.0020816749898142	-0.00236423310193072	-0.00207638928516726	-0.0116564990997533	0.00481672329436403
10.8	-0.0101116821599904	0.0238892905692874	-0.00263822961564329	-0.0017219262388662	-0.00263302208234094	-0.00173085860928005	-0.0113259704096036	0.00499551451864505
10.9	-0.0056685218673179	0.0263236738369019	-0.0028479133204797	-0.00134738464718477	-0.00285310783485153	-0.00134665364089125	-0.0111251545315064	0.00515533688925885
11	-0.00057586607529329	0.0277680167304888	-0.00300845276633112	-0.00092973517559889	-0.00301330523265865	-0.000936485251986289	-0.0109211641389137	0.00549236321128232
11.1	0.0047260011903752	0.0281155931066423	-0.00311771584036922	-0.000502958367596588	-0.00310683667324143	-0.000500099370921916	-0.0105598596311148	0.00590059581888546
11.2	0.00999847268625386	0.027403508515732	-0.00314709104043733	-6.30901349226921E-05	-0.00315426072101581	-6.79281305157368E-05	-0.00991060495022141	0.00629262153055333
11.3	0.0151759328438276	0.0256829174312305	-0.0031194112932433	0.000387761179300086	-0.00313098558666814	0.000377724266619877	-0.00888695246795538	0.00646690208820337
11.4	0.0199867846724356	0.0230493512624433	-0.00304406591615702	0.000817273166576174	-0.00303913131711557	0.000824840293014899	-0.00799290982978753	0.00629800960415051
11.5	0.0243044207510503	0.0194024201340759	-0.00289851116032235	0.0012338180501458	-0.00290126976598016	0.00124411032864988	-0.00738649197821213	0.0058523381634421
11.6	0.0278525967034284	0.014794952028506	-0.00270160626095234	0.00162418661432817	-0.00270158013184936	0.00162712831343123	-0.00684490774038385	0.00527196298020151
11.7	0.0304041690516626	0.00962352991458771	-0.00243795692802346	0.00197790310586239	-0.00243849877822485	0.00198650971595331	-0.00634221481857845	0.00455923634713823
11.8	0.0320605606114005	0.00415255235507282	-0.00214078660260279	0.00230824074377839	-0.00214489542059103	0.00230994886801091	-0.00598135178889668	0.0037865714049734
11.9	0.0328224401513786	-0.00160637486276399	-0.00179042514838449	0.00258172568052744	-0.00180342234507212	0.00258605915343603	-0.00591680717510283	0.00321576186266931
12	0.0326127521215983	-0.00765017714891106	-0.00141717745387376	0.00280248008319117	-0.0014165794129061	0.00280388861601282	-0.00591088539219535	0.00282857855178394
