# GHZ S RI R 50
0.2	0.005704807117617	-0.000537291314511765	0.00304836266338323	-0.000899651613427016	0.00305873648962445	-0.000892846993095148	-0.0142696948714148	0.00310270394377535
0.3	0.00588987728821117	-0.00134978701823179	0.00290329760714793	-0.00132428599157835	0.00289606260505524	-0.00131133860562147	-0.0136016172616108	0.00445941852505769
0.4	0.00607326192052361	-0.00238463834496171	0.0026699912493151	-0.0016969119522182	0.00267524611280297	-0.00170547983825208	-0.0126187402598161	0.00562957684096286
0.5	0.00589203208968307	-0.00373254116711354	0.00240876086454979	-0.00205363916748401	0.00242026989762482	-0.00206589630057045	-0.0115263925731922	0.00626502083028922
0.6	0.00514427450955164	-0.00512585072810355	0.00209365011620543	-0.0023668937614359	0.00209284776765217	-0.00237403446016549	-0.0107477942290656	0.00644109706902185
0.7	0.00373907412037894	-0.00620357521758565	0.00174432122363558	-0.00264209894187038	0.0017423680302356	-0.00264229241274356	-0.0105268505456784	0.00658225270166804
0.8	0.0020297401502216	-0.00670317037836073	0.00135781422772083	-0.00285582736150352	0.00134523418734741	-0.00286033231956115	-0.0106121606906151	0.00712584747759401
0.9	0.000247759802824044	-0.00650478305976958	0.000941243229328584	-0.00301511405189419	0.000942249226758714	-0.00302577978881695	-0.0106246142673317	0.00809666103883203
1	-0.00122806841832848	-0.00583044466671559	0.000518663079334798	-0.00311443428253575	0.000508840841635009	-0.0031151524052182	-0.010216645787354	0.0093238754864868
1.1	-0.00238651016356765	-0.00500736561831292	6.7089712808485E-05	-0.0031401121836297	6.35782833744109E-05	-0.00315767339647552	-0.00943525675953281	0.0105063594074333
1.2	-0.00336907379459577	-0.00442684338637104	-0.000369911877472922	-0.00312794465001459	-0.000370718720004427	-0.00312587891442063	-0.00814626112292693	0.0113532843052329
1.3	-0.00457595312572924	-0.00411041138715425	-0.000791516858660825	-0.00304527969630737	-0.000794737845087028	-0.00304727618237586	-0.00646613002273988	0.0117780134863615
1.4	-0.00577302802741277	-0.00361614806547592	-0.0012077313904331	-0.00289970389626268	-0.00120651535364563	-0.00290520537859494	-0.00480868132531966	0.0115127331440645
1.5	-0.00635129728214635	-0.00261426660843938	-0.00160480675389907	-0.00270821644598143	-0.00160318000160397	-0.00271667037075954	-0.00352120025605422	0.0108751551971108
1.6	-0.00641513297293939	-0.00126320347044693	-0.00196356736350441	-0.00246122807604206	-0.00196375919360168	-0.00246644060237008	-0.00312202636114601	0.0105380529601555
1.7	-0.00602331970802787	0.000174442032138818	-0.00229234433843135	-0.00216995022038079	-0.00229333198382889	-0.00216371423979667	-0.00282360441927303	0.0106757738050517
1.8	-0.00528441382941648	0.00166391597188379	-0.0025658265091869	-0.00182325348268152	-0.00257674057566087	-0.00182892353807749	-0.00237806979705481	0.0110135306127192
1.9	-0.00414800965961859	0.00286641817900396	-0.0027949762544987	-0.00145578386284821	-0.00280742334787671	-0.00144969372257435	-0.00174433037563752	0.0113923658038487
2	-0.00277249407011318	0.00370658720007832	-0.00297511756451295	-0.00104946682050653	-0.00298475172772153	-0.0010447999433887	-0.000987079612599268	0.011711132770282
2.1	-0.00128684478307901	0.00407282776302275	-0.00309274499179471	-0.00062041830147426	-0.0030886548171457	-0.000622396189625806	-9.77713435434706E-05	0.0117873970214638
2.2	0.000130588891572517	0.00409624995654587	-0.00315313669808696	-0.00017996169387606	-0.00316443809819012	-0.000182828700714034	0.000820442262950026	0.0116872697808963
2.3	0.00144046438882179	0.00372621021846153	-0.00314981341315014	0.000266433262254271	-0.00314949867511814	0.00025954685301112	0.00159331856168941	0.011440368148241
2.4	0.00258517409421092	0.00312451707826251	-0.00307686666070377	0.000707651033630325	-0.00307940495784527	0.00070338971143258	0.00234563364612123	0.0113049105638088
2.5	0.00357875979396822	0.00225485894424742	-0.00293775138981538	0.00112182716638478	-0.00294864046752823	0.00112820484037639	0.00325918423598424	0.0110813739459458
2.6	0.00442614942444208	0.00115020630805904	-0.00276092511364378	0.00152511477070186	-0.00275737561620891	0.00151280137974982	0.00426713891225933	0.0106298812421477
2.7	0.00510354249737486	-0.00015416766550367	-0.00251219720670966	0.00189480515141542	-0.00251746781220199	0.00189481918515068	0.00505273405855153	0.00995743914651579
2.8	0.00562525071421817	-0.00164398980273366	-0.00222747994760252	0.00221891666543941	-0.00221968363035329	0.00222867547750014	0.00560757550718164	0.00941344855021198
2.9	0.0059723173596985	-0.00333463299890927	-0.00189320111858143	0.00251454974920712	-0.00188950607957675	0.00251412461912426	0.006341148006034	0.00906980685058113
3	0.00594430450618705	-0.00522452594513073	-0.00150934096518676	0.00274540426905581	-0.00152405908390027	0.00275146213219959	0.00728011008598048	0.00866176143328104
3.1	0.00551454543985541	-0.00719660866976108	-0.00112366824385825	0.00291899571965691	-0.00111905268189234	0.00292730505515779	0.00813650266290346	0.00799163347416122
3.2	0.00449293463937288	-0.00911183995435005	-0.000709497422816925	0.00305461261005049	-0.000711230511071158	0.00305399922507422	0.00862862911806979	0.00734066621675673
3.3	0.00300586382251838	-0.0108977076167339	-0.000278088969189969	0.00312569323554547	-0.000276430427023741	0.00312198010098181	0.00915002984166885	0.00673208487114566
3.4	0.00101056391887439	-0.0123060101306871	0.000162380255785209	0.00312393317020217	0.000156099448074283	0.00314038604116097	0.00973195712057925	0.00598773663319398
3.5	-0.00130600435818054	-0.0133353789619225	0.000579578496385825	0.00308766253282085	0.000585155032936794	0.00308777914314776	0.0101301578777831	0.0049769031724985
3.6	-0.00392063264088963	-0.0138321423839482	0.00100638944113739	0.00297681859991968	0.0010145680531545	0.00297656918799586	0.0103142502971319	0.00402949231508064
3.7	-0.00660808305208276	-0.0137409254820876	0.00141869124806014	0.00280446837466015	0.00140898959368425	0.00281805644416922	0.0104330882981064	0.00316562514446965
3.8	-0.00926784403454644	-0.0130643659422256	0.00180169165339735	0.00258479137067137	0.00180401986725543	0.00259397445837195	0.0104546975745415	0.00240345052332089
3.9	-0.0116643128413891	-0.0118672673265591	0.00215484815592279	0.00231683231118364	0.00214757570162109	0.00231498811159359	0.0104890121335691	0.00174624730429235
4	-0.0137856325487587	-0.010257570139358	0.00244820941307275	0.00199750187466876	0.00245269565478516	0.00199508930759174	0.0106632445382969	0.00116672964616165
4.1	-0.0155696495977093	-0.00828877703099073	0.00270881154603915	0.00163613818815186	0.00270754756286472	0.00163687040299348	0.0109925605209151	0.000514088093431097
4.2	-0.0170092510581354	-0.00597650587761752	0.00291529896999817	0.00123040098031392	0.00291983326205581	0.00122165166053743	0.0112612791473377	-0.000271959785356818
4.3	-0.018016097680977	-0.00347962228935551	0.00306300572080285	0.000811728130346537	0.00306949415708831	0.000803894650510179	0.0114270280543097	-0.00115941283464048
4.4	-0.0186680534700841	-0.000785925825826724	0.00314088623926122	0.000370136141038651	0.00314327910945014	0.000367869286374602	0.0114484818841943	-0.00200593098458133
4.5	-0.0188675531722153	0.00205660363926825	0.00316216763453995	-7.4758508211107E-05	0.00316755903683927	-7.81492738969566E-05	0.0115181183759384	-0.0028565201812412
4.6	-0.0186262810173954	0.00492508132861001	0.00311417994009812	-0.000522714693540446	0.00311542405999027	-0.000509743029616638	0.0114638951412405	-0.00391045542617085
4.7	-0.0177610789473232	0.00778980223172981	0.00300370949099951	-0.000944006512438379	0.00301903290283319	-0.000953676396024952	0.0111352126946486	-0.00499022266569426
4.8	-0.0163964244135776	0.0104415183311189	0.00283741445054825	-0.00135778521620865	0.00284590017025746	-0.00136389912973585	0.0106035821753393	-0.00586667102372005
4.9	-0.0143517152434079	0.012771373942908	0.00261276296708366	-0.00173914409406974	0.00261693535682493	-0.00173624237693622	0.0101676618509077	-0.00647080919246941
5	-0.01187069937928	0.0145549381651861	0.00235146293299135	-0.00208999503641848	0.0023550841007141	-0.00208733369432881	0.0100799553518629	-0.00700214889886858
5.1	-0.00892672546925443	0.0158101650226225	0.00204187956262376	-0.00239611731892055	0.002044176335626	-0.0023947596928718	0.0100769155149614	-0.00777591877087205
5.2	-0.00587007867062402	0.0163834585249408	0.0016880391863814	-0.0026428005675057	0.00168976032138582	-0.00264793155697066	0.00988381175939945	-0.0085885247506363
5.3	-0.00280678128483702	0.0163237015250715	0.00130679994767438	-0.00285738725710224	0.00130992079058514	-0.00285531648136732	0.00961531976611535	-0.00921830247426666
5.4	5.8097851972024E-05	0.0157039148317604	0.000887743574162248	-0.00300715451881699	0.000904951325463027	-0.00301827194855903	0.00946902485867926	-0.00996316715582555
5.5	0.00258744125105639	0.0146692998990012	0.000478796349489344	-0.00311010206317045	0.000488910218303514	-0.0031194754645237	0.00916116951369609	-0.0109548110553498
5.6	0.00479888338013379	0.0132893629298413	4.24145293910197E-05	-0.00315361478861558	3.38924820999635E-05	-0.00315689619319115	0.00841969054382774	-0.0119182505764593
5.7	0.00662552218196172	0.011650675303755	-0.000389925356850063	-0.00313136296969964	-0.000406576984381726	-0.00313514922602852	0.00732493693669928	-0.0125497349127154
5.8	0.0081240936549079	0.00970481474138713	-0.000840856886180219	-0.0030441280515454	-0.000844323838577683	-0.0030582183526473	0.00620368437442465	-0.0130134940900113
5.9	0.00913968103069726	0.00756166995144643	-0.00125364553121776	-0.00290955519336609	-0.0012619367315624	-0.00290951733626461	0.00502648087998766	-0.0132248248681319
6	0.00960492784816192	0.00522566239654657	-0.00166192673082996	-0.00270529127946729	-0.00165833382613372	-0.00270544522132066	0.00387201737299284	-0.0131831864197257
6.1	0.00953251085548887	0.00285896506778621	-0.00202732081965145	-0.00244870007953556	-0.00202898476188038	-0.00244466051076887	0.00303384398731603	-0.0129781492373031
6.2	0.00896254817625446	0.000505244914604344	-0.00234902053181346	-0.00212939537676266	-0.00235276586258584	-0.00214138706965812	0.00243377708394919	-0.0129556089391102
6.3	0.00798079674922223	-0.00178090516459904	-0.0026329489177272	-0.00178592406133053	-0.0026421572741193	-0.00178010955262391	0.00189177290251098	-0.0131751787203485
6.4	0.0065077261579055	-0.00394376117493158	-0.00286144953620916	-0.00138437502809085	-0.00285165357923661	-0.00138936218300488	0.00146757506781593	-0.013501819495741
6.5	0.00463714205748034	-0.00571587371387087	-0.00301593340977534	-0.000968749082330336	-0.00302383326228044	-0.000964186493241561	0.00108636169831738	-0.0140631918186815
6.6	0.00250398903268563	-0.00687090341507816	-0.00311834902829019	-0.000534841008039915	-0.00312002059939115	-0.000538832640236207	0.000463915846025999	-0.0147414674264987
6.7	0.000295879020971709	-0.0074230220878022	-0.00316053707453365	-9.1221774604602E-05	-0.00316938494508246	-8.48453410074533E-05	-0.000673670355380936	-0.0151573794889088
6.8	-0.00194224766116698	-0.00743925750936376	-0.00312944708063805	0.000352107897034214	-0.00314053189913794	0.000357256999646471	-0.00192393025164827	-0.0150274208828113
6.9	-0.00417556135152975	-0.00697853224355218	-0.00304520937253448	0.000783453466127371	-0.00304818152988308	0.000785868577964618	-0.00284061727831765	-0.0146425009283766
7	-0.00625941920853347	-0.00591143813373168	-0.00290186252146912	0.00119898947436913	-0.00291469855054475	0.0011968779324413	-0.0035541878462966	-0.0143246331646219
7.1	-0.00811192528286292	-0.00433774161769249	-0.00272079912193301	0.00158085973155895	-0.00271709692836664	0.00158949166761538	-0.00437205354008218	-0.0140373169331036
7.2	-0.00953724712240409	-0.00233843306935067	-0.00246471280290179	0.00194167520712473	-0.00247122002146297	0.00194377235404957	-0.00521807105368377	-0.0135997701327851
7.3	-0.0105441503051106	-0.00012526279857467	-0.00217290696466419	0.0022553073422096	-0.00218408543661586	0.00226036914722606	-0.00593281977335163	-0.0130367735580597
7.4	-0.0112263906422119	0.00209098235596858	-0.00183696018720603	0.00253599805529264	-0.00184382960876869	0.00254958512986855	-0.00645105200460602	-0.0126272631557316
7.5	-0.011541675002374	0.00447030237902413	-0.00147729469355857	0.0027762930910307	-0.00147031374913247	0.00278369276699014	-0.00674425974715533	-0.0122218154250463
7.6	-0.0111619211316838	0.0070311063127799	-0.00107557358364078	0.00295909885547488	-0.00107694104677414	0.00295439430955269	-0.0069551779911345	-0.0118694563504744
7.7	-0.0105214451204882	0.00929538706353169	-0.000648798091715268	0.00308682600224132	-0.000650139850056874	0.00308575858627636	-0.00739820453151954	-0.0125592333304506
7.8	-0.0089815276346498	0.0112363157367925	-0.000221072155624433	0.00314281487086984	-0.000228925588714597	0.00314928937696388	-0.00814107428495558	-0.0127600678241445
7.9	-0.00711878579791181	0.0127140132623849	0.000225651816275011	0.00315564434107838	0.000233641442848455	0.00315715665136657	-0.00880466557219133	-0.012907615213734
8	-0.00446438390957964	0.013670657702552	0.000675827636552289	0.0030862547064155	0.000675914606281543	0.00309119062133036	-0.00947561559231878	-0.0126152650140102
8.1	-0.00187962751248331	0.0142407847765016	0.00109585922092255	0.00296749620715249	0.00111516589912514	0.0029685349637457	-0.0104706088218373	-0.0126635082598663
8.2	0.000915573062825428	0.0141598134097777	0.00150958841754037	0.00278124358471155	0.00151887504621956	0.00277394172155745	-0.0114400960794416	-0.012212987484963
8.3	0.00363703311819991	0.0134344296838572	0.00189265431109258	0.00253303697177274	0.00189109753714141	0.002546704863499	-0.0122618991430104	-0.0115212977689882
8.4	0.00603911925940611	0.0121966506659601	0.00223118316547848	0.00224374970141221	0.00222813051138854	0.00224355218878229	-0.0129025626592948	-0.0108012806095648
8.5	0.00805372505020355	0.0105192650508409	0.00251490489593737	0.0019008308392925	0.00251403877340552	0.00190404018300817	-0.0135007326577453	-0.010107744820978
8.6	0.00965993818258485	0.0085986603877749	0.00275436285549891	0.00152942526286007	0.00276380830524659	0.00152274898580981	-0.0140897094057655	-0.00948603701675295
8.7	0.0109737566794597	0.00637349358935261	0.00292937476300375	0.00111895634282413	0.00293494592363936	0.00111960812882525	-0.0147620383978173	-0.0088618662007572
8.8	0.0118802878249411	0.003835926635578	0.00305313431207378	0.000704766189360967	0.00305877915764336	0.000695951597700741	-0.0155642342836368	-0.00806321930367504
8.9	0.0123096668652408	0.000937535916190125	0.00311737034119833	0.00027257904666371	0.00311647652522252	0.000270352401522661	-0.0160023110463339	-0.00688952710884413
9	0.0120395214006433	-0.00218104040143769	0.00311582493557405	-0.000164046377746953	0.00311900430936656	-0.000160004994264818	-0.0159305497216649	-0.0056907672973041
9.1	0.0110589620108299	-0.00525287015115058	0.00306191656064578	-0.000595389341231243	0.00306488859655044	-0.000582620784215366	-0.0155779927621176	-0.00479362681663716
9.2	0.00941347513256212	-0.00816157119592177	0.0029494964014816	-0.00100139147611914	0.0029570674049646	-0.00100429144611718	-0.0152522867943077	-0.0041390056715013
9.3	0.00709441367935961	-0.0107395029516854	0.00278268803467606	-0.00139555037702651	0.00278194325031008	-0.00140049264146838	-0.0148745545211924	-0.00348185112758528
9.4	0.00412753560370759	-0.0128590666405416	0.00256588782955781	-0.00177701680263486	0.00257235909775959	-0.00176949716874207	-0.0144112050480425	-0.00307108508626711
9.5	0.00056134551535535	-0.0139017700058085	0.00229880804880826	-0.00210646606281561	0.00230616442761028	-0.00210780549841734	-0.0140264179278557	-0.00265088541040411
9.6	-0.00324253157222944	-0.0141514326070162	0.0019901993419388	-0.00240938073009839	0.00199052629457297	-0.00240840424930649	-0.0140574248328617	-0.00251192974079387
9.7	-0.00700709303181589	-0.0134747694477347	0.00162997712326604	-0.00266295134549251	0.001635499998114	-0.00267021829817468	-0.0143517496268267	-0.00212976264565899
9.8	-0.0106009608088684	-0.0120586967473359	0.00124898721483157	-0.00287724348146454	0.00125465848408367	-0.00286875723590177	-0.0146912221994072	-0.00143032813931684
9.9	-0.0139842488135375	-0.0097990879565828	0.000844033935435328	-0.00302265855292236	0.000836707849251332	-0.00302143952842771	-0.0149830253236302	-0.000426405341669826
10	-0.0169344409727782	-0.00682532080317639	0.000410778559046792	-0.00311696297729369	0.000403282145181499	-0.00312940827649808	-0.0149448142003636	0.000589359458123548
10.1	-0.0191747516148387	-0.00312078401738731	-3.69949265362858E-05	-0.00315082158806944	-4.72272763477337E-05	-0.00314540298499997	-0.0146874648443305	0.00143431982703933
10.2	-0.0204899457247214	0.00102729565852992	-0.000489583836001031	-0.00311267535941043	-0.000492984297533556	-0.00310988022044964	-0.0143439780003447	0.00221316188827583
10.3	-0.0208588129646929	0.00534123302412138	-0.000927507285059185	-0.00300191857053481	-0.000919462141921664	-0.00301104265600974	-0.0138546533181617	0.00297869513229966
10.4	-0.0203666512244116	0.00959982855253438	-0.00132752840547753	-0.00283933772292316	-0.00132587846293554	-0.00284554230865759	-0.0130101905033311	0.00349897297657657
10.5	-0.0191121420432811	0.0138296874066655	-0.00171789456280119	-0.00263097159493527	-0.00171468788696983	-0.00261802714537433	-0.0121068412592618	0.00370376467200656
10.6	-0.0169640545971905	0.017896017769304	-0.00206473308480334	-0.00235182363382891	-0.00206259152218842	-0.00235564934100613	-0.0113969684290817	0.00357999427339719
10.7	-0.0139072384418242	0.0216387719933125	-0.00237006431408751	-0.00204304719957419	-0.00236654516558519	-0.00203783517680804	-0.0109699163648323	0.00351538487460231
10.8	-0.0100148551159712	0.0246995575700627	-0.00262623230536078	-0.00168055207252707	-0.00262115840133936	-0.00168943827298095	-0.0106965256847253	0.00358547088485159
10.9	-0.00563112344971827	0.0269298740348206	-0.00282079027868485	-0.00130914427593798	-0.00282591207680334	-0.00130838488516253	-0.0103610513228695	0.00374158029126591
11	-0.000800082007787975	0.0284364648337847	-0.00296763620553467	-0.000900941149111338	-0.00297244861323761	-0.000907565581752734	-0.00996078715908475	0.00386771122601391
11.1	0.00438495400858711	0.0291232695595229	-0.00306729638263114	-0.00048857923243947	-0.00305659099722685	-0.000485788611780151	-0.00957671770273735	0.00383267942370819
11.2	0.00987395621460819	0.0287447542984821	-0.00309341952271877	-6.62200400563386E-05	-0.00310046065817515	-7.09852343763744E-05	-0.00925938743682475	0.00381219463786198
11.3	0.0154707780406172	0.0272120068975279	-0.00306930783158719	0.000366725944971399	-0.00308064257737938	0.000356801971344209	-0.00892180253222838	0.00401409158684602
11.4	0.0205031223647162	0.0243555690599057	-0.00300366375489613	0.000781061123771637	-0.00299886376114525	0.000788550378821256	-0.00833749925254848	0.00409306069243703
11.5	0.0247454257288335	0.0205418377328834	-0.00287274010240931	0.00118732735177657	-0.00287556877930962	0.0011974540461053	-0.00778885555804845	0.00372648895080823
11.6	0.0283632260976673	0.0159996576886973	-0.0026927328033558	0.00157371103587914	-0.00269274305644902	0.00157662168839741	-0.00739661769522683	0.00325924192675067
11.7	0.0311714806783857	0.010770730070006	-0.00244560570094399	0.00193022271709607	-0.00244625811266215	0.00193875603401487	-0.00715207326814106	0.00274528685224065
11.8	0.03299881403171	0.00492973755787474	-0.00216203261073327	0.00226868393292944	-0.00216614547840985	0.00227032872130118	-0.00694369077796482	0.00240240694258934
11.9	0.0336874607524554	-0.00117176121276745	-0.00182041317259872	0.00255447406731262	-0.00183344383555702	0.00255863403784967	-0.00655201149915321	0.00250608762598195
12	0.0329038821548245	-0.00754823971761223	-0.00144982002920835	0.00278817349312861	-0.00144923757520174	0.00278958968336762	-0.006148430396058	0.00206921083503446
