# GHZ S RI R 50
0.2	0.00681827140707002	0.00134448788075468	0.0030482997309192	-0.000897090089490764	0.00305866577201232	-0.000890279190164651	-0.0131171427354607	0.00500553384916473
0.3	0.0066369992133917	-0.000907222056387344	0.00290449899791701	-0.00131983093533533	0.00289724724062962	-0.00130689693627409	-0.012821361664935	0.00489016565010258
0.4	0.00598998424732216	-0.00227441308085391	0.00267375184122004	-0.00169110240453586	0.00267902554236491	-0.00169965895199424	-0.0127242326373708	0.00570486772573732
0.5	0.00532098250018904	-0.0031637092084292	0.0024161557690966	-0.0020477384895432	0.00242770730877334	-0.00205996881881676	-0.0122023117806246	0.00682875119994931
0.6	0.00475300120995657	-0.00392923367951084	0.00210498596503437	-0.00236279738513713	0.00210420780828343	-0.00236995096720699	-0.0113000007856442	0.00772407922236969
0.7	0.00398789104619969	-0.00477204140497616	0.0017590012767114	-0.0026418182805838	0.00175704399606471	-0.00264201988486548	-0.0104245463425815	0.00821166754397138
0.8	0.00286891140143436	-0.00560518026714002	0.00137419456100479	-0.00286103773772624	0.00136158570684577	-0.0028656093714139	-0.00984179583640323	0.00848644586929464
0.9	0.00119771547087779	-0.00603067194553039	0.000956942630788602	-0.00302673656630795	0.000957992560660987	-0.00303745189347492	-0.00966543290637935	0.00881199091352048
1	-0.000687321369903859	-0.0057673386199321	0.000531019248444566	-0.00313221431402368	0.000521138242980652	-0.00313296571811011	-0.00966498090569262	0.00955213483467712
1.1	-0.00239097464739599	-0.00480960698298083	7.34196733131627E-05	-0.00316258505000207	6.9915674343756E-05	-0.00318027918054131	-0.00952016843910313	0.010828538758683
1.2	-0.00355923550602934	-0.00372114620943494	-0.00037123035539599	-0.00315276554736921	-0.000372044604812136	-0.00315068395557137	-0.00850560633767293	0.0122588832020824
1.3	-0.00453007577732299	-0.003044305764623	-0.000801065820598318	-0.00306931348328642	-0.00080431510580966	-0.00307132298129752	-0.00658691603857498	0.013159496951619
1.4	-0.0054504267676192	-0.00250072992342691	-0.00122487542638128	-0.00291976672166196	-0.00122366387596484	-0.00292531532651487	-0.00462593898308104	0.0130417252041859
1.5	-0.00574251330614256	-0.00149316082363538	-0.00162760609798942	-0.00272175918419037	-0.00162600145249255	-0.00273028217850792	-0.00301499576326602	0.0125253393944168
1.6	-0.00542406144299524	-0.000300305679274996	-0.00198906454034832	-0.00246668410867109	-0.00198928496307173	-0.00247192901397625	-0.00215325529010149	0.0121163194396159
1.7	-0.00484187732218076	0.000725046503107374	-0.00231735108089096	-0.0021670811617395	-0.00231830571268626	-0.00216080716876714	-0.00148447561326819	0.0118378630846187
1.8	-0.00423767295710673	0.00184025326678142	-0.00258720057166994	-0.00181322484828456	-0.00259819193680091	-0.00181884455097066	-0.0010765310530797	0.0116642430178813
1.9	-0.00339957726330551	0.00293984507196443	-0.0028106787753902	-0.00144090108088838	-0.00282311419345487	-0.00143471652793175	-0.000777293926840972	0.0117979431784729
2	-0.00218016775003763	0.0039269902952183	-0.00298416590843327	-0.00103257062557166	-0.00299378094172774	-0.00102784158895111	-0.00030076450247908	0.0122285243989104
2.1	-0.00059092614461008	0.00442665080020229	-0.00309558742345044	-0.000604447674762083	-0.0030915078772571	-0.000606446369914462	0.000612175955111186	0.0125299396139564
2.2	0.00101871553928423	0.0043443788402898	-0.0031514556586003	-0.000167198199307634	-0.00316275993132533	-0.000170017767110787	0.0017757662986244	0.0124384430655807
2.3	0.00231994842280725	0.00367918932255708	-0.00314609472387412	0.000274799591847686	-0.00314579912870229	0.000267918857503649	0.00268130225351785	0.0118919628709782
2.4	0.00317577838445115	0.00290141773206614	-0.00307381125360792	0.000711803794973694	-0.00307635429191705	0.000707549039817472	0.00320789695311909	0.0114046422333176
2.5	0.00382304364865157	0.00215922050835151	-0.00293757982347388	0.00112327184589638	-0.00294846726949914	0.00112965512534959	0.00365599547070588	0.0111366787804581
2.6	0.00456846034792015	0.00137775185597373	-0.00276479366757031	0.0015262929764251	-0.00276123644214082	0.00151396508633805	0.00434158320760726	0.0109868320373896
2.7	0.00537985437524747	0.000290982337003372	-0.00251987508074205	0.00189850720942276	-0.002525159695038	0.00189851848698542	0.00511492224164796	0.010650806606706
2.8	0.00603601284185377	-0.00114559416565541	-0.00223735864986932	0.00222758338488319	-0.00222953239277053	0.00223738496728749	0.00576048824765461	0.0102764638676095
2.9	0.00645709696256957	-0.0027758660376378	-0.00190242646050305	0.0025297330892552	-0.00189871090601339	0.00252930350235504	0.00652730417741959	0.0100869607526851
3	0.00660142826673945	-0.0045721013437513	-0.00151438348228979	0.00276695023261603	-0.00152919018571809	0.0027730773062106	0.00757807814354903	0.00993193857114791
3.1	0.00646041856330591	-0.00657000120146398	-0.00112141588869002	0.00294521754226091	-0.00111673479967264	0.00295357273578853	0.0087496139740199	0.00947044274346969
3.2	0.00565071137331004	-0.00872857809920379	-0.000697483974979294	0.00308245105328601	-0.000699234068093053	0.00308184284395609	0.00965392535147379	0.00877746962164916
3.3	0.00413382012976567	-0.0108149293717503	-0.000255463156643204	0.00315088240511918	-0.000253821721748334	0.00314712886374453	0.0104161771830328	0.00787882559014245
3.4	0.0019535379022689	-0.0123510510350401	0.000194444823470452	0.00314194818306305	0.000188288052852242	0.00315856684861822	0.0109707914828581	0.00686982016970261
3.5	-0.000477058660465742	-0.0133383788047133	0.000618265886500257	0.00309515215425822	0.000623869518688072	0.00309520426134769	0.0112785972143416	0.00578280948719628
3.6	-0.00303236420121587	-0.0137961927873982	0.00104728948300263	0.00297120778018917	0.00105548513584999	0.00297085222929653	0.0115190295430858	0.00487728906559272
3.7	-0.0056703492130924	-0.0138364076101816	0.00145666996186509	0.00278540911794662	0.00144715160018339	0.0027991289463283	0.0118092151885504	0.0038694056099843
3.8	-0.00846947399777624	-0.0133170916305005	0.00183198679755401	0.00255410340806525	0.00183443279169199	0.00256323227859409	0.0118282827945669	0.00277243613077343
3.9	-0.0111095825040945	-0.0120722246700168	0.00217371906725447	0.00227804849169493	0.00216645889819598	0.00227630582547006	0.0115651388456232	0.00187324708561051
4	-0.0133141261249862	-0.0102208782055907	0.00245367450923422	0.00195566579457975	0.00245810182310075	0.00195321925851925	0.0113795113712926	0.00136493666718084
4.1	-0.0149469115309315	-0.00807967707059087	0.00270089473696207	0.00159622919393111	0.00269964865888951	0.00159696707630273	0.0115751574294299	0.000957623932691352
4.2	-0.0162158596914024	-0.00582077501910406	0.00289606299331839	0.00119710182822028	0.00290048919115579	0.00118840406846026	0.0119064193414142	0.000296113158659149
4.3	-0.0172393440073701	-0.00345501834951566	0.00303627295293955	0.000788194216768161	0.00304265682418711	0.000780406962990556	0.0120644505287908	-0.000657800000078502
4.4	-0.0180226680358108	-0.000740054317203863	0.00311132841694486	0.000357793229169011	0.003113691677445	0.000355541793055835	0.0118866487847705	-0.0015188558165608
4.5	-0.0182377314422165	0.00228116100753386	0.00313430857674683	-7.67137312340059E-05	0.00313964978422452	-8.0079144171471E-05	0.0117353879610775	-0.0021513118212202
4.6	-0.0178106995845371	0.00526908028742286	0.00309169970941227	-0.000516817728849543	0.00309292610649227	-0.000503940321992216	0.0117029752106217	-0.00283687008432174
4.7	-0.0167510409100893	0.00805507612165423	0.00298859706064715	-0.000934126854929374	0.00300385092156507	-0.000943719544311303	0.011615760785025	-0.00370249543953823
4.8	-0.0153449641952852	0.0105637095436738	0.00282966211819893	-0.00134796547486692	0.00283812825096647	-0.00135404268955766	0.011333313086959	-0.00460065699433526
4.9	-0.0133673687026405	0.0128604970120042	0.00261044918609757	-0.00173292347367201	0.0026146108310967	-0.00173002154439305	0.0109369009623769	-0.00528763004027835
5	-0.0108325536892178	0.0147013985784277	0.00235121788526882	-0.00208946024224159	0.00235483823279131	-0.00208679908291702	0.0108581761797062	-0.00576212048560083
5.1	-0.00771702207694893	0.0158692670882151	0.00203973121112591	-0.00240142528292369	0.00204203210486012	-0.00240007022022964	0.0110416064625232	-0.00647652651262633
5.2	-0.00462710132812744	0.0161773224228785	0.00168043844967377	-0.00265200986906056	0.00168214300674155	-0.00265715309952341	0.0110859068333232	-0.0074708547623577
5.3	-0.00176686697909712	0.0159454630143517	0.00129142559446889	-0.00286696523712851	0.00129456057768738	-0.0028649107789545	0.0107996864771032	-0.00843572604174999
5.4	0.000894680660306818	0.0154194136096243	0.0008643799782369	-0.00301256755866762	0.000881495032564608	-0.00302381132801468	0.010356216796873	-0.0093317725634501
5.5	0.00346857349044714	0.0145728096965452	0.000449270341153991	-0.00310729074137039	0.000459275187183942	-0.00311673490262875	0.00978996718322569	-0.0101378869610601
5.6	0.00590274080762878	0.0131763667653218	1.0588691374052E-05	-0.0031393052137373	2.07355330010358E-06	-0.00314248581841038	0.0091017018399278	-0.0108078128372448
5.7	0.00783895306671399	0.0112309036377519	-0.000418908082545799	-0.00310443850639352	-0.000435476119720747	-0.0031080276770139	0.00831206979487991	-0.0114064266319839
5.8	0.00909646887968402	0.0089786798720908	-0.000861344353158961	-0.00300560846573408	-0.000864910398970581	-0.00301952451048722	0.00734058767462699	-0.0121346492059551
5.9	0.00967685187055084	0.0068269706830104	-0.00126134639656993	-0.00286304562596431	-0.00126953348393259	-0.00286294156989167	0.00597860551252787	-0.0126476753517234
6	0.00985645070832123	0.0048122201836088	-0.00165363973961594	-0.00265608067673451	-0.00165010009950401	-0.00265625353420361	0.00444451148474966	-0.0126280790567551
6.1	0.00983183344711531	0.00281537023686843	-0.00200273336868234	-0.00240302604555284	-0.00200435774312909	-0.00239904577330656	0.00337131166223912	-0.0121543340603393
6.2	0.00946132369410283	0.000628239320042365	-0.00231027559699576	-0.00209344637092715	-0.00231396081237059	-0.00210523744876349	0.0028032815996385	-0.0118604230630185
6.3	0.00862122605728077	-0.00159231284848549	-0.00258426639145929	-0.00176411646806489	-0.00259333966744594	-0.00175842482398392	0.00236393336938852	-0.0119659660929014
6.4	0.00727709798866421	-0.00356380093574084	-0.00280887304947338	-0.00137968445075662	-0.00279919994074096	-0.00138453659498039	0.00187718861930864	-0.0121207940842892
6.5	0.00577891612850716	-0.00524124304651621	-0.00296611929368226	-0.000980845251780305	-0.00297394862394396	-0.00097641235982412	0.00159362208106543	-0.0123286950912174
6.6	0.00402639037176687	-0.00669188762821917	-0.00307699771864959	-0.000561192648108855	-0.00307860852414361	-0.000565155896582905	0.0014109931636403	-0.0128086347032383
6.7	0.00183101085042182	-0.00774383006306148	-0.0031318489333255	-0.000127208662602111	-0.003140693677009	-0.00012099094279418	0.000739891039700496	-0.0134589407672469
6.8	-0.000730136565324477	-0.00803728296545689	-0.00311536975657014	0.000312460469304369	-0.00312645157744089	0.000317446311514933	-0.000404773446826012	-0.0137903178246571
6.9	-0.00324934236236718	-0.00744177853055931	-0.00304487819472258	0.000745981061955064	-0.0030478690341972	0.000748354531187695	-0.00161382330039853	-0.0136125085591619
7	-0.00529294395353233	-0.00619745930961306	-0.0029121628815774	0.0011685097657967	-0.00292496865648055	0.00116626840597056	-0.00253922532029246	-0.0131911254372023
7.1	-0.0069197772245584	-0.00469661275710271	-0.00273689679889656	0.00156001225677852	-0.00273326218338853	0.00156868436637011	-0.00324532875244285	-0.0126760910724143
7.2	-0.00830114364870416	-0.00307365439256944	-0.00248138822321413	0.00193094757622282	-0.00248792136958771	0.0019330101635306	-0.0037090854854285	-0.0122768483925821
7.3	-0.00968122225704269	-0.0012384681222241	-0.00218552080314169	0.00225241087204776	-0.00219674099859893	0.00225744385458266	-0.00414576307424198	-0.012179327773279
7.4	-0.0109111461721004	0.00110850208165245	-0.00184271704124829	0.00253694048021026	-0.00184961337608078	0.00255053650476683	-0.00497931237521794	-0.0121986328192198
7.5	-0.0116027193737463	0.00390850318773858	-0.00147568412534353	0.00277627150602444	-0.00146870158105036	0.0027836662233998	-0.00581159708487922	-0.0120658809968163
7.6	-0.0114157802645181	0.00673606064906612	-0.00106849517995517	0.00295366746243242	-0.00106986654375454	0.00294897624054938	-0.00638779972657627	-0.0120143233614932
7.7	-0.0104517457736047	0.0093029152244392	-0.000640258476643953	0.00307306379547316	-0.00064159562895614	0.00307200388226999	-0.0070784632656594	-0.0121964339254021
7.8	-0.00881200098017857	0.0114502412821292	-0.000216031526871705	0.00312011680956152	-0.000223820578405816	0.00312655262248817	-0.0080280597466482	-0.01225733398842
7.9	-0.00642215230573099	0.0131161432811807	0.000222157521091333	0.00312571614251853	0.000230070484260567	0.0031272174750642	-0.0089388407990139	-0.011767092564349
8	-0.00359009460660359	0.014202201157518	0.000659926600603237	0.00305346619836046	0.000659999285521521	0.00305834699389479	-0.00969444344655042	-0.0112825616863816
8.1	-0.000420898599678597	0.0143639954978265	0.00106610324818796	0.0029373303667236	0.00108516857196431	0.0029384630285947	-0.0100823782155544	-0.0106430282885375
8.2	0.00239825897845117	0.0138065614027161	0.00146685667075654	0.00276002923332659	0.00147609206981022	0.00275289794225368	-0.0104613621736048	-0.0101988372926347
8.3	0.00481226997300368	0.0128305004742872	0.00184074168159607	0.00252631634296944	0.00183904048786674	0.00253980815760738	-0.0109819648524766	-0.00982965405227985
8.4	0.00695559449030003	0.0117093030283514	0.00217596937514448	0.00225493419420761	0.00217294956507328	0.00225469323793452	-0.011672836930347	-0.0093591641299931
8.5	0.00904229179788636	0.0102490067563861	0.00246373136808591	0.00193073219232555	0.00246281581050533	0.00193390329840717	-0.0123781096078425	-0.00862565011310875
8.6	0.0109339690007218	0.00827851298827717	0.00271410683137859	0.0015759488892614	0.00272364208309777	0.00156947986578259	-0.0128215346693232	-0.00783598433995037
8.7	0.0123239323333865	0.00571397826323103	0.00290602234940547	0.0011770345963563	0.00291157856284266	0.0011777973506667	-0.0131503099976853	-0.00723947430012449
8.8	0.0129572915146509	0.00284736959831087	0.00304969136341604	0.000767620783556722	0.00305553009708953	0.000758887585918428	-0.013693968286747	-0.00688105108082369
8.9	0.0129804941440711	-2.92319882256784E-05	0.00313428773477039	0.000332496124261949	0.00313342903797582	0.000330237145256864	-0.014304685490775	-0.00622943004959833
9	0.0125474300758554	-0.00289223917645271	0.00315024487369651	-0.000114361340770006	0.00315339000060456	-0.000110226417565026	-0.0146667214176178	-0.00524449636262237
9.1	0.0116962110403358	-0.0058816820263314	0.00310841893825829	-0.000561169305743416	0.00311125440700812	-0.000548200168208184	-0.0145977694709644	-0.00428268453148031
9.2	0.0100210983007495	-0.00883365715921161	0.00300090293219697	-0.00098501457197786	0.003008609278962	-0.000987877097007107	-0.0144086485722911	-0.00357929783790865
9.3	0.00754645332750479	-0.0113087453440981	0.00283193099815609	-0.00139647790161151	0.00283120931395027	-0.001401495792069	-0.0142517865031938	-0.0029281389188728
9.4	0.00454924188635503	-0.0130217715749764	0.00260708178130567	-0.00179196875658212	0.00261361402374477	-0.00178432388061551	-0.0141214248378226	-0.00220409457088198
9.5	0.00129822044407437	-0.0140044236136293	0.00232820006327474	-0.00212967328882853	0.00233564574062539	-0.00213102228851194	-0.0139140711314942	-0.00148537744663706
9.6	-0.00214600581180508	-0.0143812909186188	0.0020070210499195	-0.00243484778734069	0.00200735219275447	-0.00243386216417365	-0.0137260700062643	-0.000880249732943281
9.7	-0.00584032949965695	-0.0140485265883556	0.00163613212836141	-0.00268505411364689	0.00164167939499634	-0.0026923835481423	-0.0135790603117338	-0.000371125565075392
9.8	-0.00967374394911275	-0.0128259461716144	0.00124874110261366	-0.00289230543715165	0.00125445401237897	-0.00288379332845806	-0.0136333720902465	0.000108332237501231
9.9	-0.0132363818246075	-0.0104898741327108	0.000842689510223231	-0.0030294027451988	0.000835350311538749	-0.00302817408072739	-0.0139107195495899	0.00081404637811911
10	-0.0161484890411737	-0.00730906226004329	0.000413346102029364	-0.00311693045670999	0.000405859058319785	-0.00312938303581298	-0.0140446116465885	0.00181511451432199
10.1	-0.0181980658884624	-0.00363792978537215	-2.68542156267883E-05	-0.00314785040834198	-3.70939083564924E-05	-0.00314246993311807	-0.0137750417713818	0.00277526784956667
10.2	-0.0195432775802779	0.000277541097988582	-0.000470579693412876	-0.00311206917788385	-0.000473992892038897	-0.00310929734762531	-0.0132804113549256	0.00349507567644908
10.3	-0.0202300860833312	0.0045450871898199	-0.000901208060994799	-0.00300912683945665	-0.000893086014406388	-0.00301817859077969	-0.0128311826760886	0.00399541295777761
10.4	-0.01996824604571	0.00912088765801755	-0.00129795461241727	-0.00285850191255891	-0.00129623302469347	-0.00286469769334729	-0.0123471809690577	0.00438182368699141
10.5	-0.018575704906201	0.0137182184530597	-0.00169090163858166	-0.0026644559996764	-0.00168784993630895	-0.0026514150968032	-0.0118303067876462	0.00482004595050451
10.6	-0.0161178998736854	0.0178556681048741	-0.00204727971193319	-0.00239867748464243	-0.0020450681132879	-0.00240250202962776	-0.0112002129192216	0.00510769409889978
10.7	-0.0129523380768137	0.0214570649051293	-0.0023680711949139	-0.00209954541046108	-0.00236458570389119	-0.00209422486705585	-0.0106048042221521	0.00528199459312351
10.8	-0.00913961289012199	0.0245384429311399	-0.00264406459810509	-0.00174003621331552	-0.00263879867019515	-0.00174899070604563	-0.0102257413718067	0.00537945660463866
10.9	-0.00467074335697198	0.0270832462742775	-0.00285915946895688	-0.00136382478022461	-0.00286438466868978	-0.00136310635622867	-0.0100253658740058	0.00561954686567435
11	0.000630621911625981	0.0287151256236458	-0.00302446914642912	-0.000942595365027379	-0.00302933484431897	-0.000949398031232399	-0.00962645594985918	0.00608813172573368
11.1	0.00635352207326902	0.0290672195264373	-0.00313714614339565	-0.000510822243492595	-0.00312620080703734	-0.000507928662797051	-0.0088980554406645	0.00642458645270496
11.2	0.0120006355576108	0.0280284190693214	-0.00316797307264933	-6.50404394785658E-05	-0.00317518804278132	-6.99140720771917E-05	-0.0079856879129823	0.00644209924001626
11.3	0.0172201722398126	0.025802770204273	-0.00313973928971933	0.000391911277016816	-0.00315139488891909	0.000381814249438797	-0.00705518570550156	0.00612133477478936
11.4	0.0218273312387944	0.0228341257743448	-0.00306200034136248	0.000826784927349527	-0.00305702387257477	0.0008343924584204	-0.00646096825065067	0.00571003866619269
11.5	0.0259499626676557	0.0190465971460478	-0.00291249947237651	0.00124740999746575	-0.00291525105101701	0.00125776787395721	-0.00606695281462585	0.00524429137219779
11.6	0.0293736122887044	0.0143187072229792	-0.00271081768462667	0.00164018264182613	-0.00271078305734132	0.00164313932531987	-0.00564914198025789	0.00462366528213915
11.7	0.0317208238003795	0.00893909806737094	-0.00244220750592542	0.00199443560517565	-0.00244272386814726	0.00200308157362149	-0.00534686412837263	0.00378952073745412
11.8	0.0329587075111324	0.00337098782061764	-0.00214065821169208	0.00232380652871795	-0.00214477601698548	0.002325534735669	-0.00536469260864521	0.00302717541681369
11.9	0.0332799691766362	-0.00211690493438175	-0.00178705392242252	0.00259514712399045	-0.00180007442578348	0.00259953625998393	-0.00566804077926085	0.0028341558036179
12	0.0328692425797168	-0.00771246891249356	-0.0014119253107466	0.00281322104088715	-0.00141132161965694	0.0028146309941561	-0.00573339278257288	0.00288937971053873
