# GHZ S RI R 50
0.2	0.00562949090064974	0.00634822683543503	0.00304833076135463	-0.000893843148017089	0.00305868721384654	-0.000887023959664303	-0.0143351000800796	0.00995505016926368
0.3	0.00682568172215415	0.0013767787798848	0.00290602756596637	-0.00131435178111188	0.00289875501080273	-0.00130143410592409	-0.0126695452278235	0.00712204933441608
0.4	0.005666232644436	-0.00231024159038737	0.00267839025598265	-0.00168400525968235	0.00268368709645909	-0.00169254801739368	-0.0130665622044133	0.0056130580068139
0.5	0.00335320324856803	-0.00422924421451841	0.00242524161379191	-0.00204055723114832	0.00243684533939041	-0.00205275499017856	-0.0141623111192251	0.00567076209233778
0.6	0.00118449323918854	-0.00448566260950105	0.00211891357076781	-0.00235788716097894	0.00211816492980617	-0.00236505675902804	-0.0148647423267026	0.00700707394948588
0.7	-0.000143249157930193	-0.00387238986600808	0.00177699275287186	-0.00264169147290338	0.00177503034390328	-0.0026419029825206	-0.0146122116632419	0.00889001288689861
0.8	-0.000511154503620049	-0.00337714347075368	0.00139416328329404	-0.00286773402002171	0.00138151785483392	-0.00287238679052477	-0.0133765861808319	0.0104934548762443
0.9	-0.000687613337038367	-0.00351783458995908	0.000975924404692323	-0.00304135166937245	0.000977027057224173	-0.00305212882179055	-0.0117754577537382	0.0111878379795267
1	-0.00138642911187504	-0.00421865618425653	0.000545690290867586	-0.00315439796857868	0.000535736176189522	-0.00315518858175757	-0.0105567770290019	0.0110890982644353
1.1	-0.00308104676425635	-0.00480939072343039	8.04381266763461E-05	-0.00319042863800985	7.69387458678777E-05	-0.00320828643208662	-0.0102499935429079	0.0108810362695387
1.2	-0.00540823671385228	-0.00474848697459427	-0.000373833588165166	-0.00318327252591557	-0.000374656330796355	-0.00318117111982585	-0.0101939998753472	0.0112306624225942
1.3	-0.00761587429166884	-0.00395872505467596	-0.000813905035231951	-0.00309853057013571	-0.000817189795186605	-0.00310055486332682	-0.00938628525689885	0.0120836569679639
1.4	-0.00902406577779065	-0.00289132113445526	-0.00124706213569051	-0.0029437377117485	-0.00124585844558069	-0.00294934437392444	-0.00790566462473323	0.0123962653452333
1.5	-0.00952954359913884	-0.0012901256754328	-0.00165668219589162	-0.00273729678555019	-0.0016551088871855	-0.00274590431627821	-0.00650843995544657	0.0123937952284839
1.6	-0.00918629236544849	0.000835570269883968	-0.00202123052438661	-0.00247182220851723	-0.00202148873671943	-0.00247710563708717	-0.0057567593724157	0.0128165645466454
1.7	-0.00791550359118101	0.00271706093796083	-0.00234849148671379	-0.00216155775780101	-0.00234940178925888	-0.00215523863479274	-0.00453455106102039	0.0133680098023277
1.8	-0.00622750717678475	0.00400322906951445	-0.00261325970591608	-0.00179861495162435	-0.00262434402640869	-0.00180416404248796	-0.00315428055319521	0.013419722103754
1.9	-0.00468707587193459	0.00455787014824169	-0.00282902036600611	-0.00142023218650105	-0.00284143052326448	-0.00141392877865671	-0.00215033355285482	0.0131064340084443
2	-0.00347290784661688	0.0048773415585753	-0.00299348771875893	-0.00100962164025258	-0.00300306968229527	-0.00100481533166093	-0.00160239325629869	0.0128923476535611
2.1	-0.00231942690121882	0.00519952553845578	-0.00309650370199917	-0.000583195390724954	-0.00309244158943542	-0.000585219280685878	-0.0010821874957369	0.0129434726465809
2.2	-0.000912498855600036	0.00551802670090571	-0.00314629513536158	-0.000150757561127466	-0.00315759225279599	-0.000153513918902231	-0.000189897676604721	0.0131722813126997
2.3	0.000824040821576136	0.00529416344628425	-0.00313830708570394	0.000284826861099799	-0.00313803537567664	0.000277960130427965	0.00101836016718589	0.0131001362340573
2.4	0.00245872819581893	0.00438109738807146	-0.00306710744605298	0.000715722588180263	-0.00306965312070677	0.000711479743985885	0.00227170605685299	0.01261971640458
2.5	0.00354290447643638	0.00288284125307656	-0.00293501521173315	0.00112318702502615	-0.00294589256189654	0.00112956827773436	0.00325249265192344	0.01175441765672
2.6	0.00405080770780975	0.00134366953206999	-0.00276786817593491	0.00152556269150757	-0.00276430002019639	0.00151322806611124	0.00387532135802399	0.0108708388136322
2.7	0.00435891243763297	-2.74656747931989E-05	-0.00252816483334741	0.0019008648691681	-0.00253346292488969	0.00190087097408023	0.00425604552552731	0.0101700206713798
2.8	0.00470883638630043	-0.00149523408156785	-0.00224862590553292	0.00223609478520861	-0.00224077092406443	0.00224594455382474	0.00463828566302392	0.00970534255947788
2.9	0.00487570481140514	-0.003284902665259	-0.00191301529579686	0.00254616177350309	-0.0019092770490807	0.00254572788390209	0.0052325792258347	0.00934461097807321
3	0.00451046667073121	-0.00517018096011592	-0.00151998502788199	0.00279095012633533	-0.00153489034467685	0.00279715434152216	0.0059068171246806	0.00899840445337933
3.1	0.0037722791878359	-0.00681976016109953	-0.00111837463272946	0.00297462096572973	-0.00111361906099301	0.0029830263792065	0.00652450549008755	0.00867290599917903
3.2	0.00272476316823254	-0.00831640377186867	-0.000682988712406107	0.00311342540522113	-0.000684757799829018	0.00311282361200505	0.00710616188724657	0.00846563681971253
3.3	0.00142804053795259	-0.00984702212362703	-0.00022874435399737	0.0031784440923414	-0.000227124041889732	0.00317464551119762	0.00796933986916856	0.00806164608908716
3.4	-0.000399697653073675	-0.0112155077223116	0.000231893171688891	0.00316087449053577	0.000225886079416249	0.0031776759073689	0.00883594966170152	0.00722477628390435
3.5	-0.00275096079654174	-0.0122600862079271	0.000663138696506153	0.0031015510082413	0.000668769780071795	0.00310152746636966	0.00927975618469207	0.00601216588257522
3.6	-0.00539072269528453	-0.0125444806868605	0.00109428285949738	0.0029620744663845	0.00110249139952635	0.00296159492637417	0.00940496813075797	0.00512007348071023
3.7	-0.00792506486335558	-0.0121421437585256	0.00149964083711577	0.00276034647645947	0.00149034632364706	0.00277420676182405	0.00962771606132495	0.00439178631771208
3.8	-0.0101800393697057	-0.011302267820185	0.00186512481511448	0.00251533990581502	0.00186770515173411	0.00252439485265797	0.00993796889134646	0.00361939591046462
3.9	-0.0121744160074461	-0.0102446157199849	0.00219238752567039	0.00222999797008096	0.00218515196292577	0.00222837503765352	0.0101753144053832	0.00269230539926544
4	-0.0141245830707745	-0.00890455886785076	0.00245544102951931	0.00190473347399573	0.00245979358588107	0.0019022528606621	0.0102552664156652	0.00180326381720313
4.1	-0.0158971308808098	-0.0070916708260374	0.00268593222382749	0.00154889983971029	0.00268470861882056	0.00154964218850383	0.0103303978667626	0.00107548166322764
4.2	-0.0172562180009349	-0.00483556386454837	0.00286736593009269	0.00115943360914208	0.00287166815108506	0.00115081571162114	0.0104792747925004	0.000421172842929433
4.3	-0.0180631507453182	-0.00251991659839289	0.00299917605673645	0.000764057420319561	0.00300543965552387	0.00075634578385171	0.0107400873721959	-0.000436041465699812
4.4	-0.0186537994352702	-0.000184171473326147	0.00307216349467657	0.000348581298034734	0.00307449323853312	0.000346355059887121	0.0108150085846465	-0.00142978935298233
4.5	-0.0190577789841926	0.00231028374870014	0.00309897087617041	-7.25808133694782E-05	0.00310425523497982	-7.59026314804172E-05	0.0107190448984452	-0.00245340660022113
4.6	-0.0191687506899703	0.0050765476161669	0.00306473583219365	-0.00050313138870411	0.00306591374875612	-0.000490368965708637	0.0104173518574053	-0.00341928835449104
4.7	-0.0185933242526462	0.00805308176092703	0.00297207794698477	-0.000916204963393075	0.0029872662587221	-0.00092567364494438	0.00996032208656752	-0.00428757529132591
4.8	-0.0172786633330393	0.0108924663815579	0.00282313717570796	-0.00133096743665748	0.00283159196470953	-0.00133698518487193	0.00959002582622548	-0.00499131295705373
4.9	-0.0152749424523337	0.0132872534632083	0.00261118143350332	-0.00172114348229854	0.0026153257706011	-0.00171823344876632	0.00924614948834218	-0.00564501247543823
5	-0.0128957638673452	0.0151407605241677	0.00235493743962194	-0.00208524992606101	0.00235855301525042	-0.00208258231458808	0.00908779471875637	-0.00625794164066844
5.1	-0.0100021984331396	0.0165917508108957	0.00204164124969759	-0.00240486225505204	0.00204394529021678	-0.00240350609572006	0.00898629677520457	-0.00695055656462673
5.2	-0.00678099612910628	0.0173749005031196	0.00167635080384274	-0.0026608221920518	0.00167804483122187	-0.00266597846808553	0.00888332422628102	-0.00761766543643531
5.3	-0.00341028476056453	0.0173371840841167	0.00127860379217215	-0.00287716266759139	0.00128175316964198	-0.00287512140635541	0.00882539745504194	-0.00826328008962512
5.4	-0.000335446144214874	0.0165230750799115	0.000842320086152236	-0.00301903899420491	0.000859353411060574	-0.00303040879377574	0.00874176712331494	-0.00919836429911947
5.5	0.00219248827019747	0.0152642790022147	0.000419775180380823	-0.00310528356591709	0.000429673299433832	-0.00311480116399718	0.00825739691965817	-0.0103031059918227
5.6	0.00427992743900815	0.0137990406489944	-2.22002721038208E-05	-0.00312483960868104	-3.07090443968023E-05	-0.00312791664134035	0.00729753013987176	-0.0111240792546238
5.7	0.00607437972299645	0.012173068581899	-0.00044924502835582	-0.00307587616041258	-0.000465723637039516	-0.00307925833682131	0.00625599763473332	-0.0114943497534476
5.8	0.00762187251736597	0.0102537743902711	-0.000882578921755465	-0.00296368101842005	-0.000886247934945468	-0.00297740725228244	0.0053432597893558	-0.0117644510069341
5.9	0.0087163758864608	0.00799174587213061	-0.00126811879496451	-0.00281165800923533	-0.00127618907151071	-0.00281148499221214	0.00444750971761509	-0.0120263873872787
6	0.00912587508841968	0.00546084028650189	-0.00164178634784805	-0.00260146122735717	-0.00163830729074153	-0.00260165245148872	0.00342432329252887	-0.0122053704750166
6.1	0.00887509622244933	0.00301362169097522	-0.00197159481789327	-0.00235287026621576	-0.00197317841172308	-0.00234896013077254	0.00253356883168655	-0.0121554197373906
6.2	0.00818714333924636	0.000753073860351576	-0.00226252431133746	-0.00205555525396643	-0.0022661225522048	-0.0020671209908599	0.00189481378878686	-0.0121128102923143
6.3	0.00730058364421106	-0.00141873190197701	-0.00252537598381832	-0.00174402621217881	-0.00253430558866808	-0.0017384918085734	0.00149178945118715	-0.0122811782199505
6.4	0.0058279001634398	-0.00357111474425819	-0.00274675457799798	-0.00138080479883226	-0.00273720826250731	-0.00138548349982058	0.00107064255978376	-0.0127007830912901
6.5	0.0038419318946974	-0.00529825133486869	-0.00290918376059791	-0.0010021968274281	-0.00291694854767947	-0.000997926728629811	0.000511650318483322	-0.0132826358773851
6.6	0.00164033787735873	-0.00629309017601411	-0.00303219342931621	-0.000598948900700836	-0.00303372777189695	-0.000602888150862774	-0.000217211613408855	-0.0137815325062978
6.7	-0.000456859873002529	-0.00671419734885507	-0.00310385817034703	-0.000175056597357189	-0.00311272656457622	-0.000169028616064926	-0.00118889236754666	-0.0140337786687585
6.8	-0.0025261918733149	-0.00678175232090945	-0.00310579596068176	0.000262145532720185	-0.00311690449387627	0.000266934396484786	-0.00216769427797957	-0.0139955393116996
6.9	-0.00474517533284954	-0.00637955857729128	-0.00305196214354153	0.000700152156342712	-0.00305498411979234	0.000702478503596312	-0.00310491878144525	-0.0137764996419044
7	-0.00693442843060116	-0.00544688761968579	-0.00293168646318566	0.00113265347107868	-0.00294448272820662	0.00113024322827988	-0.00394533356100186	-0.0136591038147117
7.1	-0.00896899423099383	-0.00382889333711469	-0.00276293478648284	0.00153691632513453	-0.00275937799760328	0.00154565724927187	-0.00496364942877675	-0.0133368120402151
7.2	-0.0104847837814101	-0.00162407250789212	-0.00250767951719156	0.0019210888679579	-0.00251425889271921	0.00192311137822989	-0.00583656049166546	-0.0126957563394576
7.3	-0.0113998943347825	0.000791202731248699	-0.00220649883460941	0.00225313653741713	-0.00221779645187926	0.00225814176375827	-0.00631961427563418	-0.012014863087776
7.4	-0.0117074995324956	0.00336249261421795	-0.00185471301484399	0.0025436953718752	-0.00186166174765644	0.0025573330474014	-0.00682700603440484	-0.011328461964134
7.5	-0.0116953358943953	0.00560935304354754	-0.00147754120308962	0.00278329105117316	-0.00147053906550022	0.00279069872158574	-0.00694913120890689	-0.0111262297499957
7.6	-0.011591081510826	0.00762986034845915	-0.00106184613380466	0.00295521006298556	-0.001063227265573	0.0029505230117131	-0.00706903431870148	-0.0117960622931662
7.7	-0.010531795374031	0.00970855746645854	-0.000629479993467791	0.00306483103450169	-0.000630815771993973	0.003063778364527	-0.0075001454662372	-0.0120328203023125
7.8	-0.00904382768068056	0.0114075799581878	-0.000207182426783852	0.00310041775566628	-0.000214905648167184	0.00310683046858625	-0.0082393911774533	-0.0124317750789594
7.9	0.28332907304942	-0.102562742271441	0.000857415583578475	0.00256274009554868	0.000848587956948493	0.00247288589523356	0.430670076733043	0.242029829451687
8	0.346660679297826	0.177900211394601	0.00125460432937006	0.00420998208867005	0.000546121302610037	0.00599218238785611	2.68817648766779	1.71366745070572
8.1	-0.00262313252784508	0.013884159061292	0.00103549597811656	0.00290342629085594	0.00105429690816909	0.00290464857991135	-0.0110872434537225	-0.01209061173349
8.2	-0.000110337746386812	0.0140703130404793	0.00141998832050246	0.00273587557883147	0.00142916427151616	0.00272893192812874	-0.0119505743478258	-0.011435669917977
8.3	0.00248529893559091	0.0135932933153694	0.00178226016409702	0.00251930605096858	0.00178039460412355	0.00253260128462664	-0.0125489348848876	-0.0107298277172994
8.4	0.00481922100122759	0.0125500037782639	0.00211345180922171	0.00226957652398453	0.00211046792157049	0.00226928494395299	-0.0130602413402974	-0.0101929640268401
8.5	0.00677225179366871	0.0110815043804242	0.0024065823494043	0.00196789469206014	0.00240560789827812	0.00197102458328268	-0.0137388333337613	-0.00970737412922986
8.6	0.00838221657232302	0.00944191745795508	0.00267095358971161	0.00163259536746984	0.00268060751729562	0.00162635930116916	-0.014523574428573	-0.00912676587002774
8.7	0.00980049077691405	0.00750941089644082	0.00288391968586662	0.00124639098897818	0.00288946807894921	0.00124728371642765	-0.0153343126303598	-0.00835649188212611
8.8	0.0109712076148752	0.0051592544382908	0.00305173494595264	0.000841113254703696	0.00305780719592394	0.000832456131645989	-0.0160676519805405	-0.00752990148784829
8.9	0.011714768718609	0.00226460909031394	0.0031603183585806	0.000400790808486771	0.00315949735302632	0.000398490359373741	-0.0164748090220237	-0.00649990277590716
9	0.0116822466848555	-0.00101640342389015	0.00319625382052005	-5.9698445072102E-05	0.00319936899863784	-5.54496449343852E-05	-0.0165383243114708	-0.00547982773119545
9.1	0.0110301170428155	-0.00438804453523305	0.00316770147756706	-0.000525936196311292	0.00317039809163633	-0.000512712644927798	-0.0163123507291548	-0.00457362117425187
9.2	0.00937911072763826	-0.00759769353000179	0.0030648996201927	-0.000971702759727528	0.00307277374878759	-0.000974537072926832	-0.0160781161321601	-0.00386934340082074
9.3	0.00696687580074035	-0.0104314902385926	0.00289225584394827	-0.00140436924903629	0.00289155214748254	-0.00140948314771869	-0.0157212262388288	-0.00318827823948573
9.4	0.00373385068500436	-0.0125179086537175	0.0026565355273567	-0.00181716660379297	0.00266316388116032	-0.00180937378527698	-0.0153254109978164	-0.00252285398734989
9.5	-0.000113455093817034	-0.0138722370690105	0.00236189302230652	-0.00216528425909677	0.00236945257055275	-0.00216666250513155	-0.0151791525203532	-0.00229749002644326
9.6	-0.00412606070497684	-0.0139605002880161	0.00202353286262268	-0.00247328257687717	0.00202387187690758	-0.00247228563725404	-0.0152936941686101	-0.00187450956155161
9.7	-0.00794925532003215	-0.0130276434619921	0.00163738586520688	-0.00271871714332173	0.00164294666315281	-0.00272614412274953	-0.0154607527869349	-0.00118723431358403
9.8	-0.0114206689639627	-0.0113901195865771	0.00123995337984521	-0.0029157267100526	0.00124574585023039	-0.00290719737954887	-0.0155145392523254	-0.000338147165985532
9.9	-0.0144955345168906	-0.0091787283762807	0.000830991114910064	-0.00304001591605689	0.000823640883960866	-0.00303875153732266	-0.0154387118546015	0.000505587093583002
10	-0.0173140285987856	-0.00628135137427836	0.000406138036630692	-0.00311598968354611	0.000398627660509653	-0.00312841809604521	-0.0153185611901433	0.00136502752495756
10.1	-0.019486114270846	-0.00268573171188321	-2.36643030650228E-05	-0.00314027392715906	-3.3884604831334E-05	-0.00313491661340619	-0.0150636635443226	0.00212785434277054
10.2	-0.0207668309347878	0.00134635587958511	-0.00045436491455441	-0.00310534575797546	-0.00045778150897483	-0.00310259821354075	-0.0146825554406698	0.00289490139365621
10.3	-0.0211632613897067	0.00549938427274257	-0.000873663723615842	-0.00301125237489598	-0.000865479052197004	-0.00302021741865116	-0.0141080976453886	0.00357804869673622
10.4	-0.020872979749573	0.0095129196274212	-0.00126459813032788	-0.00287556883562363	-0.0012628017165393	-0.00288174754308134	-0.0132698654039685	0.00384023861982502
10.5	-0.0198918486502736	0.0137528061553008	-0.00165980130418816	-0.00269962634684879	-0.00165692339237884	-0.00268648797559061	-0.0126077115649133	0.00395173844867428
10.6	-0.0180988221350741	0.01794268940389	-0.00202763585356349	-0.00245045261274089	-0.00202534669621066	-0.00245427540115338	-0.0121939454519067	0.00385293218740015
10.7	-0.0153226728913991	0.0219714346494534	-0.00236726992619	-0.00216265089333654	-0.00236381926561319	-0.00215720838616479	-0.0119417975449197	0.0039352945942796
10.8	-0.0115624849383044	0.0254265409850939	-0.0026669418437646	-0.00180580496623326	-0.00266146412746469	-0.00181484532645095	-0.0117199770158847	0.0041070566043606
10.9	-0.00720113741758014	0.0282435933199968	-0.00290587216611519	-0.00142274193522139	-0.00291121625018353	-0.00142206273800257	-0.0116415599140559	0.00425726840330057
11	-0.00208034178342625	0.0301588091210225	-0.00309179966520131	-0.000985023615972964	-0.0030967395201041	-0.000992022868468292	-0.0114268667335805	0.00452995127231124
11.1	0.00353485993090233	0.0311222895988616	-0.00321815088581557	-0.000529700390622591	-0.00320692489105193	-0.000526711929079892	-0.0111703622427705	0.00478397683107479
11.2	2.68489073315427	2.66370878988915	0.00923122358888885	0.00400491364975696	0.0167614015594704	0.0217986597109243	-0.722406912069025	-0.894401643905395
11.3	0.689454417176604	0.382742231025673	-0.00962331511676965	-0.0135869867861067	-0.0106120621895883	-0.0109406562737776	0.407936725469727	2.9875811187181
11.4	0.021015721918892	0.0257032619410159	-0.00312416241077567	0.000886846950397049	-0.00311896699694974	0.000894570426432267	-0.00913703254429589	0.00531015890628933
11.5	0.0257765895015185	0.0215610859467153	-0.00295105871217482	0.00132346767415293	-0.0029536881452202	0.00133408685065392	-0.0085129101039889	0.00534466651937161
11.6	0.0294191935827272	0.0163676969221311	-0.0027219984041722	0.00172235570127411	-0.00272190300077153	0.00172536030253333	-0.0078340636140917	0.00486662803963765
11.7	0.0320101281479866	0.0106036293896529	-0.00242630443237038	0.00207172011818042	-0.0024266350626754	0.00208047780508539	-0.00724638215027239	0.00428541564763152
11.8	0.033537757402525	0.00443522042189592	-0.00210219930796849	0.00238716280153285	-0.00210630493282914	0.00238899505536634	-0.00664290425384106	0.0037977976692504
11.9	0.0336693316764227	-0.00173719848089378	-0.00173451611118666	0.00263761508170475	-0.00174746419542328	0.00264228976971699	-0.00641983672356715	0.00359485870873693
12	0.032593658934175	-0.00816530047472269	-0.00135530309068559	0.00283266065769307	-0.00135467436425423	0.00283405563828976	-0.00599036471599211	0.00272934193963474
12.1	0.0304198276103939	-0.0139042848004224	-0.000951504374200525	0.00298762612677923	-0.00095507616479454	0.00298684428632753	-0.00575457642037907	0.00215275181569518
