# GHZ S RI R 50
0.2	0.00558257916590438	0.00559013034932926	0.00304821281606193	-0.000894732151647947	0.00305857161759069	-0.000887915558664799	-0.0143779844040328	0.00920709485861026
0.3	0.0066910748735784	0.0010974137975017	0.00290547307441953	-0.0013157933042458	0.00289820656176653	-0.00130287175338954	-0.0127978171869368	0.00685442674029796
0.4	0.00571016582522288	-0.00231060931513448	0.00267701629357096	-0.00168580857938015	0.00268230669682283	-0.001694354568428	-0.0130162328671723	0.00562637945671754
0.5	0.00363866954378361	-0.00420400403968815	0.00242275084323321	-0.00204232653551304	0.00243434037988712	-0.00205453217089102	-0.013870550093718	0.00571480345583957
0.6	0.0015983635434273	-0.00461635591886613	0.0021152429529399	-0.0023590566131816	0.00211448674340845	-0.00236622180023531	-0.014440445619392	0.00690287738150676
0.7	0.000219031882206188	-0.00418613796571957	0.00177234074471005	-0.0026416765155567	0.0017703796879516	-0.00264188547777502	-0.0142286668192049	0.00860789251937929
0.8	-0.000319868607278623	-0.0037646150682037	0.00138902366960444	-0.00286606278169072	0.00137638743497709	-0.00287069464690649	-0.0131496292905384	0.01013379277849
0.9	-0.000657701934537243	-0.00382937845472935	0.000970986471224519	-0.00303776943197278	0.000972075254136715	-0.00304853123029758	-0.0117008363509919	0.010889333475421
1	-0.00140200847871486	-0.00436965736459304	0.000541713127388338	-0.00314898331375347	0.000531776971018263	-0.00314976312602132	-0.0105333254508331	0.0109316490209368
1.1	-0.00300600272747246	-0.0048304035537675	7.81824863786029E-05	-0.00318359456701935	7.46790053489887E-05	-0.0032014115312861	-0.0101587217785378	0.0108431095343304
1.2	-0.0051783477183806	-0.00474577388034456	-0.000373919379234388	-0.00317565658200565	-0.000374739544551942	-0.00317355987866182	-0.00997991008297327	0.0112210126143
1.3	-0.00728322524950364	-0.00403127511533878	-0.00081164002145733	-0.00309098016679349	-0.000814916531659098	-0.00309299976139619	-0.00909294904323884	0.0120208070000365
1.4	-0.00867883173493098	-0.00304644780442317	-0.00124256997698708	-0.00293710996622091	-0.00124136652430481	-0.00294270226889337	-0.00760324799399801	0.0122624346665784
1.5	-0.00922791352541555	-0.00152686467159055	-0.00165042455426888	-0.00273229517202554	-0.00164884750774417	-0.00274088111608416	-0.00625204089169663	0.0121880407917565
1.6	-0.0089675294144679	0.000528233893555762	-0.00201394914362163	-0.00246892028978879	-0.00201420051402604	-0.00247419268154495	-0.00556247369738903	0.012551348901909
1.7	-0.0078149485658785	0.00239892260339209	-0.00234099726668267	-0.00216088834237707	-0.00234191494000472	-0.00215458234062702	-0.00444377344766148	0.013097097763509
1.8	-0.00622626615302197	0.00374941973387174	-0.00260638213077865	-0.00179996114679678	-0.00261744056298587	-0.00180551916154805	-0.00314821847170315	0.0132097866550612
1.9	-0.00469999977870468	0.00439143832621596	-0.00282331645978104	-0.00142305866329234	-0.00283572172976852	-0.0014167828169971	-0.00215796918654891	0.0129733427120415
2	-0.00344400141541482	0.00475630098508146	-0.00298925144177672	-0.0010132509739854	-0.00299883204001865	-0.00100846354488791	-0.00157646311381216	0.012802512606472
2.1	-0.00225559706996682	0.00506112341864981	-0.00309365747935732	-0.000586905609832264	-0.00308959540710641	-0.00058892276470002	-0.00102539620070614	0.01284539949933
2.2	-0.000871719943250306	0.00534286466111305	-0.00314442155411247	-0.000154004867097569	-0.00315570960028634	-0.000156771677944724	-0.000146148186851341	0.0130463572903791
2.3	0.000799478373750371	0.00513003450800328	-0.00313679090851129	0.000282270160556343	-0.00313651409878253	0.000275407431542344	0.00101391520207173	0.0129787452942987
2.4	0.00239760385502546	0.00428971927391015	-0.00306532545387605	0.000713703570006405	-0.00306786725180622	0.000709462419794811	0.00223563555834426	0.0125524114523232
2.5	0.00351430050532304	0.00287219292561587	-0.00293252617597939	0.00112122509731229	-0.0029433949671948	0.0011275969427697	0.00323587297391319	0.0117471207916054
2.6	0.00409219209376983	0.00135928362967202	-0.002764560304992	0.00152294816443718	-0.00276099414003314	0.00151063055335709	0.0039063191664731	0.0108861820600997
2.7	0.00444559292585586	-3.02427998508146E-05	-0.00252436754953413	0.00189691390013223	-0.00252965658196285	0.00189691852747472	0.00431801287991806	0.0101748547455872
2.8	0.00481158927385771	-0.00151052516590141	-0.00224497661047673	0.00223032616408316	-0.0022371428263896	0.00224015901943284	0.00470849213214762	0.00970140104007556
2.9	0.00500522008700082	-0.00329696179119815	-0.00191042889789223	0.00253840191958112	-0.00190669940360575	0.00253797213102222	0.00531480999488154	0.00933943223020667
3	0.00467962980648549	-0.0052107042634592	-0.00151942796166815	0.00278154282644841	-0.00153430110969849	0.00278771158501008	0.00600369863903771	0.00897580236443433
3.1	0.00395254311654619	-0.0069276854405627	-0.00112056604550427	0.00296424381273837	-0.00111583893972578	0.00297263410925556	0.00662090709913538	0.00861202926637756
3.2	0.00286867146791145	-0.00847838742699932	-0.000688460465271399	0.00310306775620055	-0.000690223160197648	0.0031024634535776	0.0071701996534258	0.00837396629959304
3.3	0.00152552453877971	-0.0100157396926631	-0.000237548366787657	0.00316933352653214	-0.000235921106738447	0.00316554982158775	0.00799183194406463	0.00797523541485062
3.4	-0.000320546136626774	-0.0113660514575628	0.00022021857283923	0.00315425310772289	0.000214166460739092	0.0031709938391993	0.00883625990629405	0.00716522389982837
3.5	-0.00265281129381721	-0.0124048349686973	0.000649424453834798	0.00309827860979004	0.000655044859392852	0.00309827770887589	0.00928356841776132	0.00598272732884136
3.6	-0.00529986664258446	-0.0127231831951008	0.00107977828424796	0.00296287767656	0.00108797782517875	0.00296243487723839	0.00940704417237757	0.00508726297419958
3.7	-0.0078734307510773	-0.0123512013010068	0.001485778841867	0.00276535847938972	0.00147642657868575	0.00277916588134298	0.00961415200178192	0.00436304800467165
3.8	-0.010185950272815	-0.0114991772765244	0.00185325640134084	0.00252411151325956	0.00185579404354143	0.00253317855410268	0.00990452379996996	0.00361544381692978
3.9	-0.0122047681066735	-0.0103934015051097	0.00218362055445379	0.00224161767550411	0.00217638751305881	0.00223996031964104	0.0101450804540833	0.00272739376810562
4	-0.0141361030075414	-0.00902127495109448	0.0024504467452141	0.00191782765115949	0.00245481571779996	0.00191536255988451	0.0102547163083889	0.00186226300082971
4.1	-0.015891879084507	-0.00721645419266505	0.00268480728671168	0.00156211303548966	0.00268357858624181	0.00156285199236376	0.0103584714738788	0.00112966298200064
4.2	-0.0172707661522862	-0.00497170959598794	0.00286964806455515	0.00117147238194617	0.00287398822032332	0.00116285034941451	0.0105127671922082	0.000461678187727707
4.3	-0.0181129619999344	-0.00262149416802394	0.0030038896950025	0.000774058819069517	0.00301018878424274	0.000766346908575034	0.0107646077964153	-0.000383642436202461
4.4	-0.0186911350180274	-0.000231375846504497	0.00307817580542494	0.00035617171202144	0.00308051563792442	0.000353945728476102	0.0108502637355524	-0.00135850375448877
4.5	-0.0190401953615503	0.0022866960131101	0.0031052381820725	-6.71750484656449E-05	0.00311053895481835	-7.04939822319005E-05	0.0107840705674005	-0.00237708034522726
4.6	-0.0191050436509153	0.00501868698458877	0.00307052915312235	-0.0004993124635115	0.00307168966090929	-0.000486527305667727	0.0105009038093699	-0.00337439296108276
4.7	-0.0185226886176948	0.00795044541938687	0.00297710809287328	-0.000913151061858684	0.0029923288824623	-0.000922610150411378	0.0100428741445954	-0.00426600226596598
4.8	-0.0172391494211169	0.0107676110499822	0.00282761978681929	-0.00132794991063069	0.00283609102150642	-0.00133396042363393	0.00964418150495424	-0.00497753294771616
4.9	-0.015242672649856	0.0131669198405578	0.00261565568178216	-0.00171768488017386	0.00261979746874469	-0.00171476605189658	0.00929549593936914	-0.00562001614031805
5	-0.0128553032427675	0.0150067249743829	0.00236014921712946	-0.00208123272876191	0.00236376073583319	-0.00207855663817908	0.00914485172684069	-0.00622867098365928
5.1	-0.00998211734170373	0.0164248289167278	0.00204829548678863	-0.00240062031690084	0.00205059694990326	-0.0023992579863104	0.0090428466689997	-0.00692775150464625
5.2	-0.00681900724728545	0.0172038525968777	0.001684906550805	-0.00265706815425571	0.00168661647366331	-0.00266222172280856	0.00892570552893859	-0.00759239375610921
5.3	-0.00349482779104863	0.0172136785743385	0.00128925653093199	-0.00287484003449506	0.00129240118975553	-0.00287278666352599	0.00886050882161333	-0.00821910697541565
5.4	-0.000413910665994892	0.0164601038461597	0.000854716128434371	-0.00301921255949283	0.000871811608712177	-0.00303053041614615	0.00879256100051427	-0.00913649497204591
5.5	0.00215269290115694	0.01522436160368	0.000433222851264382	-0.00310876613188571	0.00044317662230817	-0.00311825906244331	0.00833411205410378	-0.0102466514815214
5.6	0.00426144610571172	0.0137411019748021	-8.88693401415633E-06	-0.00313229874890789	-1.74025974061453E-05	-0.00313541942706517	0.00738498007477368	-0.0110939112428504
5.7	0.00603107571138456	0.0121016699032533	-0.000437496152891213	-0.00308739803258216	-0.000454011737381671	-0.00309086122179845	0.00631969470860756	-0.0114849133490299
5.8	0.00754118821227927	0.010210750269701	-0.000873983911294131	-0.00297888428146727	-0.000877611476330606	-0.00299267922635265	0.00538518177855935	-0.0117557051689611
5.9	0.00863580647273933	0.00801987344205504	-0.00126383339479736	-0.00282943774119071	-0.00127194209715493	-0.00282929326133777	0.00447718165468994	-0.0120004661237451
6	0.00910648123263082	0.00554486483422149	-0.00164277092865419	-0.00262026783520884	-0.00163927271810979	-0.00262044967075161	0.00345963386907126	-0.0121642203092344
6.1	0.00893241574336524	0.00309039357936374	-0.00197795236090257	-0.00237084178890505	-0.00197955366293659	-0.00236691234709866	0.00257816616721252	-0.0121175336434421
6.2	0.00827745116227199	0.00078424753369503	-0.0022736642091704	-0.00207082617448881	-0.00227726982081653	-0.00208246644697282	0.00193246789303583	-0.0120892606365195
6.3	0.00738119532171317	-0.00141608328155599	-0.00254008430736228	-0.00175531196288439	-0.00254906945943922	-0.00174974687065918	0.00150405823832134	-0.0122653130204216
6.4	0.00593581084744194	-0.00358390935121675	-0.00276335389419845	-0.00138720162249038	-0.00275375525281491	-0.00139191267038636	0.00108176844586671	-0.012681031911787
6.5	0.00398236850836434	-0.00537068839169961	-0.00292583637802523	-0.00100376544628294	-0.00293363671713067	-0.000999462844066497	0.000529266643880679	-0.0132729295687323
6.6	0.00175145975603049	-0.00644573371158956	-0.00304745037434123	-0.000596318615131638	-0.0030489989512549	-0.000600273543565142	-0.000213241257714916	-0.0137881113743574
6.7	-0.000428785094198673	-0.00689122096518944	-0.0031167090368421	-0.000169301432054785	-0.00312560056312122	-0.000163230744793528	-0.00121767109775556	-0.0140352127476936
6.8	-0.00255717171937181	-0.00691216457949993	-0.00311576207097619	0.000269747371040516	-0.00312689792605249	0.000274576485135851	-0.00221849620269667	-0.0139659510775866
6.9	-0.00476353491561862	-0.00647482942118865	-0.00305918792043268	0.00070843983321816	-0.00306221368121257	0.000710779026356773	-0.00313196325988007	-0.0137333375390922
7	-0.00691936101708611	-0.00553471533629847	-0.00293668809827424	0.00114074771482906	-0.00294951964388887	0.00113835505929297	-0.00396250729415901	-0.0136071824057848
7.1	-0.00894870169013472	-0.00395851101898173	-0.00276651906244093	0.00154434891548385	-0.00276294154475095	0.00155310314151304	-0.00498187068867086	-0.0132916248473974
7.2	-0.0105196169115853	-0.00179004722181675	-0.00251055951238154	0.00192780917378257	-0.00251714986737655	0.00192984322769004	-0.00587532551305968	-0.0126525528211733
7.3	-0.0115229017399711	0.000655750536957509	-0.00220933139667521	0.0022594918918415	-0.0022206485349984	0.00226451615031458	-0.00639001481553385	-0.0119520711336563
7.4	-0.0119024339816601	0.00327939111122509	-0.0018577898209299	0.00255033702068034	-0.00186474821927086	0.00256400894698071	-0.00686323118001991	-0.0112740068889297
7.5	-0.0118830887549744	0.00564285613965818	-0.00148079183773156	0.00279098567588157	-0.00147376947932173	0.0027984112687961	-0.00698303258655159	-0.0110478268928433
7.6	-0.0116712981499849	0.00776080538156116	-0.00106470024253809	0.00296460537145701	-0.00106608642054305	0.00295990389824361	-0.00710633532084352	-0.0116146897517822
7.7	-0.010588614479465	0.00986354010018881	-0.000630981974280982	0.00307628018994408	-0.000632322949825437	0.00307522400033749	-0.00752313580484747	-0.0119101803179241
7.8	-0.00903069922490601	0.0115799672400505	-0.000206227889935757	0.00311375087979037	-0.000213980218470024	0.00312019549295547	-0.00825897001466878	-0.0123006186656519
7.9	0.285815827462959	-0.115850731943971	0.000865989770385669	0.0026174458780197	0.000857065736262666	0.00251809607699093	0.434206721497453	0.237129213893355
8	-0.0050446679548544	0.0135424058568482	0.000655294390478186	0.00303246914075099	0.000655366431190216	0.00303731634469619	-0.010293725528034	-0.0126416124413638
8.1	-0.00244138857818345	0.0138958081381927	0.00104940567953242	0.00291593611236169	0.00106831050231544	0.00291711064948959	-0.0111231679512436	-0.0120237612556241
8.2	4.04095395522807E-05	0.014008064533388	0.00143814624334531	0.00274457396111313	0.00144734279971104	0.0027375580281097	-0.0120215749887339	-0.0113632100823608
8.3	0.00259888278866895	0.0135171039677902	0.00180327065717493	0.00252255464430106	0.00180146197191436	0.00253592281577299	-0.0126452156149884	-0.0106287956906303
8.4	0.00494050686137041	0.0124772924696866	0.00213534089280918	0.0022664912298233	0.00213234312113577	0.00226621589553755	-0.0131601414647857	-0.0100574068072842
8.5	0.00692436186822801	0.010968419414886	0.00242701229243948	0.00195840927512291	0.00242605517951345	0.001961555399665	-0.0138280956211925	-0.00954811336222657
8.6	0.0085218698658232	0.00924226287078536	0.00268789605962329	0.00161750090741435	0.00269752703202324	0.00161118475785599	-0.0146046225197905	-0.00895668968873737
8.7	0.00986686664163934	0.00724846738706807	0.00289567113003583	0.00122725173354404	0.00290123148100423	0.00122810610851154	-0.0154092535113195	-0.00817554278646238
8.8	0.010932933331808	0.00490468473279701	0.00305752554425659	0.000819849814219914	0.00306353739579717	0.000811150602012761	-0.016143447368742	-0.00731900705836833
8.9	0.0116139146123812	0.0020760388639455	0.003159975662375	0.000379443764959208	0.00315914017482687	0.000377150947559844	-0.0165293944375688	-0.00625329318405926
9	0.0115775558929619	-0.0011409693112967	0.0031903692658396	-7.92296039970785E-05	0.00319350516597724	-7.50072749320297E-05	-0.0165558793728649	-0.00521219226445234
9.1	0.0108863059741931	-0.0044717738434782	0.00315741947382122	-0.000542260508774369	0.00316018306801158	-0.000529082655419819	-0.0163109776274927	-0.00431519157943543
9.2	0.00923755585267252	-0.00763064433108542	0.00305177756662024	-0.000983988107488203	0.00305961633552446	-0.000986853059052871	-0.0160586494497432	-0.00361064430667844
9.3	0.00685270855892455	-0.0103995692044743	0.00287781716209345	-0.0014123708782398	0.00287709406358093	-0.00141746672144869	-0.0156831506918325	-0.00292985429998729
9.4	0.00370972612900383	-0.0124834551598017	0.00264213807646443	-0.00182120878416922	0.00264877441644741	-0.00181346282270081	-0.0152619679902401	-0.00231996139335501
9.5	-5.33183073808263E-05	-0.0138214874561976	0.00234866307618187	-0.00216625130728577	0.0023561970064047	-0.00216764841380027	-0.0150865953807809	-0.00207073845928664
9.6	-0.00404369097106983	-0.0139873896735916	0.00201194123747376	-0.00247222600289837	0.00201228197641867	-0.00247123248903985	-0.0152071573869739	-0.00168325829386877
9.7	-0.0079116261218105	-0.0131097454201115	0.00162741109925833	-0.00271670765404574	0.00163294229431238	-0.00272413171726205	-0.0153979562742192	-0.00101610819581493
9.8	-0.0114449980164865	-0.0114625092312203	0.00123094273627558	-0.00291358651147958	0.00123674522651506	-0.00290508560349501	-0.015475257156783	-0.000166309878771272
9.9	-0.0145549658905339	-0.00918034618830295	0.000822038491681976	-0.00303806797464426	0.000814701407205181	-0.00303678635375471	-0.0154281097187822	0.000700705997144518
10	-0.0173345614758258	-0.00624802691199107	0.000396264551808696	-0.00311381886348698	0.000388724756802141	-0.00312621098523325	-0.0153015542222767	0.00157011504381813
10.1	-0.0194782715094188	-0.00266245196052202	-3.50829341437543E-05	-0.00313685218115633	-4.52728570926E-05	-0.00313146331302307	-0.0150438624935716	0.00233421004657415
10.2	-0.0207704331206797	0.00136917784910608	-0.00046722350763505	-0.00309926565844869	-0.000470623670195144	-0.00309650694189176	-0.0146652530261973	0.00310561095034845
10.3	-0.0211628526114557	0.005574020030808	-0.000886994761756801	-0.00300120050649059	-0.000878870209703424	-0.003010189300781	-0.0140857722805425	0.00380245830742661
10.4	-0.0207527983496201	0.00971782332304554	-0.00127681914926958	-0.00286079757068626	-0.00127506135405517	-0.00286696915735516	-0.0132426750822869	0.00414217177487454
10.5	-0.0196874393424147	0.0138565009548381	-0.00166884857508552	-0.00268002465054728	-0.00166590700887318	-0.0026669521839565	-0.0125322231217953	0.00418078475639375
10.6	-0.0179244811623763	0.0178879288865155	-0.00203140493406618	-0.00242712967698951	-0.0020291483411743	-0.00243094654744492	-0.012099004397855	0.00396423950334331
10.7	-0.015026004888947	0.021861527851807	-0.00236431998929779	-0.00213733601952446	-0.00236086170095044	-0.0021319441632452	-0.0118401454185575	0.00412641800753478
10.8	-0.0112822986264561	0.0252385980524855	-0.00265647880158663	-0.00178099099576077	-0.00265108068816193	-0.00178999295507635	-0.0116167686176822	0.00428929733358732
10.9	-0.0069118902209448	0.0279571605761287	-0.00288831190132488	-0.00140084485175461	-0.00289361152401576	-0.00140015125755895	-0.0115046307422735	0.00443346882956752
11	-0.00182858292217039	0.0297530991614733	-0.00306818596009243	-0.000968426137801687	-0.00307310254296807	-0.000975352829371812	-0.0112828963579345	0.00467682690687234
11.1	0.00367390889841141	0.0305878779935482	-0.00319033731433774	-0.000520047426184059	-0.00317920659133513	-0.000517102784346482	-0.0110393689758503	0.00489833270196868
11.2	0.00949029234830288	0.0302507086943601	-0.00322320865682453	-5.46049000583077E-05	-0.00323056667485491	-5.95368039800981E-05	-0.0106909339807635	0.00520611342322211
11.3	0.769049510782088	0.236766305363007	-0.0118424014579358	-0.0118912870234774	-0.0123541562619746	-0.00887027925267972	0.539789229678478	2.88050298997153
11.4	4.15444014079426	7.21016877941356	0.00402934600989892	-0.0265817386753366	0.00293855396613816	-0.0257632444492067	-0.580820436787854	0.582278052105863
11.5	10.0286887865315	-3.1123871210854	0.043598258033383	-0.0274233928378985	0.0428858578692451	-0.0281343496669328	-0.229446057045505	-2.33442772018006
11.6	0.0288248878750134	0.0161575384294786	-0.00270797667464394	0.00169918764102815	-0.00270789325744085	0.00170216999248761	-0.00778978159014066	0.00479445307909447
11.7	0.0314930639510008	0.0106386866117343	-0.00241907691215646	0.00204734443322932	-0.00241944333459798	0.0020560421495098	-0.00726795369946898	0.00441564690701322
11.8	0.0330500272286912	0.004632767418843	-0.00210121634385991	0.00236351051120774	-0.00210530679826562	0.0023653129419273	-0.00670996394754221	0.00391734100256894
11.9	0.0332523178313462	-0.00160962871853594	-0.00173848465554477	0.00261659133885386	-0.00175139165062815	0.00262118226396227	-0.00633196454311711	0.00328491183601175
12	0.0324759086704815	-0.00786165134980149	-0.00136248411505882	0.0028147779352836	-0.00136186430420835	0.00281616996888967	-0.00580971949233405	0.0028869353469934
12.1	0.0304240017863847	-0.0135824982505377	-0.000960271921621666	0.00297292701944411	-0.000963827592803667	0.0029721334100625	-0.00573993050660019	0.00237026155458567
