# GHZ S RI R 50
0.2	0.00508388100048141	0.00449504944816898	0.00304840711406918	-0.000895710432887065	0.00305876931866874	-0.000888895731023321	-0.0148457618779744	0.00815322100700646
0.3	0.00630239578468074	0.000794495499036998	0.00290524306298071	-0.00131768612496196	0.00289798261846697	-0.00130475811508188	-0.0131530862188944	0.00658044311934869
0.4	0.00576453384208387	-0.00236375362319797	0.00267567889182036	-0.00168842480202064	0.00268096182841763	-0.00169697639386942	-0.0129600134190411	0.00559722889234729
0.5	0.00402725234058462	-0.00447136573520586	0.00241974536519094	-0.00204508154335476	0.00243131741635504	-0.00205729995617779	-0.0135260741168693	0.00550648380098883
0.6	0.00196916687120586	-0.00526668702733205	0.00211038144020897	-0.00236103711181192	0.00210961447825113	-0.00236819711472143	-0.0141298962819926	0.00638842450381111
0.7	0.000268108171783101	-0.00505540650032763	0.00176589552673292	-0.00264189362270243	0.00176393621296752	-0.00264209898686701	-0.0141947648910857	0.00795247332083104
0.8	-0.000634165425004096	-0.00453097525630813	0.00138179766131402	-0.00286368786653896	0.00136917445885699	-0.00286829035074117	-0.01338846326567	0.00960289644180485
0.9	-0.00110679811877327	-0.00427404349792872	0.000964169443366218	-0.00303236211754036	0.000965239403017625	-0.00304310118626072	-0.0120028186377341	0.0106184555597902
1	-0.00167581150963044	-0.00454203114644281	0.000536635835482904	-0.00314071756463938	0.000526726808415607	-0.00314148397632771	-0.010680133766482	0.0108269396343713
1.1	-0.00295547448307105	-0.00500170849812901	7.61332571308765E-05	-0.00317327239600991	7.2631140166186E-05	-0.00319102937068589	-0.010111513916119	0.0106844743730054
1.2	-0.00492163497997605	-0.00516017998553493	-0.000372195074932978	-0.0031644941775303	-0.000373012612064344	-0.00316240497995374	-0.00989367726139595	0.0108830419633914
1.3	-0.00704781283413748	-0.00470014626662896	-0.000805934366510206	-0.00308055687484727	-0.000809197240200481	-0.00308257212645178	-0.00911329038904042	0.0115771123775845
1.4	-0.00855449437037748	-0.00384259719938925	-0.00123329571493232	-0.00292902780654719	-0.0012320869789912	-0.0029345986854976	-0.00772866825325539	0.0117911243883392
1.5	-0.00928046298573813	-0.00242981567615624	-0.00163865685573452	-0.00272783174000112	-0.00163706381681845	-0.0027363872059447	-0.00653037035548484	0.0116949940414409
1.6	-0.0092913048624957	-0.000380990212730951	-0.00200129108372052	-0.00246882512369744	-0.00200152568545718	-0.0024740849224567	-0.00599584861101803	0.012152585552355
1.7	-0.00835855470110117	0.0016726824904142	-0.00232919030582726	-0.00216522078074995	-0.00233012847943287	-0.00215892935898069	-0.00494833275518321	0.0128919475863428
1.8	-0.00680661917179945	0.0032781854385858	-0.00259715303250589	-0.00180799542040969	-0.00260818008830713	-0.00181358951098927	-0.00358357089452044	0.0131715757350222
1.9	-0.00513468937912971	0.00406835686461314	-0.002817825662481	-0.00143344723648998	-0.00283025336039213	-0.00142721793698922	-0.00246252633596079	0.0129722661304467
2	-0.00372860656316946	0.00439897969809668	-0.00298807265101132	-0.00102425482198833	-0.00299767696407534	-0.00101949650982223	-0.00182315872755715	0.0127412711035979
2.1	-0.0025325206354934	0.00458299888799136	-0.00309649260907846	-0.000596683853127868	-0.00309241877676269	-0.00059869224841796	-0.00131903906375545	0.0127438060104596
2.2	-0.00127922476605701	0.00483429485575128	-0.00315020037608334	-0.000161080883503332	-0.00316150439600426	-0.000163877398735693	-0.000505330867590142	0.0130053327659687
2.3	0.00028805249014172	0.0047670318833118	-0.00314390277611024	0.000278719073488714	-0.00314361627614763	0.000271841970374656	0.000686512737020061	0.0130579072199636
2.4	0.00197145193655521	0.00412974881306359	-0.00307198368901096	0.000713645705594079	-0.00307452860295328	0.000709394569638419	0.00205226822223635	0.012682828446125
2.5	0.00332743434139342	0.00277810642344111	-0.00293720850802122	0.00112378148265178	-0.00294809414815589	0.00113016653464909	0.00318739793151573	0.0117824433868614
2.6	0.0040988049911217	0.00113363290797025	-0.00276641611995226	0.00152670161810222	-0.00276285540767962	0.00151436789281457	0.0038635190682826	0.0107692574322451
2.7	0.00448477306882456	-0.000427109019623608	-0.00252329959168667	0.00190018926262781	-0.00252859048500246	0.00190019935219438	0.00418773409318942	0.00997988212645439
2.8	0.00482383202684971	-0.00199176806458476	-0.00224171740020582	0.00223165061037695	-0.00223387697209631	0.00224147116960058	0.00450849123749699	0.00949981447496497
2.9	0.00504244509506605	-0.00384476869106762	-0.00190632744257029	0.00253679259034956	-0.00190260266539716	0.00253636059847027	0.00506387183551445	0.00911618872107373
3	0.00471381930358994	-0.00590883026710844	-0.00151621631533086	0.00277683008326383	-0.00153106174170289	0.00278299042004833	0.00564453538467945	0.00872931066713714
3.1	0.00384731503790937	-0.00779021388608224	-0.00111982324892285	0.00295708243612808	-0.00111511139229778	0.00296545704241048	0.00611746471282575	0.00841678741556499
3.2	0.00255820275877637	-0.00936513904394051	-0.000691392015150565	0.00309477474312453	-0.000693149686753254	0.00309416927574712	0.00658811178316045	0.00833381095627279
3.3	0.00108141294067852	-0.0107952296107234	-0.000244654126104461	0.00316176403232456	-0.000243021349535995	0.00315799259911116	0.00744658336225939	0.00808271528049617
3.4	-0.000760563807973452	-0.0120384401304129	0.000209356407755806	0.00314941291739597	0.000203259400656168	0.00316610398447471	0.00837611680051214	0.00732925169592506
3.5	-0.00304120809621534	-0.0130819347342875	0.000636015991472482	0.00309774775264038	0.000641630594435461	0.00309776995911439	0.00885237430761365	0.00614719377556303
3.6	-0.00573358693912338	-0.0134657211672374	0.00106580809930902	0.00296780930899625	0.001074009330497	0.00296740505007179	0.00895138362756173	0.00528702129649252
3.7	-0.00844151489686946	-0.0130786560765967	0.00147363181642339	0.00277590717499693	0.0014641999740202	0.00278968340948189	0.00917954349933193	0.0046744491058834
3.8	-0.0108328259944642	-0.0120779714233808	0.00184522097294066	0.00253938507404014	0.00184771981026757	0.00254848656726795	0.00960229731686699	0.00400610370327943
3.9	-0.0127698547720722	-0.0108221024711219	0.00218152878331128	0.002259785219253	0.00217427654409427	0.00225808898043861	0.00999933415169451	0.00306188927056291
4	-0.0145522958593825	-0.00944675229449781	0.00245518087688114	0.00193623685093883	0.00245958018730569	0.00193377607580449	0.0101569791233912	0.00205534296712732
4.1	-0.0162625866372179	-0.00774423485989993	0.00269617432196916	0.00157800838090541	0.00269493666443519	0.00157874840343683	0.0102011523005869	0.00123703301364605
4.2	-0.0177143658495745	-0.00553472749931956	0.00288620856146048	0.0011822915604329	0.0028905863645649	0.00117362076547084	0.0103127330688877	0.000578165466560385
4.3	-0.0185923400557975	-0.00308088799990566	0.00302321692324523	0.000778191594429527	0.00302955407129541	0.000770428924125888	0.0106047418594076	-0.000259070703816731
4.4	-0.0190537040877456	-0.000590394848961532	0.00309731895587566	0.000353108154550459	0.00309966911486366	0.000350864804054091	0.0107318663932823	-0.00132073644719508
4.5	-0.0192205176984269	0.00188082392532518	0.00312144272672793	-7.66108205637154E-05	0.0031267617907691	-7.99627855967654E-05	0.0106027056572118	-0.00246651443427029
4.6	-0.0192108277038519	0.00443406918255558	0.00308162577966867	-0.000513226687358384	0.00308284033047501	-0.000500391795771346	0.0101522007262313	-0.00351719345102218
4.7	-0.0186868836237212	0.00722787393258941	0.00298208809129138	-0.000928954182775865	0.00299731334585375	-0.000938508519825067	0.009563281461117	-0.0043244653187914
4.8	-0.0174856461714172	0.0100305670998855	0.0028265637660876	-0.00134305125663321	0.00283502265331594	-0.00134911056568272	0.0091340561003364	-0.00492467981369172
4.9	-0.0154689152260855	0.0124333092952325	0.00260977075038428	-0.00172982207947252	0.00261392732083173	-0.00172691932878946	0.00880092480460901	-0.0055264742057152
5	-0.0130522772576259	0.0141772272129203	0.00235138682083719	-0.00208900718981616	0.00235500658587872	-0.00208634565934853	0.00860188891097728	-0.00611077663883777
5.1	-0.0102848197842944	0.0154757515564173	0.00203897984470704	-0.00240359634336691	0.00204128244237393	-0.00240224222281415	0.00844067796499795	-0.00669052089116123
5.2	-0.00730824833000912	0.0162853288764018	0.00167724325609697	-0.00265588823349135	0.00167894084123576	-0.00266103662150557	0.00838921046461273	-0.0071896870572759
5.3	-0.00405409440861857	0.0164632232938709	0.00128482030993962	-0.00287098640648808	0.00128796125780402	-0.00286893897636259	0.00849838526161585	-0.00777314311334812
5.4	-0.000869978257480473	0.0158228383999278	0.000854290133766062	-0.00301476069523716	0.000871364540053126	-0.00302605830978266	0.00854042823512157	-0.00880448826281243
5.5	0.00181494860707336	0.0145279374747026	0.000436498706336901	-0.00310587882389052	0.000446455860445823	-0.00311535292046407	0.00802803065967471	-0.0100351491343366
5.6	0.00389326797697358	0.0129088816646413	-3.1626546537215E-06	-0.00313285113994618	-1.16740710976453E-05	-0.00313598791880349	0.00695885461046277	-0.0108573886531468
5.7	0.00548770475065109	0.0112468582599421	-0.000431414911833474	-0.00309248684689301	-0.000447945183250233	-0.00309599035626564	0.00586835067852441	-0.0110981293168722
5.8	0.00687458641819042	0.00952706831200898	-0.000870084417920184	-0.00298854641823977	-0.000873692819566291	-0.00300238523390004	0.00510239008604814	-0.0112747221847471
5.9	0.00805333029898475	0.00757586604729424	-0.00126438797464426	-0.00284244811244721	-0.0012725285764797	-0.00284231562759331	0.00439238660456856	-0.0116207471670632
6	0.0087795553690346	0.0051941695409335	-0.00164949462449636	-0.00263431932212256	-0.00164597880380806	-0.00263450006868886	0.00341131547413369	-0.0120163503729462
6.1	0.00882267043903463	0.0026194881400328	-0.00199122451802606	-0.00238298160560614	-0.00199283199161439	-0.00237902822781134	0.00238401630302122	-0.0121340247887239
6.2	0.0082130158726379	0.000141115486649674	-0.00229244218960342	-0.00207800709693538	-0.00229609751122317	-0.00208970961775869	0.00157654854967508	-0.0121231339565459
6.3	0.00729853217115249	-0.0021333791094853	-0.00256214531075696	-0.00175528072211386	-0.00257116057490641	-0.00174964637696865	0.00106817691110021	-0.0122921671849722
6.4	0.00593263626522697	-0.00439429524824679	-0.00278535550214064	-0.00137871815663511	-0.00277573422625605	-0.00138350754376096	0.000528374103255815	-0.0127603144932801
6.5	0.00399414187191576	-0.00641735297683812	-0.00294428829669345	-0.000987420905886502	-0.002952089440516	-0.000983047318152259	-0.00024851231091427	-0.0132872277164851
6.6	0.00154859795301952	-0.0076951438151405	-0.00305941636790043	-0.00057395256544277	-0.00306099954174481	-0.000577904887819725	-0.00112302684148893	-0.0135247489930575
6.7	-0.000927725318522443	-0.00808869260393372	-0.00312027257126098	-0.000143864639526708	-0.00312912052793643	-0.000137716810389355	-0.00201045300833004	-0.0134802947040442
6.8	-0.00316526421969388	-0.00787122019525532	-0.0031104174172909	0.000294693531635429	-0.00312150288576005	0.000299607882886707	-0.00277233949697853	-0.0133275027895871
6.9	-0.00525242038670134	-0.00729222080362335	-0.00304591707957253	0.000729638443987906	-0.00304891737623921	0.000731994353606253	-0.00355269445777555	-0.0132126967438741
7	-0.00725348266914411	-0.00641125842561046	-0.00291766056707664	0.00115558524429921	-0.00293045749200668	0.00115328637073405	-0.00445821751360185	-0.0131614289227532
7.1	-0.00930890301350359	-0.00501986530523598	-0.00274468651772028	0.00155150360586764	-0.00274107992323031	0.00156019572558022	-0.00559192242400588	-0.0127232873574943
7.2	-0.0111077465275821	-0.00292324516763497	-0.00248920828233895	0.00192696514477454	-0.00249575438260372	0.00192901366660099	-0.00641429313290433	-0.0118228214034506
7.3	-0.0123429803644319	-0.000286941243916234	-0.00219138538974719	0.0022519264053099	-0.00220262623310252	0.00225694912610187	-0.00661003259290819	-0.0109575879657488
7.4	-0.0127811604687178	0.00263756897543896	-0.00184537722937251	0.00253822363531631	-0.0018522853489199	0.00255182786507469	-0.00665756203682719	-0.0104823263104795
7.5	-0.0125386886324084	0.00526440052538414	-0.00147485702533968	0.00277717393333821	-0.00146787085960355	0.00278456704921641	-0.0065999335398902	-0.0106346129651885
7.6	-0.0119660277847709	0.00742295345950556	-0.00106497914734997	0.00295213118331119	-0.0010663535158375	0.00294744512086985	-0.00678088915835491	-0.0113738265082304
7.7	-0.0107762166118642	0.00950173109894652	-0.000635841085641975	0.00306765688032088	-0.000637176687193148	0.00306660043098787	-0.00739905036832492	-0.0119420242907148
7.8	-0.00904898023226836	0.0111653365825463	-0.000213010524213441	0.00311047385342621	-0.000220770267235585	0.00311689528833969	-0.00829506686748647	-0.0124701063014794
7.9	-0.00656180772239914	0.0120532932463	0.000221396864108662	0.00311252122695887	0.000229276539829936	0.00311401578154953	-0.00934654170085958	-0.012467208224275
8	-0.0047096101061982	0.0125734672449469	0.000653451399387635	0.00303871992924549	0.000653518695694817	0.00304357614321946	-0.0109343347426216	-0.0127913988411034
8.1	-0.00233372025785821	0.0126664395385158	0.00105320012151115	0.00292363535292251	0.00107215734006067	0.0029248072474013	-0.0121228563000221	-0.0119297028039615
8.2	-0.000139227696710265	0.0126689987492779	0.00144790918160535	0.00275041408441591	0.0014571210975717	0.00274335855693213	-0.0129862345658887	-0.0108860764075925
8.3	0.00225290271658926	0.0122850906949225	0.00181758872877493	0.00252339094649866	0.00181582290938507	0.00253680445909924	-0.0134008176300546	-0.00998250307700034
8.4	0.00464299038165533	0.0113341594392564	0.00215142455068174	0.00226024183288148	0.00214841912629145	0.00225998132090765	-0.0138016078818862	-0.00944874661089548
8.5	0.00672157791358395	0.0097153659894575	0.00244124131353635	0.00194454036416705	0.00244030337777869	0.0019476949285613	-0.0145496319926389	-0.00894904705632651
8.6	0.0082238338754493	0.00775819092001982	0.00269683319051238	0.00159713276083181	0.00270641101440524	0.00159075461275842	-0.0154261418362698	-0.00815913081443269
8.7	0.00927638318584693	0.00567866539131872	0.00289658279446714	0.00120309920838048	0.00290213410413777	0.00120391130587078	-0.0161030633953284	-0.00708453540210253
8.8	0.0100567516484909	0.00350832139539414	0.00304923635649861	0.000795405401800895	0.00305516199538156	0.000786704827265584	-0.0164790536279769	-0.00605636279119403
8.9	0.0106835893295342	0.000981946401137298	0.00314278727786028	0.000358560647415575	0.00314194346310729	0.00035628682291463	-0.0165035256754137	-0.00511393657332652
9	0.0107849657003878	-0.00204740403288219	0.00316625159446127	-9.31384728343045E-05	0.0031693833312736	-8.8961837368405E-05	-0.0163961347390163	-0.00432954961120337
9.1	0.0101649996023384	-0.00529488084764456	0.00312948655988461	-0.000546932567416796	0.00313226547679384	-0.000533872753046194	-0.0161686432844204	-0.00360059965459085
9.2	0.0085857236305228	-0.00837805902141041	0.00302388288841445	-0.000978686383661758	0.00303164963738278	-0.000981534751693091	-0.0159079647003121	-0.00298756479609925
9.3	0.006358802527502	-0.0110314928018336	0.00285378064455205	-0.00139777280825379	0.00285306786172296	-0.00140282469444291	-0.0155166655578324	-0.0024946941960589
9.4	0.00349151785389523	-0.0131705837168849	0.00262523014950534	-0.00179941732875864	0.0026317919774722	-0.00179171756256961	-0.0152746208100463	-0.00215203566569407
9.5	-3.66548145715803E-05	-0.0147173930102707	0.00234092913198142	-0.00214080971439719	0.00234841486982706	-0.00214216505948033	-0.0153946908844974	-0.00193284774727749
9.6	-0.0040593816472989	-0.0152054332041743	0.00201396966938903	-0.00244694411251341	0.00201430298471022	-0.0024459544374953	-0.0157637110563429	-0.00135797690800102
9.7	-0.00815817151679844	-0.0144927547525174	0.00163812035498828	-0.00269551360723927	0.0016436764765625	-0.00270287288057574	-0.0159442207547737	-0.00042415522482019
9.8	-0.0119014548126966	-0.0127785088382275	0.00124770927239766	-0.00289937612245506	0.00125344334533113	-0.00289085437967254	-0.0158275247396391	0.000512821324205513
9.9	-0.0150377046655864	-0.0103256297526064	0.000841093651421237	-0.00303242990035871	0.000833749562134048	-0.00303119478176253	-0.015668594386279	0.00126089588876022
10	-0.0177255037556524	-0.00737995177305363	0.000413676140440561	-0.0031165735954622	0.000406191317565224	-0.00312902583642819	-0.0156368312718349	0.0019969182449366
10.1	-0.0198894245649402	-0.0038877502588776	-2.27733577504299E-05	-0.00314599114631356	-3.30138371760928E-05	-0.0031406271306875	-0.015518304650955	0.00282254537449508
10.2	-0.021332658056077	0.000166849308546115	-0.000462132479578664	-0.00311135355812667	-0.000465550802582907	-0.00310859240492111	-0.015089232656361	0.00372879883661879
10.3	-0.0217682464095478	0.00459216454695648	-0.000889249694010127	-0.00301224033542251	-0.000881093221518829	-0.00302125886505744	-0.0143353680490149	0.00436829696073784
10.4	-0.0211333050098883	0.00892556093112454	-0.00128456886159435	-0.00286740023942808	-0.00128281455114727	-0.00287359238704356	-0.0134833956096559	0.00445589939022071
10.5	-0.019742890621302	0.0129846670270834	-0.00167901633212071	-0.00268010849508249	-0.00167603413737051	-0.00266702148019029	-0.0130206201371904	0.00433958829208989
10.6	-0.0177199963387718	0.0167928832043687	-0.00204020749418899	-0.00242037817026411	-0.00203796393067754	-0.00242420351250265	-0.0128490764604431	0.00433508985355848
10.7	-0.0149883575560918	0.0204927519705618	-0.00236845225369244	-0.00212529062375296	-0.0023649795995697	-0.0021199199491734	-0.0126530281478135	0.00461931077961095
10.8	-0.0112950990486945	0.0237842952908195	-0.00265364914757073	-0.00176656819602434	-0.00264829784030736	-0.00177555849409369	-0.0123758183248353	0.00487821036778708
10.9	-0.00683625640143844	0.0263434477637199	-0.00287797581172677	-0.0013875950339302	-0.0028832489338476	-0.0013868924633137	-0.0122710686867883	0.00502023753266758
11	-0.00177534043681632	0.0278397907413873	-0.00305130696802396	-0.000959913010073443	-0.00305620157819924	-0.000966794889469287	-0.0122329906433222	0.0053722917384321
11.1	0.00344342369778283	0.0283326275983749	-0.00316934209248305	-0.000518987059293309	-0.00315828543457563	-0.000516053422144423	-0.0120876523670472	0.00594769266181046
11.2	0.00874119681438221	0.0278876500252067	-0.00320168797282914	-6.24989727010177E-05	-0.00320898454909831	-6.74170090024342E-05	-0.0115246034773475	0.00667216541946025
11.3	0.0141237762176562	0.0263025963323059	-0.00317101722355962	0.000405173913044681	-0.00318282283912497	0.000395006808531677	-0.0102579763315777	0.00705366459226983
11.4	0.0192492633393148	0.0237245297408535	-0.00308738840696547	0.000849127007346423	-0.00308232847962958	0.000856783838897881	-0.00913547456028437	0.00704342116949172
11.5	0.0238577900267809	0.0200060721180173	-0.00292911664840795	0.00127600560736966	-0.00293182672455203	0.00128646737137817	-0.00830655016994707	0.00672613171374663
11.6	0.0275186294012412	0.0152283201489836	-0.00271731894713906	0.0016713389420877	-0.00271726234789543	0.00167431561265721	-0.00758137375520338	0.00612517279723595
11.7	0.0301675225393626	0.00995087144794887	-0.00243874835816997	0.00202414872511255	-0.00243919825479739	0.00203284300901523	-0.00685106420089714	0.00541384065528836
11.8	0.031993304280102	0.0043360004316954	-0.00212891782850422	0.00234890510401484	-0.00213303530089643	0.0023506724740685	-0.00616395642116074	0.0045494294460832
11.9	0.0328770151874139	-0.00158780483037786	-0.0017699929001614	0.00261322770472654	-0.00178300109667283	0.00261772454490621	-0.0059169949791958	0.00380839647418804
12	0.0325411760671999	-0.00808936791213852	-0.00139296910974248	0.00282358217327632	-0.00139235560256375	0.00282498832500556	-0.00597109558302416	0.00281746493435507
