# GHZ S RI R 50
0.2	0.00513260034171517	6.12145715562649E-05	0.00304845202350637	-0.000899445856405881	0.00305882546274122	-0.000892640450610184	-0.0147983444276585	0.00374449655321729
0.3	0.00570493011277324	-0.0009658331743543	0.00290351637944349	-0.00132405224397632	0.00289627991474893	-0.001311105132031	-0.0137438482611359	0.00486288872332506
0.4	0.00602506255932491	-0.00241211612823462	0.00267034072247575	-0.00169670419076601	0.00267559687332745	-0.00170527197115951	-0.0126737771063461	0.00560822557563546
0.5	0.00566448814545142	-0.00413810734862611	0.00240924327436379	-0.00205350494334439	0.00242075493302035	-0.00206576165138597	-0.0118341502879652	0.00590733083721443
0.6	0.00454015522958853	-0.0056628002221739	0.00209424660342147	-0.00236689553312824	0.00209344516114057	-0.00237403724104101	-0.0114703289738003	0.00605554958190484
0.7	0.00280096157584804	-0.0065588763594046	0.00174497946582945	-0.00264229184269323	0.00174302597646366	-0.00264248561889994	-0.0115394507836699	0.00649324352979202
0.8	0.00102096850854723	-0.00669462805682716	0.00135845679256863	-0.0028562300039717	0.00134587478834316	-0.00286073749399937	-0.0115831944228311	0.00744800710631516
0.9	-0.000511189733205662	-0.00621246214281672	0.000941801518697079	-0.00301571407562364	0.000942808947303292	-0.00302638219560711	-0.0112481862184082	0.00863912318904144
1	-0.00158398852604798	-0.0055654151506472	0.000519085011351619	-0.0031152043798856	0.000509260260732317	-0.00311592359233876	-0.0104534494220603	0.00971156286591148
1.1	-0.00249216964410159	-0.00509916339218855	6.73164092520394E-05	-0.00314101042571859	6.38051303495614E-05	-0.00315857691874498	-0.00957565979385228	0.0104717203089908
1.2	-0.00357682416880729	-0.00493937072075554	-0.000369912568639041	-0.00312891178084413	-0.00037071973126142	-0.00312684544422038	-0.00856627655993503	0.0109913015824651
1.3	-0.00506886687597997	-0.00478934748604355	-0.00079173991799793	-0.00304623402700147	-0.000794961892035951	-0.00304823115950045	-0.00723082901139527	0.0114229319044098
1.4	-0.00642927124531072	-0.00428177500242665	-0.00120814583233289	-0.0029005923381738	-0.0012069294881451	-0.00290609555188758	-0.0057211053192038	0.0112833025761566
1.5	-0.00716478436460088	-0.0032700177645776	-0.00160538409814751	-0.00270901300761058	-0.00160375708297263	-0.00271746960995354	-0.00456920562760757	0.0107751464528491
1.6	-0.00743965729056452	-0.00176307355806975	-0.001964267295418	-0.00246191755561228	-0.00196445937890531	-0.00246713168976832	-0.00425757360042549	0.0107246772269335
1.7	-0.00710565910335767	-1.34265649567796E-05	-0.00229314056298271	-0.00217053913323958	-0.00229412827956444	-0.00216430117302803	-0.00380812375925245	0.0111879969108094
1.8	-0.00619213761594591	0.0017242925972772	-0.00256671128190091	-0.00182375757458711	-0.00257762904460177	-0.00182942910291727	-0.00305267420625759	0.0116424515985547
1.9	-0.00478980015376723	0.00295514506898651	-0.00279597941899734	-0.00145621595857832	-0.00280843065996026	-0.0014501233964281	-0.0021786080928484	0.0118900138882851
2	-0.00327019807799613	0.00363660363324903	-0.00297627707519304	-0.00104979489269468	-0.00298591479805562	-0.00104512600341372	-0.00140951169646808	0.0120089575831487
2.1	-0.00184536381207106	0.00384785289333081	-0.00309408174353848	-0.000620582203667025	-0.00308998989171067	-0.000622561066347762	-0.000664806678708072	0.012035192210078
2.2	-0.000581613202450837	0.0038933627380213	-0.00315464723620897	-0.000179879969309564	-0.00316595416828534	-0.000182747740930975	0.000172907661266073	0.0120844271416675
2.3	0.000692893634032223	0.00371915585012873	-0.00315145270650795	0.000266849980828315	-0.00315113840590508	0.000259959908978493	0.00108537697052703	0.0120161766402604
2.4	0.00202845198682733	0.00329722931758848	-0.00307854528523306	0.00070847864364143	-0.00308108562752349	0.000704215209002655	0.00211756119508701	0.0118598974227772
2.5	0.00332562769492763	0.00238748690838012	-0.00293935510877903	0.001123106947818	-0.00295024969079176	0.00112949074512706	0.00320118115243977	0.0113768977935454
2.6	0.00434479716216874	0.00104303901138115	-0.00276232290776355	0.00152687424757723	-0.00275877444996319	0.00151455178634114	0.00412197028324747	0.0106489301507017
2.7	0.00499287882995372	-0.000485726569236767	-0.00251321906211023	0.00189700437945418	-0.00251849324715042	0.00189702033303341	0.00470549306100618	0.00988324024302302
2.8	0.00544269606162641	-0.00207712040216879	-0.00222798279430393	0.00222145685913241	-0.00222017666388563	0.00223121875877727	0.00513577334228187	0.00935866122900726
2.9	0.005775787582352	-0.00386023704820661	-0.00189305637312481	0.00251727424191028	-0.00188935911810442	0.00251684677008324	0.00578258363831467	0.00899488516884191
3	0.00568848247292005	-0.00592359363750221	-0.00150850363014671	0.00274809905790962	-0.00152322701836855	0.0027541702532055	0.00654019070085695	0.00857447939905811
3.1	0.00504655756663702	-0.00804301886703439	-0.0011221839716125	0.00292147951787989	-0.00111755972556342	0.00292979023396666	0.00717360083304528	0.00803864448038128
3.2	0.00376262513238859	-0.0099208948335624	-0.000707428150492953	0.00305669906366902	-0.000709162589783816	0.00305608674756045	0.0075878071132831	0.00767195808871468
3.3	0.00213710928092468	-0.0115253505735362	-0.000275594737619567	0.00312724524232252	-0.000273938597693892	0.00312352915431215	0.00823197359010168	0.00728890478196715
3.4	0.000175625748838715	-0.0127821974635078	0.000165115619782269	0.00312487845409217	0.000158846741046173	0.00314134242322621	0.00898187535662873	0.00659062773943291
3.5	-0.00207422260050171	-0.0138069978967652	0.000582410054243787	0.00308802694854511	0.000587988254622977	0.00308813877095496	0.00942972954270112	0.00553688584201905
3.6	-0.00474054561048722	-0.0143504086806035	0.00100915693855478	0.00297661958446463	0.00101733715362067	0.00297636312765098	0.00956059933930663	0.00463937065250623
3.7	-0.00756449658904756	-0.0141878476002642	0.00142129135927003	0.00280378542165842	0.00141159932689116	0.00281738404433004	0.00972248637430337	0.00394235444247262
3.8	-0.0102526629199471	-0.0132936233954181	0.00180407596013478	0.00258372485939698	0.00180641201339319	0.00259290747477302	0.00996161877055225	0.00328008325859297
3.9	-0.0124733423650652	-0.0119193984350575	0.00215701275397377	0.00231545843611047	0.0021497377543515	0.00231361975736083	0.0102267953917691	0.00250726611448057
4	-0.0143585942256301	-0.0103360846834655	0.00245016424509696	0.00199588027717783	0.0024546492788832	0.00199346379776874	0.0104421370129261	0.00170023350266197
4.1	-0.0160486604284465	-0.0085231314313176	0.0027105788799496	0.00163426601022334	0.00270931526136277	0.00163499935617151	0.0106488203847172	0.000931248810320024
4.2	-0.0175370920215827	-0.00629376503755229	0.00291687483377822	0.00122824948919599	0.00292140283248772	0.00121949474977786	0.0108357981930195	0.000186035018708328
4.3	-0.0185612107647496	-0.00374398774022664	0.00306436456819602	0.00080925336515814	0.00307084762167837	0.000801412594290165	0.011056320808043	-0.0006676728441063
4.4	-0.0190823454415376	-0.00100228266870693	0.00314193229086826	0.000367300727368583	0.00314432358989574	0.000365031142756037	0.0111465528780352	-0.0016272509100224
4.5	-0.0191019411848413	0.00172766247237281	0.00316277364198144	-7.79603898984162E-05	0.0031681627898506	-8.1357317802705E-05	0.0111268724079001	-0.00265721968844189
4.6	-0.0188156717632793	0.00434591761700723	0.00311419127496735	-0.000526213777748354	0.00311544979533479	-0.000513241047373875	0.010832146767621	-0.00376913522519061
4.7	-0.018089085856213	0.00703651571910171	0.00300300410204573	-0.000947689732532911	0.0030183181722387	-0.000957379071082357	0.0103220875066335	-0.00470527966437283
4.8	-0.0168782437809696	0.00968919618206987	0.00283586302338309	-0.00136147254870405	0.00284434149508977	-0.00136759761522391	0.00978429343996194	-0.00540352574643156
4.9	-0.0148500862341817	0.0120663132522214	0.00261031209535104	-0.00174259996753321	0.00261448823370993	-0.00173970399590552	0.00940322778182983	-0.00596734387221825
5	-0.0123434140004963	0.01377703816327	0.00234813027803966	-0.00209296295364284	0.0023517545975278	-0.00209030715257988	0.00925498141419015	-0.00650382751692063
5.1	-0.00952183876632306	0.0149158774522643	0.0020377982966034	-0.00239832580664053	0.00204009632206865	-0.00239697190863396	0.00915063479713694	-0.00713483955116377
5.2	-0.00668219785180061	0.0155509970460347	0.00168345085388386	-0.00264402839182518	0.00168516379283399	-0.00264915951821603	0.0090407020768635	-0.0077139622402661
5.3	-0.00367681036494488	0.0157293576351135	0.00130197018922788	-0.00285749207295475	0.00130509205506511	-0.0028554269641801	0.00903022631957	-0.00828074767382899
5.4	-0.000630740973266926	0.0152637118280774	0.000883032378926408	-0.00300609460921453	0.000900212273806065	-0.00301722685573789	0.0090438810772543	-0.00920433079900116
5.5	0.00210017500027952	0.014129502572222	0.000474495896742516	-0.00310799936434585	0.000484589275023147	-0.00311737725883689	0.00863435724852047	-0.0103790829475636
5.6	0.00429049979399205	0.012527677201778	3.88043203256226E-05	-0.00315064780979042	3.02867061260138E-05	-0.0031539164309225	0.00768608310099995	-0.0112886602184826
5.7	0.00588375972980312	0.0108227150960748	-0.000392695222296833	-0.00312782439401091	-0.00040933394893075	-0.00313159003600747	0.00656480982121983	-0.0116826610089
5.8	0.00719718264597305	0.00907040817670198	-0.000842709527830769	-0.0030402619812305	-0.000846185490810401	-0.00305433476652146	0.00567234278417745	-0.0119782863916357
5.9	0.00828540252110799	0.00722239065585403	-0.00125466200347502	-0.0029056088982607	-0.00126294474204166	-0.00290556454999107	0.00478733215370656	-0.0122955569332502
6	0.00904340153084931	0.00501767532050492	-0.00166217644094482	-0.00270144107316241	-0.00165858720890713	-0.00270159738372251	0.00372177162188039	-0.0125562255933262
6.1	0.00923998555920172	0.00253074292626205	-0.00202694410548091	-0.00244507602821053	-0.00202860389293924	-0.00244103925405239	0.00272270973256495	-0.0125811908249434
6.2	0.0087504971114191	-1.51171049748565E-05	-0.00234815503717144	-0.00212607122951873	-0.00235190408968007	-0.00213804983026076	0.00192715348791656	-0.0125864797209386
6.3	0.00779450165283523	-0.00239252028659644	-0.00263171999711643	-0.00178286559997887	-0.00264091707563666	-0.00177705075841574	0.00131228378740778	-0.0127878144403306
6.4	0.00642699550122832	-0.00467030956673517	-0.0028599118041656	-0.00138155144141365	-0.00285012683972446	-0.00138654026436004	0.000759014793936706	-0.013179798545948
6.5	0.00457576428758012	-0.00673990251139919	-0.0030141116392025	-0.000966102527048257	-0.0030220023208134	-0.000961538707412926	9.39069047641374E-05	-0.0136718930347834
6.6	0.00216972178292232	-0.00816662984955435	-0.00311618510351326	-0.000532335195170606	-0.00311785797840822	-0.000536322490526184	-0.000703196836718896	-0.0140017789282295
6.7	-0.000430307186814099	-0.0086779433933209	-0.00315793738416388	-8.88777227166374E-05	-0.0031667732197585	-8.25003191873465E-05	-0.0016741263415145	-0.0140450512741722
6.8	-0.00283810138477475	-0.00839762663315259	-0.00312631959013471	0.000354180822296495	-0.00313739034518545	0.000359333703945605	-0.00257779328360567	-0.0138361621101748
6.9	-0.00492890017972548	-0.00770927165245449	-0.00304148989853355	0.000785075439071676	-0.00304445711466933	0.00078749045542465	-0.00333113541900007	-0.0136429826869815
7	-0.00679995455221166	-0.00671838339633242	-0.00289758599640422	0.00119991234807191	-0.00291040897983417	0.00119781339043249	-0.00417086006339353	-0.0134866846968342
7.1	-0.00868974706303127	-0.00540938642007511	-0.00271610334911914	0.00158085834571384	-0.002712399465197	0.00158947636814384	-0.00520418708402612	-0.0130620290542716
7.2	-0.0104597152512059	-0.0035195915331336	-0.00245988829787192	0.00194051879832156	-0.0024663847842774	0.00194261724178756	-0.00600736922915192	-0.0122580721917022
7.3	-0.0118324296476586	-0.00103057259799395	-0.00216830809916206	0.00225292170280795	-0.00217946637207305	0.00225798148684373	-0.00630953697144587	-0.0114557342418511
7.4	-0.0125482636146736	0.00170434833114004	-0.00183299106544983	0.00253241822570496	-0.00183984418385257	0.00254598506284379	-0.00636043050742221	-0.0111877298371209
7.5	-0.0125273375854326	0.00446381878645986	-0.00147431208497375	0.00277171754103592	-0.00146734207891705	0.00277910334244402	-0.00641688552683734	-0.0112321068114678
7.6	-0.0117145317926925	0.00705984898590293	-0.0010738818102515	0.0029538709983566	-0.00107524659567799	0.00294917457249463	-0.00667362960887493	-0.0113632004189313
7.7	-0.0108402991397886	0.00927041688749735	-0.000648553605197579	0.00308137493912802	-0.000649892774506296	0.00308030897022728	-0.00729106872121337	-0.0121918178212271
7.8	-0.00903999774002011	0.0111574208679963	-0.000222229714047638	0.00313760685357168	-0.000230073523538295	0.00314406706112799	-0.00818552642962706	-0.0126205480159986
7.9	-0.00680516033467624	0.0123616020313761	0.000223236946417643	0.00315106515312039	0.000231213607877622	0.00315258045587189	-0.00924925503854492	-0.0129612801953744
8	-0.00402234162923937	0.0128073006183388	0.00067245815880965	0.00308264804406183	0.0006725410747436	0.00308757739801322	-0.0104356229651468	-0.0126201376991717
8.1	-0.00167998509830832	0.0128540926748055	0.00109194002562005	0.0029649994053406	0.00111122319946441	0.00296605410655544	-0.0117917035470609	-0.0121885285541194
8.2	0.000641400338110219	0.0125983212936287	0.00150547651475978	0.00277989275584355	0.00151476075495017	0.00277260687246204	-0.0127072396156622	-0.0112280571405184
8.3	0.00303942203571941	0.012033637668573	0.0018886825824201	0.00253273157803893	0.00188711413667351	0.0025463866599031	-0.0132367237643074	-0.010311365595813
8.4	0.00543017826706964	0.0109874697809725	0.00222759264919369	0.00224428439396977	0.00222454225422187	0.00224408419578569	-0.0136978328000124	-0.0096574200491824
8.5	0.00756018100933087	0.00926020609816948	0.00251185459876479	0.0019019593162723	0.00251098616891057	0.00190516612270083	-0.014387420030499	-0.00902744194060098
8.6	0.00908298391385299	0.00709363520080672	0.00275187057241104	0.00153089034358167	0.00276131690013887	0.00152422464418826	-0.0151415049267702	-0.00819955482890077
8.7	0.0100048693543355	0.00475068115511702	0.00292736358030904	0.00112053383739811	0.00293293194764183	0.00112118924300926	-0.0157138918058577	-0.00716341680263284
8.8	0.0105179956084687	0.00248554406253883	0.00305141113271217	0.000706347152634405	0.00305705901783417	0.000697539757261643	-0.0160620728306187	-0.00614711463418251
8.9	0.0109072385259496	6.08872835284119E-05	0.00311576053351213	0.00027419529103231	0.00311486838083701	0.000271969186874887	-0.0160482968703064	-0.00517458381767111
9	0.0109159980549146	-0.00278672049904154	0.00311423109107414	-0.000162258186439785	0.00311740654277523	-0.000158217252096278	-0.0158688701539331	-0.00435541734959101
9.1	0.0101770398093069	-0.00588035119118714	0.00306035215953448	-0.0005932417404836	0.00306331493454166	-0.000580479423426238	-0.0156490234891261	-0.00364544277211763
9.2	0.00858616504933774	-0.00879764405436648	0.00294809195494098	-0.00099871855362538	0.00295565957333022	-0.00100161143093875	-0.0153474937007524	-0.00303357537997696
9.3	0.00638816349972878	-0.0112494568790228	0.00278171036422293	-0.00139225200006566	0.00278097012770234	-0.00139719113002718	-0.0149220119107928	-0.00254803887907176
9.4	0.0037537270666624	-0.0133277511346496	0.00256567449911508	-0.00177313050915992	0.00257213341132409	-0.0017656102561266	-0.0146415226282058	-0.0024132613754985
9.5	0.000478360780043279	-0.0146681446047387	0.00229963284399832	-0.00210224677203412	0.00230698550794918	-0.00210357659002576	-0.0146354280743453	-0.00209651098919815
9.6	-0.00334736047449735	-0.0153515971823767	0.00199228603852651	-0.00240515736209788	0.00199261144656361	-0.0024041810336387	-0.0150045085110924	-0.00167291663254387
9.7	-0.00743874799914656	-0.0149010867735724	0.00163338883766403	-0.00265918535325725	0.00163892053038844	-0.00266644035031914	-0.0152751119674747	-0.000877328872039502
9.8	-0.0113407050033456	-0.0133612094937531	0.00125362572186086	-0.00287438057753733	0.00125928098651831	-0.00286588668561329	-0.0153106347276548	7.17603750687268E-07
9.9	-0.0147403122087315	-0.0108375817681065	0.000849581292818868	-0.00302112753796236	0.000842252930864073	-0.00301992194076206	-0.0153442670352219	0.000849128987146362
10	-0.0175188352085845	-0.00779458900833753	0.000416811447279524	-0.00311708411335876	0.000409336481574486	-0.0031295472322137	-0.015347579808878	0.00167467437767716
10.1	-0.0197035875317423	-0.00421416325491171	-3.10300583169384E-05	-0.00315274644133444	-4.12787263536516E-05	-0.00314734409065265	-0.0152208527790148	0.00253831580195583
10.2	-0.0211669685888308	-9.58063870251841E-05	-0.000484295385944125	-0.00311633318135089	-0.000487703998740707	-0.00311354181720329	-0.0148165864698886	0.00344190155416855
10.3	-0.0216160903360382	0.00444571686044128	-0.000923432109751542	-0.00300700209545613	-0.000915361945722487	-0.00301612297964216	-0.0141151997127072	0.0041264650108797
10.4	-0.0208834787112894	0.0089493830123416	-0.00132500889005643	-0.00284537846204002	-0.00132334704595099	-0.00285158921944839	-0.0132476014449755	0.0043176505164136
10.5	-0.019226407029268	0.0131017349985649	-0.00171714122754769	-0.0026374755344925	-0.00171394666164123	-0.00262450607437526	-0.012665223362478	0.0042813195766567
10.6	-0.0169101695403459	0.016774616947437	-0.0020657690239474	-0.00235818038408522	-0.00206361954962119	-0.00236201042920439	-0.0123237469434259	0.00425091141761352
10.7	-0.0139698547428574	0.0202433492093533	-0.00237266175283013	-0.00204878761837907	-0.00236914059385662	-0.0020435630930753	-0.0120566322970184	0.00450650234461042
10.8	-0.0102321484974194	0.0232653730284021	-0.00263006615120629	-0.00168526055242105	-0.00262497744828273	-0.00169416009836058	-0.0117126793475979	0.00473359410185816
10.9	-0.00576893433190204	0.025503793591199	-0.00282540453331934	-0.00131264629023626	-0.0028305359543624	-0.00131188754995494	-0.0114038171719395	0.00486400816760645
11	-0.000810731689242879	0.0267349870332897	-0.00297261422852401	-0.000903184010316482	-0.00297743354327727	-0.000909821095244187	-0.0112629730110373	0.00509212891394217
11.1	0.00418652036712294	0.0269543343784048	-0.00307228475348642	-0.000489717818326657	-0.00306156207656053	-0.000486921439712743	-0.0110687547793695	0.00549605631286981
11.2	0.00910028786819571	0.0263340256225007	-0.0030981640375508	-6.64997232371467E-05	-0.00310521570673904	-7.12726372539361E-05	-0.0105371057623882	0.00603893963903919
11.3	0.0140473934760441	0.0250412159300223	-0.00307377270382457	0.000367046373618954	-0.00308512316627692	0.00035710726921967	-0.00961885487479668	0.00652739544660705
11.4	0.0188575974872143	0.0226931709590687	-0.00300798820898191	0.000781767403138317	-0.00300318244411099	0.000789267812699608	-0.0085288111532451	0.00644717542113302
11.5	0.0231956671641285	0.0191822324147316	-0.00287710439177407	0.00118840693157069	-0.00287993929475393	0.00119854750018489	-0.00780304620095586	0.00583734272907332
11.6	0.0268055875669115	0.0147973891604554	-0.00269728536883059	0.00157529070623075	-0.00269729650844024	0.00157820576765901	-0.0072799950102277	0.00527413512981946
11.7	0.0295043968326095	0.00988053413336854	-0.00245036322977088	0.00193254946745549	-0.00245101979590359	0.00194109672634113	-0.00673483669475484	0.00463920961374836
11.8	0.0314760284765056	0.00457764864433661	-0.00216690086180894	0.00227207819286712	-0.00217102198255572	0.00227372448157096	-0.00621762635970815	0.00385935753403853
11.9	0.0327316059524735	-0.0011146095581112	-0.00182506368353763	0.00255917693786325	-0.00183812287128723	0.00256334117208333	-0.00590708817386959	0.00329389517420101
12	0.0326718341571149	-0.00762436360777279	-0.00145384435719836	0.00279429290464872	-0.0014532608895793	0.00279571251673177	-0.00602990307555087	0.00242772913278582
