# GHZ S RI R 50
0.2	0.0056949649772526	0.00249335247817681	0.0030483637272243	-0.000896991028962008	0.00305872963494356	-0.000890179689032807	-0.014273490234813	0.00611974414403534
0.3	0.00630156075423313	-0.000149165272930961	0.00290459809336664	-0.00131978927822607	0.00289734585022427	-0.00130685516266636	-0.0131903963410985	0.0056318148781652
0.4	0.00589490660666574	-0.00234075201757193	0.00267384121858524	-0.00169111068071345	0.00267911516332115	-0.00169966737645294	-0.0128160536253109	0.00563281094099498
0.5	0.00478493954841967	-0.00394307810595318	0.0024162207517543	-0.00204776487304795	0.00242777261897915	-0.00205999537979399	-0.0126802764192797	0.00601242111805918
0.6	0.00340972263311904	-0.0048463947078647	0.00210503828939527	-0.0023628257080102	0.00210426016462403	-0.00236997942154262	-0.0125573594711671	0.00669263051922661
0.7	0.00202789681845329	-0.00517860668380786	0.00175904633506355	-0.00264184793266828	0.00175708902514971	-0.00264204955310146	-0.0123319800343469	0.00760602323661392
0.8	0.000909820228364491	-0.00522688646099699	0.00137423786783228	-0.00286106088752326	0.00136162889809965	-0.00286563269355034	-0.0118312564968945	0.00863144185435875
0.9	-0.000147036665362282	-0.00517401451687438	0.000957003397348895	-0.00302675833454693	0.000958053513585164	-0.00303747377664457	-0.0111117857286752	0.00948197004190443
1	-0.00126734649556512	-0.00512436201074345	0.000531100466659299	-0.00313226293652196	0.000521219286883005	-0.00313301457896489	-0.0103347533604654	0.0101012972128479
1.1	-0.00267534467543471	-0.0049437846339162	7.34941300450094E-05	-0.00316267661398944	6.99904322170704E-05	-0.00318037134631104	-0.00978252742984219	0.0106491974091784
1.2	-0.00426557357344152	-0.0045739775594085	-0.000371188411223234	-0.00315289265568268	-0.000372002728824289	-0.00315081099882508	-0.00905568227154567	0.011295735650562
1.3	-0.0058931510853661	-0.00402973492727296	-0.000801059151092301	-0.00306944978464192	-0.00080430854377188	-0.00307145940700612	-0.00774200204284679	0.0119348842014163
1.4	-0.00716064388796782	-0.00330759025933126	-0.00122489855708985	-0.00291990371588715	-0.00122368689941428	-0.00292545254569818	-0.0061385164661333	0.0119045612902858
1.5	-0.0077408199876247	-0.00207515067094449	-0.00162766666158363	-0.00272188208748899	-0.00162606191715808	-0.00273040544324103	-0.00484015912272643	0.0115228053253401
1.6	-0.00764718584479351	-0.000371718889870953	-0.00198914239083493	-0.00246678080771734	-0.00198936282205191	-0.00247202591854909	-0.00430000130114554	0.0115313990302329
1.7	-0.00687514360155556	0.00128123816683876	-0.00231742826211185	-0.00216715844202164	-0.00231838293418676	-0.0021608842343534	-0.00359311105063549	0.0118746075130254
1.8	-0.0057223067559653	0.00269668672313415	-0.00258727796882302	-0.00181330018033614	-0.00259826967426405	-0.0018189201327297	-0.00273552439855886	0.0121013465981118
1.9	-0.00439604948972928	0.00361907139777069	-0.00281077647118505	-0.00144097780548443	-0.00282321241584409	-0.00143479310700037	-0.00192704141890809	0.0121746897429441
2	-0.00308256137200669	0.00422713288300556	-0.00298428952969456	-0.00103263175691433	-0.00299390500555892	-0.00102790256809436	-0.00125754845620962	0.0122544709817984
2.1	-0.00174092206623624	0.00456627718877143	-0.00309572857607903	-0.00060448234319603	-0.00309164883762634	-0.000606481121240718	-0.000531436094987147	0.0123159616495808
2.2	-0.000335799961181236	0.00471529710065232	-0.00315160483171476	-0.000167201185856877	-0.00316290964291873	-0.000170020869231149	0.00037061390640897	0.0123611882793215
2.3	0.00115267005082107	0.00441842188329419	-0.00314623770943421	0.000274827838547845	-0.0031459421348542	0.000267946787026671	0.00133258740665046	0.0121996140378428
2.4	0.00252415566444816	0.00369903048181435	-0.00307393142696759	0.000711850930830618	-0.00307647459355048	0.000707596018614173	0.00231419531799899	0.0119214640451653
2.5	0.00357688258976008	0.00255424132028252	-0.00293769797179396	0.00112331716063616	-0.00294858585559407	0.00112970069738544	0.00327126474162492	0.0114109273944227
2.6	0.00428606664371375	0.00124515323252608	-0.0027649277783221	0.0015263503216863	-0.0027613703323229	0.00151402188158952	0.00411193583432158	0.0107570171055066
2.7	0.00479730004801608	-9.83813808813165E-05	-0.00252001754185631	0.00189859920777869	-0.00252530243939935	0.00189861046541742	0.00471077692903079	0.0100689489883217
2.8	0.00524105087733849	-0.00157661753589185	-0.00223749089114248	0.00222771494581776	-0.00222966417177818	0.00223751710745524	0.00518727723861345	0.00956745138662488
2.9	0.00551466224118083	-0.00330760754841968	-0.00190253324698952	0.00252989725976327	-0.00189881746489304	0.00252946763064606	0.00587054536938594	0.00921968060369665
3	0.00534301745801021	-0.00521315501577131	-0.00151445462839059	0.00276714793975259	-0.0015292622430993	0.00277327556915465	0.00669575322238463	0.00882678108346984
3.1	0.00476826233581629	-0.00706266470192269	-0.00112144833011573	0.00294545437653527	-0.00111676675213371	0.00295381010729638	0.00743500393009181	0.00829909509509519
3.2	0.00371626966788141	-0.00879872953202521	-0.000697446674048642	0.00308267617365145	-0.00069919690075328	0.00308206797130022	0.00795593101036794	0.0078518389114982
3.3	0.00230212648347044	-0.0104657711912506	-0.000255382839693909	0.00315110285761128	-0.000253741410281853	0.00314734901222143	0.00863032286939946	0.00734124081870796
3.4	0.000377702645837024	-0.0118514198932377	0.000194571589987023	0.00314216423395179	0.000188414979806037	0.00315878430059551	0.00934308858745982	0.00655534748769674
3.5	-0.001955084542545	-0.0128871353704899	0.000618462887823798	0.00309535723148612	0.000624066948086336	0.00309540907087549	0.00976284040779925	0.00544931731709486
3.6	-0.00459217467874246	-0.0132923618745969	0.00104753465785884	0.00297137672207323	0.00105573091748348	0.00297102068856066	0.00991096699614078	0.00452626997456687
3.7	-0.00722579802454095	-0.0130571375963878	0.00145696598935927	0.00278552197428679	0.00144744782612801	0.00279924347392854	0.010069867650865	0.00372859849640173
3.8	-0.00971521182141978	-0.0122904842315173	0.00183232106477892	0.00255414636187824	0.00183476795385566	0.00256327570772797	0.0102200016693458	0.00297159144650424
3.9	-0.0119277099318391	-0.0111346432403048	0.00217407438281662	0.0022780051292164	0.00216681356167798	0.00227626300634048	0.0103521588395153	0.00220058995341353
4	-0.0139565490841942	-0.00963580162236123	0.00245401754883223	0.00195552834483912	0.00245844486980434	0.00195308121306054	0.0104933350069441	0.00148103672058406
4.1	-0.0157245681266324	-0.00774173654169982	0.00270119372494849	0.00159600909653972	0.00269994766946047	0.00159674714879089	0.0107114922853914	0.00078633287575472
4.2	-0.0171313303037833	-0.00545958592402127	0.00289630221829228	0.00119682127791625	0.00290072760375617	0.00118812270671046	0.0109195905921866	5.40237472909998E-05
4.3	-0.0180604936522956	-0.00302848240003848	0.00303645588624537	0.000787863301242872	0.00304283903938931	0.000780075068940821	0.0111161298902095	-0.0008094717582948
4.4	-0.0186732566504987	-0.000476800528595842	0.00311143190310778	0.000357423129935804	0.00311379493647038	0.000355171363942956	0.0111649977789554	-0.00171339024481776
4.5	-0.0189397073958931	0.0022127873629138	0.00313432123919561	-7.7099195336722E-05	0.00313966207101224	-8.04652879355759E-05	0.0111678815279781	-0.00264298345735245
4.6	-0.0188388939654779	0.00501126855634725	0.00309162778670178	-0.000517182689184643	0.00309285570709919	-0.000504305472023113	0.0110013196267392	-0.00367613259222347
4.7	-0.0181047908442591	0.0079116173488746	0.00298844629417096	-0.000934464509188483	0.00300369881968903	-0.000944058855443307	0.0106057018307017	-0.00466044798473739
4.8	-0.0167731463074561	0.0106501077123814	0.00282944634056823	-0.00134825013732339	0.00283791159963655	-0.00135432815650194	0.0101370566080277	-0.00544369726092256
4.9	-0.014740315885077	0.0130123269443966	0.00261019220054123	-0.00173315130594857	0.00261435403598044	-0.00173024989916275	0.00975002585656299	-0.00606287243325687
5	-0.0122953030802183	0.0148164099213847	0.00235093417979445	-0.00208963565204616	0.00235455468772363	-0.00208697494138498	0.0096363369925193	-0.00663657182090829
5.1	-0.00937928658166623	0.0161422891646839	0.00203942917174956	-0.00240155133029785	0.00204173012695748	-0.00240019653808872	0.00958287853723219	-0.00737907037740088
5.2	-0.00626481341931765	0.0168063592336224	0.00168012774676426	-0.00265209072214727	0.00168183174979559	-0.00265723395806181	0.00942382533364041	-0.00811986772377974
5.3	-0.00306993066759867	0.0167671299531944	0.00129110568787391	-0.00286700894473572	0.00129424078214295	-0.00286495485510987	0.00925483038516225	-0.00874878105402714
5.4	-0.000102457703677576	0.0160660081921999	0.000864040962306643	-0.00301257201798556	0.000881154355963227	-0.00302381725358814	0.00914419614219169	-0.00958225864505484
5.5	0.00243479726778497	0.0149219714265163	0.000448907752600557	-0.00310723997122219	0.000458911215489263	-0.00311668494575841	0.00875383640897798	-0.0106331040856206
5.6	0.0045854334732749	0.0134881229083207	1.02186718410707E-05	-0.00313918032185997	1.70350134639378E-06	-0.00314235979634416	0.0079025513128262	-0.011533347811193
5.7	0.0063777253797686	0.0118417327880847	-0.000419287100954043	-0.00310425621374017	-0.000435854909165371	-0.0031078431200415	0.00682057527548674	-0.0120448451805341
5.8	0.00787336102839475	0.00991685453620498	-0.000861703526102301	-0.00300533423523296	-0.000865271257348753	-0.00301924906723289	0.0057876219179304	-0.0124102248330015
5.9	0.00891403013277561	0.00774686852962403	-0.00126166901583681	-0.0028626725917653	-0.00126985553574076	-0.0028625673766405	0.00473888934022986	-0.0126312391755368
6	0.00936718108753023	0.00534742817827831	-0.00165388343924693	-0.00265560146414944	-0.00165034413939742	-0.00265577482679598	0.00365264159814839	-0.012680690794776
6.1	0.00923582663730877	0.00294806767023781	-0.00200285157734031	-0.00240246668748756	-0.00200447519696977	-0.00239848663244821	0.0027990799192295	-0.0125471750818751
6.2	0.00862023030772814	0.000627555111872938	-0.00231024287258678	-0.00209285698210494	-0.00231392916030856	-0.00210464598105284	0.00218043899412545	-0.0125197861541994
6.3	0.00768562447976838	-0.00161261696542658	-0.00258407030342337	-0.00176353079692646	-0.00259314147358296	-0.00175783896591456	0.00170534575941348	-0.0127160532559375
6.4	0.00622168733722144	-0.00376156369993534	-0.00280852260434055	-0.00137916101927321	-0.00279885167012479	-0.00138401329252017	0.00128497814406915	-0.0130747274306752
6.5	0.00431629591494181	-0.00552018496594829	-0.00296564138591329	-0.000980429813584425	-0.00297346890538733	-0.000975997137946618	0.000830557856593314	-0.013640558373756
6.6	0.00215241602179915	-0.00662334164661635	-0.00307643827648967	-0.000560917841483128	-0.00307804898846162	-0.000564880242438763	0.000163416555224414	-0.0142364148387233
6.7	-2.41716342111679E-05	-0.00712405135380882	-0.00313125954652747	-0.000127076733165614	-0.00314010239920463	-0.000120859887590436	-0.000897000553721965	-0.0145739014725725
6.8	-0.00219763778828366	-0.00715148567949322	-0.00311478304879026	0.000312463220853562	-0.00312586270671497	0.000317448350903146	-0.00201600255066883	-0.0144822563373893
6.9	-0.00441507469185629	-0.00670670787233043	-0.00304431461739203	0.000745853313051922	-0.00304730489792347	0.00074822635448921	-0.00293806310571594	-0.0141764465865864
7	-0.00653348973525367	-0.00570866345295936	-0.00291165296433733	0.00116826566680853	-0.00292445641062996	0.00116602456042213	-0.0037088927748317	-0.0139611547640474
7.1	-0.00847007469592021	-0.00413645926167252	-0.00273646844074969	0.00155967061852915	-0.00273283468280627	0.00156834133567495	-0.00462735856655928	-0.0136640104378378
7.2	-0.00995897704225145	-0.00205886006070835	-0.00248107161199237	0.00193054527417096	-0.00248760380644762	0.0019326072797869	-0.00549469219154469	-0.0131296822018661
7.3	-0.0109563922012667	0.000254995935449651	-0.00218531174239829	0.00225200154055278	-0.00219653058359797	0.00225703333584012	-0.00610792145910337	-0.0125076109302286
7.4	-0.0114956437630185	0.00266695624254158	-0.00184257748436951	0.00253656211810928	-0.0018494734400659	0.00255015621891351	-0.00664917494538859	-0.0119652622093016
7.5	-0.0116599880654891	0.00502935118241901	-0.00147556922875713	0.00277591186728008	-0.00146858766787405	0.00278330586048051	-0.00687589411622573	-0.0116410782476576
7.6	-0.0113910866901139	0.00730832661978133	-0.00106839307237474	0.0029532972158198	-0.00106976422429514	0.00294860655274719	-0.00697191306835308	-0.0117994118295144
7.7	-0.0105188674495668	0.00953201248365245	-0.000640192403791901	0.00307264304841875	-0.000641529367769156	0.00307158326984264	-0.00743106640539429	-0.0122245697736251
7.8	-0.00897970008682924	0.0113511994718864	-0.000216030788340555	0.003119651155921	-0.000223818747509351	0.00312608593456102	-0.00815662522168653	-0.0125261995526198
7.9	-0.00690879991206343	0.0126011924733296	0.000222058613005951	0.00312520607234273	0.000229970243735631	0.00312670731558519	-0.00887326118283044	-0.0124923808880224
8	-0.00475123902497043	0.0135547679427968	0.000659685241301309	0.00305294441243495	0.000659757716795781	0.00305782433440734	-0.00981066894534801	-0.0126282459943724
8.1	-0.00217814219000557	0.0140523833111878	0.00106572894572687	0.00293684094609115	0.00108479061643058	0.00293797452283833	-0.0107257436722006	-0.012341449103673
8.2	0.000474544204975264	0.0140814975667943	0.00146635299912628	0.00275962616222558	0.00147558723123953	0.00275249697775803	-0.0116534055580479	-0.0117963678559024
8.3	0.00312087184869373	0.0134758607573497	0.00184014058507162	0.00252602441394934	0.00183843835751132	0.0025395135114905	-0.0123754594357637	-0.0110912577498419
8.4	0.00549241611356097	0.0123407009811689	0.00217528720098353	0.00225476612247444	0.00217226799272898	0.00225452485133612	-0.0129524517547549	-0.0104487420546452
8.5	0.00749215703544803	0.0107570591893101	0.00246298820855943	0.00193071869470293	0.00246207237087309	0.0019338890687779	-0.0135803677594407	-0.00985082353597501
8.6	0.00910156879488551	0.00894451266015285	0.00271334121302948	0.00157612115939976	0.00272287581548552	0.00156965494297718	-0.014256489454387	-0.00925258875021765
8.7	0.0104291533189981	0.00684532451494813	0.00290529681415769	0.00117740204328504	0.00291085193123333	0.00117816575377004	-0.0149930058666789	-0.00854788950509433
8.8	0.0114316433655424	0.00440915145268516	0.00304906037319366	0.000768171811769234	0.0030549001321508	0.000759441217948881	-0.0157559598977023	-0.00773529491421842
8.9	0.0120010214346519	0.00154166393483789	0.00313380399634692	0.000333196492295777	0.00313294594621228	0.000330937601457517	-0.0161712557563424	-0.00663571865381066
9	0.0118562589972616	-0.00163381785420637	0.00314994051140439	-0.000113560529140875	0.00315308427060315	-0.000109425255574665	-0.0161630503515741	-0.00553258781738381
9.1	0.0110264735789669	-0.0048545949377909	0.00310832431178193	-0.000560310095783815	0.00311115615723142	-0.000547341223414013	-0.0158871014206723	-0.00464781322134711
9.2	0.009380031449675	-0.00789400817535655	0.00300101705098834	-0.00098415967079579	0.0030087237801854	-0.000987019983743913	-0.0156112873977548	-0.00396350426580077
9.3	0.00702742804670302	-0.0105716460105678	0.00283224505795874	-0.00139568975359896	0.0028315247330987	-0.00140070773100729	-0.0152404717863077	-0.00328724487694124
9.4	0.00395233085960994	-0.0126578183053838	0.00260755538711444	-0.00179126969059451	0.0026140855773048	-0.00178362308471622	-0.0148155232966988	-0.00275621876537875
9.5	0.000303556337274848	-0.013884227912568	0.0023287678439393	-0.00212912399830915	0.00233621397220897	-0.00213047115759601	-0.014521685653075	-0.00246188192817704
9.6	-0.00359386561526566	-0.0140919267072717	0.00200767110312506	-0.00243443373404567	0.00200800201718614	-0.00243344800083507	-0.0146078291488922	-0.00219774316264475
9.7	-0.00740796092201644	-0.0133205771807641	0.00163683733217757	-0.00268478382459411	0.00164238657123961	-0.00269211226558096	-0.0148601315765218	-0.00166984970905447
9.8	-0.010974785825042	-0.0118011615734476	0.00124947397923818	-0.0028921841110865	0.00125518526656085	-0.00288367021115978	-0.0150785697919803	-0.000889997307659417
9.9	-0.014215821448944	-0.00955243813256785	0.000843387530551587	-0.00302942840950856	0.0008360475778812	-0.00302820121610278	-0.0151860148546434	5.08596484283839E-05
10	-0.0171042094539258	-0.00660745674925416	0.000414013104308802	-0.00311706632564437	0.000406528079264249	-0.00312952131765921	-0.0151085123529828	0.000997951016827886
10.1	-0.0193176388380043	-0.00295969940090181	-2.62191728240648E-05	-0.00314808537623042	-3.6460700884883E-05	-0.00314270658099321	-0.0148533230557917	0.00180395246944194
10.2	-0.0206383992826557	0.00113586493634475	-0.000469983337083828	-0.00311240499070188	-0.000473397362561344	-0.00310963364066052	-0.0144986912733097	0.00257853523373718
10.3	-0.0210373480357983	0.00540247629475941	-0.000900665737648853	-0.00300956249940633	-0.000892541157099148	-0.00301861333871089	-0.0139741893086078	0.00331445242709592
10.4	-0.020606477725741	0.00961819781674399	-0.00129747834271528	-0.00285903067045356	-0.00129575531189229	-0.00286522665519161	-0.0131354230132341	0.0037552762678783
10.5	-0.0195006815940949	0.0137851610962773	-0.00169051533838738	-0.00266507748793935	-0.00168746605310509	-0.00265203463442275	-0.012322422278045	0.00384594812842384
10.6	-0.0174546804210489	0.0179306866024583	-0.00204699169873945	-0.00239938214755629	-0.00204477903506768	-0.00240320664114303	-0.0117525226313795	0.00376858004252964
10.7	-0.0145320560953298	0.021786982683037	-0.00236790210980524	-0.00210032638378355	-0.00236441735867957	-0.00209500441463746	-0.0114115897877922	0.00377171984775854
10.8	-0.0107101190362197	0.0250321847865529	-0.00264404501567075	-0.00174088246882975	-0.00263877631078572	-0.00174983703703626	-0.0111637989428339	0.00389363689180986
10.9	-0.00630058012756671	0.0275254646766263	-0.00285932328101296	-0.00136473361156545	-0.0028645495399914	-0.00136401630166609	-0.0109174339837619	0.00406209259936736
11	-0.00132445434533031	0.0292003618894591	-0.00302486495487772	-0.000943487190041054	-0.00302973006514666	-0.000950292364149994	-0.0105986769446593	0.00424353447953847
11.1	0.00405167322153071	0.0299794579193485	-0.0031377749122906	-0.000511622410141331	-0.00312682762289221	-0.000508725775704077	-0.0102781533680745	0.00433188787616017
11.2	0.00974628884939149	0.0296247666991591	-0.00316879961939075	-6.56708997107456E-05	-0.00317601555718545	-7.05472198690338E-05	-0.00993804419861553	0.00446842844647543
11.3	0.0155039253790485	0.0278972651463492	-0.00314070650140127	0.00039149115804467	-0.0031523637317601	0.000381389256815952	-0.00935668738178875	0.00466060598491231
11.4	0.0207047544814057	0.0249626356724783	-0.00306305232111073	0.000826625941313235	-0.00305807534973888	0.000834236480115297	-0.00871515794570804	0.00474490591408206
11.5	0.0251668217790307	0.020994912604923	-0.00291353421463917	0.00124752880494103	-0.00291628763470242	0.00125788968490502	-0.00812563730538404	0.00452732528918678
11.6	0.0287962427215352	0.0161733371029485	-0.00271177966446091	0.00164053334153723	-0.00271174521090506	0.00164349096465627	-0.00761006281570095	0.00406171371032231
11.7	0.031502014779079	0.0107255683232014	-0.00244305374268418	0.00199497972514678	-0.00244357058072609	0.00200362841591838	-0.00721382343539699	0.00352510547617031
11.8	0.0331888084883477	0.00477714835051982	-0.00214136706876967	0.00232452395844996	-0.00214548620701968	0.002326252670736	-0.00685569632619516	0.00311443071659543
11.9	0.0336437518384711	-0.00142108176820735	-0.00178757877842024	0.00259597907198425	-0.00180060328819211	0.00260036974056836	-0.00651922141237691	0.00296917334214142
12	0.0328525193441052	-0.00764889894247762	-0.00141224726375253	0.0028141555091116	-0.00141164332590915	0.00281556587596448	-0.00605758467426507	0.00262180728538626
