# GHZ S RI R 50
0.2	0.0060575458287539	0.00133497729518151	0.0030483688103065	-0.000897632498643816	0.00305873664066896	-0.000890822762919398	-0.0138607273648388	0.00501804993237137
0.3	0.00629668869865518	-0.000725221005768507	0.00290430464629227	-0.00132085790042843	0.00289705644192761	-0.00130792058829439	-0.0131432564321787	0.00508772354564459
0.4	0.00597227369875692	-0.00236041777283954	0.00267295360866586	-0.00169249294321143	0.00267822309176463	-0.00170105234669979	-0.0127403109035806	0.00563185082354765
0.5	0.00526121259171299	-0.00368543170462356	0.00241447789736708	-0.00204917943784505	0.00242601973246623	-0.00206141638783475	-0.0122851418867319	0.00633856116842053
0.6	0.00431864092432743	-0.00470490144717395	0.00210234850552235	-0.00236382285684822	0.00210156459803892	-0.00237097355175199	-0.0117666795673164	0.00702123251871895
0.7	0.00311981678720059	-0.00543206981387963	0.00175554448373193	-0.00264193480317084	0.00175358813787553	-0.00264213447766407	-0.0113010272185534	0.00766728343864566
0.8	0.0018215770455849	-0.00587142876631218	0.00137031894562212	-0.00285982817565643	0.00135771681122642	-0.00286438402398923	-0.0108478208302693	0.00834838876329519
0.9	0.000355071775786519	-0.00592920340852375	0.000953239052168276	-0.00302397596096588	0.000954278631325417	-0.00303467952718304	-0.0104266391449759	0.00900789193566448
1	-0.00110043551203487	-0.00562623670453324	0.000528141864567868	-0.00312797798655906	0.000518274842193144	-0.0031287216679012	-0.0100072106698684	0.00972876361636644
1.1	-0.00250056848443701	-0.0050190325950847	7.20118898151897E-05	-0.00315724285435821	6.85066641743104E-05	-0.00317490550798399	-0.00963028557158293	0.0106244280878857
1.2	-0.00374645623001526	-0.00439339896630227	-0.000370785334640018	-0.00314689383152731	-0.000371597914554825	-0.00314481603484431	-0.00878275312248315	0.0116300227618701
1.3	-0.00503002909798534	-0.00392150736721375	-0.00079863258204583	-0.00306367148546604	-0.000801875057038833	-0.00306567808813273	-0.0072173749413779	0.0124044902838328
1.4	-0.00616932123148754	-0.00336144134678552	-0.00122061313817498	-0.00291513365060891	-0.00121940010657768	-0.00292067106097512	-0.0054725476090389	0.0123513485588604
1.5	-0.00666758731537206	-0.00230485660648086	-0.00162200110447358	-0.00271875995612378	-0.00162039042553294	-0.00272726664611046	-0.00405896488256093	0.0119291922283987
1.6	-0.00657945829170222	-0.000900554859263132	-0.00198284810194174	-0.00246570255699287	-0.00198306121014414	-0.00247094003252023	-0.00336944243030447	0.0117888601512584
1.7	-0.00602571340300315	0.000483355522840995	-0.00231132170169177	-0.00216817983644624	-0.00231228496477296	-0.00216191454847846	-0.00264641534884694	0.0118769640938962
1.8	-0.00519657226792517	0.00185384551349929	-0.00258215900483849	-0.00181611152084536	-0.00259313241881191	-0.00182174511729302	-0.0019544877992386	0.0119097981313805
1.9	-0.00406891366232059	0.00294411107719691	-0.0028071617324772	-0.00144498492347543	-0.00281960242094789	-0.00143882347575409	-0.00137324735409739	0.0119719370563873
2	-0.00273033095408999	0.00373852391539104	-0.00298243577882474	-0.00103710066744534	-0.00299205760251598	-0.00103238661879088	-0.000828250900403276	0.0121939439229567
2.1	-0.00124611267186796	0.00409712924282322	-0.00309552624899093	-0.000608640435014091	-0.00309144312603817	-0.000610634263560891	-5.1683496157397E-05	0.0123970330726692
2.2	0.000206564913690647	0.0040926991612396	-0.00315261660272166	-0.000170435687626631	-0.00316392280896001	-0.000173267804386802	0.000988037437042536	0.0124333544062058
2.3	0.00153627296038601	0.00365528622239521	-0.00314780611275067	0.000272849756686937	-0.00314750581726322	0.000265965873166034	0.00199532334826011	0.0121035723827136
2.4	0.00265555077946834	0.00299822908164028	-0.00307533424521899	0.000711103555845347	-0.00307787696880052	0.000706846186124654	0.00282358151517354	0.0116556145673438
2.5	0.00360209378485379	0.00211120028066004	-0.00293831313906877	0.00112342755891099	-0.00294920338516006	0.00112981193826901	0.00351636271265311	0.0111512708933916
2.6	0.00443515959237988	0.0010282271248926	-0.00276441115440619	0.00152668229437794	-0.00276085614629824	0.00151435438489819	0.00418472338733081	0.0106841445061661
2.7	0.00513752936590493	-0.000267609823139262	-0.00251838928734832	0.00189840432195601	-0.00252367180730201	0.00189841695495292	0.00477949319724955	0.0101896695111421
2.8	0.00568773248482264	-0.00177747483854671	-0.00223514469612261	0.00222633882294354	-0.00222732239343892	0.00223613112256458	0.0052956959400605	0.00978606283610033
2.9	0.00605529579929171	-0.00349565098916252	-0.00190017642609081	0.00252691830793426	-0.00189646511426027	0.00252648908486747	0.00596877407409348	0.00953160540454549
3	0.00606106953667479	-0.00542114382774592	-0.00151296654467476	0.00276255941402066	-0.00152775365471118	0.00276867362340764	0.00681984028647641	0.00931147949637478
3.1	0.00566099799434572	-0.00744968999106839	-0.00112161132255433	0.00293963438540383	-0.00111694363175056	0.0029479791523478	0.00772429269478006	0.00893462467082004
3.2	0.0046388644843065	-0.00944776452396506	-0.000699906207375089	0.00307637673561935	-0.000701652603083912	0.00307576751295277	0.0084809473660266	0.00850431007835885
3.3	0.00309377305410694	-0.0113030505003872	-0.000260355668258425	0.00314534166271654	-0.000258710573761629	0.00314159697386285	0.00930780012043565	0.00786163096823749
3.4	0.00102617044042587	-0.0127211135509814	0.000187337598097508	0.00313803079133676	0.000181153161762418	0.00315461309765679	0.0100184380636627	0.00694218776576506
3.5	-0.00132837012828271	-0.0137361019435944	0.000609608795302674	0.00309367987059762	0.000615206718221928	0.00309374648572752	0.0103876936130251	0.00583111188226548
3.6	-0.00393970284974157	-0.0142153463754859	0.00103812789400348	0.00297281029383078	0.00104632059085012	0.00297247878017967	0.0105759697704984	0.00496079974997433
3.7	-0.00664508459464502	-0.0141401624226566	0.00144824937163688	0.00279018319272697	0.00143868779029111	0.00280387515894548	0.0108807642615259	0.00412774813415957
3.8	-0.00935305392965609	-0.0134449497860384	0.00182547876453072	0.00256161418899485	0.00182789848313289	0.00257075729039664	0.0111077492171517	0.00317551560403545
3.9	-0.0117649310025555	-0.0121659903565092	0.00217005336113738	0.00228741881065305	0.00216278844376117	0.00228565276279385	0.0111174694193915	0.00220095276866143
4	-0.0138117610031402	-0.0104721121957793	0.00245333395281916	0.00196563213561147	0.00245777589824644	0.00196319226011227	0.0110358681025353	0.00145552812721531
4.1	-0.0154741908302473	-0.00850142354697975	0.00270385701491521	0.00160552500417784	0.00270260651774299	0.00160626201883804	0.0111399590735822	0.000887210067729873
4.2	-0.0168376004229029	-0.00626452048784301	0.0029017740378339	0.00120453346229018	0.00290622470738976	0.00119581979315708	0.0113869593038	0.000236368229265804
4.3	-0.0178391580383122	-0.00383337395836744	0.00304372350991429	0.000792960983168337	0.00305013130104562	0.000785158433510216	0.0116112404902067	-0.000686085866503773
4.4	-0.018493363005459	-0.00114925224326937	0.00311926660264056	0.000359560320494207	0.00312163657643485	0.000357303710323999	0.0115358778481114	-0.00167024544889277
4.5	-0.0186403051755276	0.00169536325287298	0.00314153981346294	-7.7688694154559E-05	0.00314689252073531	-8.10632514950047E-05	0.0113333355822179	-0.00252527467631151
4.6	-0.018315965152781	0.00449826610658959	0.00309726822595562	-0.000519817771062356	0.00309850534963172	-0.000506916567421652	0.0110654830850718	-0.0033324755990352
4.7	-0.0174335085006283	0.00724824444010127	0.00299200302890082	-0.000938108162994386	0.00300726998420299	-0.000947728012580262	0.0107676117555232	-0.00411055785727533
4.8	-0.0161149489222968	0.0098361732193285	0.00283091782128238	-0.00135184534405456	0.00283938577876088	-0.0013579359946405	0.0104391259411719	-0.00485464457165254
4.9	-0.0141168189023036	0.0121612769749044	0.00261006210168042	-0.00173576188674591	0.00261422779186995	-0.00173286222749187	0.0100779955245196	-0.0055032000112269
5	-0.0116112041440063	0.0139394192610939	0.00235005303537272	-0.00209069297517586	0.00235367475744438	-0.00208803381087397	0.00993176923214857	-0.00599309725196866
5.1	-0.00863722590173849	0.0151118887266227	0.00203881141688438	-0.00240096008571243	0.00204111178884495	-0.00239960572361882	0.00999224103751341	-0.00658164921226977
5.2	-0.00563782454411988	0.01558552951502	0.00168069817155667	-0.0026502742823664	0.00168240388935489	-0.00265541471544806	0.0100831428126922	-0.00733549702117327
5.3	-0.00267514243389872	0.0155277465663394	0.00129349605648732	-0.00286478481375033	0.00129662808691348	-0.00286272832397925	0.0100412488741892	-0.00819946406164022
5.4	0.000176365567387218	0.014994052046675	0.000868414528669221	-0.00301102576539729	0.000885543004609595	-0.00302224471021348	0.00979325998519509	-0.0092434083049307
5.5	0.0028112047775457	0.0139901802985689	0.000454917540177318	-0.0031074077218378	0.000464942092274757	-0.00311683690509835	0.00918033688760674	-0.0102533680033025
5.6	0.00512085234261549	0.012495730803008	1.70004895673032E-05	-0.00314193648586681	8.48464278559868E-06	-0.00314513714564104	0.00830169132407327	-0.010931918498846
5.7	0.00690145424297312	0.0106538123887306	-0.000412952193506872	-0.00310995700931748	-0.000429537335047717	-0.00311358665411879	0.00743451799394725	-0.0113308428652142
5.8	0.0081972785514457	0.00862450937668768	-0.000857209954753548	-0.00301383457742822	-0.000860755944752679	-0.00302778786706852	0.00665656060036539	-0.0118693305969102
5.9	0.00902104620652792	0.00658648077040343	-0.00126012285717103	-0.00287315776033666	-0.00126833304286783	-0.00287306701171214	0.00560386506409828	-0.0124465700937337
6	0.0094567236327358	0.00445211199314626	-0.00165612912059556	-0.00266680616860581	-0.00165257749509384	-0.00266697557945322	0.00421483236470635	-0.0127266523731848
6.1	0.00950837839801531	0.00221418193944621	-0.00200903638215919	-0.00241285001857002	-0.00201066861291847	-0.00240885576107172	0.00302013484234601	-0.0125283562086158
6.2	0.00906611797830893	-0.000130783020995284	-0.0023198739113382	-0.00210085077093561	-0.00232357703502873	-0.00211268641969144	0.00225691029914734	-0.0123125984882644
6.3	0.00818659056189962	-0.00241274562848251	-0.00259610841662689	-0.00176799435468772	-0.00260521007472886	-0.001762270869877	0.0017333335556355	-0.012425415162835
6.4	0.00683508186285345	-0.00452861464724632	-0.00282142474359395	-0.0013793221966115	-0.0028117263892289	-0.00138420967086606	0.00113822544029444	-0.0126934307242323
6.5	0.00516763375737722	-0.0063860910484298	-0.00297770994161856	-0.000976371077937786	-0.00298555213907982	-0.000971904798636636	0.000562374463843926	-0.0129177177449273
6.6	0.0031168443844881	-0.00781507425454409	-0.00308620028842649	-0.000553293212607206	-0.00308782696570555	-0.000557261284054283	0.000127540847765241	-0.013115352633673
6.7	0.000758013625086268	-0.00861806816892397	-0.00313762882658338	-0.000117095253434396	-0.00314646819768558	-0.000110837715305539	-0.000477884998032672	-0.0133815576405112
6.8	-0.00171111094714979	-0.00867455684587606	-0.00311727381456007	0.000323234291434342	-0.00312834937826909	0.000328262132542918	-0.00132804511903568	-0.0135623052572505
6.9	-0.00404267674200856	-0.00806140465273208	-0.00304316350236696	0.000755908102694645	-0.00304614739768215	0.000758291687491657	-0.00233502059704112	-0.0135280139489056
7	-0.0060310768008868	-0.00695272317504179	-0.00290766406561481	0.00117634380406077	-0.00292047109686965	0.00117413985158553	-0.00334204326229544	-0.0132668276920228
7.1	-0.00779933614434758	-0.00553069821754322	-0.00273087476461015	0.00156507023754902	-0.00272722298969273	0.00157372632945278	-0.00425645816653969	-0.0126612900023913
7.2	-0.00935625454981242	-0.00376610924724391	-0.00247522576623295	0.00193306398419039	-0.0024817479294015	0.00193513556811475	-0.00473723088802503	-0.0119248399043911
7.3	-0.0107131672377726	-0.00162643612240212	-0.00218045888194683	0.00225213887842824	-0.00219166025537592	0.00225717820567359	-0.00484111562309882	-0.0115318173852208
7.4	-0.0116807091593355	0.000918622231181833	-0.00183956687501216	0.00253525974910042	-0.00184644937844305	0.00254884528305837	-0.00514886737074826	-0.01162420518099
7.5	-0.012020222096953	0.00367940740662462	-0.00147470425984865	0.00277440848688438	-0.00146772641194833	0.00278179827388237	-0.00565283358288734	-0.0118803828239169
7.6	-0.0115928022424957	0.00631556184189612	-0.00106935470612027	0.0029528282021845	-0.00107072421942253	0.00294813724478107	-0.00623944785026836	-0.0121750835380563
7.7	-0.0106122063319165	0.00870356638693652	-0.000642060671543564	0.00307413357978776	-0.000643397904507155	0.00307307253024302	-0.00705266709068032	-0.0126567013773284
7.8	-0.00891561872388244	0.0106905795104975	-0.00021754887518992	0.00312344225873425	-0.000225349091988752	0.00312988191616881	-0.00812889692587696	-0.0129501762584022
7.9	-0.00655916834698545	0.0121147652437919	0.000222222911623592	0.00313104046168569	0.000230149148031066	0.00313254512943196	-0.00935693575522666	-0.0127750433778198
8	-0.00388923898868836	0.0128967936068111	0.00066266062055193	0.00305984624314389	0.000662735533455489	0.00306473765326381	-0.0105771898932482	-0.0122318818100686
8.1	-0.00108221059736654	0.0130106473649448	0.00107203488861098	0.0029434385587472	0.00109114885690558	0.00294455273102231	-0.0114101295529422	-0.0113059981568491
8.2	0.00149985991539976	0.0126208833523801	0.00147588057668458	0.00276428119817358	0.00148512595520812	0.00275711402961038	-0.0118429482090027	-0.0103993723384284
8.3	0.00390968694045335	0.0118465949238417	0.00185198664890058	0.00252728418554621	0.001850318193281	0.00254081259505533	-0.0121452675392035	-0.00977784857485688
8.4	0.00616540325648907	0.0107611794432984	0.00218799845304214	0.00225172354945886	0.002184971982831	0.00225149261870829	-0.0126664358402198	-0.00933917691212785
8.5	0.00826166949800833	0.00918589599877943	0.00247473768498079	0.00192312837077169	0.00247383390649207	0.00192630723811294	-0.0134480881479915	-0.0086775552602043
8.6	0.00998203889719097	0.00715097207899448	0.00272238721827039	0.00156446931818753	0.00273189767994296	0.00155795462267733	-0.0140728726729873	-0.00772467854304752
8.7	0.0111833140314555	0.00471513874720996	0.00291010718008808	0.0011629486670924	0.0029156642811413	0.00116368520224334	-0.0143588867192536	-0.00676848440974258
8.8	0.0118012907740397	0.00212120618613122	0.00304884749788353	0.000752637673245127	0.00305463814432902	0.000743890310240315	-0.0145441105189523	-0.00613952709725248
8.9	0.012018216974747	-0.000577053119200943	0.00312845324834685	0.000318566355417424	0.00312758704580264	0.000316316194062956	-0.0147236837523179	-0.00556817938978362
9	0.0117918011709081	-0.00346242341248693	0.00314020337893951	-0.000125411657132664	0.00314335385691319	-0.000121300752219282	-0.0149019141594059	-0.00486982501755558
9.1	0.0110110487440626	-0.00651732929606352	0.00309559360270761	-0.000568046276759724	0.00309845598068942	-0.000555132064994204	-0.0148563834333448	-0.00408351760747377
9.2	0.00938278466230919	-0.00948519372523514	0.00298714650989589	-0.000987153394947575	0.002994816863455	-0.000990020104770447	-0.0146432951536801	-0.00345651085464698
9.3	0.00703048532215496	-0.0119925520165568	0.00281908892415446	-0.00139404200672819	0.00281836456458405	-0.00139903908233471	-0.0144079090108091	-0.00299655177960852
9.4	0.00415121386539942	-0.0138829826339294	0.00259672666877071	-0.00178581855747052	0.00260323602360463	-0.00177820436815966	-0.0144013326045752	-0.00259825536482971
9.5	0.000854960314522138	-0.015065338329125	0.00232132972875658	-0.00212135927307029	0.00232875084244131	-0.00212270017247225	-0.0145268554823085	-0.00200539610770429
9.6	-0.0027835670141605	-0.0155521610649631	0.00200392515072809	-0.00242599942066161	0.002004254358829	-0.00242501620523321	-0.0146718487612041	-0.00122337752438726
9.7	-0.00664737327009664	-0.0151368541338824	0.00163636906964393	-0.00267727923394392	0.00164191474301668	-0.00268458598460165	-0.0145637020873356	-0.000374759268765277
9.8	-0.0104827988262458	-0.013761890818863	0.0012512062021282	-0.00288672981822247	0.00125689951503246	-0.00287822078874169	-0.014382003137501	0.000279703649665967
9.9	-0.0139364866011745	-0.0113720346759234	0.000845895939886718	-0.0030265473704729	0.000838559650406663	-0.00302532844159931	-0.0144479967435573	0.000868792616834124
10	-0.0167807470908296	-0.00827885113815464	0.0004158465063103	-0.00311656291770385	0.000408369555700141	-0.00312902137319156	-0.0146067326280457	0.0016832632138278
10.1	-0.0188924454750743	-0.00467017310624642	-2.62396818414793E-05	-0.00314906562468636	-3.648437826119E-05	-0.00314368511418586	-0.0144729735144312	0.00264392384539501
10.2	-0.0202909623450353	-0.000680504334051579	-0.000472440707178018	-0.00311348029752069	-0.000475854285953952	-0.00311070522691452	-0.0139426111403576	0.0034955940207131
10.3	-0.0208709957486642	0.00368600573200894	-0.000905350157870568	-0.00300921255328753	-0.000897236189733071	-0.00301827816198687	-0.0132756377524567	0.00395658096639838
10.4	-0.0204125991897678	0.00819766211896575	-0.0013034576659498	-0.00285603367603159	-0.00130174796603793	-0.00286223281901007	-0.0127053569860184	0.00404135399567238
10.5	-0.0189392316636704	0.0125741161327071	-0.00169633048746558	-0.0026587016883103	-0.0016932489867158	-0.00264567625645968	-0.0124238697293811	0.00420614656136102
10.6	-0.016580690702294	0.0165206125613878	-0.00205089718670963	-0.00238973271272755	-0.00204869909181178	-0.00239355785651366	-0.0121372813152844	0.00452283295907305
10.7	-0.0135519335603757	0.0200758314775797	-0.00236836759344718	-0.00208826141644616	-0.00236487557733774	-0.0020829626006204	-0.011685208218023	0.00491744740425867
10.8	-0.00978377189098376	0.0231563701353401	-0.0026399569604464	-0.00172799397052434	-0.00263472982427974	-0.00173693300680987	-0.0112661921331007	0.00512871208288927
10.9	-0.00532294168217872	0.0255952755831776	-0.00285046231800429	-0.00135289062046618	-0.00285566541546618	-0.0013521649419802	-0.0110897045195096	0.00531316018033443
11	-0.000169437090875382	0.0270794131564735	-0.00301168612264094	-0.00093470397231978	-0.00301653748034394	-0.000941469660511812	-0.0109441779990609	0.00582706746277327
11.1	0.00525243139582483	0.0274069198632817	-0.00312157881983153	-0.000507482799905738	-0.00311068751932968	-0.000504606430389792	-0.0104469611663146	0.00651636657168122
11.2	0.0106187822773493	0.0265773962429954	-0.00315160968822854	-6.71776371591841E-05	-0.00315878370368887	-7.20318044543398E-05	-0.00943000362435486	0.00704831300278082
11.3	0.0157750494144341	0.0247260813262834	-0.00312472796885174	0.000384184474193026	-0.0031363066372973	0.000374116639875345	-0.00805023550212794	0.00706962849669856
11.4	0.0205085204012072	0.0220064104205097	-0.00305028981966522	0.00081434981894631	-0.00304535764947214	0.000821936503957419	-0.00699466068684119	0.00659962640358558
11.5	0.0247695745313387	0.018325549322692	-0.0029056777515618	0.00123186212813232	-0.00290845651129944	0.00124216941381478	-0.00638325083689776	0.00592439300137452
11.6	0.0282945144823215	0.0136976551349135	-0.00270963613536683	0.00162358251064536	-0.00270961429598655	0.00162653038013633	-0.00583581835728034	0.00521636815437744
11.7	0.0308067589603775	0.00846966744683198	-0.00244654076817427	0.0019790614234771	-0.00244709625504027	0.00198768753079975	-0.0052658874660707	0.00429350583744079
11.8	0.0323680457239207	0.00296145289601031	-0.00214951700177645	0.00231150149590951	-0.00215363895848746	0.00231320867802082	-0.00497050675698908	0.00316549590762089
11.9	0.0330686734111334	-0.00276799132704372	-0.00179864574584041	0.00258723592998482	-0.00181168604008856	0.00259156715507752	-0.00519685365880473	0.00229761823219448
12	0.0327914453275063	-0.00868845084581514	-0.00142425637080503	0.00281017128909533	-0.00142365769108721	0.0028115848751455	-0.00571520738194635	0.00193595808660898
