# GHZ S RI R 50
0.2	0.00560238083087392	0.00413800116548998	0.00304829903360733	-0.000895756045735305	0.00305866110116716	-0.000888941780799455	-0.014315754964295	0.00780794061675984
0.3	0.00648702837754247	0.000500017028744493	0.00290510960870502	-0.00131762977427013	0.00289784950919693	-0.00130470234259391	-0.0129565319243498	0.00629108533439076
0.4	0.00579641869557031	-0.0023578637665212	0.00267559995444391	-0.00168827078847772	0.00268088288051842	-0.00169682183059133	-0.0129287838683037	0.00560402809799543
0.5	0.00419327731396932	-0.00415350289860975	0.00241978040698421	-0.0020448768965542	0.00243135276341512	-0.00205709424962277	-0.0133796418602004	0.00583531619538765
0.6	0.0024602439568009	-0.00484554800187123	0.00211055645632399	-0.00236085654306312	0.00210979006583114	-0.00236801656603301	-0.0136684568561013	0.00684630239163704
0.7	0.00104882847754044	-0.00480981835408776	0.00176619812002316	-0.0026418224320595	0.00176423875788517	-0.00264202798276524	-0.0134334125819842	0.00826333853831585
0.8	0.000199574137299846	-0.00461344923847108	0.00138216274536389	-0.00286380867908006	0.00136953888101295	-0.00286841264736705	-0.0125473684466543	0.00959790187803815
0.9	-0.000492004035751759	-0.00459818286824335	0.000964478011395733	-0.00303271392276473	0.000965548747898129	-0.00304345437552621	-0.011357329002648	0.0103578535741616
1	-0.00138757630367791	-0.00483452769550025	0.00053676096938281	-0.00314125984661879	0.00052685022209202	-0.0031420264915087	-0.0103640734964359	0.0105688127625738
1.1	-0.00284237655639584	-0.00500052674543022	7.59826190818148E-05	-0.00317390592073806	7.24788798710388E-05	-0.0031916662353128	-0.0100049987336911	0.0107043164172192
1.2	-0.00468965895441074	-0.00483433921195083	-0.000372665343960682	-0.003165098225464	-0.000373482789139324	-0.0031630084967867	-0.00970895758903851	0.0112465562194652
1.3	-0.00655590495130685	-0.00426987126094216	-0.000806723069365385	-0.00308098702069763	-0.000809986988028192	-0.00308300199169877	-0.00868405473111289	0.0120850904811485
1.4	-0.00790030222157271	-0.00346245887893782	-0.00123433305807514	-0.00292912841764437	-0.0012331257411871	-0.00293470051353781	-0.00713385624481435	0.0122797643076945
1.5	-0.00848857231231321	-0.00212991498281205	-0.00163979505101371	-0.00272749140180854	-0.00163820495910509	-0.00273604823533916	-0.00578969183890661	0.0121352534262399
1.6	-0.00836530987052381	-0.000278388892355612	-0.00200234628778461	-0.00246800575323976	-0.00200258310215537	-0.00247326549967696	-0.00508888104893814	0.0124231679036752
1.7	-0.00746049973946018	0.00149871407776938	-0.00232997082552603	-0.00216394814266619	-0.00233090601678669	-0.00215765687237922	-0.00402017896453028	0.0128864081441067
1.8	-0.00611096425531312	0.00292965787350568	-0.00259747061931903	-0.00180638206229471	-0.0026084980328028	-0.00181196973786345	-0.00282669384567932	0.0129581145410465
1.9	-0.0046548822342922	0.0037480344472326	-0.00281754219832835	-0.0014316729613715	-0.0028299628778913	-0.00142544003353233	-0.0019298503705071	0.0127482035788006
2	-0.00332046742425673	0.00422341555403408	-0.00298712755409292	-0.00102256908487957	-0.00299672554620338	-0.00101780902612253	-0.00139578530097689	0.0126529825915038
2.1	-0.00203585253280833	0.00449253868114367	-0.00309494763724605	-0.000595346866090319	-0.00309087674151572	-0.000597355452502122	-0.00082358524868306	0.0127674051968646
2.2	-0.000675995749252294	0.00466276570491109	-0.00314821653959184	-0.000160303964570528	-0.00315951391532205	-0.00016309627063708	0.000115682064467754	0.0129794002354952
2.3	0.00084851130420952	0.00442105503996424	-0.00314171664636082	0.000278805205675243	-0.00314143095099023	0.000271932805413015	0.00130791680215466	0.0128515687174685
2.4	0.00232499625021494	0.00370833446822031	-0.00306986951847033	0.000713019003686513	-0.00307241247824502	0.000708770728200681	0.00248261167255378	0.012350012106548
2.5	0.00347528077552202	0.00247869358762262	-0.00293541420684202	0.00112254544726676	-0.00294629355943387	0.00112892442344211	0.00337635325974137	0.0115201636985201
2.6	0.00420860169434855	0.00104958893668425	-0.00276510397431313	0.00152501802650022	-0.00276154219439719	0.00151269290741268	0.00395095893011527	0.0107156924521356
2.7	0.00468944904160075	-0.000380214050002837	-0.00252257019405543	0.00189827629522934	-0.00252785818744927	0.0018982845545774	0.00432876214233428	0.0100883427915726
2.8	0.00510861508270757	-0.00190977523560099	-0.00224156374934648	0.00222973044153884	-0.00223373083742974	0.00223954956111744	0.00471425398189433	0.00967083395986778
2.9	0.00537070921817045	-0.0037100850276664	-0.001906670926406	0.00253505985990242	-0.00190294735394365	0.00253462957273456	0.00529287473402456	0.0093596499554926
3	0.00515523165620941	-0.00569834839220036	-0.00151688875012871	0.00277541617628484	-0.00153173233423187	0.00278156877548409	0.00595782642707567	0.009092355821741
3.1	0.00448495521236141	-0.00759138889582272	-0.00112063050907559	0.00295599936484648	-0.00111592275111594	0.00296437374226564	0.00662491353543029	0.0088426753487224
3.2	0.00333928706919747	-0.00931389034695806	-0.000692203659308248	0.00309397939029256	-0.000693960814397221	0.00309337350216412	0.00728804648409401	0.00866872450396517
3.3	0.00186917840399119	-0.0109257682437857	-0.000245349625332696	0.00316113499459609	-0.000243716261659977	0.00315736462545106	0.00821627836435957	0.00824517466149802
3.4	-5.78729313662493E-05	-0.0122620813573279	0.000208799542955004	0.00314879100244118	0.000202701085764459	0.00316547759909345	0.00909275764628689	0.00737447297754878
3.5	-0.0023855353386464	-0.0132947547217987	0.000635510382014517	0.00309697781578599	0.000641123462997552	0.00309700062066112	0.00951526860152855	0.00619109732473338
3.6	-0.00503984298386061	-0.0136936390183034	0.00106521634183187	0.00296682122664462	0.00107341466288719	0.00296641769247637	0.00965841841516423	0.00533827801568703
3.7	-0.00771246172644421	-0.0134143615776801	0.00147275800321968	0.00277470827466942	0.0014633296494105	0.00278847744224034	0.00996434526229831	0.0046363341097774
3.8	-0.010188915990553	-0.012551566691911	0.00184387930549429	0.00253807638869889	0.00184637575570116	0.00254717277709003	0.0103557125625311	0.00379772245538258
3.9	-0.0123000980870056	-0.0113202820656099	0.00217957968714362	0.00225857216529225	0.00217233289093797	0.00225687583638232	0.0105823808875582	0.00275837215955409
4	-0.0141935322679474	-0.00983571563806619	0.00245260505219967	0.00193539761689121	0.00245700152247867	0.00193294015950443	0.0105725822070835	0.00181930381803822
4.1	-0.0158801254302405	-0.00802597945245952	0.00269306273847553	0.00157784246026575	0.00269182583966009	0.00157858126085875	0.010584354874233	0.0011292575734881
4.2	-0.0172723657874332	-0.00581728569666188	0.00288279976506126	0.00118305712771713	0.00288717910961646	0.00117439710329197	0.0107497879053027	0.000509038820400951
4.3	-0.01818234471467	-0.00341547628784426	0.00301983847565189	0.000780027636168611	0.00302617642669544	0.000772277282593491	0.0110286541354252	-0.000380856101913849
4.4	-0.0187385928725763	-0.000896376129271683	0.00309437996541706	0.000356023519857341	0.0030967304959738	0.000353784467766229	0.0110447504530192	-0.00144453221965515
4.5	-0.0189408898026878	0.00170157329174747	0.00311932623204096	-7.27720645922007E-05	0.0031246455952171	-7.61152080963169E-05	0.0108187692997302	-0.00246475615387852
4.6	-0.0188411599530369	0.00436816654056055	0.00308064364891501	-0.000508786279623642	0.00308184020727439	-0.00049595672503793	0.0104098074322826	-0.00334340313173904
4.7	-0.0181875595273745	0.00716435341367462	0.00298238131378009	-0.000924315693071905	0.00299761502176737	-0.000933844654099799	0.0099580584882558	-0.00407165873319006
4.8	-0.0169349986204008	0.00988930228367146	0.00282814992072188	-0.00133864474653213	0.00283661659306229	-0.00134469056958769	0.0096260031344658	-0.00471863025173851
4.9	-0.014936583082731	0.0122624412725917	0.00261248380897599	-0.00172604976413081	0.00261663631001471	-0.00172314068496135	0.00929617367028561	-0.00535595541159124
5	-0.0124972190834049	0.0140376213761339	0.0023549442114822	-0.00208615730019511	0.00235856105669071	-0.00208348994997091	0.00910913486928533	-0.00589383277360951
5.1	-0.00963445159096818	0.0153135014990972	0.00204300687916959	-0.00240183977078655	0.00204530859386945	-0.0024004820329903	0.00906209436393044	-0.0064453009570691
5.2	-0.00661003216846031	0.0159937543769714	0.0016813396507209	-0.00265523941587418	0.00168304436608413	-0.00266038843070548	0.00913327408860958	-0.00705305880669167
5.3	-0.00344202676111184	0.0160512316173189	0.00128867376580871	-0.00287132596917516	0.00129181439578203	-0.00286927393882084	0.00922110117802876	-0.00781258684065736
5.4	-0.000390972723881223	0.0154230818253664	0.000857640026631348	-0.00301586512500931	0.0008747357344157	-0.00302715394204356	0.00911496881754024	-0.0089120083214793
5.5	0.00226162691582482	0.0142366216812545	0.000439257513406103	-0.00310745152744149	0.00044922842197372	-0.00311692350989788	0.00849742916240093	-0.0100519452450476
5.6	0.00443553658385855	0.0126740244855474	-9.9718421112878E-07	-0.00313463572120563	-9.51127310925413E-06	-0.00313778017275431	0.00748231038366238	-0.0107560965197655
5.7	0.00613538876435676	0.0109289499111792	-0.00042971428408867	-0.0030942464178984	-0.000446250374774361	-0.00309776182283506	0.00654270978804392	-0.0110102735726387
5.8	0.00749469750482268	0.00904672710258202	-0.000868661392781918	-0.00299019470306409	-0.000872263044800432	-0.00300404090433167	0.00584552553815551	-0.0113623406309406
5.9	0.00850651841627334	0.00701633229125041	-0.00126300409975039	-0.00284399851361513	-0.00127114701724	-0.00284387094983832	0.00501434193343432	-0.0118903781027587
6	0.00906726296168469	0.00471793079456433	-0.00164800159960696	-0.00263593456852856	-0.00164448500309485	-0.00263611294749811	0.00380688192124793	-0.0123056745365405
6.1	0.00907641212138667	0.00229957617896956	-0.00198958232954179	-0.00238488861440249	-0.00199119317642008	-0.00238093599940478	0.00263738674505313	-0.0122841174440072
6.2	0.00852883788955818	-9.32746241991361E-05	-0.00229077200080389	-0.00208043703973566	-0.00229441673650023	-0.00209214450475132	0.00183048877292267	-0.0121428576915509
6.3	0.00763993442482422	-0.00235342398885176	-0.00256067702419259	-0.00175842161879545	-0.00256970013131468	-0.00175279618108664	0.00133047495827443	-0.0122779798108306
6.4	0.00627921513301689	-0.00453453463113995	-0.00278445566755883	-0.00138260061994536	-0.00277482557907273	-0.00138737941098894	0.000730765650478135	-0.0126608618116116
6.5	0.00446193204961378	-0.00645611616537568	-0.00294430206623011	-0.000991895282757007	-0.0029521127850278	-0.000987530318689973	-7.64696248676967E-06	-0.0129944948313817
6.6	0.00221941802470416	-0.00777699874870699	-0.00306064642125313	-0.000578725136576508	-0.00306222498962582	-0.000582682381758747	-0.000656597085104751	-0.0131200525899669
6.7	-0.000159686860214067	-0.00836263318411273	-0.00312288373706181	-0.000148509171461789	-0.00313174858322188	-0.000142368589157986	-0.0013125251629751	-0.013188921408241
6.8	-0.00247510174044346	-0.00831203488840245	-0.00311438612734501	0.000290677884173293	-0.003125491147444	0.000295582341667308	-0.00203487169975127	-0.0132537692187791
6.9	-0.00468475689802134	-0.00775299519866289	-0.00305104155716011	0.000726711995397663	-0.00305404901321076	0.000729067270907497	-0.00293237921947468	-0.0132434473561876
7	-0.00671600292256846	-0.00678744037382815	-0.00292355824557953	0.00115412486588137	-0.00293637275193289	0.00115180797671082	-0.00393674368687597	-0.0131181537240372
7.1	-0.00866977109073384	-0.00536380306939349	-0.00275086973826433	0.00155168936983776	-0.00274726482458626	0.0015603998768925	-0.0049923909846485	-0.0125573520191077
7.2	-0.0103565507053656	-0.00338831101219001	-0.00249509014558981	0.00192884922997063	-0.00250164968975578	0.00193089713984704	-0.00560231008488114	-0.0116834111979966
7.3	-0.0116243684115749	-0.000971950076538163	-0.00219645542480465	0.00225528708526481	-0.00220771959535795	0.00226031469393258	-0.00564934710302637	-0.0110632761504075
7.4	-0.012261546899207	0.00178925663136859	-0.00184922829114173	0.00254270896825192	-0.00185615145095611	0.00255633769186831	-0.00576349081738326	-0.0109179471153103
7.5	-0.0122738174775641	0.00444756797820815	-0.00147727500013521	0.00278232495373773	-0.00147027554818333	0.00278973080889738	-0.00599202423904529	-0.0112492559494236
7.6	-0.011831792188203	0.00677791397817625	-0.00106589011574952	0.00295743299526837	-0.00106726821053493	0.0029527394371585	-0.00645631644635846	-0.0119370318667256
7.7	-0.0106814343657335	0.0089704595883894	-0.000635371422793162	0.00307264212767931	-0.000636709561060296	0.00307158469178596	-0.00721810376101448	-0.0124159725481039
7.8	-0.00897515708974339	0.0107500919130611	-0.000211477120242139	0.00311476310364162	-0.000219243498580945	0.00312119767332421	-0.00825527316586603	-0.0128481386052189
7.9	-0.00651839806041478	0.0117895230522182	0.000223629257903187	0.00311593665614257	0.000231518887068225	0.00311742790719529	-0.00944492602083685	-0.0126856604980612
8	-0.00442901457662925	0.012521728373562	0.000655989296798212	0.00304122551767488	0.000656059711260734	0.00304608635018781	-0.0110383096002733	-0.0126017982739173
8.1	-0.00183483603367088	0.0126182673058654	0.0010556946208858	0.00292540256615461	0.00107466779863969	0.00292656474343523	-0.0119968541584191	-0.0115242177928085
8.2	0.000531333385649309	0.0124769758717689	0.00145018981533734	0.00275169143865852	0.00145940499952115	0.00274462671643882	-0.0125640293995042	-0.0104663225161471
8.3	0.00292970091863062	0.0119315486356076	0.00181963781356481	0.00252446981883546	0.00181787526880721	0.00253789285897924	-0.0128320206904229	-0.00971659538017997
8.4	0.00524723927586982	0.0109354415829356	0.00215339788890382	0.00226136197661832	0.00215039031785056	0.00226110191615648	-0.0132731899971222	-0.00929070566598458
8.5	0.00732463613618005	0.00937061462741321	0.00244339703443923	0.00194577496447731	0.00244245874225862	0.00194893212405534	-0.0140812627654201	-0.00873018405093535
8.6	0.00894340249339508	0.0074269483533632	0.00269944887758813	0.00159837887290824	0.00270903498888235	0.00159199405617138	-0.0148595107853035	-0.0078096870760312
8.7	0.0101130196054867	0.00522581189719561	0.00289982677246511	0.00120408457877478	0.00290538414001799	0.00120489695807693	-0.0153140832998267	-0.00674192699720503
8.8	0.0108853295556191	0.00285591339011501	0.00305314872262308	0.000795794916681554	0.00305907997909726	0.0007870824703312	-0.015516977474231	-0.0059178410707942
8.9	0.0113696639304654	0.000204355637587194	0.00314722011894721	0.000357975750714965	0.0031463743680417	0.000355699096965637	-0.0155765162025318	-0.00523020936239087
9	0.0113292303727463	-0.00281478636751134	0.00317086877293843	-9.50026102218772E-05	0.00317400740471078	-9.08215251742507E-05	-0.0156324291823413	-0.00456101739730164
9.1	0.0106453578635777	-0.00603619563408381	0.00313382746885649	-0.00055024359666363	0.0031366209605444	-0.000537166059947114	-0.0155103060051293	-0.00385154063939632
9.2	0.009025776390384	-0.00911072878063746	0.0030274288750823	-0.000983385808481736	0.0030352043760497	-0.000986246754416598	-0.015305269116242	-0.00325369781796284
9.3	0.00670985636257715	-0.0117390317136371	0.00285600998333311	-0.00140362717111661	0.00285528937437544	-0.00140868537482483	-0.0150354156969315	-0.00280396281095169
9.4	0.00378193449233503	-0.0137670285742244	0.00262571796139297	-0.00180601007066233	0.00263230079209732	-0.00179831095665276	-0.0149629450580617	-0.00240153464141033
9.5	0.000293466312161988	-0.0151530258929123	0.00233947061731579	-0.00214749782913003	0.00234696193699907	-0.00214886861232252	-0.0151836429024763	-0.00195244576470455
9.6	-0.00358206867903085	-0.0155874174264502	0.0020105357517706	-0.00245309838329073	0.00201087138643782	-0.00245210859627041	-0.0154466363877188	-0.00116512435643574
9.7	-0.00756208710944297	-0.0149584531803114	0.0016329522817661	-0.00270045974944446	0.00163849482330629	-0.00270783492679187	-0.0154074277335397	-0.000193652788914864
9.8	-0.0113135708139646	-0.0133708936028342	0.00124126005496271	-0.00290261926602598	0.00124701436281483	-0.00289410945361702	-0.0151590082358798	0.00059871502280245
9.9	-0.0145513999026291	-0.0109587523771335	0.000834041123757966	-0.00303364673458008	0.000826701491846369	-0.00303239527651772	-0.0150600559682634	0.00119231650252
10	-0.0172861424537966	-0.00794819565520629	0.000406700897351656	-0.00311570550502232	0.00039919337357221	-0.00312813451243279	-0.0151453926071786	0.00192879967603209
10.1	-0.0193957845030116	-0.00441353164390701	-2.90149876144367E-05	-0.00314323782848056	-3.92359767327639E-05	-0.00313785804915465	-0.0150284648029637	0.00283947054776027
10.2	-0.0207898140590561	-0.000419097505298236	-0.000467110261112913	-0.0031071452402266	-0.000470519990308637	-0.00310438107627211	-0.014501052083447	0.00372638931814241
10.3	-0.0212876000881957	0.0039297629408945	-0.000892673145869534	-0.00300716327921405	-0.000884540357316211	-0.00301618287000718	-0.0137474512350947	0.00421185937292157
10.4	-0.0208183904871785	0.00823406788848631	-0.00128644522034132	-0.00286204516020988	-0.00128470089964653	-0.00286823136677203	-0.0130354415996459	0.00416265749629801
10.5	-0.0193979803995843	0.0124920431252726	-0.00167953712384473	-0.00267491905197478	-0.00167654558833089	-0.00266185210497677	-0.012818424847275	0.00420960482589732
10.6	-0.0172768141463057	0.0163873241634642	-0.00203968043580865	-0.00241569137322426	-0.00203744281603578	-0.00241951382977471	-0.0126711722012265	0.00442144089336
10.7	-0.0144425195957559	0.0200647137111411	-0.00236724948463365	-0.00212119439879136	-0.00236377700304053	-0.00211583230263237	-0.0123651420848227	0.00481991896726477
10.8	-0.0107257150826212	0.023309016961307	-0.00265206091426955	-0.00176301597393827	-0.00264672098740008	-0.00177200047848207	-0.0120236694253171	0.00507693958607812
10.9	-0.00626951362255367	0.0258907541054019	-0.00287620759987649	-0.00138438073345953	-0.00288147532145108	-0.00138367530905964	-0.0119653191125412	0.00525486398350345
11	-0.00112600982865177	0.0274372296204286	-0.00304933458612699	-0.000956847809129785	-0.00305422992699187	-0.000963720093380837	-0.0119208901081922	0.00577945795498325
11.1	0.00425838533265691	0.0278952887256126	-0.00316703746931072	-0.000515913430015275	-0.00315598792090536	-0.000512991484722425	-0.0115801560286873	0.00654858819465613
11.2	0.00968523969224412	0.0272745937409827	-0.00319885290534807	-5.94037516455275E-05	-0.00320614755310841	-6.43104167943659E-05	-0.0106785175633422	0.00728659663349891
11.3	0.0150363768941224	0.0254598027044335	-0.00316740446308465	0.000408183341844596	-0.00317920920339063	0.000398039136637357	-0.00915516035733263	0.00742605734248282
11.4	0.0200320214162015	0.0227344353523212	-0.00308277620616191	0.000851818030723969	-0.00307771304933406	0.000859459901741599	-0.00797343223816315	0.00713733775718011
11.5	0.0245093008569125	0.0189574165109666	-0.00292341838321403	0.00127796250756243	-0.00292611136469804	0.0012884131768718	-0.00719282331727429	0.00662945210519725
11.6	0.0280803916234923	0.0141549107026242	-0.00271060841974332	0.00167211562937341	-0.00271054801702558	0.00167508727216269	-0.00650042898285696	0.00591351932256014
11.7	0.0306142620216831	0.00882051191325354	-0.00243133326170595	0.00202326721287316	-0.00243177113779526	0.00203194487588533	-0.00578317353155481	0.0050116046634056
11.8	0.0322402914143474	0.00320025300942779	-0.00212123983238353	0.0023459592880934	-0.00212534570391795	0.00234772738628643	-0.00525864501024083	0.00388475195535037
11.9	0.0329294394228225	-0.00259362876995594	-0.00176278716776444	0.00260803118667858	-0.00177575662939651	0.00261252871765725	-0.00535328563722908	0.00301029245602478
12	0.0325218660915068	-0.00884494836004669	-0.00138697710280696	0.0028161916828315	-0.0013863644640478	0.00281759328055442	-0.00576512430501953	0.00218434032747915
