# GHZ S RI R 50
0.2	0.00562177222568256	0.00251818722351259	0.00304836687906075	-0.000896984950619344	0.00305873277663986	-0.000890173585962064	-0.0143072821413141	0.00618559284825007
0.3	0.0062643951009886	-0.00012892574342604	0.00290460267875953	-0.00131978496402234	0.00289735040657081	-0.00130685085201374	-0.0131877494570726	0.00567145965818029
0.4	0.0058926627985295	-0.00235165547660531	0.00267384556870655	-0.00169110721587613	0.00267911953069279	-0.00169966390779221	-0.0128229513985654	0.00562874455950536
0.5	0.00479691980100026	-0.00400722180450747	0.00241622460049795	-0.00204776095918989	0.0024277764903415	-0.00205999144753629	-0.0127390156837073	0.00599301946051254
0.6	0.00340143978350525	-0.0049659865750192	0.00210504167429716	-0.002362820339531	0.00210426356374486	-0.00236997405059167	-0.0126697999219708	0.00671121728925784
0.7	0.0019698946723095	-0.00532773220542189	0.00175904956389752	-0.00264183909846283	0.00175709225789722	-0.00264204072321984	-0.0124537161568098	0.00769733838141945
0.8	0.000800436323001548	-0.00536110507300384	0.00137424399022494	-0.00286104566961329	0.00136163508189647	-0.00286561750779943	-0.0119043527349672	0.00877877085944383
0.9	-0.000271569536738981	-0.00525780733538745	0.000957019367088309	-0.0030267370774599	0.000958069551242915	-0.00303745246023721	-0.0111143105706996	0.00962338610044294
1	-0.00134881515420811	-0.00516201424418444	0.000531132268490423	-0.00313224251101866	0.000521251143039362	-0.0031329942580962	-0.0103086760164974	0.010176994241457
1.1	-0.00267451891664169	-0.00498892315691818	7.35412357311804E-05	-0.00316266752890815	7.00378113379273E-05	-0.00318036226893984	-0.00980933306070235	0.0106588306699491
1.2	-0.00420229901507609	-0.00469363489934402	-0.000371132211795583	-0.00315290241176863	-0.00037194656754235	-0.00315082076747568	-0.00918277182810745	0.0113100112599201
1.3	-0.00582943984221219	-0.00423545910670566	-0.000801001940362613	-0.00306948098338403	-0.000804251309106192	-0.00307149068049289	-0.00793078301247005	0.0120194123677689
1.4	-0.00712031319456467	-0.00356145640574019	-0.00122484739805238	-0.00291995620438344	-0.00122363561117501	-0.00292550505851202	-0.00633737877290827	0.0120509974134689
1.5	-0.007729857013108	-0.00237394931202954	-0.00162762981202799	-0.00272195371400779	-0.00162602486227322	-0.00273047714954193	-0.00503808888009898	0.0117330492134187
1.6	-0.00770582885572356	-0.000703474889746623	-0.00198912561944051	-0.00246686445313823	-0.00198934594593791	-0.00247210965888112	-0.00445024932406654	0.0118211918094081
1.7	-0.00701639873476256	0.000975121399854925	-0.00231743408067079	-0.00216724707970638	-0.00231838889240337	-0.00216097276219886	-0.00364288430208649	0.0121964240415441
1.8	-0.00589728012771672	0.00246423370752578	-0.00258730644769968	-0.0018133876120813	-0.0025982983105697	-0.0018190078874448	-0.00269952791681271	0.0123756799368685
1.9	-0.00453525934248362	0.0034474562408726	-0.00281082823163819	-0.00144105939717655	-0.00282326460012714	-0.00143487472851416	-0.00188098679058433	0.0123689652927169
2	-0.00315811099972426	0.00405374702489422	-0.00298436402635622	-0.00103270000646492	-0.00299397984465165	-0.00102797080100233	-0.00126703982489515	0.0124127373717811
2.1	-0.00179147361778273	0.00433656540536795	-0.00309582123787832	-0.000604529675804325	-0.00309174135187778	-0.000606528480104675	-0.000589461908960194	0.0125142193778975
2.2	-0.000430161394135903	0.00443888455008824	-0.00315170820491706	-0.000167222343218532	-0.00316301337590965	-0.000170042175879452	0.000337971898761127	0.0126265148857713
2.3	0.000988751621548568	0.00416813548303026	-0.00314634246755034	0.000274834437245438	-0.00314604687760822	0.000267953157332843	0.00138853421866155	0.0124706312334839
2.4	0.00234830575140276	0.00354048080939896	-0.00307402924226033	0.000711882696759059	-0.00307657250339944	0.000707627653531441	0.00243088487399338	0.012102014334488
2.5	0.00348180977131402	0.00247108604070932	-0.00293778287910404	0.00112336881909478	-0.00294867106493879	0.0011297526163135	0.00334369681338657	0.0114740312711108
2.6	0.00430352433911353	0.00114997822050413	-0.00276499744867671	0.00152641718813417	-0.00276143999464873	0.00151408835578704	0.00406583136399459	0.0107799910326577
2.7	0.00487570391774268	-0.000263835964056443	-0.00252007021840283	0.00189867638887831	-0.00252535526410416	0.00189868769699345	0.00457371812230524	0.0101369559855662
2.8	0.00533510575693017	-0.00179642563706838	-0.00223752688307203	0.0022277973610118	-0.00222969985386579	0.00223759970053392	0.0050138769936175	0.00968463337349133
2.9	0.00564004682419599	-0.00356785873956158	-0.00190255565954731	0.0025299802213036	-0.00189883978814434	0.00252955054385933	0.00565123216294047	0.00936625124500315
3	0.00550778213004631	-0.0055570131399468	-0.0015144673852914	0.00276723163435116	-0.00152927531707198	0.00277335955436048	0.00640670037158464	0.00904556198685907
3.1	0.00491291749795265	-0.00752992720096374	-0.00112145248252627	0.0029455404686118	-0.00111677071191074	0.00295389637686148	0.00712531387945734	0.00865420485767396
3.2	0.00376474510477212	-0.0093534795275388	-0.000697442323767305	0.00308277000221082	-0.000699192605418066	0.00308216179625056	0.00772046309402475	0.00833290459352415
3.3	0.00224057321435055	-0.0110212132111948	-0.000255364092789356	0.00315120591359256	-0.000253722642902628	0.00314745193400953	0.00851555439058773	0.00785968452754021
3.4	0.00026875124947173	-0.0123574297254243	0.000194612319963558	0.00314227428775938	0.000188455668753648	0.00315889501378196	0.009299408749112	0.00703501930660032
3.5	-0.0020528578611281	-0.0133789256542979	0.00061853062215753	0.00309546863842207	0.000624134900670011	0.00309552040065312	0.0097153237993317	0.00590666193714439
3.6	-0.00470121955363841	-0.0138245165591862	0.00104763392458362	0.00297147889767456	0.00105583051401371	0.00297112269437171	0.00986473802248654	0.00502806036744884
3.7	-0.00741731014121705	-0.013614946992934	0.00145709444282116	0.00278560526816229	0.0014475762041767	0.00279932757759251	0.0101054761072975	0.00428267538867956
3.8	-0.00999916174044784	-0.0127797961547779	0.00183247486888433	0.00255420233673424	0.00183492213134381	0.00256333200317221	0.0103789707328458	0.00348099449675774
3.9	-0.0122094609397496	-0.0114977354069271	0.00217424730098161	0.00227802551458879	0.00216698610914375	0.0022762835734889	0.0105524165616823	0.00257281903902333
4	-0.01413827792102	-0.00993231144960235	0.0024541994469045	0.00195550712979282	0.00245862684859003	0.00195305971403397	0.0106110913450573	0.00174819770759696
4.1	-0.0158183682423327	-0.00807577621058769	0.00270137408947369	0.00159594129538217	0.00270012802132629	0.00159667943567173	0.0107260299829977	0.00106337848856116
4.2	-0.0172239293131758	-0.00584971211140246	0.00289646678564096	0.00119670402356634	0.00290089184740529	0.0011880049127136	0.0109170730100454	0.000388238189949301
4.3	-0.0181820373788068	-0.00339960183989145	0.00303658629560738	0.000787702445589931	0.0030429691555296	0.000779913616737238	0.011151253942649	-0.000488009000394045
4.4	-0.0187514446157772	-0.000783725318118213	0.00311151307288673	0.000357230622907204	0.00311387600635398	0.000354978663445707	0.0111740921770124	-0.00147345794011537
4.5	-0.0188958240416171	0.00190900051227396	0.00313434560966663	-7.73028433241802E-05	0.00313968627358756	-8.0669313236439E-05	0.0110493085910203	-0.00244145625461264
4.6	-0.0186953470266312	0.00460194330488763	0.00309159878725062	-0.000517376711853437	0.003092827514786	-0.000504499557518651	0.0107484625322152	-0.00338892740526561
4.7	-0.0179666907975402	0.00736680287251518	0.00298837765492822	-0.000934635514658337	0.00300362954705511	-0.000944230711389533	0.010325306510471	-0.00422602508810671
4.8	-0.016705533982413	0.0100464223303773	0.00282934985729998	-0.00134839239393002	0.00283781471687672	-0.00135447082182233	0.00992135509885194	-0.00492808314571126
4.9	-0.014697229661446	0.01241127783293	0.00261007742866039	-0.001733266834888	0.00261423936989796	-0.00173036566963752	0.00956463521616888	-0.00554680461621947
5	-0.0122248639091649	0.0141741785155762	0.00235080752989796	-0.0020897270605376	0.00235442812773639	-0.00208706655407243	0.0094110885215937	-0.00608559331886587
5.1	-0.00934333153795122	0.0153959290609757	0.00203929429920713	-0.0024016234037634	0.00204159529504625	-0.00240026873462311	0.00936841950092215	-0.00670627513851085
5.2	-0.00636510723673052	0.0160174133974943	0.00167998242812301	-0.00265214601077603	0.00168168616471549	-0.00265728927849188	0.00934917631303223	-0.00736533169519533
5.3	-0.00328269606874888	0.0160740737971313	0.00129094603633384	-0.00286704256607097	0.00129408119992258	-0.00286498865815746	0.00933055370892113	-0.00807143089171494
5.4	-0.000282939897487959	0.0155051956245417	0.000863871823212471	-0.0030125761489382	0.00088098439646759	-0.0030238221254863	0.00921975806016425	-0.00905918828358077
5.5	0.00237999275246849	0.0143769080934196	0.000448736806194122	-0.00310721428291907	0.000458739612242202	-0.00311665963482847	0.00869697395888906	-0.0101576773431787
5.6	0.00458886560962734	0.0128255392661854	1.00509215249805E-05	-0.00313912800263065	1.53572469859956E-06	-0.00314230696901445	0.00775726101503797	-0.0109412198453051
5.7	0.0062856751938094	0.0110671971911292	-0.000419453727526415	-0.00310417865303788	-0.00043602144814021	-0.00310776456858888	0.00676040503867414	-0.0113080992530612
5.8	0.00761484392624568	0.00917896388763239	-0.000861871348497588	-0.00300522411889521	-0.00086543986481354	-0.00301913846693378	0.00592440271151256	-0.0116799582360833
5.9	0.00859226205277062	0.00719106255042133	-0.00126183224613001	-0.00286251734576675	-0.00127001855942435	-0.00286241157850423	0.00498891888236811	-0.0120916714443929
6	0.00916216746197364	0.00495969550279044	-0.00165402050084585	-0.00265539225017014	-0.00165048133251724	-0.00265556586374842	0.00381020425755009	-0.0123549930213827
6.1	0.00922067423815827	0.00257658953798475	-0.00200293951779207	-0.00240221179260189	-0.00200456277139378	-0.00239823179525804	0.00275207369351345	-0.0122791018722669
6.2	0.00870918331404416	0.000168440325066503	-0.00231026584520695	-0.00209257486693521	-0.0023139527781289	-0.00210436294848313	0.00200508239828904	-0.0121772561381238
6.3	0.00780572915942584	-0.00211645441527354	-0.00258402365951208	-0.00176323949675118	-0.00259309385193404	-0.00175754741316944	0.00149096323505801	-0.0123328399143265
6.4	0.00644680258109307	-0.00429184355899679	-0.00280840099801976	-0.00137888201560807	-0.00279873108656306	-0.00138373453724793	0.000951851309685276	-0.0126863204181841
6.5	0.00466279531988032	-0.00622066283331675	-0.00296545248867928	-0.000980185535492579	-0.00297327912155742	-0.000975752790553006	0.000333038901499956	-0.0130884007413451
6.6	0.00243599061398673	-0.00758462252029043	-0.00307619398391349	-0.000560724893299801	-0.00307780473927545	-0.000564686870677626	-0.000308915719904221	-0.0133855585232821
6.7	1.73016530283919E-05	-0.0082029513593361	-0.00313097432557562	-0.000126947310690715	-0.00313981612570648	-0.000120730708612827	-0.0011177645790581	-0.0135528171155403
6.8	-0.0023531810113468	-0.00812595547441517	-0.0031144755044951	0.000312519692359065	-0.00312555396094036	0.000317504651601293	-0.00199669705582076	-0.013547060847275
6.9	-0.00456508323701946	-0.00752340114138458	-0.00304400311743818	0.000745837486257008	-0.00304699306125909	0.000748210351837205	-0.00289711951675931	-0.0134218372950931
7	-0.00655080004717115	-0.00651570851848978	-0.00291135749222677	0.00116817827363694	-0.00292415970725965	0.00116593750442317	-0.00381231792513577	-0.0132442063315859
7.1	-0.00844506753424741	-0.00511441898895922	-0.00273620220632455	0.00155952283990323	-0.00273256879017203	0.00156819271490664	-0.00480563306669357	-0.0127676115912565
7.2	-0.0101166324395443	-0.00320694966907487	-0.00248084539567574	0.00193034536485254	-0.00248737697642698	0.00193240713367289	-0.00549651584546025	-0.0120163969690009
7.3	-0.0114289291734322	-0.000842781776053217	-0.00218513324598478	0.00225175664774668	-0.00219635108250813	0.00225678781015518	-0.00574847624777238	-0.0114004009246542
7.4	-0.0121692488995085	0.00186814847827676	-0.00184245928142784	0.00253627972415784	-0.00184935488673785	0.00254987237836677	-0.00601272192698936	-0.0111603553295769
7.5	-0.0122590280492836	0.0045808752390937	-0.0014755227836649	0.00277561040655913	-0.00146854209868905	0.00278300394556859	-0.00625972030294978	-0.0112458076735525
7.6	-0.0117509254577545	0.0070281802131914	-0.00106841804490889	0.00295300012275966	-0.00106978889254466	0.00294830980988143	-0.00659066108587595	-0.0116436506578098
7.7	-0.0106891526322437	0.00929075727149893	-0.000640275143418937	0.00307237190092491	-0.000641611955487003	0.00307131214821822	-0.0072571537895367	-0.0121502128801379
7.8	-0.00896624833578397	0.011141839376981	-0.00021615529236421	0.00311941133196031	-0.000223942966783969	0.0031258452853928	-0.0081875051424985	-0.0125267499866615
7.9	-0.00660463561748606	0.0123439933133241	0.000221901121053961	0.00312500259518996	0.000229812142708471	0.00312650409611017	-0.00924356990221081	-0.012489498287303
8	-0.00420036920637559	0.0129997074741358	0.000659515371778263	0.00305277531371583	0.000659587638993259	0.00305765492442264	-0.0105169212399293	-0.0123372438623755
8.1	-0.00162021084460418	0.0131071644849424	0.00106555275369061	0.00293669293908773	0.00108461316706022	0.00293782714602233	-0.0115117211955729	-0.0116051055954549
8.2	0.000794765603613621	0.0128826950021165	0.00146615909122171	0.00275948423813844	0.00147539292285193	0.00275235585636621	-0.0122139580343729	-0.0107254568155312
8.3	0.00319560229707876	0.0122793343568882	0.00183990714412795	0.0025258950370658	0.00183820456279022	0.00253938302869751	-0.0126537097393759	-0.00997746018217528
8.4	0.00551213462812447	0.0112551372059954	0.00217500624381228	0.00225467422056565	0.00217198729793585	0.00225443283617781	-0.0131456827504475	-0.00945057056593224
8.5	0.00760456279086576	0.00965863491691925	0.00246267571702188	0.00193068841627516	0.00246175978560884	0.0019338584728357	-0.0138791472917625	-0.00885220813331763
8.6	0.00922744290906728	0.0076505522748522	0.00271301911290005	0.00157615830024484	0.00272255332531605	0.00156969320850097	-0.0146013913962025	-0.00802980852322063
8.7	0.0103485401133009	0.00536892486072882	0.00290497919007122	0.00117750128891549	0.002910533800084	0.00117826531116267	-0.0151264199314814	-0.0070774690360579
8.8	0.0110272927665298	0.0029731085358446	0.00304874982147464	0.000768335884748277	0.00305458974800546	0.000759606452175843	-0.0155013222664585	-0.00625551656839084
8.9	0.0114246642768675	0.000365699188010544	0.00313351469419424	0.00033343792431445	0.00313265690943871	0.000331179147684353	-0.0156655713779241	-0.00542967235225436
9	0.0113489183839275	-0.00257508616538946	0.0031497033620735	-0.000113237719099463	0.00315284646125737	-0.000109102458484812	-0.0156896952548654	-0.00461441595951217
9.1	0.010633679205985	-0.00572072069019881	0.00310816736771248	-0.00055992202572887	0.00311099755907231	-0.000546953752785179	-0.0155272417770984	-0.00384245259067573
9.2	0.00902446305298399	-0.0087288712888969	0.0030009611872111	-0.000983731181973186	0.00300866781402602	-0.000986590374856594	-0.0152872425646513	-0.00321005908071549
9.3	0.0067322024245197	-0.0112872195661384	0.00283230499804177	-0.00139525085419452	0.00283158537295884	-0.00140026870456394	-0.0149698443106725	-0.00268846079665151
9.4	0.00387057330805995	-0.0132891357622954	0.00260773806994037	-0.00179086320060976	0.00261426703599315	-0.00178321588195212	-0.0147832191790967	-0.00228757704258844
9.5	0.000487667128720697	-0.0146351403054469	0.00232904574548043	-0.00212878795684631	0.00233649200864428	-0.00213013407913182	-0.0148106432360823	-0.00189393953830111
9.6	-0.00332417782360124	-0.0151359336924033	0.00200801012085392	-0.00243418967132771	0.00200834090757924	-0.00243320388589549	-0.0150286954786514	-0.00130475573863588
9.7	-0.00730550523576262	-0.0145949252506599	0.00163720086606194	-0.00268463262276319	0.00164275111805982	-0.00269196051727522	-0.0151112663862283	-0.00049642413561439
9.8	-0.0111152672863638	-0.0130647182795859	0.00124984173045761	-0.00289211143468844	0.00125555217095135	-0.00288359665669719	-0.015048197755552	0.000290344712125887
9.9	-0.0144310213163398	-0.0106329418884916	0.000843749315680847	-0.00302942064726929	0.000836409017091155	-0.00302819423726786	-0.0150479355793283	0.00102542195710506
10	-0.0172076931286776	-0.00759358997886766	0.00041436325656597	-0.00311712366825086	0.000406879331377473	-0.00312957987627579	-0.0150864031299103	0.00184854233445315
10.1	-0.0193415850357576	-0.00402744999860845	-2.58930429844148E-05	-0.00314820448558615	-3.61355085919672E-05	-0.00314282655559771	-0.0149293792343954	0.00273222632807028
10.2	-0.0207595284768263	-4.03544809186937E-07	-0.000469692595108461	-0.00311257398217423	-0.000473107030087504	-0.00310980286236279	-0.0144722137873612	0.00358971957800018
10.3	-0.0212724702610157	0.00440428652550518	-0.000900410775131551	-0.00300976742763834	-0.000892285002870533	-0.00301881783824609	-0.0138041829872845	0.0041787391569139
10.4	-0.0207245124095755	0.00884838824365942	-0.00129725141601229	-0.00285926630756112	-0.00129552771888656	-0.00286546236379203	-0.0130707416693825	0.00434677904080301
10.5	-0.019270582100345	0.0130862860969634	-0.00169030612818218	-0.00266535314254562	-0.0016872580665208	-0.00265230947679423	-0.0126034156574668	0.00440505453557504
10.6	-0.0170483861788828	0.0169626680532132	-0.00204682288145475	-0.00239970214079645	-0.00204460971620469	-0.00240352656092865	-0.0122916436039632	0.00450994659862453
10.7	-0.0141486801056924	0.0205724176963045	-0.0023677811778812	-0.0021006990417022	-0.00236429685771627	-0.0020953764136482	-0.0119566184506913	0.00477875918302854
10.8	-0.0104138735449495	0.0237414023621134	-0.00264399759732305	-0.00174130404106414	-0.00263872750271618	-0.0017502585236802	-0.0116269725661537	0.00499091795272582
10.9	-0.00594806176407205	0.0262210851906529	-0.00285937501799669	-0.00136518084339623	-0.0028646017580733	-0.00136446410844169	-0.0114489897013363	0.00516388917610379
11	-0.000840943997326354	0.0276984263878248	-0.00302502260584427	-0.000943931945898072	-0.00302988733949542	-0.00095073830757641	-0.0112992592859939	0.00554392234771427
11.1	0.00447666907617049	0.0280892980616742	-0.00313803484201963	-0.000512038455959765	-0.00312708677474855	-0.000509140256914023	-0.0109653294016192	0.0060568122116242
11.2	0.00979325766279874	0.0274296107591822	-0.00316915091703682	-6.60358426536041E-05	-0.00317636712153975	-7.09135289251307E-05	-0.0102597449523916	0.0065687285426613
11.3	0.0150375257016574	0.0257392802090105	-0.00314114525680705	0.000391199160084713	-0.00315280285969076	0.000381094717394966	-0.00912117719242978	0.00678426745138225
11.4	0.0199393391860966	0.0230922533439986	-0.00306356908133257	0.000826420562847945	-0.00305859220987953	0.00083403269234954	-0.0081241017307285	0.00659990502322584
11.5	0.0243339261310457	0.0193818148428494	-0.00291411740143831	0.00124744201805607	-0.00291687226880022	0.00125780427017778	-0.00743581387633484	0.00612009175879461
11.6	0.0279129688178815	0.0147083255735203	-0.00271238833105266	0.00164059746836731	-0.00271235411427772	0.0016435556112779	-0.00684201414103726	0.00550801385450057
11.7	0.03048418164872	0.0094822881330439	-0.00244363026122053	0.00199520528549188	-0.00244414771662651	0.0020038555607914	-0.00626131075706823	0.00475326695064492
11.8	0.0321651410037854	0.00395307915764657	-0.00214185699830565	0.00232489456150114	-0.00214597698418103	0.00232662346207037	-0.00582410890260427	0.00388437577001447
11.9	0.0329416623692345	-0.00183588339546617	-0.00178793657332445	0.00259645449197851	-0.00180096357456823	0.00260084588515102	-0.00578000240784591	0.00323430038102286
12	0.0326767569077676	-0.00797813206200651	-0.00141246339633305	0.00281467090113413	-0.00141185933452188	0.00281608151046146	-0.0058829650563176	0.00270285641737165
