# GHZ S RI R 50
0.2	0.0063799401425299	-0.000903859008616402	0.00304831904033449	-0.000899406354981437	0.00305869202625877	-0.000892601245391014	-0.0135497119178061	0.0027795599378406
0.3	0.00613261902213474	-0.00168323216449552	0.00290336365620645	-0.00132379476178792	0.00289612705548092	-0.00131084903461167	-0.0133146095556606	0.00414405817775956
0.4	0.00611308674766455	-0.00234719121991706	0.00267034842513372	-0.00169622386916818	0.00267560526790075	-0.00170479028920467	-0.0125853557560875	0.00567004708371509
0.5	0.0061094012210197	-0.00330024383251695	0.00240955154198143	-0.00205291339526445	0.00242106517569902	-0.00206516716166156	-0.0113910711386733	0.00674134614352394
0.6	0.00579101584009421	-0.0045756259759208	0.00209491209669372	-0.00236635770519329	0.00209411257634835	-0.00237349971620736	-0.0102238199744291	0.00713943702047579
0.7	0.00475935264830625	-0.00590647981682975	0.00174599238101238	-0.00264198709308884	0.001744038766135	-0.00264218151294522	-0.00958740032552405	0.00714409505085776
0.8	0.00309488517927694	-0.00685205267546891	0.0013597143346883	-0.00285634494241388	0.00134713131695251	-0.002860857671387	-0.00951658789200018	0.00729131076615999
0.9	0.000992007639141849	-0.00695728153323129	0.000943097101581464	-0.00301638581652195	0.000944108357497844	-0.00302705707521036	-0.00975244271367649	0.00789717055140961
1	-0.000919440365314013	-0.00619260837313569	0.000520151168317402	-0.00311644496163722	0.000510322258772319	-0.00311716712992683	-0.00979571729882877	0.00908901908843488
1.1	-0.00225326724126492	-0.00493897786779733	6.78858315828872E-05	-0.00314269879370224	6.43756333607654E-05	-0.00316027538883695	-0.00934131998843071	0.010637444537897
1.2	-0.00298914248049179	-0.00396240276947665	-0.000370009991618329	-0.00313083433674216	-0.000370817730875862	-0.00312876677349963	-0.00797820199399214	0.0119724110849369
1.3	-0.00382334596532057	-0.00359690267007368	-0.000792598043271788	-0.00304810721691589	-0.00079582232218139	-0.00305010526890549	-0.00598080039551273	0.0126163004326819
1.4	-0.00483587067336391	-0.00321705659748664	-0.00120974009530059	-0.00290207707661728	-0.0012085245609847	-0.00290758411313147	-0.00412236912678985	0.0123500528768796
1.5	-0.00524860327952367	-0.00233751762135557	-0.0016075143378702	-0.00270981270064866	-0.00160589023275226	-0.0027182748032628	-0.00264676252589142	0.0117148277755633
1.6	-0.0051672779249931	-0.00128351933678637	-0.00196662005987243	-0.00246184008186599	-0.00196681535386673	-0.00246705642988355	-0.00197926223099962	0.01120868800908
1.7	-0.00488946774744174	-0.000220806664101525	-0.0022953503274432	-0.00216953199569437	-0.00229633388332827	-0.00216329152867734	-0.00158417084227017	0.0109846037652962
1.8	-0.00447105593385348	0.00110049526060137	-0.00256838575573117	-0.00182193223021058	-0.00257930901253532	-0.00182759579041501	-0.00132412578613905	0.0110199987890335
1.9	-0.0036119290123361	0.00241212042735939	-0.00279681421248218	-0.00145383721034138	-0.00280925921511399	-0.00144773548506372	-0.000994758398952252	0.0113458407430613
2	-0.0022741099301622	0.00346729366584147	-0.00297609090163009	-0.00104725405005941	-0.00298572205414431	-0.00104257954270342	-0.0004100321950107	0.0118378670503698
2.1	-0.00063510630889204	0.00390557487804662	-0.00309289131914852	-0.000618319040332268	-0.0030888028025155	-0.00062029946578298	0.000547337795929931	0.0120915693513985
2.2	0.000891202367210056	0.00377308501970814	-0.00315265126877348	-0.000178284834927617	-0.00316395208740744	-0.000181145423436383	0.00164689660775199	0.0119645352894112
2.3	0.0020706166377546	0.00318661531343517	-0.00314900557896188	0.000267506451242793	-0.0031486933900617	0.000260621485295813	0.00246469165271133	0.0114847913827831
2.4	0.00290556541584005	0.00256881362984952	-0.00307609127395323	0.000708111143522805	-0.00307862988628327	0.000703851202286294	0.00299434071715731	0.0111301366934641
2.5	0.00367930010996036	0.00196134438013746	-0.00293730383626077	0.00112183633445064	-0.00294819113634674	0.00112821374962169	0.00355211034950241	0.0109486573837852
2.6	0.00458711439771683	0.00117018289327876	-0.00276098774245136	0.00152494763081679	-0.00275743758493668	0.00151263454004843	0.00435860276700408	0.0107740157230685
2.7	0.00547302580329622	-6.92238058577709E-06	-0.00251280516425332	0.00189480325321535	-0.00251807658252081	0.00189481667337094	0.00517780118679262	0.0103608132953913
2.8	0.00613285411007767	-0.00150137100967685	-0.00222849250775514	0.00221941116402457	-0.00222069467699056	0.00222917418920047	0.00581582131671458	0.00993434586630479
2.9	0.00657595744161768	-0.00315769625036108	-0.00189431212267334	0.00251578716139798	-0.00189061511937573	0.00251536197576908	0.00657329849918205	0.00970047013718491
3	0.00674651542370643	-0.00501668430533139	-0.00151012821674288	0.00274743856754598	-0.0015248559307949	0.00275350197424247	0.00759023691026647	0.00948798618087551
3.1	0.00657508281551539	-0.00712382461291455	-0.00112371794155908	0.00292167551659514	-0.0011190962284442	0.00292999019122205	0.00869187519081498	0.00897207950599983
3.2	0.00566115891923753	-0.00933737099614968	-0.000708476748401846	0.00305762919150986	-0.000710211660901789	0.00305701620360641	0.00948211322981271	0.00826957530170156
3.3	0.00406098740948625	-0.0113839746330604	-0.000275816221319774	0.00312853362734287	-0.000274159266811159	0.00312481605386331	0.0101575455802199	0.00744423079255468
3.4	0.00188151531927053	-0.0128602879946948	0.000165819166124691	0.00312602532573492	0.000159551296708124	0.00314249680209373	0.0106945103089913	0.00652392708908521
3.5	-0.000494639818018214	-0.0138481785549615	0.000583859723967997	0.00308855330901036	0.000589439366647781	0.00308866280382484	0.0110173375245206	0.00550045190709952
3.6	-0.00305528504810349	-0.0143849877035509	0.00101099673141906	0.0029761626841464	0.00101917720358143	0.00297590129782306	0.0112572179391598	0.00460485295783058
3.7	-0.00577397233718922	-0.0144727070575729	0.00142298089976454	0.00280219183304624	0.00141330053079434	0.00281579447941134	0.0115235176329981	0.00364987449727698
3.8	-0.00865840851019633	-0.0139187834431674	0.00180505910953856	0.0025810963828723	0.00180740071628351	0.00259027264537926	0.0115614215823859	0.0026395432292847
3.9	-0.0113112268062236	-0.0126118896456416	0.00215680763149118	0.00231214851846326	0.00214953729733895	0.00231031616981438	0.0113840767065129	0.00179357512763529
4	-0.0134901279099066	-0.0107557041829449	0.00244849744632486	0.00199245700474549	0.00245297635307976	0.00199004089393051	0.0112912792750701	0.00125941440191874
4.1	-0.0151429682186365	-0.00865088933486572	0.00270741324469176	0.00163136303067123	0.00270615150413518	0.00163209574116253	0.0115214413887283	0.00078975900639008
4.2	-0.0164837261572749	-0.00638182868009837	0.00291245447724352	0.00122650141048647	0.00291697596566549	0.00121775996612575	0.0118462457121464	9.69138060134167E-05
4.3	-0.0175459885794025	-0.0039319629973532	0.00305917877760632	0.000809141294463718	0.00306565452421069	0.000801315484980269	0.0120233858864707	-0.000841812017894782
4.4	-0.0182851041870633	-0.00112975351635485	0.00313668883894751	0.000369091827647573	0.00313907807141165	0.000366827635430269	0.0118961851675065	-0.00172524356614652
4.5	-0.0184096712652673	0.00190820166987073	0.0031582195961101	-7.43164176633892E-05	0.00316360462682239	-7.77023467863616E-05	0.01177665859335	-0.00243104334724869
4.6	-0.0179233252517306	0.0048476839820465	0.00311102552590808	-0.000521092529309418	0.0031122638875833	-0.000508134323103185	0.0116990216548605	-0.00320521527442093
4.7	-0.016861336574447	0.00757260833692687	0.00300169088602832	-0.000941709737382986	0.00301700644486154	-0.000951363873502841	0.0115430954172937	-0.00409974488615034
4.8	-0.0154861190851922	0.0100438392719161	0.002836618169297	-0.00135539599123451	0.00284510269001326	-0.00136150161738039	0.0111881044554368	-0.00498304107678765
4.9	-0.0135056232707348	0.0123314710050628	0.00261298989206304	-0.00173721555365581	0.00261715951188107	-0.00173431234850735	0.0107749640459849	-0.00564492837160521
5	-0.0109670132497496	0.0141323493242403	0.00235229064824256	-0.00208890826863209	0.00235591054474035	-0.00208624544602855	0.010670665028216	-0.00610329400835443
5.1	-0.00790596374095752	0.0152515300013113	0.00204275332383562	-0.00239601387868897	0.00204505013712337	-0.00239465550804514	0.0108129370897143	-0.00676995475608245
5.2	-0.00491707920239028	0.0155757928321929	0.00168840279981618	-0.00264352221087122	0.00169012424183238	-0.00264865456069265	0.0108520680513073	-0.00767750381915514
5.3	-0.00211932366421661	0.0154319197035181	0.00130624672810593	-0.0028585191096091	0.00130936900666455	-0.00285644877439514	0.0106259870303254	-0.00858090367175948
5.4	0.000563558958610768	0.014991034474367	0.000886129053250985	-0.00300811206320999	0.000903332884247514	-0.00301924111434645	0.0102637823681224	-0.00948760899312996
5.5	0.00318667439231092	0.0141619223102548	0.000476270384147095	-0.00311032090694295	0.000486376177057343	-0.00311970193880699	0.0097345291954915	-0.01035732435202
5.6	0.00562397722945108	0.0127444776677946	3.93908198496225E-05	-0.00315262379211107	3.0868428201541E-05	-0.00315589598983399	0.00902454428857652	-0.0110776177389061
5.7	0.0074980368566321	0.0108437432616204	-0.00039282809007409	-0.00312892482050083	-0.000409472660622462	-0.00313269181410662	0.00817885712361247	-0.011656906991217
5.8	0.00876277606595404	0.00869615087188078	-0.000842949399258844	-0.00304031181961078	-0.000846426457244522	-0.00305438486478434	0.00723800811739974	-0.0123405380603519
5.9	0.00944883668894186	0.00664369758985529	-0.00125435947381804	-0.00290474206772913	-0.00126263981464004	-0.00290469755975323	0.0059557036329199	-0.0128600454901625
6	0.00978566953594275	0.00463007818778863	-0.00166083259298861	-0.00270009761566132	-0.00165724543061821	-0.00270025333665246	0.00447085202313376	-0.0129273195894799
6.1	0.00986451698020186	0.00253556599618021	-0.0020243341351004	-0.00244387610637022	-0.0020259941496087	-0.00243984327347721	0.00335727865832321	-0.0125584171252868
6.2	0.00950731184228592	0.000237573228601441	-0.00234436296823539	-0.00212570277613948	-0.00234809980913727	-0.00213767250083269	0.00269744324166975	-0.0123148221527311
6.3	0.00862632034172709	-0.00205411815837929	-0.00262711194702867	-0.00178394263651942	-0.00263630609415654	-0.00177814372637575	0.00216176778543808	-0.0124346521324434
6.4	0.0072891477451226	-0.00412941638667248	-0.00285517169457392	-0.00138450355778522	-0.00284538850945185	-0.00138947315219356	0.00163773701474644	-0.012629536790163
6.5	0.00573546745610164	-0.00594517568253734	-0.00301005575147602	-0.000970984844759455	-0.00301794900832907	-0.000966439122524205	0.00126558213785726	-0.0128694723742022
6.6	0.00382996771451406	-0.0074605096002698	-0.00311362586581733	-0.000538893206034044	-0.00311528929330856	-0.000542882361343145	0.000967357869071745	-0.0132851329252527
6.7	0.00148313616512778	-0.00843719476032778	-0.00315755590639228	-9.65119168577222E-05	-0.00316640670282981	-9.01562230908016E-05	0.000252270034330496	-0.013792473647392
6.8	-0.00112026811153465	-0.00858165547247305	-0.00312852282560214	0.0003463750346943	-0.00313961130089494	0.000351501898702457	-0.000843203478309938	-0.0140098585022932
6.9	-0.00356375963745265	-0.00792535164999555	-0.00304628266641267	0.000778112192168845	-0.00304925872690849	0.00078052193786537	-0.00194974832761317	-0.0138482896924654
7	-0.00553214706435033	-0.00667872368052607	-0.00290453305237753	0.00119477205789443	-0.00291736928064444	0.00119263983522379	-0.00288329863284764	-0.0134366131542954
7.1	-0.00714976908749817	-0.00523316295075662	-0.00272438176063951	0.00157821596524251	-0.00272068869314858	0.00158685756237903	-0.00363756796434056	-0.0128785339215545
7.2	-0.00859472198077985	-0.00362474190535662	-0.00246840125420115	0.0019407510833126	-0.00247491530646097	0.00194284354531911	-0.00410908067359955	-0.012365493121774
7.3	-0.0100237800864721	-0.00169889612359744	-0.00217596067768637	0.00225580679916137	-0.00218715099040814	0.00226086599751417	-0.00446233582499378	-0.0121400920302773
7.4	-0.0112355861700789	0.000673925793359615	-0.0018388942480835	0.00253736308411664	-0.00184577190541783	0.00255095819878346	-0.00502338290123785	-0.0122464264318186
7.5	-0.0118309687874987	0.00351908710842042	-0.00147795008043438	0.00277783182263127	-0.00147096509787943	0.00278523509901589	-0.00571094559951474	-0.0122161715595317
7.6	-0.0114189967315403	0.0065038441473303	-0.00107510743901801	0.00296012795362925	-0.00107647643297188	0.00295542254342606	-0.00636583505186074	-0.0119886063935496
7.7	-0.0105925861886599	0.0089805767189164	-0.000647674256091664	0.00308686682377326	-0.000649016308114319	0.00308579994392096	-0.00705579385768975	-0.0125195088623792
7.8	-0.00890607196861663	0.0111536311250939	-0.00021992855358438	0.00314163629244864	-0.000227776681668129	0.00314811085508487	-0.00807590721321855	-0.0126489632098318
7.9	-0.00662184280416653	0.0128625385150518	0.000226145034895754	0.00315334629107541	0.000234129275106759	0.00315485586612323	-0.00910412738329905	-0.0124509873289741
8	-0.0034657365631282	0.0137687769854292	0.000675107783691724	0.0030832642037428	0.000675194569579158	0.00308819531590811	-0.00991410438853352	-0.0116608060884743
8.1	-0.000468082374174942	0.0138816084168346	0.00109361603481868	0.0029644271372719	0.00111290005718166	0.0029654710473166	-0.0105957235978298	-0.0111297912375468
8.2	0.00230062650411597	0.0132768931850228	0.00150578686328947	0.00277883560222395	0.00151506701834701	0.00277154924072363	-0.0110506896143213	-0.0105180254586495
8.3	0.00472785758375852	0.0123049658944249	0.00188760589671634	0.00253201715606052	0.0018860361702144	0.00254566676432858	-0.0115381671938977	-0.0100139785647223
8.4	0.00693319005302856	0.0111339652152911	0.0022255101524105	0.00224464814337176	0.00222246103340172	0.00224444634871803	-0.0121761088691072	-0.00949594123837275
8.5	0.00903635380653422	0.00954304445361261	0.00250946925532302	0.00190387242069491	0.00250859801336156	0.00190707764971984	-0.0128894943207083	-0.00874218227019823
8.6	0.0108319649534287	0.00743455888091892	0.00275003237851665	0.00153445927630186	0.00275948758552366	0.00152780534089128	-0.0133724536960614	-0.00786793322413868
8.7	0.0120726286118516	0.00479716729016317	0.00292693879043683	0.00112543764227381	0.00293250857788592	0.0011261017371	-0.0136359479931498	-0.00714039175515307
8.8	0.0125459370619789	0.0020099493462019	0.00305304575833394	0.000711896738415241	0.0030587129386355	0.000703090430257355	-0.0140399013358715	-0.00665720850760148
8.9	0.0125145878547795	-0.000720178073980726	0.00311976574256931	0.000279395196419201	0.00311887575856501	0.000277164550915481	-0.0144673296390615	-0.00599077392674939
9	0.0121169924624196	-0.00347132610002074	0.00312041015005642	-0.00015850881453983	0.00312358641806912	-0.000154455996812375	-0.014710254303221	-0.00506703233942036
9.1	0.0112691560245313	-0.0063601457788783	0.00306801231758816	-0.000591878234784884	0.0030709705450698	-0.000579083534737328	-0.01460758889167	-0.00413662643202834
9.2	0.00963920038206704	-0.00924000507788408	0.00295614818730498	-0.00100027054074877	0.00296373660364855	-0.00100316826164394	-0.0143486182635067	-0.00347283737775215
9.3	0.00724781653703826	-0.0116553547363316	0.00278890672844005	-0.00139677231117129	0.00278816317496155	-0.0014017246761559	-0.0141176570364635	-0.00293275258323452
9.4	0.00440483064652316	-0.0134390794157479	0.00257083190499532	-0.00178015509212033	0.00257731473911955	-0.00177262087402991	-0.0140284291200298	-0.00247836419672217
9.5	0.00122541397757558	-0.014405661700666	0.00230192622307096	-0.00211068336215141	0.00230929431736878	-0.00211202737524608	-0.0139107517447335	-0.00177287965994678
9.6	-0.00221586497673661	-0.014910121086067	0.00199132742978657	-0.00241381183181641	0.00199165542486431	-0.00241283426357064	-0.0138694892282306	-0.00116757857025207
9.7	-0.00597500480682737	-0.0146502580647103	0.00162935698077351	-0.00266672800042563	0.00163487916036028	-0.00267400612028899	-0.0137847884346129	-0.00057575732890715
9.8	-0.00986816115481263	-0.0134346261906776	0.0012472187729367	-0.00287975843833818	0.0012529000379957	-0.00287127260008722	-0.013803754274523	-4.22345714329512E-05
9.9	-0.0135014415377966	-0.0110388093696411	0.00084192683718264	-0.0030236333076377	0.000834600772086641	-0.00302240878882494	-0.0140786444654298	0.000661504308067188
10	-0.0164187321391501	-0.00786352790771636	0.000409102969600854	-0.00311652967518706	0.000401601749980583	-0.00312896858097769	-0.0142300684718916	0.00160825368162952
10.1	-0.0185146593476074	-0.00417846494677468	-3.76116083125443E-05	-0.00314943647850186	-4.78383958460862E-05	-0.00314401818931602	-0.0140286500512432	0.00257504376961422
10.2	-0.0198881635541563	-0.000179657209320938	-0.000488789646918887	-0.00311103019150449	-0.000492188690638614	-0.00310823717431132	-0.0135424914013864	0.00336435482141629
10.3	-0.0204997774030751	0.00419561909463582	-0.000925311820075972	-0.00300079909071379	-0.000917265943401016	-0.00300991366296924	-0.0130083912386881	0.00388798159484547
10.4	-0.0200705449552634	0.00879808871395062	-0.00132430249172463	-0.00283943703654034	-0.00132264735282206	-0.00284563753515189	-0.0124504566325689	0.00418709041070525
10.5	-0.0185096445052538	0.0133042771297342	-0.00171428650766359	-0.00263279553791789	-0.00171109683978836	-0.00261984882250387	-0.0119646787404365	0.00452093846040647
10.6	-0.0159559797247536	0.0172819033617122	-0.00206162902691381	-0.00235551911450151	-0.00205948113315641	-0.00235934244861872	-0.0114147692310061	0.00479891049335365
10.7	-0.0127593741101763	0.0207204549125113	-0.00236833155085607	-0.00204835973833888	-0.00236481856405743	-0.00204313832645102	-0.0108347833552121	0.00503228418151544
10.8	-0.00895203598510699	0.0236356693300502	-0.00262661922576519	-0.0016868071969429	-0.00262152488291892	-0.00169569570088019	-0.0104084300342149	0.00514123288005816
10.9	-0.00453589341446684	0.025942329960993	-0.00282362158285879	-0.00131537928744193	-0.00282875302384671	-0.00131462598053022	-0.0101526539648605	0.00531025906653516
11	0.000594840791979767	0.0273757418102845	-0.00297285100325573	-0.000906096096897146	-0.00297766617733992	-0.00091273968990505	-0.00984816265323689	0.00573253549552506
11.1	0.00602638718599564	0.0276082624601303	-0.00307435507795314	-0.000491728394530122	-0.00306362575534885	-0.000488924173706162	-0.00923197488709872	0.00614679333477754
11.2	0.0113286942860929	0.0266168649232027	-0.00310135803415716	-6.67070229845552E-05	-0.00310841676629517	-7.14851777882218E-05	-0.00832421715357153	0.00631966177252843
11.3	0.0163193515094753	0.0247178905123402	-0.00307701669339621	0.000369121932781588	-0.00308838525085581	0.000359177842494507	-0.0073563515108712	0.00621922373473629
11.4	0.0208128116652753	0.0220087161824927	-0.00301006046960597	0.000785986532807201	-0.00300524136560565	0.000793488835580683	-0.00659466954860723	0.00578976214631944
11.5	0.0248785206750997	0.0184451381559657	-0.00287696115852242	0.00119404696164473	-0.00287978074231595	0.00120419891041878	-0.00615187207568811	0.00515984472749492
11.6	0.0283524829217792	0.0139759989564063	-0.00269429666453247	0.00158123687072016	-0.00269430160718901	0.00158415234589752	-0.00574408927601362	0.00453525405579328
11.7	0.0308270750052579	0.0088464320664318	-0.00244447600905562	0.00193742692543151	-0.00244511176399366	0.00194597136900334	-0.00539262979635468	0.00370346706513938
11.8	0.032305532214781	0.00345097310983712	-0.0021586212651376	0.0022746160543313	-0.00216273323604743	0.00227627047325748	-0.00533279478027758	0.00282732477037559
11.9	0.0330385783138953	-0.00198739052569755	-0.0018155232399023	0.00255840123074103	-0.00182854709578161	0.00256258768980927	-0.00550870226253993	0.0025059202479006
12	0.0327664115205904	-0.00784697312191544	-0.00144445478449492	0.00278982978670023	-0.00144387002741246	0.00279124449983971	-0.00581622790730642	0.00226643783884235
