# GHZ S RI R 50
0.2	0.00566357988292039	0.00548014126410828	0.00304820539071124	-0.000894737948268744	0.00305856419075327	-0.000887921392025805	-0.0142687237876802	0.00912734644379277
0.3	0.00670607889119218	0.00102554161060801	0.00290546564794202	-0.00131578870772908	0.00289819915047007	-0.00130286719452168	-0.0127538376970754	0.00679682395329711
0.4	0.00571907017414321	-0.00231071358274678	0.00267701393978465	-0.00168579662235173	0.00268230435299391	-0.00169434257398497	-0.0130108363425623	0.00563103829580252
0.5	0.00370510161052962	-0.00415785747402085	0.00242275595746827	-0.00204231093455914	0.00243434553028937	-0.0020545164905835	-0.0138558230172654	0.00579342185232006
0.6	0.00174177768503436	-0.00458937970451905	0.00211525598094202	-0.002359040585657	0.00211449981831376	-0.00236620577026099	-0.014372630612995	0.00703020951391299
0.7	0.000399941959249695	-0.00423383899694395	0.00177236210714925	-0.00264166270088575	0.00177040105179691	-0.00264187167881237	-0.0140939617141104	0.00873392831117258
0.8	-0.000170099251255961	-0.00388941825871347	0.00138905254749963	-0.00286605503405603	0.00137641633327229	-0.00287068702395748	-0.0129749366266808	0.0102119771497281
0.9	-0.000583330032215383	-0.00397640644942377	0.000971019483680902	-0.00303777007571538	0.000972108375683118	-0.00304853189935764	-0.0115411860465964	0.0109060991329442
1	-0.00138435539369337	-0.00446726954566084	0.000541748433568112	-0.00314899153533112	0.000531812241539323	-0.00314977145490358	-0.0104400892081345	0.0109200318394295
1.1	-0.00297217699081231	-0.00484961193868456	7.82203571796177E-05	-0.00318361227749261	7.47170650322821E-05	-0.00320142938718974	-0.0101433519850102	0.0108683112271163
1.2	-0.00506229997644397	-0.00472993319498133	-0.000373881798039519	-0.00317568759263363	-0.000374701996980378	-0.00317359088248007	-0.00999923576164284	0.0113345845780824
1.3	-0.0070925303896848	-0.00405088843253728	-0.000811610018157542	-0.00309102542959448	-0.00081488653982784	-0.00309304508858633	-0.00908732742390567	0.0122109818244378
1.4	-0.00846092371961629	-0.0031181148596637	-0.00124255273225468	-0.00293716546741645	-0.00124134919704955	-0.00294275783378492	-0.00756173401280175	0.0124860786116076
1.5	-0.00899945818429651	-0.00165510140065226	-0.00165042157876895	-0.00273235774062328	-0.00164884441267878	-0.00274094380735491	-0.00617025950438058	0.0124347656601841
1.6	-0.00876039682444962	0.000324648054372824	-0.00201396375041373	-0.00246898549501416	-0.00201421507605772	-0.00247425798801559	-0.00541459513541702	0.0127983145464237
1.7	-0.00767917998099455	0.00214435953373876	-0.00234103088729975	-0.00216094920895816	-0.0023419486230156	-0.00215464308290238	-0.00423839306720761	0.0132940959923411
1.8	-0.00617116156801158	0.00350796807145486	-0.00260643138537251	-0.00180001032953111	-0.00261749003474131	-0.00180556850801037	-0.00293961571941533	0.0133310747241775
1.9	-0.00467526937468706	0.00420613754916994	-0.00282337473190895	-0.00142309346184655	-0.00283578027712718	-0.00141681750019013	-0.00200013274356519	0.0130513852569629
2	-0.00338998178011048	0.0046105407019939	-0.00298931422342765	-0.00101327183016983	-0.00299889502185113	-0.00100848429952629	-0.00147526671805726	0.0128974278944896
2.1	-0.00215907239972537	0.00489720332656291	-0.00309372211726521	-0.000586913417681542	-0.0030896599640225	-0.000588930619828085	-0.0009333718093435	0.0129928967272757
2.2	-0.000780708492842499	0.00512416137551093	-0.00314448597099791	-0.000154000132136262	-0.0031557742539745	-0.000156766971075885	-7.60817463462669E-06	0.0132202998646047
2.3	0.000826282344611456	0.00488796903197226	-0.00313685298712055	0.000282286465910309	-0.00313657619509958	0.000275423598049354	0.00120199538371663	0.0131112404931604
2.4	0.00236281333658779	0.00410009045005332	-0.00306538471366796	0.000713729988596259	-0.00306792657961582	0.000709488762464716	0.00240751687788069	0.0126038048032118
2.5	0.00348754053787632	0.00277143721787406	-0.00293258093996884	0.00112126223692189	-0.00294344992347594	0.00112763426549835	0.00332169676124059	0.0117538316016124
2.6	0.0041387580583283	0.00130582713065431	-0.00276460847768438	0.00152299565414706	-0.00276104231079203	0.0015106777682348	0.00390134966104704	0.010925616093431
2.7	0.00456057062987523	-9.95421891773608E-05	-0.00252440787079929	0.00189696951735317	-0.0025296970131786	0.00189697417869425	0.00427628608210671	0.0102809327808646
2.8	0.0049595177966124	-0.00160727540401426	-0.0022450098931953	0.00223038938767102	-0.00223717587389618	0.00224022240189211	0.00466109472924839	0.00985162656666802
2.9	0.00519085362723846	-0.00340746310361356	-0.00191045493879342	0.00253847452868199	-0.00190672536112269	0.0025380447033412	0.00524539585990814	0.00952733626595255
3	0.00492462857802986	-0.00536444654140859	-0.00151944275552498	0.00278162511613306	-0.00153431622421695	0.00278779415326055	0.00591725809303874	0.00923913187783258
3.1	0.00422892213616199	-0.00717613091331399	-0.00112056476355719	0.00296433280468021	-0.00111583744779185	0.00297272327167186	0.00657422476790434	0.0089684123690507
3.2	0.00311004267673774	-0.00882560806616856	-0.000688442761042262	0.00310316711689858	-0.000690205515011028	0.0031025628180849	0.00721450633404106	0.00877994084055886
3.3	0.00168862435182564	-0.0104080110019467	-0.000237504729695653	0.00316943629378499	-0.000235877479794994	0.00316565244450755	0.0081211643063105	0.00836045404833997
3.4	-0.000213810951456169	-0.0117458476142669	0.000220291378881863	0.00315434885012965	0.000214239423493493	0.00317109024037959	0.0089930420822254	0.0075020163065424
3.5	-0.00255067351863865	-0.0127725717619967	0.000649521405298592	0.00309835832187866	0.000655141984662596	0.00309835728149842	0.0094268773114186	0.0063082558187804
3.6	-0.00519995953749874	-0.0131206589174251	0.00107989892426281	0.00296293235238148	0.00108809869288402	0.00296248929400495	0.00956442915137919	0.00543936944209386
3.7	-0.00782608826410875	-0.0127912762651757	0.00148591321555306	0.00276538208819085	0.00147656117243105	0.00277919018069967	0.00983737682668536	0.00472078596540131
3.8	-0.0102275083961383	-0.0119206749541008	0.00185339508039214	0.00252410069479405	0.00185593312424956	0.00253316785225793	0.0101876711424361	0.00390421921404608
3.9	-0.0122876591271883	-0.0107265241925009	0.00218375333818537	0.00224157276790506	0.0021765200900178	0.00223991567227621	0.0104057052139005	0.0029156142081837
4	-0.0141732564933534	-0.00927744525914645	0.00245056472668571	0.00191775318769511	0.00245493366122428	0.00191528787474766	0.0104244252343983	0.00201136771770119
4.1	-0.0158604675954012	-0.00747274514298674	0.00268490466076275	0.00156201305203354	0.00268367597909864	0.00156275207052463	0.0104625807547413	0.00132053034740816
4.2	-0.0172270061606159	-0.0052662050637327	0.002869718628744	0.00117135150428527	0.00287405842652748	0.00116272922306055	0.010623789328684	0.000695555370298399
4.3	-0.018099755587665	-0.00290622011655556	0.00300392587049913	0.000773926283206244	0.00301022462220203	0.000766214088893044	0.0108948529810115	-0.000174957650836207
4.4	-0.0186652876637323	-0.000456375954067663	0.00307817713209071	0.000356039449446691	0.0030805168596141	0.000353813376551909	0.0109327532800299	-0.00119742151474592
4.5	-0.0189290426877888	0.00209609224477035	0.00310520965435562	-6.7295955230524E-05	0.00311051025306188	-7.06150686631044E-05	0.0107654196592547	-0.0022017909631944
4.6	-0.0189007458185101	0.00477748094913012	0.00307047839615946	-0.000499416794871696	0.00307163934821066	-0.000486631815558023	0.0104185816648345	-0.00310190813040098
4.7	-0.0182893323900947	0.00761430357969021	0.00297704647127142	-0.000913235356643846	0.00299226679403698	-0.000922694823557663	0.00998003974531824	-0.00388958155612393
4.8	-0.017040174283558	0.0103759573145952	0.00282755340489355	-0.00132801849551018	0.00283602438196825	-0.00133402919386371	0.00963966044822742	-0.00456807856548019
4.9	-0.0150585294756657	0.0127681078065231	0.00261558714977676	-0.00171774406020871	0.00261972898514543	-0.00171482537032722	0.00930356809544945	-0.00521376918509111
5	-0.0126442110776481	0.0145794299523683	0.00236007614772167	-0.00208128728451884	0.00236368772083765	-0.00207861131228626	0.00913447051366421	-0.0057823326094462
5.1	-0.00977683323261804	0.0159143481301129	0.00204821354768293	-0.0024006722688548	0.00205051504229998	-0.00239931001421488	0.00907306138910732	-0.00640249360373876
5.2	-0.00670234735285603	0.0166337800013277	0.00168480948925642	-0.00265711527874516	0.00168651922989052	-0.00266226888560905	0.00906716103484826	-0.00705078436550833
5.3	-0.00347829213410244	0.0166836650166781	0.0012891391393332	-0.00287487380595667	0.00129228385978343	-0.00287282056691235	0.00907760428637967	-0.00776465571754065
5.4	-0.00040763353095781	0.0160243193560736	0.000854582237181338	-0.00301922167973833	0.000871677092947755	-0.00303054015190769	0.00897119117222272	-0.00878011462183269
5.5	0.00223489862725201	0.0148247390403921	0.000433080401967315	-0.00310874603388161	0.000443033629233738	-0.00311823928338701	0.00841634210845284	-0.00988985290541085
5.6	0.00440247789436528	0.0132752375065477	-9.03078623877145E-06	-0.00313224800708022	-1.75464562457889E-05	-0.00313536824361321	0.00743611296559345	-0.010642668090622
5.7	0.00612913194313981	0.0115372816716457	-0.000437634533515593	-0.00308731274910274	-0.000454149939053753	-0.0030907750770445	0.00645671013305681	-0.0109546651689728
5.8	0.00751014656221984	0.0096386913264379	-0.000874111749620669	-0.00297876330060682	-0.000877739917480668	-0.00299255770642504	0.00565267457250659	-0.0112768332654389
5.9	0.00851933128955712	0.00756619982596194	-0.00126393988502171	-0.00282927815500094	-0.0012720483121583	-0.0028291332551838	0.00477550462098092	-0.0116792228960244
6	0.00903841369927387	0.00523586626474227	-0.0016428383320958	-0.00262007305460689	-0.00163934027714216	-0.00262025506418289	0.00364223523319572	-0.0119680903538249
6.1	0.00899507196433873	0.00282876437723537	-0.00197796778309038	-0.0023706260755383	-0.00197956881338933	-0.00236669675415702	0.0026063924971128	-0.011912283910081
6.2	0.00842569471494321	0.000479437583232461	-0.00227362190477825	-0.00207060833719372	-0.00227722780952901	-0.00208224778068886	0.00189198946933625	-0.0118052283063889
6.3	0.00755345721558694	-0.00174254876824942	-0.00253998810404095	-0.00175510933577075	-0.00254897248868749	-0.00174954426788676	0.00144732751506977	-0.011951768770227
6.4	0.00618987193252521	-0.00390124197915636	-0.00276320848969937	-0.0013870299967939	-0.00275361062505573	-0.00139174100303125	0.000935446987374555	-0.0123462270374377
6.5	0.00436201121839758	-0.00578389513670838	-0.00292565576397029	-0.0010036375104528	-0.00293345548076454	-0.000999335046267306	0.000291226447155791	-0.012791415810394
6.6	0.00213951727693232	-0.00705954873051671	-0.00304724885609177	-0.00059623992159801	-0.00304879737592018	-0.000600194559705608	-0.000381635862932773	-0.0131010392524746
6.7	-0.000189500092208467	-0.00763649265383232	-0.00311649972687076	-0.000169273432372926	-0.00312539062116495	-0.000163203107272098	-0.00118451327301439	-0.0132764929047113
6.8	-0.0024738774563582	-0.00762434804159208	-0.00311555936186954	0.000269726168535601	-0.00312669449696898	0.00027455495499101	-0.00204250062849645	-0.0133058639711116
6.9	-0.00470722403440906	-0.00708632058119337	-0.00305900193423279	0.000708379591358757	-0.00306202751981002	0.000710718623265377	-0.0029729479333206	-0.0131892828722515
7	-0.00678186775028167	-0.00612418709917957	-0.00293652551326759	0.00114065517163772	-0.00294935628436657	0.00113826254507048	-0.00390030216986786	-0.01305685217891
7.1	-0.00876551819556271	-0.00465973178229477	-0.00276637987547996	0.00154423361089573	-0.002762802649228	0.00155298738292212	-0.00492954709337235	-0.0126097390598291
7.2	-0.0104425131205356	-0.00263498067967529	-0.0025104426323523	0.00192767481300703	-0.0025170326467135	0.00192970868110041	-0.00566379679285481	-0.0118615825807269
7.3	-0.0116769500556035	-0.00020474315192541	-0.00220923609875995	0.00225933724748767	-0.00222055266607059	0.00226436108107758	-0.00593560107596983	-0.0112293368908887
7.4	-0.01225999657201	0.00259920846165324	-0.00185772360631449	0.00255015803127818	-0.00186468182436541	0.00256382904737925	-0.00626242677192047	-0.0108124678075663
7.5	-0.0122518404810154	0.005230854245272	-0.00148076484580394	0.00279079054462338	-0.00147374305753324	0.00279821585296004	-0.00646613495099159	-0.0108740768966363
7.6	-0.0119020656818702	0.00749872029397214	-0.00106471560173959	0.00296440927130154	-0.00106610158030918	0.00295970803027184	-0.00678919805234721	-0.0115562970068244
7.7	-0.0106733695276556	0.00967310779666035	-0.000631033194784605	0.00307609376476917	-0.000632374067265806	0.0030750375957022	-0.00738797356256522	-0.0118804116143857
7.8	-0.00898380667722984	0.0114293098865479	-0.000206307161613222	0.00311357628835477	-0.000214059257560458	0.00312002032739591	-0.00828246414211137	-0.0122723814875997
7.9	0.290371194179404	-0.118269480361153	0.000849795067823065	0.00261608466527175	0.000836882932749164	0.0025173108463425	0.434178504137176	0.231222474565975
8	-0.00458274136501003	0.0132161174457002	0.000655170127229267	0.00303232743868266	0.000655242021112982	0.0030371743873499	-0.0107163411763594	-0.0122905492200983
8.1	-0.00191535358029384	0.0133119138714967	0.00104926040786167	0.00291580855809487	0.00106816416297994	0.00291698360144265	-0.0115358371822885	-0.0113709583253404
8.2	0.000437175780487931	0.0132150455315762	0.00143797286280665	0.00274445785955231	0.0014471691008213	0.00273744263748807	-0.012230678696813	-0.0105217300369445
8.3	0.00282577745820246	0.0126949122470502	0.00180305719990566	0.00252246389215931	0.00180124810900926	0.00253583113966944	-0.0126617837196099	-0.00980737940156252
8.4	0.00512042129459311	0.0117268124214206	0.00213509106059733	0.00226644989777818	0.00213209349638407	0.00226617443352713	-0.0131487734204406	-0.00932827457598655
8.5	0.00717772224802013	0.0102160774951521	0.00242674953177059	0.00195843395302903	0.00242579229100833	0.00196157983037492	-0.0138979028169493	-0.00879385088617941
8.6	0.00881140233648986	0.00834678528127515	0.00268764447720317	0.00161758959814745	0.00269727534238623	0.00161127442207518	-0.0146721806634532	-0.00803359047684161
8.7	0.0100365974810633	0.00620458711663092	0.0028954457591717	0.00122739444809404	0.00290100578214692	0.00122824916962	-0.0153010197679997	-0.00712420129410403
8.8	0.0108798341897524	0.00383671164873369	0.00305733232255847	0.000820037989401947	0.00306334454922054	0.00081133959635709	-0.0157808710545219	-0.00630726403421232
8.9	0.0114061464147354	0.00114612924228786	0.00315982389719195	0.000379674600277953	0.0031589886201161	0.00037738180668892	-0.0160350036174243	-0.00544174061809998
9	0.0113687547851601	-0.00191505893024607	0.00319027373075554	-7.89636217244734E-05	0.00319340918189004	-7.47411688059037E-05	-0.0161047053488499	-0.00457710412326195
9.1	0.0107117983249001	-0.00516883725877706	0.00315738800411755	-0.000541975569347919	0.00316015039669531	-0.000528797804297451	-0.0159202711762505	-0.00376061256557326
9.2	0.00908070109093728	-0.00828392787155895	0.00305181575150066	-0.000983702990455725	0.0030596546482795	-0.000986567204278419	-0.0157035290376494	-0.00310484986521748
9.3	0.00673236207059357	-0.0109534288444354	0.00287792398955204	-0.00141210405663462	0.00287720135150797	-0.00141719993006163	-0.0154022068529793	-0.00252645542239746
9.4	0.00373159102848369	-0.0129622183906495	0.00264230892196181	-0.00182098502917012	0.0026489446115076	-0.00181323845319138	-0.0151639704288989	-0.00195746158910756
9.5	0.000167903237347253	-0.0143617236627514	0.00234887926739999	-0.00216608172651603	0.00235641341982936	-0.00216747821276323	-0.0151914482257094	-0.00158468116425656
9.6	-0.00373929432483649	-0.0147175696311537	0.00201217574920213	-0.00247211960270137	0.00201251641744707	-0.00247112604187335	-0.0153475094630814	-0.000966736752627142
9.7	-0.00770196720403454	-0.0140102923952996	0.00162764133740951	-0.00271665589436506	0.00163317318682218	-0.00272407973945738	-0.0153855398913897	-0.000145303252292282
9.8	-0.011404669957868	-0.0123736633728013	0.00123116100631233	-0.00291357220629608	0.00123696307274823	-0.00290507072632687	-0.0152796715972238	0.000661464203530003
9.9	-0.0145805235895514	-0.00996667550611276	0.000822249967463742	-0.00303807667290527	0.000814912652382725	-0.00303679549664533	-0.0151994784464187	0.00137202211565596
10	-0.0172814682796538	-0.00695597821757308	0.000396472461097933	-0.0031138538944474	0.000388933316310199	-0.00312624674174786	-0.0151822741593121	0.00217777078785566
10.1	-0.0193561080374297	-0.0034293740075505	-3.48789311190424E-05	-0.00313691565705959	-4.50694044909633E-05	-0.00313152734869179	-0.0149842758782202	0.00302114991233536
10.2	-0.0207163339563754	0.000536880312695482	-0.000467025076698325	-0.00309935800154482	-0.0004704254910534	-0.00309659945840449	-0.0145170587398191	0.00384066323133308
10.3	-0.0212089169312029	0.00483090912190932	-0.000886801473228149	-0.00300132395696572	-0.000878676123136074	-0.00301031236185364	-0.0138570898762625	0.00441228187995589
10.4	-0.0207357939596255	0.00915037664066373	-0.00127663190760479	-0.00286095923304301	-0.00127487360571231	-0.00286713082725981	-0.013130228891285	0.0045781746662676
10.5	-0.0195550653013814	0.0132748128321946	-0.00166867135343497	-0.00268024500854067	-0.00166573080534062	-0.0026671719065973	-0.012633173488765	0.00452679670945843
10.6	-0.0174119429996148	0.0172797331098337	-0.00203126725739911	-0.00242738256639065	-0.00202901026615583	-0.00243119937316524	-0.0123748246711141	0.00468938952462039
10.7	-0.0146209810150414	0.0210316290449592	-0.00236423684654707	-0.00213765224364795	-0.00236077888612947	-0.00213225981796293	-0.0120877197195829	0.00492592076328686
10.8	-0.0110423403726272	0.0244101782170783	-0.00265649430865971	-0.00178138300284681	-0.00265109491276371	-0.0017903850779671	-0.0119148549775012	0.00501130840760906
10.9	-0.00648486275710313	0.027055800555379	-0.00288840650026336	-0.00140120187247039	-0.00289370658114865	-0.00140050868851333	-0.0117719995796597	0.00531011033827156
11	-0.00129527352649248	0.0287026843631045	-0.00306837187424409	-0.000968758180438485	-0.00307328831956521	-0.000975685867318227	-0.0116336747128931	0.00573321785014647
11.1	0.00418749875249125	0.0292469153769474	-0.0031906020860285	-0.000520332475861039	-0.00317947052278366	-0.000517386732148026	-0.0113124176735639	0.0062527971302763
11.2	0.00975500291398402	0.0286560388481464	-0.00322353496712712	-5.48261922985896E-05	-0.00323089340838205	-5.97590935188355E-05	-0.01065776762727	0.00677402952635534
11.3	0.744841543883804	0.193561103165444	-0.0116252844452522	-0.0115083159222738	-0.0118510205180131	-0.0084707584445207	0.427426808236828	2.94416207819806
11.4	4.30510752817596	6.63145366245366	0.00295732721611395	-0.0249899525105683	0.0020010092876473	-0.0241231330616747	-0.58330042147184	0.564708928862979
11.5	9.20265351581255	-3.19153236869651	0.0387022601038403	-0.025909532719757	0.038116024269274	-0.0264652026462642	-0.221548542120619	-2.27109585047446
11.6	0.0283136289104981	0.0150146751237082	-0.00270838141408872	0.00169933073629882	-0.00270829807356638	0.00170231348098772	-0.00704684917547034	0.0057480197960311
11.7	0.0308727373902256	0.00966088554657156	-0.00241942851875652	0.0020475875557503	-0.00241979510446401	0.00205628643487318	-0.00643639805809496	0.0051772279396465
11.8	0.0324025381732882	0.00395267852677628	-0.00210147926567913	0.00236383099656398	-0.00210557024646217	0.00236563368462441	-0.00589684178368825	0.00435460268191064
11.9	0.0328043163660836	-0.00198113072003787	-0.00173864289266139	0.00261694442209657	-0.00175155136287094	0.00262153616624867	-0.00578866281019816	0.00341640753432657
12	0.0324144658824609	-0.00812939186774678	-0.00136254515230251	0.00281512321389506	-0.00136192523207654	0.00281651537875791	-0.0057087213674465	0.00297094558090866
12.1	0.0306114320140419	-0.0139735064551153	-0.000960263472221075	0.00297324922030436	-0.000963819516597884	0.00297245565557156	-0.00589337285859601	0.00263582725851189
