# GHZ S RI R 50
0.2	0.00569162172589214	0.00389385610254476	0.00304824854755246	-0.000896028380609944	0.00305861129847157	-0.000889214953470736	-0.0142381863395996	0.00755310781558453
0.3	0.00649033203316316	0.000393802227201047	0.00290493517333939	-0.0013180486764463	0.00289767687960338	-0.00130512015510078	-0.0129645238618653	0.00618179675826265
0.4	0.00581296412269939	-0.00232954014804656	0.00267521181008618	-0.0016887922981228	0.00268049290080754	-0.00169734428754929	-0.012908880136383	0.00563409895707815
0.5	0.00429421012727436	-0.00404930369356892	0.0024190991308197	-0.00204541137477158	0.00243066757658179	-0.0020576311489742	-0.0132536443585793	0.00593023517727261
0.6	0.00265656538856619	-0.00475011872922909	0.00210955269793032	-0.00236126739289922	0.00210878408411221	-0.00236842634844589	-0.0134351249338209	0.00690400052488609
0.7	0.0012908103950541	-0.00478548884648666	0.00176490227268259	-0.00264196169113034	0.00176294320853951	-0.00264216649080329	-0.0131647451876145	0.00821829448930349
0.8	0.000411280205969559	-0.00466497029086119	0.00138067689719878	-0.00286354636019527	0.00136805476225567	-0.00286814419171272	-0.0123372366556811	0.00946302136643072
0.9	-0.000362957557718882	-0.00467256850116403	0.000962954069515691	-0.00303195959778275	0.000964020278952261	-0.0030426964774043	-0.0112544825796356	0.0102144144967338
1	-0.00133512056963011	-0.00485689225982253	0.000535382455576903	-0.00313999343472681	0.000525476037007256	-0.00314075616096357	-0.010334026227573	0.0105079240615056
1.1	-0.00280408841455377	-0.00492602371659111	7.49570482614746E-05	-0.00317218496839294	7.14497297252041E-05	-0.0031899344351484	-0.00995090993350975	0.0107559650525469
1.2	-0.00459380581341388	-0.00468407566745382	-0.000373196474283793	-0.00316305034189222	-0.000374012910819261	-0.0031609617093783	-0.00955252556209327	0.0113513689542923
1.3	-0.00638711819383116	-0.00410651655865854	-0.000806670761486523	-0.00307880545610452	-0.000809932821353709	-0.00308081856906594	-0.00843850089193325	0.0121562595427011
1.4	-0.00769617702612673	-0.00331570552532352	-0.00123367741997168	-0.0029270208212026	-0.0012324713130831	-0.00293258914745815	-0.00685918169285018	0.0122983867425867
1.5	-0.00826072266299623	-0.00200741799628514	-0.00163860160750125	-0.00272564655279088	-0.00163701241855671	-0.00273419744566962	-0.00550284715943005	0.012095455129288
1.6	-0.00812930845522542	-0.000205485946020677	-0.00200075879924663	-0.00246657408586569	-0.00200099490881794	-0.00247183036168011	-0.00483044510286606	0.0123012739198546
1.7	-0.00725557312249399	0.00151900418944611	-0.00232816208134722	-0.00216300208118332	-0.0023290977572656	-0.00215671486492277	-0.00384756957698423	0.0127127216876178
1.8	-0.00596677278326193	0.00293588576677861	-0.00259563049094293	-0.00180591929028444	-0.00260665053344357	-0.00181150616876546	-0.00274903410940189	0.0128079082531059
1.9	-0.00455794622759288	0.00378499897950117	-0.00281580933441066	-0.00143160758926359	-0.0028282252593485	-0.00142538062262683	-0.00189062516889947	0.0126713271361606
2	-0.00323011788229304	0.00430608791451176	-0.00298558880526968	-0.0010227833417784	-0.00299518363971961	-0.00101802750445416	-0.0013266379538184	0.0126317911129104
2.1	-0.00192111854730488	0.00459642626006744	-0.00309361705589762	-0.000595701074052787	-0.00308954737961477	-0.000597708096472483	-0.000707809418876205	0.0127378701112679
2.2	-0.000544498615911391	0.00475049388965493	-0.00314703063331335	-0.000160684072795464	-0.00315832344403021	-0.000163476923487256	0.000227111830660175	0.0128991349436232
2.3	0.000958465903346587	0.00448265794862094	-0.00314056248395827	0.000278451204641518	-0.00314027634954639	0.000271581400231375	0.00135026535388344	0.0127513991678399
2.4	0.00238366168288621	0.00377597004780949	-0.0030686241106993	0.000712662379718414	-0.00307116593808549	0.000708415795307667	0.00245578883507018	0.0123115433119677
2.5	0.00349729572652598	0.00259373092125759	-0.00293398398383808	0.00112208380511345	-0.00294485797944208	0.00112846001089275	0.00335120099221126	0.0115844335045209
2.6	0.00423446252108882	0.00122107714772755	-0.0027634554470863	0.0015242804852667	-0.00275989628386301	0.00151196222117377	0.00399796266933115	0.0108426080575993
2.7	0.0047411938003051	-0.000176885238530193	-0.00252078769363525	0.00189708355656374	-0.00252607209981085	0.00189709200923557	0.00444576404130979	0.0102117193910041
2.8	0.00517787172014102	-0.00169158856515631	-0.00223980775220858	0.00222794606506332	-0.00223198112512257	0.00223775747622265	0.00486402043803322	0.00977708620381264
2.9	0.00545512695809386	-0.00346972006828636	-0.0019051867186185	0.00253260812949098	-0.00190146645446035	0.00253217856667363	0.00547857458024486	0.0094630411001253
3	0.00527218324357606	-0.0054363947598575	-0.00151596093800315	0.00277235500423708	-0.00153079109970323	0.00277849844359223	0.00620310220565697	0.00916715462370076
3.1	0.00464439731484954	-0.0073350454716381	-0.00112049004234757	0.00295248342959138	-0.00111579020810674	0.00296085062653519	0.0069086253626312	0.00883635709622249
3.2	0.00351945837087152	-0.00908612391342652	-0.000693056806684456	0.00309025973269202	-0.000694811738904953	0.00308965359113847	0.00753574262914842	0.00856642367596001
3.3	0.00204730660033668	-0.0107262093809079	-0.000247285363064086	0.00315755233518336	-0.000245651137656344	0.00315378717248649	0.00838718129216673	0.00810600455762748
3.4	0.000105269622535632	-0.0120707971504912	0.000205827735207414	0.00314572567901619	0.000199720961527952	0.0031623897242394	0.00920775683936458	0.007257240566562
3.5	-0.00222121798177285	-0.0130978571834168	0.000631673898445335	0.00309472619006184	0.000637281670345912	0.00309475484230462	0.00963125810699417	0.00609897021871597
3.6	-0.00486776206474544	-0.0134985314204539	0.00106080996537439	0.00296567707633303	0.00106900209460666	0.00296528365095092	0.00977350582365722	0.00522516441328724
3.7	-0.00753688472902115	-0.013243285384099	0.00146816274954073	0.00277481673485731	0.00145872256030831	0.00278856454415212	0.0100333067185912	0.00448689369130295
3.8	-0.0100390239267343	-0.0124050697550516	0.00183949057770272	0.00253942008960115	0.0018419732549684	0.00254851560466334	0.0103388921360455	0.00366818029691946
3.9	-0.0121916853212044	-0.0111698357447393	0.00217575900769422	0.00226100318267993	0.00216851669642443	0.002259297097068	0.010520484995849	0.00271893898957836
4	-0.0141095529413927	-0.00965458268923298	0.00244964139912499	0.00193862089950026	0.00245404083968685	0.00193616984568788	0.0105497566933799	0.00186495442976862
4.1	-0.0157936754318915	-0.00781779635673247	0.00269109857877974	0.00158153698299244	0.00268986062187984	0.00158227416780991	0.0106283835518756	0.00118823716215287
4.2	-0.0171801865132895	-0.00560313184093601	0.00288184801794208	0.00118687602819445	0.00288623898541824	0.00117821989438035	0.010810670402453	0.000540300552234876
4.3	-0.0181042562443799	-0.00319958918055548	0.00301976001734625	0.000783683401037433	0.00302610851627482	0.000775938196908841	0.0110626018771283	-0.000336575567899586
4.4	-0.0186813708225058	-0.000658897667838351	0.00309497458654871	0.00035932163223512	0.00309732815379783	0.000357084305787074	0.0110870139911026	-0.00133806460502818
4.5	-0.0188864279239776	0.00197751406442388	0.00312036323224003	-6.98896150727386E-05	0.00312568736173109	-7.32288433663829E-05	0.0109384960363727	-0.00231415116802881
4.6	-0.0187633184549144	0.0046770165477924	0.00308193023808666	-0.000506280175073908	0.00308311610525584	-0.000493446054703122	0.0106228819050357	-0.00322358274062527
4.7	-0.0180819877882108	0.00747739677452534	0.00298379720024487	-0.000922061158027832	0.00299904210167753	-0.000931579657850522	0.010204450647651	-0.00403373404416364
4.8	-0.0168243844766078	0.0101893555009845	0.00282970145912077	-0.00133650557318821	0.00283817446828939	-0.00134254530953414	0.00983636739311732	-0.00473276416196369
4.9	-0.0148301015294838	0.0125666761580881	0.00261426004037822	-0.00172392708039682	0.00261841039990529	-0.00172101406424884	0.0094912591727418	-0.00536696371726322
5	-0.0123833941642105	0.014355448252544	0.00235710576833484	-0.00208402173720858	0.00236072027515443	-0.00208135073025895	0.00933343830154487	-0.00591775432613633
5.1	-0.00950238479688425	0.0156298757577158	0.00204572196044749	-0.00239978279158511	0.00204802235115339	-0.00239842248848875	0.00929101052245425	-0.00653829294168088
5.2	-0.00647604268357261	0.0162900421250084	0.00168472386430888	-0.00265346385297002	0.00168643498866691	-0.00265861131019032	0.0092862103875769	-0.00720103629543594
5.3	-0.00333341354345766	0.0163366586781407	0.00129278990360302	-0.00287010941984483	0.00129592833462689	-0.00286805276981142	0.00927927854443045	-0.00792289261471111
5.4	-0.00031042826454414	0.0157276090742747	0.000862383106660813	-0.00301554349905387	0.000879500943967872	-0.0030268105187181	0.00916095333420229	-0.00892787640516087
5.5	0.00233925724976629	0.0145757896009551	0.000444423815307894	-0.0031082849516333	0.000454414730197573	-0.00311774572534819	0.00861732187102245	-0.0100258981948353
5.6	0.00453511800953085	0.0130329358696443	4.22870835857085E-06	-0.00313686769137178	-4.28619536736091E-06	-0.00314002857636321	0.00766365405521871	-0.0107887154702426
5.7	0.00626291444671987	0.011285832601567	-0.000424876337179867	-0.00309794888560772	-0.000441422351778691	-0.00310149572982332	0.00669318772537892	-0.0111273019861084
5.8	0.00761734610952047	0.00938122396507103	-0.000864737902285563	-0.00299531808967042	-0.00086832086955133	-0.00300918731279154	0.00587735999538355	-0.0114924882533028
5.9	0.00860057650759164	0.00734793052916651	-0.00126040818509915	-0.00285025511808409	-0.0012685635097625	-0.00285014021627356	0.00496023970318513	-0.0119155571747569
6	0.00913831354641075	0.0050754625605457	-0.00164713820733638	-0.0026429007631085	-0.00164361519285405	-0.00264307444913991	0.00378677522403245	-0.0121945165463194
6.1	0.00914995441508749	0.00268986415659881	-0.00199061448146543	-0.00239199279466336	-0.00199223328365015	-0.00238803434505842	0.00272876032054908	-0.0121211730057306
6.2	0.00861718624308282	0.00031140092353551	-0.00229367092369322	-0.00208705370756999	-0.00229731226861334	-0.00209878959505622	0.00199509734901291	-0.0120111643285802
6.3	0.0077240867296497	-0.00194321811896768	-0.00256520150760439	-0.00176405784057886	-0.00257424849254006	-0.00175842592677559	0.0015011896913093	-0.012161228107774
6.4	0.00636267125868726	-0.00410798395056488	-0.00279020345624657	-0.00138679802157883	-0.00278054978869617	-0.00139158386844335	0.000968154845703123	-0.0125278846274481
6.5	0.00456682810824996	-0.00601085426682408	-0.00295072266899902	-0.000994455927131023	-0.00295855126909749	-0.000990082213442143	0.000340856888614127	-0.0129372569841793
6.6	0.00235624202621742	-0.00733993055236791	-0.0030672428826162	-0.000579630319187936	-0.00306882524807977	-0.000583595842130009	-0.000298975570813338	-0.0132354919313506
6.7	-1.53758076557835E-05	-0.00795548763128027	-0.00312921436149252	-0.000147906398615599	-0.00313809528332009	-0.000141750892741725	-0.00109130195484481	-0.0134176139896314
6.8	-0.00235411782567836	-0.00792230640432365	-0.00312010706455941	0.000292522267674911	-0.00313123087047426	0.000297440557557123	-0.0019615835872093	-0.0134436584178446
6.9	-0.00458932683566153	-0.00735340512853015	-0.00305598696422048	0.000729483008746216	-0.0030589984852369	0.000731843865133984	-0.00288321239251193	-0.0133310131233473
7	-0.00662304030804352	-0.0063584811081836	-0.00292767848099376	0.00115752555752279	-0.00294051491956294	0.00115521165089203	-0.00381176686233753	-0.013168364623044
7.1	-0.0085548392432227	-0.00492125695431832	-0.00275425436545954	0.00155547762407451	-0.00275063944881677	0.00156419952646843	-0.00481743538201954	-0.0126980147206126
7.2	-0.0102218385374076	-0.00296312392097424	-0.00249781379311811	0.00193288978994114	-0.00250438196516202	0.00193494388805745	-0.00551652506832445	-0.0119519047641989
7.3	-0.0115002596399318	-0.000580048018077141	-0.00219865840437325	0.00225953666088168	-0.00220993675264159	0.00226457654790672	-0.00577258303978538	-0.011347128292321
7.4	-0.0121766578846116	0.00216067302967999	-0.00185097142846077	0.00254723724611971	-0.0018578994757127	0.0025608890493054	-0.00606249370925071	-0.0110419888408903
7.5	-0.01223845370774	0.00484086853394058	-0.00147854920356667	0.00278725145296679	-0.00147153597038224	0.00279466630958967	-0.0063163413423663	-0.0111295432006252
7.6	-0.0118267816951696	0.00722116823379873	-0.00106654444337163	0.00296284036909811	-0.00106792668375597	0.00295813941849745	-0.00667743517807778	-0.0116637339771704
7.7	-0.0106796077877135	0.00945352039539571	-0.000635162878474171	0.00307855780172243	-0.000636503941913601	0.00307749902567467	-0.00731869531216234	-0.0120650060632437
7.8	-0.00897362038331464	0.0112733531796197	-0.000210144289900191	0.00312107676737475	-0.000217922491694218	0.00312752850605581	-0.00824126073110502	-0.0124373636195655
7.9	-0.00647574524602878	0.0123777976206621	0.000226424942757553	0.00312243099423759	0.000234332546117464	0.00312391956466027	-0.00928520035830575	-0.0122185958347212
8	-0.00437254016906689	0.0131129059079828	0.000660466259791648	0.00304743990907662	0.000660541623383902	0.00305231163800226	-0.0106192773329426	-0.0123392598430651
8.1	-0.00170851549706546	0.0132256342595165	0.00106189854025301	0.00293085271784266	0.00108091732946102	0.00293199328365101	-0.0115335036769363	-0.011466460401429
8.2	0.000694457878821875	0.0130555119065967	0.00145800485671716	0.00275575089280662	0.00146723007116116	0.00274865486250525	-0.0122131891474021	-0.0106001373239656
8.3	0.00309716635989515	0.0124786491410503	0.00182867907285544	0.00252657168105872	0.00182693890362126	0.00254002833790675	-0.0126418332142949	-0.00987577442974125
8.4	0.00540514146254121	0.0114729647727294	0.00216308413800486	0.00226112517374547	0.00216006970075902	0.00226087148467501	-0.0131359405105457	-0.00937348364270501
8.5	0.00748600127311868	0.00991259056249992	0.00245296002727806	0.00194301629669865	0.00245202820683449	0.00194618171845859	-0.0138798660339928	-0.00879545136223335
8.6	0.00912384716775482	0.00796065770209018	0.00270815655666588	0.00159318529190735	0.00271773935296732	0.00158676339924501	-0.0146173667061881	-0.00798989965480323
8.7	0.0103007973832033	0.00572690822073859	0.00290694731825007	0.00119681813574628	0.0029125138359793	0.00119761478469638	-0.0151737421330473	-0.00706233162851903
8.8	0.011053149734154	0.00331733004862972	0.00305822253036614	0.00078700881586622	0.00306413183995365	0.000778270542843968	-0.0155852292360095	-0.00625494485320448
8.9	0.0114927794114966	0.000649660866785357	0.00314992687647074	0.000348333187834911	0.00314907359237623	0.000346058024151222	-0.0157929256147256	-0.00542433795059534
9	0.0114108757561285	-0.00235469295959975	0.00317114005695414	-0.000104774625766588	0.00317429210960967	-0.000100602453569011	-0.0158464977240306	-0.00458922219143725
9.1	0.0107028288150022	-0.00553968462723008	0.00313183529814376	-0.000559503971439651	0.00313466737722849	-0.00054643622755261	-0.0156785089239715	-0.00378586255119627
9.2	0.0090694486660322	-0.00859201699662237	0.0030235670329501	-0.000991609448320969	0.00303133166589907	-0.000994491396208604	-0.0154463857140115	-0.0031402131056674
9.3	0.00673640586979014	-0.0111920295593774	0.00285072165614674	-0.00141046879226574	0.0028499879713232	-0.00141552233006611	-0.0151365859184315	-0.0025941997123346
9.4	0.00380424564620212	-0.0131803601003212	0.00261946411558725	-0.00181131593183469	0.00262606163728708	-0.00180363835270802	-0.0149331283686772	-0.00210770876590697
9.5	0.000338940796259876	-0.0145232152716491	0.00233277519455837	-0.0021513120604776	0.00234025779592533	-0.00215269913704853	-0.0149577926511168	-0.00170543037618528
9.6	-0.00350372912823752	-0.0149418986621071	0.00200370727183829	-0.00245558787993855	0.00200404479267131	-0.00245459956856755	-0.015132765309115	-0.00109381477238678
9.7	-0.00746155756068529	-0.0143208432081777	0.00162620533232372	-0.0027018421554603	0.00163172865536055	-0.00270922333454146	-0.0151770338141762	-0.000283483232969314
9.8	-0.0112141307500199	-0.0127446339283976	0.00123459796734456	-0.00290313827392043	0.00124036543256685	-0.00289464577356832	-0.0150855666801287	0.000498165609327873
9.9	-0.0144655301461595	-0.0103135014748277	0.000827404267356033	-0.00303345213408399	0.000820071702582964	-0.00303218664191122	-0.0150565549244426	0.00121267563173994
10	-0.0171994397909943	-0.00728144473053729	0.000399935397830187	-0.00311474180980318	0.000392406206561146	-0.00312714784256788	-0.0150775476860416	0.00202875732620182
10.1	-0.0192923966690253	-0.00373180111092531	-3.59945012227391E-05	-0.00314130880105656	-4.61974524434755E-05	-0.00313590946126417	-0.0149000388977062	0.00290024841900682
10.2	-0.0206717319609859	0.000260803351411079	-0.000474223992445986	-0.00310395087281392	-0.000477624834883767	-0.00310118040815533	-0.0144302137750056	0.00373800530560381
10.3	-0.0211711045428217	0.00460557867634292	-0.000899646004010548	-0.00300240738059681	-0.00089154300340538	-0.00301144040715338	-0.0137660634510669	0.00430807109312181
10.4	-0.0206570397352918	0.00898899887448916	-0.00129286872228425	-0.00285554581549184	-0.00129114303665091	-0.00286173026510224	-0.0130476084013411	0.00447018495516567
10.5	-0.0192762021239236	0.013203289818125	-0.00168480981556758	-0.00266656887505737	-0.00168178547887022	-0.00265352802007889	-0.0125907434130614	0.0045302400976582
10.6	-0.0171240245678408	0.0171075565982553	-0.00204310745669834	-0.00240575622827323	-0.00204088455979323	-0.00240957856959907	-0.0122839537500463	0.00463117338523869
10.7	-0.0142613205523229	0.0207691235270456	-0.00236828681674616	-0.00211013332795192	-0.00236480649078057	-0.00210479213651702	-0.0119584157900676	0.00488789941488619
10.8	-0.0105369284475169	0.0239888506298563	-0.00265026144380474	-0.00175158186750829	-0.0026449586974328	-0.00176055858198579	-0.0116467894566203	0.00509517876973606
10.9	-0.00609247010845679	0.0265703263179037	-0.00287151527151999	-0.00137340174179299	-0.00287676642132005	-0.00137268533679306	-0.0115502530403992	0.00526443712581312
11	-0.000944904066335836	0.0281121224045728	-0.00304187291848377	-0.000947229078462137	-0.00304676787401898	-0.000954069225542332	-0.0114010210561256	0.00567527010679078
11.1	0.00445165222656879	0.0285551231141784	-0.00315727402829128	-0.000508388096119856	-0.00314625649564144	-0.000505496198584734	-0.0110563315527647	0.00619979827466372
11.2	0.00987858007492818	0.0279010645659354	-0.00318755035339502	-5.45891345120149E-05	-0.00319482609261591	-5.9467834771522E-05	-0.0103520821823251	0.00671094106021845
11.3	0.0152037550198735	0.0260205047861341	-0.00315537310769922	0.000409951281449	-0.00316714502982602	0.00039985642720152	-0.00910455523230231	0.00680327825926641
11.4	0.0201473023663232	0.0232844232666262	-0.00307087430291489	0.000850582733365971	-0.00306582509898204	0.000858193274301845	-0.00814582663772748	0.00663697059372534
11.5	0.0245798923483537	0.0195454223626982	-0.00291251037663465	0.00127397550406644	-0.0029151912289228	0.00128438880881655	-0.00748425863226497	0.00629782498800805
11.6	0.0281199402786224	0.0147671394915943	-0.0027013285822894	0.00166588541769525	-0.00270126879296231	0.00166884664743394	-0.00685419190148933	0.0056758035978469
11.7	0.0306229906989686	0.00945433995479526	-0.00242415055152987	0.00201547686279522	-0.0024245907970251	0.00202412551526677	-0.00625641506162543	0.0049054103086313
11.8	0.0322049573414366	0.00387153935848742	-0.00211626960196048	0.00233726771204453	-0.002120363974639	0.00233902756104852	-0.00580614256023331	0.00404805395680984
11.9	0.0328479431429476	-0.00186942611655447	-0.00175993817063072	0.00259914329066395	-0.00177287445931987	0.00260361724045735	-0.00577136243625467	0.00347204451382431
12	0.0324780028430205	-0.00805294122012192	-0.00138590957237739	0.00280761396384529	-0.00138529979191852	0.00280901246798582	-0.00583227953924313	0.00277828124158298
