# GHZ S RI R 50
0.2	0.00570841902661913	0.0024326484002035	0.00304835823722992	-0.00089700741440815	0.00305872417987359	-0.000890196132187737	-0.0142243050224731	0.00609633190583394
0.3	0.00629082545417267	-0.000181724866451874	0.00290458483527821	-0.00131980997942897	0.00289733269874945	-0.00130687582277721	-0.0131649816520188	0.00561699955168136
0.4	0.00589993163900247	-0.00233929691248503	0.00267381814488097	-0.00169113370597137	0.00267909199163728	-0.00169969043525574	-0.0128150987237951	0.00564065405642285
0.5	0.00483628031469836	-0.00393735107056145	0.00241618467092458	-0.00204778749550843	0.00242773633437839	-0.00206001810047375	-0.0126927682653537	0.00605888266013317
0.6	0.00350150424690576	-0.00488105335997355	0.00210498661598246	-0.00236284199920263	0.00210420838495369	-0.00236999565037672	-0.0125596132221556	0.0067833256806976
0.7	0.00211814882426099	-0.00527687642785284	0.00175897962764964	-0.00264184942534502	0.00175702233618919	-0.00264205100875614	-0.0122990639291896	0.0077256997912673
0.8	0.000951545152045558	-0.00536700105974939	0.00137416199446336	-0.00286103933591979	0.00136155314733612	-0.00286561083201736	-0.0117561788769377	0.00874644570235496
0.9	-0.000164804873001879	-0.00530004215860844	0.00095692850099624	-0.00302670832681714	0.000957978403826773	-0.00303742355038514	-0.0110184832240484	0.00955993080022697
1	-0.0013009977860879	-0.00518953872993959	0.000531039099140127	-0.00313218484562562	0.000521158179510449	-0.00313293631984618	-0.0102704135495851	0.0101386566265656
1.1	-0.00265371090215956	-0.00495703045757369	7.34585544685846E-05	-0.00316257775931391	6.99547809234553E-05	-0.00318027189738642	-0.00978537423414523	0.0106853364281385
1.2	-0.00415456683803122	-0.00460221622540809	-0.000371192943410445	-0.00315278386256537	-0.0003720072221406	-0.00315070227179027	-0.0091166235789117	0.0113884770500907
1.3	-0.00573344219463899	-0.00412675035223893	-0.000801032356171348	-0.00306934272800177	-0.000804281636515827	-0.00307135227932271	-0.00781065285708344	0.0121003963170394
1.4	-0.00699721255785562	-0.00346078917291164	-0.00122484191438094	-0.00291980792796981	-0.0012236302722921	-0.00292535655878379	-0.00619152361374703	0.0121134615138138
1.5	-0.00758369433298306	-0.00228498841154313	-0.00162758544186435	-0.00272180690317118	-0.00162598066754437	-0.00273032995772698	-0.00487228184151665	0.0117734255889003
1.6	-0.00753853750138	-0.000647983966860298	-0.00198904623525937	-0.00246673140837541	-0.00198926658703221	-0.0024719763586999	-0.00427438944057242	0.0118175105822011
1.7	-0.00685744758610636	0.000984621099437569	-0.00231732667442766	-0.0021671358347451	-0.00231828142408615	-0.00216086182024523	-0.00349271273099739	0.0121462242300493
1.8	-0.00577631681841814	0.00244835026505847	-0.00258717947578464	-0.00181330268091288	-0.00259817080141625	-0.00181892269617714	-0.0025986344216246	0.0123116581774694
1.9	-0.00445255051947656	0.00344207417906149	-0.00281068758918495	-0.00144100166817755	-0.00282312338627113	-0.00143481734650132	-0.00181590266040574	0.0123287594910198
2	-0.00308677628715426	0.00407792350827799	-0.00298421602904725	-0.00103267088347945	-0.00299383142373876	-0.0010279419652977	-0.00120207707043297	0.012405353137568
2.1	-0.00170390885028991	0.0043781375190221	-0.00309567227084568	-0.000604527795648108	-0.00309159255750143	-0.000606526472541719	-0.000501310934816311	0.0125151277822466
2.2	-0.000324756169290282	0.00446861338123351	-0.00315156228001845	-0.000167244730836889	-0.00316286690642275	-0.000170064542141789	0.00043745487765659	0.0126048686155709
2.3	0.00108523006894542	0.0041710187295026	-0.00314620159310175	0.000274790786592893	-0.00314590594861943	0.00026790982364936	0.00146419785946121	0.0124240545406214
2.4	0.0024079673399005	0.0035345111432207	-0.00307389405993785	0.000711819841374301	-0.00307643716205213	0.000707564970090298	0.00246289186809789	0.0120637780349861
2.5	0.00350620757255883	0.00249105286645153	-0.00293765166740619	0.00112328741713625	-0.00294853938752913	0.0011296708056167	0.00335224669453307	0.0114798266124544
2.6	0.0043226334070376	0.00121109596647361	-0.00276486886716146	0.00152631231510399	-0.00276131148120639	0.00151398415343922	0.00409087139615395	0.0108294920175054
2.7	0.00491236362090726	-0.000177204468339687	-0.0025199491988745	0.00189854214966407	-0.00252523394750714	0.00189855339953894	0.00463061805864144	0.010200990340088
2.8	0.00538610710117121	-0.00170104187427777	-0.00223742132376574	0.00222762996856601	-0.00222959490981322	0.0022374318186313	0.00508996252666666	0.00974752916477116
2.9	0.00569951698593822	-0.00346032101373372	-0.00190247707578835	0.0025297789332838	-0.00189876144078009	0.00252934935237919	0.00574302310765955	0.00943452365502092
3	0.00558746853845326	-0.00543357909564027	-0.00151442803430316	0.00276700012642714	-0.00152923507294947	0.00277312725554857	0.00652877397468411	0.00911479545970753
3.1	0.00502588091791139	-0.00740657721818384	-0.00112146296734017	0.00294528464839633	-0.00111678181361348	0.00295364008246991	0.00728028827063573	0.00869886567825741
3.2	0.00390244599916697	-0.00925282788643081	-0.000697515552487056	0.0030825046273043	-0.000699265674739972	0.00308189639606282	0.00788388561049677	0.00833473292861158
3.3	0.0023789574539436	-0.0109491215255948	-0.000255504926728749	0.00315094729051152	-0.000253863413289954	0.00314719368723183	0.00865751606655811	0.00782940327985247
3.4	0.00039231793979485	-0.0122980567633833	0.000194402897328126	0.00314204287583746	0.000188245695138922	0.00315866193338585	0.00941497877056398	0.00700056162977588
3.5	-0.00193671232054981	-0.0133151900406442	0.000618256291546655	0.00309528289027689	0.000623860147430349	0.00309533506162258	0.00982429577774311	0.00588044297896379
3.6	-0.00457790180595625	-0.013760439323604	0.00104730990360596	0.00297136119734955	0.0010555059541093	0.00297100571193641	0.00997957932657574	0.00499461441405588
3.7	-0.00728800344816655	-0.0135677922689897	0.00145674092979262	0.00278557094798132	0.00144722198142845	0.00279929150917309	0.0102106527160189	0.00422557450444138
3.8	-0.00988560991312453	-0.0127544697304978	0.00183211581628948	0.0025542572326268	0.00183456201031223	0.00256338667276856	0.0104481120103981	0.00341342546897737
3.9	-0.0121273652912992	-0.0114738889456894	0.00217390753685678	0.0022781687405182	0.00216664683768494	0.00227642607712351	0.0105866778723183	0.00252922733866446
4	-0.0140765401236266	-0.00988627212405486	0.00245390418610603	0.00195572738159944	0.00245833173349006	0.00195328054152922	0.0106426294391427	0.00174347633715573
4.1	-0.0157534584181757	-0.00800754434345287	0.00270114156431667	0.00159622312485851	0.00269989543383506	0.00159696110843752	0.0107792893208326	0.00107673402414662
4.2	-0.0171493654481581	-0.00577761144968168	0.0028963091647237	0.00119702660901038	0.0029007351893605	0.00118832806655625	0.0109822403698214	0.00039494791348451
4.3	-0.0181127251787933	-0.00333210280566077	0.00303650585816989	0.000788044040108493	0.00304288960528134	0.000780255905463354	0.0112054655841167	-0.000482654939125809
4.4	-0.0186981783225956	-0.000707256037690036	0.00311150825568376	0.000357570806063238	0.00311387145821264	0.000355319077537731	0.0112194507591651	-0.00144543778838265
4.5	-0.0188480294197655	0.00201130946292291	0.0031344082584597	-7.69806577167945E-05	0.00313974936302464	-8.03466350724195E-05	0.0111133474819809	-0.00238387514229244
4.6	-0.0186311908538586	0.00472758954028893	0.00309171595228076	-0.000517085605360942	0.0030929434473444	-0.00050420805356341	0.0108513841653022	-0.00332653160206325
4.7	-0.0178785316674166	0.00749581058378685	0.00298853545869165	-0.000934378525423112	0.00300378860675746	-0.000943972524424366	0.0104546000155334	-0.00418730324163664
4.8	-0.0166070779209031	0.0101645404325321	0.00282953937529083	-0.00134816983321451	0.00283800498609177	-0.00135424764438266	0.0100481895652215	-0.00491371768505434
4.9	-0.0146012441376844	0.0125263718712523	0.00261029317586505	-0.0017330752329608	0.00261445495673774	-0.00173017362887111	0.00968406081223297	-0.00553545523843269
5	-0.0121243085432843	0.0142969630543989	0.00235104918367742	-0.00208956324112676	0.00235466962476398	-0.00208690234820704	0.00954165978565958	-0.00607397670798995
5.1	-0.00922560675345555	0.0155165925941895	0.0020395639932056	-0.00240148788011736	0.00204186491497818	-0.00240013296613354	0.00951201845699194	-0.00671834592532908
5.2	-0.00623932865526536	0.0161169506037883	0.0016802829051055	-0.00265204436346263	0.00168198718731886	-0.00265718758664653	0.00947490900095268	-0.00741043564564279
5.3	-0.00317333696285454	0.0161545174660253	0.001291281009503	-0.00286698586778202	0.0012944160439511	-0.00286493157603592	0.0094152881662245	-0.00811953843052173
5.4	-0.00019825046208086	0.0155908786463879	0.000864236239700406	-0.00301258038598904	0.000881350636504645	-0.00302382483123934	0.00928309249997933	-0.00907543090320401
5.5	0.00245842709797913	0.0144850977987517	0.000449121690687447	-0.00310729231912251	0.000459126030622603	-0.00311673689073635	0.00877859595968887	-0.0101459827477907
5.6	0.00468391010883417	0.0129467255556859	1.04371249557497E-05	-0.003139294056287	1.92186491383102E-06	-0.00314247423824173	0.00786932246322749	-0.0109392651649226
5.7	0.00639787331348817	0.01117652725872	-0.000419087433055057	-0.00310443747990274	-0.000435655795641726	-0.00310802573619149	0.00687233529773552	-0.0113428132339586
5.8	0.00772186160622526	0.009263796130876	-0.0008615561141116	-0.00300557946828034	-0.000865123136482241	-0.00301949540747912	0.00599647388433109	-0.0117355064556252
5.9	0.00867063293146762	0.00726602241604287	-0.00126159368913478	-0.00286295872543457	-0.00126978082090038	-0.00286285398489906	0.00501527673202078	-0.0121224608157706
6	0.00921258319184909	0.00505227903733387	-0.00165389073971547	-0.00265590099798675	-0.00165035113941497	-0.00265607420282878	0.00382775174154018	-0.0123323359989233
6.1	0.00926540888125583	0.00269880175587095	-0.0020029386640493	-0.00240275435716691	-0.00200456257659889	-0.00239877401092385	0.00280053388669607	-0.0122200530208508
6.2	0.0087642322034669	0.000308120290722129	-0.00231040247896546	-0.00209310959160667	-0.00231408880436278	-0.00210489977397117	0.00208500970151775	-0.0121159919728186
6.3	0.00786502310603832	-0.00197079173619773	-0.00258429179855128	-0.00176373087026068	-0.00259336389970003	-0.00175803861835762	0.00158122323208	-0.0122734089141072
6.4	0.00650706898793812	-0.00412997586148668	-0.00280878328387198	-0.00137929060960544	-0.00279911144767745	-0.00138414332993196	0.00106385584438007	-0.0126132099152308
6.5	0.00474357524202212	-0.00603922799029944	-0.00296591623149244	-0.000980485666529478	-0.00297374440169118	-0.00097605251239006	0.000492515556774909	-0.0130268070038163
6.6	0.00255073788409935	-0.00740794949441181	-0.00307670519285253	-0.00056090260083366	-0.00307831611834598	-0.000564865298674306	-0.000123644747775216	-0.0133812025714982
6.7	0.000147787842905444	-0.008055826324699	-0.00313149794540786	-0.000127001305094265	-0.00314034129293203	-0.000120783753108193	-0.000963231176898503	-0.0136049747070464
6.8	-0.00223678565903083	-0.00800354694966006	-0.00311497946573918	0.000312580719218252	-0.00312605970195405	0.000317566523572194	-0.00189736125288787	-0.0136059246027323
6.9	-0.00447063975309355	-0.00739975189722709	-0.00304446415002624	0.000745997724537244	-0.00304745452267345	0.000748371001822485	-0.00282075520299822	-0.0134474235319227
7	-0.00646065683788554	-0.00637278255229478	-0.00291175856391826	0.00116841755173712	-0.0029245627136234	0.00116617674973739	-0.00371420374036554	-0.0132462566079144
7.1	-0.00833548712863743	-0.00496214455720335	-0.00273653790304093	0.00155981814964211	-0.00273290373305664	0.00156848912584827	-0.00467722238980727	-0.0127934754246793
7.2	-0.00998580128707833	-0.00307323690500772	-0.00248111254324154	0.00193067804643326	-0.0024876449220041	0.00193274029224014	-0.00538100362619937	-0.0120973583934167
7.3	-0.0113027841326164	-0.000745370547351905	-0.00218533947880742	0.00225211205755488	-0.00219655858112379	0.00225714421499598	-0.00570166788094884	-0.0115124606173935
7.4	-0.0120782045511247	0.00193941655623366	-0.00184261172105309	0.00253665290186088	-0.00184950777132305	0.00255024746482537	-0.00604446114317692	-0.011241296415375
7.5	-0.012212001956305	0.00465998901448507	-0.00147562673347768	0.00277600305749289	-0.00146864495258824	0.00278339732127137	-0.00632638997882399	-0.011247140958047
7.6	-0.0117265853145169	0.00713978288655841	-0.00106847015950095	0.00295341445058867	-0.00106984132229933	0.00294872356946026	-0.00663903680136312	-0.0115742703951872
7.7	-0.0106730833417858	0.00942499362047675	-0.000640264920522628	0.0030728093334209	-0.000641601947624943	0.00307174947909137	-0.00727334621045875	-0.0120476573055702
7.8	-0.00895562078498782	0.0113001450471445	-0.000216072634452119	0.00311986647532405	-0.000223861191075124	0.00312630163500231	-0.00817350310355022	-0.0123903748740378
7.9	-0.0065945477097579	0.0125371297225254	0.000222074487111921	0.00312546679416101	0.000229986776132786	0.00312696816923255	-0.00916617110369751	-0.0123254159606299
8	-0.00415373038086438	0.0132283984096118	0.000659793954059434	0.00305322523245842	0.000659866509808736	0.003058105618063	-0.0103553212932457	-0.0121897371462191
8.1	-0.00153198116088245	0.0133399315051359	0.00106594029579125	0.00293710459440557	0.00108500395792026	0.00293823762379594	-0.011298621596936	-0.0115344870592081
8.2	0.000913311049912468	0.013092040176565	0.00146665696245116	0.00275982204753933	0.00147589172450545	0.0027526916214925	-0.0120156505223243	-0.0107333520879969
8.3	0.00331541297955009	0.0124624326137785	0.00184050173304019	0.00252612262763338	0.00183880035675195	0.0025396131131357	-0.0125051167466345	-0.0100145337813895
8.4	0.00561951293756472	0.0114322380653056	0.00217567083783307	0.00225476035740709	0.00217265135532015	0.00225451933599587	-0.0130235644248554	-0.00947111304702091
8.5	0.00771172470348287	0.00984658018039324	0.00246336691732464	0.00193060823566584	0.00246245133711169	0.0019337789364556	-0.0137389537852147	-0.00886180081831178
8.6	0.00935407892247399	0.00784182200511838	0.00271368933395632	0.00157590333949237	0.00272322377017958	0.00156943562460235	-0.0144360268052472	-0.00807413589344694
8.7	0.0104943190796029	0.00554008654595033	0.00290557475527931	0.00117708178812834	0.00291113021341421	0.00117784482110761	-0.0149810162048667	-0.00718095279012415
8.8	0.0111682999343874	0.00311129269474402	0.00304923134233752	0.00076777732738776	0.0030550700520994	0.000759045752806408	-0.015426976844608	-0.0063879173614691
8.9	0.0115371838063306	0.000486461124923771	0.00313384641076393	0.000332775319214251	0.00313298805785821	0.000330516545311052	-0.0156583751687927	-0.00552832249976451
9	0.0114348657240565	-0.00244619159865015	0.00314986180213082	-0.000113957857344079	0.00315300602180718	-0.000109823067056581	-0.0156982620668078	-0.00465528165426942
9.1	0.0107086119990355	-0.00557871609608905	0.00310814595657917	-0.000560649705771885	0.00311097920094253	-0.000547681634781534	-0.0155236066172758	-0.00385234352918529
9.2	0.00909417053939515	-0.00858009933071902	0.00300077427909316	-0.000984418346966177	0.00300848035094788	-0.000987279308374406	-0.0152807666054844	-0.00320574757028189
9.3	0.00678869900811776	-0.0111295958099431	0.00283197443907014	-0.00139585835528696	0.00283125372212767	-0.00140087600355448	-0.0149650286917942	-0.0026501854320305
9.4	0.00391903300364199	-0.0131089219189142	0.00260729267786046	-0.00179136431134423	0.00261382307973077	-0.00178371856741015	-0.0147436318698979	-0.00220843314774861
9.5	0.000545282586375463	-0.014425137605373	0.00232853215854427	-0.00212916811228309	0.002335977864771	-0.00213051566216288	-0.0147056342747727	-0.00180612366770148
9.6	-0.00323985931985039	-0.0149156828093759	0.00200745731981559	-0.00243444953359861	0.00200778827549224	-0.00243346385745784	-0.0148766729759475	-0.00126573853093876
9.7	-0.00720076757444418	-0.0143879509229871	0.001636637273783	-0.00268478043413183	0.00164218592985321	-0.0026921089240001	-0.0149709664112619	-0.000519507695003004
9.8	-0.0110122807135409	-0.0128777536438644	0.00124928142776586	-0.00289216384639385	0.00125499299879054	-0.00288365050892023	-0.0149595161213936	0.00024754119482239
9.9	-0.0143464706744023	-0.0104505827363334	0.000843202779863244	-0.00302939396872091	0.000835863086085915	-0.00302816641367274	-0.0149947220665965	0.0010142521433831
10	-0.0171323875848017	-0.00739902238321337	0.000413825500777938	-0.00311702216044044	0.000406339925123157	-0.00312947645231148	-0.0150210686333435	0.00186965922958044
10.1	-0.0192599656449916	-0.00382334765711335	-2.64233681643979E-05	-0.00314802471549784	-3.66643547248639E-05	-0.00314264535504958	-0.0148414141003872	0.00274742264839727
10.2	-0.0206723029174557	0.000197911495515718	-0.000470210318019137	-0.00311230716789406	-0.000473624064889998	-0.00310953561385689	-0.0143980150532096	0.00358437476261736
10.3	-0.0211969311927517	0.00459483278345514	-0.000900904347514159	-0.00300940326133091	-0.000892780774697641	-0.00301845456743504	-0.0137667865488041	0.00419216639532688
10.4	-0.0206687311978797	0.00905004720955302	-0.00129770437141874	-0.00285879552965806	-0.00129598200475134	-0.00286499144241757	-0.0130330736763438	0.0044186876204648
10.5	-0.0192186109437314	0.0133154551132433	-0.00169068932206905	-0.00266476398102275	-0.00168763890130188	-0.00265172214063905	-0.0125090149316293	0.00451461868209869
10.6	-0.0170358224047909	0.0171888175967971	-0.00204710177997936	-0.0023990059518044	-0.00204488966449742	-0.00240283041507076	-0.0121262368090898	0.00453826457273229
10.7	-0.0140584599230301	0.0208230717741622	-0.00236790343066393	-0.0020999053703597	-0.00236441845490162	-0.00209458421708919	-0.0117821100867948	0.00482090836920011
10.8	-0.0103741824002966	0.0239908681924043	-0.00264394558319823	-0.00174047217349235	-0.00263867820662715	-0.00174942634801573	-0.0114800681540316	0.00494644448068638
10.9	-0.00585022146380729	0.0264704999935756	-0.00285909750272909	-0.00136433037655158	-0.0028643230787071	-0.0013636127123661	-0.011270707931688	0.00519136565369708
11	-0.000729598709236313	0.0279595570318731	-0.00302452669077704	-0.000943145383595871	-0.00302939163346517	-0.000949949299311291	-0.0110779897617199	0.00554721796081558
11.1	0.00461683673669695	0.0283488804079054	-0.00313733981183731	-0.000511376838209282	-0.00312639398022444	-0.000508481224548543	-0.0107204406353256	0.00598329858973979
11.2	0.00995736713492535	0.02766293096217	-0.00316830146953261	-6.55568655805624E-05	-0.00317551642760656	-7.04321797871203E-05	-0.01005872840397	0.00640555938527238
11.3	0.0151992612232026	0.0259353847424463	-0.00314019247772008	0.00039145660430656	-0.00315184790714713	0.000381356452644225	-0.00902233036319719	0.00658438019860485
11.4	0.0200790433272472	0.0232654663043081	-0.00306257417777082	0.000826438880822321	-0.00305759814140382	0.000834048283232605	-0.00810660714351719	0.00642907248793694
11.5	0.0244525313790376	0.0195498918899478	-0.0029131522486812	0.00124721862245487	-0.00291590569827681	0.00125757783832288	-0.00745193181017969	0.00599171954072792
11.6	0.0280186294384146	0.0148743435859296	-0.00271151336786242	0.00164015438491919	-0.0027114790928616	0.00164311161439877	-0.00688208636267041	0.00540318080350648
11.7	0.0305718016829491	0.0096392651238992	-0.00244290109070782	0.00199458153676788	-0.00244341844905387	0.00200322917802188	-0.00634858628415553	0.00467859734449928
11.8	0.0322185134387386	0.00410978349774283	-0.00214130637821095	0.00232413485514056	-0.00214542520966507	0.00232586310298639	-0.00595330194796039	0.00388891512810298
11.9	0.0329628154549712	-0.0016558881771196	-0.00178758371642146	0.00259562249004717	-0.00180060731154693	0.00260001190093839	-0.00588221544355456	0.00334628096502356
12	0.0326863593149692	-0.0077517932220803	-0.00141230404767606	0.00281381996551631	-0.00141170025261812	0.00281523024805106	-0.00589722224238511	0.00288451007558165
