# GHZ S RI R 50
0.2	0.00682126721235874	0.0006870405351228	0.00304825084950643	-0.000897761212201785	0.00305861876529804	-0.000890952152602461	-0.0131145140554634	0.00435220376873572
0.3	0.00654691456870737	-0.00116633092976021	0.00290411368295059	-0.00132093389846711	0.0028968664030935	-0.00130799682685927	-0.0129102022525326	0.00463833991810765
0.4	0.0060291130625975	-0.00228195662339838	0.00267274695977095	-0.00169249509003714	0.00267801584998488	-0.00170105421143205	-0.0126800834693529	0.0057073356949453
0.5	0.00556240590316929	-0.00311723609441728	0.00241429654936348	-0.00204912944211117	0.00242583745649236	-0.00206136602158189	-0.0119503662928418	0.0068860634186226
0.6	0.0051299581727318	-0.00399007025985406	0.00210220764395375	-0.00236375319736076	0.00210142363928322	-0.00237090354839933	-0.0109066163309285	0.00767229866095909
0.7	0.00435924113577614	-0.00499472490084207	0.00175544317287763	-0.00264187934339623	0.00175348688669844	-0.00264207897834318	-0.0100317083484555	0.00799380112997745
0.8	0.00311187132682276	-0.00592635908063445	0.00137023298732414	-0.00285982430054659	0.00135763090544321	-0.00286437978908529	-0.0095739974795007	0.00816393015025795
0.9	0.00128182665348824	-0.00632142031118394	0.00095311464102082	-0.00302403838131654	0.000954153763512044	-0.00303474206726923	-0.00955597907348499	0.00851272106849659
1	-0.000683553310418875	-0.00592127385780458	0.000527921549396413	-0.00312808258624087	0.000518054265299791	-0.00312882555326582	-0.00963917411217758	0.00938301952103868
1.1	-0.00233334990440819	-0.00481910021285353	7.1657880319016E-05	-0.00315733417195772	6.81505712569832E-05	-0.00317499689588994	-0.00944794217020289	0.010800520001349
1.2	-0.00336417832348692	-0.00368359794245271	-0.000371287733539994	-0.00314690164007163	-0.000372100003940271	-0.00314482367203577	-0.00831026660566455	0.0122789211884627
1.3	-0.0042399625087214	-0.00306176459004523	-0.0007992708693027	-0.00306352219056444	-0.000802513776562852	-0.00306552813258661	-0.00630804715032387	0.0131297125202478
1.4	-0.00514954457202892	-0.00257109329686354	-0.00122133979384686	-0.00291474112651374	-0.00122012823354091	-0.00292027870967838	-0.00433946610049656	0.0129569133683606
1.5	-0.00544257880702705	-0.00160935980938264	-0.00162271917360583	-0.00271806073153065	-0.00162111123259382	-0.00272656729255106	-0.00273250055901989	0.0123888362239184
1.6	-0.00515763514957673	-0.000491593854842198	-0.00198343914956959	-0.00246467475531519	-0.00198365405734632	-0.00246991144372561	-0.00190108545652141	0.011910425271328
1.7	-0.00465758342781649	0.000484911750797596	-0.0023116504601782	-0.00216684263381872	-0.00231261114525923	-0.00216057831567425	-0.00131672110947506	0.0115865064800321
1.8	-0.0041431177202062	0.00161750074084618	-0.00258208644612412	-0.0018145503056757	-0.00259305873608702	-0.0018201778996394	-0.000995587347433055	0.0114348054931168
1.9	-0.00334726275307324	0.00277875585935216	-0.00280658354680125	-0.00144333495343233	-0.00281901688748864	-0.00143717124481321	-0.000735382230921193	0.0116328676978467
2	-0.00211380477734577	0.00381672731885548	-0.00298130333550209	-0.00103555344776368	-0.00299091872493469	-0.0010308384349743	-0.000241313892003149	0.0121146119991964
2.1	-0.00049323454784166	0.00432125723785318	-0.00309387817431201	-0.0006073970548217	-0.00308979802493658	-0.000609390877292745	0.000705414807974289	0.0124193291272936
2.2	0.0011175744305579	0.00421101050305436	-0.0031505621856656	-0.000169672500286493	-0.00316186148225101	-0.000172500408032299	0.00187127655039423	0.0122974756866101
2.3	0.00237816175467065	0.00353073335781275	-0.00314552333262634	0.00027300629297898	-0.00314522402129341	0.000266127301395479	0.00273619873641126	0.0117336874308562
2.4	0.00318118790179269	0.00278029793229242	-0.00307304288748398	0.000710609950309465	-0.00307558377072789	0.000706355770077294	0.00321496073878031	0.0112770565661569
2.5	0.00381533185853859	0.00210197176047631	-0.0029362086590907	0.00112232992285689	-0.00294709129858322	0.00112870856971706	0.00365178404126125	0.011069979371541
2.6	0.0045932442988801	0.00136879820439079	-0.00276264983888182	0.00152505731759881	-0.00275909522186203	0.00151273913645488	0.00437083935397388	0.010965211715858
2.7	0.00544500617820205	0.000291842529123701	-0.00251711798260314	0.00189639708532821	-0.00252239678173322	0.00189640830648856	0.00518432658695274	0.0106353538318821
2.8	0.00612120704529655	-0.00114869487682371	-0.00223442060770936	0.00222413088367148	-0.00222660671014544	0.00223391936617455	0.00584826364363588	0.010252228634503
2.9	0.00655897458494969	-0.00277387195922022	-0.00189999930063678	0.00252468221689884	-0.00189629004844906	0.0025242546623164	0.0066236185371638	0.0100601139864215
3	0.00673508305119203	-0.00456599917806136	-0.00151326851704095	0.00276044648361429	-0.00152805009210435	0.00276655136889409	0.00769472727160663	0.00990317071424948
3.1	0.00662745968847623	-0.00659043509249781	-0.00112226859189941	0.00293771829845717	-0.00111760664961133	0.00294606086317084	0.00889069382611529	0.00941760574303201
3.2	0.00582345864298556	-0.00879135718022562	-0.000700824825467305	0.00307470463454927	-0.000702570186887899	0.00307409498622339	0.00978915752538037	0.00867929389522453
3.3	0.0042885553114068	-0.010904654411009	-0.000261428970944857	0.00314387629010586	-0.000259783178959263	0.00314013384948256	0.0105184492657218	0.00776037864988986
3.4	0.00209096766069708	-0.0124438588629109	0.000186154256170665	0.00313671359632531	0.000179966728402858	0.00315328642549903	0.0110430585907564	0.00676134522722466
3.5	-0.000333532269605412	-0.0134286249827852	0.000608293118988843	0.00309243026706707	0.000613888391555411	0.00309249871371636	0.0113464358968435	0.00569862982265497
3.6	-0.00288196942498019	-0.0139050991988235	0.00103662643664567	0.00297160958811696	0.00104481500380941	0.00297128090407696	0.0115928704523683	0.00479180624351302
3.7	-0.00553037826921507	-0.0139791546926243	0.00144646584430954	0.00278905347004914	0.00143690518401229	0.0028027342586654	0.011876859077463	0.00377324513395846
3.8	-0.00836748860792052	-0.0134809063276175	0.00182332066324625	0.00256063202730649	0.00182573535136977	0.00256977007680152	0.0118715442545098	0.00267678949587237
3.9	-0.0110479354251472	-0.0122265513891317	0.00216746047468823	0.00228673231493791	0.00216020160566329	0.002284964300026	0.0115899455949624	0.00180205320174797
4	-0.0132710947693593	-0.0103508177778712	0.00245033766125866	0.00196542703714383	0.00245477745129218	0.00196299149707767	0.0114122066203626	0.00132318077367968
4.1	-0.014905644366961	-0.00819465927942591	0.00270054986742553	0.00160600458736937	0.00269929991129816	0.00160674015750146	0.011630928085179	0.000925769907713639
4.2	-0.0161808965880117	-0.00593126563477029	0.00289835062406939	0.00120587452662752	0.00290280461818415	0.00119717181444068	0.0119753129661713	0.000255799922491168
4.3	-0.0172199442059647	-0.00355483296991387	0.0030404389508094	0.000795264051178579	0.0030468490323073	0.000787474173283202	0.0121311864029702	-0.000701170078388908
4.4	-0.0180135043596889	-0.000812130045652668	0.00311646401632055	0.000362820904473299	0.00311883472905113	0.000360568713979882	0.0119511659376865	-0.00155173900815138
4.5	-0.0182165482329996	0.0022409044743305	0.00313953209479338	-7.36002421777163E-05	0.00314488554685929	-7.69656583617494E-05	0.0118138030040537	-0.0021700841604072
4.6	-0.0177597935414731	0.00524612005878063	0.00309632554140595	-0.000515158731977989	0.00309754376117006	-0.000502262766679234	0.0118041146878077	-0.00285432881546559
4.7	-0.0166732749406385	0.00802087375419468	0.00299227454865463	-0.000933212472541304	0.00300755021491728	-0.000942805483204282	0.0117333152378527	-0.00373808108999402
4.8	-0.015263637498343	0.0105053875790604	0.00283246189062415	-0.00134708567264605	0.0028409377034293	-0.00135316165677795	0.0114417000530454	-0.00465805342504145
4.9	-0.013291421780499	0.0127953580555582	0.00261278226320255	-0.00173150990817443	0.00261694316572383	-0.00172860362465204	0.0110365429750564	-0.00534586177074632
5	-0.0107540858695878	0.014636979298101	0.00235375354214175	-0.00208724223518708	0.00235737154771344	-0.00208457687194136	0.0109607087854979	-0.00581282986074637
5.1	-0.00763295922928644	0.0157939538658013	0.0020431951933334	-0.00239853989673269	0.00204549417991172	-0.00239718152331232	0.0111543915805773	-0.0065308699790302
5.2	-0.00455681833691869	0.0160830855531137	0.00168540544078385	-0.00264899110341985	0.00168711957692443	-0.0026541313566358	0.0111958042658185	-0.00753916277024822
5.3	-0.00173049079725935	0.0158499382969068	0.00129822555797467	-0.00286462253590717	0.00130135651647961	-0.00286256050790919	0.0108915178106079	-0.00850811364846991
5.4	0.000905846101592778	0.0153515316629843	0.000872862764953017	-0.00301187821900129	0.000890016910799007	-0.00302308243928146	0.0104380179023158	-0.00938899323576168
5.5	0.00348376312079813	0.0145392261119154	0.000458910206667372	-0.0031090581641086	0.000468952960981291	-0.00311848213977395	0.00988552293737305	-0.0101809330231283
5.6	0.00594143681388773	0.0131570586828823	2.04170513159845E-05	-0.00314418007128247	1.18985416804078E-05	-0.00314739226228359	0.0092209929176764	-0.0108600832526243
5.7	0.00789638762975995	0.0112143252923642	-0.000410096804810991	-0.0031125628263881	-0.000426689943492338	-0.00311621180183307	0.00843910035264464	-0.0114774227167425
5.8	0.00915523373486361	0.00895331303097741	-0.000854873324000255	-0.00301669742638937	-0.000858408210596656	-0.00303066356139954	0.00745312871051689	-0.0122295499843165
5.9	0.00972957490952047	0.006807680794941	-0.00125818377886368	-0.00287621367175426	-0.00126639933670827	-0.00287613072384646	0.00606630080184226	-0.0127453725443936
6	0.00991392224286205	0.00480888015626473	-0.0016545568399602	-0.00267008777242975	-0.00165100283316117	-0.00267025381918865	0.00451702227996702	-0.0127121278970936
6.1	0.00990679785874741	0.00282015998667039	-0.00200782553234393	-0.00241639881342117	-0.00200946285048416	-0.00241240373650312	0.00344285004776562	-0.0122267695981403
6.2	0.00955187512526886	0.000624282068670027	-0.00231909574295534	-0.00210471105123549	-0.00232278845405149	-0.00211655832148023	0.00287476468340412	-0.0119328086532482
6.3	0.00870269763764829	-0.00160388454972744	-0.00259588515958357	-0.00177222828885931	-0.00260499979469512	-0.00176651130242857	0.00241244847123248	-0.0120371921435739
6.4	0.00736271964631054	-0.00358471488996846	-0.00282197102463017	-0.00138387470316287	-0.00281225898854487	-0.00138875416368052	0.00192906618644282	-0.0121857128622478
6.5	0.0058768407303212	-0.00527553034326775	-0.00297920333052098	-0.0009810905281333	-0.00298705848747947	-0.000976630188956544	0.00166370502769716	-0.0123960205928189
6.6	0.0041295197323189	-0.00675142589840332	-0.00308881055724193	-0.000557947961416395	-0.00309043377821315	-0.000561922462158433	0.00149142014977067	-0.0128967381105356
6.7	0.0019170098393546	-0.00782614568301993	-0.00314144523072022	-0.000121363318053464	-0.00315030400321191	-0.000115109468713682	0.000804528202769791	-0.0135674736202433
6.8	-0.000673499312806683	-0.00811928590865135	-0.00312225419069495	0.000319751176046996	-0.0031333523739963	0.0003247723291183	-0.000369772497036826	-0.0138965371544759
6.9	-0.00320702963031249	-0.00751360750465636	-0.00304913494013291	0.000753593936085405	-0.00305212662104667	0.00075597799505204	-0.00158234727500055	-0.0137093948393304
7	-0.00524290096919132	-0.00624530170519545	-0.00291428903405519	0.00117553361285632	-0.00292711762708577	0.00117331234707738	-0.00250358206739027	-0.0132648973681119
7.1	-0.00684708201565587	-0.00474442810738776	-0.00273772089742715	0.00156593621154614	-0.00273406902709736	0.00157461290045486	-0.00319229742428075	-0.0127467525455045
7.2	-0.00821927356443425	-0.00314585079936775	-0.00248173583134665	0.00193568031687252	-0.00248827327693594	0.00193775230823331	-0.00365104939412592	-0.0123655579234571
7.3	-0.00961862184170002	-0.00133158341999539	-0.00218614605498769	0.0022563254332232	-0.00219737419901329	0.00226137176067163	-0.00411186987768333	-0.012282896368903
7.4	-0.0108895403737035	0.000988587696633241	-0.00184400990559839	0.0025407318728284	-0.00185090953265944	0.00255434709314043	-0.00494016818792171	-0.0123248172776617
7.5	-0.0116113802770515	0.0038138081806312	-0.00147762959458751	0.00278076309999808	-0.0014706352963907	0.00278816842633085	-0.00579173490230404	-0.0121707268580801
7.6	-0.0114060400455259	0.00672261137313532	-0.00107059424730635	0.00295956395710141	-0.0010719683915049	0.00295486340122686	-0.00640906026172759	-0.0120190657669307
7.7	-0.0104772642511699	0.00929780102611014	-0.000641632049526706	0.00308076612417419	-0.000642972609607892	0.00307970366672739	-0.00708545773622231	-0.0122483149339148
7.8	-0.00883074128867443	0.0114829225376198	-0.000215675715138661	0.00312952243391991	-0.000223486006319917	0.00313598000651516	-0.00804113950804251	-0.0122874477146608
7.9	-0.00643541356843495	0.0132185011373597	0.000225281826487076	0.00313628199925273	0.000233223096956943	0.00313778250927649	-0.00897048202288483	-0.0118130072741072
8	-0.0035114578435772	0.0142760894255824	0.000666539327083136	0.00306403733649089	0.000666618894337659	0.00306893635942679	-0.00963708866264446	-0.0112720886042376
8.1	-0.000308970533862539	0.0144314417231318	0.00107635721670196	0.00294660009850663	0.00109549939605984	0.0029476976741735	-0.0100504758103747	-0.0106742275591767
8.2	0.00253750980762064	0.0138323623429038	0.00148039385331274	0.00276648682217966	0.00148964451381256	0.00275930165998361	-0.0104337602811345	-0.010248517435193
8.3	0.00495822087302152	0.0128204291143556	0.00185652838189059	0.00252868984311396	0.00185487012321106	0.00254223624766734	-0.0109725101033052	-0.00988113702630322
8.4	0.00710192994997082	0.0116744459694821	0.00219252953356642	0.00225249247068333	0.0021894992883937	0.00225226388302861	-0.0116746730524853	-0.00939390072431389
8.5	0.00919184029098682	0.0101906512256742	0.00247927002245626	0.00192333944137143	0.00247836782636153	0.00192652282385625	-0.0123727948517559	-0.00863979033723726
8.6	0.0110833390409591	0.0081860942990969	0.0027269967651373	0.00156413289311065	0.0027365134539959	0.00155760241307441	-0.0127968852667369	-0.00784364342257702
8.7	0.0124600912294228	0.00557000330740014	0.00291483076995682	0.00116198041265379	0.00292039563511972	0.00116271319163468	-0.0131067244266853	-0.0072717587519623
8.8	0.0130449688718048	0.00267476159121541	0.00305370141008828	0.0007508798316125	0.00305949197510941	0.000742115223834716	-0.0136601838637779	-0.00692165684415749
8.9	0.013013378045686	-0.000193272176268836	0.00313330746659734	0.000315797878465506	0.00313243768838509	0.000313545356322509	-0.0142848001845484	-0.00625700221272212
9	0.0125486614982567	-0.00302083240973456	0.00314478418062209	-0.000129369346150042	0.00314794433912681	-0.0001252560284385	-0.0146433397535765	-0.00524443802483488
9.1	0.0116847735224989	-0.00596248778282662	0.00309952343591741	-0.000573279296000665	0.00310240839785563	-0.00056034938433479	-0.0145566795587392	-0.00425681018721703
9.2	0.0100116397446766	-0.00889144827867776	0.00299000315122117	-0.000993562945526887	0.00299768029253434	-0.000996446612070842	-0.0143461063673038	-0.00355440919554119
9.3	0.0075353346181592	-0.0113442608051366	0.00282042760892605	-0.00140138035572993	0.00281969271460928	-0.00140638312818637	-0.0141789757069733	-0.00291193299792843
9.4	0.00456060413706134	-0.0130459335700391	0.00259617141110976	-0.00179368920702591	0.00260270546104982	-0.00178607939242424	-0.0140493397792197	-0.00221456632259083
9.5	0.00133344451313698	-0.0139770715295231	0.00231875699855707	-0.00212915646335225	0.00232618284901013	-0.00213051647499141	-0.013818340676806	-0.00146723118845111
9.6	-0.00207682011418127	-0.0143653937061928	0.0019993000016156	-0.00243313289358751	0.00199963201047462	-0.00243214972856553	-0.0136158266254015	-0.000881498209933486
9.7	-0.00575801711727292	-0.0140614553897675	0.00162991474187853	-0.00268310634412371	0.00163544335253229	-0.00269043193880013	-0.0134702949603479	-0.000399073853013704
9.8	-0.0096033547936215	-0.0128621798433492	0.0012433207482817	-0.00289077263509269	0.00124903901415796	-0.0028822780562802	-0.0135422773288618	6.31998234004321E-05
9.9	-0.013205228170142	-0.0105074544118335	0.000837208548968026	-0.00302846346309198	0.000829876855743167	-0.00302722398886426	-0.0138575698784089	0.000779559911508856
10	-0.0161210665526709	-0.00730946314007588	0.000406971968753227	-0.00311618947284481	0.000399464029856296	-0.00312862100958471	-0.0139960165137094	0.00179361866587236
10.1	-0.0181631344359454	-0.00362325650541125	-3.46419154573486E-05	-0.00314646991681169	-4.48640036689511E-05	-0.00314106631826729	-0.0137237689006528	0.00275957058812991
10.2	-0.019497265861721	0.000301459791131046	-0.000479761473680496	-0.00310895444319985	-0.000483164415977888	-0.00310617376603755	-0.0132301918788476	0.00347936567550842
10.3	-0.0201701397242181	0.00457816818589299	-0.000911153333634721	-0.0030032413496184	-0.00090307080716417	-0.00301231407640344	-0.0127850318588815	0.0039857100900247
10.4	-0.0198836315259013	0.00916340946114096	-0.00130757752215629	-0.00284917659631807	-0.00130588331032631	-0.00285537039067677	-0.0122955864464577	0.00438581153907024
10.5	-0.0184498872714904	0.0137588535005982	-0.0016987429617202	-0.00265141145667455	-0.00169564160314879	-0.00263841186735793	-0.0117568846194365	0.00483500570051322
10.6	-0.0159461768832561	0.0178683750639227	-0.00205171236064753	-0.00238247956560122	-0.00204952422616822	-0.00238630239769641	-0.0110978840849295	0.00511872324497204
10.7	-0.0127503488260106	0.0214168894151866	-0.00236784203258265	-0.00208130925563647	-0.00236434736985738	-0.00207602420004978	-0.0104806792030755	0.00527658783541165
10.8	-0.00893665028147987	0.0244373181351108	-0.00263831093524485	-0.00172151829893497	-0.00263310475250657	-0.00173045086866052	-0.0100919084509598	0.00535590060764019
10.9	-0.00449861555881375	0.0269316128876413	-0.00284792714177693	-0.00134690892355042	-0.00285312124026172	-0.00134617724303874	-0.00988901392320671	0.00557778779136142
11	0.000770639506027409	0.028524283006256	-0.00300836001256478	-0.000929228248620977	-0.00301321309131834	-0.000935977110115453	-0.00948175138768158	0.00603311281218988
11.1	0.00645150952328506	0.0288411237752438	-0.0031175030396904	-0.000502453552567359	-0.00310662445281832	-0.000499596418980682	-0.00874610356743407	0.00634682007390273
11.2	0.0120361273780579	0.0277770656293381	-0.00314675976521962	-6.2623344336871E-05	-0.00315392937720276	-6.745976859331E-05	-0.00784133463536077	0.00633316217828421
11.3	0.0171893340171821	0.0255529232458284	-0.00311897067670973	0.000388172337169028	-0.0031305450232444	0.000378138361167201	-0.00692764489165611	0.00600268007874871
11.4	0.021724027169675	0.0226229715316248	-0.00304351427088472	0.000817586295663949	-0.00303857930937233	0.000825151640507811	-0.00635913362524467	0.00558132153145522
11.5	0.0257971946207782	0.0189083439494409	-0.00289788421293818	0.00123398876055563	-0.00290064105653792	0.00124427972537675	-0.0060066156863676	0.00511111088362336
11.6	0.0292073196423032	0.0142477097715224	-0.00270093467849439	0.00162420568430503	-0.00270090821591111	0.0016271468524485	-0.00561299475156723	0.00449742524629273
11.7	0.0315555828987986	0.0089271384180756	-0.0024372810218868	0.00197775657543425	-0.00243782191007851	0.00198636154731696	-0.00534007888277984	0.00367065399375212
11.8	0.0328015648074001	0.0034126250999238	-0.0021401467884196	0.00230791554797784	-0.00214425459282376	0.0023096236304282	-0.00539484357316492	0.0029217869296489
11.9	0.0331405643372017	-0.00206805416594947	-0.00178989494026776	0.00258125524468369	-0.00180288905662984	0.00258558846098732	-0.00570327082332855	0.00270214762151619
12	0.0327917522045168	-0.00761333382852823	-0.0014167898031923	0.00280187554708318	-0.00141619186548044	0.00280328374555611	-0.00575198521613894	0.00283106782399207
