# GHZ S RI R 50
0.2	0.00663596447307411	0.00536793756668635	0.00304825098673866	-0.000893927725296086	0.00305860748965333	-0.000887108987960616	-0.0133320113659587	0.00897132407727671
0.3	0.00713965910729555	0.000713980014569212	0.00290594404756747	-0.00131435201020561	0.00289867180594534	-0.00130143456388668	-0.0123589198406512	0.00645745906094001
0.4	0.00574383514372356	-0.0022619488628072	0.00267833545012258	-0.001683950281726	0.00268363221082671	-0.00169249280606142	-0.0129880920884524	0.00566041904323903
0.5	0.00378538005319152	-0.00354200062689357	0.00242523062930307	-0.00204047027895851	0.00243683434801268	-0.00205266757249703	-0.0137230956132964	0.00635314336175973
0.6	0.00230504588211946	-0.00364036781592901	0.00211895466117835	-0.00235778870747103	0.0021182062489781	-0.00236495822476872	-0.0137341889918635	0.00783835638670587
0.7	0.00152701193390324	-0.00342660074185736	0.0017770943222013	-0.00264160745677775	0.00177513192997351	-0.00264181904637663	-0.0129361684271629	0.00931190999557416
0.8	0.00120267981617674	-0.00358596987052119	0.00139430961430952	-0.00286770504044293	0.00138166424599731	-0.00287235843842261	-0.011666889178636	0.0102569737454452
0.9	0.00054856101130516	-0.00415995193730571	0.000976065748960904	-0.00304138758931231	0.000977168845272082	-0.0030521649601704	-0.0105515710040875	0.0105237854426266
1	-0.000795973969492712	-0.00474289694867259	0.000545803035052125	-0.00315446109548619	0.000535848691968009	-0.00315525204074311	-0.00997712878772748	0.010553349456187
1.1	-0.00281173232436884	-0.00472318398896579	8.05425309090945E-05	-0.00319050119192229	7.70436414667667E-05	-0.00320835951899488	-0.00997892843987825	0.0109612152321724
1.2	-0.00488757053704736	-0.0040072416661483	-0.000373727684256812	-0.00318336652392606	-0.000374550523826758	-0.00318126509453787	-0.00965583923119657	0.0119591138735126
1.3	-0.00656526091808283	-0.00299255078826282	-0.000813817755545481	-0.00309865891346339	-0.000817102546099562	-0.00310068339106052	-0.00831110810886391	0.0130221679467093
1.4	-0.00762884835163771	-0.00202212318176532	-0.00124700999812803	-0.00294389317104764	-0.00124580607124348	-0.00294950000767616	-0.00648718742866529	0.0132266372555401
1.5	-0.00786381802089477	-0.000610363447985763	-0.00165666398425652	-0.00273748093970749	-0.00165509030428903	-0.00274608881433324	-0.00482341031603107	0.0130247995654275
1.6	-0.00729640032056527	0.00111182111123295	-0.00202127363162554	-0.0024720342704407	-0.00202153169252315	-0.00247731802393438	-0.00385916861164982	0.0130335919030706
1.7	-0.00611618606143807	0.00246583376578668	-0.00234861824024324	-0.00216176308018507	-0.00234952873815297	-0.00215544351581991	-0.00274396536834892	0.013057583280202
1.8	-0.00485014320198599	0.0034384528054022	-0.00261345843405452	-0.00179876423425411	-0.00262454360413138	-0.00180431379546985	-0.00179695061055904	0.0128073327033496
1.9	-0.00373474953104673	0.00408054153646546	-0.00282924137107399	-0.00142030628371204	-0.00284165236728137	-0.00141400228729122	-0.0012152998152139	0.0125944271866916
2	-0.00265320215004551	0.00470687924163206	-0.00299369872624739	-0.00100963649542741	-0.00300328122935995	-0.00100482971374938	-0.000788691378163182	0.0126902656000772
2.1	-0.00131702201029493	0.00520724083758485	-0.00309669537786399	-0.000583171272475007	-0.00309263306630605	-0.000585195357006008	-7.88903062078796E-05	0.012909881091653
2.2	0.000298691780547264	0.00537089704221366	-0.00314646708177827	-0.000150708557278114	-0.00315776485692348	-0.000153464858264853	0.00101515581910814	0.0129731394288405
2.3	0.00194060253651723	0.00481492220378295	-0.00313846571097478	0.000284889610235348	-0.00313819409182735	0.000278022518824462	0.00211335667500586	0.0125714376158206
2.4	0.00315779908824948	0.00378072023841094	-0.0030672696222749	0.000715796929068399	-0.00306981548614193	0.000711553878088242	0.00294339661543571	0.0119878513868188
2.5	0.0038471253789036	0.00254281345460426	-0.0029351767383631	0.00112329344711481	-0.00294605465776691	0.00112967522756205	0.00354198075868284	0.0114005814658873
2.6	0.0042889738838088	0.00143332499676332	-0.00276801474976512	0.00152570130714936	-0.00276444657130244	0.00151336586239765	0.00412058465620834	0.0109486022351334
2.7	0.00477855472911331	0.000323950546172711	-0.00252829744612513	0.00190102374735444	-0.00253359587518882	0.00190102993189354	0.00469688877647789	0.0104986497880406
2.8	0.00527700608378053	-0.00105736186493835	-0.00224875642103637	0.00223628412915072	-0.00224090074856742	0.00224613449538906	0.00523271160553111	0.0101109830153236
2.9	0.00553489528291822	-0.0027188275595904	-0.00191313229027284	0.00254640866524067	-0.00190939373688247	0.00254597467496137	0.00592618780548233	0.00987204077672834
3	0.00540550636576598	-0.00444286617463543	-0.00152005522250783	0.00279124900677455	-0.00153496176912107	0.00279745418129683	0.00684669631403955	0.00967142094992718
3.1	0.00504243880946978	-0.00611948350628191	-0.00111837274184889	0.00297495011346536	-0.00111361639900979	0.00298335616410877	0.00783828894010835	0.00929386689014006
3.2	0.00427461647526491	-0.0078870918582956	-0.000682914137218114	0.00311380118100527	-0.000684683448439166	0.00311319940663285	0.00868388962975225	0.00879615423447759
3.3	0.0029948988648361	-0.0097576301419856	-0.00022855278957264	0.00317881904844111	-0.000226932554138405	0.00317501992704693	0.00954324234327385	0.00804850231699541
3.4	0.00100994051834686	-0.0112997908362137	0.00023219910946091	0.00316119581693961	0.000226192860218429	0.00317799958502946	0.0102421563844772	0.00704586887643734
3.5	-0.0014263185807537	-0.0123273738549803	0.000663520391210779	0.00310178858887636	0.000669152026554129	0.00310176447018173	0.010601821212975	0.00585322804316178
3.6	-0.00400109929693154	-0.0126352173907547	0.00109473737417539	0.00296220230920928	0.00110294657736048	0.00296172173393457	0.0107904001139309	0.00492933554634354
3.7	-0.00647452362495537	-0.0124359231657439	0.0015001259750868	0.00276034654962083	0.00149083265689657	0.00277420911825751	0.0110585951786561	0.0039907595924453
3.8	-0.00890327656949757	-0.0118561649042166	0.00186559785773612	0.00251520249655464	0.00186817967101262	0.00252425755841365	0.0111752632555541	0.00296898586197846
3.9	-0.0112476524488465	-0.0108365033282555	0.00219280208067504	0.00222973573338138	0.002185566029326	0.00222811385652382	0.0110595847734798	0.00202827995443604
4	-0.0134256701058759	-0.00926829610205449	0.00245576421546831	0.00190437969771533	0.00246011644452627	0.00190189838466533	0.0109290740617824	0.00138192599706912
4.1	-0.0151595427141384	-0.00722725393819733	0.00268614741036138	0.00154848478560333	0.0026849239254343	0.00154922731370579	0.0110596525716416	0.000876385370385751
4.2	-0.0164071843563228	-0.004953893926228	0.00286746066827217	0.00115899243742713	0.00287176154281334	0.00115037413767827	0.0113195744084979	0.000228352288487181
4.3	-0.0172857587026635	-0.00272028574481989	0.00299914918002084	0.000763631579608411	0.00300541150165376	0.000755919448268486	0.0115010003238573	-0.000705361131727842
4.4	-0.0180635045364392	-0.000300300651702639	0.00307204865436436	0.000348215137218781	0.00307437802847899	0.000345988746568289	0.011396731745772	-0.00160039330572238
4.5	-0.0185293101869487	0.00246960056304487	0.0030988101007055	-7.28823607544283E-05	0.00310409387043993	-7.62045345225434E-05	0.0112633208980786	-0.0023458517862771
4.6	-0.0184529031200497	0.00547000540634148	0.00306454712009937	-0.000503385654279276	0.00306572613830289	-0.000490623933995003	0.0111690754811018	-0.00309652563981429
4.7	-0.0176136863191035	0.00847205309031877	0.00297188153933975	-0.000916411502111339	0.00298706845453073	-0.00092588104390967	0.0109769162100505	-0.00396516225928014
4.8	-0.016189917135024	0.0111829655985354	0.00282293761909629	-0.00133115084950988	0.00283139164706007	-0.00133716908041549	0.010703158503632	-0.00480849295455758
4.9	-0.0141993998569453	0.0135373483285746	0.00261097349069663	-0.00172131382787809	0.00261511796077457	-0.00171840420878688	0.0103428188170212	-0.005502834321732
5	-0.0117518880015206	0.0154534838595076	0.00235470410458218	-0.00208541302536118	0.00235831983843401	-0.0020827457884996	0.0102588272782363	-0.00606227508838372
5.1	-0.00866146895908484	0.0168523892619767	0.00204137019860078	-0.00240500927361511	0.00204367432258526	-0.00240365336191903	0.0103474326009212	-0.00682796521607229
5.2	-0.00534562824379819	0.0173802679046874	0.00167603506068981	-0.0026609399119797	0.00167772851016467	-0.00266609625306286	0.0103125473697608	-0.00775961179275475
5.3	-0.00213963788426245	0.0171053983463028	0.00127823635807799	-0.00287723187133798	0.00128138588545733	-0.00287519102980625	0.0100669640368412	-0.00862552348078081
5.4	0.000675240696480738	0.0163041210629727	0.000841910763317632	-0.00301903514250685	0.000858942043836072	-0.00303040666653276	0.0097267228921898	-0.00952290364927032
5.5	0.0031230942700869	0.0152457928990021	0.000419335376092692	-0.00310519299654902	0.000429231738602609	-0.00311471148140012	0.00918449331768863	-0.0104217635055458
5.6	0.00537138922442096	0.0138987783384903	-2.26548775150153E-05	-0.00312464046804834	-3.11635653599778E-05	-0.00312771606606313	0.00839729046445803	-0.0111443715129983
5.7	0.00736703326747159	0.0121403707718016	-0.0004496677401085	-0.00307553185982851	-0.000466145375804446	-0.00307891125080302	0.00754010750156468	-0.0116686205443127
5.8	0.00886984665663462	0.00991362420476912	-0.000882921043016403	-0.00296320228008346	-0.000886591689531222	-0.00297692635940655	0.00654854419462728	-0.0122390487724244
5.9	0.00964076561872081	0.00749190936497148	-0.00126832870335384	-0.00281107637582281	-0.0012763977941227	-0.00281090225719929	0.00531605369731917	-0.0126244010993213
6	0.00971473826465573	0.00511935101454672	-0.00164183245311029	-0.00260083144494252	-0.00163835399358868	-0.002601023061639	0.00397949936863176	-0.012608647178971
6.1	0.00937998193835844	0.00298235051828587	-0.00197148074319063	-0.00235224173542631	-0.001973063647659	-0.00234833214381752	0.00304383637157421	-0.0122441749847069
6.2	0.00879617088544569	0.00089674732373042	-0.00226225415006954	-0.00205496786475908	-0.00226585264805485	-0.00206653105277926	0.00252902080539269	-0.012043803496842
6.3	0.00794448466197448	-0.00123498745950608	-0.00252496736325797	-0.00174353014647697	-0.00253389485219628	-0.00173799634552996	0.00216637517635736	-0.0121784849860939
6.4	0.00644812192335173	-0.00320951204240531	-0.00274623849990733	-0.00138043505441098	-0.00273669428179727	-0.00138511310703289	0.00174430627560737	-0.0124221982656243
6.5	0.00467160996532	-0.00468899829944812	-0.00290860968663088	-0.00100197095679343	-0.00291637288144127	-0.000997701646376262	0.00142394338651937	-0.0127887243577238
6.6	0.0028710094248964	-0.00570461214493593	-0.00303159831960315	-0.000598867432655634	-0.0030331323194041	-0.000602805936311294	0.00108839879631279	-0.0133618493628769
6.7	0.000997291748553466	-0.0064534619665795	-0.00310327610485313	-0.000175118048181087	-0.00311214303370667	-0.000169091455675952	0.000294292691486799	-0.0139688203913191
6.8	-0.00118236267146191	-0.00682762768296397	-0.00310527094561513	0.000261954114145349	-0.00311637778217216	0.000266741626818057	-0.000833353472063466	-0.0142203246462911
6.9	-0.003619262275692	-0.00646229773185387	-0.00305152591651488	0.000699869649791946	-0.00305454755367335	0.00070219546250965	-0.00199021355096885	-0.0140102602052444
7	-0.00585711732498342	-0.00536980352039073	-0.00293134324254287	0.0011323182249612	-0.00294413756730115	0.00112990755063999	-0.00285689337912692	-0.0137317919876451
7.1	-0.00769021610091616	-0.00367887423500851	-0.00276267094746054	0.00153655995038588	-0.0027591151194178	0.00154529996417498	-0.00366747605965152	-0.0133680913154058
7.2	-0.00896446446517295	-0.00168932218200193	-0.00250747721254988	0.00192072725402361	-0.00251405590067347	0.00192274917905982	-0.00433367999641921	-0.0129746497706012
7.3	-0.00988871511388143	0.000293553430050418	-0.00220633673651319	0.00225276575379096	-0.00221763322641962	0.0022577698652066	-0.00488726507410855	-0.0127181922039431
7.4	-0.0105624865382107	0.00250006371086694	-0.00185459202986718	0.00254329485658388	-0.00186154048974509	0.00255693051630273	-0.00580981003166454	-0.0123407685308385
7.5	-0.0110654801983239	0.00474621262554048	-0.00147747091571659	0.00278286289233998	-0.00147047001768984	0.00279026990442743	-0.00643847182355568	-0.0120643657111258
7.6	-0.0112364852460049	0.00703726668833999	-0.00106183103255191	0.00295476472981987	-0.00106321177418776	0.0029500782517388	-0.00678376558380719	-0.0124305081747044
7.7	-0.0103153597204736	0.00939497606051244	-0.000629522410524056	0.00306436717935039	-0.000630857953332255	0.00306331460179471	-0.00731086418823625	-0.012372879163101
7.8	-0.00889592469148863	0.0113381382275019	-0.000207287952101876	0.00309992948608239	-0.00021501026456487	0.00310634086549208	-0.00808008415499572	-0.0125231120866767
7.9	0.286295197592219	-0.111618270043086	0.000896069249579831	0.00257082082950664	0.000893708793846365	0.00246818309322556	0.446881201783185	0.249699053517494
8	0.371138631096262	0.163564911719185	0.00138205348887312	0.00394091643675488	0.000917833709353538	0.00605269242091828	2.77918732957196	1.629036017377
8.1	-0.00173382478259773	0.0146446505818046	0.00103505209011397	0.00290293017798011	0.00105384916098455	0.00290415375618477	-0.0100743132966846	-0.0114892367736843
8.2	0.00112773667826314	0.0146053542222094	0.00141938568175591	0.00273545125961709	0.00142856044979632	0.00272851009305617	-0.0106298316819855	-0.011110683374862
8.3	0.00376102898431938	0.0138366118346386	0.0017815069890495	0.00251902621753442	0.00177963987740103	0.00253231831896705	-0.0112358866758055	-0.0106982361833203
8.4	0.00596119222213012	0.0127126214631466	0.00211259963928789	0.00226950285725924	0.00210961641619493	0.00226921078515504	-0.0118887578753804	-0.0102223151496441
8.5	0.00790471710422241	0.0113662767646513	0.00240570957714295	0.00196805629140181	0.00240473462354554	0.00197118539298121	-0.0125552991674603	-0.00962076897974337
8.6	0.00973941372294997	0.00978643623381218	0.00267012861999278	0.00163299231004242	0.00267978254704417	0.00162675960489755	-0.0131116646310705	-0.00902273919942303
8.7	0.0113829008769479	0.00766007830312252	0.0028832162228851	0.00124700934487174	0.00288876366822425	0.00124790345382369	-0.0137354522716391	-0.00848253009583898
8.8	0.0125866094404899	0.00495289134969948	0.00305121968831809	0.000841907088835207	0.00305729385741494	0.000833252478057057	-0.0144969876717129	-0.00801301453874081
8.9	0.0131066474984774	0.00180681709852092	0.00316003972633194	0.00040168991417692	0.00315921943229656	0.000399389344077019	-0.0151656359119005	-0.00719353950586287
9	0.0128194325027323	-0.00148672859496432	0.00319622706061117	-5.87757029889462E-05	0.00319934097035638	-5.45260627791285E-05	-0.0154812206393225	-0.00614603145272036
9.1	0.0120290656434238	-0.0048254913512768	0.00316790619765633	-0.000525070027756536	0.00317059920529866	-0.000511845483201939	-0.0153879500044475	-0.00518605150543759
9.2	0.0102888859741604	-0.00800796895908958	0.00306529494471444	-0.000970954338462751	0.00307317017649595	-0.000973786744726083	-0.0152379328164157	-0.00444042617174574
9.3	0.00770779866904021	-0.010783118867247	0.00289278097292365	-0.00140377737414741	0.00289207844135547	-0.00140889177978312	-0.0150357049246667	-0.00367298402811335
9.4	0.00435142709210994	-0.0126525522266706	0.00265713779726101	-0.00181675471263924	0.00266376504949007	-0.00180895985334802	-0.0147212760320289	-0.00277477612222781
9.5	0.000584486216174628	-0.0137071766332037	0.00236253020053421	-0.00216501486466142	0.00237009069785889	-0.00216639175034611	-0.014442655458518	-0.00227400543703941
9.6	-0.00316329855289151	-0.013676766133351	0.00202415427750663	-0.0024731530331194	0.00202449314694294	-0.00247215594254816	-0.0142780251255048	-0.00178583019604675
9.7	-0.00675541011958149	-0.0128836084306208	0.00163795963446084	-0.00271869791321205	0.00164352209521269	-0.00272612466836669	-0.0142463561000887	-0.00127876710160964
9.8	-0.0102283821377914	-0.0114885024483578	0.00124047071671886	-0.00291577550929435	0.00124626240875652	-0.00290724467740782	-0.0143481808551027	-0.000664972190305492
9.9	-0.0134951142166179	-0.00936768826571898	0.000831485999466469	-0.0030400887350024	0.000824135116307979	-0.00303882534418185	-0.0144736137315749	0.000125743338749466
10	-0.0164388358234599	-0.00635559640576102	0.000406617951011278	-0.00311608851128773	0.000399109023993587	-0.00312851866346801	-0.0144517161873381	0.00111751044900708
10.1	-0.0185388760293967	-0.0026573828758833	-2.31681264422115E-05	-0.00314040119749267	-3.3389678351462E-05	-0.00313504529079524	-0.014108140468821	0.00196347179617704
10.2	-0.0197329414139192	0.0012828801705482	-0.000453825114778895	-0.00310553031170595	-0.000457242313915685	-0.00310278328627965	-0.0136611343772058	0.00262383625260924
10.3	-0.0202551209020722	0.00529140205739401	-0.000873077428896959	-0.00301154610198659	-0.000864890603532298	-0.00302050980165916	-0.0132345585047764	0.00319116663759336
10.4	-0.0201759823726176	0.00945295211153701	-0.00126400098141297	-0.00287602012284515	-0.00126220303632129	-0.00288219875348648	-0.0126399141712868	0.00363682654284334
10.5	-0.0193235248012689	0.0138972814976344	-0.00165924698971408	-0.00270028056045069	-0.00165637221358878	-0.00268714034233503	-0.0119870896147288	0.00396775584894259
10.6	-0.0173741404271244	0.0183137413197322	-0.00202721549363147	-0.00245130616654957	-0.00202492501245807	-0.00245512879856947	-0.0113745415576198	0.00404947193261082
10.7	-0.0144001347672172	0.0223653979302436	-0.00236706611309699	-0.00216366815080595	-0.00236361638407464	-0.00215822377832677	-0.0109294126847972	0.00410893186023088
10.8	-0.0105768966555814	0.0257789813371978	-0.00266702460759296	-0.00180690493916573	-0.002661543299406	-0.00181594575278877	-0.0106547159797868	0.0042238250148219
10.9	-0.0062084203177903	0.0286903603355007	-0.0029062627428705	-0.00142380913115747	-0.00291160834654871	-0.00142313106150183	-0.0105526296277532	0.00445718045759696
11	-0.000918250514429501	0.0307519925779612	-0.00309247215890913	-0.000985983251980269	-0.00309741190085003	-0.000992985596315099	-0.0101456831601741	0.0048283029949879
11.1	0.00504815489870625	0.0317218604161976	-0.00321907394587036	-0.0005304822900743	-0.00320784494864404	-0.000527490738118953	-0.00955860792120232	0.00500781054018078
11.2	2.60690632759922	2.67440418197467	0.00913711084688356	0.00415301374510119	0.0158740336427843	0.0214845943241178	-0.724943743780094	-0.890056425502516
11.3	0.752002551554255	0.376052330644227	-0.0105784287060877	-0.0141343833826933	-0.0116331886898451	-0.0111442184004057	0.340988335996762	2.97747633179944
11.4	0.0227396257480664	0.025282449837985	-0.0031254110331005	0.000886974527591375	-0.0031202141609852	0.000894701292242474	-0.00755701905821152	0.00451597412286592
11.5	0.0272963589930417	0.0209692836831407	-0.00295222081561883	0.00132390304982156	-0.00295485151260644	0.00133452622915722	-0.0071673821926538	0.00443671639323374
11.6	0.0307914081421652	0.0156901938254232	-0.00272298474465072	0.00172306639888897	-0.00272288923706105	0.00172607212991653	-0.00665007507923733	0.00391208073720315
11.7	0.033197713924032	0.00977807812699408	-0.00242703670041878	0.00207262700881536	-0.00242736686153853	0.00208138786303132	-0.00626968202136641	0.00323613070891618
11.8	0.0343710662239581	0.00353035828608786	-0.00210264546156529	0.0023881697368539	-0.00210675225193547	0.00239000302261346	-0.00601530198840968	0.00275456067989385
11.9	0.0340842555595715	-0.00247507714003753	-0.00173469472530211	0.00263861401449611	-0.00174764604364748	0.00264329172289197	-0.00615086240316749	0.00280095280115136
12	0.0328247385746931	-0.0084890121917263	-0.00135527183990725	0.00283357188912366	-0.00135464276437182	0.00283496714450063	-0.00579742984308799	0.00236680648006458
12.1	0.030744474841739	-0.0138712171622707	-0.000951326980713966	0.00298843250061081	-0.000954899688426706	0.00298765095330923	-0.0053909431110444	0.00210545284524748
