# GHZ S RI R 50
0.2	0.00602739342957167	0.0051166483704896	0.00304818738336419	-0.000894736190988902	0.00305854613271634	-0.00088791968392223	-0.0138948150357844	0.00877448941081397
0.3	0.00681930148997505	0.000771762116492334	0.00290545860322832	-0.00131574061068493	0.00289819199985482	-0.00130281929705707	-0.0126303226933632	0.00654776152286466
0.4	0.00574755275581949	-0.00231204405769927	0.00267703902410173	-0.00168571572440647	0.00268232962174554	-0.00169426148009966	-0.0129836755089666	0.00563086664293303
0.5	0.00386326836056746	-0.00393346879433607	0.00242282719222279	-0.00204221314978573	0.00243441719856968	-0.00205441823146203	-0.0137161938354413	0.0060285758751515
0.6	0.0021503915840255	-0.00431438780948116	0.00211538137268188	-0.00235894454649096	0.00211462556324518	-0.00236610979627525	-0.013991304504121	0.0073398174046477
0.7	0.00100771224825279	-0.00411115883505585	0.00177254700451928	-0.00264159094806552	0.00177058593510647	-0.00264180004813984	-0.0135034882176136	0.00891718994681518
0.8	0.000451342091360828	-0.00401126461721955	0.00138928859168577	-0.00286603790985557	0.00137665234993626	-0.00287067089944229	-0.0123459956180704	0.010161267765407
0.9	-0.00013865964693438	-0.00425998665562606	0.000971279223335897	-0.00303782849129312	0.000972368936187098	-0.00304859069116107	-0.0110678761712566	0.0106801327432492
1	-0.00117556845933723	-0.00470911045405213	0.000542005404839517	-0.00314912414196329	0.000532068727257109	-0.00314990482167758	-0.0102061592175303	0.0107086079221683
1.1	-0.00287619100995851	-0.00487076049329527	7.84573990059625E-05	-0.00318381751615446	7.49551723447502E-05	-0.00320163606148991	-0.0100552993734032	0.0108631753938489
1.2	-0.00486795701969448	-0.00452058203543049	-0.000373682174807121	-0.00317596684312891	-0.000374502590304089	-0.00317387002565593	-0.00985373759998359	0.0115789071250004
1.3	-0.0067040349441068	-0.00377234886923268	-0.000811477423810429	-0.00309137109721282	-0.000814754117209629	-0.00309339116770255	-0.00876497509096479	0.0125638060692627
1.4	-0.00795131519535384	-0.00288338942292804	-0.00124251150531126	-0.00293755464147532	-0.00124130750844114	-0.00294314753662897	-0.00711525633461861	0.0128255762653151
1.5	-0.00839326018616511	-0.00149338014600469	-0.00165047894585571	-0.00273276645372787	-0.0016489011559468	-0.00274135346108777	-0.00561625781691421	0.0127300036659871
1.6	-0.0080743752252467	0.000333087277996723	-0.00201412781887184	-0.00246938741823656	-0.00201437896724289	-0.00247466060823012	-0.00475008908958252	0.0129668821192428
1.7	-0.00703020850840809	0.00195560736491083	-0.00234130208371381	-0.00216130996601868	-0.00234222010791027	-0.00215500298454076	-0.00356501562308908	0.0132661533028591
1.8	-0.00567802598421709	0.00320396035926401	-0.00260678965857512	-0.00180029221672746	-0.0026178498466199	-0.00180585129257249	-0.00239222063274693	0.0131562937899222
1.9	-0.00433626143876702	0.00393321230340146	-0.0028237829924372	-0.00142327882684653	-0.00283619025921355	-0.00141700190440384	-0.00161389755637885	0.0128723823112568
2	-0.00309572076723301	0.00444567916152037	-0.0029897397168585	-0.00101336187537143	-0.00299932174832556	-0.00100857353395393	-0.00116415533244015	0.0128183357539643
2.1	-0.00179614022306475	0.00478981479247414	-0.00309414262234328	-0.000586920356868004	-0.00309007998032996	-0.000588937916875587	-0.000571879576650664	0.01299606001804
2.2	-0.000343513563987017	0.00495275747272088	-0.00314489010991334	-0.000153938374379683	-0.00315617990101343	-0.000156705273386698	0.000446325281042173	0.0131882007435261
2.3	0.00122531463436126	0.00459163334338606	-0.00313723782257365	0.000282403712783511	-0.00313696117526343	0.000275539979606772	0.00165777745626144	0.0129480472998269
2.4	0.00260874577890852	0.00375885166561666	-0.00306575594697035	0.000713894971035773	-0.00306829823823251	0.000709653269050795	0.00272638868704154	0.012348599257256
2.5	0.00359295094707229	0.00252496610095348	-0.00293294087738622	0.00112148081957913	-0.00294381114154827	0.00112785395070926	0.00346686941700172	0.0115463982476452
2.6	0.00422642452442287	0.00121184481807132	-0.00276495436944811	0.00152327733844164	-0.00276138801824131	0.00151095764955918	0.00397091944191029	0.0108657244874884
2.7	0.00471924327779745	-0.00010626988329311	-0.00252473083042868	0.00189731946910456	-0.00253002075733628	0.00189732427476283	0.00437986620156292	0.0103375744457618
2.8	0.00517446345920932	-0.00159127348102879	-0.00224530250980921	0.00223081919105592	-0.00223746692019078	0.00224065354727669	0.00480736083063225	0.00995647645157476
2.9	0.00544145494726299	-0.00335322808660971	-0.00191069248561541	0.00253900199263004	-0.00190696226278076	0.00253857194144102	0.00540632627954846	0.00968912958889055
3	0.00526296102169962	-0.00526174118623316	-0.00151958295642384	0.00278224495224179	-0.00153445895429536	0.00278841599592794	0.00613956847044061	0.00949179253414094
3.1	0.00470258511326429	-0.00709508128893304	-0.00112057065389687	0.00296502373692734	-0.00111584173868646	0.00297341556437339	0.00693559766641972	0.00926550752591485
3.2	0.00367976144604687	-0.00885410058134655	-0.000688287884415068	0.00310391059276394	-0.00069005108165885	0.00310330633549196	0.00771711355159332	0.00901990959127799
3.3	0.0022567583368665	-0.0105668820801171	-0.000237150644969019	0.0031701779677912	-0.00023552351629831	0.00316639306035312	0.008680898574698	0.00847849734276583
3.4	0.00029174343207092	-0.0119701426531894	0.000220851469513718	0.003155018312218	0.000214800872504491	0.00317176442503023	0.00952089124978278	0.00753282016058794
3.5	-0.00207807295876908	-0.0129945615529345	0.000650261661275695	0.0030988980459294	0.000655883447967992	0.00309889591560312	0.00991973810190612	0.00633229567509694
3.6	-0.00470450213462556	-0.0133558032599791	0.00108079128207259	0.00296328163351138	0.00108899259751242	0.00296283661711781	0.0100866089254423	0.00546871825937686
3.7	-0.00731405532432036	-0.0131057381033825	0.00148689578008363	0.00276549561281662	0.00147754562423732	0.00277930860912231	0.0104184085518874	0.00468618162852184
3.8	-0.00978528373510597	-0.0123292849932724	0.00185439699229241	0.00252395549810086	0.00185693800908096	0.00253302330949984	0.0107514513131124	0.00374284541819444
3.9	-0.0119732606126593	-0.0111441445849491	0.00218469660225043	0.00224117150589637	0.00217746199100109	0.00223951642276409	0.0108476551087221	0.00267675652599096
4	-0.0139354869818918	-0.00961058734096843	0.00245137486211186	0.0019171327225495	0.00245574337284964	0.00191466582006445	0.0107403820443355	0.00181453241681329
4.1	-0.015602390057144	-0.00772782278391659	0.00268552933432965	0.00156122021867555	0.00268430083456868	0.0015619596661002	0.0107500565080396	0.00121553058234169
4.2	-0.0169267400561525	-0.00552133213867131	0.00287012078788916	0.00117044971363796	0.00287445788452224	0.00116182596288712	0.0109499770977779	0.000618493048948278
4.3	-0.0178237305965555	-0.00319328770263641	0.00300409656253265	0.000772985912121463	0.00301039280359568	0.000765271954606063	0.0112126165747299	-0.000296790033166088
4.4	-0.0184523938965049	-0.000714336155702445	0.00307813466290777	0.00035513170779223	0.00308047363553104	0.000352905062948	0.0111644350705825	-0.00132783489999894
4.5	-0.018729995168694	0.00193277466776792	0.00310499585838251	-6.81279772021569E-05	0.00311029522919881	-7.14483089882485E-05	0.0109158983605137	-0.00224412542246541
4.6	-0.0186273247634679	0.00468888495142787	0.00307013426944481	-0.000500154983296127	0.00307129836048238	-0.000487371205420665	0.0105872926426382	-0.0030157491794933
4.7	-0.0179186213076443	0.00752113629540892	0.00297661348924238	-0.000913871743399656	0.00299183046704105	-0.000923334114183943	0.0102421411197513	-0.00373708291849933
4.8	-0.0166315157233876	0.0102271616799204	0.0028270554944411	-0.00132856662107112	0.00283552451940234	-0.00133457881994137	0.0099722777223633	-0.00443956218124311
4.9	-0.0146558725578446	0.0125971402029861	0.00261503571195018	-0.00171821697416229	0.00261917793187926	-0.00171529939593079	0.00963928016223256	-0.00510552634638199
5	-0.0122166385087102	0.0144225044430071	0.00235946464610938	-0.00208169835185045	0.00236307661102631	-0.00207902335649317	0.00947876031868767	-0.0056353215285193
5.1	-0.00928056250322452	0.015727488195149	0.00204753047865778	-0.00240101862752029	0.00204983216346319	-0.002399656993454	0.00950195068964982	-0.00622786356690069
5.2	-0.00617966398612739	0.0163460452590465	0.00168404510777357	-0.0026573806826498	0.00168575345755457	-0.00266253441421629	0.00959222948217846	-0.00694987613691646
5.3	-0.00302338333039195	0.0163089991400318	0.00128828089095978	-0.00287502856019221	0.00129142595345952	-0.00287297630280321	0.00959610533983559	-0.00779478178756682
5.4	-4.80360483631143E-05	0.0156573994729284	0.000853642149428905	-0.0030192223950072	0.000870732350589665	-0.00303054487515659	0.00938382661105596	-0.00886920716918215
5.5	0.00257127508637304	0.0145293301638585	0.000432079019143347	-0.00310855997967043	0.000442028301839256	-0.00311805531758878	0.0087449346693715	-0.00991848205105916
5.6	0.00480187583157745	0.0130133779597424	-1.00515963302607E-05	-0.00313183428483896	-1.85671676247242E-05	-0.00313495133363408	0.00779647064960976	-0.0105796600893391
5.7	0.00659775184982664	0.0112141407506291	-0.000438611480782836	-0.00308663657246732	-0.000455125246027337	-0.00309009268341116	0.0069316313220228	-0.0108887403874502
5.8	0.00795176283085764	0.00920090198851282	-0.000874960132439538	-0.00297781650067438	-0.000878592319611497	-0.00299160666800212	0.00619251314110422	-0.0113394322568178
5.9	0.00883847679263557	0.00707722477297392	-0.00126457782116754	-0.00282808860297867	-0.00127268403724203	-0.00282794094801213	0.00523548798645176	-0.0118890235306643
6	0.00924199151913344	0.00481121139034323	-0.0016431753959639	-0.00261869986271636	-0.00163967851410833	-0.00261888296246048	0.00393020025824885	-0.0122075386421784
6.1	0.00917966478704578	0.00251494568548537	-0.00197795383498727	-0.00236916250208442	-0.00197955309814038	-0.00236523414159501	0.00277709564842477	-0.012053992267602
6.2	0.00865555792393175	0.000221338908589752	-0.00227323233258074	-0.00206916423763944	-0.00227683980769687	-0.00208079796628185	0.00205538076414782	-0.0118487714271054
6.3	0.00780064673432821	-0.0019906352925109	-0.00253923758503342	-0.00175378989918727	-0.0025482168025362	-0.00174822537902588	0.00161550357363038	-0.0119677989253524
6.4	0.00643887928651239	-0.00409001483984674	-0.00276214551470366	-0.00138594359276163	-0.00275255286493901	-0.00139065394260982	0.00104586614048797	-0.0123001900924723
6.5	0.00469941764622319	-0.00589883989922027	-0.00292437459795491	-0.00100285560485306	-0.0029321701684613	-0.000998554362600634	0.000413666634922031	-0.0125874286209866
6.6	0.00262257061823554	-0.00720671351842164	-0.00304584357045254	-0.000595798414640565	-0.00304739156835279	-0.000599751106818288	-9.23973793628483E-05	-0.0127871892534034
6.7	0.000360723047711275	-0.0079202358277328	-0.00311506616939009	-0.000169178142389084	-0.00312395293743035	-0.000163110561904462	-0.000705437290938879	-0.013028259066711
6.8	-0.00197821788733	-0.00802257934581073	-0.0031141936167984	0.000269497896709011	-0.00312532400615704	0.000274324161351099	-0.001513138481216	-0.0132183052831259
6.9	-0.00429581014106393	-0.00749364597198329	-0.00305777412202911	0.000707882370850341	-0.00306079860145288	0.000710220228234424	-0.00252528630294514	-0.0131868043059709
7	-0.00638144622185749	-0.00647690405066144	-0.00293547878271543	0.0011399531472252	-0.00294830433545766	0.00113756033307134	-0.00352601452749953	-0.0130049727424823
7.1	-0.00828885377440478	-0.00500138886752043	-0.00276552126988541	0.00154339435006989	-0.00276194622052636	0.0015521452752487	-0.00449802954146302	-0.0124610110746994
7.2	-0.00988937196597507	-0.00307282669685765	-0.00250977289165649	0.00192674953337874	-0.00251636083626412	0.00192878201928471	-0.00506210416860362	-0.0117200860756818
7.3	-0.0111502536210921	-0.000804974347113623	-0.00220872921739724	0.00225836014386147	-0.00222004252357079	0.00226338115480853	-0.00519284398646081	-0.0112673275234614
7.4	-0.0118858319220501	0.00188688573531203	-0.00185736441758389	0.002549134448358	-0.00186432169810248	0.00256280027428056	-0.00555252107600686	-0.0111199024378002
7.5	-0.0120608364404608	0.00454100606175794	-0.00148054378048725	0.00278972387322221	-0.00147352503279826	0.00279714740061251	-0.00596483522429441	-0.0113549279401364
7.6	-0.0118005553695987	0.0069073378808228	-0.00106463459728049	0.00296330524462512	-0.00106601966339014	0.00295860546461443	-0.00648779885602774	-0.0120324598630864
7.7	-0.0106026609971366	0.00918428421013858	-0.000631103110696252	0.00307494845387647	-0.000632443409647733	0.00307389252991866	-0.00723963083664165	-0.0122876759858461
7.8	-0.00892887614041001	0.0110247932792778	-0.000206544153469585	0.00311238827397305	-0.000214293993943358	0.00311882911472627	-0.0082503761381969	-0.0126084532571784
7.9	0.293984112346307	-0.1207714837996	0.000855069738589043	0.00261754620522398	0.000843742251377929	0.00251663346896004	0.437787579549492	0.233794493404605
8	-0.00438746162695636	0.0130435237973876	0.000654457134091582	0.00303111643722303	0.000654528307795041	0.00303596131149631	-0.0108223575557473	-0.0122224268024571
8.1	-0.00155067065762244	0.0131521177950742	0.00104824667563145	0.00291466444995873	0.00106714155498981	0.00291584241050329	-0.0114955534950682	-0.0110862954837405
8.2	0.000913264763993571	0.0129520875007967	0.00143663425985669	0.00274348069721744	0.00144582774270166	0.00273647101477684	-0.0119578174566402	-0.0102014812428715
8.3	0.00329990174527692	0.0123216130844968	0.00180141175566464	0.00252177577928105	0.00179959950374913	0.00253513594069115	-0.0122605963281659	-0.00959650724484915
8.4	0.00554288642235573	0.0113270023930119	0.00213321417437406	0.00226616431422565	0.00213021815277169	0.002265887855554	-0.0127703917142811	-0.00920461559635538
8.5	0.00760346830818259	0.00985550805005427	0.00242477683612477	0.00195863503013292	0.00242381862017876	0.00196177905788433	-0.0135688978057465	-0.00862535443119102
8.6	0.00932095295483114	0.00799119015580412	0.00268572122899518	0.00161830439196687	0.00269535139625855	0.00161199671639681	-0.0142711941634639	-0.00775493623484838
8.7	0.0106185611806764	0.00576207340709915	0.00289373231916487	0.00122859904956435	0.0028992899010832	0.00122945661322218	-0.0147247397692725	-0.00684049304767531
8.8	0.011454827232389	0.00325736683808607	0.00305595608730751	0.000821657455522531	0.00306197186414711	0.00081296521043633	-0.0150472220664396	-0.00616940728655653
8.9	0.0118859957127314	0.000482340351203508	0.00315889668461143	0.000381597886918287	0.00315806304430949	0.000379305061046083	-0.015300198262079	-0.00550887216421162
9	0.0117551471029499	-0.00257404308382709	0.00318986250370708	-7.68822020425439E-05	0.00319299476063538	-7.26583268048351E-05	-0.0154817303126749	-0.00475663083564157
9.1	0.0110552676358528	-0.00580748831849239	0.00315750232304172	-0.000539888442256016	0.00316025596717794	-0.000526709875750368	-0.0153777459551722	-0.00397531412475269
9.2	0.0093960129142088	-0.00891621640309119	0.00305241191053569	-0.000981753659015931	0.00306025255314646	-0.000984612862561429	-0.0152111218458261	-0.00334434957572811
9.3	0.00699026714312278	-0.011563985828642	0.0028789268584543	-0.00141040898894672	0.00287820730706881	-0.00141550554926814	-0.0150083068788408	-0.00281316053065746
9.4	0.00395129731519761	-0.0134922681192235	0.0026436257415471	-0.00181962905626256	0.00265025758301529	-0.00181187786646974	-0.0149230224393095	-0.00219881733048853
9.5	0.000433966515305451	-0.0148001462886095	0.00235038086785231	-0.00216508366726994	0.00235791679337057	-0.00216647620999662	-0.0150483542567182	-0.00166734205946463
9.6	-0.00337093248165284	-0.0151328245148741	0.00201375656633677	-0.00247148500840087	0.00201409678152463	-0.0024704911162725	-0.0151423591075028	-0.000875919594484762
9.7	-0.00725831455744133	-0.014494761049544	0.00162920676346606	-0.00271634798279889	0.00163474307554116	-0.00272377047281583	-0.015015970266582	-8.72823431521266E-06
9.8	-0.0109762518498473	-0.0129510057000909	0.00123266470646962	-0.00291352105624054	0.00123846398351518	-0.00290501555253018	-0.0148014423046024	0.000693891064683274
9.9	-0.0142245547029997	-0.0105714335550185	0.000823683183988377	-0.00303820661792795	0.000816344154142924	-0.00303692838418859	-0.0147592613913242	0.00127927374266407
10	-0.0169635799420956	-0.00751770464307513	0.000397854943795609	-0.00311414155517836	0.000390319965103314	-0.00312653942498597	-0.0148454843495404	0.00207917344907432
10.1	-0.0190063006163732	-0.00396548249110646	-3.35142915860046E-05	-0.00313735721220377	-4.37085021685609E-05	-0.00313197262001249	-0.0146604979114998	0.00299791125941788
10.2	-0.0203428761459166	-4.38010081601335E-05	-0.000465655207434479	-0.00309998489902949	-0.000469057347282896	-0.00309722756081543	-0.014112995400196	0.00381436832363833
10.3	-0.0208909332807091	0.00420182214305443	-0.00088543178478394	-0.0030021956638892	-0.000877300789896968	-0.00301118130335067	-0.0134425437649943	0.00426295040837669
10.4	-0.0205025938936983	0.00855825484581908	-0.00127530554262447	-0.00286214084476725	-0.00127354360381222	-0.00286831254983087	-0.0128613026773779	0.00434292097408465
10.5	-0.0192326224604235	0.0128420809194136	-0.00166749147492965	-0.00268179215314865	-0.0016645578175526	-0.00266871450044215	-0.0125695093918839	0.00446927603213771
10.6	-0.0171207175210418	0.0168487144823799	-0.00203037011270593	-0.00242931160675848	-0.00202811015447812	-0.00243312812983458	-0.0123142315249612	0.00471452883102653
10.7	-0.0142613376712979	0.0205869431236897	-0.00236376729152766	-0.0021399026992782	-0.00236031142835123	-0.0021345061567157	-0.011948032650596	0.00505341767896659
10.8	-0.0105446628469714	0.0238818708460797	-0.00265657119314808	-0.00178378678278581	-0.00265116393094189	-0.00179278950763992	-0.0116239122535274	0.00527276652468817
10.9	-0.00610702823723729	0.026614756276802	-0.00288913593831756	-0.00140366222640555	-0.00289443928474571	-0.00140297179796835	-0.0116298166200611	0.00548241750641168
11	-0.000849651116676972	0.0282982303084659	-0.00306974351900517	-0.000971040140441678	-0.00307465921665193	-0.000977974816730026	-0.0114927753776136	0.00605392541007585
11.1	0.00475424282300249	0.0288150235292484	-0.00319255884595677	-0.000522261130787359	-0.00318142101134037	-0.000519307874481086	-0.0110200869135198	0.0067493002184721
11.2	0.0104126134361284	0.0281016055553965	-0.0032259531266094	-5.62297832278612E-05	-0.00323331505641584	-6.11695295877575E-05	-0.0100844596002212	0.00730991971079574
11.3	0.728300255332944	0.187426940488345	-0.0111004903421227	-0.0113626943938034	-0.0113412546783278	-0.0084345579796905	0.343848994744325	2.904015146579
11.4	4.35306886210241	6.40563913938731	0.00263257135572629	-0.0242515326949318	0.00170829625692637	-0.0233619029745907	-0.583231366814126	0.550418565402744
11.5	8.85219825765133	-3.352484507419	0.0367942019211865	-0.0255969313068535	0.0362435806133389	-0.0261011709025349	-0.204229992164142	-2.25177269301118
11.6	0.0287407872344299	0.0141467644970798	-0.00271085014291035	0.00170064913605414	-0.00271076691181514	0.00170363449033393	-0.00620268503819581	0.00560413529539196
11.7	0.0312305864212882	0.00875072306421698	-0.00242143835966403	0.00204942369565657	-0.00242180497678352	0.00205813005264403	-0.0055980317059859	0.00487452583260615
11.8	0.0326392592527964	0.00303566189656772	-0.00210292419822463	0.00236602878337965	-0.00210701832847712	0.00236783344674421	-0.00517728597920338	0.00383728264535738
11.9	0.0329158338986153	-0.00282123213018372	-0.001739480109293	0.00261929007037054	-0.00175239763219332	0.00262388781496737	-0.00534712401199274	0.00276249884660759
12	0.0324959474349224	-0.00881539352243541	-0.00136283256701843	0.00281743611089694	-0.00136221187594732	0.00281882910975317	-0.00559164214129206	0.00242581974113363
