# GHZ S RI R 50
0.2	0.00555729578959883	0.00637027876672687	0.00304833586880536	-0.000893837152565928	0.00305869231634068	-0.000887017933871969	-0.0143700885869226	0.0100172016693304
0.3	0.00678904876530555	0.00139580752505744	0.00290603270946793	-0.00131435003789096	0.00289876013023865	-0.00130143235508656	-0.012667896016109	0.00716005390549576
0.4	0.00566442037581156	-0.00232165517799462	0.00267839314759194	-0.00168400543117288	0.00268368999608384	-0.00169254819340664	-0.01307314986181	0.00560798935396359
0.5	0.00336489531233984	-0.00429331153641067	0.0024252413641853	-0.00204055730244593	0.00243684508842474	-0.00205275506170627	-0.0142192493537876	0.00564987180998557
0.6	0.00117522017236209	-0.00460340901794418	0.00211890955527894	-0.00235788454835927	0.00211816091260472	-0.00236505413565091	-0.0149740779572809	0.00702246186614769
0.7	-0.000200989557378892	-0.00401725312656389	0.00177698576167404	-0.00264168189392245	0.00177502335997939	-0.00264189340247258	-0.0147309779648807	0.00897516888034973
0.8	-0.000616910629730742	-0.00350683482408721	0.00139415862246604	-0.00286771275180826	0.00138151328539497	-0.0028723655116818	-0.0134495887288219	0.0106322731091943
0.9	-0.000806336712614211	-0.00360068494542714	0.000975932181912134	-0.00304131923833545	0.000977034883024161	-0.00305209628860192	-0.0117820955317842	0.0113220581342974
1	-0.00146483666998773	-0.00425999674789926	0.000545718319817209	-0.0031543632197389	0.000535764305035396	-0.00315515392993923	-0.0105357078582667	0.0111628537455054
1.1	-0.00308361748547845	-0.00485823822223098	8.04865486238584E-05	-0.00319040375399105	7.69874681230759E-05	-0.00320826146946782	-0.0102764520668085	0.0108924377862833
1.2	-0.00535071261798952	-0.0048663404376338	-0.00037377017948135	-0.00318326656097298	-0.000374592959526656	-0.00318116517960346	-0.0103152128322456	0.0112423332786022
1.3	-0.00755475704256859	-0.00416025017077869	-0.000813834597557507	-0.00309854890008671	-0.000817119311351408	-0.00310057326779913	-0.00957156882911756	0.0121600910241448
1.4	-0.00898728676880954	-0.00314374063344903	-0.00124699350682295	-0.00294378253271521	-0.00124578966977009	-0.00294938918994578	-0.00810380681556208	0.0125372402316902
1.5	-0.00952802517583292	-0.00158342566798704	-0.00165662535742591	-0.00273736685701764	-0.00165505180529557	-0.0027459744280927	-0.00669961313812746	0.0125994615108174
1.6	-0.00925195774087653	0.000516854761512462	-0.00202119348008452	-0.00247191107937662	-0.00202145155554495	-0.00247719458985301	-0.00589837257435282	0.0130949953350576
1.7	-0.00805582300416111	0.00242572862206368	-0.00234847918287709	-0.00216165877253296	-0.00234938966599425	-0.00215533955558727	-0.00458142262026681	0.0136737924647327
1.8	-0.00639660458929839	0.00378283963485581	-0.00261327525426419	-0.00179872092825253	-0.00262435969216143	-0.00180427042083645	-0.00311992784271069	0.0136782715250292
1.9	-0.00482046075266059	0.00439250237994411	-0.00282906694614338	-0.0014203356938323	-0.00284147759126086	-0.0014140323913484	-0.00210793024379747	0.0132893569300374
2	-0.00354625663794896	0.00470790856140114	-0.00299356540118089	-0.00100971142018796	-0.00300314776666688	-0.00100490513868146	-0.00161360210771114	0.0130419547853274
2.1	-0.00237084935436109	0.00497551179397489	-0.00309660649883177	-0.000583260486167808	-0.00309254421163348	-0.000585284390803737	-0.00113934232002238	0.0131326405032455
2.2	-0.00100726816797946	0.00525114176616839	-0.00314641306076196	-0.00015079066414992	-0.00315771058233231	-0.000153547224726757	-0.000220781730331111	0.0134257079196443
2.3	0.000664677007023771	0.0050551460178251	-0.00313842788758654	0.000284828138289967	-0.00313815614615165	0.000277961146038261	0.00107328088873005	0.0133562839945303
2.4	0.00229514115174828	0.00422916504722253	-0.00306721974205742	0.000715755144978487	-0.00306976551941519	0.00071151214849611	0.00237972204552091	0.0127856293551044
2.5	0.00345872515800464	0.00279634039176366	-0.00293511080890081	0.00112324328259026	-0.00294598850038071	0.00112962482102165	0.00331409261723391	0.0118110114531023
2.6	0.00407031747744382	0.00124052060714541	-0.00276794434190184	0.00152563554267267	-0.00276437617666831	0.00151330048917209	0.00382419507950171	0.0108935067628627
2.7	0.00443242447865021	-0.000196833844621037	-0.0025282201883562	0.00190094733325003	-0.00253351843695455	0.00190095349302499	0.0041210277607422	0.0102357047609671
2.8	0.00479810509005872	-0.00171449585762081	-0.00224866207921955	0.0022361800101393	-0.00224080677689206	0.00224602995857637	0.00446758623600259	0.00981543488852988
2.9	0.00499707348669508	-0.00354441362651032	-0.0019130375758471	0.00254624433927123	-0.00190929924027085	0.00254581040155199	0.00501407643312378	0.00948305135636462
3	0.00466545048011526	-0.00551406767096699	-0.00151999938022069	0.00279103091179	-0.00153490501113484	0.00279723540098907	0.00562220256437985	0.0092119415199186
3.1	0.003900051188764	-0.00727947221457208	-0.00111838333756883	0.00297470322035608	-0.00111362759101856	0.00298310881445582	0.0062275947382809	0.00901912692781069
3.2	0.0027589011312932	-0.00885360163955695	-0.00068299222974693	0.00311351540798428	-0.000684761369371414	0.00311291360682567	0.00688403900459395	0.0089288513806104
3.3	0.00136078747137566	-0.0103819040055981	-0.0002287372693659	0.00317854550179238	-0.000227116923186361	0.00317474679338941	0.00786121997042396	0.00855763995321379
3.4	-0.000510464628800971	-0.0117054051331812	0.000231919408325725	0.00316098724778662	0.000225912194249199	0.00317778930489857	0.00879459237747963	0.00768527801792758
3.5	-0.00285269905122604	-0.0127391597570339	0.000663191068686922	0.00310167072633036	0.000668822379354	0.00310164713702071	0.00923553478738479	0.0064541603039013
3.6	-0.00550835484638259	-0.0130566865855911	0.00109436807718647	0.00296219195187246	0.00110257697450392	0.00296171228867918	0.0093690493349808	0.00560103397308799
3.7	-0.00811981402880619	-0.0126720414059752	0.00149975994815549	0.00276045159700639	0.00149046523353129	0.00277431270198514	0.00967138279350935	0.00491630027362973
3.8	-0.0104556864582795	-0.0117630247020858	0.00186527706642171	0.00251542232451898	0.00186785774401315	0.00252447766470535	0.0100953448543321	0.00409506856227203
3.9	-0.0124398722371276	-0.0105880808400728	0.00219256879111112	0.00223004600709111	0.00218533280547542	0.00222842321208831	0.0103644214449769	0.00303569918216727
4	-0.014292085967071	-0.00919258066761494	0.00245564141773315	0.00190473667717108	0.0024599941025872	0.00190225576739874	0.0103599894573943	0.00205165849969426
4.1	-0.0159858048026842	-0.00742128871488046	0.00268613955623346	0.00154884898557802	0.00268491592571738	0.00154959142955513	0.0103385600996128	0.00134035577060048
4.2	-0.0173501240215465	-0.00521653910845625	0.00286756218129182	0.00115932281725973	0.00287186410641384	0.00115070428331097	0.010478225827047	0.000741099520196059
4.3	-0.0181834839929136	-0.00287227090128077	0.00299933791564442	0.000763892311255455	0.0030056012511486	0.00075617998086275	0.0107783716851656	-0.000139793019840237
4.4	-0.018723469297408	-0.000476041472331684	0.0030722725535631	0.000348374699547083	0.00307460220486341	0.000346148236202125	0.010819046988493	-0.00121541113662372
4.5	-0.0190078243563888	0.00201141813105937	0.00309901683804979	-7.28060492872607E-05	0.00310430104403798	-7.61283043150309E-05	0.0105934660560161	-0.00226816158639043
4.6	-0.0190360508712779	0.00467016394565188	0.00306472047927361	-0.000503352576703102	0.00306589931082187	-0.000490590152444285	0.0101723533199103	-0.00314155105131792
4.7	-0.0184710870744652	0.00752267720528456	0.00297201355629209	-0.000916405225385706	0.00298720121524629	-0.000925874926438863	0.00969491829686917	-0.00387206513026305
4.8	-0.0172188770361189	0.0103163076299794	0.00282303471857077	-0.00133113706746006	0.00283148907241235	-0.00133715531045101	0.00938467769973693	-0.00450968478803737
4.9	-0.0152294150877353	0.0127081806091282	0.00261105290899531	-0.00172128111710303	0.00261519737701283	-0.00171837135895889	0.00905860465160587	-0.00515994902981099
5	-0.0128283273701024	0.0145121919572096	0.00235479222249427	-0.00208535628879093	0.00235840790338224	-0.00208268891191301	0.00886306897283772	-0.0057272947544806
5.1	-0.00997849790053634	0.0158669802312137	0.0020414860233284	-0.00240494128412691	0.00204379010733525	-0.0024035852658675	0.00878408350019416	-0.00630247741054128
5.2	-0.00688539701939092	0.0166212683388684	0.00167618691391106	-0.00266087660670758	0.00167788064412062	-0.00266603290531146	0.00881737831788216	-0.00690335000698557
5.3	-0.00360941551550866	0.0166749723073666	0.00127843059755427	-0.00287718983163413	0.00128158003926287	-0.00287514876925671	0.00889179699913828	-0.00762672636009389
5.4	-0.000501186941150947	0.0159736860675565	0.000842143766057706	-0.00301903491061462	0.000859176199995421	-0.00303040544101866	0.00880231073888745	-0.00869779276461164
5.5	0.00213350609819375	0.0147224662851656	0.000419602353756199	-0.00310525118923129	0.000429499791298992	-0.00311476914684118	0.0082020881839266	-0.00983818721543413
5.6	0.00426327873282478	0.0131540551584638	-2.23664012286501E-05	-0.00312478422476313	-3.08751899017894E-05	-0.00312786075064635	0.00717242784760137	-0.0105530531671278
5.7	0.00596976219519767	0.0114292779332034	-0.000449408687991421	-0.0030757998968828	-0.000465887210209517	-0.00307918110002632	0.00621119410873188	-0.0107917715880951
5.8	0.00736340463173918	0.0095552432956405	-0.000882745465365052	-0.00296357783744169	-0.000886415256849917	-0.00297730361902795	0.00548699898092903	-0.0110795506553243
5.9	0.00840886484082979	0.00747009154791709	-0.00126828603384727	-0.00281151407644677	-0.00127635613513278	-0.00281134050922258	0.0046907772284817	-0.0115323049450325
6	0.0089398145618679	0.00509152262914454	-0.00164193548561399	-0.0026012642773556	-0.00163845654123531	-0.00260145575761139	0.00356637766543927	-0.0119129081986429
6.1	0.00886789409260393	0.00264638124060021	-0.00197170341406063	-0.00235262383296324	-0.00197328663880678	-0.00234871372469222	0.00247738471847334	-0.0119046529887541
6.2	0.00826692300946965	0.00029931456391316	-0.00226257429129103	-0.00205527300059082	-0.00226617326987755	-0.00206683787386659	0.00172746626224223	-0.0117848214028128
6.3	0.00740196999866904	-0.00190627725769566	-0.00252535807311267	-0.00174372247808425	-0.00253428670056281	-0.00173818771474074	0.0012980739395261	-0.0119227262958432
6.4	0.00603666489816996	-0.00407687559528273	-0.00274665739765247	-0.00138050109965144	-0.00273711212187203	-0.00138518016794701	0.000755330314277152	-0.012347969882403
6.5	0.00417257663626217	-0.00596693795941034	-0.00290900985931514	-0.001001918349178	-0.00291677371581757	-0.000997648082936684	2.92362573131301E-05	-0.0127727620256103
6.6	0.00191255275406185	-0.00720869821611938	-0.00303195143151277	-0.000598716656010731	-0.00303348586452115	-0.000602655456399818	-0.000677679202786348	-0.0129843789467151
6.7	-0.000407278446311107	-0.0077364173205822	-0.00310356147379338	-0.000174887960042615	-0.00311242870182687	-0.00016886013889923	-0.00141374428822738	-0.0130786329749176
6.8	-0.00264851052623621	-0.00771117551345891	-0.0031054641886645	0.000262236001137145	-0.00311657138934624	0.000267024789393611	-0.00217795563423171	-0.0131188401734114
6.9	-0.0048622777665384	-0.00718287628210884	-0.00305161625496483	0.000700161114981057	-0.00305463784384278	0.000702487296328755	-0.00309752304926883	-0.0130485071024864
7	-0.00694484393025998	-0.0062546167652664	-0.00293135021964857	0.00113257858537765	-0.00294414513712874	0.00113016881278713	-0.00405810419269041	-0.0129504325399276
7.1	-0.00896176290556364	-0.00478885923078871	-0.00276262602518429	0.00153676721852298	-0.0027590695666829	0.00154550717403282	-0.00512266689843734	-0.0124631771841807
7.2	-0.010653351288345	-0.00272336166717657	-0.00250741490856648	0.00192087401251861	-0.00251399358063055	0.00192289628457703	-0.00581979850292247	-0.0116369220878637
7.3	-0.0118537034040261	-0.000251528808309614	-0.0022062906312617	0.00225286676304535	-0.00221758709965414	0.00225787130897202	-0.00596779555709528	-0.010973089633477
7.4	-0.0123538172384439	0.00260779845258478	-0.00185457580727809	0.00254338120939579	-0.00186152412288787	0.00255701727120065	-0.00620304096430175	-0.0105825632827202
7.5	-0.0122662341490627	0.00519135161243492	-0.00147748640807181	0.00278295614205294	-0.00147048524026877	0.00279036329808226	-0.00634772304909027	-0.0107823947395282
7.6	-0.0119378831095297	0.00734495231267534	-0.00106187334120004	0.00295488556267456	-0.00106325414069935	0.00295019889396619	-0.00669676612089266	-0.0116535100020315
7.7	-0.0106679544740775	0.00946797495261105	-0.000629573150763509	0.00306453820514516	-0.000630908764307078	0.00306348556126124	-0.00736127975296286	-0.0119843427093234
7.8	-0.00900217307417158	0.0111680646086789	-0.000207318536783291	0.00310016561085691	-0.000215041470379708	0.00310657744397201	-0.00830737679414368	-0.0124235552042435
7.9	0.289172011506957	-0.104284421641474	0.000829571106397697	0.00256335560369423	0.000815457381528316	0.00247678045145666	0.427532322793016	0.233316540557885
8	0.331711100714748	0.182137082669554	0.00125531839139345	0.00424217325287112	0.000677801915589661	0.00608674328261458	2.81565841229969	1.67910505089656
8.1	-0.00212138586952631	0.0129607841105151	0.00103532055514293	0.00290327373077258	0.00105412020417472	0.00290449663467071	-0.0118193117499854	-0.0113779024772313
8.2	0.000170455368657466	0.01292684382835	0.00141979826521255	0.00273572556206633	0.00142897378354335	0.00272878270496384	-0.0124665157142895	-0.0104238513334483
8.3	0.00254984903587284	0.0124651573502746	0.00178203116482896	0.00251916253904435	0.00178016530729516	0.00253245663525643	-0.0128079401985593	-0.00969439361158894
8.4	0.00485111602411792	0.0115245300729814	0.00211317185680435	0.00226946314504806	0.00211018824454962	0.00226917146796965	-0.0132587619685383	-0.00927042534284481
8.5	0.00689857294240361	0.0100302778653661	0.00240626238806006	0.0019678367337106	0.00240528786732452	0.00197096628918968	-0.014048586613013	-0.00877129648275116
8.6	0.00851421434391598	0.00820075277046339	0.00267061093441929	0.00163260289062536	0.00268026434125331	0.00162636796983927	-0.0148703842934471	-0.00796903442137386
8.7	0.00974617017628638	0.00612196366575036	0.00288356703890136	0.00124646854377589	0.00288911485465761	0.00124736156078156	-0.0154839039053673	-0.00699349921982728
8.8	0.0106404153894268	0.00380151054318499	0.0030513799064734	0.000841267261884749	0.00305745224240625	0.000832611428742141	-0.0158792812377464	-0.00615322240121024
8.9	0.0112341315469488	0.00111376186111949	0.00315998067130421	0.000401036532818083	0.00315915995083103	0.000398736229519509	-0.0160654014922703	-0.0053441216934297
9	0.0112410293681209	-0.0019798947622561	0.00319596900766943	-5.93567833274604E-05	0.00319908345512164	-5.5108042445872E-05	-0.0161350253312155	-0.00455809114337801
9.1	0.0106412595936036	-0.00526059245578466	0.00316750058215235	-0.000525513242244316	0.0031701953888503	-0.000512290469510849	-0.0159498240129407	-0.00377692571508104
9.2	0.00902758268371826	-0.00841716620951944	0.00306481083294827	-0.00097122630843534	0.00307268477833847	-0.00097405937352272	-0.0157498691050763	-0.00315138291932701
9.3	0.00669289645414204	-0.0111372284644051	0.00289229797358848	-0.0014038737689355	0.00289159505440367	-0.00140898748522329	-0.0154687100626812	-0.0026239248611519
9.4	0.00365757442834745	-0.0131744311066239	0.00265671573818475	-0.00181669988141171	0.00266334267663046	-0.00180890633789056	-0.0153013430062051	-0.00204853856027783
9.5	4.59935942687857E-05	-0.0146625269831289	0.00236218823432073	-0.00216488716949362	0.00236974787462607	-0.00216626423252174	-0.0154509589926141	-0.0017039164630033
9.6	-0.00391485797476412	-0.0150060693392517	0.00202390764569513	-0.00247298543373273	0.0020242465115543	-0.00247198844114474	-0.0156577829993096	-0.000989742351804894
9.7	-0.00789822031627592	-0.0142563563134581	0.00163779955719941	-0.00271852828751705	0.00164336150290716	-0.00272595459621487	-0.0156561555258156	-7.13334075799557E-05
9.8	-0.0115783004081157	-0.0125855119890281	0.00124037798914609	-0.00291563599337456	0.00124616946317639	-0.00290710566102687	-0.0154609460787943	0.000756906155957084
9.9	-0.0146951316112826	-0.010202267836878	0.000831406349932852	-0.00304000819378022	0.000824055719435641	-0.00303874471300193	-0.0153126984573987	0.00140120200207639
10	-0.0173894983037254	-0.00722870806429483	0.000406532937774372	-0.00311606116566212	0.000399023782461474	-0.00312849097419147	-0.0153261899751335	0.00215389131861136
10.1	-0.0194856200325919	-0.00372882242362985	-2.33050839987518E-05	-0.00314041457236923	-3.35264493015272E-05	-0.0031350581957722	-0.0151684259503367	0.00301289532042038
10.2	-0.0208668252776277	0.000233864616529584	-0.000454051755054367	-0.00310553731746719	-0.000457468802025748	-0.00310279001427083	-0.0146782071375826	0.00386630847518838
10.3	-0.0213667025258639	0.00452165059663067	-0.000873393186885662	-0.00301147705028328	-0.000865207227082676	-0.00302044165376785	-0.0139681615237402	0.00440240885066134
10.4	-0.0209122446131569	0.00881635073815078	-0.00126436287944817	-0.00287581757961381	-0.00126256576907406	-0.00288199636821114	-0.0132630476379023	0.00447909893000664
10.5	-0.0196859918749113	0.0129828797070123	-0.00165958600239906	-0.00269991526378217	-0.00165670935717365	-0.00268677603565356	-0.0129059464759348	0.00447956809423493
10.6	-0.0177161531862462	0.0169540673831686	-0.00202745221894961	-0.00245078818067765	-0.00202516253254383	-0.00245461088332468	-0.0127158663740206	0.00459937742012019
10.7	-0.0149700280459844	0.0207720220219155	-0.00236713316152613	-0.00216304176890985	-0.00236368297223043	-0.00215759857582311	-0.0124577980337281	0.00491185816694918
10.8	-0.0112703846490475	0.0241623931043594	-0.00266687838801181	-0.00180624874113368	-0.00266139920655606	-0.00181528896684169	-0.012180859709366	0.00515787127183448
10.9	-0.00682500418341639	0.02693673684383	-0.0029059128803997	-0.00142321925849611	-0.00291125745775477	-0.00142254068818267	-0.012207448988319	0.00534006524070665
11	-0.00160799378812546	0.0286318534471024	-0.00309195084308841	-0.0009855032582279	-0.00309689025217306	-0.000992503761442593	-0.0121308168167578	0.00584192122314906
11.1	0.00391145991261531	0.0292299388905895	-0.00321841101072464	-0.000530156768924192	-0.00320718425132622	-0.000527166599727607	-0.0118195509996372	0.00650650826781645
11.2	2.67250712285517	2.83765401333027	0.00913158355295276	0.0043891549297562	0.0166501784679885	0.0230315816213015	-0.715221739625339	-0.890013423981671
11.3	0.655187414368788	0.320533850955425	-0.0092364291663973	-0.0128711953324822	-0.00985227555865056	-0.0102349194174922	0.273069527891287	3.07694279257364
11.4	0.020276766435337	0.0238700375896799	-0.0031247212066674	0.000886600938032194	-0.00311952596608469	0.000894326155445219	-0.0085679414168947	0.00711724798502176
11.5	0.0249176223884525	0.0199861277414467	-0.00295168865452359	0.0013233503335024	-0.00295431971374098	0.00133397094296459	-0.00778347931754229	0.00688987546137683
11.6	0.0285173834191178	0.0149714943663537	-0.00272266278768313	0.00172240214478773	-0.00272256766167606	0.00172540730226205	-0.00702942409224909	0.00622812269762026
11.7	0.0310190637277521	0.00944254739374791	-0.00242694172777919	0.00207194481763459	-0.00242727309030817	0.00208070421024805	-0.00630221018351871	0.00540472458303614
11.8	0.0325863068139011	0.00365897321199305	-0.00210274919237018	0.00238755224219401	-0.00210685575299417	0.00238938467327084	-0.00567230456244257	0.0044850464588158
11.9	0.0330275852991404	-0.00215177192085318	-0.00173492696733331	0.00263812649322485	-0.00174787782233289	0.00264280189279956	-0.00573735065172681	0.00382098621582777
12	0.0324418008007486	-0.00854022850578836	-0.00135556311132794	0.00283322588931556	-0.00135493425616612	0.00283462114439366	-0.00585053307717656	0.00282380239598506
