# GHZ S RI R 50
0.2	0.00669659705980404	-0.00152422286469674	0.00304834374676605	-0.000899691035892147	0.00305871764262406	-0.00089288657139858	-0.0132818267148072	0.00211208913193122
0.3	0.00620265541181726	-0.00200942232878569	0.0029032488064484	-0.00132427890458023	0.00289601396770027	-0.00131133167940681	-0.0132924572488903	0.00379795339879839
0.4	0.00615648085241876	-0.00234272521149218	0.00266996616283406	-0.00169685423545128	0.00267522103521187	-0.00170542192174182	-0.0125348829666447	0.00567045111143726
0.5	0.00632000359575367	-0.00305765864838908	0.00240878124037432	-0.00205356870865345	0.00242029042242818	-0.00206582548176215	-0.0110916305170313	0.00693509035673759
0.6	0.0062543108241684	-0.004282039835636	0.00209370320699113	-0.00236683358016274	0.00209290104090655	-0.00237397427675135	-0.00962774088904646	0.00727101079864578
0.7	0.00541298122967571	-0.00575173437742974	0.00174439994890602	-0.00264205270111944	0.00174244675809537	-0.00264224622854467	-0.00884692778714586	0.00700994166264506
0.8	0.00376137362849937	-0.00692609325079884	0.00135791711441282	-0.00285580437058308	0.00134533712728341	-0.00286030977090479	-0.00888481913997545	0.00687460001896431
0.9	0.00147968704212596	-0.00719120494988421	0.000941360038998457	-0.00301512605464071	0.00094236641559052	-0.00302579191336339	-0.00940596110098929	0.00738799722395432
1	-0.000691198679251571	-0.00638862898943511	0.000518776927355106	-0.00311448208087505	0.000508954508575146	-0.00311520054343943	-0.00969145288063498	0.00875517746529528
1.1	-0.00218091557060423	-0.00489835437871885	6.71901501455416E-05	-0.00314018666088276	6.36791876306274E-05	-0.00315774841252992	-0.00922745612660352	0.0106106672058502
1.2	-0.0028541197393634	-0.00365062863411615	-0.000369819359823208	-0.00312803902636011	-0.000370626291103982	-0.00312597326279826	-0.00761291125035317	0.0121165152595138
1.3	-0.00351413435707661	-0.00317134544947079	-0.000791439559708467	-0.00304540795584796	-0.000794660585367961	-0.00304740461795271	-0.00538058773734268	0.0126888454533875
1.4	-0.0044319502816981	-0.00278599732275861	-0.00120769095418933	-0.002899861633777	-0.00120647469545951	-0.00290536330596134	-0.00344522650110239	0.0123051331517066
1.5	-0.004751082333617	-0.00189340129562334	-0.00160480677596284	-0.00270839284335252	-0.00160317970379801	-0.00271684712921427	-0.00190001139686961	0.011548496411928
1.6	-0.0045303353849345	-0.000918812860427112	-0.00196361853666914	-0.0024614085353895	-0.00196381025719602	-0.00246662135247622	-0.00122674820098095	0.0108224572960735
1.7	-0.00419434787463162	-4.50656552272216E-05	-0.00229245140482495	-0.00217011805245783	-0.00229343920597251	-0.00216388170540004	-0.00100243184211816	0.010394825115391
1.8	-0.00386796607745694	0.00110825146852514	-0.00256597864205783	-0.00182338510095732	-0.00257689336825546	-0.00182905558357292	-0.000981742579342527	0.0104078441581669
1.9	-0.00317947747580796	0.00238087995160048	-0.00279515143162186	-0.00145586769545865	-0.00280759927887082	-0.00144977715422791	-0.000793763542571382	0.0108709522474676
2	-0.00195474024852628	0.00353024232324556	-0.00297529821233611	-0.0010495067253879	-0.0029849329031172	-0.00104483950809948	-0.000175717190622219	0.011502798339572
2.1	-0.000295186604349314	0.00408625181007468	-0.00309292065085579	-0.000620421471363806	-0.00308883027182023	-0.000622399508711424	0.000895188605366786	0.0117593075617638
2.2	0.00133852382922288	0.00396891833191562	-0.00315330290284031	-0.000179939338988835	-0.00316460492104618	-0.000182806381575965	0.00202308816073523	0.0115072980287506
2.3	0.00257612120020552	0.00326323454389161	-0.00314997803904512	0.000266474728667903	-0.00314966334414759	0.00025958795170566	0.00270782460253617	0.0109263134684739
2.4	0.00331358082021615	0.00249431109429158	-0.00307704186563909	0.000707720556174395	-0.00307958035104764	0.00070345900538334	0.0030449842490475	0.0106414390362774
2.5	0.00387639053827832	0.00186408203643024	-0.00293791513675369	0.00112193868026697	-0.00294880478912788	0.00112831690362809	0.00353946839524947	0.0106770401329561
2.6	0.00462479093698627	0.00120812811717644	-0.00276106516657697	0.00152525920337484	-0.00275751568182017	0.00151294499511812	0.00447156609750861	0.0106777127752419
2.7	0.00549003533384375	0.000192868897390373	-0.00251231443619807	0.00189497123639144	-0.00251758536575956	0.00189498537484952	0.00546073993731764	0.0102830725831605
2.8	0.00617939835242865	-0.0012155694397342	-0.00222757879460987	0.00221910629996649	-0.00221978177142962	0.00222886558464834	0.0061879903832241	0.00980998496067842
2.9	0.00661039036905478	-0.00280103258568085	-0.00189327713068527	0.00251477164060087	-0.00188958183977746	0.0025143463950332	0.00701227870246958	0.00956520859651597
3	0.00678525371830823	-0.00451512437114186	-0.00150938598871775	0.0027456545994944	-0.00152410508299637	0.00275171330997192	0.00816565118944125	0.0093190722849479
3.1	0.00673288308687373	-0.00646618882211866	-0.00112366406312177	0.00291926573849057	-0.00111904786346321	0.00292757559055306	0.00940103193889361	0.0086443519034848
3.2	0.0060233640274933	-0.00863978896912899	-0.00070944373341954	0.00305492444805269	-0.00071117700686607	0.00305431107393622	0.0101897452271743	0.00771349009395746
3.3	0.00457029737371623	-0.0107819102339328	-0.000277946633166032	0.00312601367364358	-0.000276288130335129	0.00312230008639207	0.0107227414570845	0.00674404002151986
3.4	0.00240622401021238	-0.0123734108204898	0.000162617371064861	0.00312422481539839	0.000156337119679265	0.00314067972801724	0.0111247454057172	0.00582536707710525
3.5	-8.89081831625035E-06	-0.0133785688977427	0.000579891093861618	0.00308789136779298	0.000585468141840979	0.00308800751818875	0.0114260474704215	0.00484276994177127
3.6	-0.00253827983429494	-0.0138662783759684	0.0010067723581165	0.00297696275842032	0.00101495161963351	0.00297671250195963	0.011696093737334	0.00389459814241848
3.7	-0.00513058152629182	-0.0139776693722066	0.00141910839748152	0.00280450739140717	0.00140940758755443	0.0028180975202066	0.0118945724812009	0.00281834311853769
3.8	-0.0079379299817449	-0.0135887995683471	0.00180211007396066	0.00258471772826307	0.0018044395431707	0.00259390105247119	0.0117464387126112	0.00177757830588937
3.9	-0.0106863932881986	-0.0124680839896284	0.00215523317706826	0.00231665298360911	0.0021479601863716	0.00231480963644148	0.0114229679657835	0.00106917955086766
4	-0.0130645996617955	-0.0106519847281718	0.00244853543706756	0.00199723748196863	0.00245302148634671	0.00199482426613834	0.0113565725173232	0.000713388519945504
4.1	-0.0148399472214941	-0.00844322348328135	0.00270906203707861	0.00163580365328522	0.00270779813357204	0.0016365360438171	0.0117130978662614	0.000296956876163956
4.2	-0.0161685899994347	-0.00608550195654269	0.00291545293955473	0.00123001858098761	0.00291998608214779	0.00122126868948993	0.0120948147379915	-0.000455262040935124
4.3	-0.0172043030764831	-0.00366297781849713	0.00306305002091688	0.000811336828652198	0.00306953737651431	0.000803502693010792	0.0122243291702579	-0.00141545202155367
4.4	-0.0180357188160741	-0.000922589564405861	0.00314084263386075	0.000369771429166959	0.00314323518302764	0.000367504365949421	0.012070813790708	-0.00220134223947377
4.5	-0.0183339898877269	0.00217262835141344	0.00316206044739832	-7.50826929654945E-05	0.0031674513299607	-7.84739087328464E-05	0.0120644620618018	-0.00279325009386951
4.6	-0.0179412458357232	0.0053167147959636	0.00311402825365145	-0.000523001888857838	0.00311527359996121	-0.000510030765651935	0.0121857990874881	-0.0035879002633987
4.7	-0.0167967524864869	0.0082322817989133	0.00300353125883899	-0.000944250107482119	0.00301885332075245	-0.000953921084243883	0.0121395875663585	-0.00464461214127022
4.8	-0.015279901998564	0.0107482479990779	0.00283721730455889	-0.00135800125228801	0.0028457022518961	-0.00136411575670179	0.0117462692112797	-0.00567201742575693
4.9	-0.0132599071551901	0.0129993387814986	0.00261254210593932	-0.00173933373340636	0.00261671465002977	-0.0017364324616441	0.0112785041916374	-0.00635365307315246
5	-0.0107517893565564	0.014852868019948	0.00235121698574815	-0.00209015905509055	0.00235483830920654	-0.00208749810550718	0.0112250353201901	-0.0068199384957798
5.1	-0.00760794958623405	0.0161003503858848	0.00204160616404542	-0.00239625644217606	0.00204390301356942	-0.00239489906458128	0.011419557239438	-0.00762323389780032
5.2	-0.00440950984983082	0.0164230815754373	0.00168773054788928	-0.00264290852869839	0.00168945112094819	-0.00264803956984082	0.0113416125547753	-0.00870056927484192
5.3	-0.00149706356665893	0.0160801578784634	0.00130645028991723	-0.00285744764066536	0.00130957126901526	-0.00285537726532347	0.0108943339186508	-0.00959753031427408
5.4	0.0010644497941843	0.0154504569310335	0.000887362357400225	-0.00300715003343408	0.000904568200856467	-0.00301826906471479	0.0104460620451753	-0.010322458830249
5.5	0.00347701935522634	0.0146540060849031	0.00047838843254607	-0.00311002306366565	0.000488500685831638	-0.00311939730460932	0.0100485273443826	-0.0110669060130833
5.6	0.00586886326410116	0.0134433882131091	4.19911025872498E-05	-0.00315343871185332	3.34691084643996E-05	-0.0031567187895747	0.00950486557420874	-0.0118838072225027
5.7	0.00792758322527936	0.0116690507570123	-0.000390317507744843	-0.00313104657197582	-0.000406968247867354	-0.00313483024977451	0.0086245765506094	-0.0126759775413946
5.8	0.00941823785829922	0.00940644267765599	-0.00084117268162987	-0.00304369528227403	-0.000844641140371485	-0.00305778363655827	0.00745951549485503	-0.0134535131661206
5.9	0.010128754945249	0.00707006802438029	-0.00125384488106064	-0.00290903761268118	-0.00126213503894572	-0.00290899874509524	0.00596010043311151	-0.0138236100285672
6	0.0102420998851558	0.00485435920610656	-0.00166198920439851	-0.00270473538146957	-0.00165839681508653	-0.0027048896914802	0.00447164783571149	-0.0136225258717816
6.1	0.0100428704969153	0.00279270411636399	-0.00202725363315307	-0.0024481411695337	-0.00202891694026045	-0.00244410204288819	0.00354605891468923	-0.013103028031387
6.2	0.00955714346840074	0.000647809301819784	-0.0023488236979104	-0.00212885966101893	-0.0023525694324633	-0.00214084912889311	0.0030544720998025	-0.012887119344093
6.3	0.00862959048594687	-0.00156321467388297	-0.00263263072218292	-0.00178544800588439	-0.0026418371492847	-0.00177963384361376	0.00257622964296307	-0.0130409815308106
6.4	0.00715899350390291	-0.00356480196921562	-0.00286102750807781	-0.00138398992894972	-0.00285123349418335	-0.00138897672669901	0.00217509402916139	-0.0132114779571706
6.5	0.00549909237397292	-0.00510742962442922	-0.00301543993481983	-0.000968471744068423	-0.00302333824115679	-0.000963909671833019	0.00203167359096199	-0.0135759720630762
6.6	0.00377203868692537	-0.0062848163315877	-0.00311780470756454	-0.000534682915215934	-0.00311947606165066	-0.000538673803251106	0.00180721740760565	-0.0143313012765273
6.7	0.00180858681998906	-0.00718212566462394	-0.00315996927247637	-9.11995448220555E-05	-0.00316881554129878	-8.48242408664891E-05	0.000865197357954568	-0.0151223702382598
6.8	-0.00054760412462139	-0.00755186845534275	-0.00312890328691851	0.00035198830774603	-0.00313998625123117	0.000357136300571014	-0.000548494640562272	-0.0153272560998296
6.9	-0.00306239104473246	-0.00714166236759371	-0.00304473490833511	0.000783219383535585	-0.00304770665961692	0.000785633995023353	-0.00174950985254658	-0.0149557200472028
7	-0.00524317859489663	-0.00587009884422136	-0.00290147933581716	0.00119867839546132	-0.00291431333658618	0.00119656659436243	-0.00253062032940346	-0.0144260762245408
7.1	-0.00687832540001073	-0.0041556638887861	-0.0027205019179392	0.00158051412266703	-0.00271680064121703	0.00158914505338797	-0.00311570927013499	-0.0140331341450672
7.2	-0.00800084717701269	-0.00235375025958126	-0.00246448221182062	0.0019413168109529	-0.00247098868760796	0.00194341340063432	-0.00369269060277688	-0.0138347672727987
7.3	-0.00898439669977135	-0.000608032033987469	-0.00217272206151171	0.00225493312976002	-0.00218389931810612	0.0022599938403916	-0.00445174601784865	-0.0137357816157126
7.4	-0.0100281788820476	0.001251541411107	-0.00183682446655994	0.00253559534356196	-0.00184369354614594	0.00254918038045319	-0.00538004329084479	-0.0136265704781468
7.5	-0.0108476468162539	0.00362198118989285	-0.00147721440819244	0.00277586145458894	-0.00147023470364898	0.00278326043798438	-0.00617029043618582	-0.0131565524085082
7.6	-0.0108260733685014	0.00644422176115549	-0.00107555517691046	0.00295863848323492	-0.00107692224024756	0.00295393453242745	-0.0066872030934428	-0.0124952199282816
7.7	-0.0102758758849371	0.00891395878730724	-0.000648847548182962	0.00308636017008751	-0.000650189068130784	0.00308529284360316	-0.00719099926530296	-0.0129700258814752
7.8	-0.00887545448061599	0.0110783076911315	-0.000221188798646679	0.0031423371483055	-0.000229041372256465	0.00314881031831335	-0.00803563315513652	-0.0129308623140586
7.9	-0.00704092061008183	0.0129841575365133	0.000225455013893092	0.00315515900345646	0.000233443305178082	0.00315667148394279	-0.00866395171710036	-0.0126570193320024
8	-0.00413444315726816	0.0143557830112793	0.000675537817547491	0.00308577733317667	0.00067562448996459	0.00309071242767962	-0.00901569468123474	-0.0120036538041774
8.1	-0.00102316765278297	0.0150661935546649	0.00109544277989351	0.00296704319606392	0.00111474590726575	0.00296808319219291	-0.00947889768217758	-0.0119956294968155
8.2	0.00217597555357543	0.014755531561606	0.00150903711814989	0.00278085804381993	0.00151832267431339	0.00277355845152954	-0.0100876456965881	-0.0118352438313363
8.3	0.00497388070226792	0.0137045474844534	0.00189197592474797	0.00253277768248139	0.00189041777479473	0.00254644273005941	-0.010885326313937	-0.0114761519083929
8.4	0.0072460168263123	0.0123406842867032	0.00223041903895875	0.00224366414113688	0.00222736699324858	0.00224346620140395	-0.0116714227364204	-0.0108617222059576
8.5	0.00922495598058696	0.0107649670280006	0.00251411318980938	0.00190094341538688	0.0025132466447342	0.00190415202938059	-0.0122862873128441	-0.0100680719306367
8.6	0.011045036864549	0.00891800524141151	0.00275359498891266	0.00152974537582857	0.00276304027489601	0.00152307214869075	-0.0126552817651243	-0.00941367688426862
8.7	0.0126511294901222	0.00648328790947029	0.00292869683385558	0.00111948633536875	0.00293426705215759	0.00112013933843497	-0.0130784762737861	-0.00904579157368447
8.8	0.0135820772125215	0.00351397542250661	0.00305261252930118	0.000705471406810547	0.00305825900786504	0.000696659248475953	-0.0139299076504533	-0.00867530540889965
8.9	0.0137002466649564	0.000318330778017169	0.00311705836781897	0.000273402095239721	0.00311616522289447	0.000271175378270182	-0.0147227271812684	-0.00774190165567139
9	0.0130838147690693	-0.00276476772661556	0.00311575011475118	-0.000163182564934357	0.00311892825391532	-0.000159140462072759	-0.0149843018644421	-0.00645312889507167
9.1	0.0119855201846176	-0.0056669697044256	0.00306206344561256	-0.000594567523868281	0.00306503205245671	-0.000581798223413775	-0.0147206878541922	-0.00537274198925427
9.2	0.0103091597461897	-0.00853964687144816	0.00294982478546502	-0.00100067250961654	0.00295739671507537	-0.00100357064256091	-0.0144209892785419	-0.00467822411140072
9.3	0.00783641175576093	-0.0111058681537704	0.00278314153174332	-0.00139496689295737	0.00278239786382025	-0.00139990955914968	-0.0141915077097762	-0.00398276200448486
9.4	0.00466945152567008	-0.0130075478593823	0.00256642472515865	-0.00177659730718162	0.00257289484604873	-0.00176907583661506	-0.0138833753277061	-0.00332388336160583
9.5	0.00114086585375602	-0.0137367948296866	0.00229938962330953	-0.00210616353231038	0.00230674679617984	-0.00210750161126219	-0.0134045049075415	-0.00260723660751175
9.6	-0.0023645415679307	-0.0137938283328926	0.00199078424274034	-0.00240920495850447	0.00199111104416656	-0.00240822834510665	-0.0131101615040248	-0.00233824270756725
9.7	-0.00582397755809908	-0.0132369091047162	0.00163053684031897	-0.00266288337869146	0.00163606132286715	-0.00267014996964867	-0.0131308025582338	-0.00213073562617416
9.8	-0.00936176866579185	-0.0120976445273544	0.00124951125841233	-0.00287725172824026	0.00125518162647994	-0.00286876403451118	-0.0134693153518389	-0.00171093518973477
9.9	-0.0129267134678709	-0.00999452904155622	0.000844541202618091	-0.00302270681384217	0.000837214504347614	-0.00302148882841852	-0.0139650033244998	-0.000825072532524394
10	-0.016022710201191	-0.00694687226429472	0.000411273236986677	-0.00311705933845277	0.000403778332596487	-0.00312950641092937	-0.0140521989167407	0.000287551880234989
10.1	-0.0182281469545188	-0.00314838793273475	-3.64990875565662E-05	-0.00315096797970306	-4.6732749465781E-05	-0.00314555075039134	-0.0137437638645497	0.0012139253546183
10.2	-0.0194718660013575	0.000923225372628411	-0.000489074960556747	-0.00311288510764964	-0.000492476035241929	-0.00311009043254791	-0.0133463232342532	0.00190360994240643
10.3	-0.0199597546232145	0.00509012389990125	-0.000926983429654053	-0.00300221975406032	-0.000918936233937959	-0.00301134271671854	-0.0129990949714945	0.00254964180018426
10.4	-0.0197349174766821	0.00939642924362333	-0.00132700629217176	-0.00283976289041998	-0.00132535497040121	-0.00284596745700331	-0.0124007363509715	0.00316712059015474
10.5	-0.0186130669383394	0.0139140175964053	-0.00171741426494273	-0.00263155108907984	-0.00171421032366205	-0.00261860498869801	-0.0115653980245577	0.0036736960023937
10.6	-0.0163230499425715	0.0182565438806469	-0.00206435614300077	-0.0023525646481518	-0.00206221342545076	-0.00235639020380301	-0.0106603937479739	0.00378030979832871
10.7	-0.0130561100428606	0.0219886875412622	-0.00236987615135254	-0.00204391133487847	-0.00236635782331673	-0.00203869773560401	-0.00998579164290214	0.00367454558577138
10.8	-0.00904562848935949	0.025033442365017	-0.00262626137302469	-0.0016815171021812	-0.00262118431059572	-0.0016904035577899	-0.00965292495101126	0.00368504093813432
10.9	-0.00469406443574062	0.027298861192377	-0.00282106259527826	-0.00131010218520193	-0.00282618564855226	-0.00130934387808096	-0.00934325217072889	0.00387686479688838
11	0.000244741043856133	0.0289867415027671	-0.00296815558080541	-0.000901836369737318	-0.00297296765580899	-0.000908463514593546	-0.00880146648108282	0.00414813328207058
11.1	0.00577607705337983	0.0297495477233382	-0.00306805087082829	-0.0004893476488009	-0.00305734307588381	-0.000486554043663469	-0.00807641249782729	0.0041053037828717
11.2	0.0116353649404384	0.029131181955492	-0.0030943695281069	-6.67854208561857E-05	-0.0031014120132839	-7.15533366063976E-05	-0.00746441744527152	0.0037753903557693
11.3	0.0173516285492978	0.0271298728485687	-0.00307039812806948	0.000366434369926347	-0.00308173537198934	0.000356505495807482	-0.00712009310784823	0.00350714402848864
11.4	0.0221835096242739	0.023938180711173	-0.00300479649681925	0.000781059830605807	-0.00299999549898481	0.00078855217316988	-0.00679971273317962	0.00331083463833081
11.5	0.0262197310206465	0.0200460833744931	-0.00287383156716401	0.00118760623484604	-0.00287666177746771	0.00119773641753579	-0.00646701704233223	0.00291860824817908
11.6	0.0297522493445118	0.0154264084794634	-0.0026937005518348	0.00157424844376213	-0.00269371083126833	0.00157716012900468	-0.0061754490499879	0.00239874576138461
11.7	0.0324316428872252	0.00999892321125505	-0.00244637788487481	0.00193095981920245	-0.00244703024471407	0.00193949606804937	-0.00609668426990731	0.00172993438645381
11.8	0.0339023343551772	0.00400162347271659	-0.00216257412035786	0.00226954496565665	-0.00216668819032222	0.00227119054235304	-0.00625699464132853	0.00131968706467829
11.9	0.034135235534842	-0.00197321688651146	-0.00182072520937882	0.0025553772780338	-0.00183375932205097	0.00255953958611568	-0.00626453247550968	0.00164348612601261
12	0.0331098916882786	-0.00791539371954243	-0.00144993816828894	0.0027890684010634	-0.00144935541820889	0.00279048491657564	-0.00599387558018697	0.00167153154276151
