# GHZ S RI R 50
0.2	0.006696056296738	0.000851371587862776	0.00304826785375654	-0.000897722709393414	0.00305863569784177	-0.000890913501971053	-0.0132759069759564	0.0044790822699998
0.3	0.00652421780863867	-0.00106926618599864	0.0029041475358886	-0.00132089014979125	0.00289690000886257	-0.00130795314897768	-0.0129693456292817	0.00471755179436178
0.4	0.00601470726202662	-0.00230288676396332	0.00267279619194014	-0.00169244898003448	0.00267806528700177	-0.00170100803847225	-0.0126906084695433	0.00567977725639694
0.5	0.00545713253962386	-0.00321572304600819	0.00241436512438364	-0.00204908017936784	0.0024259064224817	-0.00206131653908105	-0.0119918955225753	0.00674652610382251
0.6	0.00490286813132423	-0.00406325964179138	0.00210230365868575	-0.00236370610603968	0.00210151987983567	-0.00237085654730512	-0.0110394560458214	0.00747314093846775
0.7	0.00407252943247647	-0.00495374100277453	0.00175557199915358	-0.00264184673805649	0.0017536156936428	-0.00264204645308647	-0.0102609686768958	0.00781538219838018
0.8	0.00287637186632008	-0.0057664710385381	0.00137039279104386	-0.00285982153422042	0.001357790653422	-0.00286437769583508	-0.009843868981954	0.00806674336003543
0.9	0.00117032128281155	-0.00613233630763594	0.000953296454461446	-0.00302408135972013	0.000954336150070164	-0.00303478531596171	-0.00978076613250268	0.00849681704521583
1	-0.000702693476828073	-0.0058216820595032	0.000528108706182617	-0.00312818194944321	0.000518241059802567	-0.00312892546930244	-0.00975818096711436	0.00938069958600465
1.1	-0.00238309526438381	-0.00485509922206686	7.18281684519136E-05	-0.0031574927047912	6.83216110978048E-05	-0.00317515652181105	-0.00947362165822361	0.0107161629661936
1.2	-0.00355189324960007	-0.00377677657168428	-0.000371151966836113	-0.00314711474031527	-0.000371964392201815	-0.00314503668489205	-0.00832599486730128	0.0120648645383365
1.3	-0.00454395746637914	-0.00309639392088419	-0.000799185346251049	-0.00306377730582408	-0.000802428391004708	-0.00306578354129513	-0.00638452385102427	0.012832458510727
1.4	-0.00549084765155335	-0.00253199455552864	-0.00122131805908327	-0.00291502410136116	-0.00122010617519061	-0.00292056207751538	-0.00446493676682809	0.0126353049086331
1.5	-0.0058068654108238	-0.00149210232563158	-0.00162276903594373	-0.0027183522853447	-0.00162116066823284	-0.00272685953358081	-0.00290555901644004	0.0120473771250396
1.6	-0.0054940037824708	-0.000254997915703819	-0.00198355902836745	-0.0024649554440343	-0.0019837738194097	-0.00247019262443152	-0.00215137917326167	0.0115837475574082
1.7	-0.00487750867770061	0.000803588033038868	-0.0023118353528794	-0.00216709573311494	-0.00231279624645054	-0.0021608308237021	-0.00161793502524635	0.0113343554392134
1.8	-0.00423150075574904	0.00191143929051953	-0.0025823269317068	-0.0018147590119273	-0.00259330026504771	-0.0018203872836685	-0.00127502175982012	0.0112673084990272
1.9	-0.00338420217459734	0.00297525500171401	-0.00280686638137448	-0.00144348740968316	-0.00281930099982159	-0.00143732309817217	-0.000940794881955579	0.0114969277566779
2	-0.00219753757260071	0.0039425785275465	-0.00298161058969857	-0.00103564175446799	-0.00299122692568018	-0.00103092621175548	-0.000384981436889086	0.0119399442091062
2.1	-0.000645685517949488	0.00446985210054214	-0.00309419197727461	-0.000607423030404235	-0.00309011144504263	-0.000609417096005351	0.000560442169687701	0.0121803139609301
2.2	0.000972726650831328	0.0044422718569312	-0.00315087065425393	-0.000169642888380688	-0.00316217108960406	-0.000172470905475588	0.00167184128007599	0.0120371755146717
2.3	0.00233627621483539	0.00379626099681048	-0.00314581922144415	0.000273083158601731	-0.00314551999263175	0.000266203505456277	0.00249573025906126	0.0115250068833707
2.4	0.00324365771766952	0.00295942770073237	-0.00307332305815971	0.000710725532902345	-0.00307586424902344	0.000706470989245621	0.00301055518207185	0.0111476843943764
2.5	0.00386920295096593	0.00212826020942804	-0.00293647988634342	0.00112247980220085	-0.00294736350062991	0.0011288592211804	0.00355184775001138	0.0109648608091987
2.6	0.00452757509814147	0.00130769296162108	-0.00276291692639705	0.00152525004371833	-0.00275936209582216	0.00151293054158205	0.00436245194841981	0.0107996551471969
2.7	0.00526439012786343	0.000250677640063745	-0.00251737430887456	0.00189664282028575	-0.00252265369843387	0.00189665411308505	0.00520025250080266	0.0103845373286032
2.8	0.00588756588795065	-0.00114720201982136	-0.00223465669733241	0.00222443905347228	-0.00222684168520155	0.00223422860195356	0.00585790489629414	0.00994920452676672
2.9	0.00626962986793417	-0.00275543820815841	-0.00190019472010287	0.00252506326047401	-0.00189648498243517	0.00252463556310613	0.00664566001766208	0.00971239011335475
3	0.00635062119299757	-0.00449049538405281	-0.00151339393050622	0.00276089830566558	-0.0015281774410529	0.00276700457963416	0.00772220783105042	0.00947405937423351
3.1	0.0061841392345136	-0.0063715339923726	-0.00112230009006117	0.00293823254429956	-0.00111763701018653	0.00294657618477423	0.00886383920760874	0.00889608511557532
3.2	0.00543209565907272	-0.00841436864356958	-0.000700731483444741	0.00307525094324284	-0.000702477169245659	0.00307464131351688	0.00966100259176645	0.00811990340989163
3.3	0.00402511650925857	-0.0104578377552859	-0.000261196210054528	0.00314442402154559	-0.000259550472386432	0.00314068081157617	0.0103089255328775	0.00723525814559171
3.4	0.00191950835128561	-0.0120258754067377	0.000186532785747286	0.0031372197023059	0.00018034605377891	0.00315379599941161	0.0108185839039827	0.00628791163041781
3.5	-0.000500563158195427	-0.0130398755005157	0.00060881333136974	0.00309285691166151	0.000614409534674412	0.0030929246095894	0.0111425194149154	0.00522948833201834
3.6	-0.00305526316204058	-0.0134705503333184	0.00103726313547069	0.00297190938950793	0.00104545293231082	0.00297157934678436	0.0113741987119066	0.0042891151197008
3.7	-0.00562240134453857	-0.0134728311704743	0.00144718468205637	0.00278918821519715	0.0014376251592149	0.00280287271879189	0.0115914415638809	0.00326746336507006
3.8	-0.00831229831702852	-0.0130011994880426	0.00182407354228107	0.00256057951659118	0.00182649040437446	0.00256971821671828	0.0115356767496552	0.00224304691206423
3.9	-0.0109176559800164	-0.0118918704431742	0.00216819215751879	0.00228648533653597	0.00216093214849356	0.00228471875465018	0.0112905900651375	0.00146078285573913
4	-0.0132079764791961	-0.0101496764173241	0.00245098785250175	0.0019650028826371	0.00245542741232307	0.00196256611242993	0.0112091829067628	0.00100451208352436
4.1	-0.0149538510222352	-0.00800513594777534	0.00270107133684319	0.00160543479855289	0.00269982149532325	0.00160617070629703	0.0114897642283344	0.000552935050165584
4.2	-0.0162551967954941	-0.00568591747345652	0.00289871083490064	0.00120520741949256	0.00290316284618653	0.00119650342552374	0.0118250835609229	-0.000165238923450597
4.3	-0.0172476125965454	-0.00331939943926864	0.00304063289642675	0.000794548109849844	0.00304704115261323	0.00078675670307976	0.0119647040794394	-0.00110724896389042
4.4	-0.0180510570517961	-0.000674013062112981	0.00311649435067501	0.000362105583335198	0.0031188645111194	0.00035985289106781	0.0118325246496085	-0.00192268714804031
4.5	-0.0183826996674727	0.00230983542286456	0.0031394188753027	-7.42809244247644E-05	0.00314477142951184	-7.76474009750955E-05	0.0117903042736519	-0.00256829432778744
4.6	-0.0180837533130923	0.00537968974636632	0.00309609320867263	-0.000515779253891103	0.00309731405048824	-0.00050288406413004	0.0118362703124707	-0.00335801441701089
4.7	-0.0170504934671474	0.00830486161014525	0.00299194719846361	-0.000933761478154552	0.00300722023599542	-0.000943357061884	0.011733541691202	-0.00434785444453775
4.8	-0.015583430067644	0.0108860901101841	0.00283205993188542	-0.0013475571082371	0.00284053415173594	-0.00135363439842744	0.0113762283381981	-0.00530067405385464
4.9	-0.0135745452669227	0.0131789468724305	0.00261232525242568	-0.00173190539508654	0.00261648647901307	-0.00172900003497479	0.0109544843488637	-0.00598132700831304
5	-0.0110808178608973	0.015047074648395	0.00235324778196313	-0.0020875705138212	0.00235686609523413	-0.00208490595504024	0.0108968666871104	-0.00648626387484019
5.1	-0.00796386426592884	0.016330644987242	0.0020426413548057	-0.00239880130984668	0.00204494047937828	-0.00239744343678246	0.0110497731969976	-0.00728262137392923
5.2	-0.00474809402381107	0.0167234828635981	0.00168480512338084	-0.00264918080771558	0.00168651817503093	-0.00265432112750687	0.010980782670896	-0.00830455258819799
5.3	-0.00174670002251616	0.0164249006262355	0.00129757131438615	-0.00286473160421948	0.00130070252315263	-0.0028626703262092	0.0106079086005342	-0.00918313617219564
5.4	0.000913876524727565	0.0157548956986172	0.000872153031455782	-0.0030118842747697	0.000889303686716578	-0.00302309154828388	0.0102052889077773	-0.00997038770032758
5.5	0.00335747098048684	0.0148652844277754	0.000458147707658133	-0.00310893341370444	0.000468187504442669	-0.00311835903769678	0.0097559933688401	-0.0107769737549778
5.6	0.00570249423601624	0.0135892036431729	1.9630484914548E-05	-0.00314388350177845	1.11119909588254E-05	-0.00314709325885908	0.0091173833201621	-0.0115630337369616
5.7	0.00772651839003766	0.0118091313832562	-0.000410863337985195	-0.0031120712708024	-0.000427455388090526	-0.00311571544013906	0.0082429638601573	-0.0122536286710428
5.8	0.00919470293491614	0.00956702891675267	-0.000855545627991801	-0.00301599397133905	-0.000859083693715218	-0.0030299569627065	0.00713547146532844	-0.0129522372428325
5.9	0.00991609343179851	0.00723160033524756	-0.00125870101037957	-0.00287532244124515	-0.00126691495201654	-0.00287523733455085	0.00573109456011352	-0.0133203109930248
6	0.0100342606677127	0.00498977133955902	-0.00165485285339582	-0.00266905041824676	-0.00165129971008837	-0.00266921732947607	0.00430167402026264	-0.0131800155772774
6.1	0.00981801078217328	0.0029053422786824	-0.00200786023695686	-0.00241528109888909	-0.00200949617635478	-0.00241128670070501	0.00337753159627274	-0.0127169165689234
6.2	0.00931297717218968	0.000767236319616261	-0.00231884597880644	-0.00210359306459438	-0.002322540082709	-0.00211543601462541	0.00287642676028724	-0.012510058293839
6.3	0.00841288759295868	-0.00142302207349057	-0.00259535041062237	-0.00177118380413016	-0.00260446103667153	-0.00176546706499174	0.00243370370435915	-0.012657275274606
6.4	0.00694721131807095	-0.00341098413181782	-0.00282118186865706	-0.00138299312010889	-0.00281147391079857	-0.00138787225017247	0.00202659802288444	-0.0128454330513439
6.5	0.00526888966166354	-0.00494907807378988	-0.00297822415149517	-0.000980434125112564	-0.00298607601401252	-0.000975974606087266	0.00182683442519301	-0.0132072664819798
6.6	0.00351259994768562	-0.0061054670189863	-0.0030877134050349	-0.000557556344734312	-0.00308933627265307	-0.000561529291742083	0.00156550294349719	-0.0138987046401438
6.7	0.00154860841320262	-0.00696748252955168	-0.00314031089888294	-0.000121247975874997	-0.00314916632261793	-0.000114996188825092	0.000675777647511668	-0.0146221784928736
6.8	-0.000770793432460622	-0.00732392714834346	-0.00312116067067351	0.000319605801211072	-0.00313225500808865	0.000324625072812804	-0.00063141895511054	-0.0148408839744898
6.9	-0.00325506739709252	-0.00691267296929153	-0.00304814170973272	0.000753219382747807	-0.00305113248171356	0.000755602522257207	-0.00181240774040126	-0.0145335612278874
7	-0.00543906908166686	-0.00570781488423042	-0.00291343945950682	0.00117498183122464	-0.00292626385634011	0.00117276047665865	-0.00262496646458237	-0.0141032738801702
7.1	-0.00714513029334639	-0.00402871590328803	-0.00273703270363682	0.00156526294140818	-0.00273338257980917	0.00157393734830119	-0.00330133038725595	-0.0137270548046686
7.2	-0.00835523959346495	-0.00218109872186975	-0.00248121960180761	0.00193494067180507	-0.00248775543195329	0.00193701154375878	-0.00392225956705803	-0.0134553805044797
7.3	-0.00936857874941924	-0.000335758604930692	-0.00218577595097768	0.00225556872244281	-0.00219700165113581	0.00226061283138027	-0.0046162109114935	-0.0132938935047111
7.4	-0.010317183704103	0.00169318310186705	-0.00184374923789802	0.00253997814894774	-0.0018506481929537	0.00255358955036055	-0.00556029300071675	-0.0130817129467148
7.5	-0.0110195525851408	0.00408486775008506	-0.00147744263819007	0.00277999984925304	-0.00147045048589968	0.00278740381304637	-0.00630788125425377	-0.0126708615175029
7.6	-0.0110383178922827	0.00670590787830503	-0.00107047537953919	0.0029587686066482	-0.00107184894239337	0.00295406915889145	-0.00670791490393291	-0.0124205462355341
7.7	-0.010311060566616	0.00918360272220055	-0.000641608481296152	0.00307990709653303	-0.00064294862972955	0.00307884485985801	-0.0072400200082624	-0.0126413335953839
7.8	-0.00886862838796603	0.0112673086523669	-0.000215779785114851	0.00312860075027189	-0.000223588148932042	0.00313505602847792	-0.00804158801242928	-0.012677524630041
7.9	-0.00681926516486854	0.0129760126950215	0.000224999431234037	0.00313530372479093	0.000232938085297222	0.00313680429387862	-0.00875077846792841	-0.012278249752072
8	-0.00428153156341342	0.0142911617130112	0.000666019805602894	0.00306304963152749	0.000666098880460247	0.00306794698162026	-0.00924283259892499	-0.0120118348147709
8.1	-0.00118852503791016	0.0149050432307297	0.00107557671459318	0.00294566660693606	0.00109471176502378	0.00294676630120091	-0.00969706506866591	-0.0117225152617329
8.2	0.00186599535555631	0.0146649712777167	0.00147934739053722	0.00276570624396909	0.00148859583580097	0.00275852542288695	-0.0102936748923794	-0.0114773785707714
8.3	0.00457605710241146	0.0137159971321895	0.00185525563336188	0.00252814792430822	0.00185359495845589	0.00254168881715711	-0.0110247764449946	-0.0110886091327386
8.4	0.00681827324469259	0.0124526752118523	0.0021910903219037	0.00225225242001156	0.00218806127309939	0.00225202308508624	-0.0117591129257213	-0.0105142088390054
8.5	0.00880008700402309	0.0109547551691357	0.00247774790629036	0.00192345665424684	0.00247684499484694	0.00192663859462667	-0.0123858453105511	-0.00978552420660551
8.6	0.0106271925702984	0.00917191516255167	0.00272548591365765	0.0015646433016715	0.00273500188516005	0.00155811863243341	-0.0128189779675011	-0.00915142672726263
8.7	0.0122064127782109	0.00682340761733804	0.00291345948147386	0.00116288902168397	0.0029190223686418	0.00116362397912028	-0.0133172190211524	-0.00871021927169307
8.8	0.0131900086449887	0.00395715501340086	0.00305258758701409	0.000752137254547367	0.00305838085774288	0.000743377562690605	-0.0141262344335	-0.00829776347064685
8.9	0.0134320188998668	0.000815480748407461	0.00313255312377973	0.000317309006067588	0.00313168464053776	0.000315056476227167	-0.0148620399598476	-0.0074098073935294
9	0.0129439837709631	-0.0023158379497494	0.0031444415994738	-0.000127730118564321	0.00314759922460519	-0.000123615705920604	-0.0151408585760393	-0.00621953012278335
9.1	0.0119612509667812	-0.00537122332262173	0.00309960413259563	-0.000571632500371955	0.0031024821903289	-0.000558701996261968	-0.0149537173923078	-0.00519288240582493
9.2	0.0102585774805333	-0.00834755711614592	0.00299046568651249	-0.000992029094045933	0.00299814418448192	-0.00099490881754671	-0.014713151090426	-0.00447325260839955
9.3	0.00775030970437428	-0.0109630299048268	0.00282120518696376	-0.00140005438407084	0.00282047270372639	-0.00140505768327457	-0.0144886332101569	-0.00374340755097625
9.4	0.00454055484978555	-0.012830197307088	0.00259717823347377	-0.00179261586625955	0.00260370922555141	-0.0017850025117605	-0.0141779830876418	-0.00299708663733475
9.5	0.000979932163502113	-0.0136982991790405	0.00231989082940192	-0.00212835204199042	0.00232731795380673	-0.00212970897266803	-0.0137519894149006	-0.0023764044609695
9.6	-0.00260285693037787	-0.0137640718068393	0.00200050622766928	-0.00243258555815342	0.00200083787333146	-0.00243160215110724	-0.0135147212059963	-0.00203404217378005
9.7	-0.00613769803579719	-0.0131513368479133	0.00163113988250013	-0.00268280078318192	0.00163667196710959	-0.00269012512933126	-0.0135279467888358	-0.00171495185759721
9.8	-0.0096900219250323	-0.0119127578261008	0.00124453050744899	-0.00289067938428823	0.00125024638704787	-0.0028821816601036	-0.0137879126265649	-0.00121610659465243
9.9	-0.0131504946049346	-0.00976533738863664	0.000838367830315207	-0.00302854416577684	0.000831034802637299	-0.0030273070962525	-0.0141414443818847	-0.000347588564086666
10	-0.0161741634177715	-0.00671188480239051	0.000408089098199407	-0.00311641519650621	0.00040058454525952	-0.00312885076757594	-0.0141830824663319	0.000726589266681362
10.1	-0.0183266119284365	-0.00295629412415225	-3.35489085145032E-05	-0.00314683249137042	-4.3774019075745E-05	-0.00314143185442746	-0.0138564534507582	0.00162343242866005
10.2	-0.0195613831019027	0.00106162828232289	-0.000478682784965967	-0.00310947390195599	-0.000482087117024722	-0.00310669415544072	-0.0134401238210079	0.0023012183528412
10.3	-0.0200720324798746	0.00519362922632367	-0.000910101937453822	-0.00300395171880169	-0.000902014941768786	-0.00301302240617842	-0.0130634072705975	0.00292160780135123
10.4	-0.0198750828179137	0.0094810198141005	-0.00130658583980886	-0.00285010888261614	-0.00130488884468336	-0.00285630283660904	-0.012460162245392	0.00347973685039687
10.5	-0.0187972266320845	0.013972290618447	-0.00169787307012332	-0.0026525990193021	-0.0016947768575808	-0.00263959588686285	-0.0116831209273489	0.0039187120725854
10.6	-0.0165942039589779	0.0182992295752961	-0.00205105440271859	-0.00238391472297437	-0.00204886406545302	-0.00238773735642247	-0.010883175588427	0.00400863714871193
10.7	-0.0134214359618984	0.0221394638797208	-0.00236747902187573	-0.00208296349132506	-0.00236398593549622	-0.0020776754187936	-0.0103035363869064	0.0039829918915077
10.8	-0.00959740095904814	0.0252571207106925	-0.00263835187031586	-0.00172331734377186	-0.00263313979747292	-0.00173225034519458	-0.0100129608259106	0.00395459550733581
10.9	-0.00514705038782869	0.0277557683590913	-0.00284838929796032	-0.00134875330345817	-0.00285358572658561	-0.00134802376580523	-0.00973793059253637	0.00421970901545859
11	-7.08694237641578E-05	0.0295473847629276	-0.00300929868730869	-0.000930980251904563	-0.00301415095102536	-0.000937734297198526	-0.00924441905620883	0.00451668097446889
11.1	0.00560216210987276	0.0303289086457857	-0.00311890050259995	-0.000503976541696589	-0.00310801748706544	-0.00050111352663905	-0.00857634992881433	0.00454611070381461
11.2	0.0115742574779813	0.0296938604251316	-0.00314853795058076	-6.37677510194826E-05	-0.00315570996041568	-6.86094679865102E-05	-0.0079674000400889	0.0043322541974854
11.3	0.0173465550056956	0.0275131759371516	-0.00312101232093257	0.000387514979491929	-0.00313259094189011	0.00037747146395826	-0.00742171688424218	0.00406791166717469
11.4	0.022284773810745	0.0242951010568309	-0.00304566801581891	0.000817476762732364	-0.00304073143692728	0.000825048073280032	-0.00704388657267253	0.00387216835413963
11.5	0.0264838773426306	0.0202962125351029	-0.00289996454822822	0.0012344287451701	-0.00290272455835677	0.00124472616785991	-0.00671689896379781	0.00357967992574846
11.6	0.0299869091900656	0.0154696134676561	-0.00270280597441236	0.00162512521405411	-0.00270277965895199	0.00162806832245038	-0.00635278349166054	0.0030660257101419
11.7	0.0325427173323513	0.00991248275738579	-0.00243883051679149	0.00197905392854917	-0.00243937166804655	0.00198766444546513	-0.0061718193084824	0.00240368378102423
11.8	0.0338861376692011	0.0039018966954619	-0.00214132162098191	0.00230949019831251	-0.00214543186130138	0.00231119961393555	-0.00621570233991571	0.00196660332474947
11.9	0.0339239324746232	-0.00211829537908411	-0.00179067003539566	0.00258297263052622	-0.00180367134570621	0.0025873098164229	-0.00627122767392704	0.00204124608257088
12	0.0329865946578107	-0.00788693574731287	-0.00141716363726996	0.00280365082269506	-0.00141656515605034	0.00280505971835002	-0.00591305058104771	0.00220640539274718
