# GHZ S RI R 50
0.2	0.00669806270104893	-0.0011697236342415	0.00304831805288722	-0.000899405275164476	0.00305869103310389	-0.000892600165788048	-0.0132791491492154	0.00246550781623776
0.3	0.00625060533441444	-0.00186919069597091	0.00290335998688678	-0.00132377648879373	0.0028961233496473	-0.00131083084017246	-0.0132439777271477	0.00393522283209171
0.4	0.00613520637691528	-0.00233612159894938	0.00267035820328792	-0.00169618804954382	0.00267561512392659	-0.00170475438096974	-0.0125580447433909	0.0056724990424489
0.5	0.00619172119130282	-0.00308059907282783	0.00240958390853534	-0.00205287181432624	0.0024210977375589	-0.00206512538023859	-0.0112255200337068	0.00690761901434263
0.6	0.0060531746193982	-0.00424931527231531	0.00209496668040722	-0.0023663205269517	0.00209416730599811	-0.0023734625733994	-0.00983807561403195	0.007301489411758
0.7	0.00521296887182583	-0.00563262030375657	0.00174606893573184	-0.0026419617525649	0.00174411531262877	-0.00264215622173942	-0.00905809079611762	0.00713069915619967
0.8	0.0036293554517744	-0.006752319022855	0.00135980980382289	-0.002856341743418	0.00134722675926973	-0.00286085487514258	-0.00902781139838653	0.00705387792394657
0.9	0.0014346827604084	-0.00703223450113676	0.000943202047860711	-0.00301641385565977	0.000944213632315448	-0.00302708528106466	-0.00946045171360898	0.00755483155360271
1	-0.000690820079720422	-0.00630429648282422	0.00052025231768906	-0.00311650634775538	0.000510423188485038	-0.00311722881260788	-0.00969923488252918	0.00884818140250533
1.1	-0.00220988368868207	-0.00489354757641047	6.79708512514158E-05	-0.00314278861697889	6.44610151367003E-05	-0.00316036581726148	-0.00926354392851308	0.0106243592217068
1.2	-0.00295776367085656	-0.00366951482658167	-0.000369944192913696	-0.00313094506938041	-0.000370752009744159	-0.00312887745915466	-0.00771795978712429	0.01210698651752
1.3	-0.00366598103091029	-0.00315806178382961	-0.000792555696024103	-0.0030482377033182	-0.000795780046478328	-0.00305023590423891	-0.00552794087055753	0.0127100151667026
1.4	-0.00458579080994187	-0.00274745334953492	-0.00120973158801476	-0.002902222344313	-0.00120851589147605	-0.00290772958529796	-0.00359360151967991	0.0123528292606709
1.5	-0.00490817258506261	-0.0018364499773535	-0.00160754259478392	-0.00270996287601374	-0.00160591827514728	-0.002718425337262	-0.00205166246641398	0.0116221370681552
1.6	-0.00467394325512375	-0.000821119914307415	-0.00196668722270454	-0.00246198468665849	-0.00196688246375321	-0.00246720129344536	-0.00136520505374842	0.0109335055300705
1.7	-0.00429659556269951	8.14586599999484E-05	-0.00229545497999956	-0.00216966067324725	-0.00229643862981279	-0.00216341988803893	-0.00109420695465316	0.0105352876912708
1.8	-0.00392382795157669	0.00122820618680502	-0.00256852056507046	-0.00182203236615975	-0.00257944439762005	-0.00182769624108069	-0.00102617807224478	0.0105382656472141
1.9	-0.0032106859010262	0.00247018495160976	-0.00279696693963813	-0.00145390174594447	-0.00280941256928465	-0.00144779964871782	-0.000815430398873207	0.0109662363180234
2	-0.00199078698539313	0.00359219731269573	-0.00297624901490376	-0.00104728286108732	-0.00298588061442814	-0.00104260804134684	-0.000206357733654476	0.0115693857919696
2.1	-0.000346871281659164	0.00414320970439608	-0.00309304525068529	-0.000618317003012607	-0.00308895655911743	-0.000620297564704417	0.000845843286721248	0.0118230291201004
2.2	0.00128421893227774	0.0040384825447815	-0.00315279640598347	-0.000178260347834611	-0.00316409776783943	-0.000181120949546083	0.00197100014104618	0.0115868899436008
2.3	0.00253977136022697	0.00334162874976839	-0.00314914504982711	0.000267546713747368	-0.00314883290854879	0.000260661434822636	0.00267604036819944	0.0110161411408544
2.4	0.00330476560138334	0.002562545877705	-0.00307623129405272	0.000708168108236502	-0.00307877005893086	0.000703907984987573	0.00303886241148846	0.0107151221603201
2.5	0.00387744165965441	0.00190164735389071	-0.0029374406960858	0.00112191502182297	-0.00294832848603625	0.00112829283870587	0.00353966480096663	0.0107178936812663
2.6	0.00461207970302507	0.00121994712841481	-0.00276112024302766	0.00152504885231819	-0.00275756999570531	0.0015127350900909	0.00445230509038124	0.0106938880443674
2.7	0.00545659172867841	0.000198233557327951	-0.00251293280080358	0.00189492926247258	-0.00251820451675379	0.00189494272319166	0.00541734597268236	0.0102974102749328
2.8	0.00613469066535887	-0.00120721101033761	-0.00222861265077129	0.00221956966801477	-0.00222081424619479	0.00222933323638864	0.00613357241137528	0.00983216434163993
2.9	0.00655943004445373	-0.00279182457815944	-0.00189441184975227	0.00251598688040365	-0.00189071459420287	0.00251556161762821	0.00695711901112354	0.00959029050913071
3	0.0067211886924823	-0.00451018983026615	-0.00151019228132911	0.00274767572388224	-0.00152492100432055	0.00275373986510549	0.00809945359271111	0.00934420101474984
3.1	0.00665266684629287	-0.00645311167194168	-0.00112373142203646	0.00292194483936695	-0.00111910910726517	0.0029302600703644	0.00931995704923701	0.00868366691621297
3.2	0.00593309908642885	-0.00860710156135337	-0.000708424318042618	0.00305792220047079	-0.000710159404678166	0.0030573092239214	0.010106892070545	0.0077772305867106
3.3	0.00448781040438259	-0.0107337063227072	-0.000275683598050475	0.00312882547121086	-0.000274026683027034	0.00312510748417712	0.0106589786583108	0.00682137841874149
3.4	0.00233353777888903	-0.0123218119609621	0.000166032370980247	0.00312628884572743	0.00015976499886652	0.00314276216447684	0.011078558326382	0.00589786159909429
3.5	-8.21804541688058E-05	-0.0133293133650914	0.000584146737859362	0.00308876606254709	0.000589726854711512	0.00308887513603479	0.0113834080297978	0.00490289159731991
3.6	-0.00261517434485898	-0.0138092925631029	0.00101134308847902	0.00297630159050977	0.00101952416933204	0.00297603944673863	0.0116483070744464	0.00395504544827379
3.7	-0.00520460211821433	-0.0139049545361994	0.00142336391732072	0.00280223682758105	0.00141368428054963	0.00281584138734176	0.0118496023748583	0.00288607391008682
3.8	-0.00799547103761052	-0.0135033641884337	0.00180545007274263	0.00258103806814859	0.00180779284133211	0.00259021458117164	0.0117147510396499	0.00184705719681717
3.9	-0.0107230231192273	-0.0123829910239187	0.00215717509865784	0.00231198803398767	0.00214990423884542	0.00231015647764587	0.0114020336596193	0.00112743236037355
4	-0.013087292617467	-0.0105764004930373	0.00244881151721897	0.00199220893179921	0.00245329024846008	0.00198979220010986	0.011332372207018	0.000757404591116802
4.1	-0.014856522830621	-0.0083765862382864	0.00270765166690422	0.00163104605351698	0.00270639000159396	0.00163177893091741	0.0116772670618768	0.000336841563909675
4.2	-0.0161795119033076	-0.00602549160446339	0.00291260042452769	0.00122614418981431	0.0029171208396894	0.00121740220480926	0.0120518816195094	-0.000409394531887051
4.3	-0.0172092773990237	-0.00361020108857555	0.00305923215207119	0.000808776249641521	0.00306570690671962	0.000800949793251098	0.0121829719656098	-0.00136369867322601
4.4	-0.0180359932672255	-0.000884224446067231	0.00313666606223293	0.000368745771153817	0.00313905500251242	0.000366481366164979	0.0120327438168596	-0.00215298478753563
4.5	-0.0183381809475075	0.00219348299130416	0.00315813870054994	-7.46352880062161E-05	0.00316352326247858	-7.80216851347738E-05	0.0120216059982819	-0.00275224889368217
4.6	-0.0179588404458476	0.00532333500610043	0.00311089883235034	-0.000521382897074611	0.00311213842622779	-0.000508425127773379	0.0121321425216532	-0.00354798874029731
4.7	-0.0168323703064173	0.00823824271170105	0.00300152617957531	-0.000941969178445138	0.00301684044045226	-0.000951624515788542	0.0120775109778165	-0.00459436411199373
4.8	-0.0153268863366238	0.0107635286814345	0.00283641908828199	-0.00135562575809404	0.00284490282222843	-0.00136173201891896	0.0116878253033765	-0.00560891101740771
4.9	-0.0133108258025063	0.0130221169485132	0.00261276023722284	-0.00173741229934194	0.00261693001687951	-0.00173450955703842	0.0112274855695826	-0.00628954108562887
5	-0.0108056643421192	0.0148791359108953	0.00235203287333044	-0.00208907152958674	0.00235565292098428	-0.00208640911579118	0.011174630393945	-0.0067614515355369
5.1	-0.00766628529481004	0.0161324180784733	0.00204246944118709	-0.00239614127520016	0.0020447663196921	-0.00239478316006933	0.0113639862912771	-0.00756443131071334
5.2	-0.00446650739123518	0.0164660748160284	0.00168809546697872	-0.00264360981317322	0.00168981635775851	-0.00264874218114043	0.0112879102172443	-0.00863434909043395
5.3	-0.00154168847109752	0.0161319021237115	0.00130591513688349	-0.00285856309719103	0.00130903752896886	-0.00285649314418071	0.0108523506006469	-0.00952892849684656
5.4	0.00103572368799885	0.0154989215003049	0.000885772877609409	-0.00300810534774966	0.000902974915315514	-0.00301923588276227	0.0104118500109534	-0.0102636967969553
5.5	0.00345572837282918	0.0146899119506203	0.000475884815061964	-0.00311025020169999	0.0004859890917076	-0.00311963204083496	0.0100070841440074	-0.0110183776672051
5.6	0.00584296449670708	0.0134687168416566	3.89874243348912E-05	-0.00315246013325941	3.04650721629708E-05	-0.00315573107106572	0.0094488007105059	-0.0118314848683449
5.7	0.00789600178984346	0.01169074308962	-0.000393213145648587	-0.00312864139532639	-0.000409856983595616	-0.00313240590733709	0.00856711102280219	-0.0126091992298701
5.8	0.00938199734952945	0.00943102093442592	-0.00084326484302152	-0.00303991370856884	-0.000846743401399084	-0.00305398496613117	0.00741001576672233	-0.0133741879267494
5.9	0.0100930690444007	0.00709629034882108	-0.00125456946091773	-0.00290425955730875	-0.00126284885484208	-0.00290421404919236	0.00592430282101274	-0.0137428683281413
6	0.0102075440235167	0.00487897521086079	-0.00166091606305292	-0.00269956950101157	-0.00165732937720346	-0.0026997255955768	0.00444467908949912	-0.0135493116386491
6.1	0.0100077026276712	0.00281556486579851	-0.00202429061004557	-0.00244333545412415	-0.0020259499964553	-0.00243930302277032	0.00352019424440248	-0.0130366917221835
6.2	0.00952133663633932	0.000672037172744128	-0.00234418955896402	-0.00212517965052373	-0.00234792685842724	-0.00213714724017012	0.00302862077613982	-0.0128210808947641
6.3	0.00860074074461556	-0.0015392706220747	-0.00262681059629636	-0.00178346940979415	-0.00263600284611127	-0.00177767079704381	0.00255949628226916	-0.0129756240242178
6.4	0.00713189787287414	-0.00353836149900122	-0.00285476109161394	-0.0013841186060625	-0.00284497982529094	-0.00138908787439237	0.00215877398955807	-0.0131483563789214
6.5	0.00547153801392917	-0.00508108056814167	-0.00300956745539061	-0.000970709850129083	-0.00301745918107426	-0.000966164638145906	0.00200859096599609	-0.0135129231749725
6.6	0.00374110662757175	-0.00625856759459252	-0.00311308863180848	-0.000538743603085809	-0.00311475183763651	-0.000542732028566236	0.00177962730217571	-0.0142602958420326
6.7	0.00177568985852679	-0.00715389421869939	-0.00315700588987495	-9.64964758304422E-05	-0.00316585514746335	-9.01418929480547E-05	0.000845666174759891	-0.0150431270910045
6.8	-0.000577949848384238	-0.00752279625078804	-0.00312800143254411	0.000346262044660116	-0.00313908812790147	0.000351387850802521	-0.000551888079260356	-0.0152521072336759
6.9	-0.00308953350306465	-0.00711093651456598	-0.00304582513984039	0.000777889493906281	-0.00304880080715713	0.000780298760516413	-0.00175376304359918	-0.0148897788333329
7	-0.00527073711495805	-0.00584984553150685	-0.00290415885086409	0.0011944733779874	-0.00291699310944975	0.00119234092023889	-0.0025395707487431	-0.0143766048063848
7.1	-0.00691744578273108	-0.0041430629272462	-0.00272409467101205	0.00157787488653443	-0.00272040251052421	0.00158651550995434	-0.00313950972114445	-0.0139880214866162
7.2	-0.00805699364247042	-0.00233661438676217	-0.00246819753087414	0.00194039780138071	-0.00247471089907364	0.0019424896962134	-0.00372488247946443	-0.0137796886832609
7.3	-0.00905131340087931	-0.00057587152928186	-0.00217581904718943	0.00225546330375394	-0.0021870083465742	0.00226052145683397	-0.00447521210094719	-0.0136721239363192
7.4	-0.0100840920155114	0.0013230687972525	-0.00183879014162466	0.00253703306686408	-0.00184566755286279	0.00255062651713571	-0.00542071287327211	-0.0135409850911982
7.5	-0.0108865541613924	0.00370457943211977	-0.00147785926652793	0.00277750111776235	-0.00147087520361606	0.002784903773717	-0.0062104462265653	-0.0130767385441429
7.6	-0.010874935630797	0.00648321901983589	-0.0010750277018956	0.00295977621591175	-0.001076396472877	0.00295507132072355	-0.00668684503583086	-0.0125013488079214
7.7	-0.0102867514998303	0.00896897699917808	-0.000647629928709051	0.00308646794395339	-0.000648971797722698	0.00308540118283443	-0.00720800922740768	-0.0129107204526276
7.8	-0.00887412399354946	0.0111200741422576	-0.000219940333492641	0.00314118943531949	-0.000227787441090277	0.00314766297616677	-0.00804048099441856	-0.0128847673435383
7.9	-0.00700853056234632	0.0129972642595327	0.000226044198150245	0.0031528502009057	0.000234027139394357	0.00315435970062692	-0.00868098489134604	-0.0125973293818255
8	-0.00414370802122268	0.0143510241784515	0.00067487673348487	0.00308274472254078	0.000674963325034765	0.00308767496784377	-0.00904980214403771	-0.0120010286214825
8.1	-0.0010408466353717	0.0150439413779203	0.00109322360486978	0.00296392707728004	0.00111250387054657	0.00296497197815314	-0.0095155740390205	-0.0119486087250756
8.2	0.0021367785350717	0.01473947899767	0.00150523718281219	0.0027784263148803	0.00151451617694993	0.00277114223319915	-0.0101221160253938	-0.0117746907592128
8.3	0.00491904399324981	0.0137019028435942	0.00188693546723392	0.00253175252198462	0.00188536440587213	0.00254539929289751	-0.0109090624369154	-0.0114103854924374
8.4	0.0071849260260524	0.0123533089373078	0.0022247651347828	0.0022445535907765	0.00222171661606465	0.00224435138776673	-0.0116864064843987	-0.010801593663514
8.5	0.00916416246105383	0.0107894266886522	0.00250869235141113	0.00190396385938506	0.00250782071341751	0.00190716836482118	-0.0123020544949111	-0.0100180796070467
8.6	0.0109853477298481	0.00895061455247999	0.00274926388459454	0.00153475636465844	0.00275871885067159	0.00152810544457275	-0.0126802933939901	-0.00936785563400925
8.7	0.0125786766292499	0.00652838449454062	0.00292625011637203	0.0011259568324073	0.00293181893810738	0.00112662213029487	-0.0131158053791694	-0.00898373462721591
8.8	0.0135145457139738	0.00357705104486131	0.00305251661825983	0.000712604402541739	0.0030581854309948	0.000703800553604777	-0.0139601402914861	-0.00860724905710983
8.9	0.0136504846260466	0.000393612097127894	0.00311945672717537	0.000280222637472184	0.00311856741620457	0.000277991916595864	-0.014743851703342	-0.00768183604822217
9	0.013055269807789	-0.0026942843745203	0.0031203397660528	-0.000157647637043824	0.00312351480720414	-0.000153594096463768	-0.0150084838144348	-0.00641004119187753
9.1	0.0119790769224506	-0.00562254986035747	0.00306816668018782	-0.000591057992046367	0.00307112148637534	-0.00057826251740061	-0.0147591526664681	-0.0053414482025087
9.2	0.0102974580639762	-0.00851242837303135	0.00295648446740031	-0.00099955490505662	0.00296407383006602	-0.00100245079835631	-0.0144711769677163	-0.00464266334407883
9.3	0.00781736755723991	-0.0110846507030095	0.00278936741970616	-0.00139619972361261	0.00278862496959011	-0.00140115250674145	-0.0142437550401068	-0.00393958672741286
9.4	0.00463804651659689	-0.012971663003347	0.00257135891531342	-0.00177973068118126	0.00257784058323719	-0.00177219465593769	-0.0139394859033998	-0.00325672059626257
9.5	0.00111215861703954	-0.0137349682942177	0.00230247882977856	-0.00211037631566804	0.00230984765356282	-0.002111718999767	-0.0134621995486381	-0.0025703860853138
9.6	-0.00240514382505371	-0.0137939500704812	0.00199188982376138	-0.00241361121817957	0.00199221766475076	-0.00241263352766632	-0.0131780810695987	-0.00228948514907456
9.7	-0.00587859448386874	-0.013228500399422	0.00162991683151489	-0.00266662615653305	0.00163544060961569	-0.00267390381586717	-0.0131990607416478	-0.00206278552468694
9.8	-0.00942158216205204	-0.0120709626501709	0.00124776433725758	-0.00287974452312777	0.00125344460304755	-0.00287125721687975	-0.0135260302114056	-0.00162767535851901
9.9	-0.0129642711892649	-0.00995723022333295	0.000842447268400116	-0.00302368645222178	0.000835120567890077	-0.0030224629959741	-0.0139903192578788	-0.000740342785742666
10	-0.0160462418181141	-0.00690584114236424	0.000409603375244219	-0.00311663727116643	0.000402103653610693	-0.00312907800749756	-0.0140676117329481	0.000366300206832388
10.1	-0.0182393686788912	-0.00311380928386127	-3.71141072157603E-05	-0.00314959483663538	-4.73422486264719E-05	-0.00314417790667688	-0.013753951735997	0.00128675435543403
10.2	-0.0194787498282447	0.000947622659333586	-0.000488282102812101	-0.00311125633725549	-0.000491681778438467	-0.00310846377088012	-0.013352338849503	0.00197280604070748
10.3	-0.0199688490996433	0.0051073847244812	-0.000924799591139877	-0.00300112177229019	-0.000916751614402489	-0.00301023530372411	-0.0130002380668295	0.00261372013980639
10.4	-0.0197468991743592	0.00940973606449762	-0.00132380870466056	-0.00283988029932959	-0.00132215220740776	-0.00284608084456217	-0.0124008835637961	0.00322170610771023
10.5	-0.0186296886055018	0.0139210478870812	-0.00171385097519023	-0.00263337732978217	-0.00171066386593259	-0.00262042889171386	-0.0115740017184534	0.00371709138222706
10.6	-0.0163523804307437	0.0182563943033099	-0.00206130423231743	-0.00235623354515793	-0.00205915524330933	-0.00236005678403056	-0.010685341922456	0.00381949181201309
10.7	-0.0130797877592237	0.0220510537296648	-0.00236816548366593	-0.00204918541128294	-0.00236465325436561	-0.00204396248558863	-0.0100365312010562	0.0037544742197411
10.8	-0.00911586540041965	0.0250553288009586	-0.00262665683252291	-0.00168769414303417	-0.00262155958871415	-0.00169658291689172	-0.00969849885845929	0.00373700545401973
10.9	-0.00476201409960752	0.0273581843517894	-0.00282387307780162	-0.00131627680621657	-0.00282900568971356	-0.00131552451771761	-0.00939795676509393	0.00393309547431553
11	0.000195926775090157	0.0290634706668389	-0.00297333560465373	-0.000906942979606673	-0.00297815044974456	-0.000913589127508119	-0.00886464149323142	0.00420743647235045
11.1	0.00574784039623539	0.0298289518655196	-0.00307506989577946	-0.000492457755972322	-0.00306433829071806	-0.000489650702770604	-0.00814982464223081	0.00417498419313951
11.2	0.011621596288404	0.0292075300770849	-0.00310226647965298	-6.72356364645658E-05	-0.00310932652037377	-7.20163658699485E-05	-0.00753999399346262	0.00386284473015999
11.3	0.0173433998400787	0.0271812116639077	-0.0030780514255724	0.000368854712809574	-0.00308942238824598	0.000358906002722048	-0.00716667466662805	0.00359766515318731
11.4	0.0221888440106131	0.0239899088104381	-0.00301113122416826	0.000786016733899846	-0.00300631108541096	0.000793521927274448	-0.00683865940992554	0.00340118087742634
11.5	0.0262514583090164	0.0200823538447569	-0.00287795098589039	0.00119435755964316	-0.00288077180666871	0.00120451279223261	-0.00650729029901102	0.00302491927775175
11.6	0.0297795581993398	0.0154306965497505	-0.00269514409543092	0.00158176842344514	-0.00269514901213581	0.00158468483182346	-0.00620416066508447	0.00250690801563987
11.7	0.0324376702365167	0.00998330687805243	-0.00244514078842389	0.0019381097563533	-0.00244577640121653	0.0019466568138505	-0.00610901925548815	0.0018394875958357
11.8	0.033884912011485	0.00398647043915535	-0.00215909916382102	0.00227539461246986	-0.00216321220676901	0.00227704975110801	-0.00625181800581418	0.00142425660575845
11.9	0.0341142238022933	-0.00200441886789305	-0.00181582062049273	0.00255922284573679	-0.0018288476616858	0.00256341139580721	-0.0062450915664377	0.00170148486483771
12	0.0330790792470894	-0.00789280615554484	-0.00144458936267116	0.00279066607226061	-0.00144400433650655	0.00279208109836117	-0.00598557353214062	0.00177126086308931
