# GHZ S RI R 50
0.2	0.00570567134702352	0.00174958099681232	0.00304838016295857	-0.000897624960916248	0.00305874799953822	-0.00089081517236377	-0.0142691138830059	0.00537426289733052
0.3	0.00620562794116438	-0.000448902508154862	0.00290431876441829	-0.00132088191310191	0.00289707057320733	-0.00130794447216782	-0.0132912469008783	0.00533658074082286
0.4	0.00593856541485079	-0.00235933351447141	0.00267294869987416	-0.00169254401161069	0.00267821809773353	-0.00170110355402891	-0.0127675348500831	0.00562340341968389
0.5	0.00504970633632645	-0.00389773387589847	0.00241444309842351	-0.00204924215597483	0.00242598471295452	-0.00206147941660476	-0.0123959198144725	0.0060629007860466
0.6	0.00382389625812893	-0.00491389115798676	0.00210228392229627	-0.0023638851903055	0.00210149981119118	-0.00237103587125163	-0.0121125960550456	0.00661575356815852
0.7	0.0024396853682448	-0.00541870186495828	0.00175544853599982	-0.00264198929467687	0.00175349218797959	-0.00264218890080008	-0.0118896771433465	0.0073378425355838
0.8	0.00118915780353923	-0.00557314721697981	0.00137019112194166	-0.00285986225807238	0.00135758889814247	-0.00286441755459616	-0.0115319725840642	0.00824475130849956
0.9	-3.19965089878997E-05	-0.00549379804330564	0.000953086539194719	-0.00302397687570682	0.000954125611641428	-0.00303468033787132	-0.0109885782320136	0.00912238518548466
1	-0.00123933922361507	-0.00531088397184285	0.000527973589760437	-0.00312794019169887	0.000518106733018122	-0.00312868336121612	-0.0102999237960429	0.00988432618876209
1.1	-0.00260564469136684	-0.00498621897222281	7.18354248642251E-05	-0.00315715810965602	6.83293218404799E-05	-0.00317482007326906	-0.00969447812554186	0.0105813068939832
1.2	-0.0040699600940604	-0.00455609542932375	-0.000370958632089346	-0.00314675236466454	-0.000371771057465245	-0.00314467459843119	-0.00883296552852786	0.0112765900440248
1.3	-0.00559911344642084	-0.00404713828099486	-0.000798778059899338	-0.00306346792241807	-0.00080202049250238	-0.00306547422674154	-0.00742692730186196	0.0118648545718707
1.4	-0.00684348867908883	-0.00337234678234798	-0.0012207065725156	-0.00291487868169835	-0.00121949394088597	-0.00292041581409979	-0.00580646417028893	0.0117721442887487
1.5	-0.00742331862352614	-0.00218953405530586	-0.00162202979798386	-0.0027184674424195	-0.00162041970827981	-0.00272697358570815	-0.00451403130762077	0.0113213949370473
1.6	-0.00735814755615233	-0.000559499566897937	-0.00198279748100607	-0.00246539362707171	-0.00198301082602842	-0.00247063064121921	-0.0040129281716552	0.0112429933151269
1.7	-0.00665730072030347	0.00104180316394028	-0.00231118481144921	-0.00216788124025261	-0.00231214773672653	-0.00216161651582633	-0.00340622786185218	0.0115368100607803
1.8	-0.00559125419582319	0.0024614322291095	-0.00258194524410305	-0.00181585395596889	-0.00259291769178692	-0.00182148667111561	-0.00264984748779691	0.0117910360368168
1.9	-0.0043125833745434	0.00343273608161373	-0.00280689206712537	-0.00144478577853091	-0.00281933134703712	-0.00143862476518058	-0.001882292610703	0.011936918561801
2	-0.00299725634737906	0.00408996296710956	-0.00298212928140672	-0.00103696741108491	-0.00299175005198581	-0.00103225378314165	-0.00119029227966944	0.0120720404105153
2.1	-0.0016291495154796	0.00444371344402542	-0.00309519981435232	-0.000608575437718536	-0.00309111712267437	-0.000610569056906066	-0.000424036498096104	0.0121338288640269
2.2	-0.0002134553696314	0.00457278097055275	-0.00315228485512615	-0.000170437501490974	-0.00316358985772478	-0.000173269391785996	0.000481363379824883	0.0121407039780632
2.3	0.00124986762155903	0.00425403328874267	-0.0031474805455011	0.000272785403856037	-0.0031471802029207	0.000265902242533947	0.00139658949310376	0.0119567750803742
2.4	0.00257481569002411	0.00353965960175482	-0.00307502068136393	0.000710981305242187	-0.00307756307127889	0.00070672434567879	0.00232302568998912	0.0117111753780955
2.5	0.0036002303658332	0.00243535029375289	-0.00293802379276089	0.00112324812150222	-0.0029489130118133	0.00112963159980159	0.00327158656192765	0.0112674795055939
2.6	0.00431558435991232	0.00116784955397409	-0.00276415413977376	0.00152645066598297	-0.00276059920448014	0.00151412416032555	0.00415360194834896	0.0106585242421099
2.7	0.00484719372039337	-0.000155645544708735	-0.00251816992404717	0.0018981297363357	-0.00252345187404145	0.00189814222187944	0.00479673900183949	0.00997103060401438
2.8	0.00530242694800348	-0.00162522146811833	-0.00223496154261468	0.00222602374012136	-0.0022271404047009	0.00223581517977791	0.0052915714199459	0.00945783110657637
2.9	0.00558734071253505	-0.00333813196578799	-0.00190003353089962	0.00252655688068688	-0.00189632264495562	0.0025261278293925	0.0059888316899722	0.0091097296803094
3	0.00543910465377988	-0.00522479631935527	-0.00151287887176573	0.00276215214495774	-0.00152766433757546	0.00276826502174279	0.00684253616606641	0.008709861025756
3.1	0.00489231349577944	-0.00708046884297474	-0.00112159796180075	0.0029391899614253	-0.00111693128113772	0.00294753383096943	0.00760675924306861	0.00813421643073803
3.2	0.00386767715210828	-0.00883373554057511	-0.000699976393799835	0.00307588670588502	-0.000701722499431104	0.00307527747441528	0.0081184014137129	0.00764137665214098
3.3	0.00246409193402252	-0.0105251016815455	-0.000260546301393962	0.00314483380454538	-0.000258901187394365	0.00314108981841283	0.00875514126712928	0.00710626898737169
3.4	0.000538552172463279	-0.0119286110290469	0.00018701062477615	0.00313754771658512	0.000180825605601429	0.00315412679099699	0.00943669871977412	0.00632869925938234
3.5	-0.00178845701095565	-0.0129726781676743	0.000609156542708469	0.00309326169791118	0.000614753574346757	0.00309332894674788	0.00985629782074368	0.00524381552978027
3.6	-0.0044211931156899	-0.0133913356588845	0.00103755478920631	0.00297250034088431	0.00104574627931696	0.00297217001980215	0.0100078548831766	0.00431143379575235
3.7	-0.00704885370441649	-0.01318438067335	0.0014475928982762	0.00279001707550483	0.00143803048081092	0.00280370554291923	0.0101563149467596	0.00349576637322345
3.8	-0.00955391626702042	-0.0124550958431325	0.00182478066530554	0.00256161458018348	0.00182719841933439	0.00257075694240036	0.0102751782008512	0.00273643716396274
3.9	-0.0118056989263308	-0.011322958616084	0.00216936208049483	0.00228759338370909	0.00216209831574867	0.00228582609902695	0.0103848249929364	0.00199189681757234
4	-0.0138781335281433	-0.00982096008926722	0.00245269843905863	0.00196596833921047	0.00245714049278041	0.00196352961769432	0.0105360151603589	0.00130392813161086
4.1	-0.015673382339627	-0.00790673790867383	0.00270331528852186	0.00160600705981966	0.00270206471673696	0.00160674374817689	0.0107824957661012	0.000615695105507625
4.2	-0.017091865390087	-0.00560642491261517	0.00290136446350969	0.00120513501071018	0.00290581690026538	0.00119642276054851	0.0110051313127789	-0.000133277089534365
4.3	-0.0180333780354377	-0.00316206007415936	0.00304347764460304	0.000793638037786357	0.00304988707783795	0.000785837115961047	0.0111945741697089	-0.00100350532436496
4.4	-0.0186624046334906	-0.000593557556766727	0.00311919293451336	0.000360258225664036	0.00312156341772915	0.000358002140324831	0.0112381976054865	-0.00189552670696274
4.5	-0.0189401304778215	0.00212581598516665	0.00314162458270296	-7.70187054415038E-05	0.00314697812760564	-8.03921915647609E-05	0.0112590994264982	-0.00281006372556148
4.6	-0.0188341723450088	0.00495602216908798	0.00309748531630602	-0.00051920881460513	0.00309871986998913	-0.000506306894799362	0.0111158342732668	-0.00385954908032591
4.7	-0.0180714575159487	0.00787933584305219	0.00299231207333817	-0.000937584649256928	0.00300758151804245	-0.000947202040683075	0.0107340254392219	-0.00487052658147676
4.8	-0.0167165523773286	0.0106156288293752	0.00283128882678114	-0.00135140376276053	0.0028397582583546	-0.00135749318676245	0.0102472652234703	-0.00567331402236272
4.9	-0.0146719523982438	0.0129680700067314	0.00261047748139694	-0.00173539207049935	0.0026146428614478	-0.00173249156580216	0.00984806607199245	-0.00628998910249799
5	-0.0122240996650957	0.0147718605514169	0.00235050791874425	-0.00209038230078311	0.00235412934253268	-0.00208772240834548	0.0097410614814401	-0.006856107153227
5.1	-0.00929587324725275	0.0161029555170292	0.00203930825911832	-0.00240070107842093	0.00204160848683279	-0.00239934626391637	0.00969895412809288	-0.00760898823936739
5.2	-0.0061626951014029	0.0167568615612267	0.00168124827755442	-0.00265007014956916	0.00168295500180549	-0.00265521047092433	0.00953088490167439	-0.00836825513521539
5.3	-0.00296723430194296	0.016688954447117	0.00129411454836505	-0.0028646577467326	0.00129724631399424	-0.00286260055243467	0.00933895905193877	-0.00899797060442095
5.4	-2.79002487610525E-05	0.0159684132702457	0.000869090715347147	-0.00301101015087965	0.000886222474930335	-0.00302222613802792	0.0092217510785405	-0.00981235945173496
5.5	0.00247451911534685	0.0148384014026312	0.000455632197533684	-0.00310752214248771	0.000465659514740511	-0.00311694977228489	0.00885194695933453	-0.0108525205760359
5.6	0.0046187856087915	0.0134432885667149	1.77276330132399E-05	-0.00314220056891672	9.21179905474385E-06	-0.00314540346864943	0.00802626135044943	-0.0117709914089637
5.7	0.00643415604581376	0.0118248440226366	-0.000412248544339737	-0.00311039644011673	-0.000428834625202858	-0.00311403047504908	0.00693295503751885	-0.0123186998031528
5.8	0.00797355206201994	0.00989167184856266	-0.000856573148769107	-0.00301445679285854	-0.000860116133349227	-0.00302841285766518	0.00587883322694073	-0.0127065083874753
5.9	0.00903110024882058	0.0076848177419683	-0.00125960610378493	-0.00287395961672844	-0.00126781769111361	-0.0028738709341613	0.00480095635093067	-0.0129246379291163
6	0.00946562042552949	0.00525421832664579	-0.00165580284247663	-0.00266776166141722	-0.00165225045131523	-0.00266793022288661	0.00370106813275715	-0.0129534280681761
6.1	0.00930373246526862	0.00284995688484889	-0.00200894778438891	-0.00241390045523695	-0.00201058134709179	-0.00240990562771106	0.00285322225102354	-0.0128063768637595
6.2	0.00867033846572008	0.000536046255274181	-0.0023200520411849	-0.0021019215148274	-0.0023237536223489	-0.00211376117846799	0.00223838346778418	-0.0127851069086923
6.3	0.0077214357660728	-0.00170708151640249	-0.00259655066799068	-0.00176901050561834	-0.00260565611961991	-0.00176328702484888	0.0017518585500926	-0.012987132085645
6.4	0.00622769316262772	-0.00385836869482545	-0.00282211436150602	-0.00138020538920886	-0.00281241213260502	-0.00138509291632693	0.00132986739241905	-0.0133408320786735
6.5	0.00429617594450471	-0.00558398357432772	-0.00297859094648562	-0.000977058852831216	-0.00298643631545886	-0.000972592023491419	0.000893073617415516	-0.0139090922608076
6.6	0.00214910709573127	-0.006636286244857	-0.00308721374574338	-0.000553746432139457	-0.00308884064379635	-0.000557716005877484	0.000235989827351579	-0.0145281164907568
6.7	2.25135401100572E-05	-0.00711668293351919	-0.00313870967665297	-0.000117291112774905	-0.00314755241876942	-0.000111031844968679	-0.000844042448211403	-0.0148861962622964
6.8	-0.00211401018052497	-0.00716507388571425	-0.00311834495973568	0.000323299963830297	-0.00312942438503884	0.00032832936554513	-0.00199424486983172	-0.0147862217930499
6.9	-0.00433316448650047	-0.00675552780548546	-0.00304415985371918	0.000756202468111255	-0.00304714470210287	0.000758586885235395	-0.00291586992882391	-0.0144625379949848
7	-0.00647569423085926	-0.00575017649831772	-0.00290853715215877	0.00117682685299592	-0.00292134831230553	0.00117462269596168	-0.00367254542862287	-0.0142259024011065
7.1	-0.00840694859980324	-0.00413859111541487	-0.0027316087231138	0.00156568649677892	-0.00272795538705688	0.00157434498571929	-0.0045677478317686	-0.0139342207194948
7.2	-0.00983797329485678	-0.00203453699654084	-0.00247581592423319	0.0019337749006678	-0.00248233983202963	0.00193584748923233	-0.005431282103411	-0.0134249055236152
7.3	-0.0107549444005929	0.000247637153102249	-0.00218091614071985	0.00225292425784415	-0.00219212031682564	0.00225796578166124	-0.00606976118855689	-0.0128179153897682
7.4	-0.0112732140360499	0.00254061660946947	-0.0018398823194184	0.00253611507007856	-0.00184676567972256	0.00254970495278626	-0.00661272880851975	-0.0123038927435821
7.5	-0.0114838961419941	0.00481409600106715	-0.00147486398769479	0.00277531242150778	-0.00146788353453806	0.00278270363311646	-0.00685451257761774	-0.0119611870129602
7.6	-0.0112476830308927	0.00708929108482008	-0.00106935587703969	0.00295375104318424	-0.00107072623662572	0.00294905892566041	-0.00695558098077322	-0.0120165928045016
7.7	-0.0104730617078432	0.00931886568472831	-0.00064191417375313	0.00307504307447988	-0.000643251884327662	0.0030739818744972	-0.00742194228436445	-0.0124915696228335
7.8	-0.00898215191731557	0.0111520538460217	-0.000217265011894405	0.00312433507952271	-0.000225066688438857	0.00313077738826887	-0.00814895545575221	-0.0127720496486562
7.9	-0.00703013932859205	0.0124680534816706	0.000222656519224359	0.00313190182271102	0.000230585180854689	0.00313340597884801	-0.00885917459784304	-0.012787733979755
8	-0.00483449531760294	0.01347737386598	0.000663237875317458	0.00306065357528655	0.000663313424494468	0.00306554639965486	-0.00971977862223679	-0.0128309476418687
8.1	-0.00226485593189596	0.0140918034117926	0.00107276811102848	0.00294418296310665	0.00109188803265283	0.00294529482406457	-0.0106600300323163	-0.0126254010309889
8.2	0.000478577853730536	0.0141666427123784	0.00147679448888985	0.00276493399876856	0.00148604169568208	0.00275776305711419	-0.0116000312345636	-0.0121058169828351
8.3	0.00320888374468333	0.013536500636128	0.00185310088057722	0.00252777592697632	0.00185143448861629	0.00254130921658598	-0.0123476981077838	-0.0114050606171673
8.4	0.00560834950441701	0.012346270815842	0.00218928381161056	0.00225196563537444	0.00218625625519686	0.00225173535194548	-0.012939906634132	-0.0107445667829621
8.5	0.00759049397389564	0.0107352840735847	0.00247610493940475	0.0019230508760591	0.00247520177630997	0.00192623104975512	-0.0135593197285305	-0.0101255146891265
8.6	0.00919142500740588	0.00893984747726315	0.00272373792990525	0.00156405351210354	0.00273324916688888	0.00155753368619614	-0.0142135396425449	-0.00952494183934673
8.7	0.0105635512375182	0.00685717111201819	0.00291134550269911	0.00116221238035208	0.00291690442699359	0.00116294709430389	-0.014935374072278	-0.00884194140451016
8.8	0.0116270332814328	0.00438793049786566	0.00304990426861177	0.000751613725571784	0.00305569287986508	0.000742861888251239	-0.0157063224231089	-0.00803384058431228
8.9	0.0122121277007006	0.00144346914759147	0.0031292526241038	0.000317297011900508	0.0031283852763667	0.000315046743660931	-0.0161243673692452	-0.00691796352085309
9	0.0120213534171648	-0.00178612641907805	0.00314067268325849	-0.000126853980550189	0.0031438255497033	-0.000122743812915479	-0.0160978880159337	-0.00579416502423177
9.1	0.0111173159365317	-0.00499053656705613	0.00309569813168825	-0.000569558460726264	0.00309856687702532	-0.000556644042738147	-0.0158052025961782	-0.00491074218697842
9.2	0.0094608501067051	-0.00800421907346115	0.00298688893539182	-0.000988630948770982	0.00299455847101193	-0.000991501475762144	-0.0155157647217303	-0.0042351214848463
9.3	0.00710574385319363	-0.0106871464158796	0.00281849839193386	-0.00139539301195662	0.00281777167616818	-0.00140038985878631	-0.0151403739730708	-0.00356581132065233
9.4	0.00400509188146981	-0.0128038999737431	0.00259584322898591	-0.00178695024017863	0.00260235586711545	-0.0017793392200914	-0.0147088341530134	-0.00306313687547959
9.5	0.000311517055846985	-0.013965538823062	0.00232025045724343	-0.00212223230300385	0.0023276704953407	-0.00212357635274939	-0.0143901557347506	-0.00274861329101122
9.6	-0.00358742552994617	-0.0141108256854741	0.00200274520714483	-0.0024265865428516	0.00200307478517268	-0.00242560355486799	-0.0144648141461995	-0.0025189743658521
9.7	-0.00734631423119172	-0.0133027592305411	0.00163517532079009	-0.00267760301209953	0.00164071761729068	-0.00268491105482763	-0.0147293857989998	-0.00202901249004094
9.8	-0.0108524839347465	-0.0118117214305005	0.00125003893634478	-0.00288684463321471	0.0012557346201806	-0.00287833859487999	-0.0149781194823062	-0.00127009832678037
9.9	-0.0141043966881285	-0.00961577240508815	0.000844760212461208	-0.00302650527797335	0.000837425151413667	-0.00302528395639461	-0.0151306875256901	-0.000321183344266836
10	-0.017035654403652	-0.00669806511123601	0.000414741736604463	-0.00311636475005608	0.000407261365511082	-0.00312881930657667	-0.015063389682158	0.000640063288032292
10.1	-0.0192807099166454	-0.00302426831787676	-2.73110249833384E-05	-0.00314871315843574	-3.75527683630452E-05	-0.00314332974029457	-0.0148086626890504	0.00145223699203421
10.2	-0.0205816155917058	0.00109855410357343	-0.000473472126289391	-0.00311297285528713	-0.000476884363188448	-0.00311019690263796	-0.0144586837708592	0.00222508471233364
10.3	-0.0209463873176431	0.0053420573232697	-0.000906336963274105	-0.00300854056125828	-0.000898227207223941	-0.00301760807369529	-0.0139442073201243	0.00296684906816341
10.4	-0.0205282146022363	0.00950831272853809	-0.00130438948609712	-0.0028551741391332	-0.00130268238002092	-0.0028613731581534	-0.0131036755881963	0.00342584476314014
10.5	-0.0194341997886537	0.0137085649923124	-0.00169716647709564	-0.00265761412631773	-0.0016940801062731	-0.00264459188422786	-0.012270936941465	0.00357210766206209
10.6	-0.017450773533488	0.0178555743384752	-0.00205155981496883	-0.00238840505361711	-0.00204936378336253	-0.00239223045225816	-0.0116630142534104	0.00345026523460135
10.7	-0.0144936762977954	0.0217457534476466	-0.00236876913291442	-0.00208670481073544	-0.00236527551746717	-0.0020814088018879	-0.0113010470317219	0.0034345222155834
10.8	-0.010632164461443	0.0249656655261913	-0.00263999283485172	-0.00172627246337531	-0.00263477134747822	-0.00173521133218336	-0.0110463190001896	0.00354144508216256
10.9	-0.0062331315829961	0.0273916451958028	-0.0028500673555293	-0.00135112591660867	-0.00285526828916895	-0.00135039814420223	-0.0107728590027051	0.00370789896065028
11	-0.00132840094424954	0.0290647066068456	-0.00301084484511712	-0.000933018557824801	-0.00301569711665992	-0.000939779357320761	-0.0104332025809157	0.0038709256147051
11.1	0.0040048453785425	0.0299126639903557	-0.00312031727812893	-0.000505994532367938	-0.00310942993627786	-0.000503123874257067	-0.0100978348845883	0.00392396393535647
11.2	0.0097333909719949	0.0296318593702537	-0.00314999631471633	-6.60038897199152E-05	-0.00315716835641195	-7.08529423299747E-05	-0.0097650083080249	0.00401786858782168
11.3	0.0155713601642378	0.0279474603998366	-0.00312283766883437	0.000384941642967844	-0.00313441291783677	0.000374883125273099	-0.00924422825876119	0.00420316141568315
11.4	0.0208065433694139	0.0249671771810873	-0.00304823877572124	0.000814650991710548	-0.00304330760939053	0.000822231820371928	-0.00862068313065843	0.00428180270628405
11.5	0.0252422299800017	0.0209774819456109	-0.00290357974239452	0.00123166782342175	-0.00290635464444996	0.00124196911649593	-0.00804083202567071	0.00403671862580793
11.6	0.028882048998839	0.0161903953025207	-0.0027076409869918	0.00162287487406702	-0.00270761877143861	0.00162582080408832	-0.00755362218374862	0.00356511936526439
11.7	0.0316547778279793	0.0107465495489381	-0.00244481220896264	0.00197789031898636	-0.00244536684443449	0.00198651075449324	-0.00719281998857551	0.00302835227769612
11.8	0.0333962781149206	0.00471501315405609	-0.00214817389928282	0.00230997079630574	-0.0021522932296474	0.00231167680066565	-0.00686519179213089	0.00262401293470453
11.9	0.0338496957348147	-0.00167046303507079	-0.00179775198406133	0.00258548893514844	-0.00181078459273459	0.00258981639740291	-0.0064508606086397	0.00242634006137954
12	0.0329377180695897	-0.00789257169743754	-0.0014238141716596	0.0028083884996574	-0.00142321601675474	0.00280980136069551	-0.0060554384400175	0.00214888933294332
