# GHZ S RI R 50
0.2	0.0061451893457542	-0.000895271907902504	0.00304843579589856	-0.000899483453341213	0.00305880930610337	-0.000892678190769588	-0.0138344355310906	0.00273880727636959
0.3	0.00604138096063299	-0.00161279711746022	0.00290347491964211	-0.00132403570718516	0.00289623856479609	-0.00131108877123647	-0.013455745583438	0.00419241981706717
0.4	0.00610563632904875	-0.00236998990081125	0.00267032894659281	-0.0016966353430069	0.00267558515985508	-0.00170520291044874	-0.0125877093151303	0.00564128420037046
0.5	0.00604827105001923	-0.0034442734868413	0.00240928184296432	-0.00205342137100762	0.00242079375434647	-0.00206567766053838	-0.0113648649338984	0.00654604466706017
0.6	0.00558274443369712	-0.00474556257977144	0.0020943270833059	-0.00236681949240635	0.00209352589199863	-0.00237396122021457	-0.0103009994416421	0.00680373439993818
0.7	0.00442963076357701	-0.00597095981153718	0.00174510145627977	-0.00264223246224106	0.00174314796421283	-0.00264242632251456	-0.00983343011025555	0.00678589732270994
0.8	0.00276874311042496	-0.00675483024657252	0.00135861961506256	-0.00285621003760432	0.00134603762611234	-0.00286071822062199	-0.00988278324955835	0.00704140829813253
0.9	0.000792198168254244	-0.00677093962068223	0.000941981174549377	-0.00301575727426512	0.000942989168957322	-0.00302642566371033	-0.0101001618445811	0.00780602957043561
1	-0.000982172055808186	-0.00606768854478908	0.000519246399020695	-0.00311530553613277	0.000509421287953601	-0.00311602522083975	-0.00998806027910006	0.00907711569792932
1.1	-0.00230511639531473	-0.00497411456521199	6.74456261572584E-05	-0.00314114618044625	6.39348985499839E-05	-0.00315871358895569	-0.00935318197948123	0.0105376005723889
1.2	-0.00318037065387079	-0.00409949732410275	-0.00036980576532485	-0.00312907144826232	-0.00037061304720932	-0.00312700504784491	-0.00793366568076565	0.0116683748248214
1.3	-0.00416022122594944	-0.00369295474644274	-0.000791665143940327	-0.00304642952834845	-0.000794887215299427	-0.00304842689339433	-0.00601869351191946	0.0121634070449766
1.4	-0.00523237171553291	-0.00323437388831734	-0.00120812599663135	-0.00290081322663925	-0.00120690939564528	-0.00290631674414241	-0.00423893880016854	0.0118507076750865
1.5	-0.0056968887781957	-0.00226971133107765	-0.00160541524757549	-0.00270924418958111	-0.0016037878768866	-0.00271770132160148	-0.00283985414727138	0.0111659403602267
1.6	-0.00562179841752195	-0.00106715234500132	-0.00196435690836855	-0.00246214995421037	-0.00196454888234161	-0.00246736448617892	-0.00231562239266426	0.0106621446386356
1.7	-0.00523105708169618	0.000126574291343339	-0.00229329841564322	-0.00217075759276237	-0.00229428631408124	-0.00216451912503921	-0.00203981207678389	0.0105553637730908
1.8	-0.00465554321013906	0.00145609727486379	-0.0025669312739473	-0.00182393115350582	-0.00257784998165777	-0.00182960323476997	-0.00177294234294074	0.01074781368549
1.9	-0.00371327505164015	0.00267012549161909	-0.00279623305403506	-0.00145632260719842	-0.00280868533438806	-0.00145022942598658	-0.0013308737822304	0.0111553721758975
2	-0.0024146217580965	0.00363651660949051	-0.00297653580289299	-0.00104983751101598	-0.00298617424626997	-0.00104516809979561	-0.000636599105675588	0.0116051442427389
2.1	-0.000861309245297687	0.00409167668089551	-0.0030943290840633	-0.000620574433154737	-0.00309023695505272	-0.000622553519968643	0.00032933305439051	0.0117594060893377
2.2	0.000656894897555593	0.00406376177692371	-0.00315487908022154	-0.000179838104818257	-0.00316618688200446	-0.000182705887610542	0.00134037942439892	0.0115948390621221
2.3	0.00195267666741848	0.00354485729575757	-0.00315167716702401	0.000266917115526914	-0.00315136294814845	0.000260026539308633	0.0020801416834483	0.0112015705058183
2.4	0.00293078895525606	0.00284926504310138	-0.00307877395764865	0.000708575496590746	-0.00308131455480091	0.000704311766538886	0.00265478250692569	0.0109923139008482
2.5	0.00372768904538947	0.00205911632791594	-0.00293957636521654	0.00112324589242795	-0.00295047173144594	0.00112963038560515	0.00338569662896416	0.0108737940242973
2.6	0.00450939508471747	0.00114032709673457	-0.00276252734731414	0.0015270547392618	-0.00275897882082199	0.00151473117213586	0.00435673794720647	0.0106146539023449
2.7	0.00525165663527322	-3.14794000840216E-05	-0.00251340305580896	0.00189721914972774	-0.00251867770331754	0.00189723520613919	0.00522816618773695	0.0100628286948133
2.8	0.00583996413386293	-0.0014780863516595	-0.00222815159926775	0.0022217097305682	-0.00222034454355787	0.00223147240651457	0.00585829987526743	0.00955019684772488
2.9	0.00621798935520806	-0.00311797444000812	-0.00189320412994085	0.00251758645250717	-0.00188950648726177	0.00251715885312871	0.00663453094628906	0.00924780472137167
3	0.0062668919231602	-0.0049222718940548	-0.00150860236667021	0.0027484733922304	-0.00152332733801911	0.00275454575454009	0.00766628702832429	0.00890883842020076
3.1	0.00599287911635768	-0.00686762089238414	-0.00112220068397131	0.00292190080094996	-0.00111757548828047	0.00293021237714577	0.00868586340328199	0.00822821959130949
3.2	0.00511786276664501	-0.00887258581633437	-0.000707352814968268	0.00305717270896334	-0.000709087535135815	0.00305656040573234	0.00930543094276335	0.00746322013395308
3.3	0.00366615654252523	-0.0108087329506494	-0.000275381799845851	0.00312772862241712	-0.000273725717078187	0.0031240118522805	0.00983651768747413	0.00669633243904541
3.4	0.00160823864301911	-0.0123051520250968	0.000165474069993698	0.00312531358998715	0.000159206045360966	0.00314178061593513	0.010342793559224	0.00587153877856889
3.5	-0.000752729969478766	-0.0133308852089321	0.000582883094600622	0.00308836414433209	0.000588462053108627	0.00308847526743899	0.0107032503466411	0.00486781349852565
3.6	-0.003331663924085	-0.0138135543716473	0.00100972969030205	0.00297682872283259	0.00101791086070257	0.00297657099787391	0.010919937077045	0.00391816199333049
3.7	-0.00596404271708244	-0.0138021715871907	0.00142191641268451	0.00280383807210371	0.00141222567297311	0.0028174397660761	0.0110745452598949	0.00295930417873496
3.8	-0.00866807439940815	-0.0132588397161583	0.00180470577898068	0.00258360659767612	0.00180704372969358	0.00259278954819235	0.011023731646706	0.00207190142412192
3.9	-0.011211773314907	-0.0121172311928118	0.00215759328958205	0.00231517544264601	0.00215031749739027	0.00231333807428388	0.010902225678899	0.00138710323666545
4	-0.0134582261931604	-0.0104335103433284	0.00245064972205572	0.00199546233640136	0.00245513443319048	0.00199304487597776	0.0109694235367471	0.00090048438522668
4.1	-0.0152537264438462	-0.00835763255427007	0.00271093785599844	0.00163374403166187	0.00270967436879585	0.00163447763885274	0.0113080359790315	0.000348126237863101
4.2	-0.0166461055172053	-0.00601648937554516	0.00291708117419666	0.00122766831794568	0.00292160741916669	0.00121891279550571	0.0116246199805264	-0.000424606035996771
4.3	-0.0176588037604885	-0.00355175281087851	0.0030644152061243	0.00080866588811477	0.00307089661575897	0.000800824178907978	0.011775150387332	-0.00134530141317157
4.4	-0.0183910062660391	-0.000849311616609436	0.00314185416743624	0.000366758319132482	0.0031442449801684	0.000364488434971056	0.0117190235326808	-0.00216935053594965
4.5	-0.0186505039047158	0.00209837032966693	0.00316260696876647	-7.84388997730083E-05	0.00316799533484529	-8.18364832961983E-05	0.0117519241023553	-0.00291112907675507
4.6	-0.0183606016391535	0.00509750002526319	0.00311396460730788	-0.000526639575045744	0.00311522494647446	-0.000513667653657947	0.0117681964041406	-0.0038585893178071
4.7	-0.0173729140054088	0.00800742310895074	0.00300273222601215	-0.000948056139232045	0.00301804424463133	-0.000957747116515439	0.011558593125869	-0.00492815886725945
4.8	-0.0159265558962951	0.0106153926094283	0.00283555563097324	-0.00136179475728844	0.00284403290701231	-0.0013679206972075	0.0110848474124795	-0.00586433790325866
4.9	-0.0138803370019126	0.0129069928117473	0.00260997274790485	-0.00174287511317057	0.00261414909898225	-0.00173997981618991	0.0106335115917923	-0.00650254798445699
5	-0.0113873924895306	0.0147195174455393	0.00234775771044727	-0.00209319983682981	0.0023513822496837	-0.00209054462688863	0.0105588597858535	-0.00700580618658183
5.1	-0.0083501519672986	0.0159815913811712	0.00203738490639669	-0.00239852273313247	0.00203968303635683	-0.00239716920884559	0.0106404278896692	-0.00779137554557902
5.2	-0.00520757652194625	0.0164486254463184	0.00168299294158439	-0.0026441744582381	0.00168470505272288	-0.00264930563766936	0.0104979223703803	-0.00871793546668507
5.3	-0.00218729668409273	0.0162429194241775	0.00130146224095569	-0.00285757451631673	0.00130458429845852	-0.0028555099901943	0.0101529221944245	-0.00946440191500414
5.4	0.000540864375994422	0.0155853074193449	0.00088247605381523	-0.00300609366410333	0.000899653188378274	-0.00301722827563326	0.0098748912512257	-0.0102021848196033
5.5	0.00299222507713004	0.0146410906909941	0.000473890583716367	-0.00310789254747307	0.000483981593018808	-0.00311727172368315	0.00952603204482913	-0.0110864311598206
5.6	0.00526273933900781	0.0133501019764255	3.81686286096212E-05	-0.00315039355515039	2.96510667565087E-05	-0.00315366019449541	0.00886946133596284	-0.0119839936433853
5.7	0.0071939766149277	0.011664893960364	-0.000393295481805814	-0.00312736701306157	-0.000409932987201103	-0.00313112875785031	0.00786220269496821	-0.0126894658436544
5.8	0.00871311710845153	0.00958021185603223	-0.000843200013799263	-0.00303962148585322	-0.000846678312456852	-0.00305369139295623	0.00672476434299562	-0.0132862161778192
5.9	0.00960807775836917	0.00732540671460508	-0.00125497935624142	-0.00290483146696695	-0.00126326054756743	-0.00290478555778493	0.00541145973706694	-0.0135658408739246
6	0.00990298693673711	0.00501198309944296	-0.00166228395732678	-0.00270059508383248	-0.0016586955029889	-0.00270075196691119	0.00411475557089283	-0.0134561859296826
6.1	0.00974226741555372	0.00277153930647242	-0.00202684525943474	-0.00244421992207045	-0.00202850407155249	-0.00244018382007052	0.00323969306667269	-0.0131157709886673
6.2	0.00918683693189484	0.000522781113913604	-0.00234785131611272	-0.00212525317929426	-0.00235160097449004	-0.00213722837594786	0.00268735053258211	-0.0130095030805092
6.3	0.00823205776188536	-0.00172185795357207	-0.00263122065040196	-0.00178213844413566	-0.00264041476379259	-0.0017763241734321	0.00218551674309597	-0.013199892430778
6.4	0.00674263241427672	-0.00380954520502308	-0.00285924757871571	-0.00138097003742619	-0.0028494656044232	-0.0013859582465045	0.00177088430206428	-0.0134612170916089
6.5	0.0049422487679462	-0.00545566180344588	-0.00301333349798955	-0.000965699418888116	-0.00302122181446983	-0.000961136480351186	0.00149110216594527	-0.0139385973449392
6.6	0.00299271730203259	-0.00657730350320451	-0.00311533805351145	-0.000532132105069037	-0.00311701054106965	-0.000536118273857062	0.00104110073862343	-0.0146494071219638
6.7	0.000930336382780444	-0.00725632332840277	-0.00315707627267874	-8.88895526588004E-05	-0.00316590977455062	-8.25139870366346E-05	-8.42702618343858E-06	-0.0152272519246942
6.8	-0.00132189413424682	-0.0074414615696349	-0.00312551620470446	0.000353960669947423	-0.00313658427389332	0.000359111752018192	-0.00132497039817407	-0.0152450351777313
6.9	-0.00367602930522354	-0.00702404063626873	-0.00304080356717388	0.000784690678629013	-0.00304377021931419	0.000787104920124919	-0.00237254073170128	-0.0148641923107949
7	-0.00582174786783434	-0.0058762596913512	-0.00289704415891029	0.00119942428178517	-0.00290986416901133	0.00119732478793784	-0.00311463707814466	-0.0144560795463825
7.1	-0.00758852702438181	-0.0042161389901574	-0.00271569758469353	0.0015803249370364	-0.0027119951348944	0.00158894156465687	-0.00382957681309121	-0.0141225316434506
7.2	-0.00885104034814063	-0.00227382684920068	-0.00245959888163321	0.00193998031742054	-0.00246609436856675	0.00194207788037	-0.00455381147481133	-0.0137888951711221
7.3	-0.00978960052257953	-0.000274886600968816	-0.0021680964120974	0.00225239576903454	-0.00217925315231371	0.00225745394516177	-0.00527982858830751	-0.0134309401072818
7.4	-0.0105916175441121	0.00174937091826355	-0.00183283179356214	0.00253189382228967	-0.00183968455047318	0.00254545801942194	-0.00600111113416553	-0.0131424136255304
7.5	-0.0111324280489574	0.00406033507770123	-0.00147418802129344	0.00277117367589166	-0.0014672195538046	0.00277855853446557	-0.00650967593606958	-0.0127104752465236
7.6	-0.0109587144853897	0.00665166445526082	-0.00107379838824652	0.00295328799139127	-0.00107516274287643	0.00294859237439262	-0.00679863840391316	-0.0122747748400604
7.7	-0.0103733135146934	0.00901951194261625	-0.000648534274988664	0.00308073962801502	-0.000649873140317859	0.00307967382331397	-0.00729747653108479	-0.0128333352191254
7.8	-0.00893201173065574	0.0110417904607426	-0.000222299568839808	0.00313690860300614	-0.000230141898200494	0.00314336709342582	-0.00807902892184696	-0.0129369906516219
7.9	-0.00711857585192593	0.0127098688841565	0.000223031554425707	0.00315030810362515	0.000231006199782321	0.00315182341942556	-0.00873370737818446	-0.0128920486239286
8	-0.00443775038786789	0.0138774652030344	0.00067207066311557	0.00308187044984622	0.000672153224352354	0.00308679849342253	-0.0092563333391975	-0.0124820223541842
8.1	-0.00162278873628686	0.014584438627373	0.00109131809306604	0.00296425680859084	0.00111059559329774	0.0029653132009945	-0.0100191709949606	-0.0124877539724257
8.2	0.00137989761007846	0.014457027013821	0.00150462350384452	0.00277927909733384	0.00151390602155138	0.00277199673835196	-0.0108299133797818	-0.0121687225390153
8.3	0.00417674036591552	0.0135991533165509	0.0018876379776213	0.00253233274466597	0.00188606741177017	0.00254598344836957	-0.0116404947517363	-0.0116281121585446
8.4	0.00653743651398681	0.012291163796306	0.00222642418750535	0.00224415598903687	0.00222337472128206	0.00224395513599468	-0.0123459441313299	-0.0109607061300372
8.5	0.00852459995295968	0.0106572907319406	0.00251064329100752	0.00190213517590945	0.00250977421112905	0.00190534086729814	-0.0129549364175714	-0.0102287553995879
8.6	0.0102200574059915	0.00879924269267034	0.00275069335961126	0.0015313902066909	0.00276013946637789	0.00152472919759567	-0.0134514375723741	-0.00959564701623592
8.7	0.0116888200695351	0.00651755474518817	0.00292632676114002	0.00112136645285476	0.00293189369697405	0.00112202375806594	-0.0140192640865652	-0.00908136975704589
8.8	0.012665284691748	0.00378702111931242	0.00305062906022906	0.000707459994769193	0.00305627956860911	0.000698656309256293	-0.0148411053685628	-0.00847060829481043
8.9	0.012993200485148	0.000710808530221831	0.00311532511836729	0.000275482889463906	0.00311443399726032	0.000273256636936091	-0.015432504163301	-0.00740478316149982
9	0.0125584328171733	-0.00243776814626511	0.00311417004020147	-0.000160932412505229	0.00311734364807861	-0.000156890301603169	-0.015505887305011	-0.00616956869118899
9.1	0.0115092753742487	-0.00544001948443185	0.00306063148516033	-0.000591995393277519	0.00306358906847239	-0.000579231711164371	-0.0151920443750738	-0.00519452906499373
9.2	0.009848713629898	-0.00833309849730556	0.00294864673155307	-0.000997646046968712	0.00295621590034025	-0.00100053619040368	-0.0148756161744349	-0.00452496732605831
9.3	0.00746415630107205	-0.0109260033656847	0.00278244672280019	-0.00139141108031075	0.00278170813652286	-0.00139635091565477	-0.0145613964972877	-0.0038561972412216
9.4	0.00436689792784802	-0.0129571742675698	0.00256650404989913	-0.00177253971387529	0.00257296137069935	-0.00176501664211902	-0.0141801298484231	-0.00331801770516995
9.5	0.0007836774013571	-0.0138804581836521	0.0023004960372167	-0.00210183397898514	0.00230784992595754	-0.00210316185690153	-0.0137525257374481	-0.00280408258971255
9.6	-0.00290803660971346	-0.0139992677557152	0.00199314088370874	-0.0024049144168592	0.00199346607459789	-0.00240393789198702	-0.0136467507639481	-0.00260873693031108
9.7	-0.00651107021414159	-0.0133356335962462	0.00163421125667742	-0.0026590856767158	0.00163974531187348	-0.00266634014254362	-0.0138250212902211	-0.00230176548429407
9.8	-0.010034657977803	-0.0120443620212973	0.00125440718795557	-0.00287439172585691	0.00126006110596841	-0.00286589567627498	-0.0141657759905099	-0.00172334837652893
9.9	-0.0134702706099404	-0.00990147070689684	0.00085033299224582	-0.00302120986416151	0.000843003700411636	-0.00302000579595449	-0.0145371011999872	-0.000778648046561337
10	-0.0165093214830843	-0.00692737466449385	0.000417540156636004	-0.00311723619409261	0.000410067385536767	-0.0031297019618779	-0.014558966025082	0.000276634446141994
10.1	-0.0187632143195904	-0.00318031733529126	-3.02979924343458E-05	-0.00315296567694761	-4.05486076833464E-05	-0.00314756534941969	-0.0142848723587903	0.00115606253407419
10.2	-0.0200505788700558	0.000944065584231538	-0.000483535287157466	-0.00311664614453331	-0.000486944815345487	-0.00311385547364784	-0.0139231720089546	0.00189647466270986
10.3	-0.0204677272150287	0.00517803698752983	-0.000922645727274439	-0.00300745956530441	-0.000914572464413293	-0.00301657877496698	-0.0135005666477941	0.00261098901252542
10.4	-0.0201204093931455	0.00942831368597206	-0.00132423039334343	-0.00284602872721965	-0.00132256647146869	-0.00285223948179386	-0.0127677985538457	0.00317519380315129
10.5	-0.0189828802802596	0.0137866560728242	-0.00171643703205748	-0.00263835757296593	-0.00171324652097078	-0.00262538556255919	-0.0118983189707372	0.00351428362478684
10.6	-0.0168168594589468	0.0180235698511189	-0.00206522244460593	-0.00235929748288473	-0.00206307123949735	-0.00236312732802813	-0.0111057460595577	0.00349543692670345
10.7	-0.0136540654550067	0.0218484124603322	-0.00237237904871997	-0.00205009511476693	-0.00236885912744073	-0.00204486820282082	-0.0105749031827015	0.00343248795374073
10.8	-0.00969654418237794	0.0249061660511291	-0.00263012051056207	-0.00168668030574518	-0.0026250271629814	-0.00169558026479406	-0.0102683557018779	0.00346263273772727
10.9	-0.00530498280318813	0.0271614566692873	-0.00282581977145431	-0.00131407116409667	-0.00283095307364815	-0.00131331402616583	-0.00993906674845801	0.00364169448104887
11	-0.00043585000896912	0.0287729494363679	-0.00297340317886728	-0.000904513063633072	-0.00297822203724139	-0.000911154203477201	-0.00947555264169934	0.00383110066630305
11.1	0.00491402063692191	0.0295512019058179	-0.00307342929563646	-0.000490851315952645	-0.00306270295230758	-0.000488050523966904	-0.00894029240868237	0.00379349538507203
11.2	0.0106314577388878	0.0291184634725162	-0.00309960707969018	-6.73168580462641E-05	-0.00310666086117514	-7.20938096978521E-05	-0.00848973842205808	0.00363828434848519
11.3	0.0163658048723502	0.027383250264173	-0.00307541819858378	0.000366651502044098	-0.00308677259492556	0.000356705149014218	-0.00815158271465616	0.0036222540782611
11.4	0.0213742828386695	0.0243286164645168	-0.00300967934934188	0.000781838612581422	-0.00300487188612807	0.000789343566621249	-0.00768321733480668	0.00357975744621764
11.5	0.0255499207729685	0.0204262935002397	-0.00287867877896514	0.00118890881749163	-0.00288151562852454	0.00119905462562657	-0.00721925731616264	0.00321076642471608
11.6	0.0291454399015116	0.0158223184917368	-0.00269863803933317	0.00157615327056726	-0.00269864912618311	0.00157906982825475	-0.00686514289987078	0.0027158653123352
11.7	0.0319341945929554	0.0104680917992318	-0.00245141112319005	0.0019336686665012	-0.00245206737869025	0.00194222012548558	-0.00668885367084182	0.00212873191676937
11.8	0.0336305505049385	0.0044793571586274	-0.00216761942000482	0.00227334671533933	-0.00217174221020554	0.00227499421202486	-0.00663683673002443	0.0017534804811083
11.9	0.0340859740762782	-0.00165786827545478	-0.00182547002895538	0.00256048913839766	-0.00183853406448633	0.0025646568914373	-0.0064384754359898	0.00193672680510767
12	0.0331117635644539	-0.00788580675625993	-0.001453986018852	0.00279559692723116	-0.00145340211022317	0.00279701700193093	-0.00608536685071761	0.00171332661436328
