# GHZ S RI R 50
0.2	0.00560456337992923	0.00398004047603758	0.00304837627091889	-0.000895749741897779	0.00305873851468998	-0.000888935231094156	-0.014322171368876	0.00764132453732637
0.3	0.00646408106130777	0.000447334778821632	0.00290520608094344	-0.00131768373911604	0.00289794576842499	-0.00130475583989825	-0.0129884048259255	0.00623462672755046
0.4	0.00580623280650029	-0.00234149912980517	0.00267565805121775	-0.00168839339325645	0.00268094097212929	-0.00169694486638193	-0.0129184785897484	0.00561976862429265
0.5	0.00425535825478805	-0.0041190414296926	0.00241974830737733	-0.00204503605518276	0.00243132040080378	-0.00205725422959747	-0.0133028141367344	0.00586159441734584
0.6	0.00255704233814256	-0.00483484216079526	0.00211040989142252	-0.00236098713206137	0.00210964305716408	-0.00236814710678583	-0.0135493373371078	0.00682943140695207
0.7	0.00114355265790992	-0.00483617010315204	0.00176595474531681	-0.00264184944020836	0.00176399543867771	-0.00264205484961476	-0.0133240614660537	0.00818794155804695
0.8	0.000261661940747465	-0.00465956783583501	0.0013818841533851	-0.00286367069412237	0.00136926098666393	-0.00286827354922412	-0.012490665461578	0.0094935008476636
0.9	-0.000468509296148285	-0.00463188450724638	0.000964258790453638	-0.00303238338411277	0.0009653290316428	-0.00304312258613723	-0.0113567153712749	0.010276176361475
1	-0.00138272025514535	-0.00483143695848356	0.000536709380818866	-0.00314076097004903	0.000526800197846782	-0.003141527597723	-0.0103801504087773	0.0105455386852314
1.1	-0.00282544970846106	-0.00495990276446042	7.61975329994765E-05	-0.00317332433203624	7.26957095491832E-05	-0.00319108167530919	-0.00998365377495753	0.0107303307856352
1.2	-0.0046421662284495	-0.00477811456406441	-0.000372133022340259	-0.00316455931402729	-0.00037295061960568	-0.00316247009655056	-0.00962734438338172	0.0112743733362102
1.3	-0.00648525728514138	-0.00421940629236267	-0.000805886205388226	-0.00308064321159949	-0.00080914910885989	-0.00308265857848405	-0.00856834535015987	0.0120775594894069
1.4	-0.00782406365640708	-0.0034205758480353	-0.00123327193224686	-0.00292912849114665	-0.00123206305761234	-0.00293469949337551	-0.00701523773182753	0.0122408592206105
1.5	-0.00841208954570194	-0.00209804396473918	-0.00163865334240961	-0.00272794459428632	-0.00163706009162765	-0.00273650028484985	-0.00567656269240038	0.0120623884100982
1.6	-0.00830120107542918	-0.00026181526649906	-0.00200131907182871	-0.00246895141415707	-0.00200155358646577	-0.0024742114087045	-0.00501232524038249	0.0123147922644041
1.7	-0.00741859772546306	0.00150946237697597	-0.00232926327855103	-0.00216534647586087	-0.00233020157698991	-0.00215905479153627	-0.00400218850710454	0.0127725160098784
1.8	-0.00609108361364078	0.00295232129800763	-0.00259726924162784	-0.00180809480740134	-0.00260829680078396	-0.00181368921982452	-0.00285357575622048	0.0128810451420416
1.9	-0.00464404118727762	0.0037917802982745	-0.00281796112412628	-0.0014335051146675	-0.0028303893803822	-0.00142727548691312	-0.00195909544537961	0.0127212254399644
2	-0.00330453560025981	0.00428445304690024	-0.00298820821610516	-0.0010242762284899	-0.00299781290442044	-0.001019517640656	-0.00139458164493309	0.0126499444128579
2.1	-0.00201091518486762	0.00455858917287064	-0.00309662086962799	-0.000596679042520738	-0.00309254689425393	-0.000598687554988844	-0.000797970107206943	0.0127490811037334
2.2	-0.000650531532173118	0.00472550397170264	-0.00315032049724833	-0.000161056976002213	-0.00316162496936838	-0.000163853489006957	0.000127566970170986	0.012934186714074
2.3	0.000863636885634637	0.00448456655025971	-0.00314401607382249	0.000278757718949062	-0.0031437296254199	0.00027188035991501	0.00127710729882093	0.0128117264965284
2.4	0.00232702050448248	0.00378431187352649	-0.00307209515164223	0.000713696762519246	-0.00307464019557142	0.000709445484421909	0.0024276966491081	0.0123609838151173
2.5	0.0034763521268151	0.00257400055468241	-0.00293731732311397	0.00112385246551628	-0.00294820334718734	0.00113023787022569	0.00334740578898582	0.0115888700843178
2.6	0.0042186987845134	0.00115853975907375	-0.00276651501727436	0.00152679431296998	-0.00276295428725114	0.00151446003722875	0.00397867092658066	0.0108030685169997
2.7	0.00470830342230879	-0.00026650463902494	-0.00252338592071694	0.00190029629934519	-0.00252867703736766	0.00190030644555106	0.00439634351114395	0.0101573224305152
2.8	0.00513122996732025	-0.00179245950513029	-0.00224179872831804	0.00223177328999806	-0.00223395785110238	0.00224159422362973	0.00479731219673201	0.00972296847348194
2.9	0.00540034073492155	-0.00358666353402808	-0.00190640302408143	0.00253694715727115	-0.00190267805302444	0.00253651510435704	0.00539773422816518	0.00940322813964345
3	0.00519458553974609	-0.0055722328226544	-0.00151626558464115	0.00277701879844088	-0.00153111180711874	0.00278317972519545	0.00609407535994527	0.00910591463553437
3.1	0.00452494052009484	-0.00747254235862636	-0.00111982834338559	0.00295729289034704	-0.00111511600601415	0.00296566791872837	0.00676421543853127	0.00879224966480097
3.2	0.0033785675619883	-0.00919806678375931	-0.000691353264667746	0.00309501386841879	-0.000693111078113608	0.00309440840796391	0.00738996868570492	0.00857322670126083
3.3	0.00190217563153128	-0.0108112907450827	-0.000244542901762893	0.00316200868131343	-0.000242910158350865	0.00315823690140477	0.00826507713004078	0.00814133328350471
3.4	-3.01279840305871E-05	-0.0121434109588462	0.000209543547712288	0.00314962920821128	0.000203447011322312	0.00316632181515291	0.00911273149956177	0.00729297504096629
3.5	-0.00235758824772596	-0.0131750147176512	0.000636254974257857	0.00309791210403997	0.00064186994980242	0.00309793395503784	0.00954102135117164	0.0061203386106906
3.6	-0.00501333651533978	-0.0135701546417794	0.00106609718299939	0.00296790688104464	0.00107429887647833	0.00296750197599611	0.00967833049016183	0.00525369800343262
3.7	-0.00769179177978278	-0.0132929546371577	0.00147394528182019	0.00277592605368864	0.00146451412310818	0.00278970380988964	0.00994736463669178	0.00453573564111336
3.8	-0.0101801149276133	-0.0124274969634119	0.00184553417451016	0.00253931724826868	0.00184803396497957	0.0025484188827917	0.0102877174640992	0.00372366222962934
3.9	-0.0123022269512829	-0.0111852926786845	0.00218181298609605	0.00225963507821916	0.00217456037379407	0.00225793950401921	0.010501658453134	0.00274710877206825
4	-0.0141998123359585	-0.00968619880789173	0.00245541325718369	0.00193602192905521	0.00245981239102463	0.00193356067516413	0.0105309476015503	0.00185235202084716
4.1	-0.0158855475683853	-0.0078647998155388	0.00269634123396034	0.00157774620907159	0.0026951036453921	0.00157848635739686	0.0105861662690897	0.00115632968745452
4.2	-0.0172778728729041	-0.00564720491545915	0.0028862999952709	0.00118200377190645	0.00289067692730968	0.0011733326225522	0.0107557769634874	0.000513129009971315
4.3	-0.0181888535105726	-0.00323377537151611	0.0030232304833205	0.000777901837329664	0.00302956680521634	0.000770138737481306	0.0110189086089092	-0.000367295228886299
4.4	-0.0187431537356596	-0.000698973311970824	0.00309726634499199	0.000352846036861052	0.00309961625905436	0.000350602553499269	0.0110474831088036	-0.00139471050651885
4.5	-0.0189359289223785	0.00191392019421449	0.00312134845540748	-7.68341723463651E-05	0.00312666712603652	-8.01864264075862E-05	0.0108743967481939	-0.00240106039728908
4.6	-0.0188232474604019	0.00458723260847842	0.00308150435713873	-0.000513419110489291	0.00308271973540369	-0.000500584662648735	0.0105112929700645	-0.00331725284026203
4.7	-0.018157493312765	0.00738433089237232	0.00298195195203481	-0.000929111413914234	0.00299717621788672	-0.000938666425514785	0.0100629794999309	-0.00410191221617486
4.8	-0.0168980866740258	0.0101111832048804	0.00282642026663526	-0.00134318612145102	0.00283487860485717	-0.00134924578732684	0.00970093248284502	-0.00476901609609593
4.9	-0.0148926187206779	0.0124850693215723	0.00260962220791474	-0.00172993965708792	0.00261377886717127	-0.00172703720001403	0.00935967300749647	-0.00539938366487725
5	-0.0124446533386461	0.0142582110956885	0.00235122570381012	-0.00208911651739698	0.00235484557350761	-0.0020864552446134	0.0091876583565387	-0.00594856278219005
5.1	-0.00957676406958634	0.0155256350271531	0.00203879661136885	-0.00240369489398241	0.00204109926476401	-0.00240234094071088	0.00913038084502433	-0.00654401695920902
5.2	-0.00655660367139021	0.016196508696438	0.00167703283470828	-0.00265596836252515	0.0016787300340174	-0.00266111679669718	0.00914101377928399	-0.00717391945324723
5.3	-0.00339919397209071	0.0162510479330134	0.00128457685700258	-0.00287103752623574	0.00128771791040337	-0.00286899037321941	0.00917049610473493	-0.0078924476903215
5.4	-0.000356777221328827	0.0156272917956167	0.000854016944998606	-0.00301476622921091	0.000871090021357681	-0.00302606503485381	0.00906813461419688	-0.00892584536635538
5.5	0.00229262271820685	0.0144466461826113	0.000436203297948822	-0.00310582768963378	0.000446159298638843	-0.00311530241515751	0.00850333304023706	-0.0100455668314801
5.6	0.0044655660356887	0.0128866090431346	-3.469258856255E-06	-0.00313272989307597	-1.19806538227377E-05	-0.00313586571749244	0.00751989272129963	-0.0107926948711347
5.7	0.00616141342838443	0.0111411847591038	-0.000431705162983834	-0.00309227292426102	-0.000448234880737998	-0.00309577456252022	0.00654273711831046	-0.0110990360027993
5.8	0.00751333480556661	0.00926138135299952	-0.000870330515034998	-0.00298824425577673	-0.000873940086121552	-0.00300208171552616	0.00576647819492071	-0.0114384226146476
5.9	0.00851800391220667	0.00723914832347956	-0.00126455717343849	-0.0028420714492462	-0.00127269704149205	-0.00284193817094398	0.00489496608813131	-0.0118811921876508
6	0.00907639250430547	0.00495183813753449	-0.00164956062781068	-0.00263389753833301	-0.00164604518805268	-0.00263407858259035	0.00373143920423882	-0.0122077675251185
6.1	0.00908725068429232	0.0025417172599485	-0.0019911816523719	-0.00238254780910181	-0.00199278862709903	-0.00237859476311156	0.00264583259841675	-0.0121654259925634
6.2	0.00853980594756516	0.000152940660068636	-0.00229229024750608	-0.00207759145336654	-0.00229594588507567	-0.00208929224936115	0.00188542655472389	-0.0120542121459951
6.3	0.00765132436707432	-0.00209913489978011	-0.00256189253227948	-0.00175491529697627	-0.0025709063038165	-0.00174928124445622	0.00139926639983751	-0.0121954078035365
6.4	0.00628943677482236	-0.00427194159948301	-0.00278501892802877	-0.00137843023255998	-0.00277539914888424	-0.0013832192946398	0.000847813884756181	-0.0125743839358966
6.5	0.00447534156614697	-0.00618637179949342	-0.00294389781786631	-0.000987228835184052	-0.0029516977966167	-0.000982855709340867	0.000175465891853325	-0.0129702321900974
6.6	0.00223562948004382	-0.00750410657563657	-0.00305899957274216	-0.000573863574184165	-0.0030605825433522	-0.000577815350274488	-0.000487392082157415	-0.0132096979391766
6.7	-0.000145066196468206	-0.00808660305466001	-0.00311985687164679	-0.000143880371827652	-0.00312870372273083	-0.000137733457408651	-0.00124622083380126	-0.0133349682285769
6.8	-0.00246313594069555	-0.00802844838193099	-0.00311003620574533	0.000294580663632147	-0.0031211204101093	0.00029949413001109	-0.00205964752924731	-0.0133539574900254
6.9	-0.0046759898493449	-0.00745544126486363	-0.00304559326831979	0.000729454977424103	-0.00304859329990496	0.000731810519294802	-0.00296462385873754	-0.0132663773348927
7	-0.00669770078971495	-0.00648160754118951	-0.00291740174506036	0.00115535785425471	-0.00293019726229122	0.00115305874477357	-0.00390860337159472	-0.0131247935700826
7.1	-0.00864024393752213	-0.00505784834370122	-0.00274448483904667	0.00155125506880822	-0.00274087890827137	0.0015599465012415	-0.00493597173079609	-0.0126309576725518
7.2	-0.0103202923925684	-0.00308933921889455	-0.002489054387127	0.00192670816442621	-0.00249559997821484	0.00192875627803143	-0.00561499229142752	-0.0118335283686367
7.3	-0.0115882224248084	-0.000682120850233793	-0.00219126481800113	0.00225166247702095	-0.00220250484000062	0.00225668441172033	-0.00579752684889263	-0.0112009668496675
7.4	-0.0122409001944847	0.00208172249474387	-0.00184528831328557	0.00253794199647758	-0.00185219622246959	0.00255154480578845	-0.00602715464960889	-0.0109285335236281
7.5	-0.0122610210452878	0.00474544009486513	-0.00147480482008364	0.00277687344284651	-0.00146781952132217	0.00278426608788396	-0.00623887515047685	-0.0110967433645932
7.6	-0.0118202180224072	0.0070615854209795	-0.0010649673630895	0.00295181768888117	-0.00106634145839034	0.00294713203099991	-0.00658154087250632	-0.0117048351124058
7.7	-0.0106750549775129	0.00928063695442354	-0.000635869753618486	0.0030673324034503	-0.000637205190524333	0.00306627601925412	-0.00727556410060802	-0.0121413505732241
7.8	-0.00897665679770148	0.0110706047205821	-0.000213084990797696	0.0031101329840022	-0.000220844101061193	0.00311655348610097	-0.00822754693749972	-0.0125477000474882
7.9	-0.00647775102268068	0.0121427064543441	0.000221260112127834	0.00311216952479077	0.000229138824076861	0.00311366418815066	-0.00931095384780991	-0.0123550121853441
8	-0.00443462163974714	0.0128433956003642	0.000653241868484658	0.00303837038708719	0.000653308951200415	0.00304322600116318	-0.0107410961220967	-0.0124592050056129
8.1	-0.00181143959423434	0.0129571189348144	0.00105289823543375	0.00292330422599717	0.00107185286459629	0.00292447701242491	-0.011689049946095	-0.0115198418318819
8.2	0.000551428195230458	0.0128140726951098	0.00144750881660254	0.00275013095002195	0.0014567199421063	0.00274307707366198	-0.0123508931440533	-0.0105837654357352
8.3	0.0029448603721679	0.0122702623541107	0.00181709253280273	0.00252319709470209	0.00181532571947296	0.00253660851369178	-0.0127283644467466	-0.009838946150787
8.4	0.0052592782179882	0.0112796852533503	0.00215085896722736	0.00226017752903373	0.00214785399376554	0.00225991670164001	-0.0131955355274835	-0.00936136304917484
8.5	0.0073374369852275	0.00971980285373454	0.00244065568215361	0.00194463057724293	0.0024397174270536	0.0019477846045975	-0.0139573140813676	-0.0088025380048045
8.6	0.00895690419225875	0.0077765489467491	0.00269627524609135	0.00159737894275555	0.0027058529959246	0.00159100303242794	-0.0147204463402205	-0.00797130846752425
8.7	0.0101189513466477	0.00557402790600927	0.00289609882518982	0.00120349035548534	0.00290164946775911	0.00120430334400496	-0.0152600159703779	-0.00699391187201727
8.8	0.0108828417356989	0.00320615976725038	0.00304886782071184	0.000795916643303396	0.00305479465433795	0.000787217802186964	-0.0156073733857402	-0.00616628740054533
8.9	0.0113590732118902	0.000564254723564232	0.00314256896730635	0.000359150199299397	0.00314172563143917	0.0003568763198242	-0.0157564511545567	-0.00537367966691604
9	0.0113155075129308	-0.0024405352713234	0.00316619712117643	-9.25231946936727E-05	0.00316932797746727	-8.83460484067572E-05	-0.0158007045049513	-0.00459814085099648
9.1	0.010636953778152	-0.00563674328838842	0.00312958515624327	-0.000546340762381244	0.00313236160273662	-0.000533280442790323	-0.015645419131917	-0.0038310517201172
9.2	0.00902508158166931	-0.00870033048423124	0.00302411551063192	-0.000978159148239767	0.00303188291747	-0.000981006168308982	-0.0154231584452474	-0.00320460611563335
9.3	0.006718767010583	-0.0113188468047969	0.00285411280721076	-0.00139734132105067	0.00285340084840475	-0.00140239349948792	-0.0151204355378464	-0.00269493315681314
9.4	0.00379612679275567	-0.0133361339434063	0.00262562732486064	-0.0017991030864238	0.00263218829167556	-0.0017914019602669	-0.0149644398110951	-0.00224185317622717
9.5	0.000329961517738617	-0.0147350079029317	0.00234136041774282	-0.00214059256727282	0.00234884675352121	-0.00214194692095379	-0.0150624891204651	-0.00185787235258109
9.6	-0.00353872644689611	-0.0151784407910793	0.00201439941189091	-0.00244682493591433	0.00201473261873161	-0.00244583516161912	-0.015289704849886	-0.00119651990468976
9.7	-0.00752033674743588	-0.0145595481098147	0.00163852552601387	-0.00269547299253222	0.00164408281387848	-0.0027028320287655	-0.0153287285819373	-0.000324001346478647
9.8	-0.0112790340302157	-0.0129782045339467	0.00124808489844455	-0.00289938752773052	0.00125381834059704	-0.00289086473710172	-0.0151936719211821	0.000478736868664503
9.9	-0.0145219202577479	-0.0105658654173885	0.000841456318302712	-0.00303246874561838	0.000834111782253298	-0.00303123436554468	-0.0151300175756773	0.00115980365821227
10	-0.0172674593966317	-0.0075572724885343	0.000414029279654693	-0.00311664257843709	0.000406545533888649	-0.00312909608603524	-0.0151722078363727	0.00194439526565614
10.1	-0.0193910147577992	-0.00402188668438208	-2.2416047143183E-05	-0.00314609053884681	-3.26574521071983E-05	-0.00314072752347599	-0.015026206233213	0.00282555091042683
10.2	-0.0208016129558007	-2.09763278367367E-05	-0.000461757591656063	-0.00311149676935854	-0.000465176352729818	-0.00310873596595844	-0.014549825793859	0.00368948242478918
10.3	-0.021314262480453	0.00434177679773347	-0.000888855634226356	-0.00301245420962623	-0.000880697659667906	-0.00302147186910675	-0.0138547251892006	0.00424677278853419
10.4	-0.0208023102237125	0.00873181927868588	-0.00128417139417101	-0.00286771310770122	-0.00128241604805401	-0.00287390522379729	-0.0131412209362888	0.00435747428578943
10.5	-0.0194343325466227	0.012942610445308	-0.00167865083070345	-0.0026805448618591	-0.00167567071053789	-0.00266745660917638	-0.012744322654179	0.00438796837476207
10.6	-0.017396938210309	0.0168280173186118	-0.00203992632156941	-0.00242095236325655	-0.0020376818682269	-0.00242477760240792	-0.0124895337637608	0.0044170334007359
10.7	-0.0144693052798516	0.0205455392106648	-0.00236830200932754	-0.00212595888646745	-0.00236482999889554	-0.00212058699512828	-0.0121939399358207	0.00482567828735818
10.8	-0.0107464859840359	0.0238013728856182	-0.00265367817928168	-0.00176730009067419	-0.00264832447777265	-0.00177629060505711	-0.0118758995482628	0.00505840113429062
10.9	-0.00628301325529888	0.0263948222018644	-0.00287820668265071	-0.00138832141374326	-0.00288348079041441	-0.00138761964251788	-0.0117784571144482	0.0052357745826111
11	-0.00113135856104714	0.0279518571973012	-0.00305172929897678	-0.000960577359106588	-0.00305662373989044	-0.000967461310043996	-0.0116690213471879	0.00567643195453459
11.1	0.00426252549575554	0.0284185541476602	-0.0031699353656158	-0.00051954190201793	-0.00315887679596951	-0.000516606093187182	-0.0113427033688224	0.00628011089230623
11.2	0.00969883860965569	0.027804744421429	-0.00320241809702171	-6.28940282777729E-05	-0.00320971576946507	-6.78140650444444E-05	-0.0105905150220623	0.00688061137724702
11.3	0.0150621913571987	0.0259914047004562	-0.00317184069458865	0.000404987313846209	-0.00318364831872079	0.000394816617722746	-0.00927287855135976	0.00702883324123152
11.4	0.0200662901645413	0.0232740871573674	-0.00308823368613626	0.000849157924451859	-0.00308317292266178	0.000856817031619613	-0.00822868052153846	0.0068427638862606
11.5	0.0245569922939525	0.019509958688601	-0.00292992234083713	0.00127624357384529	-0.00293263346340831	0.00128670797982114	-0.00750437420058909	0.00644615446941699
11.6	0.0281464168395376	0.0147071304066087	-0.00271802592292771	0.00167176988309861	-0.0027179693120947	0.00167474732627636	-0.00684411002370834	0.00579823013263593
11.7	0.0306966976608702	0.00936685683767212	-0.00243929880221762	0.00202472873439198	-0.00243974855161351	0.00203342520986656	-0.00619447691619187	0.00499584732160479
11.8	0.0323369084402417	0.00373933144784402	-0.00212928231737621	0.0023495725419832	-0.00213340065069569	0.00235134055560995	-0.00568923622244609	0.00406202909299969
11.9	0.0330260553927701	-0.00205688689418312	-0.00177017768611855	0.00261391614561146	-0.00178318832685157	0.00261841490615059	-0.00567979296426961	0.00338957507030167
12	0.0326385052871927	-0.00833787534596422	-0.00139299910266373	0.00282422962087064	-0.0013923853638446	0.00282563598727108	-0.00585614806017508	0.00260440772817474
