# GHZ S RI R 50
0.2	0.00571464285233972	0.0014121440950714	0.00304837546903663	-0.000897843064828388	0.0030587439431153	-0.000891033840836536	-0.0142106259110955	0.00508951568930404
0.3	0.00615238182428221	-0.000594238517533398	0.00290419974591481	-0.00132124327362545	0.00289695299457623	-0.00130830480617993	-0.0132940899604003	0.00521793765063072
0.4	0.00595983360329209	-0.00236730066995487	0.00267261298886828	-0.00169299736046008	0.00267788079611566	-0.00170155772875402	-0.0127502917406917	0.00562737977405737
0.5	0.00520956183632515	-0.00388565258466487	0.00241380901337521	-0.00204967777421417	0.00242534702446993	-0.00206191696182461	-0.0123210156920988	0.00613459596821142
0.6	0.00408488077740949	-0.00500087682152812	0.002101336358039	-0.00236414177929326	0.00210055036956005	-0.00237129125248943	-0.0119767048557114	0.00670488326682437
0.7	0.00269089390951372	-0.00565197698497436	0.00175425311102298	-0.00264189904783439	0.00175229715787239	-0.00264209802431385	-0.0117111807304875	0.0074078040390728
0.8	0.00132417646353719	-0.00589546200262723	0.0013689028684763	-0.00285929539513447	0.0013563035712547	-0.00286384551409271	-0.0113424231197013	0.00827520458522896
0.9	-3.37020124369984E-05	-0.00578130413078089	0.000951918382652053	-0.003022875953597	0.000952954351989635	-0.00303357494237487	-0.0108274157771648	0.00911336858921013
1	-0.00128580459121668	-0.00546581875711135	0.000527154019360221	-0.00312635282633262	0.000517292327992389	-0.0031270939053087	-0.0102039101837301	0.00986331270178442
1.1	-0.00255334041652756	-0.00502436121315032	7.1581186323238E-05	-0.00315524133135451	6.80760395647863E-05	-0.00317289231143113	-0.00967506180617415	0.0106023844787335
1.2	-0.00385041711972882	-0.00460374541996038	-0.000370534783533225	-0.00314472985048415	-0.000371346801926026	-0.00314265348114615	-0.00885850598770748	0.0113901932931957
1.3	-0.00528597706278906	-0.00420962211751265	-0.000797666051812447	-0.00306161662124716	-0.000800905976452216	-0.00306362223616581	-0.00743894053608849	0.0120646175512635
1.4	-0.0065243956142357	-0.00362886180609539	-0.00121899923477976	-0.00291346197642095	-0.00121778555716989	-0.00291899526931616	-0.00579426198167717	0.0120136614682016
1.5	-0.00711166068956647	-0.00254007835499221	-0.00161992239571013	-0.00271768315402981	-0.00161830941475464	-0.00272618386996735	-0.00447578962936218	0.0116003129478901
1.6	-0.00712841492479707	-0.00102758802125835	-0.00198056534666965	-0.00246534143770854	-0.00198077576955724	-0.00247057618402276	-0.00390823022073342	0.0115555594262001
1.7	-0.00658012002512778	0.000532802235901346	-0.0023091070257463	-0.00216854339303024	-0.00231007339322408	-0.00216228134777595	-0.00322282556372042	0.0118180367184021
1.8	-0.00563930388732731	0.00202244946911827	-0.00258027870635759	-0.00181709259081605	-0.00259124537368724	-0.00182273099934516	-0.00243916143901581	0.0119919223394423
1.9	-0.00437662354128631	0.00311084530550808	-0.00280578772752776	-0.00144638167349887	-0.00281822977193682	-0.001440228733688	-0.00171733334386668	0.0120772175165625
2	-0.00298563118688926	0.0038213111197149	-0.00298164655362984	-0.00103866468363105	-0.00299127026355569	-0.00103395627226369	-0.00109812609777361	0.0122213513690556
2.1	-0.00155213045286622	0.00412355234037427	-0.00309527419650994	-0.000610120588179311	-0.00309119007544301	-0.000612112498216003	-0.000358584780207655	0.0123512811546238
2.2	-0.000171231066059263	0.00416472503798033	-0.00315275079780584	-0.00017164418587503	-0.00316405664153326	-0.000174480776796135	0.000598591769144516	0.0124127374951141
2.3	0.00117377898846972	0.0038401435625193	-0.00314811281548423	0.000272002535234496	-0.00314781060123385	0.000265118228134622	0.00159476200990061	0.0121978898696053
2.4	0.00241813850269189	0.00324712225681998	-0.00307558936906017	0.000710588829751419	-0.00307813144553429	0.000706330830894472	0.00253713174557564	0.0118477232162924
2.5	0.00350199298294973	0.00229845763904677	-0.00293834722116366	0.00112310554869341	-0.00294923781448315	0.00112948867588882	0.00338971383004196	0.0113132149208367
2.6	0.00437310677812494	0.00108338501145256	-0.00276415347863113	0.00152634733499717	-0.00276059824837373	0.00151402112807156	0.00413633218016703	0.0107171319351499
2.7	0.00502357504422241	-0.000300218063768788	-0.00251788366213611	0.00189784062775198	-0.00252316493800231	0.00189785301361971	0.0047050438994123	0.010113373150933
2.8	0.00552523235422756	-0.00183567210862645	-0.0022345398389289	0.00222536828378614	-0.00222672110651489	0.00223515777383515	0.00518052828332543	0.00966466032991568
2.9	0.0058661999042884	-0.0035890108067089	-0.00189971608446994	0.00252544439978534	-0.00189600640989078	0.00252501598214428	0.00583672832226822	0.00936289674634583
3	0.00580651513789527	-0.00556666767790288	-0.00151293441825857	0.00276063527438005	-0.00152771527238048	0.00276674197097685	0.00663848476749567	0.00906205781085826
3.1	0.0052926948104821	-0.00759354449532668	-0.00112224242545713	0.00293743354258829	-0.00111758109607307	0.00294577549125749	0.00742375769120161	0.00864726714646216
3.2	0.00417487663008412	-0.00951133103763311	-0.000701359659023795	0.00307417046273429	-0.000703104674216085	0.00307356053780353	0.00805443792489393	0.00825874361237221
3.3	0.00261735916073193	-0.0112534843275767	-0.000262661195667048	0.00314349126188974	-0.000261014055975414	0.00313974981259037	0.00882535501023468	0.00772453593705354
3.4	0.000601421047804425	-0.0126109846073785	0.000184326582794803	0.00313690076785339	0.000178129219214198	0.00315347039692764	0.00956368543496943	0.00688489583059771
3.5	-0.00172474091654572	-0.0136285212182247	0.000606167052595072	0.0030935205626341	0.000611763446031995	0.00309359310068206	0.00995888321308507	0.00578235793460902
3.6	-0.00435935217861102	-0.014111032878971	0.00103464766064472	0.00297378675423585	0.00104284015057067	0.00297346465052828	0.0101245517588104	0.00490317849022181
3.7	-0.00709532887225923	-0.0139718563209146	0.00144516782328716	0.00279227164554767	0.00143558881906481	0.00280595425678198	0.0103733456825385	0.00412843102795153
3.8	-0.00975912047913547	-0.013186571225898	0.00182317856036635	0.002564613505923	0.00182558862659175	0.00257376260693894	0.010613425212849	0.00329200412080953
3.9	-0.0120648050652915	-0.0118845893801201	0.00216881724819257	0.00229099193785893	0.00216155019801843	0.00228921718199358	0.0107312761488141	0.00238972578030572
4	-0.0140390160157061	-0.0102552273612647	0.0024532794820117	0.00196932856042634	0.00245772689850641	0.00196689104828763	0.010764402400415	0.00160948656048475
4.1	-0.0157141445057611	-0.00835445926922014	0.00270493163831447	0.00160892165606753	0.0027036795281514	0.00160965835052141	0.0108987722863637	0.000958732918040521
4.2	-0.0171191546110382	-0.00612020551543777	0.00290375686186542	0.00120725279615864	0.00290821645974825	0.00119853363752755	0.0111150276785936	0.000277013806809655
4.3	-0.0181091442432568	-0.00365601482239945	0.00304626182812761	0.000794770715879547	0.00305267830979452	0.000786963205121139	0.0113399308386557	-0.000616571286655579
4.4	-0.0187051375049253	-0.000980734308149339	0.00312194681404109	0.000360378977077842	0.00312431923218714	0.000358120768171481	0.0113343429671992	-0.00159253326098561
4.5	-0.0188223336563754	0.00178931614581382	0.00314398139861366	-7.77507944465769E-05	0.00314933826420563	-8.11279774452851E-05	0.011202025484615	-0.00252153804986131
4.6	-0.0185471300847899	0.00451976810097694	0.00309918127204593	-0.000520507561283027	0.00310042067766514	-0.000507598281672256	0.0109240156360456	-0.00343866744383557
4.7	-0.0177472757510148	0.00726197077873437	0.00299325503460483	-0.000939085002415913	0.00300852751904574	-0.000948712128244663	0.0105408846932338	-0.0042753758016955
4.8	-0.0164662269285461	0.00989219419197309	0.00283154268970579	-0.00135276915782152	0.00284001214807408	-0.00135886319943214	0.0101440303699275	-0.00500290116261609
4.9	-0.0144575848994605	0.0122389567092673	0.00261024839166298	-0.00173635626868929	0.00261441508784031	-0.00173345668211224	0.00977908629006161	-0.00562541237576785
5	-0.0119643049410298	0.0139961369899174	0.00235009224498378	-0.00209081366089606	0.00235371414734877	-0.00208815447782791	0.00962960046659827	-0.00614406683679107
5.1	-0.0090554986016993	0.0151782137639747	0.00203902400028925	-0.00240062384177742	0.00204132412230461	-0.00239926925343372	0.00961785215552316	-0.00675640799615898
5.2	-0.00609819483442272	0.0157366518119098	0.00168135199046441	-0.00264966039933653	0.00168305905973586	-0.00265480007799425	0.0096225674391022	-0.00744309365283496
5.3	-0.00308730732189481	0.0157679539889336	0.00129474780594978	-0.00286418801690979	0.00129787890058998	-0.00286213016451442	0.00958859191343927	-0.0081873638695782
5.4	-0.000146036680254498	0.0152380464700878	0.000870245869361826	-0.00301080061976961	0.000887382459615608	-0.00302201064824491	0.00944096537414191	-0.00918047184167115
5.5	0.00251827425414643	0.0141665181100332	0.000457154931171201	-0.00310785194627155	0.000467188374309974	-0.00311727656129097	0.00890552482161118	-0.0102523292402774
5.6	0.00476982301704553	0.0126311879362324	1.93224638472956E-05	-0.00314326924565672	1.08053287753392E-05	-0.00314647754960232	0.00799479117699251	-0.0110187094528341
5.7	0.00648694672704962	0.0108485139766521	-0.000410950867736191	-0.00311222993782641	-0.000427543886563848	-0.00311587395429999	0.00703025868221916	-0.0114071907860873
5.8	0.00779697501571698	0.00892375792784129	-0.000855956748622769	-0.00301691345385385	-0.000859496583405504	-0.00303088072175008	0.00620082595365814	-0.0118385002779414
5.9	0.00872730944177852	0.00694231805290716	-0.00125991848587988	-0.00287672198513059	-0.00126813704551414	-0.00287663538064273	0.00521847779536347	-0.0122982603737253
6	0.0092756684182711	0.00476023392151611	-0.00165716596579353	-0.00267040964517007	-0.00165361020307177	-0.00267057809649365	0.00397159650464994	-0.0125611271900677
6.1	0.00935942995942522	0.00242025347606251	-0.00201126469500898	-0.00241600395031823	-0.002012899315957	-0.00241200495448161	0.00287080112299577	-0.01244937966882
6.2	0.00888258260976475	1.15219608386683E-05	-0.00232305087741871	-0.0021031057077856	-0.00232676032210647	-0.00211495544022642	0.00211025677171791	-0.0123206806912496
6.3	0.0079718619924557	-0.00228863968946164	-0.0025998483767848	-0.00176906156953915	-0.00260895850445365	-0.00176332781308291	0.0015642048305194	-0.0124676217300797
6.4	0.00661592303905512	-0.00445651974715497	-0.00282522023250967	-0.00137905958373048	-0.0028155146658013	-0.00138395806143068	0.00100318300596347	-0.0127889534627388
6.5	0.00487236033622336	-0.0063814743134362	-0.00298105028639974	-0.000974901553355934	-0.00298889580779163	-0.00097042530374601	0.00040111551728305	-0.0131351546203926
6.6	0.00268849343025648	-0.00778709942635662	-0.00308868552967703	-0.000550905433259522	-0.00309031678698843	-0.000554874620393676	-0.000181504638699908	-0.013403935439013
6.7	0.000259449932392985	-0.00846510118159616	-0.00313901337638608	-0.000114215222529071	-0.00314785050153164	-0.000107946893232958	-0.000941927072525857	-0.0135936755080091
6.8	-0.00216224360475068	-0.00840424163805446	-0.00311750847995489	0.000326114797560988	-0.00312858136075213	0.000331153529728191	-0.00182117222338321	-0.0136246629612043
6.9	-0.00440062830385353	-0.00778385818026809	-0.00304241297414819	0.000758346486421728	-0.00304539479924679	0.00076073238852585	-0.00273559649402582	-0.0135240087106215
7	-0.00636331620254876	-0.0067332590090898	-0.00290625880405343	0.00117801246095444	-0.00291906452873964	0.00117581745199096	-0.00367255729696344	-0.0133105431344484
7.1	-0.00819873392711403	-0.00534127333608204	-0.00272924704708925	0.00156583754518892	-0.00272559241133189	0.00157448909119719	-0.00463642982965179	-0.0127909529113715
7.2	-0.00983796813595261	-0.00350193785870991	-0.00247381824955015	0.00193298276107865	-0.00248033747593329	0.00193505524650744	-0.00526230982517473	-0.0120415309942092
7.3	-0.0111827338900457	-0.00121130609989695	-0.00217962104812364	0.00225147764835869	-0.00219081841326626	0.00225651578245244	-0.0054735728518833	-0.0114851778239276
7.4	-0.0120237097005899	0.0014133751215896	-0.00183947588466407	0.00253440502408289	-0.00184635860832449	0.00254798638469167	-0.00570871072369208	-0.0113897496935299
7.5	-0.0122063763082654	0.00415692485418511	-0.001475338778029	0.00277377437679071	-0.00146836352998949	0.00278116545258861	-0.006028451636203	-0.0115268191360405
7.6	-0.0116559575043616	0.00674735140665975	-0.00107050648418792	0.00295277881550067	-0.00107187450554409	0.00294808686206061	-0.00646674817813297	-0.0117774321815999
7.7	-0.0106861796615012	0.00904121351701104	-0.000643360070611228	0.00307488231484508	-0.000644697350749286	0.00307382045149173	-0.00716565347380235	-0.0123670257735227
7.8	-0.00895884361909781	0.010962405918847	-0.000218573118593228	0.00312501085955273	-0.000226379288409146	0.00313145160777181	-0.00814995021865804	-0.0127169986634992
7.9	-0.00664343789174557	0.0122758799937511	0.00022187807628316	0.00313326405173076	0.000229809611507704	0.00313477103708686	-0.00927139151567851	-0.0127120397545153
8	-0.00401652205986713	0.0129450200520799	0.000663298308655203	0.00306235713005608	0.000663373426910101	0.00306725258289042	-0.0104980413618091	-0.0123244940351611
8.1	-0.00139111666461919	0.0130407262181767	0.00107374918622585	0.002945793353837	0.0010928805210623	0.00294690361033629	-0.0114927835025922	-0.0115998342518408
8.2	0.00108201185554336	0.0127325048316309	0.00147857943258714	0.00276599192131553	0.00148782941142379	0.0027588137468264	-0.0121282879472422	-0.0107010979293693
8.3	0.00348611929507761	0.0120589613691975	0.00185535690454162	0.00252794013316024	0.00185369717002523	0.00254148066968526	-0.0125351284930638	-0.00997426317588513
8.4	0.00579012887656798	0.0110022978525342	0.00219157148882787	0.00225109413135455	0.00218854283279255	0.00225086594359545	-0.0130362902208782	-0.00945517372739327
8.5	0.00789116309305269	0.00938822489236705	0.00247795775812951	0.00192120184955621	0.00247705713431342	0.00192438310522803	-0.0137783485645433	-0.00882063166093513
8.6	0.0095357548565508	0.00733588299336067	0.00272476440605218	0.00156146205980681	0.00273426870479782	0.00155493471166564	-0.0144613218460397	-0.00794421641420161
8.7	0.0106575520394065	0.00497387772169387	0.00291126136049714	0.0011592814865744	0.00291681884993137	0.0011600111558386	-0.0148916329057951	-0.0069811932649839
8.8	0.0112733232481107	0.00251660912459668	0.00304863432572299	0.000748829158101146	0.00305441275050082	0.000740078190264069	-0.0151879505694615	-0.00620755393122263
8.9	0.0115859082848616	-9.10199748331065E-05	0.00312693354254907	0.000315164663471296	0.00312606553996721	0.000312916720326842	-0.0153314684319615	-0.00545781728453899
9	0.0114605953942136	-0.00298233240887216	0.00313767051568853	-0.000127934488181393	0.00314082198712758	-0.000123829390503347	-0.0153828340810957	-0.00468447984074558
9.1	0.0107111846387903	-0.00607543970257994	0.00309250197993178	-0.000569397525476652	0.00309536955728452	-0.000556496506716566	-0.0152577382016992	-0.00391588834036051
9.2	0.0091019533956982	-0.00904601806449735	0.00298403200379459	-0.000987275514560631	0.00299169424461903	-0.000990142230013366	-0.0150156835647334	-0.0032895058525105
9.3	0.0068058136538006	-0.0115621803499873	0.00281644306930958	-0.00139309273498933	0.002815718841424	-0.00139808529936398	-0.0147123379337294	-0.00279950825636203
9.4	0.00399547406635641	-0.0135475766405108	0.00259490711309302	-0.00178413622124263	0.00260141054429407	-0.00177652722378918	-0.0145761630778856	-0.00247580277511079
9.5	0.000667344485851589	-0.0147990694964962	0.00232049380934256	-0.00211944741121352	0.0023279107844339	-0.00212078549764062	-0.0146299793395895	-0.00198572899477136
9.6	-0.00306841994181971	-0.0153382133792105	0.0020040079191074	-0.00242431067019044	0.00200433664054157	-0.00242332772579404	-0.0148450196286855	-0.00135622273208115
9.7	-0.0070220664531061	-0.0148795584086397	0.001637098728913	-0.00267620300858054	0.00164264620870733	-0.00268350641452728	-0.0148892778194553	-0.000542159836382064
9.8	-0.0108685634033586	-0.0134224201547952	0.00125216640427124	-0.00288646930597079	0.00125785731290783	-0.00287795810840294	-0.0148054722667322	0.000203861249856561
9.9	-0.014276368729655	-0.0109853619157811	0.000846614082491873	-0.00302709336289986	0.000839275903024884	-0.00302587542661069	-0.0148536533443283	0.000910781049649807
10	-0.0170871611310643	-0.00791821840885978	0.000415917176585025	-0.00311767414594611	0.000408437279733405	-0.00313013682000027	-0.0149344052724198	0.00173622407266187
10.1	-0.0192238541638603	-0.0043261296931433	-2.70697081251955E-05	-0.00315033279914805	-3.73171490817742E-05	-0.00314494744615959	-0.0147913329070552	0.00264891332074437
10.2	-0.0206429874227593	-0.000292541647183573	-0.000474203470097354	-0.00311440353017286	-0.000477616911180559	-0.00311162568316612	-0.0143160389569183	0.00351286646528297
10.3	-0.021171070436414	0.00412724188853583	-0.000907831309716217	-0.00300931935199284	-0.000899721997340957	-0.00301839337335665	-0.0136446601147633	0.00407153817854584
10.4	-0.0206220868094055	0.00861627709713332	-0.00130624715377892	-0.00285500076254355	-0.00130454319271035	-0.00286120195259673	-0.0129502080319299	0.00421651061361631
10.5	-0.0191140852907695	0.0128994533525551	-0.00169889872749784	-0.0026563798028596	-0.00169580368952735	-0.00264336008580491	-0.0125291830721824	0.00430460445965121
10.6	-0.0168045270970003	0.0167700866589312	-0.00205265343381103	-0.00238625369347077	-0.00205046075439456	-0.00239007953147629	-0.0122176746317295	0.00447255403231814
10.7	-0.0138390360128992	0.0203194773348057	-0.00236884337549118	-0.00208398458315241	-0.002365348181532	-0.00207869381082462	-0.0118374460663532	0.00478223321708728
10.8	-0.0100870538361045	0.0234155058087249	-0.00263883921211672	-0.00172349213802467	-0.00263362664699395	-0.00173242676565837	-0.0114664485081467	0.00499246933838831
10.9	-0.00562930506972257	0.0258201039636675	-0.00284774585861175	-0.00134880123053693	-0.00285294143594786	-0.00134807234814552	-0.011258633916026	0.00515327059123364
11	-0.000535182696915786	0.0272498988699796	-0.00300760054137384	-0.000931647761522114	-0.00301244816660626	-0.000938400506780065	-0.0111112571918235	0.00555525956657961
11.1	0.00476108179560483	0.0275787301074104	-0.0031165875465145	-0.000505901455179184	-0.0031057133950209	-0.000503032414236698	-0.0107361584065393	0.00611340505740694
11.2	0.0100158652759179	0.0268526531766045	-0.00314635519306488	-6.73092049387118E-05	-0.00315351688452707	-7.21558413380769E-05	-0.00993955095702815	0.00663095542125149
11.3	0.0151700189976785	0.0251847812063519	-0.00311985375788215	0.000382364182186607	-0.00313140994146748	0.000372308071936653	-0.00875959709471951	0.00683537197208274
11.4	0.0199740087802052	0.0225646485366482	-0.0030463455335636	0.000811149538933233	-0.00304142559168085	0.000818728323759365	-0.00772702842606236	0.0065510295764107
11.5	0.0242862888101883	0.0189055460939937	-0.002903067371558	0.00122776925240761	-0.00290585158777637	0.00123806105093291	-0.0070719548504561	0.00595496296869696
11.6	0.0278498404455833	0.0143172193948763	-0.00270850723713966	0.00161917766967519	-0.00270848840475903	0.00162212254475463	-0.00651442697383008	0.00531998431441407
11.7	0.0304236715065821	0.00915679808257212	-0.00244680189894596	0.00197493499897916	-0.00244736620815439	0.00198355395350898	-0.0059504655317534	0.00452319701845787
11.8	0.0321107435345062	0.00368602595506902	-0.00215085350911514	0.00230808463713868	-0.00215497517464687	0.00230978664160879	-0.00556829235479519	0.00357132172156781
11.9	0.0330244724635478	-0.00209158318770881	-0.00180070041236143	0.00258503673593102	-0.00181374213191184	0.00258935491426201	-0.00556071448949645	0.00281565323383716
12	0.032729341060312	-0.00817377058535196	-0.00142626639433493	0.00280872754836386	-0.00142566888395948	0.00281014142904085	-0.00584218215668156	0.00234828907713247
