# GHZ S RI R 50
0.2	0.00571385911524864	-0.000598338036667895	0.00304835843168411	-0.000899663656679294	0.00305873228309844	-0.000892859079348443	-0.0142167578036751	0.00308620112741963
0.3	0.00587578178847909	-0.00138294364433096	0.00290328716416997	-0.00132430041008873	0.00289605224086262	-0.00131135299883546	-0.0135719218228754	0.00444743678750877
0.4	0.00607837575601161	-0.00238449431529181	0.00266997476686508	-0.00169692733095288	0.00267522956185349	-0.00170549523789736	-0.0126183334218592	0.00563760582130615
0.5	0.00594825856601589	-0.00373202258353216	0.00240873643114529	-0.0020536551413699	0.00242024532584508	-0.00206591234442322	-0.0115470392250974	0.00631472178571211
0.6	0.00524357288721773	-0.00517382243537671	0.00209361458448975	-0.00236690714725098	0.00209281215918674	-0.00237404780643068	-0.0107626379177027	0.00654477485994086
0.7	0.00383334165685828	-0.00632459070823936	0.00174427337565085	-0.00264210321811512	0.0017423201937281	-0.00264229666150686	-0.0105024267530673	0.00672643235540296
0.8	0.00206577318353567	-0.00687027469355276	0.00135775769330777	-0.00285581506487703	0.00134517772847238	-0.00286031979041457	-0.0105338825928724	0.00726997130081535
0.9	0.000215211856831894	-0.0066518245522722	0.000941186153283672	-0.00301508010093649	0.000942191985164827	-0.00302574568512257	-0.0105178987775277	0.00819636154600159
1	-0.00127473292810571	-0.00590396512350138	0.000518615640601788	-0.00311437909171706	0.000508793587927308	-0.00311509708287554	-0.010141208655256	0.00936901841015646
1.1	-0.00236217677782343	-0.00502284828122978	6.70609776849292E-05	-0.00314004182520987	6.35494753535648E-05	-0.0031576026108829	-0.00944345086984463	0.0105440337346963
1.2	-0.00323900082447868	-0.00446851428370786	-0.000369918737075281	-0.00312786733063353	-0.00037072554972086	-0.0031258016407986	-0.00822892163619919	0.0114580337721042
1.3	-0.0043958141430879	-0.00423755703934975	-0.000791502243175514	-0.00304520338075142	-0.000794723153432977	-0.00304719981244855	-0.00655918713466683	0.0119707834069693
1.4	-0.00559253774101168	-0.00380505453138201	-0.00120769572452133	-0.00289963441432211	-0.00120647970699808	-0.00290513575789495	-0.00488520819656198	0.0117553713319517
1.5	-0.00617414637757052	-0.0028673830615926	-0.00160475354570002	-0.0027081604084325	-0.00160312678612261	-0.00271661412200738	-0.00357966628836267	0.0111705490313578
1.6	-0.00629369907684362	-0.00159795324771513	-0.00196350287618049	-0.00246118845102061	-0.00196369465939392	-0.00246640086105004	-0.00311252662937304	0.0108858563851252
1.7	-0.00601255246585893	-0.000184721461077601	-0.00229227437828969	-0.00216992775343668	-0.00229326206573378	-0.00216369191368218	-0.00271704912232491	0.0110121073987684
1.8	-0.00535787209322067	0.00136326619274161	-0.00256575595654541	-0.00182324817979327	-0.0025766697471212	-0.00182891825277372	-0.00222073163803375	0.0112766600522094
1.9	-0.00422325468018595	0.00265189068997156	-0.0027949100061407	-0.00145579487692996	-0.00280735696556298	-0.00144970499983539	-0.00161394918057544	0.0115824493366084
2	-0.00278431396465598	0.00352453276008116	-0.00297506113214245	-0.00104949084852828	-0.00298469521853358	-0.00104482416484401	-0.00092487016552324	0.0118925568442619
2.1	-0.00124956632873214	0.00384381047100751	-0.00309270117625799	-0.000620448787314922	-0.00308861102539601	-0.000622426602359356	-6.97066201106101E-05	0.0120258470001031
2.2	0.000137165829062421	0.0037974974841757	-0.00315310406399522	-0.000179991810605101	-0.00316440532467323	-0.000182858903672658	0.000890667024366632	0.0119825383159275
2.3	0.001354056238061	0.00342600350997809	-0.00314978701356148	0.000266408155778405	-0.00314947222870925	0.000259521810722454	0.00174487641122976	0.0117166572823546
2.4	0.00243821185388425	0.00292233105755229	-0.00307684072881519	0.000707631941766189	-0.00307937898493167	0.000703370649169374	0.00252694317055478	0.011480827187327
2.5	0.00348625658970511	0.00217550812516246	-0.00293771874310499	0.00112181182981755	-0.00294860770170353	0.00112818942157405	0.003362039751439	0.0111599466348622
2.6	0.00446433025982952	0.00110635705986547	-0.00276088134156307	0.00152509645654122	-0.00275733191725916	0.00151278324395658	0.00424206069576585	0.0107054873016913
2.7	0.00523771377159575	-0.000254578106501422	-0.0025121427446138	0.00189477525621539	-0.00251741324709406	0.00189478930463147	0.00495019611739873	0.0101053203121591
2.8	0.005793235178304	-0.00180274287052495	-0.00222741915458362	0.00221886672563192	-0.00221962300818901	0.00222862527596574	0.00548398459815404	0.00962197113975125
2.9	0.00618248994723826	-0.00352682839348698	-0.00189314477586642	0.00251447251714944	-0.00188944984888964	0.00251404740167974	0.0061835883850995	0.00931751003735141
3	0.0062257103917988	-0.00549307582287583	-0.00150930282462521	0.00274530048487515	-0.00152402046182212	0.00275135805876826	0.00706956830424894	0.00899275866011878
3.1	0.00581705119685628	-0.0076126258946162	-0.00112365852542352	0.00291886878193242	-0.00111904324047515	0.00292717784736332	0.00793064968574818	0.00846112820548333
3.2	0.00471007919767288	-0.00966326531110108	-0.000709529812315997	0.00305447921600936	-0.000711262820736038	0.00305386582090258	0.00852121802480209	0.00791957609030972
3.3	0.00308973387502919	-0.0114843813653174	-0.000278163315934115	0.00312556695757036	-0.000276504735896592	0.00312185400909862	0.00916725925199809	0.00732171299250794
3.4	0.00101987960037839	-0.0128453710060517	0.000162267801782993	0.00312382832550089	0.000155986653977429	0.00314028040050089	0.00980633742057932	0.00652300102350763
3.5	-0.00128963657643393	-0.0138505296983703	0.000579432296844902	0.00308758923435162	0.000585008652810969	0.00308770607205987	0.0101902008805873	0.00549225851457048
3.6	-0.00390308482459556	-0.0143984037236218	0.0010062244255032	0.00297678733535805	0.00101440283449483	0.00297653831078537	0.0103766259721185	0.00459434954453939
3.7	-0.00668160261259792	-0.0143634712469022	0.0014185190321427	0.00280448602360793	0.00140881687028352	0.00281807332615304	0.0105837204752952	0.00377337439641684
3.8	-0.00947409758475956	-0.0136349630801802	0.00180152797263767	0.0025848588669827	0.00180385565439163	0.00259404197101752	0.0107191064442855	0.00294979285735973
3.9	-0.0119101718226439	-0.012289117493699	0.00215470886437779	0.00231694520066658	0.00214743654238276	0.00231510059704101	0.0107708593647598	0.00215302252530752
4	-0.0139392388459692	-0.0105701614130618	0.00244810899581414	0.00199764854865346	0.00245259539395295	0.00199523622167589	0.010845958350257	0.00148487691074752
4.1	-0.0156127615954842	-0.00861559009834824	0.00270875932247782	0.00163630276331364	0.00270749528433004	0.00163703492044842	0.0110726370569775	0.000859141295442818
4.2	-0.0170342800650202	-0.00636575697995991	0.00291529610065381	0.00123056291584588	0.00291983089475268	0.00122181364466043	0.0113288605020363	0.000134848909853168
4.3	-0.0180802922323192	-0.00386079767524071	0.00306304051092758	0.000811872177850866	0.0030695294138203	0.000804038790525413	0.0115274202689943	-0.000761160139439833
4.4	-0.0187071127665103	-0.00108226898063623	0.00314094397677769	0.000370253473516595	0.00314333697942002	0.000367986650964018	0.0115156808356934	-0.00168012042752216
4.5	-0.0187723187868537	0.0018018779953056	0.00316223460916888	-7.46648058741348E-05	0.00316762622393686	-7.80554785915553E-05	0.0114561256491072	-0.00255288500353698
4.6	-0.0183838679939086	0.00457796400867249	0.00311424855124616	-0.000522637971538825	0.00311549233532141	-0.000509666047539222	0.0112736712832534	-0.00350413485558928
4.7	-0.0174920003151908	0.00728101537528992	0.00300378045105199	-0.000943939477194534	0.00301910435628005	-0.000953609092177528	0.010935924071502	-0.00442881880106567
4.8	-0.016201673193774	0.00983975298484473	0.00283749013229598	-0.001357725479548	0.00284597613484138	-0.0013638392421518	0.0104823628786637	-0.00522540906463603
4.9	-0.0141981179858483	0.0121723606184083	0.00261284295908488	-0.00173909137276121	0.00261701531696112	-0.00173618950380749	0.0100831628555272	-0.00583648741043912
5	-0.0116767439343078	0.0139256480072251	0.00235154990427942	-0.00208994733888081	0.00235517103131993	-0.00208728586106553	0.00995638765173432	-0.00633540891089481
5.1	-0.00874255955661915	0.0150525242292825	0.00204197717791962	-0.00239607698163908	0.00204427393139284	-0.00239471926823314	0.00996938776635804	-0.00698652187717323
5.2	-0.00583848418456092	0.0155375391396963	0.00168814699645115	-0.00264277151229392	0.00168986832412367	-0.00264790249819858	0.00992492087785359	-0.00772461868521739
5.3	-0.00294132159299848	0.0155665728899114	0.00130691856378788	-0.00285737008689355	0.00131003936439504	-0.00285529917470266	0.00980495631676789	-0.00844812597422391
5.4	-7.23628839706694E-05	0.0151230297803119	0.000887877849031636	-0.00300715235967759	0.00090508625640375	-0.00301826920676164	0.00963985053910854	-0.00935610193311635
5.5	0.0026111123190231	0.0141431083437972	0.000478951552867157	-0.00311012656461453	0.000489066021248834	-0.00311949962740602	0.0091811469222009	-0.0103832976700695
5.6	0.0049258664795647	0.0126313466364762	4.25825983980163E-05	-0.00315368553716759	3.40605277182974E-05	-0.00315696746922439	0.00835301469850271	-0.0112099218295947
5.7	0.00665733175384475	0.0108352017869954	-0.000389764449060885	-0.00313149018562087	-0.000406416427370221	-0.00313527749511973	0.00736181727474461	-0.0116982349670968
5.8	0.00794752068883755	0.00889449749648512	-0.000840734628616327	-0.00304431094688338	-0.00084420099575395	-0.0030584020721456	0.00643800653103345	-0.012182828302924
5.9	0.00884491367453495	0.00695269344761169	-0.00125358021434719	-0.00290977350511438	-0.00126187187348174	-0.00290973602901335	0.0053568360188228	-0.0125924969024722
6	0.00940698234084196	0.00484252669670275	-0.00166192610119746	-0.00270552169887058	-0.00165833296881716	-0.00270567551316269	0.0040912723312202	-0.0127551304840963
6.1	0.0095537840622364	0.00254154520800982	-0.00202738177495068	-0.00244892371677415	-0.00202904594925344	-0.002444883929819	0.00304108078021426	-0.0125913340761827
6.2	0.00913069715433256	0.000108780664753915	-0.00234913886997168	-0.00212959573640145	-0.00235288420243558	-0.00214158835135653	0.00231078731644931	-0.0124812580000533
6.3	0.00820366557650762	-0.0022310495549731	-0.00263312016067033	-0.00178608795272667	-0.00264232926572996	-0.00178027313123523	0.00172224899220977	-0.0126462775460366
6.4	0.00685177088742831	-0.00441628067283505	-0.00286165766857448	-0.00138448511877583	-0.0028518609732042	-0.00138947261680299	0.00118533543764918	-0.0129436187787112
6.5	0.00514372305336737	-0.00637062906397496	-0.0030161597120754	-0.000968799561209366	-0.00302406010996269	-0.00096423658681731	0.000664398126483734	-0.0133203718252714
6.6	0.00297318888224743	-0.00784587163591828	-0.00311857492800948	-0.000534829764688107	-0.00312024667791604	-0.000538821649361746	0.000101984719231701	-0.013699667100197
6.7	0.000486015053784416	-0.00858043407986037	-0.00316074220232621	-9.11544503291632E-05	-0.00316959049358685	-8.47774022693998E-05	-0.000758460436605031	-0.0139662626436387
6.8	-0.00202150501582247	-0.00849658047710186	-0.00312961589353035	0.000352216811045816	-0.00314070119929157	0.00035736652238249	-0.00176376700116445	-0.0139523928955977
6.9	-0.00427752354155059	-0.00782300019005877	-0.00304533351650875	0.000783590762694642	-0.00304830574149089	0.000786006089599422	-0.00267758231052586	-0.0137706845047613
7	-0.00619114442279414	-0.00670541740689655	-0.00290194196280253	0.00119913505951041	-0.00291477858942372	0.0011970238568793	-0.00355808194489872	-0.0134875375955359
7.1	-0.00794664491841265	-0.00533301007150744	-0.00272083875897452	0.00158100011579822	-0.00271713616378179	0.00158963221996618	-0.00445530962689284	-0.0130017123626079
7.2	-0.00956214184926348	-0.00358205387200328	-0.00246471878918544	0.00194179560509582	-0.00247122611128794	0.00194389299343575	-0.00510521788613046	-0.012341146835322
7.3	-0.0109668631695617	-0.00136106000869999	-0.00217289665914741	0.00225539473487589	-0.00218407522021668	0.00226045687298682	-0.00544463103156794	-0.0118107293562319
7.4	-0.0119248398056744	0.00118282413518394	-0.00183695962574086	0.00253605323146182	-0.00184382900219105	0.00254964057050235	-0.00572100482727176	-0.0117302762210065
7.5	-0.0122035580462992	0.00398653826279502	-0.00147732698341639	0.00277633673819646	-0.00147034593861664	0.00278373655827324	-0.00607441664991777	-0.0117275046531213
7.6	-0.0115598700498528	0.00682506904293159	-0.00107563968751545	0.00295915526771562	-0.00107700711944761	0.00295445059021709	-0.00655404407708552	-0.0116244024417907
7.7	-0.0107355858153396	0.00914014023317137	-0.000648874174283307	0.003086931380409	-0.000650215965286973	0.00308586390179956	-0.00717818227723201	-0.0123567594933351
7.8	-0.00898418060165728	0.0111751937753914	-0.000221134132724591	0.00314296977097049	-0.000228988066533831	0.00314944447652408	-0.00813433328931289	-0.0126381349296275
7.9	-0.00673674239885204	0.0126273301385725	0.000225633123901725	0.00315585087129991	0.000233623251399357	0.00315736336371008	-0.00917077610124256	-0.0127411208223028
8	-0.00373155600553687	0.0132998750128885	0.000675886698083667	0.00308649349285482	0.000675973684917426	0.00309142979174674	-0.010170887871076	-0.0121506535440775
8.1	-0.00108010105618004	0.0133678832250354	0.00109601529705171	0.00296773103515608	0.0011153236710634	0.0029687694847518	-0.0112130227911897	-0.0117077146645977
8.2	0.0014579460770963	0.0129335245102038	0.00150983156451422	0.0027814234097725	0.00151911870222961	0.00277412053892407	-0.0119186253144973	-0.0109182711711136
8.3	0.0038703050429984	0.0121669087156884	0.00189295068890195	0.00253313457347517	0.00189139456285695	0.00254680365810092	-0.0124377389718644	-0.0101943612157186
8.4	0.00617318056940633	0.0110551651759434	0.00223150271903966	0.00224376220861619	0.00222844982542497	0.00224356489145769	-0.0129859965125134	-0.00959675863461548
8.5	0.00829034217650261	0.009385382552452	0.00251522907250876	0.00190075806410658	0.00251436314907984	0.00190396769608675	-0.0136835819728163	-0.00890193765228155
8.6	0.00993936738970097	0.00723738517030942	0.00275467464166086	0.0015292586684136	0.00276412003677581	0.00152258109466471	-0.0143049242983314	-0.00805162647615667
8.7	0.0110115631754342	0.00474433538380365	0.00292963767752094	0.00111868734735488	0.00293520917570533	0.00111933855133478	-0.0147272881953254	-0.00716911528091974
8.8	0.0114923050235626	0.00222901598082314	0.00305330456900578	0.000704417350988281	0.0030589485081919	0.000695601832050584	-0.0151086124697749	-0.00640439345969248
8.9	0.0116704665164113	-0.000333588118823793	0.00311742002637091	0.0002721963745192	0.00311652593143711	0.000269969827998257	-0.0153075526511695	-0.00556794489080973
9	0.0114830264367285	-0.00312416451781709	0.00311575838806607	-0.000164410984524321	0.00311893818980532	-0.000160370036870417	-0.0153237117905545	-0.00468884246698021
9.1	0.0106880723832653	-0.00611242849946304	0.00306175360342284	-0.000595702118528475	0.00306472692791201	-0.000582934294089188	-0.0151531379501553	-0.00386985965642429
9.2	0.00908105703447882	-0.00900592590566436	0.00294926995988391	-0.00100162594605937	0.00295684035092108	-0.00100452650319485	-0.0148660969267583	-0.00323374209522879
9.3	0.00679338083747734	-0.0114359745784362	0.00278243649735551	-0.00139569492707195	0.0027816913671191	-0.001400636879522	-0.014529674117419	-0.00272276917265356
9.4	0.00408143554423281	-0.0133859478022458	0.00256565183375936	-0.00177708931476597	0.00257212325264954	-0.00176957045101202	-0.0143276538385028	-0.00246480559943877
9.5	0.000846595432665704	-0.0145184767869076	0.00229860272335611	-0.00210649545801693	0.0023059587229496	-0.00210783521556094	-0.0142618616710341	-0.00193366706005192
9.6	-0.00278846347796246	-0.015126022126855	0.00199001740038246	-0.00240938805633055	0.00199034438672327	-0.0024084116251958	-0.0144334876959944	-0.00143606781423519
9.7	-0.00672192954766382	-0.0147773896466819	0.0016298083606828	-0.00266294332519906	0.00163533074220014	-0.00267021030412899	-0.0145412518975475	-0.000747962694772106
9.8	-0.0106266508753462	-0.0133990656974605	0.00124882760373425	-0.00287721976735542	0.00125449908919371	-0.00286873400021135	-0.0145786858337317	-3.66351241190841E-05
9.9	-0.0141584588534296	-0.0109272644582469	0.000843888628659363	-0.00302262298055205	0.000836562764247626	-0.00302140368010734	-0.0147435593628324	0.000752875067485927
10	-0.0170040612832792	-0.0078137212214806	0.000410637892204772	-0.00311692502086128	0.000403141079406983	-0.00312936977757613	-0.0148148240005847	0.00164139585666103
10.1	-0.0191439268397416	-0.00417643190352963	-3.71465880575301E-05	-0.00315078015384423	-4.73785475293966E-05	-0.00314536112486391	-0.0146499070012868	0.00255444638364066
10.2	-0.0205593126955397	-0.000109258228454352	-0.000489757600275841	-0.00311261370125005	-0.00049315786445886	-0.00310981839671443	-0.0142076523810308	0.00340356094353561
10.3	-0.0210773625405517	0.0043573138078681	-0.000927698194146929	-0.00300181406375046	-0.00091965378162661	-0.00301093856889523	-0.0135862185852847	0.00401608955127241
10.4	-0.0204774687710821	0.00890903145272744	-0.0013277187695983	-0.00283917538158325	-0.00132606933943057	-0.00284537996273045	-0.0128595122110831	0.00426449805638989
10.5	-0.0188520394152519	0.0132254400204567	-0.00171805979796414	-0.00263074507582715	-0.00171485214325341	-0.00261780130304658	-0.0123110421883986	0.00440475068631556
10.6	-0.0164010996589101	0.0170451228664864	-0.00206484603255658	-0.00235154108591351	-0.00206270489578114	-0.00235536681032106	-0.0118727757533466	0.00452407404045155
10.7	-0.0133403165347844	0.0204697499647242	-0.00237010562825949	-0.00204272427897176	-0.00236658622926713	-0.00203751286078666	-0.0114397220043911	0.00475119144560222
10.8	-0.00956909622436601	0.0234227870984584	-0.00262618795848905	-0.00168021374924867	-0.00262111515601401	-0.00168909974849693	-0.0110549916987575	0.00491625556581825
10.9	-0.00514023451622918	0.0256733171460907	-0.00282065837134706	-0.00130880448527982	-0.00282577967509561	-0.00130804474261094	-0.0107671980796625	0.00505298567391227
11	-0.000111806988187972	0.0269870738220522	-0.00296740742953866	-0.000900633112302356	-0.00297221984636689	-0.000907256532070081	-0.0105475994569545	0.00536485567890443
11.1	0.00507461053880532	0.0272024474890028	-0.00306697460210929	-0.000488334819986606	-0.00305627027315386	-0.000485545176885553	-0.010156455693452	0.00576253355605275
11.2	0.0101505743365714	0.0264021050679475	-0.00309302612141601	-6.60779796597109E-05	-0.00310006656070658	-7.0842259524704E-05	-0.00945700747599766	0.00612035038401841
11.3	0.015102991757547	0.0248360238171374	-0.00306888522372573	0.000366745387769591	-0.00308021866222549	0.000356823008560957	-0.00853356354550362	0.00634025668372727
11.4	0.0197453360299462	0.0223273042555316	-0.00300325710776807	0.000780940690788133	-0.0029984578038844	0.000788428944983241	-0.00760559246439077	0.00609955215554523
11.5	0.023934599517706	0.0188061474262567	-0.00287241968700715	0.00118709214230721	-0.00287524832212907	0.00119721749280798	-0.00702383916766668	0.00547461099900251
11.6	0.0274757718543934	0.014403387697579	-0.00269251216251307	0.00157341576811707	-0.00269252254849888	0.00157632610335195	-0.00656203698129857	0.00488980687639905
11.7	0.0300689922293484	0.00940501291361954	-0.00244548008057147	0.00192991368680264	-0.00244613288278755	0.00193844617476044	-0.00611611171701354	0.00416873099772881
11.8	0.0318112504006075	0.0040745965678883	-0.0021619787434191	0.00226838432239227	-0.00216609136568959	0.00227002875734056	-0.00582215576237537	0.00335238566792736
11.9	0.032820264628515	-0.00147564828089306	-0.00182040936030638	0.00255419559073761	-0.00183343928219018	0.00255835459910692	-0.00572953516006418	0.00294022333753718
12	0.0326781491344098	-0.00768932312650247	-0.0014498518910914	0.00278790854976137	-0.0014492695457489	0.00278932466859336	-0.00593153583684956	0.00234264230354852
