# GHZ S RI R 50
0.2	0.0056301153686505	0.00400787717342959	0.00304839015814555	-0.00089571862711895	0.00305875234433755	-0.000888903996422931	-0.0143509295767636	0.00761171379423464
0.3	0.00649498500119677	0.000451510945976229	0.00290523334215233	-0.00131764234987794	0.00289797281365151	-0.00130471453074571	-0.0130128289944284	0.00621142778687148
0.4	0.00580274337392173	-0.00235719041736726	0.00267570118106634	-0.00168834412584679	0.00268098429380991	-0.0016968955184912	-0.0129156072733803	0.00559434971119846
0.5	0.00419564503765079	-0.00411294121655764	0.0024198129929445	-0.00204498051135966	0.00243138546049879	-0.00205719843057297	-0.0132645672824197	0.00580517528898202
0.6	0.00246578699615866	-0.004758386699734	0.00211050365560645	-0.00236093111761759	0.0021097370587932	-0.00236809116517057	-0.0134968508007063	0.00671380583495323
0.7	0.00108209811060835	-0.00467893543175733	0.00176608429884675	-0.00264180442354338	0.0017641249794708	-0.00264200991701831	-0.0132980444928643	0.00801219753003804
0.8	0.000281490443629559	-0.00447009209920594	0.00138204972639003	-0.00286365320774702	0.00136942656338209	-0.00286825676638645	-0.0125208230747251	0.009293620351384
0.9	-0.00037610408851765	-0.00449066900792024	0.000964452157025315	-0.00303241101264879	0.000965523020444102	-0.00304315044213469	-0.0114316335972703	0.0101046238332742
1	-0.00129788535908371	-0.00478682959053312	0.0005369144456105	-0.00314084525605169	0.000527004942053353	-0.00314161249650039	-0.0104436587037087	0.0104294780312946
1.1	-0.00284807955094604	-0.00497244816918324	7.639363603486E-05	-0.00317346967404496	7.28927243024841E-05	-0.00319122806892015	-0.00997125178595328	0.0106378353949479
1.2	-0.00480053148413929	-0.00473726275998433	-0.000371961232354971	-0.00316476411106157	-0.000372779004212037	-0.00316267482329391	-0.00952601468429755	0.011129795370431
1.3	-0.00670139275375283	-0.00405674829062657	-0.000805755758232361	-0.00308090208840219	-0.000809018763167656	-0.00308291778935214	-0.00843411948090502	0.0118393610963059
1.4	-0.00803205036932511	-0.00316834997935481	-0.00123320285428773	-0.00292943248642801	-0.00123199356490339	-0.00293500386370124	-0.0068902892654027	0.0119345398063916
1.5	-0.00859222566203142	-0.00176020395002844	-0.00163866006002946	-0.00272827613177009	-0.00163706622172155	-0.0027368325131411	-0.00557257740075021	0.0116911316857084
1.6	-0.00838507570593077	0.000162514140675797	-0.00200140849646741	-0.00246928973403717	-0.00200164279704073	-0.00247455026734648	-0.00497672463868329	0.0118795078832569
1.7	-0.00735388053473247	0.00193520487199709	-0.00232943792306479	-0.00216566996910836	-0.00233037655771231	-0.00215937763081034	-0.00406766550587841	0.0123333191069278
1.8	-0.00592708468767697	0.00327536552614997	-0.00259752377932985	-0.00180837729789224	-0.00260855247607881	-0.00181397266604621	-0.00298264924662571	0.0125078761522251
1.9	-0.00449922466901107	0.00399548209146002	-0.00281828091540606	-0.00143372524530375	-0.00283071078535866	-0.00142749506054768	-0.00207002125949682	0.0124213129908706
2	-0.00325591982404791	0.00445439969628432	-0.00298857115567779	-0.00102441909413089	-0.00299817705505004	-0.001019659972399	-0.0014369794036021	0.0123617412115003
2.1	-0.00202259706777912	0.00480166293755862	-0.00309700302360598	-0.000596742081783217	-0.00309292855466656	-0.00059875085428593	-0.000800140710906365	0.0123997567491915
2.2	-0.000605692074140781	0.00505698631120583	-0.00315070397027263	-0.000161045902728938	-0.00316200983997054	-0.000163842644961004	8.45023684929247E-05	0.0125167332394997
2.3	0.00103835880036439	0.00479477515971737	-0.00314438963018305	0.000278834486348184	-0.00314410324212495	0.000271956297830298	0.00114564318450693	0.012404161369214
2.4	0.00256022074382958	0.00393999796279681	-0.0030724520716983	0.000713831409012517	-0.00307499748867684	0.000709579661874453	0.00226105377060336	0.0120533416032922
2.5	0.00360824399796182	0.00256835071519937	-0.00293765703469105	0.00112403940312	-0.00294854428021237	0.00113042577179441	0.00325629930656512	0.0113813841045746
2.6	0.00416402442215339	0.00112503033160719	-0.0027668387742076	0.00152703744487127	-0.00276327781265533	0.00151470154052545	0.00401857963532272	0.0106010920576726
2.7	0.00453108127931623	-0.000213064170198801	-0.00252368596262443	0.00190060082242875	-0.00252897778736249	0.00190061107510699	0.00451987501160528	0.00988287608160049
2.8	0.0049104203934609	-0.00166174807122973	-0.00224206630834891	0.00223214550007525	-0.00223422407732898	0.00224196765180934	0.00494977896530088	0.00938481161944042
2.9	0.00511499510370589	-0.00340538784667165	-0.00190661793936388	0.00253739562827796	-0.00190289240920274	0.00253696339438366	0.00559421797082371	0.00901930461982262
3	0.00481981119023817	-0.00526736703390381	-0.00151640001925687	0.00277753902607832	-0.00153124843081045	0.00278370158350777	0.00634997769717803	0.0086254890393104
3.1	0.00415107754609474	-0.00695957455511856	-0.0011198590036853	0.0029578761195378	-0.00111514536626319	0.00296625235617923	0.0070147536001587	0.0081592101643634
3.2	0.00314416920357348	-0.00851716923057085	-0.000691249957379622	0.00309563154676295	-0.000693008137441701	0.00309502610603901	0.00754063160293853	0.00781891656870522
3.3	0.00185433174845683	-0.0101044513435446	-0.00024428852825424	0.00316262881387528	-0.000242655835123707	0.00315885616678603	0.00828684004700612	0.00736418301921924
3.4	1.86211359748952E-05	-0.0115116904353092	0.000209957179438415	0.00315020753064487	0.00020386145504301	0.00316690405727947	0.00906990138499989	0.00656090915770884
3.5	-0.00232122862762995	-0.012576733407406	0.000636825761329588	0.00309840792437079	0.000642441806229426	0.00309842896393884	0.00950860569143973	0.00540204655104384
3.6	-0.00496252592630198	-0.0129101185762389	0.00106680260435176	0.00296827043276743	0.00107500573842988	0.00296786404619161	0.00963601592615985	0.00448452616371845
3.7	-0.00750761553851234	-0.012577781922108	0.00147475155676716	0.00277611254542418	0.00146532150747711	0.0027898945556188	0.009813174837072	0.00371985003776458
3.8	-0.00982374219184592	-0.0118119369185593	0.00184639201848217	0.00253929771433948	0.00184889424327952	0.0025484002035861	0.0100350007773291	0.00296782377625049
3.9	-0.0119192340325339	-0.0107879109030497	0.00218266253442894	0.00225939546465067	0.00217540853784955	0.00225770146039072	0.0102305446652483	0.00213339842510604
4	-0.013968350315117	-0.00942774927595639	0.00245618613001759	0.00193557498164771	0.0024605850754539	0.00193311230084339	0.0103645237709984	0.00132686333504219
4.1	-0.015806345383348	-0.00756616268436297	0.00269698069656184	0.0015771207910195	0.00269574321888196	0.00157786133704964	0.0105263296291563	0.000595833622820475
4.2	-0.0172062449457128	-0.00526026423338528	0.00288676221015145	0.00118125097531784	0.00289113691832406	0.00117257820649655	0.0107037880131303	-0.000116616186015056
4.3	-0.0180578768978926	-0.00288610340228624	0.00302350476964829	0.000777076979822958	0.00302983905697291	0.000769311970364591	0.0109287182344352	-0.000980406867193374
4.4	-0.0186732096727476	-0.000478647953227914	0.00309735122200074	0.000352005023405908	0.00309970051958083	0.000349760910708358	0.0110003763780368	-0.00193088997695943
4.5	-0.0190730580160607	0.00209950069570039	0.00312126122188218	-7.76523681544135E-05	0.00312657889775856	-8.10059471986588E-05	0.0109703867317196	-0.00292352126350516
4.6	-0.0191436710019255	0.00492966602280763	0.00308126697770075	-0.000514183204514895	0.00308248557048833	-0.000501349511149832	0.0107346151518285	-0.00395761002490497
4.7	-0.0184914334170672	0.0079486601436982	0.00298158555978073	-0.000929802336660834	0.00299680677095081	-0.000939360653499347	0.010295382417999	-0.0049058383120743
4.8	-0.0171229371703981	0.010776761532445	0.00282594580215732	-0.00134378969767807	0.00283440223234293	-0.00134985105933965	0.00985756578101979	-0.00565105668920245
4.9	-0.0150781996835376	0.013146137200295	0.00260906136618803	-0.00173044490200235	0.00261321845311298	-0.00172754358996194	0.00948997061931619	-0.00628623393820224
5	-0.0126814393292182	0.0149825605439458	0.00235059387142261	-0.0020895244332657	0.00235421412245252	-0.00208686416482087	0.00935637269025282	-0.00688842722977178
5.1	-0.00976711155474728	0.0164259448718624	0.00203810512703064	-0.00240400179833306	0.00204040793644832	-0.00240264846694447	0.00926987431888509	-0.00761804718494958
5.2	-0.0065212422428775	0.0171818471025971	0.00167629521657204	-0.00265616893685162	0.00167799109695004	-0.00266131739837177	0.00912386769984583	-0.00832068221337935
5.3	-0.00315886446817867	0.0170862443877063	0.00128379554838528	-0.0028711281603869	0.00128693685400854	-0.002869081910383	0.00900826022903345	-0.0089468832096919
5.4	-0.000147078151151266	0.016230910403915	0.000853195532364543	-0.00301473416624433	0.00087026440246145	-0.00302603631195891	0.00892478480061045	-0.00982878536593024
5.5	0.00229967010153404	0.0149981388712529	0.000435341054871719	-0.00310565282837937	0.000445293619144119	-0.00311512930182043	0.008500398661058	-0.0109217999014928
5.6	0.00436191524910125	0.0136171056215019	-4.34678191410491E-06	-0.00313237211648059	-1.28580862713413E-05	-0.00313550519848903	0.00759301338175197	-0.0118043081352885
5.7	0.00620256995135296	0.0120691165909388	-0.000432553331073216	-0.00309170538608097	-0.000449081724040734	-0.00309520166282325	0.00651303863021218	-0.0122575995450366
5.8	0.00784676171186702	0.0101419296125389	-0.000871071547542905	-0.00298745207486545	-0.000874684624892835	-0.00300128599237305	0.00552992898500332	-0.0125712641481415
5.9	0.00898735530639726	0.00780737513496659	-0.00126512947495684	-0.00284108176423095	-0.00127326754609295	-0.0028409460936494	0.00456222258115831	-0.0128028900436076
6	0.00936870827385026	0.00520758794488021	-0.00164989886235991	-0.00263275349428952	-0.0016463843683821	-0.00263293550360333	0.00352434295396582	-0.012918431902634
6.1	0.00905776076171632	0.00273876329310265	-0.00199124637235176	-0.00238131206113864	-0.00199285180573116	-0.00237735973359945	0.00266426742080291	-0.0128454123724401
6.2	0.00832622444251421	0.000479304602087466	-0.00229205159268821	-0.00207634153995569	-0.00229570892602346	-0.0020880375874692	0.00203101963534387	-0.0128330570441788
6.3	0.00738685345484672	-0.00171111562508813	-0.00256134154992642	-0.00175372828561357	-0.00257035084303262	-0.00174809433614444	0.00158161434467067	-0.0130235298997269
6.4	0.00583840697811033	-0.00386744294603091	-0.00278418083515883	-0.00137740275527674	-0.00277456563841628	-0.00138219165715148	0.00116209372860007	-0.0134208917585999
6.5	0.00378717032825177	-0.00551497232226654	-0.00294283392561616	-0.000986430776310316	-0.00295063014380212	-0.000982058377444067	0.000656125956054553	-0.0140123397591065
6.6	0.00161722808832132	-0.00638280301926499	-0.00305777911071911	-0.000573345461267294	-0.00305936178345331	-0.000577295448450721	-5.68871466861994E-05	-0.0145743556335164
6.7	-0.000367503737599436	-0.00673825734268894	-0.00311856349243052	-0.000143666910200301	-0.00312740635340171	-0.000137522122780022	-0.00109337656663583	-0.0148639359375826
6.8	-0.00233998766527988	-0.00683489203985989	-0.00310875728267244	0.000294492675636938	-0.00311983688807471	0.000299404243484146	-0.0021461957771669	-0.0147808151938827
6.9	-0.00453889503059493	-0.00652292696980114	-0.00304440269802259	0.000729089375488769	-0.00304740159768861	0.000731443907480034	-0.00305959970146952	-0.0145181992401689
7	-0.00677142005781706	-0.00558427545516101	-0.00291635699186478	0.00115476568213045	-0.00292914753738679	0.00115246676761143	-0.0038535235864639	-0.0143625410756891
7.1	-0.00879340630285455	-0.00388881882434259	-0.00274361644843505	0.0015504959553517	-0.00274001245347725	0.00155918454084692	-0.004825097429229	-0.0140700663642417
7.2	-0.0101804388305968	-0.00162691023292931	-0.00248838689785155	0.00192584343411456	-0.00249493046966556	0.00192789028747659	-0.00571099157678345	-0.0134878829771174
7.3	-0.0109087687231744	0.000722520827404043	-0.00219078117631991	0.00225075453587433	-0.00220201812199656	0.00225577386601892	-0.00627279664077602	-0.0128233591704822
7.4	-0.0111697006407022	0.00299528168709272	-0.00184495404187171	0.00253702614959064	-0.00185186105032918	0.00255062430509516	-0.00678709205095079	-0.0122084885211055
7.5	-0.0112707777882524	0.00503420231000909	-0.00147457774334426	0.00277594706601331	-0.00146759504895646	0.00278333805680408	-0.00694368705273822	-0.011940554546638
7.6	-0.0112195038497531	0.00703053625644799	-0.00106483716995236	0.00295086152294054	-0.00106621055040266	0.0029461771855571	-0.00700611790464963	-0.0123370560708137
7.7	-0.0104148867151219	0.00914357923999575	-0.000635857644970455	0.00306632234986627	-0.000637192594054728	0.00306526621767448	-0.00746051396529532	-0.0126930176073552
7.8	-0.00903575296805702	0.0108651969698238	-0.000213216084557146	0.00310906788007218	-0.000220972991640574	0.00311548570539191	-0.00818073329298515	-0.0130543233067552
7.9	-0.0069913401292542	0.0119633798428643	0.000220940999276742	0.00311104740434069	0.000228816713257893	0.00311254212350708	-0.00893125042026193	-0.0128738160794066
8	-0.00543707495614305	0.0131659939568849	0.000652658704462809	0.0030372361983024	0.000652725242293435	0.00304208989556011	-0.0100068181015948	-0.0133658763445926
8.1	-0.00286348727724489	0.0139233612210316	0.00105202339721669	0.00292222204753074	0.00107096983457953	0.00292339712175977	-0.0109033951636481	-0.0128871007012487
8.2	-0.00012579362717202	0.014228924334783	0.00144633064280784	0.00274921267764061	0.00145553912909158	0.00274216371355672	-0.0118265454850606	-0.0122926048269618
8.3	0.00268255173720307	0.013697333885008	0.00181565318653842	0.00252253972971984	0.00181388377342344	0.00253594477453757	-0.0125012266615627	-0.0115754009827016
8.4	0.0050948632481884	0.0125158107532639	0.00214922076660659	0.00225985017321592	0.00214621718956423	0.00225958853444391	-0.013040618481575	-0.0109752985393196
8.5	0.00700706924847309	0.0109673649348182	0.00243890246978752	0.0019446997453762	0.00243796345511468	0.00194785208569518	-0.0136820995893078	-0.0104376409052609
8.6	0.00858332302518651	0.00935735047949723	0.00269450752520223	0.00159789785838468	0.00270408417679267	0.00159152862215074	-0.0144098896418541	-0.00986206847410557
8.7	0.0100792716270973	0.00746953194386056	0.00289446648317941	0.00120447694351763	0.00290001472942479	0.00120529236050437	-0.0151907921193901	-0.00913327567105687
8.8	0.0113870954928066	0.00506788831299664	0.00304751073097427	0.000797324170680573	0.00305344046947137	0.000788631179363021	-0.0159385093735823	-0.00830428457781256
8.9	0.0121820469783013	0.00201638390168528	0.00314161311612034	0.000360875683297296	0.00314077129166641	0.000358601859674333	-0.016332399622914	-0.00723153966825261
9	0.0120640530058873	-0.00138418484976283	0.0031657117292659	-9.06226141922169E-05	0.00316883956454305	-8.6444317191957E-05	-0.0163373034238829	-0.0061769235119597
9.1	0.0112426404539728	-0.00473355984976514	0.00312959053336475	-0.000544405035488251	0.00313235885054558	-0.000531344395321308	-0.0160844765794836	-0.00529851087002655
9.2	0.00957427903247308	-0.00788024424903929	0.0030245709585029	-0.00097632464497983	0.00303233973369475	-0.000979166939342933	-0.0158235764231225	-0.00461567275386272
9.3	0.00716769294468316	-0.010724464446444	0.00285495340016579	-0.00139572059578231	0.00285424433373805	-0.00140077325041884	-0.0154483090225344	-0.00394884858458752
9.4	0.00388117429259298	-0.012898763844484	0.00262676527637288	-0.00179775876678648	0.00263332237240575	-0.0017900535960535	-0.0150353941731497	-0.00338443481670976
9.5	-4.39701589863401E-05	-0.0141213177847599	0.00234268288817668	-0.00213955275816804	0.00235017058021006	-0.00214090331223808	-0.014801649811209	-0.00314641273284463
9.6	-0.00407049103214435	-0.0140883731454981	0.00201584261105424	-0.00244609479376494	0.00201617536230914	-0.00244510474317795	-0.0149215623514605	-0.00283497850476737
9.7	-0.00778292766385254	-0.0130852319281352	0.00164001731740239	-0.00269505014691046	0.00164557882029108	-0.00270240751534711	-0.0151602999994096	-0.00224112479210032
9.8	-0.0111332687023126	-0.0115231096540894	0.00124956954651994	-0.00289924328592087	0.00125529997843562	-0.00289071668775011	-0.0153180373448782	-0.00142313751889295
9.9	-0.0142409497054694	-0.00943021655740701	0.000842881288381621	-0.0030325543021407	0.000835535141168435	-0.00303132289149524	-0.0153449598569563	-0.000518637867938614
10	-0.017186293278158	-0.00659806665266073	0.000415391645541851	-0.0031169180661211	0.000407912028361622	-0.0031293764943888	-0.0152448792276423	0.00038360535145987
10.1	-0.0194591265648396	-0.00292445233866119	-2.10984945446622E-05	-0.003146534727339	-3.13435660888991E-05	-0.00314117526996226	-0.0149937817239926	0.00116180906762934
10.2	-0.0207034446853307	0.00120129699403107	-0.000460468909777304	-0.00311212384905733	-0.000463889338998209	-0.00310936415280553	-0.0146336253106203	0.00193303504930572
10.3	-0.0210085082390231	0.00532596213903141	-0.000887604216364481	-0.00301330194421114	-0.000879440914960815	-0.00302231718071167	-0.0140812064560071	0.0026507826402269
10.4	-0.0206866651463875	0.00931035347610116	-0.00128299153235634	-0.00286881962968711	-0.00128123287820539	-0.00287501193151483	-0.0132321042119988	0.00303614139761306
10.5	-0.0198847683940212	0.0133807970781474	-0.00167761600026369	-0.00268195381032431	-0.0016746419964924	-0.00266886135796802	-0.0124594264299891	0.00304888838874499
10.6	-0.0180956671852673	0.0177295872021371	-0.00203914004786377	-0.00242263849095567	-0.0020368930003896	-0.00242646347931631	-0.0119659862486648	0.0029731315688152
10.7	-0.0152355787826488	0.0218238848817068	-0.00236786684775004	-0.00212791346632059	-0.00236439671203653	-0.00212253801366874	-0.0116728109628929	0.00299861936421533
10.8	-0.011388436125077	0.0252072637783141	-0.00265369761758057	-0.0017694185304707	-0.00264833697564881	-0.00177840945893346	-0.0114382193404051	0.00313544243994306
10.9	-0.00704877301083075	0.0278360375838915	-0.00287872751963503	-0.00139049522601723	-0.00288400434067204	-0.00138979600216913	-0.0112557010412143	0.00328311438110951
11	-0.00212213292890941	0.0297408970530258	-0.00305280539050044	-0.000962651624172485	-0.00305769879231437	-0.000969541656142692	-0.0109888647890308	0.00348067067371204
11.1	0.00336428309566417	0.0308767258622678	-0.00317155088897198	-0.000521359342710236	-0.00316048721917344	-0.000518416533212185	-0.010717379785499	0.00362428218978966
11.2	0.00943537496494587	0.0308045475697433	-0.0032044886943335	-6.42800907909795E-05	-0.00321178907918854	-6.92064140214286E-05	-0.0103840609811128	0.00384395450186483
11.3	0.0156702629874039	0.0289337658482872	-0.00317423877432292	0.000404168423377788	-0.00318605124967156	0.000393986369814569	-0.00964812396175618	0.004011878317178
11.4	0.0212170850216603	0.0257666767399426	-0.00309078039296323	0.000848982047842433	-0.00308571784332076	0.000856648250424505	-0.00897459713755876	0.00411075514075883
11.5	0.0258987488068686	0.0215558187823361	-0.00293240228013021	0.00127671834138169	-0.00293511730992251	0.00128719034198329	-0.00838123465240917	0.00400300083057798
11.6	0.0295918869441164	0.0164665413395216	-0.002720276832063	0.00167281960189656	-0.0027202204435051	0.00167579935223324	-0.00779538850403812	0.0035329940730395
11.7	0.0323730135129675	0.0107293408662045	-0.00244118476844451	0.00202624159953011	-0.00244163497178273	0.00203494470090611	-0.00731349114222845	0.00298374951637709
11.8	0.0340382945913267	0.00437970414718804	-0.00213073319423999	0.0023514353455052	-0.00213485448771506	0.00235320490036965	-0.00684839482157888	0.00253995563531957
11.9	0.0342042950398432	-0.00214456156037689	-0.00177115184371572	0.00261597478417882	-0.00178417126512495	0.00262047818536197	-0.0065104358214615	0.00238442218566043
12	0.0329396408194462	-0.0086166760918584	-0.00139347968493575	0.0028263775675243	-0.00139286529740102	0.00282778478798553	-0.00606330128404145	0.0017287885694232
