# GHZ S RI R 50
0.2	0.00562781163201161	-0.000513926841617635	0.00304836434768408	-0.000899643748690687	0.00305873815476194	-0.00089283910349035	-0.0142989923898561	0.00317438064336675
0.3	0.00584919661488075	-0.00133091184033812	0.00290330255285009	-0.00132427685721784	0.00289606750710282	-0.00131132949188037	-0.0135947518609239	0.00450115721217
0.4	0.00607092449412959	-0.00239677472037233	0.00266999879442641	-0.00169690188847854	0.00267525369348854	-0.00170546975630837	-0.0126263321635443	0.00562581885037778
0.5	0.00590949803704331	-0.00380150143190004	0.00240877181873626	-0.00205362792145495	0.00242028091624955	-0.00206588500161058	-0.0115927441117553	0.00624933087116595
0.6	0.00514462203461895	-0.00525903577526572	0.00209366525027151	-0.00236688230192735	0.00209286294412479	-0.00237402300872462	-0.0108718843336463	0.00647262638816558
0.7	0.00368562482601338	-0.00637636830795809	0.00174434047985692	-0.00264208766310357	0.00174238728708206	-0.00264228114779772	-0.0106566537692358	0.00669768694265642
0.8	0.0019144011197334	-0.00686470687838564	0.00135783883807245	-0.00285581538774915	0.00134525883766914	-0.00286032045433311	-0.0106820582354679	0.00730265828430648
0.9	0.00010879752122305	-0.00660870046525911	0.00094127757019133	-0.00301510241452965	0.000942283689743771	-0.00302576813695426	-0.0106127078751192	0.00826106088516142
1	-0.00132038880152233	-0.00587581400199752	0.00051871129581603	-0.00311442933228587	0.000508889059667958	-0.00311514760615138	-0.0101767973073186	0.00940765571122844
1.1	-0.00238045717667877	-0.00505615253652449	6.71495014635688E-05	-0.00314012432640202	6.36383897960887E-05	-0.0031576856808053	-0.00946520467282174	0.0105155741621284
1.2	-0.0032862821760365	-0.00456160710352829	-0.000369849228944808	-0.00312798067976959	-0.000370656122335718	-0.0031259149425558	-0.00829543642336462	0.0113780858688899
1.3	-0.00449166922500399	-0.00434543504733617	-0.000791461589140018	-0.00304533923440958	-0.000794682576876295	-0.00304733581831081	-0.00667943735744064	0.0118913204427324
1.4	-0.00571271667422513	-0.00390465606951715	-0.00120769046603849	-0.00289978339406951	-0.00120647428723282	-0.00290528495091704	-0.00502822544898262	0.0116941087298949
1.5	-0.00631686434894462	-0.0029586204107804	-0.00160478768111718	-0.00270831138642438	-0.00160316071759793	-0.00271676547094578	-0.00374306284338578	0.011128060220454
1.6	-0.00646023690379525	-0.00165710194285911	-0.00196357427403632	-0.00246132889703017	-0.00196376601404649	-0.00246654156447257	-0.00328884127174398	0.0108871821387336
1.7	-0.00617221912012587	-0.000196443305707087	-0.00229237713966982	-0.00217004795006754	-0.00229336490921053	-0.00216381180484479	-0.0028681692733082	0.0110619243418929
1.8	-0.00548001155994456	0.00137772605687447	-0.00256588159168181	-0.00182334160747879	-0.0025767959189111	-0.00182901197415871	-0.00232245714834674	0.011340957218336
1.9	-0.00430625873344773	0.00265657234374785	-0.00279505118517706	-0.00145585964694671	-0.00280749874231436	-0.00144976943934555	-0.00167876620037348	0.0116229775215599
2	-0.00285518205997446	0.00349955738850453	-0.0029752104645529	-0.00104952543588101	-0.00298484499090709	-0.00104485847474823	-0.000989096427527317	0.0118997795548899
2.1	-0.00133626327351549	0.00380088898633214	-0.00309285149421411	-0.00062045469631582	-0.00308876116564227	-0.000622432635321079	-0.000157089281693582	0.0120242642352951
2.2	3.23066888367262E-05	0.00376570810252647	-0.00315325046975115	-0.000179972292096576	-0.00316455227474828	-0.000182839417256749	0.000791502629575032	0.0120031533426365
2.3	0.00125710758103111	0.00342107454572232	-0.00314992659384431	0.000266449063008374	-0.00314961185796709	0.000259562404558957	0.00166888792108474	0.0117625958614375
2.4	0.00237762148358077	0.00292806782449052	-0.0030769728461333	0.000707690399372055	-0.00307951125322335	0.000703428937300541	0.00249520659540695	0.0115200174979891
2.5	0.00346219941694072	0.00215613155781719	-0.00293784629969574	0.00112188614136457	-0.0029487357142133	0.00112826411138234	0.00335516144003811	0.0111548095985099
2.6	0.00444675011152917	0.00104516947127268	-0.0027610069676053	0.00152519063615506	-0.00275745745299754	0.00151287679209699	0.00421898405520041	0.0106552746640398
2.7	0.00520230037872744	-0.000342215464756321	-0.00251226381235137	0.00189489489037008	-0.00251753459728912	0.00189490897740891	0.00489407975614451	0.0100400638699288
2.8	0.00574277760147068	-0.00189878137958227	-0.00222753036344118	0.00221901700626066	-0.00221973367181976	0.00222877606094182	0.0054080540849084	0.00955887246250985
2.9	0.00612418663484113	-0.00363383727656394	-0.00189323602477828	0.00251465720538188	-0.0018895408653166	0.00251423201773592	0.00609315231257579	0.00925003489315934
3	0.00614878988935182	-0.00561659151269631	-0.00150936132121378	0.00274551890232112	-0.00152407988562076	0.00275157715431313	0.00694982424749717	0.00892307231103226
3.1	0.00570684966682308	-0.00773810225256128	-0.00112367229973796	0.0029191176196993	-0.00111905646146379	0.00292742720225824	0.00777663337232133	0.00841460384610568
3.2	0.0045739470690437	-0.00976654514768247	-0.000709483445913386	0.0030547461459283	-0.000711216612877335	0.00305413276035153	0.00835764750111869	0.00791675794788107
3.3	0.00295247492783211	-0.011558648729451	-0.000278048048613523	0.00312583610015095	-0.000276389496362361	0.00312212277326316	0.00902561614000246	0.00735193177538165
3.4	0.000898041923338189	-0.0129068122838014	0.000162456342821983	0.00312407792915271	0.000156175597047543	0.00314053171871186	0.00969212962312391	0.00655693677146206
3.5	-0.00140348863398131	-0.0139169136707172	0.000579692508072321	0.00308779895437887	0.000585269323185575	0.00308791541623319	0.010082783220943	0.00551696590785092
3.6	-0.00402488248412559	-0.0144666639523763	0.00100654312164118	0.002976931337329	0.00101472213103993	0.00297668162807756	0.0102615693620289	0.00462554207436132
3.7	-0.00681077788887264	-0.0144150912766845	0.00141887608303484	0.00280454552855673	0.00140917452109321	0.00281813465805754	0.0104772514296001	0.00382921808886231
3.8	-0.00958866377326017	-0.0136639277547092	0.00180189784869382	0.00258482492221501	0.00180422660711997	0.00259400832297125	0.0106488448360252	0.00301755878494987
3.9	-0.0119933922226396	-0.0123152802836563	0.00215506428272721	0.00231681664232581	0.00214779141801658	0.00231497275190742	0.0107366928635752	0.00219757698905824
4	-0.0140011479917551	-0.0106177408277121	0.00244842170945313	0.0019974357230306	0.0024529079837282	0.00199502279895881	0.0108158688259666	0.00149005826272056
4.1	-0.0156767818328376	-0.00868586354198787	0.00270900824279023	0.00163602135119945	0.00270774426316368	0.00163675367158471	0.0110211546852521	0.000844799069708754
4.2	-0.0171080340464186	-0.00644109087011747	0.0029154663799457	0.00123023498278402	0.00292000019767146	0.00122148510259033	0.0112643564870949	0.000126125318379107
4.3	-0.0181506557419419	-0.00393175828911468	0.00306312777980983	0.00081152168558643	0.00306961577877879	0.000803687572168879	0.0114719670149325	-0.00076728393957474
4.4	-0.0187618065484423	-0.00116061632852476	0.00314094889395181	0.000369904447702915	0.00314334162052118	0.00036763738823187	0.0114700084721739	-0.00170739631089578
4.5	-0.0188200091385909	0.00169860838046278	0.00316216628788759	-7.49925231828556E-05	0.00316755744649574	-7.8383692172036E-05	0.0113936155933215	-0.0026104341208908
4.6	-0.0184467226914303	0.00444969528764608	0.00311412211622106	-0.000522928234510572	0.00311536713199698	-0.000509956746377567	0.0111712985426027	-0.00356895046580523
4.7	-0.0175795185736567	0.00714841154691751	0.00300361405897338	-0.000944187836369862	0.00301893667317278	-0.000953858588434897	0.0108054608745664	-0.00446969093098314
4.8	-0.0163012012797159	0.00971844446395953	0.00283729727162705	-0.00135793270250652	0.00284578252104201	-0.00136404702967444	0.0103533417775632	-0.00523949476489309
4.9	-0.0142946317142021	0.0120556351116947	0.00261263269089192	-0.00173926474451182	0.00261680518493178	-0.00173636329531009	0.00996380602793535	-0.00584661401072251
5	-0.0117761321571501	0.0138008969435736	0.00235132337050377	-0.00209009498693743	0.00235494463621697	-0.00208743386963042	0.00982699525083064	-0.00634780845924544
5.1	-0.00885926346505361	0.0149281190047465	0.00204173058358011	-0.0023962033548585	0.00204402740682844	-0.00239484586568159	0.00982489100432628	-0.00697632038961919
5.2	-0.00596509538936157	0.0154341853946382	0.00168787326171951	-0.0026428748590763	0.00168959408783732	-0.00264800590354352	0.00979687837868946	-0.00767899863046834
5.3	-0.00305182841143952	0.0154842627323949	0.00130660809838709	-0.00285744040939308	0.00130972903961105	-0.00285536984964419	0.00972036397798221	-0.0083973568924369
5.4	-0.000156108101372405	0.0150362767847232	0.000887529954889683	-0.00300717126242556	0.000904736719138325	-0.00301828968507546	0.00957969557387811	-0.0093391907919714
5.5	0.00253532423099753	0.0140320234158046	0.000478571902719506	-0.00311007659328326	0.000488684931614035	-0.00311945051846595	0.00910187331803055	-0.0103980478123252
5.6	0.00483276039812958	0.0125048968479222	4.21890512942011E-05	-0.00315354687074637	3.36669620756414E-05	-0.00315682759478467	0.00823968833562273	-0.0112157501955464
5.7	0.00654581540747842	0.0107203372992131	-0.000390149404162889	-0.00313125274667454	-0.00040680088371533	-0.00313503765989666	0.00724769256638137	-0.0116654184232499
5.8	0.00783964889072909	0.00880420474830234	-0.000841075843091072	-0.00304396612430278	-0.000844543822133393	-0.00305805571012066	0.00636352327435158	-0.0121272301068275
5.9	0.00876484051657472	0.00687329296700823	-0.00125384674449696	-0.00290932999736484	-0.00126213760869867	-0.00290929142498763	0.00532936974966385	-0.0125604105803278
6	0.00935531953642317	0.00474667200395061	-0.00166208037999977	-0.0027049982867146	-0.00165848768059271	-0.00270515254208116	0.0040746097204908	-0.0127769508920736
6.1	0.00950916015297688	0.00241595137411631	-0.0020273989751691	-0.00244835633154872	-0.00202906244985849	-0.00244431688966215	0.00299430879110444	-0.0126519633688316
6.2	0.00907609787255147	-3.58027237489602E-05	-0.00234900668163684	-0.00212902989894538	-0.00235275269930764	-0.00214102031574836	0.00223064960872986	-0.0125462359857553
6.3	0.00814348272507335	-0.00238309833745635	-0.0026328426207092	-0.00178556419860581	-0.00264204970258165	-0.00177974953058505	0.00162831108773627	-0.012709469470877
6.4	0.00678926262723596	-0.00458362511685892	-0.00286125182717615	-0.00138404885693592	-0.00285145718200071	-0.00138903614924252	0.00106897562864355	-0.0130181034501711
6.5	0.00506046672134779	-0.00655662590381483	-0.00301566105162102	-0.000968482248297116	-0.00302355980799137	-0.000963919724392699	0.000500784980279299	-0.0133818181290499
6.6	0.00285550914681882	-0.00802682704358922	-0.00311802231692366	-0.000534649766802041	-0.0031196938689517	-0.000538640881549325	-8.76572706661911E-05	-0.0137021109055667
6.7	0.000351589206806413	-0.00873075296165352	-0.00316017748720616	-9.11151651709402E-05	-0.00316902414935341	-8.47391934688827E-05	-0.000916164365978288	-0.0139092045144055
6.8	-0.00214143474319671	-0.00861995475337674	-0.00312907872547159	0.00035212546979398	-0.00314016216656613	0.000357274183554776	-0.00186203043620736	-0.0138874386742714
6.9	-0.00437296795609069	-0.0079470177803373	-0.00304485332007976	0.000783389350751597	-0.00304782511595741	0.00078580421063861	-0.00274969742956452	-0.0137429791540117
7	-0.00628033347270454	-0.00685032952637458	-0.0029015390258884	0.00119885092560284	-0.0029143736133659	0.00119673960186813	-0.00365340640404969	-0.0134879219998972
7.1	-0.00805591442085456	-0.00548971521624281	-0.00272051793613934	0.00158066418338889	-0.00271681622050914	0.00158929521576847	-0.00458589587356202	-0.0129786818555004
7.2	-0.00969493951666238	-0.00372053698624785	-0.00246447892966683	0.0019414338015043	-0.00247098548741469	0.00194353063267786	-0.00522505088178137	-0.0122585953894961
7.3	-0.0110959303314983	-0.00146155878355515	-0.00217272262390701	0.00225502495631154	-0.0021839000155765	0.00226008600042601	-0.00549264926766337	-0.0116938389961028
7.4	-0.0120190287013713	0.00110781024246524	-0.00183683686986247	0.00253567960448841	-0.00184370594420416	0.00254926505543515	-0.00569045981934048	-0.011646308597465
7.5	-0.0122540453490168	0.00390411483353328	-0.00147724466720048	0.00277595337040921	-0.00147026471224066	0.00278335254162467	-0.0060089058316885	-0.0117239329834513
7.6	-0.0115827201066706	0.00670865889125436	-0.00107559812808466	0.00295875375911765	-0.0010769652433736	0.00295404962407263	-0.0065029287291532	-0.0116994764132107
7.7	-0.010752232196707	0.00900496520675083	-0.000648885535762979	0.00308650409435037	-0.000650227116384998	0.00308543671433815	-0.0071570823134011	-0.0124587556989551
7.8	-0.0089924366737864	0.0110154534496827	-0.000221212082072802	0.00314251804449469	-0.000229065131206422	0.00314899156243373	-0.00814108682031962	-0.0127794580128734
7.9	-0.00674654889277661	0.012429157843773	0.000225465935999369	0.00315538181156962	0.000233454788110872	0.00315689441128333	-0.00924920764997477	-0.0129138169096392
8	-0.00377380132177283	0.0130634380595922	0.000675611135452987	0.00308603143447515	0.00067569784210919	0.00309096694079897	-0.0103345628534259	-0.0123114661585761
8.1	-0.00116861955067825	0.0131261441583708	0.00109562472783821	0.00296730125661444	0.00111492974405903	0.00296834085684104	-0.0114347234595273	-0.0117846642951744
8.2	0.00133633345652707	0.0127160048567779	0.00150932186832194	0.00278106453460481	0.00151860800551979	0.0027737637647758	-0.012126059845637	-0.0109108678827001
8.3	0.00374551353607732	0.0119773747295721	0.00189233390613845	0.00253288685604871	0.00189077656474576	0.0025465533168676	-0.012593273980242	-0.0101535993351175
8.4	0.00606030246138523	0.0108737444297901	0.00223080556086858	0.00224366128872557	0.00222775323694557	0.00224346359845778	-0.0131118172115347	-0.00957103091237573
8.5	0.00817824193583997	0.00919432136692737	0.00251449684961018	0.00190083338400137	0.00251363056354381	0.00190404232972091	-0.0138258403424305	-0.00888797703800993
8.6	0.00980776134240122	0.00704317219215212	0.00275395848117838	0.00152952270255972	0.00276340360934913	0.00152284791837709	-0.014473336224694	-0.00800259279835855
8.7	0.0108583292947051	0.00457246268610301	0.00292899729709784	0.0011191323829308	0.00293456788068775	0.00111978464016095	-0.0148744791400342	-0.00705340381916962
8.8	0.0113451058330301	0.00209366620987957	0.00305278630914848	0.000705017613075248	0.00305843155507114	0.000696204398553325	-0.0151765203773479	-0.00625852706672553
8.9	0.0115559823226508	-0.000449931514636791	0.00311706650680824	0.000272913079775516	0.00311617302458299	0.000270686526693098	-0.0153013024027904	-0.00546312418096561
9	0.011398746838897	-0.00325086885739071	0.00311559788611178	-0.000163631314686159	0.00311877648520949	-0.000159589842959198	-0.0153038097783633	-0.00465160535016267
9.1	0.0106133320167089	-0.00625715448972355	0.0030617937535191	-0.000594918755264816	0.00306476379401694	-0.000582150641596124	-0.0151578645808227	-0.00386485155805172
9.2	0.00900970941175522	-0.00915718633055515	0.0029494921199195	-0.00100089544689824	0.00295706316194324	-0.00100379412633394	-0.0148755931065017	-0.00323772223292021
9.3	0.0067355531665531	-0.0115940707894618	0.00278281116594309	-0.00139506173213136	0.00278206718874271	-0.00140000394122134	-0.0145329963946455	-0.00275847251664587
9.4	0.00403549315506461	-0.013568014530906	0.00256614186973061	-0.0017765803596385	0.00257261184286154	-0.00176905977742246	-0.0143646807527694	-0.00255039526919447
9.5	0.000793748864865891	-0.0147306897478042	0.00229915290221744	-0.00210612276351154	0.00230650954253739	-0.00210746106186294	-0.0143637460126958	-0.00203122713519347
9.6	-0.00286942005337453	-0.015351749469015	0.00199059506503475	-0.00240914390372211	0.00199092188248018	-0.00240816735359087	-0.0145902705849645	-0.00148337997898341
9.7	-0.0068261427274431	-0.0149908363874789	0.00163038454400471	-0.00266281279382134	0.00163590856315312	-0.00267007922394952	-0.0146895951478223	-0.000726648871915239
9.8	-0.0107312688265816	-0.013591537958278	0.00124939061875646	-0.00287718105892583	0.00125506100640464	-0.00286869381970163	-0.0146730855653824	1.00615969178032E-05
9.9	-0.0142449015672087	-0.0111124826206052	0.000844431704514805	-0.00302265709426849	0.000837105222818902	-0.00302143892400961	-0.0147958312012593	0.000769670947535233
10	-0.0170805089220452	-0.00801014129637165	0.000411169393838523	-0.003117026025408	0.00040367421035952	-0.00312947267844381	-0.0148758416275467	0.00162408964989947
10.1	-0.0192256137217248	-0.00438257282000804	-3.66218530840447E-05	-0.00315095129346088	-4.68552540076732E-05	-0.00314553369119022	-0.0147326294620973	0.00253978224823981
10.2	-0.0206465544905282	-0.000310482329551904	-0.000489241591030756	-0.00311286429368412	-0.000492642522581595	-0.00311006943280835	-0.0142779178691903	0.00340762990283256
10.3	-0.0211537302247695	0.00416389040837494	-0.000927199175931746	-0.00300215562515543	-0.000919152627658458	-0.00301127917117886	-0.0136200288320638	0.00400155901840998
10.4	-0.0205340204813415	0.00870547454832491	-0.00132724983606156	-0.00283961949589059	-0.00132559908541728	-0.00284582415761857	-0.0128922711001034	0.00419020311649335
10.5	-0.0189036937272917	0.0129943781788243	-0.00171764681778058	-0.00263130779601549	-0.00171444160457706	-0.00261836234545557	-0.0124017434757246	0.00428919146265191
10.6	-0.0164706567563719	0.0167921768440576	-0.00206452957800063	-0.00235222191797397	-0.00206238739416536	-0.00235604754247837	-0.0120307239843693	0.00442914208944101
10.7	-0.0134321671636484	0.0202158814493336	-0.00236992626124784	-0.00204351313624055	-0.00236640762607523	-0.00203830028272489	-0.0116188087738172	0.00470747459418295
10.8	-0.00970600535418344	0.0231400084133239	-0.00262620785370291	-0.00168107287774639	-0.00262113223848716	-0.00168995908433613	-0.0111851104720504	0.00484328835510487
10.9	-0.00523803923864158	0.0254254366893778	-0.0028208774648271	-0.00130969309623784	-0.00282599988629731	-0.00130893438931428	-0.0109399877758248	0.00502508987141298
11	-0.000220630301180119	0.0267265348105915	-0.00296785880571226	-0.000901478267193104	-0.00297267082639585	-0.000908104185325242	-0.0107657414172985	0.00535573692368752
11.1	0.00493737371679947	0.0269415074645039	-0.00306764663558108	-0.000489067912925707	-0.00305694017716243	-0.000486275438986716	-0.0104042312933869	0.00583054280985065
11.2	0.0099885448238245	0.026166997726429	-0.00309387693379597	-6.66304059464077E-05	-0.0031009185131522	-7.13972294378132E-05	-0.00966247944367249	0.00628334328268361
11.3	0.0149423953961741	0.0246402358008168	-0.00306986103781657	0.000366421973329638	-0.0030811964858714	0.00035649500457457	-0.00863133092223501	0.00654818169138139
11.4	0.0196096027658546	0.0221544269159048	-0.00300429063131653	0.000780870355602064	-0.00299949059972364	0.000788361488386705	-0.00761670303516705	0.00627220743385187
11.5	0.0238199367227585	0.018634468956755	-0.00287343157883922	0.00118728069133798	-0.00287626182199937	0.00119740912989932	-0.00700981371089155	0.00560143725134456
11.6	0.0273724359907338	0.0142331118386668	-0.00269343413168174	0.00157383978954242	-0.00269344461348858	0.00157675106697415	-0.00652516604942586	0.00499788333902897
11.7	0.0299824990198638	0.00924505473392432	-0.00244625154845031	0.00193053048429529	-0.00244690454049549	0.00193906567881087	-0.00602696314248987	0.00425116386955114
11.8	0.0317595885412886	0.00391629170441089	-0.00216256489870125	0.00226914492800897	-0.00216667872159621	0.00227078999594258	-0.0056835961319707	0.00335350784183359
11.9	0.0328088689663398	-0.00166234167514026	-0.00182078763503446	0.00255503525393998	-0.00183382107178925	0.00255919620490889	-0.00560455155177467	0.00281983157864129
12	0.0326729577129291	-0.00791758503563864	-0.00145003248817263	0.00278876397811954	-0.00144944988108284	0.00279018043306804	-0.00590815639518151	0.0021572693579172
