# GHZ S RI R 50
0.2	0.0063362123221927	0.00482784014080578	0.00304815491700635	-0.00089478947431225	0.00305851374303727	-0.000887973198415364	-0.0135944280983171	0.00847682908272467
0.3	0.00691558257298576	0.000584291552947321	0.00290541197504046	-0.00131578261390087	0.00289814566189876	-0.0013028612711583	-0.0125426052865548	0.00635623540372687
0.4	0.00577146456009166	-0.00227664442435406	0.00267698375248467	-0.00168575144413055	0.00268227414253121	-0.00169429722469815	-0.0129583739243888	0.00566507657970101
0.5	0.00399668236216957	-0.00369734260358778	0.00242276158192582	-0.00204224640205693	0.00243435122236302	-0.00205445162071078	-0.0135666397473762	0.00625504888370428
0.6	0.00249600736344802	-0.00402584732504218	0.00211530130649329	-0.00235897432928903	0.00211454532475285	-0.00236613948937021	-0.0136222006088222	0.00759799610602944
0.7	0.00152220267492811	-0.00394232854854651	0.00177244986986049	-0.0026416141415854	0.00177048881578803	-0.00264182318167704	-0.0129744057405401	0.00903328136621756
0.8	0.000977461608848711	-0.00404036906927905	0.00138916940992345	-0.00286605226226464	0.00137653315807646	-0.00287068474468951	-0.011826864888497	0.0100705158247729
0.9	0.000237672769366425	-0.00441686521481143	0.00097112866398989	-0.00303782102696496	0.000972217882492339	-0.0030485830963381	-0.0107167422721559	0.0104735425748844
1	-0.000999210696933119	-0.0048213262987851	0.000541828032942996	-0.00314907050893022	0.000531891572794577	-0.00314985065309202	-0.0100518544458433	0.0105702206915471
1.1	-0.00279556559560547	-0.00478637754534057	7.82779255091785E-05	-0.00318370163407686	7.47748432463515E-05	-0.00320151931235632	-0.00996790674364721	0.0109338714114206
1.2	-0.00470354433790096	-0.00423066196509673	-0.000373840885399053	-0.00317578804115601	-0.000374661143043626	-0.00317369128215907	-0.00964675058267159	0.0118386626192333
1.3	-0.00637354841428359	-0.00341396222753349	-0.000811597373350104	-0.00309113863640057	-0.00081487397809228	-0.00309315840457357	-0.00837680057536554	0.0128576086246008
1.4	-0.00751658280840784	-0.00255300102924805	-0.00124257530732275	-0.00293727941123158	-0.00124137168780856	-0.00294287196812481	-0.00662578720480189	0.013065090691441
1.5	-0.00787591293357592	-0.00121634225595161	-0.00165047068122245	-0.00273246838853528	-0.0016488934149674	-0.00274105477079161	-0.00505375329096572	0.0128916049182618
1.6	-0.00748901542137198	0.000488454250644453	-0.00201404763996332	-0.00246909137932216	-0.00201429897307198	-0.00247436409597652	-0.00414645234774013	0.0129836249736093
1.7	-0.00647640895105972	0.0019520229143159	-0.00234115553760393	-0.0021610315839826	-0.00234207326823162	-0.00215472515909434	-0.00303236531426883	0.0131237463733739
1.8	-0.0052571568718538	0.00311090764268126	-0.00260658276677298	-0.00180004421366486	-0.00261764202021014	-0.00180560244150277	-0.00201827857731156	0.0129516788190341
1.9	-0.00404644771261982	0.00387524496938733	-0.00282351792070666	-0.00142307398335203	-0.00283592377068179	-0.00141679746419998	-0.00136482969424768	0.0127332045967487
2	-0.00284422098801142	0.00448804878236836	-0.00298942790286377	-0.00101321815043784	-0.00299900884326162	-0.00100843021764493	-0.000927237336510538	0.0127865225124052
2.1	-0.00148701762665437	0.00488958560376378	-0.00309380386798056	-0.000586847208383093	-0.00308974167851705	-0.000588864557747273	-0.00026154819028192	0.0130000206383018
2.2	2.75949987080381E-05	0.00500716491674596	-0.00314454265720594	-0.000153936540289263	-0.00315583119036387	-0.000156703188602224	0.000802757905988297	0.01312209472256
2.3	0.00156294373799201	0.00454970349373516	-0.00313689755150371	0.000282338422828968	-0.00313662085926703	0.000275475443915297	0.00194600196518215	0.0127911502227468
2.4	0.00281601041724674	0.00368875002881019	-0.00306543606846523	0.000713771109675886	-0.00306797802063078	0.000709529826520504	0.00287042309555723	0.0122043245116442
2.5	0.00368089652178865	0.00254530503565364	-0.00293264215913152	0.00112131051578113	-0.00294351135315054	0.00112768277581301	0.00352032363255237	0.0115331513470964
2.6	0.00429926586813811	0.0013713006705047	-0.00276467292991476	0.00152305770820598	-0.00276110675620868	0.00151073945882778	0.00405934493397295	0.0109958605335017
2.7	0.00485210522091667	0.00013703615210014	-0.0025244754337382	0.00189704415551716	-0.0025297647417566	0.00189704884897311	0.00456039888802726	0.010526175111311
2.8	0.00535491743104619	-0.00131855949311113	-0.00224508492576185	0.00223048746209796	-0.00223725055178513	0.00224032081521396	0.00504712592626666	0.0101523897931543
2.9	0.00565202224725722	-0.00303745790497899	-0.00191052644799026	0.00253861612571573	-0.00190679669085337	0.00253818624641608	0.00569443185294388	0.00991210682192488
3	0.00554822370367372	-0.00489415881336742	-0.00151948383027283	0.0027818074816639	-0.00153435804241002	0.0027879771097341	0.00652536099668277	0.00972990758460565
3.1	0.00510399741997042	-0.00673540439112003	-0.00112055368106273	0.00296453856956002	-0.00111582586395202	0.00297292941179091	0.00743418881856778	0.00943828297689884
3.2	0.00416433862281879	-0.00857734391293628	-0.000688377616830363	0.00310340248368755	-0.000690140512183146	0.00310279820741722	0.0082601670030089	0.00906442871201456
3.3	0.00274218038554293	-0.0103903991381466	-0.000237356291041462	0.0031696649681184	-0.000235729126637261	0.00316588077603308	0.00917428022403422	0.00841518094226326
3.4	0.000726895516437646	-0.0118397323170748	0.000220518413159188	0.00315453057935196	0.000214467212604963	0.00317127342241671	0.00993766727398679	0.00744230941200876
3.5	-0.00166762118677203	-0.0128528278183886	0.000649794960577247	0.00309846884727616	0.000655415831569715	0.00309846737175065	0.0103131919980701	0.00626098945671959
3.6	-0.00427209565044643	-0.0132184627422106	0.00108020897402752	0.00296295545952129	0.00108840903534448	0.00296251164632044	0.0104966817807525	0.00537638284748541
3.7	-0.00686502407263519	-0.0130292185883715	0.00148622352575797	0.00276531032775662	0.00147687258510509	0.00277911970375262	0.010808414927108	0.00451934971176152
3.8	-0.00939406154819956	-0.012327390195996	0.00185367211952447	0.00252393541602067	0.00185621111812067	0.00253300240223995	0.0110380304594511	0.00352939229471927
3.9	-0.0116910458590126	-0.011144865687875	0.00218396435921905	0.00224133244261643	0.00217673099974121	0.00223967609714575	0.0110195924738717	0.00251968256121213
4	-0.0137202454816115	-0.00953368100352637	0.00245069107309946	0.00191747080134759	0.0024550596651182	0.00191500512589414	0.0108875103806818	0.00177170359228226
4.1	-0.0153722009601666	-0.00757765538128897	0.00268494200597601	0.00156171802804942	0.0026837134353639	0.00156245712722111	0.0109538729179225	0.00123426734000645
4.2	-0.0166630185511191	-0.00536381195240798	0.00286966968933844	0.00117107348463076	0.00287400861198628	0.00116245128721489	0.0111899052826481	0.000620509787843674
4.3	-0.0175840471465335	-0.00305519234093208	0.00300380238177814	0.000773693787357246	0.00301010028972377	0.000765981639961929	0.0114144813998703	-0.000302495630605095
4.4	-0.0182698970579902	-0.000542587748669826	0.0030780134010441	0.000355877745214657	0.00308035288983829	0.000353651695426016	0.0113291051373474	-0.0012668761767829
4.5	-0.018562541059064	0.00219524403213865	0.00310504336869404	-6.73907802342669E-05	0.00311034358201678	-7.07098861467742E-05	0.0111239729943901	-0.00208643888752378
4.6	-0.0183988124312892	0.00502552060222164	0.00307032862206153	-0.000499468456676798	0.00307148983040596	-0.000486684078840232	0.0109056025649938	-0.00282988139460131
4.7	-0.0176087312540764	0.00786508957102429	0.00297692682718986	-0.000913256178755492	0.0029921464536462	-0.000922715585544529	0.0106456997504091	-0.0036054325576981
4.8	-0.0162906650668478	0.0105338297851792	0.00282746351467999	-0.00132803637915222	0.00283593418705641	-0.00133404708309137	0.0103786616742406	-0.00437292339902733
4.9	-0.0143208211154866	0.0128964029478003	0.00261551585800294	-0.00171777403236588	0.00261965769613908	-0.00171485546767165	0.0100321846889652	-0.0050480765937762
5	-0.0118596547207764	0.0147451679891812	0.00236000295041917	-0.0020813383340189	0.00236361457300754	-0.0020786624792644	0.00990807825611861	-0.00557615593183836
5.1	-0.00886361489455497	0.0160351547974483	0.00204811923894034	-0.00240073961380177	0.00205042077611712	-0.00239937744766734	0.00997726839139047	-0.0062339550450736
5.2	-0.00573913779214145	0.0165775005131971	0.00168467977975557	-0.00265718619340951	0.00168638927355072	-0.00266233986475644	0.0100301766876836	-0.00705586824614401
5.3	-0.00263992705080071	0.0164762662113145	0.00128896402511343	-0.0028749288620942	0.00129210884300167	-0.00287287581895875	0.00992356762495156	-0.00792665579635805
5.4	0.000255347203330443	0.0158412495960815	0.000854365927961513	-0.00301923677027687	0.000871459776314319	-0.00303055623859059	0.00964002264729419	-0.00892659734156032
5.5	0.0028563094335768	0.0147832286367375	0.000432833096402847	-0.00310870466993903	0.000442785362006205	-0.00311819845091274	0.00903570777227328	-0.00989581043875488
5.6	0.00514153599210461	0.0133041119224504	-9.29385575567921E-06	-0.00313213179351611	-1.78094742343859E-05	-0.0031352511988705	0.00816934346785351	-0.0105702611626844
5.7	0.00699509661165804	0.0114609836946191	-0.000437875715591782	-0.00308709564686859	-0.000454390460852119	-0.0030905563474811	0.00732248262221812	-0.0109783412975849
5.8	0.00832631504270695	0.0093595496538493	-0.000874294161733452	-0.00297845657315048	-0.000877923207102041	-0.00299224959379013	0.0064806712059409	-0.0115045138354354
5.9	0.00910959070803451	0.00720167785200005	-0.00126402559827221	-0.00282890744250776	-0.00127213322036623	-0.00282876195635539	0.00538430546643368	-0.0120053303886785
6	0.00941583565839101	0.0049986717092733	-0.00164280579795223	-0.00261968229543487	-0.00163930814746284	-0.00261986448809226	0.00403077327816792	-0.0121789082699524
6.1	0.00933721481079388	0.00280393230760878	-0.00197782292180546	-0.00237025618199995	-0.00197942359653608	-0.0023663272750004	0.00294734775994716	-0.0119128887788379
6.2	0.00884980134889368	0.000565179873354829	-0.00227337676173135	-0.00207029217690504	-0.0022769824642403	-0.00208193004814449	0.00230763981272656	-0.0116902870141799
6.3	0.00800598491873013	-0.00163064526818729	-0.00253966624330812	-0.00175488115633313	-0.00254864947129907	-0.00174931678575572	0.00188994621798837	-0.0118083802309392
6.4	0.00664346416581272	-0.00367130056811549	-0.00276284315249432	-0.00138690833910262	-0.00275324638675349	-0.00139161859345309	0.00137096845544445	-0.0120848969486672
6.5	0.00497601745577944	-0.00540889428024981	-0.00292528839782935	-0.0010036237329197	-0.00293308737473789	-0.000999322026127104	0.000877028889602438	-0.0123741071390105
6.6	0.00301932800068142	-0.00673372716146956	-0.00304690931354228	-0.000596321602850094	-0.0030484574898774	-0.000600275909118235	0.000472728634644369	-0.0127140840455299
6.7	0.000812075520283415	-0.007550785678837	-0.00311621042568419	-0.000169434765958339	-0.00312510086587117	-0.000163365489373565	-0.00019241025646854	-0.0131202448865497
6.8	-0.00157394084329267	-0.00773722880080782	-0.00311534320998727	0.000269508199888609	-0.00312647781792883	0.000274335917862137	-0.00113797056739416	-0.0133540826272907
6.9	-0.00396083866865683	-0.00720529797029427	-0.00305886846016101	0.000708142424967864	-0.00306189401863999	0.000710481126456012	-0.00222129754543982	-0.0132531401012345
7	-0.00605601911186994	-0.0061296457086176	-0.00293646286179864	0.00114043008377326	-0.00294929292105948	0.00113803680123888	-0.0031774067173454	-0.0130082637849409
7.1	-0.00789774370084038	-0.00463171526387621	-0.00276636299882508	0.00154404087159986	-0.00276278633764104	0.00155279452405081	-0.00406723394630273	-0.0125165821106141
7.2	-0.009430724347504	-0.0027720492887435	-0.00251044389550742	0.00192751904481948	-0.00251703379438093	0.00192955259377113	-0.00464531927414033	-0.0119220107910537
7.3	-0.0107106912017978	-0.00063019086754614	-0.00220923152876396	0.0022592038724933	-0.00222054788619869	0.00226422722717001	-0.00494017378798585	-0.0115798105128635
7.4	-0.0115708016644296	0.00196826842263199	-0.00185770931145368	0.00255002049463529	-0.00186466756661031	0.00256369083946351	-0.00552843371610675	-0.0113898722937601
7.5	-0.011901021906768	0.00464844463875299	-0.00148074810224699	0.00279063737632423	-0.00147372676610373	0.00279806247490242	-0.00607403709811063	-0.011429155518323
7.6	-0.0117129583103275	0.00711807583344265	-0.00106470402409829	0.00296423584319272	-0.00106608985789147	0.00295953483061714	-0.00657279312331394	-0.0119227109848452
7.7	-0.0105451207444087	0.00948482552751446	-0.000631035323646633	0.00307589339220372	-0.000632376098250106	0.00307483727092791	-0.00724928101957553	-0.0120581643988329
7.8	-0.00888188811416265	0.0114073235168448	-0.000206337076412847	0.00311334036990135	-0.000214088686311813	0.00311978381398543	-0.00818424041649229	-0.0122847340009781
7.9	0.292962387296429	-0.124496108115279	0.000867433598295963	0.00262175662961107	0.000857372597026004	0.00251500491855115	0.443548785080261	0.2344017956628
8	-0.00421013320929377	0.0136469191315508	0.000655017305498895	0.003032046069621	0.000655089051721489	0.0030368925402605	-0.0103827849613998	-0.0118272682394869
8.1	-0.00123896759587977	0.0137677393165668	0.00104900880206357	0.00291553672733725	0.00106791042233085	0.00291671252411891	-0.010901382725865	-0.0108544873394289
8.2	0.0013216694443269	0.0134857563070336	0.00143761792289357	0.0027442361275126	0.00144681356787153	0.00273722235084955	-0.0113709647572011	-0.0101728482408585
8.3	0.0037061321100603	0.0127676162810623	0.00180261100341185	0.00252234348952673	0.00180080085797249	0.00253570902519404	-0.0117890535360672	-0.00965693831565531
8.4	0.00590424945702021	0.011758039597114	0.00213459618415947	0.00226647093536268	0.00213159896502381	0.00226619513911769	-0.0123685382867143	-0.00922796606265241
8.5	0.00796730713583249	0.0103274242043365	0.00242626624543312	0.00195860903120262	0.00242530864273781	0.00196175450507686	-0.0131185547881877	-0.00861358790347793
8.6	0.00975500343256483	0.008473360896549	0.0026872235312482	0.00161790641852848	0.00269685477420237	0.0016115931394803	-0.0137406964568308	-0.00782490655547875
8.7	0.0111124846559304	0.00617649909539866	0.00289513250090467	0.00122782781078326	0.00290069217132959	0.00122868342145679	-0.0142244319439331	-0.00705903403006036
8.8	0.0119367376102872	0.00356431620985125	0.00305716080471606	0.000820545810233386	0.00306317443653613	0.000811848526909159	-0.0147028487359687	-0.0064878749004903
8.9	0.0122818316568016	0.000730181384259131	0.00315981172813597	0.000380202756672967	0.00315897681652188	0.000377909788389329	-0.0151266133513013	-0.00578117873477707
9	0.0120697527667445	-0.00230793816779895	0.00319041390868691	-7.84712438520987E-05	0.00319354882966927	-7.42481346053341E-05	-0.0153738514134429	-0.00490843019069193
9.1	0.0113283960641617	-0.00551347640055844	0.00315764852635299	-0.000541567260609373	0.00316040924413119	-0.000528388338496566	-0.0152792105267638	-0.00405043524996127
9.2	0.00964512342009103	-0.00860166673218192	0.00305215615036476	-0.000983406930297243	0.00305999596215982	-0.000986270408216414	-0.0151176311182531	-0.00337106055466716
9.3	0.00719323950790076	-0.0112159783062046	0.00287829422945179	-0.0014119304191167	0.00287757204079552	-0.00141702677127852	-0.014925029194956	-0.0027460865229663
9.4	0.00413256398315461	-0.0130677091517905	0.0026426689973576	-0.00182093329387773	0.00264930464321439	-0.00181318556255249	-0.01476129120174	-0.00202405558328722
9.5	0.000654710788738718	-0.0142811457962471	0.00234920572301312	-0.00216610604552901	0.00235674056902835	-0.00216750216437246	-0.0147219033797175	-0.00145570900893865
9.6	-0.00306159536323756	-0.0145879068071149	0.00201244099135438	-0.00247220250402414	0.00201278163632687	-0.00247120885476596	-0.0146913833321454	-0.000768577001001964
9.7	-0.00688520870440575	-0.014000213118937	0.00162783815020459	-0.00271676259634096	0.00163337060307659	-0.0027241866940942	-0.0145775626921882	-5.25414931978535E-05
9.8	-0.0106146350249469	-0.0125254818624806	0.00123130209937261	-0.00291366755614839	0.00123710417778723	-0.00290516552213019	-0.0144832612933329	0.000590858211280865
9.9	-0.0139268472692473	-0.010159867102339	0.000822378738937789	-0.00303813357059412	0.000815041172674572	-0.00303685261329376	-0.0145345610784627	0.00124691081966792
10	-0.0166963724190718	-0.00706270406209366	0.000396609370794293	-0.00311388200933752	0.00038907063958169	-0.00312627535258876	-0.01459416603581	0.00213239059898285
10.1	-0.0187137812839358	-0.00348081315720202	-3.47043273844904E-05	-0.00313692957252302	-4.48951398407658E-05	-0.00313154181115952	-0.0143457686865186	0.00303764215254473
10.2	-0.0200319709824743	0.000414315748431622	-0.000466791910238886	-0.00309939006696206	-0.000470192528438505	-0.00309663178174021	-0.0138288769520171	0.0037919851024247
10.3	-0.0206258554986315	0.00463078228382715	-0.000886510789284964	-0.00300141983876301	-0.000878384535611432	-0.0030104074768024	-0.0132609675448391	0.00427613306983589
10.4	-0.0203076492075199	0.00902843594986856	-0.00127631148542336	-0.00286116006162897	-0.00127455241617559	-0.00286733154971574	-0.0126970474043035	0.00450407933449417
10.5	-0.0190475526958232	0.0134069555432257	-0.00166837562288572	-0.00268056788264516	-0.0016654367111444	-0.00266749390020966	-0.0122755600859268	0.00473925387081555
10.6	-0.0168742094555848	0.0174790303020029	-0.00203104787788888	-0.00242784266448337	-0.00202879017639736	-0.00243165939650624	-0.0118659180060275	0.00494994108176917
10.7	-0.01395071385821	0.021218248047515	-0.0023641551210485	-0.00213821012526037	-0.00236069761321831	-0.00213281666080134	-0.0114453350012994	0.00518894343451913
10.8	-0.0102139866783583	0.0245000216028094	-0.00265657214906279	-0.00178193995504966	-0.00265117094048646	-0.00179094237752306	-0.0111302697664336	0.00536569523649019
10.9	-0.00576692654175268	0.0272594752299867	-0.00288869091554354	-0.00140175754148961	-0.00289399190044817	-0.00140106487052734	-0.0110852312656463	0.00559454676123357
11	-0.000451659592663684	0.0289800615424354	-0.00306881504444601	-0.000969223378962623	-0.00307373168171442	-0.000976152751333263	-0.0108301029278503	0.00610585281888061
11.1	0.00525707635152248	0.0294823842943968	-0.00319117183303261	-0.000520666342305628	-0.00318003836522604	-0.000517719218401279	-0.010279857721313	0.00661031084949675
11.2	0.0109979721693507	0.028671841862411	-0.00322418536417087	-5.49915247370382E-05	-0.00323154506010784	-5.99257773131229E-05	-0.00942678032910186	0.00693376387655462
11.3	0.778469355340476	0.176026079187325	-0.0122470854886894	-0.0116923755993505	-0.0124213471239082	-0.00842038773915579	0.37327381156222	2.94448048306556
11.4	4.71975717856053	6.5593941770579	0.0022927636535333	-0.0258825392854871	0.00134095554973581	-0.0248638715983538	-0.601799268137111	0.559637548098924
11.5	9.04862954125912	-3.7183294743193	0.0379887997460767	-0.0276545373459547	0.0373534011649518	-0.028207156020609	-0.192077455971858	-2.28791351765039
11.6	0.0291223230600921	0.0144639759678321	-0.00270877385345088	0.00169983317134571	-0.00270869029484953	0.0017028164696031	-0.00618515816432644	0.00529394032306464
11.7	0.0315438467914445	0.00903503266150436	-0.00241965236059499	0.00204815177704989	-0.0024200182230749	0.00205685215854927	-0.00570376184182257	0.00463482341654493
11.8	0.0328354146376233	0.00332179994943248	-0.00210152439151312	0.00236439047629721	-0.00210561575925806	0.00236619385694708	-0.00540014325854624	0.00377996567656593
11.9	0.0330004736319263	-0.00243879762213891	-0.00173854419560414	0.00261742857610541	-0.00175145358654853	0.00262202226832128	-0.00554854854925475	0.00298600422991025
12	0.032547004539349	-0.00827830920128154	-0.00136236583254116	0.00281550178981113	-0.00136174571499731	0.00281689400690044	-0.0055700833552558	0.00284380373236721
12.1	0.0308516179476757	-0.013933636190824	-0.000960050042288898	0.00297352712557137	-0.000963606386279221	0.0029727338387003	-0.00566937660002029	0.00271142824171207
