# GHZ S RI R 50
0.2	0.00682210072700052	0.000322147566750312	0.00304832635005738	-0.000897919332547822	0.00305869492720674	-0.00089111044732699	-0.0131059186490102	0.00399681532616634
0.3	0.00649826692126623	-0.00131948068315541	0.00290411821589806	-0.00132126409923571	0.00289687182730457	-0.00130832577802089	-0.0129508023493235	0.00449132897672236
0.4	0.00605085046854673	-0.0023034105959383	0.00267254921745952	-0.00169296636467488	0.00267781688589849	-0.00170152655554694	-0.0126584774446262	0.00569058792270904
0.5	0.00569385188022084	-0.00311386320631241	0.00241378199148831	-0.00204963123988205	0.00242531988727928	-0.00206187016595503	-0.0118309388426958	0.00690259063615561
0.6	0.00533515128414729	-0.00404920218039987	0.00210133408184673	-0.00236410164119622	0.00210054815761547	-0.00237125104937276	-0.0107182672850339	0.00764541202803628
0.7	0.00456179904456213	-0.00514628109866892	0.00175426789434741	-0.00264187061819445	0.00175231195249937	-0.00264206961099767	-0.00983546932766394	0.00789450622649141
0.8	0.00324483857487859	-0.00613629204179098	0.00136892635048129	-0.00285928991086208	0.00135632706638928	-0.00286384013084836	-0.00942473879833342	0.00801239788157352
0.9	0.00132815490477242	-0.00651947229159871	0.000951928222726115	-0.00302289445163391	0.00095296421171175	-0.00303359350866486	-0.00947511018211566	0.00835772198792707
1	-0.000681039348313695	-0.00604904195822037	0.000527136192521579	-0.00312637369973419	0.000517274441441629	-0.00312711471732338	-0.00960751912357223	0.00927135070924804
1.1	-0.00230083145216828	-0.00487261462073146	7.15456341259532E-05	-0.00315524361329187	6.80402866711672E-05	-0.003172894562076	-0.00942001234158414	0.0107500026088579
1.2	-0.00325530447191389	-0.00371601086987949	-0.000370568819062669	-0.00314470768145107	-0.000371380808961988	-0.00314263131460372	-0.00824743560044805	0.012267050323331
1.3	-0.00407953365315539	-0.00313111591707528	-0.000797694729655734	-0.00306158521566129	-0.000800934653194926	-0.0030635907793648	-0.00621211211437678	0.013119305262423
1.4	-0.00498523255795818	-0.00267492857555534	-0.00121902799614092	-0.00291342098505517	-0.00121781440300891	-0.00291895424740704	-0.00423637905309291	0.0129354223236275
1.5	-0.00528074716351544	-0.00174184114801421	-0.00161994015318499	-0.00271763599919559	-0.00161832729409655	-0.00272613665079181	-0.0026286609656499	0.0123582609853136
1.6	-0.00501290124445683	-0.00066930960091321	-0.00198058053427345	-0.00246529214151458	-0.00198079102592452	-0.00247052683707791	-0.00178601130747283	0.0118643667204989
1.7	-0.00455861653351598	0.000276832942020275	-0.00230912561973847	-0.00216848584786471	-0.00231009187118347	-0.00216222383697586	-0.00120893737275175	0.0115127024601848
1.8	-0.00409440886844369	0.00141528527998182	-0.00258029086382382	-0.00181701396643998	-0.00259125753563369	-0.00182265206416358	-0.000911100675059834	0.0113450084396176
1.9	-0.00332143711166814	0.00260716826802382	-0.00280577008063957	-0.00144628337532477	-0.00281821173108423	-0.00144013024147126	-0.000676777291244717	0.0115446971167006
2	-0.00207969548316796	0.00366974777392286	-0.00298158912212816	-0.00103856815777979	-0.00299121246221051	-0.00103385965449872	-0.000197654737824005	0.0120436900680379
2.1	-0.000441005046587799	0.00417352825804332	-0.00309518267263851	-0.000610044173137632	-0.00309109872315919	-0.000612036091356722	0.00075299200780366	0.012367290768151
2.2	0.00117178547169091	0.00404421412595595	-0.00315263689514059	-0.000171601848484925	-0.00316394235584386	-0.00017443820598743	0.00193635093741384	0.0122496952001751
2.3	0.00241161453048058	0.00335140497085695	-0.00314799827350907	0.00027200581900052	-0.00314769609879559	0.000265121758650641	0.00281477857600074	0.0116685158255967
2.4	0.00318976217051884	0.00261027777307811	-0.00307549892124456	0.000710566177178395	-0.00307804092035695	0.000706308302699637	0.00328557261135833	0.0111845641430352
2.5	0.00381723028558516	0.00196060680705441	-0.00293826670972866	0.00112308090144936	-0.00294915700062434	0.00112946387797768	0.00369148620738487	0.0109640239335218
2.6	0.00461330017739212	0.00124756564980891	-0.00276407051025679	0.00152631492667171	-0.00276051542528808	0.00151398905119287	0.0043813048038858	0.0108720799761814
2.7	0.00548761553083614	0.000169262264148582	-0.00251780472879709	0.00189778958218293	-0.00252308584767707	0.00189780197899788	0.00518599858449165	0.0105643846214475
2.8	0.00617506237674148	-0.00128074928949479	-0.00223447547160528	0.0022253034195048	-0.0022266569674922	0.00223509262726966	0.00585099989694581	0.010192759767911
2.9	0.00662035684630456	-0.0029104521936424	-0.00189966769276455	0.00252537782924998	-0.00189595811464564	0.00252494942438335	0.00661743133156315	0.0100091462900031
3	0.00681126210431426	-0.00470830160836736	-0.00151289895204296	0.00276056372260694	-0.00152767943791993	0.00276667024901745	0.0076785859348536	0.00987589298692539
3.1	0.00671951916007885	-0.00675217621242359	-0.00112221147672969	0.0029373469290138	-0.00111755028897673	0.00294568863671911	0.00888560458152677	0.00942313847417089
3.2	0.00592096506030908	-0.00898238447981115	-0.000701349946392211	0.00307410189686764	-0.000703094922280601	0.00307349198209064	0.00982224211609937	0.00870532941348115
3.3	0.00437102706255646	-0.0111171248389332	-0.000262645393618047	0.00314341770787053	-0.000260998304303529	0.00313967634204634	0.01058240557843	0.00777534604751779
3.4	0.00215848952949806	-0.0126620364808773	0.000184340916710324	0.00313680530644465	0.000178143844397716	0.00315337447670917	0.0111148505750234	0.00675561605347774
3.5	-0.000269889749056616	-0.0136468864838837	0.000606151148131106	0.00309339600599536	0.000611747319329231	0.00309346852634815	0.0114081086738448	0.00568914044078252
3.6	-0.00281614309875843	-0.0141364895990328	0.00103460485220778	0.00297364545511151	0.00104279695768582	0.00297332335088379	0.0116616508771788	0.00479560162964978
3.7	-0.00547422412210177	-0.0142299180641625	0.00144507869944412	0.00279212586403536	0.00143550016163348	0.0028058076965683	0.0119752631769566	0.00378200218859313
3.8	-0.00833516672550256	-0.0137425955907177	0.00182303614219347	0.00256447841043254	0.00182544595097273	0.00257362698032246	0.0120010895042592	0.00265675295032514
3.9	-0.0110387856289815	-0.012481959083328	0.00216862041686624	0.00229089146802845	0.00216135388802656	0.00228911665917689	0.0117174564157437	0.00173395298415077
4	-0.0132719493846979	-0.0105925995412478	0.00245304591790296	0.00196928594876243	0.00245749312674034	0.00196684875813791	0.0115053842529868	0.00122767793011311
4.1	-0.0149072836199492	-0.00842837227962145	0.0027046841428219	0.00160894464754071	0.00270343207837164	0.00160968123675376	0.0116946207606932	0.00083747949961735
4.2	-0.0161856862653766	-0.00616130595033637	0.00290351135112997	0.00120734240667863	0.00290797116705478	0.00119862403221594	0.0120390315016474	0.000179738715799943
4.3	-0.0172302340796665	-0.00377658221581504	0.00304602866336037	0.000794934115518243	0.00305244530734834	0.00078712750418205	0.012204246207625	-0.000790155285996139
4.4	-0.018023518405418	-0.00101706006435359	0.00312176597259514	0.000360614705904742	0.0031241384586935	0.00035835679909525	0.0120071581488159	-0.00167017170758928
4.5	-0.0182123156238462	0.00205271547439279	0.00314387995401807	-7.74687495448069E-05	0.00314923693506844	-8.08453401617357E-05	0.0118233185806948	-0.00229570834522382
4.6	-0.017730964083815	0.00506133409417292	0.00309916457470722	-0.000520221086336071	0.00310040280591786	-0.000507311958957076	0.0117715022531383	-0.00294910907818805
4.7	-0.0166216058693194	0.00782499775160153	0.00299331995781416	-0.000938811449213537	0.00300859320577159	-0.000948437148560052	0.0117007373003554	-0.00378741513195775
4.8	-0.0152007231626688	0.010293440372864	0.0028316744986321	-0.00135254113631573	0.00284014452256772	-0.00135863450935434	0.0114328306807765	-0.00468884909502207
4.9	-0.0132228254538129	0.0125700403782904	0.00261041966075871	-0.0017361813581597	0.0026145861952599	-0.00173328140965204	0.0110327403173643	-0.0053815593741597
5	-0.0106780289315456	0.0143998803275882	0.00235028305259757	-0.00209068953461549	0.00235390483847901	-0.00208803004795902	0.010940903880708	-0.00583351911622933
5.1	-0.00755099750352007	0.0155378756320098	0.00203922023866971	-0.00240054518866996	0.00204152032344609	-0.00239919042505725	0.0111441431694072	-0.00650870771054292
5.2	-0.00448165192059432	0.0158045272316976	0.00168154114202957	-0.00264961779153746	0.001683248545817	-0.00265475747794555	0.0112383183976263	-0.00749795190868002
5.3	-0.00167407124328625	0.0155585042394121	0.00129492786608762	-0.002864168221992	0.00129805890386975	-0.00286211016124507	0.0109793019123354	-0.00850583783033264
5.4	0.00094662027544127	0.0150623650297758	0.000870424197006555	-0.00301079795831245	0.000887561659452133	-0.00302200721390722	0.0105131366621081	-0.00944212188931466
5.5	0.00352237881224423	0.014256053024364	0.000457334384292612	-0.00310786931664381	0.000467368490878082	-0.00311729350245991	0.00991096171481857	-0.010243094210011
5.6	0.00598590181151913	0.0128706060596924	1.94980433882362E-05	-0.0031433061980268	1.09809843430665E-05	-0.00314651501579395	0.00922524060989789	-0.0108787940174415
5.7	0.00793082467129997	0.0109127594444882	-0.000410755201252044	-0.00311225968603168	-0.000427348010736715	-0.00311590475277766	0.00847326232944892	-0.0114629910898813
5.8	0.00918021630366201	0.00864615008913831	-0.000855736743098658	-0.00301697287388708	-0.000859275559497724	-0.00303094038598958	0.00755333379316247	-0.0122325246676705
5.9	0.00974453835437681	0.00650503499748581	-0.00125967069404685	-0.00287683879656714	-0.00126788928078094	-0.00287675290839107	0.00619198704024694	-0.0128238519084814
6	0.00992745361364976	0.00451609864786273	-0.0016569216858205	-0.00267061636813326	-0.00165336585280575	-0.00267078446384081	0.00459517116095452	-0.0128624251790811
6.1	0.00992703105149003	0.00253231235869518	-0.00201107151440527	-0.00241629762520225	-0.00201270661611032	-0.00241229867449274	0.00344204691881979	-0.0123890805586279
6.2	0.00957809384908	0.000332448860071816	-0.00232293857920452	-0.00210345801579863	-0.00232664693248456	-0.00211530872605587	0.00282686024159721	-0.0120651724826647
6.3	0.00873046586621419	-0.00190362997721837	-0.00259983677700156	-0.0017694569131579	-0.00260894812899164	-0.0017637237345645	0.00234979343749524	-0.012154933093993
6.4	0.0073919760278144	-0.00388746501048704	-0.00282532128501238	-0.00137945965502654	-0.00281561440501243	-0.00138435757469705	0.00182291637572259	-0.0122953047037058
6.5	0.00591292647652137	-0.00558340131614121	-0.00298126183795725	-0.000975265990367948	-0.00298910854619508	-0.00097078999421383	0.00150782836334588	-0.0124388720799826
6.6	0.00417010854921197	-0.0070706294497072	-0.00308898407328708	-0.000551200805150048	-0.00309061520888403	-0.000555170553770355	0.00135933014527186	-0.012833489482343
6.7	0.00195217399641442	-0.00815578113346649	-0.00313936923636579	-0.000114430205268392	-0.00314820778701235	-0.000108161718814987	0.00077007648597531	-0.0134533350118136
6.8	-0.00064825785341711	-0.00844840065898404	-0.00311790481681724	0.00032598397289523	-0.00312897931755091	0.000331022711449679	-0.000322975064232949	-0.0138219428058087
6.9	-0.00318180703464002	-0.00783701243064212	-0.00304283660570881	0.000758316472018763	-0.00304581891503427	0.00076070255617154	-0.00153279780736665	-0.0137013125683907
7	-0.00520535461035916	-0.00656125020856072	-0.00290667869188968	0.00117809128134702	-0.00291948606737037	0.00117589563341301	-0.00250781834699821	-0.0132590998699821
7.1	-0.00678912882431146	-0.00506830425186472	-0.00272962790429642	0.00156602187275413	-0.00272597285991195	0.00157467461369499	-0.0032098700771822	-0.0126673352294376
7.2	-0.00814908645524167	-0.00349305478814454	-0.00247411974462552	0.00193324957666882	-0.0024806397892886	0.00193532237847992	-0.00358571095145986	-0.0122144497511095
7.3	-0.00955212229792889	-0.00170137666322841	-0.00217982882028837	0.00225178134854804	-0.00219102738193004	0.00225682028719753	-0.00390951704194598	-0.0121520194509851
7.4	-0.0108452199262251	0.00058667829108206	-0.00183960619938803	0.0025347061574063	-0.00184648931718631	0.00254828906389531	-0.00463310012649881	-0.0123452825661685
7.5	-0.0115836623060996	0.00340743657537185	-0.00147541678270011	0.0027740639148882	-0.00146844072794241	0.00278145552927526	-0.00550115449427844	-0.0123457024058349
7.6	-0.0113493047326835	0.00634733572539095	-0.00107054469257661	0.00295305654540345	-0.00107191292107719	0.00294836420804888	-0.00622020798341092	-0.0122140993180759
7.7	-0.0104612527547387	0.0089069921602533	-0.000643357935502586	0.00307516552589195	-0.000644695353769403	0.00307410359456608	-0.00696898818182906	-0.0125288339736997
7.8	-0.00882503674605204	0.0110995630527846	-0.000218526841893638	0.0031252897495853	-0.00022633356200776	0.0031317312266934	-0.0080160206403219	-0.0125959500134065
7.9	-0.00647692825826818	0.0128579091876953	0.000221976111822944	0.00313353813660277	0.00022990839251802	0.00313504505840594	-0.00904954082884448	-0.012150011555762
8	-0.00347417896638469	0.0139287753300331	0.00066345457187242	0.0030626147784406	0.000663529850351117	0.00306751067402008	-0.009856051527177	-0.0114053023978378
8.1	-0.000284707101261501	0.0140804084358509	0.001073939952715	0.00294602481977775	0.00109307304852299	0.00294713456647002	-0.0102777143874185	-0.0106937176172767
8.2	0.00257252935817283	0.0134604569406636	0.00147880548800978	0.00276619237985583	0.00148805606254299	0.00275901324761068	-0.0105657690949518	-0.0101563301816906
8.3	0.0049946978523809	0.0124335041533204	0.0018556160966745	0.00252811692048428	0.00185395665615361	0.00254165878989534	-0.0109992927820452	-0.00978680549077663
8.4	0.00713771256387327	0.0112780296234785	0.00219187907309853	0.00225124544151572	0.00218885009736863	0.00225101734100667	-0.0116742267797306	-0.00934799567011919
8.5	0.00922880449447038	0.00978648405994888	0.00247832010850323	0.00192130223696491	0.00247741952953752	0.00192448388657288	-0.0124104631964662	-0.00859143950654336
8.6	0.0111217683248036	0.00777070900662394	0.00272516876146163	0.00156148773757896	0.00273467378903795	0.00155495909268019	-0.0128400686430091	-0.00771123480727722
8.7	0.0125041502349664	0.00513961685217608	0.00291168753899598	0.00115922387614413	0.00291724574201935	0.00115995325809345	-0.013044644701407	-0.00705343389757672
8.8	0.0130755724328451	0.00223226798529784	0.00304907095721692	0.00074867319736549	0.00305484938148333	0.000739920680714642	-0.0134452231310172	-0.00672626488754449
8.9	0.0130266358765361	-0.000632666624933421	0.00312735421362695	0.000314895834391771	0.00312648588140349	0.00031264769668012	-0.0139852880023739	-0.00618712077613186
9	0.0125564259367165	-0.00344441253111078	0.00313803937308538	-0.000128320162170891	0.00314119171427204	-0.000124214933812303	-0.0143714398108619	-0.00528938735709645
9.1	0.0116887054931811	-0.00637254646511163	0.00309277049770948	-0.00056989557633139	0.00309564020825628	-0.000556993506459456	-0.0143422337572777	-0.00434083030956932
9.2	0.0100282821085218	-0.00929390049279135	0.00298416525518493	-0.000987852514755114	0.00299182778480464	-0.000990720744291499	-0.0141443792727438	-0.00365899857285017
9.3	0.00756362965747091	-0.0117440007735682	0.00281641006385011	-0.00139369830907227	0.00281568489521831	-0.00139869112461126	-0.0140003215493089	-0.00308154412005486
9.4	0.00461058087905209	-0.0134574315099593	0.00259470979453202	-0.00178473432510439	0.00260121505076114	-0.00177712615059005	-0.0139691557380975	-0.00246742645309344
9.5	0.00139774354324499	-0.0143749796849392	0.00232017541843526	-0.00211995240294771	0.0023275923922301	-0.00212129192125744	-0.0138602894282344	-0.00165955581919638
9.6	-0.00198965966945816	-0.014787274119744	0.00200358182576527	-0.00242471502288677	0.00200391073433631	-0.00242373212749876	-0.0137064934929692	-0.000953567270107552
9.7	-0.00566313326388799	-0.0145206864993524	0.00163659750375981	-0.00267648708033916	0.00164214360866324	-0.00268379145998217	-0.0134954410746344	-0.000376364901413184
9.8	-0.00952149218671781	-0.0133575203004313	0.0012516215132777	-0.00288662263473363	0.00125731380086869	-0.00287811265781304	-0.0134689020686735	7.38941575388255E-05
9.9	-0.0131568611547646	-0.0110250727876763	0.000846085464538174	-0.00302710966779286	0.000838747779394132	-0.00302589058167525	-0.013760737879563	0.000706736336645649
10	-0.0160984488796366	-0.00783473320377568	0.000415415513826671	-0.00311758013554203	0.000407934075107834	-0.00313004102436631	-0.0139542480398371	0.00167287395331479
10.1	-0.0181632912701181	-0.00414724352290707	-2.75239391112984E-05	-0.00315014292450338	-3.77699960734756E-05	-0.00314475640652612	-0.0137272105199275	0.00266861491543216
10.2	-0.019516928288614	-0.000216282845391295	-0.000474590700294522	-0.00311413663096628	-0.000478003545701396	-0.00311135850673263	-0.0132019998571759	0.00341866148104326
10.3	-0.0202055512842733	0.00407358699245	-0.00090814114342703	-0.00300900351088934	-0.000900033499889273	-0.00301807791809321	-0.0127114696934546	0.00386933997267798
10.4	-0.0199254559906061	0.00867958838377739	-0.00130648736374602	-0.00285466286258349	-0.00130478422409851	-0.00286086383789484	-0.0122697482301145	0.00417165571220614
10.5	-0.0184814134804297	0.0132963103142163	-0.0016990829542678	-0.00265602984597641	-0.00169598668863557	-0.00264301127389724	-0.0118614390378648	0.00460505529352982
10.6	-0.0159547469220957	0.0174147744482322	-0.00205279384008985	-0.00238589774969386	-0.00205060169620287	-0.00238972360705586	-0.0112924507288067	0.00498434613291248
10.7	-0.0127370915146026	0.0209569929844708	-0.00236895570892605	-0.00208361048012881	-0.00236546009972365	-0.00207832037436445	-0.0106624977332988	0.00524623540027232
10.8	-0.0089116707207009	0.0239641396988714	-0.00263891707893911	-0.00172307711287678	-0.00263370588701358	-0.00173201192738188	-0.0102315030434591	0.00535410091891619
10.9	-0.00446167678679906	0.0264222762676393	-0.00284775348303488	-0.00134831782909712	-0.00285294862884385	-0.00134758826752652	-0.010025359732953	0.00557124641768889
11	0.000804666278358773	0.0280029153180933	-0.00300749822830056	-0.000931135006604499	-0.00301234645514729	-0.000937886509491972	-0.00967849905371068	0.00609519926021659
11.1	0.00647912896470144	0.0283057885530606	-0.00311636395018747	-0.000505394574367016	-0.00310549041652399	-0.000502527407556711	-0.00892835710925474	0.00656402328245213
11.2	0.0120482878683297	0.0272306178557728	-0.00314601377341237	-6.68426927851232E-05	-0.00315317537245195	-7.16877433604002E-05	-0.00787259476937793	0.00667785545545097
11.3	0.0171911464760786	0.0250556776817793	-0.00311940164285473	0.00038277325644365	-0.00313095783451456	0.000372720117738021	-0.00679032290852357	0.00637074061353147
11.4	0.0217146070197879	0.0221353462698611	-0.00304578267582818	0.000811456328260747	-0.00304086239872179	0.000819033306581512	-0.00608873417871774	0.00583042384261913
11.5	0.0257796502269333	0.0184182988361512	-0.00290243302047992	0.00122793189453245	-0.00290521548068818	0.00123822234283221	-0.0056891717488434	0.00521976744771857
11.6	0.0292096315917333	0.0137763359558256	-0.0027078304121714	0.00161918791355963	-0.00270781125092349	0.00162213224928345	-0.00527550651981245	0.00455021769176701
11.7	0.0315832865364171	0.00846210992047921	-0.00244612237710395	0.00197477844318117	-0.00244668573782597	0.00198339573353864	-0.0049393536929485	0.00363424435045551
11.8	0.0328583323944479	0.00294236956785482	-0.00215021306119443	0.00230774816566839	-0.00215433370569732	0.00230945011423595	-0.0049757546834903	0.00270123182284923
11.9	0.0333280279299038	-0.00255293675983927	-0.00180016644100366	0.00258453230166619	-0.00181320497824039	0.00258885011454229	-0.00536344051984717	0.0023030169234474
12	0.0329060254371508	-0.00813920567636963	-0.00142588421306664	0.00280811431331186	-0.00142528681090458	0.00280952785894275	-0.00568619026366324	0.00234888823551643
