# GHZ S RI R 50
0.2	0.00505384112051357	0.00608068000053853	0.0030482539311466	-0.000894667984362634	0.00305861264542533	-0.000887851106984583	-0.0148777548027118	0.0097284901562364
0.3	0.00651786311795294	0.00142648006684222	0.00290552548140281	-0.0013157628449826	0.00289825868861972	-0.00130284126409435	-0.0129413913833808	0.00719807490791905
0.4	0.00567089806909149	-0.00234625554630731	0.00267706721352752	-0.0016857976945814	0.0026823577773184	-0.00169434372357665	-0.013059471122676	0.00559562099651892
0.5	0.00343652998445242	-0.00458196511230768	0.00242279995934551	-0.0020423280753936	0.00243438975438925	-0.00205453374777336	-0.0141265430116143	0.00537054584455043
0.6	0.00105158266323442	-0.00510605210408373	0.00211528887157533	-0.00235907038568341	0.00211453270880077	-0.00236623567121986	-0.0150657311684579	0.00651728280086564
0.7	-0.000623553507598157	-0.00450234676298076	0.00177237623466041	-0.00264169879991795	0.00177041515542255	-0.00264190777516842	-0.0151191736695112	0.00847177193910303
0.8	-0.00121422763636986	-0.00375654133577534	0.00138905075320129	-0.00286607801547546	0.00137641444310257	-0.00287070998814497	-0.0140181909990729	0.0103521467095205
0.9	-0.00132883479186067	-0.00358297737367673	0.000971028077473835	-0.00303777609595063	0.000972116993765964	-0.00304853794560577	-0.0122837756039431	0.0113053128315647
1	-0.00173356476998801	-0.00415567635463756	0.000541778628702252	-0.00314900982764472	0.000531842371203672	-0.00314978983576423	-0.0107868277723714	0.0112347907805876
1.1	-0.00313330024090005	-0.00491979507239374	7.82464090909215E-05	-0.00318366052427481	7.47432022613777E-05	-0.00320147793475554	-0.0103054039016131	0.0107998879488716
1.2	-0.00539087203832288	-0.00519753690916903	-0.00037388031554401	-0.00317575431265808	-0.000374700537519227	-0.00317365756154951	-0.0103330032339021	0.0108707508588118
1.3	-0.00774953222385483	-0.00464366551728776	-0.000811629167860798	-0.00309109223595496	-0.000814905761747233	-0.00309311193726369	-0.00975123549957149	0.0116262746914332
1.4	-0.00932269577497393	-0.00364587499073525	-0.00124258911528252	-0.00293722772540082	-0.00124138556931205	-0.00294282022066934	-0.0084296776568647	0.0119693917721123
1.5	-0.0100234384604639	-0.00206839449894866	-0.0016504822148982	-0.00273240197053802	-0.00164890509271085	-0.00274098823778394	-0.00719905009442797	0.0120351517306249
1.6	-0.00991762583374306	0.000160696879633896	-0.00201402946791794	-0.00246899430440286	-0.00201428087243961	-0.00247426687387541	-0.00657326488499029	0.0126508233479263
1.7	-0.00877266437186864	0.00230276245927322	-0.00234107657993316	-0.00216093057146823	-0.00234199423324527	-0.00215462439112082	-0.0053290159769654	0.0134684466519439
1.8	-0.00700126067536683	0.00385041024694492	-0.00260644812622151	-0.00179998928435371	-0.00261750682904759	-0.00180554737236834	-0.00376395309431722	0.0136862115939378
1.9	-0.00524621182754683	0.00448633457168928	-0.00282338272811985	-0.00142308618055147	-0.00283578826851977	-0.0014168101715946	-0.00256621946314265	0.013340903526027
2	-0.00388593981994322	0.00469988759871091	-0.00298932651412978	-0.00101327189186177	-0.00299890734213647	-0.00100848433165807	-0.00196937685257628	0.0129953057431058
2.1	-0.00276998445569417	0.0048812300772152	-0.00309373869371125	-0.000586912864490545	-0.00308967652190941	-0.000588930081562183	-0.0015442510549602	0.0129881760066973
2.2	-0.00151490777828892	0.00520667576658288	-0.00314450387827337	-0.000153997432994398	-0.00315579222796509	-0.00015676427467646	-0.000739861457117869	0.013316801802016
2.3	0.000157914396173113	0.00516994806353493	-0.00313687137934308	0.00028229126760327	-0.00313659459245506	0.00027542835860568	0.000539667482655979	0.0134064080812529
2.4	0.00195213112015342	0.00444638634732039	-0.00306540002014731	0.000713738000366234	-0.00306794190542202	0.000709496755193574	0.00200433954038196	0.0129585284082686
2.5	0.00331246428074453	0.00294752901206414	-0.00293259636079816	0.00112126476134738	-0.0029434654036692	0.00112763681010285	0.00315069966566436	0.0119337172934021
2.6	0.00399282562957542	0.00121567937313526	-0.00276463537239255	0.00152299692265493	-0.00276106913183899	0.0015106789558747	0.00375366733650986	0.0108387871417722
2.7	0.00429529664227972	-0.000346104770093733	-0.00252444441956706	0.00189698607859625	-0.00252973362745609	0.00189699072540823	0.00400543220158707	0.0100407581181628
2.8	0.00459984901205101	-0.00190238587604821	-0.00224503881853743	0.00223042487782443	-0.0022372046715372	0.00224025802161529	0.00429456441855108	0.00956562780250524
2.9	0.00477123645424685	-0.00377772060543076	-0.00191046540430457	0.00253851318291669	-0.00190673578495823	0.00253808333501941	0.00481686862579362	0.00916791550993564
3	0.00435722550650656	-0.00582691453836745	-0.0015194435199957	0.00278166305164931	-0.00153431711252662	0.00278783223643779	0.00533827371044644	0.00879188193391717
3.1	0.00343291797922798	-0.0076125765342013	-0.00112056106956943	0.00296437773545853	-0.00111583364184666	0.0029727682813869	0.00576734457945351	0.00855402280038707
3.2	0.00215144236299763	-0.00908819534792071	-0.000688418994598715	0.00310319661146562	-0.000690181767314008	0.0031025923245588	0.00624924693695941	0.00854461192030407
3.3	0.000730819631831552	-0.0104625094732217	-0.000237483809909586	0.00316945740645438	-0.000235856576746024	0.00316567352248548	0.00716241412145718	0.00833420446840714
3.4	-0.0010693968002215	-0.0117004054428934	0.000220309292979778	0.00315437400417839	0.00021425737251385	0.00317111556473996	0.00813956639086539	0.00757330061457301
3.5	-0.00335452825611695	-0.0127408053906163	0.000649558326079564	0.00309838883069139	0.000655178971897811	0.00309838773725547	0.00862556702046836	0.00636463272787371
3.6	-0.00604475081161214	-0.013073483771373	0.00107993921636437	0.00296295885946831	0.00108813908157214	0.00296251572082443	0.00872246176882695	0.00551340948956774
3.7	-0.00870103581914626	-0.0126174450822749	0.00148596029177361	0.00276539924883468	0.00147660828391157	0.00277920760517969	0.00896951413653112	0.00492308853973582
3.8	-0.0109862129373591	-0.0115943517967554	0.00185344745271171	0.0025241105280075	0.00185598563349532	0.00253317776867495	0.00944118705906566	0.00425565954812549
3.9	-0.0128310179191595	-0.0103906019941048	0.00218381268118992	0.00224157220524033	0.00217657931552449	0.00223991518705206	0.00987523183470357	0.00326989334394934
4	-0.01458591273452	-0.00908972794475391	0.00245062651913614	0.00191773747180751	0.00245499546842042	0.00191527205713609	0.0100197492490746	0.0022133522051687
4.1	-0.0163047987799457	-0.0074233602102078	0.00268496273115023	0.00156198247224895	0.00268373404894968	0.00156272152103491	0.0100214515917106	0.00138555491031259
4.2	-0.0177395287264546	-0.00522447446554907	0.00286977045702304	0.00117130875093362	0.00287411013478214	0.0011626862983326	0.0101142453198509	0.000755851341914894
4.3	-0.0185677684151764	-0.00281935044452824	0.00300397345583898	0.000773873173959124	0.00301027211683511	0.000766160769491492	0.0104316077658801	-7.10192128887905E-05
4.4	-0.0190237145761923	-0.000428169761062997	0.00307821346511087	0.00035596780042805	0.00308055315955483	0.000353741650629977	0.0105766021904882	-0.00115597128873995
4.5	-0.0192613287162239	0.00195441641659788	0.00310522150359545	-6.73793946985132E-05	0.00311052203675589	-7.06986646441637E-05	0.0104286185971793	-0.00233085260693445
4.6	-0.0193561120908993	0.0044993027868608	0.00307046950368887	-0.000499492676795596	0.00307163077072669	-0.000486707711979794	0.00995274549574966	-0.00336234884959214
4.7	-0.0189069900632415	0.00733242713362347	0.00297701996275204	-0.000913308574423091	0.00299224003037002	-0.000922768409733044	0.00935135768589099	-0.0041463295861025
4.8	-0.0177202122502356	0.0101773696581518	0.00282751172181177	-0.00132807944590193	0.00283598252660016	-0.00133409031918433	0.00895213758533303	-0.00473809323993597
4.9	-0.0157278106714701	0.0125950514648856	0.00261553176726439	-0.00171779376241201	0.00261967364457947	-0.00171487518549751	0.00862767004871964	-0.00535815888226055
5	-0.0133561716787394	0.0143710274771515	0.00236001433254811	-0.00208132217473094	0.00236362593596183	-0.00207864629926724	0.00841392819748613	-0.00595947340747983
5.1	-0.0106057015698232	0.0157456648127666	0.00204815024048118	-0.0024006969484528	0.00205045174652638	-0.00239933475025887	0.00823740522497056	-0.00653389874172535
5.2	-0.00757637917280588	0.0166247285717802	0.00168474362689093	-0.00265713228636017	0.00168645325012784	-0.00266228589416113	0.00819379991808651	-0.00701982703521537
5.3	-0.00423866769423891	0.0168103231288208	0.00128907059602828	-0.00287488201447247	0.00129221533890061	-0.00287282885460576	0.00832427074803114	-0.00760260062651861
5.4	-0.0010087654378625	0.0161272995846512	0.000854510327720125	-0.00301922079231418	0.000871604823420893	-0.00303053956640502	0.00837609506852286	-0.00864854360005987
5.5	0.00167117370658427	0.0147977471478916	0.000433004538791983	-0.00310873201508448	0.000442957467415292	-0.00311822542308776	0.00785210399215995	-0.00988957052526224
5.6	0.00373172887113611	0.0131832706136449	-9.10334263440861E-06	-0.00313221702937715	-1.7619001384051E-05	-0.00313533703778912	0.0067611870810079	-0.0107014000081723
5.7	0.00534343221828163	0.0115396354451157	-0.000437708914934484	-0.00308727893734037	-0.000454224285532165	-0.00309074082455416	0.00567202142702509	-0.0109126844482594
5.8	0.00676975827595253	0.00982373660848276	-0.000874182919960793	-0.00297871745193327	-0.000877811420699528	-0.00299251165647155	0.0049230925973212	-0.0110540528949911
5.9	0.00798374789852317	0.00782725114903995	-0.00126401259175926	-0.00282921577360835	-0.001272120943248	-0.00282907063484879	0.00425433945615931	-0.0113899601283718
6	0.00869552538730659	0.00537999600700844	-0.00164290377322225	-0.002619983183681	-0.00163940577125113	-0.00262016530758255	0.00330816497812636	-0.0118057471934235
6.1	0.00868380076501949	0.00277931303250402	-0.00197800825885599	-0.00237051065577237	-0.00197960912308697	-0.00236658135972394	0.00229334761372742	-0.0119445522227113
6.2	0.00804016252708964	0.000328942081462717	-0.00227362703860022	-0.00207048241937377	-0.00227723321391087	-0.00208212144310009	0.00149973670478798	-0.0119336149135852
6.3	0.00714274904342772	-0.00191755541062064	-0.00253995568686037	-0.00175497991531084	-0.00254893962114444	-0.00174941477188617	0.00102851471836311	-0.0121030054642031
6.4	0.00577845654124685	-0.00418429368064001	-0.00276314144563004	-0.00138691320238267	-0.00275354404291697	-0.00139162426812509	0.000510039527950997	-0.0126049333320037
6.5	0.00380537366981337	-0.00619936892797747	-0.00292556060456131	-0.00100354193989161	-0.00293335993342678	-0.00099923949389703	-0.000287370397313906	-0.013173810145668
6.6	0.00134235404653584	-0.00743141145860247	-0.00304713563710264	-0.000596172335139013	-0.00304868415185336	-0.000600126792871305	-0.00119862422765737	-0.0134252463506596
6.7	-0.00109639894434445	-0.0077921129090821	-0.00311637943626773	-0.000169231948715049	-0.00312526991409669	-0.00016316176208814	-0.00209831946748521	-0.0133771368755812
6.8	-0.00328818073384348	-0.00760180508452645	-0.00311543321851463	0.000269745231745159	-0.00312656786581798	0.000274573933149458	-0.0028530456462644	-0.0132333761421365
6.9	-0.0053825783798548	-0.00705989869933698	-0.00305887193391379	0.000708369046264058	-0.00306189738089933	0.000710708000510841	-0.00364466845738081	-0.0131212558362843
7	-0.00743883643093514	-0.00620252042560726	-0.00293640137308307	0.00114061303857897	-0.00294923161495526	0.00113822053468135	-0.00456001035035039	-0.0130938129474827
7.1	-0.00955158238381973	-0.00476998621553431	-0.00276627233998519	0.00154416420256107	-0.00276269528046159	0.00155291763095819	-0.00572027968027425	-0.0126696226281097
7.2	-0.0113596041708584	-0.00259678833073711	-0.00251036036268047	0.00192758660569269	-0.00251695014200662	0.00192962035597029	-0.0065755158050427	-0.0117637592345069
7.3	-0.0125528627316437	9.3516963905216E-05	-0.00220918196903179	0.00225924378546665	-0.00222049820382518	0.00226426735721164	-0.00678914370856452	-0.0108739473863982
7.4	-0.0128847196502478	0.00308396819410336	-0.00185768811203059	0.00255007507172268	-0.00186464622345539	0.00256374566225136	-0.00685290695761134	-0.010286221595571
7.5	-0.0125694882636805	0.00567031031838143	-0.00148073442104007	0.00279071470582463	-0.00147371283373792	0.00279813984246048	-0.00675221234354836	-0.0104130127818669
7.6	-0.0120741407499507	0.00775183378374546	-0.00106468743893146	0.00296432842847453	-0.00106607337860758	0.0029596273148499	-0.00694125466134749	-0.0112911947078396
7.7	-0.01078921599197	0.00975116515473456	-0.000631015963314036	0.00307600149438966	-0.000632356795161345	0.00307494535617862	-0.00749629085536708	-0.011793551757187
7.8	-0.0090761429281871	0.0113549087473041	-0.000206306754333463	0.00311347749618039	-0.000214058617969132	0.00311992131637624	-0.00837675760678085	-0.0123400171270452
7.9	0.288594587429158	-0.112453580110486	0.00083240065299919	0.00261063995833472	0.0008173845083119	0.00251930704117681	0.425574173063933	0.228597319211748
8	-0.00492337249234425	0.0127277141844557	0.000655116725902657	0.00303222019686743	0.000655188570929477	0.00303706696482642	-0.011088928289157	-0.0127548148467518
8.1	-0.00252999192541123	0.0128005895725857	0.00104918391205404	0.0029157096304857	0.00106808692674113	0.0029168848634574	-0.0121845978122629	-0.0118371115338943
8.2	-0.000366866591507997	0.0128712515741423	0.00143787227966252	0.00274437782011696	0.00144706828630946	0.00273736301845615	-0.013056822897441	-0.0108053439066635
8.3	0.00202548625225524	0.0125302671303403	0.00180294087229335	0.00252240459765803	0.00180113158966933	0.002535771310473	-0.0134702536136586	-0.00991163641447363
8.4	0.00440768294867571	0.0115990847848311	0.00213495998960306	0.00226640942457219	0.00213196254625674	0.00226613390574841	-0.0138667624860521	-0.00940179834738462
8.5	0.00645970182878521	0.0100151836845744	0.00242660185427411	0.00195841875790265	0.00242564457008298	0.00196156448484636	-0.0146269342702214	-0.00893977376671242
8.6	0.00795390721823107	0.00813177289186144	0.00268748691861355	0.00161761054963531	0.00269711760221138	0.00161129592814359	-0.0155418513028227	-0.0081825338766572
8.7	0.00905971082755726	0.00612962311449367	0.00289529358879672	0.00122745224192817	0.00290085337334903	0.00122830713058109	-0.0162792057772501	-0.00712300627953406
8.8	0.00992165579984405	0.00398226414931566	0.00305718963770451	0.000820128890010944	0.00306320199017716	0.00081143104792649	-0.016722602891952	-0.00608631032498678
8.9	0.0106134800694596	0.00141995593349441	0.00315969670097294	0.000379800157144637	0.00315886155385079	0.000377507407040821	-0.0168005355748191	-0.00510560330617786
9	0.0107350925391062	-0.00166449349969044	0.00319017415491405	-7.88047392696992E-05	0.00319330929747551	-7.4582269636943E-05	-0.0167131981653692	-0.00427670307578856
9.1	0.0101555191832167	-0.00496394487083436	0.00315733198794782	-0.000541790779745018	0.00316009359575207	-0.000528613221518227	-0.0164552822256027	-0.00351185189037551
9.2	0.00857163109692538	-0.00810587933815704	0.00305180424982651	-0.00098350466841454	0.00305964313652536	-0.000986368365243241	-0.0161936515146603	-0.0028865014134225
9.3	0.006316611966069	-0.0108276958281985	0.00287796488813137	-0.00141190375246891	0.00287724257616566	-0.00141699958852528	-0.0158035025742602	-0.00236761897098805
9.4	0.00336830880453868	-0.012979992376482	0.00264240277185159	-0.00182079061068523	0.00264903787806103	-0.00181304367318332	-0.0155248579113508	-0.00194581011673636
9.5	-0.000273880777727125	-0.0145507587832771	0.00234900323729637	-0.00216592576724674	0.00235653744234979	-0.00216732177839636	-0.015645503181325	-0.00173777941285596
9.6	-0.00435469586032248	-0.0149514637329388	0.00201233060188124	-0.00247199843607008	0.00201267120960098	-0.00247100485296968	-0.015980046042576	-0.00114943987971784
9.7	-0.00844349989246767	-0.0141363915279415	0.00162781704152143	-0.00271657474583339	0.00163334937848623	-0.00272399830339859	-0.0161357730490564	-0.000207381804287087
9.8	-0.0121217796460652	-0.0123537037737287	0.00123134741649119	-0.00291353320497741	0.00123714904799805	-0.00290503128388929	-0.0159913987404897	0.000743876343212876
9.9	-0.0151731492298611	-0.00991058084874545	0.000822422230638324	-0.00303807923882004	0.000815084737535371	-0.00303679842943705	-0.0157834690600585	0.0014806589826235
10	-0.0178118757067644	-0.00697942803225062	0.000396640133358671	-0.0031138861106095	0.000389101501588695	-0.00312627955749027	-0.0157112989969225	0.00220212481451202
10.1	-0.0199380007123124	-0.00350404178641269	-3.47189738565176E-05	-0.00313697952479033	-4.49099248452793E-05	-0.00313159163171874	-0.0155686476843239	0.00299929990968646
10.2	-0.0213359385996743	0.000524881205006779	-0.00046688242806674	-0.00309945270564173	-0.000470283057537218	-0.00309669426716886	-0.0151335462427972	0.00388550832315508
10.3	-0.0217369898840504	0.00488728176621412	-0.000886683220843803	-0.00300144136054508	-0.000878557244194841	-0.00301042961178368	-0.0143755845178905	0.00451805943273721
10.4	-0.0211240052432848	0.00913426884799021	-0.00127653804106037	-0.00286109088143125	-0.00127477941864763	-0.00286726255892221	-0.0135149251145822	0.00459871400984815
10.5	-0.0198225812519134	0.0131412461814478	-0.00166860535124364	-0.00268037908117881	-0.00166566525512159	-0.00266730553422071	-0.0130476681316218	0.00446064758826241
10.6	-0.0179012786759942	0.0169695167544509	-0.00203121889164021	-0.0024275349646573	-0.00202896167657134	-0.00243135177873295	-0.0128889103141465	0.00442551977839311
10.7	-0.0152315891361597	0.0207319094706002	-0.00236421140380649	-0.00213781446711736	-0.00236075357833473	-0.00213242174019949	-0.0127214359531663	0.00468431411722233
10.8	-0.0115627173467021	0.0240863347609349	-0.00265647518073439	-0.00178151431689357	-0.00265107535139766	-0.00179051635093288	-0.0124767604422975	0.00493368300806341
10.9	-0.00714044323778024	0.0267409370816231	-0.00288843465505602	-0.00140139388142004	-0.00289373495081638	-0.0014007009387058	-0.0124516040878228	0.00505745058345005
11	-0.00206454393864655	0.0283209931619205	-0.0030684512730584	-0.000968949912647365	-0.00307336758009733	-0.000975878129562525	-0.0124347861155931	0.00542508285971208
11.1	0.00321401787643849	0.0289025504173576	-0.00319073200246178	-0.000520501564634629	-0.00317960003697071	-0.000517555176585014	-0.0123145284314013	0.00600295532038112
11.2	0.00862453972140856	0.0285101017705159	-0.0032237002584319	-5.49575030114588E-05	-0.0032310588853784	-5.98909537487516E-05	-0.0117979173839135	0.00673899875709889
11.3	0.706832803768074	0.210295128478306	-0.0108821043943389	-0.0112992084199617	-0.0111537953530803	-0.00851802763936141	0.463589242207466	2.93596645976274
11.4	3.90595557279432	6.61934819550195	0.00348393734193789	-0.0238828904298121	0.0025453225259314	-0.0231561975998474	-0.564697018064635	0.565645645394359
11.5	9.21869293907999	-2.68465761507872	0.0387715270003423	-0.0239915175411946	0.0382434385188826	-0.0245314703108524	-0.24836710115363	-2.24800131217713
11.6	0.0275798123547954	0.0153771050493278	-0.0027085937562485	0.00169937807384746	-0.00270851047825239	0.00170236101169719	-0.00773776163178027	0.00618544088279146
11.7	0.0302650199315787	0.0100904459327761	-0.00241962395071488	0.00204767476473979	-0.00241999072398894	0.00205637420099302	-0.00699420250869401	0.00566875699707098
11.8	0.032012201045005	0.00438489512742489	-0.00210165896390147	0.00236396519242949	-0.00210575025456243	0.00236576794731351	-0.00623779362132491	0.00482762150749542
11.9	0.0326280202072344	-0.00171015260841303	-0.00173878563861069	0.00261712777867616	-0.00175169508631072	0.00262171978985556	-0.00593101929483575	0.0037058816893161
12	0.0322961096917	-0.00814164341050556	-0.00136263071362608	0.00281533802443232	-0.00136201074030626	0.00281673028866833	-0.0058236632197017	0.0029721711097322
