# GHZ S RI R 50
0.2	0.00510761752896764	0.0024586563911837	0.00304833070675476	-0.000897562201376366	0.00305869823163579	-0.000890752401635548	-0.0148245003469601	0.00612680262920808
0.3	0.00602405442730302	-9.75125495965035E-06	0.00290427511582983	-0.00132077762300069	0.00289702680129453	-0.00130784069286124	-0.013429808611847	0.00579586756169053
0.4	0.00588371742445029	-0.00237894129692037	0.00267294905228495	-0.0016923825444648	0.00267821867635758	-0.00170094162645618	-0.0128271355482824	0.00561014255550902
0.5	0.00478128370673743	-0.00431562660725785	0.00241454321703784	-0.00204904079872903	0.00242608547845976	-0.00206127705521861	-0.0127403725235224	0.00569152718813668
0.6	0.00314639159609605	-0.00545052601578393	0.00210252319184669	-0.00236371041471897	0.00210173974038816	-0.0023708612329827	-0.0129029027336829	0.0062256801258937
0.7	0.00141896390387655	-0.00574315409122563	0.00175581657454559	-0.00264192847675621	0.00175386015356223	-0.00264212830233475	-0.0129807997066239	0.00727017091428669
0.8	0.000113491191942302	-0.00550987947089453	0.00137062900277752	-0.00285998557058423	0.0013580260758837	-0.00286454265623166	-0.0125711567355229	0.00860990475580048
0.9	-0.000834209180857316	-0.00514349914110586	0.000953510630870033	-0.00302432904588099	0.000954550863245128	-0.00303503397443225	-0.0116620982301427	0.00971491915230883
1	-0.00162446329169472	-0.00499955885273212	0.000528273289779987	-0.00312853679361584	0.000518404494049142	-0.0031292807229843	-0.0105713738800034	0.0103182621324735
1.1	-0.00273822964277071	-0.00504537909823346	7.18684751803086E-05	-0.00315795054829309	6.83615757310425E-05	-0.00317561696360145	-0.00985755488840541	0.0105820781826312
1.2	-0.00430964267428232	-0.00505161083974378	-0.000371298890217978	-0.00314761768108983	-0.000372111390996673	-0.00314553926453974	-0.00927667885288201	0.0109276542396453
1.3	-0.00613998916329296	-0.00472419229388481	-0.000799520438631266	-0.00306422181295272	-0.000802764144905219	-0.00306622815736605	-0.0082336005206359	0.0115004332176371
1.4	-0.00757252931015558	-0.00403553841163808	-0.0012217988684779	-0.00291533721253843	-0.00122058736763561	-0.00292087614394553	-0.00678533950330372	0.0115369117073229
1.5	-0.0083176775128281	-0.00281795358255208	-0.00162335360190512	-0.00271847436686804	-0.0016217462093364	-0.00272698292519598	-0.0056263309909027	0.011235699114978
1.6	-0.00846110537508406	-0.00100736226717889	-0.00198414774347742	-0.00246484796207012	-0.00198436342465143	-0.0024700855791275	-0.00521133723758088	0.0114618425406863
1.7	-0.00780164498202745	0.000920012756884805	-0.0023123220785009	-0.00216677913481443	-0.0023132818993767	-0.00216051378047181	-0.0044485212606767	0.0120880054618894
1.8	-0.00653894014967612	0.00259286395800037	-0.00258263839938331	-0.00181431359022958	-0.00259361269763871	-0.00181993997002709	-0.00336721192264482	0.01246291417405
1.9	-0.0049832024770406	0.00358486855904362	-0.0028069980799184	-0.00144300087460477	-0.0028194313206266	-0.00143683482697248	-0.00235055488894892	0.0124770333305916
2	-0.00352257970004019	0.00407288328081608	-0.00298157440321237	-0.00103517462619299	-0.0029911895266258	-0.00103045805516432	-0.00164192150588352	0.0124051258001213
2.1	-0.00222373797303419	0.00426670303293972	-0.00309401361746749	-0.00060703007465371	-0.00308993363175403	-0.000609024436089144	-0.00102507023305929	0.0124098401747772
2.2	-0.000970445726181653	0.00442502480009685	-0.00315059412285034	-0.000169364324330277	-0.00316189375154976	-0.000172191137522026	-0.000209374042014388	0.0125681208841988
2.3	0.0004601073967353	0.00431537320817803	-0.00314549610816741	0.000273225905024196	-0.00314519727933672	0.000266346910202861	0.000842130966114024	0.012572655258728
2.4	0.00199131830943123	0.00378649527324551	-0.00307300404790835	0.00071072918776616	-0.00307554509076205	0.000706475122970356	0.00205598764481555	0.012318292426236
2.5	0.00332839725181156	0.00263622867267132	-0.00293624240803425	0.00112235826122893	-0.00294712516240202	0.00112873704254782	0.0031824982129414	0.0116196651689611
2.6	0.00421469622819063	0.00112371053783057	-0.00276281218799749	0.00152507146206446	-0.00275925714514994	0.00151275277390903	0.00398557742587055	0.0107330280948343
2.7	0.00471624928989327	-0.000422977590079242	-0.00251739860207328	0.0018964988936615	-0.00252267787938362	0.00189650996920703	0.00443258427315165	0.00994599054916254
2.8	0.00510487570941732	-0.00199516925828773	-0.00223475384224101	0.00222438868309955	-0.00222693907101968	0.00223417859331106	0.00480391309165787	0.00944276417170061
2.9	0.00537799449983537	-0.0038140468550647	-0.00190029675758535	0.00252511610904466	-0.00189658689150193	0.00252468845600083	0.00540719087519218	0.0090651416239277
3	0.00516045623631839	-0.00588233839849897	-0.00151344501024723	0.00276105276099517	-0.00152822921487406	0.00276715948350269	0.00607404281924984	0.00864914086512517
3.1	0.00439808441389487	-0.00787165151463202	-0.00112225629721976	0.00293847072316929	-0.00111759257664717	0.00294681472574808	0.00661708615575508	0.00822648319966998
3.2	0.00310303339797579	-0.00958542534574395	-0.000700527581775252	0.00307547022268852	-0.000702273408673657	0.00307486069737693	0.00704309867646868	0.00799734933838619
3.3	0.00155914098617018	-0.0110902578877401	-0.000260872509252959	0.00314457351588471	-0.000259227105238234	0.00314082998624648	0.00778893907655291	0.00769051411502012
3.4	-0.000334388291979222	-0.0123388991480604	0.000186945275915448	0.00313725422038994	0.000180760588933553	0.00315383163492067	0.00863119507788364	0.00697101780412496
3.5	-0.0025996770110829	-0.0133726087545509	0.000609294859403308	0.00309274037218619	0.000614891035447156	0.00309280719092272	0.00909489683026706	0.00585262313823243
3.6	-0.00528481208919407	-0.0138318496085774	0.00103770913178602	0.00297160034726027	0.00104589849702134	0.00297126895916968	0.00920498605884697	0.00497063350728698
3.7	-0.00804810775607001	-0.013542738025965	0.00144752063126134	0.00278869911441281	0.00143796423810831	0.00280238399361877	0.00939059284906257	0.00432101754989977
3.8	-0.0105729857106836	-0.0125845857640637	0.00182422822327149	0.00255996608288273	0.00182664617107637	0.00256910322109301	0.00971822111628791	0.00367015067073994
3.9	-0.0126334427553833	-0.0112715272276153	0.00216812485734844	0.00228582179474568	0.00216086583576662	0.00228405644819027	0.0100584943109232	0.00282525395123154
4	-0.0144566479332226	-0.00980355793648329	0.00245068559183717	0.00196437907791121	0.00245512403606722	0.0019619423726785	0.0102591150646697	0.00192020369913919
4.1	-0.0161561605008643	-0.00805623976753543	0.00270055596534766	0.00160494700840492	0.00269930643571199	0.00160568281607121	0.0103900365521922	0.00111919116345114
4.2	-0.017627774207945	-0.00584128301070166	0.00289805714537085	0.00120493435797521	0.00290250814872638	0.00119623232653876	0.0105340064425538	0.000414761430141377
4.3	-0.0185775159245726	-0.00334191765758048	0.00303994352271545	0.000794517145170443	0.00304635076074987	0.000786727705672018	0.0107848749464298	-0.000421356616388891
4.4	-0.0190638561826362	-0.000736068353851871	0.00311585021475783	0.000362298187150897	0.00311822009939938	0.000360046139017491	0.0109038673746131	-0.00142167268357411
4.5	-0.0191616883081247	0.00184736261242529	0.00313888590075516	-7.38945076642871E-05	0.00314423793184146	-7.72597662356668E-05	0.0108455872686071	-0.00251182856987893
4.6	-0.0190303736616423	0.00442643105250379	0.00309574197429863	-0.000515237245640913	0.00309696068738095	-0.000502343659664003	0.0104862360796557	-0.00360061663628277
4.7	-0.0184242947824293	0.00717161626396816	0.00299181428803528	-0.0009331703861083	0.00300708745548878	-0.0009427624856885	0.00993360229432688	-0.00448265608099269
4.8	-0.0172295069953819	0.00990712363658604	0.00283214139511549	-0.00134699389582702	0.00284061621320881	-0.00135306939093521	0.00944391846740321	-0.00513637771396472
4.9	-0.015211251184463	0.0123040676426275	0.00261257933574034	-0.00173146360531505	0.00261674004793458	-0.00172855759994244	0.00909178052241263	-0.00571847572081036
5	-0.0127583536483063	0.0140353541840069	0.00235360010306258	-0.00208729968951123	0.00235721814313251	-0.0020846345577692	0.00892402405082669	-0.00628928422600585
5.1	-0.00997510709794895	0.0152676530400362	0.00204300192323639	-0.00239871702566471	0.00204530102971411	-0.00239735883931986	0.00878433468717098	-0.006909082246023
5.2	-0.00706542751596289	0.016012022884509	0.00168508663930264	-0.00264925361298589	0.00168680013187509	-0.00265439417243936	0.00868806180515212	-0.00744980209936821
5.3	-0.00391844482268174	0.0162041287434406	0.00129771570346115	-0.00286489374457901	0.00130084707624417	-0.00286283226641845	0.00873091699859794	-0.00801218903329776
5.4	-0.000786808438479614	0.0156484063161022	0.000872139710278788	-0.00301204508439358	0.000889290984517649	-0.00302325321146804	0.00876787445999257	-0.00897988220865174
5.5	0.00192446416145297	0.0144255488820279	0.000458012493527408	-0.00310900530395042	0.000468052021832324	-0.00311843154312255	0.00831853617232146	-0.010188008513659
5.6	0.00405362735360862	0.0128147341943843	1.9450346130377E-05	-0.00314381564163161	1.09318555047264E-05	-0.00314702484150516	0.00730778821650478	-0.0110683608950137
5.7	0.00565722728596148	0.0111418628598662	-0.000411033954561211	-0.00311189364122567	-0.000427625415398436	-0.00311553661528589	0.00619539461469735	-0.0113863262178222
5.8	0.00701218745054033	0.00940997211935837	-0.000855633526094514	-0.0030156937383554	-0.000859172034708052	-0.00302965536242251	0.00534654118671935	-0.0116126530619277
5.9	0.00815456282533425	0.00750874849398155	-0.00125865911746301	-0.00287493155745002	-0.0012668720752029	-0.00287484615132513	0.00454659304540819	-0.0119202148356054
6	0.0089026513503676	0.00520667002546678	-0.00165462077641579	-0.00266862022384716	-0.00165106818709898	-0.00266878714251995	0.00354248363424879	-0.0122313289115065
6.1	0.00902033062712885	0.00266569424257296	-0.00200740286516417	-0.00241491426193111	-0.00200903865470815	-0.00241092065531666	0.00255258614964547	-0.0123055021084769
6.2	0.00846424666569459	0.000150759891938113	-0.00231820353440252	-0.00210341442237674	-0.0023218958031292	-0.00211525547158743	0.00176212705165941	-0.0123130468718392
6.3	0.00752009504017587	-0.00217333163145784	-0.00259461354071788	-0.00177125949639919	-0.00260372339529762	-0.00176554517254161	0.00119804423690459	-0.0125056529304704
6.4	0.00615458299925938	-0.00444046957392438	-0.00282047338963619	-0.00138336283809066	-0.0028107658948264	-0.00138823924356572	0.000666804135310789	-0.0129380465931015
6.5	0.00425652833003254	-0.00648592205069755	-0.00297766645574867	-0.000981071883188609	-0.00298551860077575	-0.000976614787491586	-4.15398422573656E-05	-0.0134690133415605
6.6	0.00182556721155074	-0.00783158306578367	-0.00308742049607278	-0.000558387973458116	-0.00308904218884985	-0.00056236119261786	-0.000888947843422418	-0.0137811588556601
6.7	-0.000709644606364374	-0.00827449242716511	-0.00314035107394632	-0.000122140389359745	-0.00314920847865299	-0.000115890962185792	-0.00184571426110339	-0.0137897182538823
6.8	-0.00302158173186447	-0.00802501195500689	-0.00312151838766362	0.000318803418321375	-0.00313261502954441	0.000323820177254447	-0.00269504988556651	-0.0135971258223526
6.9	-0.00510307856076607	-0.0074070441975659	-0.00304873993045299	0.000752608756210432	-0.00305173167483139	0.000754991524154006	-0.00345569444122618	-0.0134357442237756
7	-0.0070516407442994	-0.00648351807180096	-0.0029141837993809	0.00117462829156359	-0.00292701004562695	0.00117240406749846	-0.00431840915287258	-0.01334050186905
7.1	-0.00904600493645273	-0.005129642540253	-0.00273781919614142	0.00156518458853874	-0.00273416958809283	0.00157386129756789	-0.0054091935803175	-0.0129323605479409
7.2	-0.0108441634736741	-0.00311588368017715	-0.0024819429640223	0.00193512768041716	-0.00248848041347702	0.00193719838582146	-0.00625432101830016	-0.0120950898502077
7.3	-0.0121465096158308	-0.000529390185829167	-0.0021863497926701	0.00225596926961988	-0.00219757816223656	0.00226101400520594	-0.00654622039967502	-0.0112488700699316
7.4	-0.0127061454186519	0.00231498932587495	-0.00184410239604614	0.00254051863312826	-0.00185100263104908	0.00255413290079023	-0.00661964187288653	-0.0108307439661208
7.5	-0.0125620713852561	0.00501516482746233	-0.00147755150078619	0.00278056780971797	-0.0014705577203545	0.00278797269467881	-0.00661751615280523	-0.010881315836069
7.6	-0.0118834350621949	0.00737857590923056	-0.00107037119321953	0.00295924968998311	-0.00107174532886678	0.00295454973371723	-0.00680303767108846	-0.0113219456066405
7.7	-0.0108162394834498	0.00952378196071227	-0.000641376976661695	0.00308021443029894	-0.000642717330836212	0.00307915223122028	-0.00739108945565607	-0.0119859406755569
7.8	-0.00904222225706402	0.0112817590503339	-0.000215533106910517	0.00312872165489287	-0.000223341205103441	0.003135177779902	-0.00825633608798716	-0.0124643452551204
7.9	-0.00669236801109917	0.0123403074765705	0.00022516156650778	0.00313526764294003	0.00023310023742285	0.00313676778543772	-0.00930926713897703	-0.0126489696063046
8	-0.00438307952669441	0.0127752538002567	0.000666029169872717	0.00306293524206965	0.000666108294228892	0.00306783241979175	-0.0106392188552455	-0.0126836457792924
8.1	-0.00204338445839945	0.0128574684946522	0.00107544331777544	0.00294557166268834	0.00109457751229761	0.00294667187552691	-0.0119237166875029	-0.0120599846408319
8.2	0.000214611814590971	0.0127474802375094	0.0014790894056884	0.0027657129177113	0.00148833803753615	0.0027585330417944	-0.0128430320131793	-0.0110828678962528
8.3	0.00261363599941922	0.0122828752810001	0.00185493708086958	0.00252831351561395	0.00185327490305475	0.00254185398323368	-0.0133418041914012	-0.0101671346564623
8.4	0.00500809007612761	0.0112867660786611	0.00219079009839804	0.00225260776728788	0.00218776103966074	0.00225237798274658	-0.0137756610002886	-0.00955881634854039
8.5	0.00711028230671608	0.0096135485768168	0.00247756757373871	0.00192399859284041	0.00247666406119649	0.00192718057077206	-0.0144829076527613	-0.00899750346787648
8.6	0.00861653436175205	0.00755839417919038	0.00272552858465593	0.00156531163908467	0.0027350468350237	0.00155878789292791	-0.015300462270036	-0.00821252854449737
8.7	0.00960392690142611	0.00536636909701584	0.00291378259641175	0.00116355438945504	0.00291934633642524	0.00116429035842772	-0.0159571279316112	-0.0071736265641308
8.8	0.0102658825091184	0.00315894457187495	0.00305316488620678	0.000752681869978107	0.00305896051849015	0.000743920973214053	-0.0163600713451354	-0.00614220245481553
8.9	0.0107906213777685	0.000677100625702501	0.00313331833636785	0.0003176408510872	0.00313244981492512	0.000315387682865053	-0.0163874189781267	-0.00515152544969611
9	0.0108496501392618	-0.0022770319459859	0.00314530628710989	-0.00012766801007742	0.00314846464956279	-0.000123552373701684	-0.0162386351132908	-0.00432142906993398
9.1	0.0101639982176731	-0.00546153104387954	0.00310047761701093	-0.000571861463425196	0.00310335677083547	-0.000558927325880982	-0.0160041164880507	-0.00359275645025172
9.2	0.00857307958601521	-0.00846690986479591	0.00299123551013079	-0.000992533709598882	0.0029989159597207	-0.000995414822630977	-0.0157211657511664	-0.00297228038898739
9.3	0.00635717555054229	-0.0110270753888387	0.00282178624497962	-0.0014007838858187	0.00282105293743914	-0.00140578843502863	-0.0153060714299472	-0.00246206115309828
9.4	0.00359020702748941	-0.0131487231007599	0.00259749415382984	-0.00179347430881889	0.00260402796459621	-0.00178586024108645	-0.0150153189046307	-0.00220342917378863
9.5	0.000175890803686229	-0.0145967981674787	0.00231987878857951	-0.0021292845005729	0.00232730707961505	-0.00213064333882065	-0.0150319726826024	-0.00194906162762382
9.6	-0.00377170314463202	-0.0151668806711479	0.0020001867202873	-0.00243343651873556	0.00200051866004279	-0.0024324530522676	-0.0153892808030482	-0.00147908025248197
9.7	-0.0078764546943383	-0.0145571317881058	0.00163057847399312	-0.00268344962083685	0.00163610911684164	-0.00269077601881579	-0.0156316999329458	-0.000634328842122696
9.8	-0.0116920359354152	-0.01290255590716	0.00124383887717289	-0.00289106202811736	0.00124955702278674	-0.00288256552207264	-0.0156132689290296	0.000281812751879504
9.9	-0.0149306476481707	-0.0103940813290093	0.000837647822355861	-0.00302866321698224	0.000830315261226615	-0.00302742448475082	-0.0155464003369719	0.00110976389407597
10	-0.0176440722863208	-0.00739547935951773	0.000407476937774457	-0.00311629295232435	0.000399970525439582	-0.00312872631816506	-0.0155087954322131	0.00190169592588386
10.1	-0.0198014854591985	-0.0038599677212206	-3.39797913759416E-05	-0.00314656597173962	-4.42033065987438E-05	-0.00314116437526896	-0.0153686276473218	0.00273478644668722
10.2	-0.0212377249534481	0.000223816702726546	-0.000478921208928758	-0.00310917225526983	-0.00048232500888414	-0.0031063924356049	-0.0149562498683712	0.00363005055266559
10.3	-0.0216609794793793	0.00469785083974115	-0.000910184869057756	-0.00300370137101541	-0.000902098867936998	-0.00301277182710165	-0.0142340944282662	0.00430566356780481
10.4	-0.0209634468297014	0.00909529679371826	-0.00130657732437658	-0.00284996477922216	-0.00130488050554078	-0.00285615849575341	-0.0133543992093723	0.00446563786796174
10.5	-0.0194424273877134	0.0131744753763391	-0.00169785004327227	-0.00265258420416174	-0.0016947539024252	-0.00263958116321965	-0.0127945172285003	0.0043839042986796
10.6	-0.0172822927260353	0.0169103856737036	-0.00205109668741017	-0.00238401048408597	-0.00204890624353603	-0.00238783321801347	-0.012529271780303	0.00434174882139803
10.7	-0.0144742952034808	0.0204787963672093	-0.00236764388078993	-0.00208311971114214	-0.00236415055717351	-0.00207783124857309	-0.0122940323486804	0.00456949086778099
10.8	-0.0108287325151253	0.023640483312049	-0.00263866681426322	-0.00172348098251617	-0.00263345425726629	-0.00173241504313156	-0.0120120977124954	0.00472492689068716
10.9	-0.00632530186909331	0.0260456706890596	-0.00284887480817433	-0.00134882138220958	-0.00285407197454068	-0.00134809149490894	-0.01180117378949	0.00492723987554692
11	-0.00132743286615295	0.027414296672469	-0.0030099128669316	-0.000930844312078939	-0.00301476664021802	-0.000937599049493906	-0.0117049514975459	0.00519600291719906
11.1	0.00377209732438439	0.0277839705493269	-0.00311953392015515	-0.000503557019018249	-0.00310864851425719	-0.000500695272571793	-0.0115497362733027	0.00564620988526006
11.2	0.00888154271743319	0.0272672036068359	-0.00314903915438527	-6.30646437918319E-05	-0.00315621336936311	-6.79054852180999E-05	-0.0110511576490325	0.00625215944299347
11.3	0.0140802116758505	0.0258151486874799	-0.00312124720140553	0.000388415543897089	-0.00313282985066022	0.000378374113341739	-0.00997784986556042	0.00670008731985618
11.4	0.0190474700024008	0.0233389276778005	-0.0030455890300056	0.000818474947059768	-0.00304064980163585	0.000826045154480848	-0.00891593608974749	0.00667946548310464
11.5	0.0235031179903167	0.0197252812220942	-0.00289953500227623	0.0012354146349086	-0.00290229149101942	0.00124571296958978	-0.0081718557870622	0.00626140282355146
11.6	0.0271265514523579	0.015139493688276	-0.00270204457539989	0.00162595165251658	-0.00270201723472617	0.00162889454020094	-0.00754777772268133	0.00570326131402844
11.7	0.0297875354520386	0.010043396108128	-0.00243781836428483	0.00197959966870437	-0.00243835652914117	0.00198820915659924	-0.00692151885434519	0.00505831692436658
11.8	0.031664100312731	0.00459095656581976	-0.0021401675374565	0.0023096898219037	-0.00214427641176631	0.00231140017267663	-0.00633270571695187	0.00428537694091868
11.9	0.0326518177454094	-0.0013171807559835	-0.00178948006940098	0.0025827804512189	-0.00180247672343193	0.00258712007606133	-0.00605449369817794	0.00354316940825592
12	0.0325099356391032	-0.00763584314811991	-0.00141610259519253	0.00280309639779969	-0.00141550398689822	0.00280450472412112	-0.00600102380019037	0.00287107650169628
