# GHZ S RI R 50
0.2	0.00568934572883846	0.00405197504522203	0.00304828960822198	-0.000895780120885511	0.00305865172366579	-0.000888965944787118	-0.0142324880341955	0.00771810820845047
0.3	0.00651337748425816	0.000446980651812905	0.00290509160207073	-0.00131765661408051	0.00289783164385205	-0.00130472913137458	-0.0129339098575131	0.00623635404671918
0.4	0.00580360610450333	-0.00234524031268712	0.00267557188335049	-0.0016883002021371	0.00268085468826958	-0.00169685128906169	-0.0129209921383338	0.00561622203385873
0.5	0.00423298310621081	-0.00408316867762741	0.00241973846050528	-0.00204490697286971	0.00243131057781819	-0.00205712446005934	-0.0133329000540344	0.00590159003021173
0.6	0.00256090920028775	-0.00476048380450603	0.00211049781389689	-0.00236088170975986	0.00210973129154697	-0.00236804167214096	-0.0135574911439292	0.00691833529402768
0.7	0.00119733694275044	-0.00475912048115617	0.00176612297572406	-0.00264183580486119	0.0017641636279605	-0.00264204131048447	-0.0132783928382686	0.00829123824781698
0.8	0.000350486552934107	-0.00461910317755661	0.00138207368115194	-0.00286380444570346	0.00136944987215187	-0.00286840804129705	-0.0123993196237928	0.00956549461594132
0.9	-0.000385107193521102	-0.00463944177548561	0.000964378043199141	-0.00303268510157529	0.000965448468224181	-0.00304342538850244	-0.0112612845697895	0.0102950106176679
1	-0.00133864653277601	-0.00486113706844806	0.000536657797914783	-0.00314119840487658	0.000526747271041808	-0.0031419647469255	-0.0103246432777461	0.0105309451111414
1.1	-0.00282021347744469	-0.0049687404318259	7.58912566643293E-05	-0.0031738084013519	7.23871295689826E-05	-0.00319156806009105	-0.00997970248061054	0.0107302917957738
1.2	-0.0046416561767777	-0.00474310274992275	-0.000372732028420243	-0.00316496883130748	-0.000373549389290071	-0.00316287916091224	-0.00964237235885912	0.0113245763513566
1.3	-0.00645976338930546	-0.00416003983784979	-0.000806755739204118	-0.00308083590880976	-0.000810019560746781	-0.0030828507209435	-0.00856319656956932	0.0121667597617109
1.4	-0.00777559972056738	-0.00336053193597909	-0.00123432524401561	-0.00292896688965104	-0.00123311808215446	-0.0029345387403754	-0.0069857986509301	0.0123424560088763
1.5	-0.0083407223947256	-0.00204147061618562	-0.00163974381883832	-0.00272733309863458	-0.00163815390916119	-0.00273588951521838	-0.00562223776641872	0.0121738341395591
1.6	-0.00819756663289856	-0.000223949129237929	-0.00200225686551299	-0.00246786494830193	-0.0020024936994297	-0.00247312441909722	-0.00491299866404234	0.0124174136679825
1.7	-0.007301881242935	0.00150790106041515	-0.00232985210636174	-0.00216383360701295	-0.00233078724291345	-0.00215754266211926	-0.00387077385705408	0.0128351563662017
1.8	-0.00599062338027777	0.00291402348280305	-0.00259733307881314	-0.0018062981843176	-0.00260835991472807	-0.00181188560956922	-0.0027268359028801	0.0128938844815668
1.9	-0.00457233085935356	0.00374330380791581	-0.00281739318472284	-0.00143162000567408	-0.00282981328792018	-0.00142538746690186	-0.00186516377054329	0.0127082191704876
2	-0.00324890756765888	0.00424822130299956	-0.00298697490516007	-0.00102254724877867	-0.0029965724801254	-0.00101778750591936	-0.00133068169340297	0.0126457017807855
2.1	-0.00194789169477659	0.00453449637297044	-0.00309479865425479	-0.000595352695675896	-0.00309072792449474	-0.000597361145819293	-0.000735119767027011	0.0127679577414694
2.2	-0.000570415379456719	0.00469259665724955	-0.00314807486429554	-0.000160332000589752	-0.00315937170687422	-0.000163124308756221	0.000215023202203314	0.0129570223272841
2.3	0.000944622029182244	0.00442419771572638	-0.00314158258620937	0.000278759834230739	-0.00314129683065076	0.000271887736690249	0.00138271478659589	0.0128046758514634
2.4	0.00238403316612913	0.00370372908243331	-0.00306974142730841	0.000712959026928159	-0.00307228423577439	0.00070871091416532	0.00251391117981648	0.0123129629515824
2.5	0.00349988194699928	0.00250056906453728	-0.00293528806230503	0.00112247137709973	-0.00294616696440893	0.0011288499768998	0.00338547380937157	0.0115275390070725
2.6	0.00422867429481364	0.00111223558750812	-0.00276497622321421	0.00152492347871645	-0.0027614145386519	0.0015125989982641	0.00397746128722887	0.0107660185650373
2.7	0.00472695027432609	-0.000292614816165508	-0.00252244476576566	0.00189815278965966	-0.00252773246697339	0.00189816100958252	0.00438689123362353	0.010152524185196
2.8	0.00516006607852234	-0.00181326524395029	-0.00224144896122082	0.00222957186553175	-0.00223361662573893	0.00223939046303563	0.00479132319626087	0.00973410025687986
2.9	0.0054306992991416	-0.00360096839811511	-0.00190657927432816	0.00253486356059003	-0.00190285594462419	0.00253443335470809	0.00538608982463577	0.00942859136509815
3	0.00523608956877776	-0.00557357789406257	-0.00151683439888774	0.00277518408474585	-0.00153167702863094	0.00278133593852689	0.00608194509728454	0.00916134228224228
3.1	0.00459908098198161	-0.0074675868828411	-0.00112062669797268	0.0029557369259783	-0.00111591954446834	0.00296411078298965	0.0067812839361439	0.0088857891027454
3.2	0.00347751444688167	-0.00921302086854086	-0.000692265854324439	0.00309370217449868	-0.000694022843839579	0.00309309626829226	0.00745172035152583	0.00866887574813657
3.3	0.00200778474614063	-0.0108530023120074	-0.000245484677369068	0.00316086079695489	-0.000243851263795769	0.00315709082076128	0.00835808597972553	0.0082138671109728
3.4	6.62547082546928E-05	-0.0122017718849181	0.000208589120109031	0.00314854276245805	0.000202490145126652	0.0031652276017216	0.00920846285863222	0.00733920190055914
3.5	-0.00226837826117953	-0.013230237568546	0.00063522807024596	0.003096777242324	0.000640840699932706	0.0030968004647873	0.00962470960661226	0.00616373375135688
3.6	-0.00491595321814105	-0.0136294553805695	0.00106487874991838	0.00296669350518008	0.001073076496792	0.00296629071510757	0.00977271380206089	0.00530330380278098
3.7	-0.00758324366952661	-0.0133671055671571	0.00147238790463101	0.00277467102414438	0.00146295881401742	0.00278843835820226	0.0100681032895964	0.00457821168524769
3.8	-0.0100759081846118	-0.0125255679061998	0.00184350392067619	0.00253813634207248	0.00184599925113121	0.00254723250107785	0.0104232142490097	0.00373031074736828
3.9	-0.0122183867759393	-0.0112950566824905	0.00217922745402765	0.0022587279287831	0.00217198115920401	0.00225703083656533	0.0106158103995941	0.00271593137483026
4	-0.0141315446274988	-0.0097880560659788	0.00245230445947502	0.0019356355784595	0.00245670109853388	0.00193317871563589	0.0106045560057406	0.00181564857540315
4.1	-0.0158144976288232	-0.00795658098365952	0.00269283405650914	0.00157814357825358	0.00269159708670183	0.00157888221940341	0.0106385459579872	0.00114261017585369
4.2	-0.0171973374723938	-0.00574465045547271	0.0028826552865615	0.00118339607185834	0.00288703564799639	0.00117473657903855	0.0108151489843136	0.000514969034300005
4.3	-0.0181136976076109	-0.00334749447501525	0.00301977823874282	0.000780378552958723	0.00302611713133247	0.000772628847271866	0.0110817360517733	-0.000375429201116802
4.4	-0.0186862342213698	-0.000818529806846655	0.00309439867088613	0.00035636359907423	0.00309674948612281	0.000354124759022787	0.0110896057830874	-0.00141525545958263
4.5	-0.0188933408347693	0.00180579498114671	0.00311941131752445	-7.24601555644381E-05	0.0031247311495458	-7.58028474244604E-05	0.0108837525731668	-0.00240610463973135
4.6	-0.0187766147602901	0.00449496219260984	0.0030807775405985	-0.000508513931879078	0.0030819729388306	-0.000495683905508058	0.0105137242878592	-0.00328177513697481
4.7	-0.0180994372900683	0.00729422216394669	0.00298254753968951	-0.000924082487764062	0.00299778251549507	-0.000933610395775165	0.0100874161522163	-0.00403404932010218
4.8	-0.0168374683432598	0.0100087744519859	0.0028283384090896	-0.00133844715176737	0.00283680581458576	-0.00134449243919157	0.00975206868665407	-0.00470411777593395
4.9	-0.0148410473767734	0.0123798435419377	0.00261268985458818	-0.00172588065198592	0.00261684222337061	-0.00172297116195684	0.00941606414524855	-0.00534387025031549
5	-0.0123961206060462	0.0141625655467485	0.00235516922910089	-0.00208601041660289	0.00235878593625298	-0.00208334270821699	0.00924098888734571	-0.0058826820761676
5.1	-0.0095162035097911	0.0154354973606738	0.0020432561290897	-0.00240171346836045	0.00204555777445936	-0.00240035550412868	0.00920586958769464	-0.0064588378378788
5.2	-0.00648451953705381	0.0160946886209504	0.00168161946164699	-0.00265513886913325	0.00168332468756823	-0.00266028783263317	0.00925797774612329	-0.00709866120200396
5.3	-0.0033329075732367	0.0161339822169223	0.00128899084639387	-0.00287126304146784	0.00129213134322402	-0.00286921064950837	0.00930552560700831	-0.00785983688907826
5.4	-0.000305482709218057	0.0155112693241001	0.000857992190428865	-0.00301585766259685	0.000875089611219676	-0.00302714494256124	0.00917945570446129	-0.00892784470021027
5.5	0.00234148681840094	0.0143463192791055	0.000439637519571585	-0.00310751548698078	0.000449609906940193	-0.0031169866541004	0.00858019538858662	-0.0100414618937522
5.6	0.00453142831417367	0.0127956894020191	-6.08069499886833E-07	-0.00313478901766599	-9.12218404604038E-06	-0.00313793467988338	0.00759403011932177	-0.0107560848510568
5.7	0.00624791197379738	0.0110388389668243	-0.000429338784221037	-0.00309449760887067	-0.000445875461065053	-0.00309801538731196	0.00665368688448914	-0.011046659682705
5.8	0.00760130663166162	0.00913229772653855	-0.00086833354108199	-0.00299055021518101	-0.000871933641186558	-0.00300439800671683	0.0059156477466686	-0.011418452406606
5.9	0.00858415605002317	0.00709263032192443	-0.00126275371484013	-0.0028444491531461	-0.00127089746098231	-0.00284432265406412	0.00503901274458622	-0.0119201946233911
6	0.00911728300593569	0.00481242785120779	-0.00164786569003408	-0.00263646093955641	-0.00164434864749708	-0.00263663889399095	0.00382426151751294	-0.0122814315945698
6.1	0.00912143049962311	0.00242355520902785	-0.00198958515385617	-0.002385453812188	-0.00199119668477375	-0.00238150082922785	0.00268686986935222	-0.0122246461991119
6.2	0.00858419389273655	4.73902727376459E-05	-0.00229092422346882	-0.0020809940249129	-0.0022945683601639	-0.00209270369809019	0.0019107410554813	-0.0120825449085276
6.3	0.00769876161022675	-0.00220729248839689	-0.00256097201884411	-0.00175892937189686	-0.00256999712285367	-0.00175330370404434	0.00141955225737412	-0.0122194150609894
6.4	0.00633828425453363	-0.00437169168731644	-0.0027848725326551	-0.00138301458348049	-0.00277524043234017	-0.00138779365723012	0.000841781145450087	-0.0125873332223728
6.5	0.00454131213301548	-0.00627312715810333	-0.00294480273366229	-0.00099218733409288	-0.00295261504394578	-0.000987821866404531	0.000151788062967616	-0.0129323609293538
6.6	0.00233256499815173	-0.00759843617235967	-0.00306119115202509	-0.000578881215992528	-0.00306276994009687	-0.000582839204454111	-0.000471469751156325	-0.0131156382488627
6.7	-3.11799652528793E-05	-0.00821295030102345	-0.00312343235130713	-0.000148530463963046	-0.00313229874475907	-0.000142388789780339	-0.00115866443659285	-0.0132403597602219
6.8	-0.00236039354489048	-0.00818591780869323	-0.00311490302992667	0.000290778382065091	-0.00312600982883089	0.000295683845882299	-0.00193524214197089	-0.0133109213937536
6.9	-0.00459058704498537	-0.00762530849589084	-0.00305150212064055	0.000726913404011247	-0.00305450998407272	0.000729269136555211	-0.00285416403189709	-0.0132685766086706
7	-0.00662520234541794	-0.00664128884754431	-0.00292394602149814	0.00115440192843144	-0.00293676249817653	0.00115208516855677	-0.00383706981226431	-0.013121821710295
7.1	-0.00855987036804574	-0.00520939211838305	-0.00275118205484069	0.00155201499998915	-0.00274757628905896	0.00156072654991766	-0.00486467889383154	-0.0125856945086804
7.2	-0.0102263970309367	-0.00325249622006631	-0.0024953275519809	0.00192920171833257	-0.00250188784842479	0.00193125016821282	-0.00548938491945365	-0.0117654965930603
7.3	-0.0114991584907547	-0.000871621927337924	-0.00219663009005061	0.00225565065047669	-0.0022078954232914	0.00226067932960979	-0.00560523541146614	-0.0111747899879187
7.4	-0.0121713272418781	0.00186315248903545	-0.00184935215911418	0.00254307914570939	-0.00185627562902661	0.00255670974171288	-0.00579886477489354	-0.0109973931111911
7.5	-0.0122275936962927	0.00452938446186851	-0.00147735760277875	0.00278270613622989	-0.00147035706798091	0.00279011263886781	-0.00606200879126672	-0.0112475576454437
7.6	-0.0118068185376972	0.00689145136641122	-0.0010659309230273	0.00295783168766926	-0.0010673093328135	0.00295313759133386	-0.00650616727351263	-0.0118665423267191
7.7	-0.0106652046730507	0.00910820599715071	-0.000635360910279671	0.00307306507831324	-0.000636699256615064	0.00307200754446658	-0.00723297493570034	-0.0123096203865997
7.8	-0.00896306661301573	0.0109119286176817	-0.000211403297392239	0.00311521073473883	-0.000219170559994732	0.0031216464732586	-0.00823748223258383	-0.0127101333891331
7.9	-0.00650893314295736	0.0119846100309177	0.000223789567915088	0.00311640491466891	0.00023168046595711	0.00311789607498246	-0.00936776521755132	-0.0125213712331376
8	-0.00437994390939633	0.0127509881865322	0.000656257607616114	0.00304169282901057	0.000656328289531951	0.00304655445991074	-0.0108740763954031	-0.0124586632616611
8.1	-0.00174651578093675	0.0128514687432162	0.00105608213346395	0.00292584235270665	0.00107505871776474	0.00292700342075126	-0.0117838882182147	-0.0114568423593201
8.2	0.000648642379416092	0.0126871612120035	0.00145070343676722	0.00275206207959037	0.00145991966230019	0.00274499523451742	-0.0123677626210165	-0.0104762640246556
8.3	0.00304741162719716	0.0121164520238173	0.00182026574286027	0.00252472664892998	0.00181850442159138	0.00253815237498478	-0.0126859773903124	-0.00975348612614626
8.4	0.00535244701964893	0.0111154773188025	0.00215411114727777	0.00226146561348298	0.00215110299312924	0.00226120593446737	-0.01315227383314	-0.00930951313463829
8.5	0.00743013583913833	0.00956202975136284	0.00244414609588786	0.00194569388588453	0.00244320817862181	0.00194885174591557	-0.0139407585553613	-0.00873854773674116
8.6	0.00906849133754396	0.00762157206741788	0.00270017782126338	0.00159810153739589	0.00270976417585543	0.00159171386762395	-0.0146942308809664	-0.00785393574984096
8.7	0.010255933644185	0.0054009464062526	0.0029004728019983	0.00120362232256687	0.002906031086367	0.00120443361627662	-0.01517014356295	-0.00684283841906061
8.8	0.0110238348737122	0.00299977573827986	0.00305366569527842	0.000795177683031511	0.00305959559017518	0.000786462917262715	-0.0154419980649771	-0.00604634818773411
8.9	0.0114815620622187	0.000331681932391549	0.00314756715131051	0.000357245141289628	0.00314672078043484	0.000354968503357347	-0.0155659819975085	-0.00532667497357847
9	0.0114162564967079	-0.00268027408833995	0.00317102050863603	-9.57917739712235E-05	0.00317416034751656	-9.1611233819841E-05	-0.015637996451554	-0.00460307355307535
9.1	0.0107206104412392	-0.00589069816391562	0.00313377905021397	-0.000551033739280302	0.00313657585309469	-0.000537956527568015	-0.0155089132459139	-0.00386284797033351
9.2	0.00909494683079522	-0.00895816279458425	0.00302719885382976	-0.000984122636173794	0.00303497368272766	-0.000986985475484442	-0.0153016125605295	-0.00324810121840039
9.3	0.00676606534203941	-0.0115764913475763	0.00285562576288738	-0.00140426689297215	0.00285490398616802	-0.001409324828712	-0.015030897916655	-0.00276272439675641
9.4	0.00383172424868704	-0.0135819831384515	0.00262521561634209	-0.0018065233195035	0.00263179990227317	-0.00179882596428719	-0.0149214731618437	-0.00232206934489804
9.5	0.00035364439771225	-0.0149390888682748	0.00233890480744331	-0.00214787172496651	0.0023463954561925	-0.00214924398973428	-0.0150762746868468	-0.00186737581965309
9.6	-0.00349589915150525	-0.015364633399733	0.00200994241131495	-0.00245333733269374	0.00201027821616158	-0.00245234766993336	-0.0152952562375354	-0.00112934111206083
9.7	-0.00745676454594423	-0.0147492136093785	0.00163236469781395	-0.00270057928770777	0.00163790556535766	-0.0027079549852224	-0.0152697747866049	-0.000218015038472534
9.8	-0.0112107884263606	-0.0131810826046399	0.00124069278196403	-0.0029026449886704	0.0012464481596143	-0.00289413668288024	-0.0150727366660613	0.000557186006430439
9.9	-0.0144670399406158	-0.0107727963115265	0.00083350063341206	-0.00303360371346099	0.000826161635291106	-0.00303235113969431	-0.0150074038640569	0.00118364711643573
10	-0.0172107136461535	-0.00774967225291959	0.000406174150816982	-0.00311560299690298	0.000398665019227852	-0.00312803011626841	-0.0150783763917668	0.00195210907510778
10.1	-0.0193137468584163	-0.00420567923507892	-2.95391213112334E-05	-0.00314307295277982	-3.97586904594421E-05	-0.00313769173818182	-0.0149381535493965	0.0028548275525252
10.2	-0.0207024988408837	-0.000217338883022453	-0.000467635778440894	-0.0031069044003903	-0.000471044845279501	-0.0031041397744192	-0.0144259366475869	0.00372024792966388
10.3	-0.0212125434686645	0.00412415667796784	-0.000893193925005535	-0.00300682673279045	-0.000885063299570807	-0.00301584736471537	-0.0137098267698073	0.00422575205450512
10.4	-0.0207116634881713	0.00850708355193501	-0.00128695050459613	-0.00286159502696538	-0.0012852075693923	-0.00286778119131892	-0.0130411637986041	0.00428104339497408
10.5	-0.019345512951111	0.0127259977407164	-0.00167997986124608	-0.00267432918549651	-0.00167698572702691	-0.00266126398346124	-0.0127211388775444	0.00431843176630742
10.6	-0.017206426777678	0.0166412030027257	-0.00204001458382625	-0.00241496590594903	-0.00203777807832213	-0.00241878846491568	-0.0125135861489938	0.00450748566356237
10.7	-0.0143524941510205	0.0203195310134542	-0.00236742590682992	-0.00212035134365679	-0.00236395263854015	-0.00211499078949297	-0.0121911868918695	0.00486143301939867
10.8	-0.0106290221313797	0.0235593553176797	-0.0026520293724288	-0.00176210009533982	-0.00264669244237407	-0.00177108434497282	-0.011857441642777	0.00510050267170414
10.9	-0.00617063077360154	0.0261468163202011	-0.00287594202580971	-0.00138345034263399	-0.00288120852678158	-0.00138274386689734	-0.011781578805898	0.0052832233231595
11	-0.00101217408237988	0.0277042441712782	-0.00304882318575706	-0.000955980902722023	-0.00305371883105763	-0.0009628505471967	-0.0116940476301001	0.00577965142444605
11.1	0.00440126057288869	0.0281594604649042	-0.00316630160503735	-0.000515180954043886	-0.00315525441260238	-0.000512261859429636	-0.0113324440438586	0.00646964426536061
11.2	0.00985152700407207	0.0275120274260239	-0.00319794281627513	-5.88721029011151E-05	-0.00320523615617586	-6.3776183995208E-05	-0.0104771434221412	0.00711823428251896
11.3	0.0151990771272933	0.0256612598231187	-0.00316637864230861	0.000408469132560268	-0.00317818107373111	0.0003983295754086	-0.00905615779353021	0.0072260727231112
11.4	0.0201739627554524	0.022912951725503	-0.0030817058750518	0.000851837799760495	-0.00307664361645148	0.000859476736879979	-0.00795507921559622	0.00696417845807752
11.5	0.024630069568448	0.0191285370804505	-0.00292238657635486	0.00127771507556361	-0.00292507806508684	0.00128816248098147	-0.00721356369581116	0.00649752250606416
11.6	0.0281871342877813	0.0143238274487824	-0.00270968432646502	0.00167162848423996	-0.00270962387767559	0.00167459915322108	-0.0065463673189921	0.00580849779077596
11.7	0.0307021924739949	0.00898141840324572	-0.00243057935754843	0.0020225884999914	-0.0024310172015821	0.00203126337668807	-0.00587456684475291	0.00494048534990646
11.8	0.0322942475317101	0.00336205561997474	-0.00212069118838469	0.00234514504060286	-0.00212479587596881	0.00234691241480701	-0.00538829545089293	0.00389391372886729
11.9	0.0329521702834849	-0.00240740395468275	-0.00176246034228682	0.00260715703529739	-0.0017754263785212	0.0026116523688258	-0.00545439733183112	0.00312782210999552
12	0.0325336062164676	-0.00861143226817357	-0.00138685884397272	0.00281532100755026	-0.0013862464922318	0.00281672228757576	-0.00577794971313188	0.00236974880641782
