# GHZ S RI R 50
0.2	0.00637675667199957	0.00177607830199237	0.00304832615205858	-0.000897047145911875	0.00305869213199622	-0.000890236059515927	-0.0135543943989039	0.00544143171749054
0.3	0.00649957085135722	-0.000622844998900197	0.00290454146397943	-0.00131980533347943	0.0028972894771675	-0.00130687131353167	-0.012954579656124	0.0051765261605146
0.4	0.00595404739213874	-0.00230693834755568	0.00267379496568209	-0.00169109309027591	0.00267906880291959	-0.00169964967129323	-0.0127609520085597	0.00567300822318263
0.5	0.00512742553613467	-0.00348003716410182	0.00241619482374376	-0.00204773419327881	0.00242774657212041	-0.00205996452282564	-0.0124040280040898	0.00651736564334349
0.6	0.0042540160872499	-0.00431779046340071	0.00210502694417032	-0.00236279288622579	0.00210424885748017	-0.00236994653058266	-0.0118108820343111	0.00735092414534612
0.7	0.0032430275909726	-0.00498399009686847	0.00175904834473706	-0.00264181530729757	0.00175709105212956	-0.002642016938255	-0.0111768013402943	0.00802654620506976
0.8	0.00210553584820088	-0.00552298908631444	0.00137425121735073	-0.00286103731545289	0.0013616423410908	-0.00286560918753883	-0.0106014436505406	0.00860003951840284
0.9	0.000655553895026266	-0.0057544211214407	0.000957014825944057	-0.00302674582735034	0.000958064988879887	-0.00303746123595726	-0.0101943837983381	0.00911336386751848
1	-0.000931351908446224	-0.00555403332694117	0.000531104717120314	-0.00313224697477862	0.000521223585705407	-0.00313299863498462	-0.00989748315416431	0.00977816144463497
1.1	-0.00249558297743177	-0.00488699259584697	7.35047972513033E-05	-0.00316264994876152	7.00011917941771E-05	-0.00318034454585202	-0.00962843728628462	0.0107574217549421
1.2	-0.00379666980799347	-0.00409230552759441	-0.000371160006594714	-0.00315286322407704	-0.000371974332085504	-0.00315078159491556	-0.00876506759620093	0.0119030177906638
1.3	-0.00500986393267193	-0.00349710060375175	-0.000801019487735655	-0.0030694337722995	-0.000804268832537748	-0.00307144341366953	-0.0070955383832601	0.0127396524993173
1.4	-0.00606699004466401	-0.00290635047067034	-0.00122485743325705	-0.0029199021854174	-0.00122364571679409	-0.00292545097058282	-0.00526960641436248	0.0126814127266618
1.5	-0.00647621533345653	-0.00183335868004045	-0.00162762276496531	-0.00272189945335799	-0.0016260178991918	-0.00273042276502959	-0.00377213370160641	0.0122426445844631
1.6	-0.00626637740678147	-0.000465196322822744	-0.00198911104941438	-0.00246681909091311	-0.00198933140116526	-0.00247206422185417	-0.00300579977309435	0.0120216179919496
1.7	-0.00564456609274527	0.000800249034889681	-0.00231742287907324	-0.00216720669087806	-0.00231837763680127	-0.00216093243750458	-0.00227687617555273	0.0119838380785262
1.8	-0.00485025545816201	0.00205245007907569	-0.00258729703988978	-0.00181333912965608	-0.00259828884010433	-0.00181895922248489	-0.00166540108660889	0.0119335500920409
1.9	-0.00381878750757731	0.00310809234406962	-0.00281080296450544	-0.00144099896257696	-0.00282323905312685	-0.00143481422562305	-0.00117569618792296	0.0120075465704
2	-0.00254113564282063	0.00395368738822336	-0.00298431419612835	-0.00103264142085364	-0.00299392975417372	-0.00102791219572058	-0.000654206502155555	0.0122926760901303
2.1	-0.00103398093638863	0.00437237301304854	-0.00309575071197289	-0.000604485586248211	-0.00309167094531915	-0.000606484379888703	0.000168340763600723	0.0125240032706699
2.2	0.000484116562009646	0.00435719745544644	-0.00315162517676957	-0.000167200598738735	-0.00316293006216793	-0.000170020294302456	0.00124822079419815	0.0125122226383498
2.3	0.00182886681685063	0.00383645923236594	-0.0031462592974688	0.000274831709617352	-0.00314596372518682	0.000267950610320236	0.00221504032834875	0.0121078214187369
2.4	0.00287057156808417	0.00311301203487137	-0.0030739600973972	0.0007118621709233	-0.00307650329459678	0.000707607221236533	0.00293549114840674	0.0116543751499057
2.5	0.00369724376243842	0.0022489921305007	-0.00293772043400528	0.00112334570783395	-0.00294860838791102	0.00112972937238097	0.00354900274212192	0.0112431478564722
2.6	0.00447082568792179	0.00126735794460869	-0.00276493201055555	0.00152638797409134	-0.00276137466062005	0.00151405941364752	0.00423687259121957	0.0108901279010758
2.7	0.00519398946352581	5.88508576482497E-05	-0.00252000537452769	0.00189863055836905	-0.00252529028735351	0.001898641870248	0.00490493803129879	0.0104453668781382
2.8	0.00577757238933808	-0.001414236566278	-0.00223747367073242	0.00222773565381036	-0.00222964686219216	0.00223753775646292	0.00547223676832307	0.0100462126480359
2.9	0.00615583882883169	-0.00309775389954738	-0.00190251954136304	0.00252991383622555	-0.00189880375626373	0.00252948418191506	0.00618755378858214	0.00981150702799014
3	0.00619812029043281	-0.00496631029034446	-0.0015144441924162	0.00276716104742765	-0.00152925180759374	0.00277328876197514	0.0071241634739005	0.0096018576586951
3.1	0.00588957102074722	-0.00695615079817197	-0.00112143661932521	0.00294545791526597	-0.00111675501027392	0.0029538136256388	0.00812860564259544	0.00917766283341408
3.2	0.00495487032525235	-0.00899223157116345	-0.000697448436062139	0.00308269949234861	-0.000699198676236896	0.00308209128745148	0.00892710857430051	0.00863110028687205
3.3	0.00343508708901074	-0.0109252967508402	-0.00025537214566107	0.00315113510696799	-0.000253730715757743	0.00314738121755146	0.00971268018133924	0.00789012974606455
3.4	0.00133145213298899	-0.0123887736641932	0.000194598253032611	0.00314219197632067	0.000188441716919394	0.00315881224653287	0.0103575453676511	0.00694370291458096
3.5	-0.00105920243594967	-0.0133897200240661	0.000618488188447144	0.00309537197827839	0.000624092283544011	0.00309542377906845	0.0107044766659356	0.0058384812561091
3.6	-0.0036491351191931	-0.0138439014188626	0.00104757018164456	0.00297137980392552	0.00105576647588648	0.00297102368425862	0.0109117486646632	0.00494590377705153
3.7	-0.00631620741166328	-0.0137927440807764	0.00145699974189887	0.00278551397019207	0.00144748169951845	0.00279923560894935	0.0111914855872887	0.00403759324702821
3.8	-0.00903537413059313	-0.0131575383216239	0.00183234815668147	0.00255412724234227	0.00183479514225832	0.00256325656312668	0.0113147426594842	0.0030431512723791
3.9	-0.0115168438613689	-0.0118995400415003	0.00217408972644879	0.00227798061625654	0.00216682890626892	0.00227623856194784	0.0112145755089227	0.00212692114263289
4	-0.0136194548087805	-0.0101543780651721	0.00245402413318017	0.00195550573795542	0.00245845142455222	0.00195305858241346	0.0111102846604891	0.0014925616348342
4.1	-0.0152694402423302	-0.00811906580742874	0.00270119695092005	0.00159598684168832	0.00269995090371869	0.00159672490019081	0.0112668556926179	0.000984057374626709
4.2	-0.0165886087590975	-0.00587321670733921	0.00289629920815509	0.00119679502739209	0.00290072451138328	0.00118809645909973	0.0115453939386275	0.000321962461239387
4.3	-0.0175877782182167	-0.00347723744148314	0.00303643506147756	0.000787839567499656	0.00304281811742433	0.000780051363939053	0.0117346184159522	-0.000605870594830839
4.4	-0.0182919260575431	-0.000799757999164093	0.00311140118648421	0.000357412970547444	0.0031137641912067	0.000355161222358412	0.0116274368634464	-0.00152078194964141
4.5	-0.0184805670982324	0.00209919328155983	0.00313429114306476	-7.70928035110279E-05	0.00313963192941867	-8.04588540167385E-05	0.011473868891989	-0.00228005242246622
4.6	-0.0181368880326852	0.00497709185070742	0.00309160282409342	-0.000517169322654472	0.0030928306967286	-0.000504292212147904	0.0113310930139014	-0.00305390557557729
4.7	-0.0171992684929537	0.00775407638912012	0.00298843540709857	-0.000934439604552866	0.00300368790865375	-0.000944033796232167	0.0111187851429186	-0.00389635435345442
4.8	-0.0158466376469579	0.010324717593082	0.00282945167932243	-0.00134822829089043	0.00283791696870987	-0.00135430624171536	0.0107980505988355	-0.00471632300350878
4.9	-0.0138577073502334	0.0126454767000354	0.00261020775342547	-0.00173313791295502	0.00261436957792816	-0.00173023647477639	0.010418862583753	-0.00537921562481369
5	-0.011345991095013	0.0144564985641869	0.00235095318784233	-0.00208963357289069	0.00235457369853332	-0.0020869728350502	0.0103091870233231	-0.00587476415479225
5.1	-0.00831688130291335	0.015643177365462	0.00203944548983216	-0.00240156101623048	0.00204174645548961	-0.0024002062117941	0.0104112213377791	-0.00654465841662404
5.2	-0.00526820533403077	0.0160658870391799	0.00168013296508722	-0.0026521087950163	0.00168183696929535	-0.00265725206336449	0.0104452851406401	-0.00741017818124583
5.3	-0.00232593531366543	0.0159394766961381	0.00129109532056949	-0.00286702482926012	0.00129423043547163	-0.00286497074886298	0.0102704685552623	-0.00828881324801134
5.4	0.000460469641914828	0.0153964942625984	0.000864023099302239	-0.00301257610838074	0.000881136421892983	-0.00302382144030536	0.00994817735428895	-0.00923350987316652
5.5	0.00306725705206195	0.0144448225754108	0.000448891268770104	-0.00310723515672314	0.000458894661989909	-0.00311668015957354	0.0093854233512265	-0.0101514968470362
5.6	0.00541824078688198	0.0129900800718889	1.02026717819136E-05	-0.00313917202915943	1.68750780229206E-06	-0.00314235145180712	0.0085972156023362	-0.0108528807952772
5.7	0.0072662122950428	0.0111126670646698	-0.000419292477129706	-0.00310422889438047	-0.000435860156157433	-0.00310781572290975	0.00773995373918117	-0.0113542878150512
5.8	0.00855009790857987	0.00899355439668095	-0.00086170294455012	-0.00300530263791795	-0.000865270677098939	-0.0030192173246383	0.0068360849221035	-0.0119540195903524
5.9	0.00927682914296834	0.00690107663753913	-0.00126165564927352	-0.00286263893700084	-0.00126984207426083	-0.00286253371952792	0.00564009517241501	-0.0124485543792187
6	0.00960020520156877	0.0048053903932356	-0.00165385729606672	-0.0026555757161922	-0.0016503180359177	-0.00265574906716805	0.00422708414295481	-0.0125527131383641
6.1	0.00960616465696802	0.0026651166153445	-0.00200282152783782	-0.00240245275598501	-0.00200444514981049	-0.00239847274645848	0.00314063177407605	-0.0122301628699029
6.2	0.00918365219082576	0.000395519172889267	-0.00231021341084761	-0.0020928511876553	-0.00231389960950718	-0.00210464010769284	0.00249570353045419	-0.0120002745431333
6.3	0.00832039608141613	-0.00184968943038385	-0.00258404835925992	-0.00176353752244162	-0.00259311952042232	-0.00175784576953352	0.0020258445123217	-0.0121211586869003
6.4	0.00697080389214809	-0.00389724740013649	-0.0028085077036879	-0.00137917281474289	-0.00279883676810325	-0.00138402502234684	0.00150912508443458	-0.012348837870462
6.5	0.0053672842919515	-0.00566824495248622	-0.00296563565067466	-0.000980442335904174	-0.00297346318577453	-0.000976009696804127	0.00108817548586671	-0.0126132548090993
6.6	0.00343997334819476	-0.00708786552234791	-0.00307643584791492	-0.000560925947431467	-0.00307804654878145	-0.00056488835162336	0.0007404392036694	-0.0129997918500445
6.7	0.00116235045075712	-0.00798092481362335	-0.00313125289188726	-0.000127085592290836	-0.00314009574497009	-0.000120868785010228	4.24483125888163E-05	-0.0134590934389973
6.8	-0.00132836927176207	-0.00813886305561266	-0.00311477782772732	0.000312445549933042	-0.00312585748825842	0.000317430608445639	-0.000982962255633061	-0.0136763901437502
6.9	-0.00373431445947028	-0.00754168469543891	-0.00304431826794237	0.000745837797473071	-0.00304730856048145	0.000748210823531143	-0.00207763852846622	-0.0135353250706126
7	-0.00575639355906355	-0.00638593651653752	-0.00291166329347191	0.00116825611105581	-0.00292446675537167	0.0011660149484275	-0.00301244434829358	-0.0132073552654552
7.1	-0.00748190530882502	-0.00492317674598605	-0.00273647515943538	0.00155967226627064	-0.00273284139911857	0.00156834300390347	-0.00383007500007178	-0.0126908965706295
7.2	-0.0089705127980736	-0.0031965861377957	-0.00248106109804215	0.00193054923972096	-0.00248759327408549	0.00193261126142105	-0.00436039304221909	-0.0121443798507498
7.3	-0.0103258573765343	-0.00116741095340562	-0.0021852837001349	0.00225198539556268	-0.0021965024158776	0.00225701717272461	-0.004696328184835	-0.0118592849784382
7.4	-0.0113755199602081	0.0013135394334126	-0.00184255562548729	0.00253650672069612	-0.00184945151883363	0.00255010053875222	-0.00529777290084311	-0.0118126003909075
7.5	-0.0118449968192931	0.00408055601363832	-0.0014755829915959	0.00277583085958989	-0.00146860169323088	0.00278322481117803	-0.00591863620179199	-0.0117980407101433
7.6	-0.0115394425112847	0.00676535958784966	-0.00106844983037383	0.00295321758433794	-0.00106982083785632	0.00294852696913968	-0.00642528182246581	-0.011934398138031
7.7	-0.0105390202827551	0.00921973705746251	-0.000640274719136062	0.0030725957548063	-0.000641611640075147	0.00307153594775927	-0.00712743855957046	-0.0122419118114637
7.8	-0.008868748611276	0.0112563460189671	-0.000216119450243937	0.00311963437651391	-0.000223907567367997	0.00312606891014521	-0.00808843160813374	-0.0124256135830948
7.9	-0.00648770049234707	0.0127499840121045	0.000221978405420976	0.0031252248041575	0.00022989003000837	0.00312672625901039	-0.00908400117202723	-0.0121000485771226
8	-0.00381621294746834	0.0136748730730279	0.000659640968514639	0.00305298736317244	0.000659713362984115	0.00305786733734165	-0.0100576451509201	-0.0117135032636389
8.1	-0.000864064626609882	0.0138162981873657	0.00106571280323721	0.00293688620679061	0.00108477468882225	0.00293801998375871	-0.0106741928312872	-0.0109987687394071
8.2	0.00180534692830858	0.0133812485327232	0.00146635559631831	0.00275965044979914	0.00147558991617885	0.00275252124052111	-0.0111500099921237	-0.0103663189967463
8.3	0.00421421945547948	0.0125421710962362	0.0018401365687264	0.00252603358245407	0.00183843430110633	0.00253952269706464	-0.0116150552293362	-0.00985635088644878
8.4	0.00642126419694433	0.0114561190637242	0.00217527427040839	0.00225478098913815	0.0021722550620069	0.00225453969895102	-0.0122255121192386	-0.00937715776457744
8.5	0.00850983886849497	0.00994497654528355	0.00246298268554847	0.00193074528897491	0.00246206681967762	0.00193391566814379	-0.0129506789752212	-0.00869404828352037
8.6	0.0103022433656531	0.00796037025901768	0.00271335272210409	0.0015761474149728	0.00272288742974229	0.00156968120228484	-0.0134998767959205	-0.0078731511222373
8.7	0.0115929939823542	0.00549999655323692	0.00290531865151319	0.00117741641426233	0.00291087381277111	0.00117818014006009	-0.0138810648202988	-0.00712570121321686
8.8	0.012243896479588	0.00280672980535722	0.00304908235301811	0.000768172017967798	0.0030549221372983	0.000759441355225256	-0.0143278526737668	-0.00659876716352613
8.9	0.0124061337724777	2.84870944830022E-05	0.00313381986219795	0.000333189929267556	0.0031329618020742	0.000330931029851206	-0.0147531709925092	-0.00590993641116225
9	0.0121055096787903	-0.00286454477125271	0.00314995461999249	-0.000113567244711627	0.00315309840163007	-0.00010943195851537	-0.0149953753364999	-0.00501433830722166
9.1	0.0113054782911551	-0.0059130051489695	0.00310833204557909	-0.000560322321530988	0.00311116394356899	-0.000547353418557394	-0.0149028777136631	-0.0041331994733028
9.2	0.00965501324223112	-0.00888736790822453	0.00300102168333819	-0.000984174716375462	0.00300872842308782	-0.000987035068921038	-0.0146988249703836	-0.00346148533530629
9.3	0.00724766791924034	-0.0113949676829673	0.00283224479466826	-0.001395703201596	0.00283152444917831	-0.00140072118532421	-0.0144886839590938	-0.00287273800088434
9.4	0.00429961933591618	-0.0132156438438635	0.0026075603998696	-0.00179129885038924	0.00261409068394422	-0.00178365223846863	-0.0143603853567032	-0.00227837549020556
9.5	0.00100026414830954	-0.0143342204346255	0.00232878466163467	-0.00212915057211037	0.00233623085794222	-0.00213049776406842	-0.0142681332893353	-0.00167049974242916
9.6	-0.00257971253050588	-0.0147578636406574	0.00200767606363547	-0.00243447465033895	0.0020080069880474	-0.00243348890888195	-0.0142403408074631	-0.00104191685477615
9.7	-0.00637989116549159	-0.0143494435282297	0.0016368179699216	-0.00268482774861165	0.00164236716515	-0.00269215632320374	-0.0141613844848983	-0.000398687681634178
9.8	-0.010204786266572	-0.0130147747861859	0.00124943268604463	-0.0028922119983124	0.00125514412197827	-0.00288369816217092	-0.014147131262623	0.000192628561022899
9.9	-0.0136762017532027	-0.0106445505522732	0.000843355531862303	-0.00302942614823266	0.000836015615829108	-0.00302819888832366	-0.0143132181966912	0.000889459290605659
10	-0.0165387226167721	-0.00751684977816068	0.000413987631088836	-0.00311705302928569	0.0004065025521725	-0.00312950789971205	-0.0144231687262359	0.00181367575910449
10.1	-0.0186194052137986	-0.00388551545721719	-2.62388912300518E-05	-0.00314806542060013	-3.64803210209121E-05	-0.00314268659435655	-0.0142034568382521	0.00275253419789039
10.2	-0.0199915240695869	6.98276656972011E-05	-0.000469995324640491	-0.00311237675286015	-0.00047340930765576	-0.00310960540825361	-0.0137127148064009	0.00352933995682891
10.3	-0.0206145687548809	0.00438666080611964	-0.000900662552789732	-0.003009528883813	-0.000892538076815781	-0.00301857964459699	-0.0131703598941783	0.00404740104555651
10.4	-0.0202476590202389	0.00891291063280604	-0.00129745584529758	-0.00285900214521016	-0.00129573281652736	-0.00286519805548413	-0.0126051809750473	0.00432809195895102
10.5	-0.0188327142946293	0.0133768010792911	-0.00169046896761611	-0.00266506755037278	-0.00168741985409379	-0.00265202480151449	-0.0121378479793158	0.00462019741109901
10.6	-0.0164620503170182	0.0174166769238864	-0.00204694681214554	-0.00239939827520399	-0.00204473410602835	-0.00240322271715198	-0.0116480258724998	0.004860759547234
10.7	-0.0133953916872086	0.0210200098190862	-0.00236786973761895	-0.00210037044173038	-0.00236438507235193	-0.00209504840439103	-0.0111481841001641	0.00509294896497156
10.8	-0.00961226469861758	0.0241331979834655	-0.00264404076014288	-0.00174094280437114	-0.00263877185667606	-0.00174989736885596	-0.0107797995113083	0.00523952732062304
10.9	-0.00514502781465624	0.0266542305414474	-0.00285935143900757	-0.0013647746899114	-0.00286457777474149	-0.00136405741167755	-0.0105944813278616	0.00545467265295652
11	8.50911441855934E-05	0.0282286433733204	-0.00302490208113664	-0.000943513242368271	-0.00302976722814787	-0.000950318530647492	-0.0103021538067658	0.00590865632457588
11.1	0.00565852864469984	0.0285941858562166	-0.0031378114871062	-0.000511639309659585	-0.00312686407396103	-0.000508742602746955	-0.0097162542906132	0.00634793732912872
11.2	0.0111834748014611	0.0276946168072022	-0.00316883480756989	-6.56868157269647E-05	-0.00317605080289266	-7.05632250870489E-05	-0.00884532744832462	0.0065794803742287
11.3	0.0164123349288295	0.0256658293912545	-0.00314074940649691	0.000391484953157256	-0.0031524067542585	0.000381382876267262	-0.00778684588629536	0.00645513405828476
11.4	0.0211286370807842	0.0228157763583744	-0.00306309948636674	0.00082661359176385	-0.00305812250669129	0.000834224270064092	-0.00701328228151301	0.00610063949766941
11.5	0.0253525124735532	0.0190563150572841	-0.00291360842678912	0.00124751435486342	-0.00291636204009889	0.00125787540233904	-0.0065035240992024	0.00560484831723091
11.6	0.0288345295178995	0.0143475060361892	-0.00271186586667043	0.00164054976093103	-0.00271183144075027	0.00164350746114766	-0.00601448812841009	0.00497315550326848
11.7	0.0312653473371065	0.00902336567690022	-0.00244312370628412	0.0019950346753759	-0.00244364056353269	0.00200368360977523	-0.00559376173284678	0.0041473224428328
11.8	0.0326680793954267	0.0034683173103357	-0.00214139451773934	0.0023245967904495	-0.00214551373408866	0.00232632558021662	-0.00543847872725394	0.00330372123907904
11.9	0.0331571084032967	-0.00213186752488506	-0.0017875669697261	0.00259605611832922	-0.0018005916396231	0.00260044708673748	-0.00564425087845327	0.00289791557528811
12	0.0328007550615955	-0.0079329195209543	-0.00141220765097963	0.00281418907776283	-0.00141160368819124	0.00281559944042457	-0.00577389862237728	0.00272098815028695
