# GHZ S RI R 50
0.2	0.00566133970666929	0.00153253492136765	0.00304839807252483	-0.000897787926227148	0.00305876643950312	-0.000890978495746262	-0.0143287758462812	0.00514272205650634
0.3	0.00616423408588655	-0.00053468003346312	0.0029042460500128	-0.00132117403990524	0.00289699893475652	-0.00130823570448888	-0.013347606054366	0.00524537672889933
0.4	0.00594839509536021	-0.00239506171995375	0.00267268555559965	-0.00169291781176144	0.00267795368094303	-0.00170147805419156	-0.0127546858317779	0.0055877107928364
0.5	0.00509807544047335	-0.00394272216942591	0.00241391708722146	-0.00204959033750927	0.00242545572024092	-0.00206182912705422	-0.0123177890569728	0.00600371935954064
0.6	0.00387473413375321	-0.00498621121312724	0.00210149170218104	-0.00236405749530792	0.00210070609271856	-0.00237120710214758	-0.0120174078159498	0.00649297389546599
0.7	0.00246938897920834	-0.00550344722716575	0.0017544635773565	-0.00264183763169236	0.00175250759708941	-0.00264203674136186	-0.0118295535229146	0.00716192504393536
0.8	0.00120050082426837	-0.00564984067370964	0.00136916561995259	-0.00285928141877892	0.00135656627071391	-0.00286383264839154	-0.0115279329645863	0.00805881301787628
0.9	-2.26487519528689E-05	-0.00555934447906216	0.00095222000666458	-0.00302293467010644	0.000953256935622057	-0.00303363406552348	-0.0110201388786475	0.00896687061892087
1	-0.00122606295409706	-0.00537938886441003	0.000527469598892937	-0.0031265024805973	0.000517607352220111	-0.00312724449687178	-0.0103240011915832	0.00976709051390963
1.1	-0.00260258917910748	-0.0050670901852091	7.18754745986412E-05	-0.00315548903778248	6.83716594249648E-05	-0.00317314176070544	-0.0096802549634877	0.0104737535019397
1.2	-0.00409368000568617	-0.00463428752308812	-0.000370289666835887	-0.00314506990461221	-0.000371101950198415	-0.00314299340526032	-0.0087908637968766	0.0111415579653572
1.3	-0.00564153132446254	-0.00410519882152356	-0.000797496519790051	-0.00306203370944402	-0.000800736643322775	-0.00306403982881555	-0.00738563168244144	0.0116945338552901
1.4	-0.00689415545946178	-0.00341301028181147	-0.00121893253760475	-0.00291393658703973	-0.00121771827287551	-0.002919470507888	-0.00577736600467344	0.0115798835745347
1.5	-0.0074784951751038	-0.00220998000178704	-0.0016199762718886	-0.00271818431282061	-0.00161836249231094	-0.00272668615229209	-0.00449901746766279	0.0111049110587432
1.6	-0.00740259861386989	-0.000551802612989663	-0.00198074294431936	-0.00246583464386251	-0.00198095311806589	-0.00247107022210924	-0.00402816610396898	0.0110166404687233
1.7	-0.00666062898211078	0.00106091005044242	-0.00230940319208373	-0.00216899727266465	-0.00231036997346241	-0.00216273422549339	-0.00345142259195814	0.0113184229808295
1.8	-0.00555887318975236	0.00245216781008254	-0.00258067846584129	-0.00181747457735434	-0.00259164688649234	-0.00182311424821945	-0.00270340114687305	0.0115913337887105
1.9	-0.00427959368025833	0.00338249119833298	-0.00280626845510715	-0.00144666864747861	-0.00281871276983726	-0.00144051475565988	-0.00192419074009477	0.011750980313196
2	-0.0029950756627212	0.00402096377967386	-0.00298217757958018	-0.00103884048668407	-0.00299180298133077	-0.00103413121481608	-0.00121606664564955	0.0118806034391845
2.1	-0.00165280224460606	0.00439471531493851	-0.00309582351515415	-0.000610185230652128	-0.00309173870721832	-0.000612177544278297	-0.000446247465977951	0.0119252547011106
2.2	-0.000222837954656341	0.00455718349016704	-0.00315329559383236	-0.000171608083689121	-0.00316460343738954	-0.000174444926434648	0.000448289774602213	0.0119209587814492
2.3	0.00128960534413776	0.00423747067599609	-0.00314863996977298	0.000272125958785928	-0.00314833787330712	0.000265240476871222	0.00135275777540038	0.0117419347977402
2.4	0.00264913406064862	0.0034681603089574	-0.00307609257763403	0.000710788091379759	-0.00307863519415597	0.000706529435774717	0.00228659912209486	0.0115129258302053
2.5	0.00364829745051631	0.00229191054595112	-0.00293882953466858	0.0011233737712216	-0.00294972186031214	0.0011297582781674	0.00325710073680988	0.0110704965139279
2.6	0.00429407307381943	0.000996992896990285	-0.00276461959805918	0.0015266933763657	-0.00276106402297109	0.00151436483620105	0.00415890490901061	0.010444087647428
2.7	0.00477278534224349	-0.000303939424946868	-0.00251832321847453	0.0018982769277177	-0.00252360552180426	0.00189828945641304	0.00480730404126913	0.00973315355214622
2.8	0.00520820527340809	-0.00174930985066378	-0.00223493792392379	0.00222590816748812	-0.00222711723215868	0.00223569946373161	0.00530016943925376	0.00920287285371825
2.9	0.00546664099203976	-0.00345322049145342	-0.00190004009435027	0.00252610189383178	-0.00189632959280652	0.00252567321851019	0.00599527700578507	0.00884000749844537
3	0.00527542132799113	-0.00530185145609447	-0.00151314100984831	0.00276140535384451	-0.00152792513444177	0.00276751444010882	0.00684693848611825	0.00841977361715801
3.1	0.00472005457811727	-0.00707462876925108	-0.00112229368383415	0.00293830451960246	-0.00111763042365287	0.00294664828540785	0.00760028531187711	0.00783326375762427
3.2	0.00374510156438744	-0.00875690700765094	-0.00070120530114537	0.00307509763456026	-0.00070295086660121	0.0030744877388302	0.00809604983448518	0.00732641995761901
3.3	0.00241841460895543	-0.0104349613696871	-0.00026227481255617	0.00314442342072578	-0.000260627753370413	0.00314068066621915	0.00871968267540016	0.00679326310418098
3.4	0.000536982543065729	-0.0118739323538036	0.000184957720510031	0.00313776821628495	0.000178761630037423	0.00315434374907059	0.00940024144588414	0.00601896073416827
3.5	-0.00179812425235009	-0.0129384345292027	0.000607039793966863	0.00309425887068715	0.000612637788041069	0.00309433016083804	0.00981681481668381	0.00492866040320341
3.6	-0.00443108601581333	-0.0133404599459555	0.00103572263310235	0.00297431608718431	0.00104391725685487	0.00297399170710543	0.00997037337438287	0.00398725228147721
3.7	-0.0070098225872247	-0.0131077904449828	0.00144638833806626	0.00279252477327035	0.00143681115056636	0.00280621375216341	0.0101095328430146	0.00316978027127657
3.8	-0.00944023989795799	-0.012415433145691	0.00182446500211804	0.0025645507806404	0.00182687875436718	0.00257370106935556	0.010226319842257	0.00241747880153343
3.9	-0.011672024595232	-0.0113787809139623	0.00217007722224556	0.00229059816355029	0.00216280816842117	0.00228882581258038	0.0103472106934596	0.00167691058659959
4	-0.0138053355614434	-0.00994887134059172	0.00245441114059108	0.00196862916135645	0.00245885821425168	0.00196618953213445	0.0105140693099972	0.000979311899776442
4.1	-0.0156733992581104	-0.00802942284644202	0.0027058532504718	0.00160796480083099	0.00270460132257041	0.00160870208080339	0.0107672626683909	0.000272503294178439
4.2	-0.0171064728460849	-0.00569093358422904	0.00290440740870023	0.00120611708247795	0.00290886364006501	0.00119739562585266	0.0109876027798489	-0.000491433099398916
4.3	-0.0180223916340035	-0.00325560682583733	0.00304662691677072	0.000793540956595563	0.00305304030614109	0.000785730726600909	0.0111749109977764	-0.00137065500897871
4.4	-0.0186655866847749	-0.000740782436635226	0.00312202948093637	0.000359138802492936	0.0031244009616422	0.000356879699570295	0.0112246766710012	-0.00226977769287655
4.5	-0.0190228998570257	0.00195075782865535	0.00314381102836305	-7.89420145572222E-05	0.00314916637069214	-8.23210818822109E-05	0.0112535351767367	-0.00320040132436812
4.6	-0.019001050515759	0.004838883596992	0.00309879700854824	-0.000521602882203056	0.00310004103497722	-0.000508694865174423	0.0111106963057642	-0.00426533781296915
4.7	-0.0182495899801779	0.00785492400504167	0.00299269628050202	-0.000940060898413093	0.00300796422089424	-0.000949692632079848	0.0107183664851946	-0.00529220504928729
4.8	-0.0168424932407036	0.0106348141810992	0.00283084356087772	-0.0013536109979969	0.00283931023572612	-0.00135970738281231	0.0102231053957215	-0.0061046297692603
4.9	-0.0147709145098078	0.0129752827440603	0.00260944221581625	-0.00173705966660111	0.00261360949230876	-0.00173416171235537	0.00982282168123677	-0.00672434592273433
5	-0.0123480975397016	0.0147890166360947	0.00234919690821506	-0.00209138863965223	0.00235281934667568	-0.00208873087886995	0.00971563513740543	-0.00729982743490528
5.1	-0.00941513933099183	0.016190999215939	0.00203804725665902	-0.00240107205807093	0.00204034761133937	-0.00239971835029065	0.00966525684327938	-0.00806244535711202
5.2	-0.00619086322231682	0.0168923046307718	0.00168030039611203	-0.002649975266269	0.00168200557293853	-0.00265511503233443	0.00948616817224093	-0.00882142159758065
5.3	-0.00289599599860657	0.0167644165804235	0.00129361316101679	-0.00286435703069219	0.00129674466596442	-0.00286230048272379	0.00929381512434438	-0.00944489115488604
5.4	4.04115965921566E-05	0.0159307812559579	0.00086902789494081	-0.00301079231760897	0.00088615841537703	-0.00302200749309483	0.00918769711210389	-0.0102610314758318
5.5	0.00244904306089468	0.0147606836234528	0.000455854803492535	-0.00310762428586701	0.000465883163096946	-0.00311705166007905	0.00882721420407673	-0.0113168539060211
5.6	0.00453008583718443	0.0134395857218998	1.79852816262769E-05	-0.00314275356913847	9.46820448053981E-06	-0.00314595772379451	0.00799826046023758	-0.01225479483418
5.7	0.00640791979475191	0.0119213826933634	-0.000412250154527116	-0.0031113827963858	-0.000428841257194649	-0.00311501864070617	0.00690024721556408	-0.0128044421482935
5.8	0.00808365838279377	0.00997774696870635	-0.000857092692696411	-0.00301571159022348	-0.000860637900688144	-0.00302967348549979	0.00583974214117808	-0.0131922687955496
5.9	0.0092213122899861	0.00763221412162349	-0.00126079085087547	-0.00287520835981481	-0.00126900665932313	-0.00287511810359451	0.00476781719420831	-0.0134086396757067
6	0.00959554718470527	0.00504470444136906	-0.00165766818063905	-0.00266865477633584	-0.00165411387782453	-0.00266882469154626	0.00368057261403305	-0.0134460280738022
6.1	0.00929244493457363	0.00258717133620588	-0.00201133321421811	-0.00241411357226075	-0.00201296549696942	-0.00241011571247015	0.00283929711169149	-0.0133179316217772
6.2	0.00856534262518694	0.000313185901738864	-0.00232264463908264	-0.00210120881135002	-0.00232635650685595	-0.00211305124890097	0.0022211233384978	-0.0133144415078324
6.3	0.00757262513969045	-0.00190742175621786	-0.00259896371253767	-0.00176727979673009	-0.00260806703893732	-0.00176154637568628	0.00172027190144322	-0.0135295387847314
6.4	0.00599633204353712	-0.00405848811786431	-0.00282390326402124	-0.00137754181492051	-0.00281420463142694	-0.0013824398384941	0.00129935581691291	-0.0138940153625508
6.5	0.00395117589045772	-0.00567593202649289	-0.00297940335514717	-0.000973752526143669	-0.0029872432394503	-0.000969277568978182	0.000857739930462043	-0.0144783623693659
6.6	0.00181940461208658	-0.00652375303747542	-0.00308682262880323	-0.000550196865914715	-0.00308845333648842	-0.000554163382867788	0.000183429992540308	-0.0151061316724196
6.7	-0.000132333505957026	-0.00688403655654176	-0.00313706779897994	-0.000113975870094535	-0.00314589909336151	-0.000107710964260389	-0.000912708519366347	-0.0154561833561873
6.8	-0.00209477688996604	-0.0069922009758196	-0.00311561488795893	0.000325901164095814	-0.00312668106210775	0.00033093677846681	-0.00206283185646691	-0.015341021706631
6.9	-0.00429163435169665	-0.00672450611163962	-0.00304068067173196	0.000757728681263494	-0.00304366089351231	0.000760113018973728	-0.00296537018130784	-0.0150207138085722
7	-0.00653242712239171	-0.00575602653983148	-0.00290476846431368	0.00117707649657289	-0.00291756689773271	0.00117488144446732	-0.00371099586131628	-0.0147958929492489
7.1	-0.00851708259704598	-0.00402828433448436	-0.00272803418561483	0.00156468122148524	-0.0027243825382596	0.00157332875658377	-0.00460889074988914	-0.0145203502335004
7.2	-0.00982486441393206	-0.001779137879751	-0.00247290440051043	0.00193170133725777	-0.00247942078835883	0.00193377189807618	-0.00548512619306485	-0.0140154675280556
7.3	-0.0104869586054442	0.000492603868046989	-0.0021789665710519	0.00225015821299891	-0.00219015964167472	0.00225519249203709	-0.00613092505028846	-0.0133959266537714
7.4	-0.0108228017222872	0.00255068834123047	-0.00183902090047241	0.00253308634142394	-0.00184590245356134	0.00254666102147433	-0.00664780252325402	-0.0128947708857449
7.5	-0.0110532367721087	0.00453421654967761	-0.00147502044075818	0.00277244077609496	-0.00146804895079728	0.00277982949669307	-0.00686762872423887	-0.0125545433924243
7.6	-0.0109547222654367	0.00665427357362819	-0.00107031385370822	0.00295139581373888	-0.0010716808465256	0.00294670577423951	-0.00695984413787793	-0.012566073851135
7.7	-0.0103424750016399	0.00882054882846396	-0.000643336465944753	0.00307340200884474	-0.000644673032572769	0.0030723405176686	-0.00741840071806822	-0.0130999591222947
7.8	-0.00899002692139929	0.0105903488703483	-0.000218764516527533	0.00312343429178877	-0.000226567419304484	0.00312987108403817	-0.00813907889114249	-0.0133936688921681
7.9	-0.00730435959383704	0.0119244115380541	0.000221389183246713	0.00313159604269426	0.000229316252504002	0.00313310314713178	-0.00884492424896493	-0.0134558436565104
8	-0.00530722001815434	0.0131004790095991	0.000662413374685314	0.00306067396944761	0.000662487654436302	0.00306556657168851	-0.00969493422136125	-0.0134918015618227
8.1	-0.00280298311841434	0.0140334281796669	0.00107242051611782	0.00294419880916225	0.00109153968467905	0.00294531265904042	-0.0106659597115245	-0.0133275967674878
8.2	0.000100199608714142	0.014328441691293	0.00147679872317257	0.00276465548685835	0.00148604490240755	0.00275748470453933	-0.0116285951806558	-0.0128133487961159
8.3	0.00302838956298187	0.0137183833956362	0.0018531924780448	0.00252700750749569	0.00185152866743575	0.00254053863587839	-0.0123862862001727	-0.0121069736347013
8.4	0.0054888019170987	0.012437629838642	0.00218912417241941	0.00225066838886516	0.0021860975619884	0.00225043894312275	-0.0129751057440792	-0.0114446218441809
8.5	0.00739744638876657	0.0108144209068517	0.00247536208434557	0.00192137565217121	0.00247446026614704	0.00192455443832202	-0.0135891695165573	-0.0108345696659049
8.6	0.00896232926772083	0.00916379638017297	0.00272217438891011	0.00156230274696748	0.00273167734446231	0.00155578530553232	-0.0142468289556047	-0.0102471501577475
8.7	0.0104843260870606	0.00725023347260103	0.0029088957080298	0.00116080617971945	0.00291444976635126	0.00116153953293774	-0.0149774868949718	-0.00957315842478045
8.8	0.0118170362184691	0.0047781373101636	0.00304669583004086	0.000750958478661415	0.00305247877789889	0.00074221600014307	-0.0157538943296672	-0.00875904509643408
8.9	0.0125729710278427	0.00163382372312987	0.00312560205071426	0.000317742422206279	0.00312473627264659	0.000315494496505093	-0.0161634133756355	-0.00763735783575466
9	0.0123520665580832	-0.00180031573144533	0.00313704398896522	-0.000125122776304773	0.00314019107805604	-0.000121015852931883	-0.0161231147591664	-0.00652007009012748
9.1	0.0113571628795918	-0.00507652530005344	0.00309260108444987	-0.000566563353675786	0.00309545677340032	-0.000553661482366675	-0.0158234055338344	-0.00565039231952256
9.2	0.0096844094290065	-0.00812034073198374	0.00298478801871979	-0.000984623016838857	0.00299245249157945	-0.000987482909175694	-0.0155331148825331	-0.00498696329513931
9.3	0.00730863876588846	-0.0109158913990391	0.00281774708524688	-0.00139078436333762	0.00281702703007743	-0.00139577776891766	-0.015153185375195	-0.00432772236207965
9.4	0.00405553788881583	-0.0131649202745965	0.00259661732297291	-0.00178225624525914	0.0026031153805931	-0.0017746412159699	-0.0147090557578966	-0.00386609671883676
9.5	0.000145921821771389	-0.0142586254201847	0.00232243787610178	-0.00211802131971774	0.00232985697577809	-0.00211935402853403	-0.0143869250056545	-0.00355077027931496
9.6	-0.00385708259012482	-0.0141975030314919	0.00200609197337498	-0.00242332938389531	0.00200642005736818	-0.00242234602774442	-0.0144753171268251	-0.00334750645716358
9.7	-0.00751096358635427	-0.0132042370311422	0.0016392265997168	-0.00267564660755415	0.00164478010551049	-0.0026829477705078	-0.014760800481438	-0.00286980070461199
9.8	-0.0108301592338351	-0.0117129905514536	0.00125427352840568	-0.00288628813143167	0.00125996022912006	-0.00287777148843247	-0.0150246679309504	-0.00211098204023943
9.9	-0.0140121711344052	-0.00965681408208027	0.000848639270408698	-0.00302721989895463	0.000841298790548252	-0.00302600617791931	-0.0151852527210907	-0.00114824630583299
10	-0.0170283776355313	-0.00683214104745022	0.000417869487646802	-0.00311806250521088	0.000410395525689788	-0.003130532207534	-0.0151160458387051	-0.000191774502985342
10.1	-0.0193490837015156	-0.00310786141081578	-2.51658048080744E-05	-0.0031509674415628	-3.54185204849692E-05	-0.00314558724213382	-0.0148643322861148	0.000613802243051403
10.2	-0.0205836956227674	0.00107490010192533	-0.000472334879499411	-0.00311531245826665	-0.000475750738995958	-0.00311253621686957	-0.0145184370209788	0.00138588439235779
10.3	-0.0208442220193861	0.0052184752584502	-0.000906019167876257	-0.00301055498228582	-0.000897902115264446	-0.00301962551125411	-0.013999281515308	0.00213067741405261
10.4	-0.0204908277021029	0.00918876573074188	-0.00130454396107594	-0.00285661239650075	-0.00130283520587607	-0.0028628138771307	-0.0131441440670769	0.00258491988371246
10.5	-0.0196314472549118	0.0133271211549204	-0.00169740643465386	-0.00265842288171599	-0.0016943202327142	-0.00264539706323153	-0.012298988160655	0.00271356052861243
10.6	-0.0178354644491705	0.0176218468171654	-0.00205152326425746	-0.00238871649639628	-0.00204932680424876	-0.00239254199222237	-0.0116907150790532	0.00257019839946357
10.7	-0.0148790325548217	0.0216985526841248	-0.00236821589632743	-0.00208681790441397	-0.00236472341345913	-0.00208152196790334	-0.0113359942778537	0.00254124437586397
10.8	-0.0109490127707628	0.0249716317966724	-0.00263886799911057	-0.00172656794788302	-0.00263364535709226	-0.00173550317857123	-0.0110845620922774	0.00264210867444023
10.9	-0.00660107816833965	0.027375308691764	-0.00284851149777917	-0.00135196357526511	-0.00285371103330218	-0.0013512383914482	-0.0108054180117614	0.00279269661165468
11	-0.00183047977919079	0.0291749568064926	-0.00300917897456272	-0.000934665946020402	-0.00301402511450909	-0.000941427559769661	-0.0104690804722392	0.00293743006272116
11.1	0.00349660312732202	0.0303284237228144	-0.00311895521038885	-0.000508541776484555	-0.00310807357627132	-0.000505662558067452	-0.0101481721778578	0.00297592396426547
11.2	0.00948500459850941	0.0303249211556905	-0.00314938475533246	-6.93154026011034E-05	-0.00315655044793685	-7.41711866211612E-05	-0.00983303170901736	0.00306883870512219
11.3	0.0157526006734755	0.0286899110778617	-0.00312335631247797	0.000381181348631978	-0.00313491962945434	0.000371108693150354	-0.00933236955222827	0.00329339195732721
11.4	0.0212479970620889	0.0254991212687536	-0.00305006304010049	0.000810908246276272	-0.00304514044882782	0.000818497374764048	-0.00869675645300206	0.00337678135761971
11.5	0.0257297106791509	0.021314404082033	-0.00290667357305285	0.0012284762509436	-0.00290946342670156	0.00123877912783912	-0.00811468667618038	0.00309686927816326
11.6	0.0294414131482836	0.016431238076832	-0.00271177167576494	0.00162071799507918	-0.00271175315131497	0.00162366622467727	-0.0076336822687838	0.00262901234999751
11.7	0.0323686292461864	0.01082751907325	-0.00244952875472556	0.00197714204544375	-0.0024500936805844	0.00198577061670933	-0.00727621173998516	0.00210317534143094
11.8	0.0341786754719246	0.00445618964152003	-0.00215294357905318	0.00231079167019	-0.00215706952270675	0.00231249592518176	-0.00694737025804399	0.00171300966501836
11.9	0.0345026202680857	-0.0023066405020527	-0.00180208565265869	0.00258803629943106	-0.00181514004692185	0.00259236132876066	-0.0065170315379561	0.00153358241113787
12	0.0331154475353044	-0.00867066646024481	-0.00142697019408659	0.00281182841037294	-0.00142637175034637	0.00281324352773746	-0.00611048601202602	0.00122713824136874
