# GHZ S RI R 50
0.2	0.00570553494151947	-0.000183124751796723	0.00304834015598517	-0.000899363541190941	0.00305871306774712	-0.000892558260654057	-0.0142678107196684	0.00345575189138859
0.3	0.00593779958870791	-0.00120941911569252	0.00290341062056874	-0.00132378308063681	0.00289617381175524	-0.0013108372680454	-0.0135532054729921	0.00459681017615321
0.4	0.00605228278386632	-0.00237842523024619	0.0026703849391493	-0.0016962454816455	0.00267564185600348	-0.00170481201430251	-0.0126416166240858	0.00563122315385699
0.5	0.0057634712635587	-0.00375618037071268	0.00240956531991383	-0.00205294295538179	0.00242107900899306	-0.00206519688592394	-0.011660530126516	0.00623682397415571
0.6	0.00494247227994201	-0.00509318013116868	0.00209491449457555	-0.00236638250445566	0.00209411493604704	-0.00237352455731098	-0.010958727263582	0.00647143955898648
0.7	0.00353918361315401	-0.00608398504168786	0.00174598942751552	-0.00264200985552123	0.00174403580102562	-0.00264220426717859	-0.0107378361026117	0.0067033147920921
0.8	0.00189877341423745	-0.00652994921089036	0.00135970509025838	-0.00285636504314417	0.00134712199192896	-0.00286087772479131	-0.0107541356896562	0.00730434762832573
0.9	0.000202752254645016	-0.00634814646506992	0.000943084463372642	-0.00301640065082566	0.000944095666939243	-0.00302707194989349	-0.0106792498803792	0.0082609968739659
1	-0.00123047803923661	-0.00574804568137845	0.000520139142039673	-0.00311645796018565	0.000510310195555823	-0.00311718008741309	-0.0102273400927248	0.00941493226917649
1.1	-0.00241895776676482	-0.00500128027344798	6.78707788107572E-05	-0.00314271467503101	6.43604771461192E-05	-0.00316029133994394	-0.00947478153686373	0.0105213715790206
1.2	-0.00347290737552416	-0.00444325096905883	-0.000370036907173866	-0.00313085122615628	-0.000370844635309687	-0.00312878364350216	-0.00825132359995188	0.0113461320971941
1.3	-0.00472649424593917	-0.00409825172834148	-0.00079263307782224	-0.00304811007104863	-0.000795857389637044	-0.00305010809641094	-0.00661206815544059	0.0117978230489408
1.4	-0.0059290841414464	-0.00357987645254402	-0.00120977228798975	-0.00290206554941903	-0.00120855681280914	-0.00290757260220703	-0.00495918730878251	0.0115579479190285
1.5	-0.00651237567420842	-0.00255574090554431	-0.00160754349835442	-0.00270978707349108	-0.00160591949940343	-0.00271824917655177	-0.00367662930273704	0.0109501469671372
1.6	-0.00655828164331817	-0.00116182851296085	-0.00196663673246901	-0.00246180364714469	-0.0019668320845691	-0.00246701996307197	-0.00325981190212147	0.010652334305136
1.7	-0.00612320473270661	0.000302005020693936	-0.0022953474690031	-0.00216949183844894	-0.00229633096191322	-0.00216325142158191	-0.00291304205808495	0.0108167267855371
1.8	-0.00533809027192363	0.00178433938825338	-0.00256836682145227	-0.00182190048486053	-0.0025792899879029	-0.00182756393241698	-0.00242045229573225	0.0111439605398538
1.9	-0.00417838906442553	0.00295514334412632	-0.00279679024572059	-0.0014538188721836	-0.00280923512093443	-0.00144771718378491	-0.00176532419409655	0.0114867744504928
2	-0.00280883296414337	0.00376815424216415	-0.0029760676854345	-0.00104724455092723	-0.00298569875960633	-0.00104257007680458	-0.00101807289916631	0.011777111336102
2.1	-0.00133935002113374	0.00413016657818942	-0.00309286968279132	-0.000618315388707826	-0.00308878119415075	-0.000620295799493267	-0.000147900787511588	0.0118512292588146
2.2	7.58857014860298E-05	0.00416713246378958	-0.00315263081111389	-0.000178284066327022	-0.00316393155611704	-0.000181144637658784	0.000767981629765947	0.011767812058879
2.3	0.00140505975949603	0.00380593499505362	-0.00314898160824473	0.000267504254294877	-0.0031486694213483	0.000260619340808475	0.0015623892668743	0.0115311091067553
2.4	0.00257757191181518	0.00319199612631275	-0.00307605765469711	0.000708098563958414	-0.00307859623202842	0.000703838666950677	0.00234048974529764	0.0113775499101694
2.5	0.00357951495734534	0.00229088322479911	-0.00293727796262414	0.00112180417606772	-0.00294816518148412	0.00112818144689456	0.0032588980559245	0.0111206108033583
2.6	0.00441196828275922	0.00116150684244603	-0.00276098071229101	0.00152490527137443	-0.00275743045323614	0.00151259232250613	0.00424644559602658	0.0106455318324333
2.7	0.0050694507151922	-0.000148161726793492	-0.00251281565510718	0.00189476427055373	-0.00251808704819587	0.00189477762793041	0.00500890073320196	0.00997228596117363
2.8	0.00558123673691344	-0.00163569721496096	-0.00222851298477547	0.00221938109228122	-0.00222071528159096	0.00222914418525714	0.00555404865347499	0.00943528451603921
2.9	0.00592033317218279	-0.00332839033046231	-0.00189433419797105	0.0025157650898247	-0.00189063719557234	0.00251533994104549	0.00628504998303623	0.00909168273731397
3	0.00587675138632403	-0.00522184761275748	-0.00151014615313315	0.00274742432005791	-0.00152487389276846	0.00275348761321657	0.00721063617706073	0.0086844339585003
3.1	0.00543142715685777	-0.00718268666557492	-0.0011237354186168	0.00292167325063041	-0.00111911374483964	0.00292998796157608	0.00805291936905194	0.00803137463725562
3.2	0.00440179114643012	-0.00907885256126827	-0.000708478823087075	0.00305760866708673	-0.000710213723489459	0.00305699567931281	0.00854511733193148	0.00740402862245848
3.3	0.00292239438754844	-0.0108499061933661	-0.000275827791986999	0.00312850380360777	-0.000274170835870189	0.00312478627155151	0.00908528194721937	0.00680833800976609
3.4	0.000935527040675504	-0.0122546271958679	0.000165792759354072	0.00312599716205505	0.000159524818150256	0.00314246843325925	0.00968335842493348	0.00605949630452603
3.5	-0.00138135605268551	-0.0132846021458102	0.000583832033000568	0.00308853806563525	0.000589411639113498	0.00308864760302142	0.0100855380378635	0.00503802893654586
3.6	-0.00399959752294258	-0.0137715507045543	0.00101095841238998	0.0029761592292674	0.00101913884688606	0.00297589793577825	0.0102646368656764	0.00409297190936656
3.7	-0.00668197978780325	-0.0136638995384322	0.00142294545804872	0.00280220022809353	0.00141326496222489	0.00281580272835702	0.0103884286650842	0.00323687134056056
3.8	-0.00932314496057903	-0.0129754652518149	0.00180503110471718	0.00258111481801852	0.00180737261311909	0.0025902911026967	0.010425214233886	0.00247551921767658
3.9	-0.0116976001974741	-0.0117806261602183	0.0021567907138687	0.00231217087820903	0.0021495203846611	0.00231033846325772	0.0104712156111845	0.00180529157231827
4	-0.0138054327399577	-0.0101824317368589	0.00244848751361243	0.00199247669837688	0.00245296644355926	0.00199006061451485	0.0106417147969629	0.00120971603387904
4.1	-0.0155848412131397	-0.00822328100403793	0.00270740450892429	0.00163138315407701	0.00270614276216755	0.00163211585656466	0.0109580006677341	0.000552329289067839
4.2	-0.0170196120100042	-0.00591679354614372	0.00291245062572229	0.0012265277699922	0.0029169721950367	0.00121778634404891	0.0112188863048025	-0.000226931080874878
4.3	-0.0180194430690433	-0.00342694394832618	0.00305919218080616	0.000809167295343688	0.0030656680212236	0.000801341481798675	0.011387243792543	-0.00110839343413575
4.4	-0.0186662830033285	-0.000749575080122802	0.00313671360869989	0.000369108500315014	0.00313910287104553	0.000366844299401777	0.0114122607535981	-0.00196016737879388
4.5	-0.0188720147307954	0.00207402092897193	0.00315824851804235	-7.43143971235491E-05	0.00316363360085996	-7.77003525798294E-05	0.011474845596451	-0.00281929874388029
4.6	-0.0186455809305488	0.00493026789148482	0.00311105179286826	-0.000521099409845994	0.00311229017522178	-0.000508141093501884	0.0114087192397143	-0.00387234765381094
4.7	-0.0177981064126057	0.00779597857098897	0.00300170435504024	-0.000941729298273885	0.00301701996005909	-0.00095138356302831	0.0110720571165921	-0.00494036279541468
4.8	-0.0164435669523904	0.0104570925697936	0.00283661505083179	-0.00135541296692869	0.00284509955136686	-0.00136151864679046	0.0105451949376744	-0.00580408280681827
4.9	-0.0144030819224341	0.0127930132085531	0.00261297883892719	-0.00173722495478799	0.00261714846634762	-0.00173432177188102	0.0101162145617319	-0.00640858717479645
5	-0.011927134763814	0.0145806040549708	0.00235227633717601	-0.00208890845335577	0.00235589622966941	-0.00208624565080463	0.0100271207924845	-0.00694482912734226
5.1	-0.00898754900754027	0.0158445969259139	0.00204274086829728	-0.00239600224363094	0.0020450376700708	-0.00239464388170612	0.010019264464856	-0.00771548502044371
5.2	-0.00592626629013481	0.0164298946068597	0.00168840265103663	-0.00264350161890859	0.00169012410142288	-0.00264863393420027	0.00983123439709836	-0.00852001462393366
5.3	-0.00284845324323639	0.0163761801420799	0.00130626382801058	-0.0028585023149442	0.00130938608361672	-0.00285643196275233	0.00957613880265672	-0.0091501959596441
5.4	3.051207005239E-05	0.0157505864996296	0.000886153606081685	-0.00300810959590665	0.000903357548200927	-0.00301923853028159	0.0094355873031731	-0.00990701930293566
5.5	0.00256457950081204	0.0147045069092627	0.000476292348567939	-0.00311032932736897	0.00048639823977054	-0.00311971032838657	0.00911812784836731	-0.0109074833287848
5.6	0.00477155482650794	0.0133169324137892	3.94103145002619E-05	-0.00315263653826133	3.08879077327879E-05	-0.00315590880179078	0.00836258722726561	-0.0118644031233428
5.7	0.006594755805408	0.0116753317505844	-0.000392821616500084	-0.0031289577070037	-0.000409466342559725	-0.00313272479422177	0.00726860674981558	-0.0124811165245483
5.8	0.00809092901929043	0.0097317549328559	-0.00084294959734211	-0.00304034667693722	-0.000846426651869181	-0.00305441988230355	0.00615725448115905	-0.0129331512812549
5.9	0.00910835369251897	0.00758817105781143	-0.00125437097928949	-0.00290477769619941	-0.00126265141790134	-0.00290473319705183	0.00499469931505937	-0.0131450413356708
6	0.00957408157035781	0.00524793139063323	-0.00166085513233452	-0.00270012604758687	-0.00165726792960526	-0.0027002817751699	0.00384825421600736	-0.013113200677106
6.1	0.00949848924209461	0.00287835689285662	-0.00202436010315631	-0.00244389460889427	-0.00202602012349655	-0.00243986173246728	0.00300879365722015	-0.0129158105757513
6.2	0.00892597459313333	0.000527418641099323	-0.00234438920666835	-0.0021257147394909	-0.00234812611322169	-0.00213768455767373	0.00240717233037118	-0.0128920673621932
6.3	0.00795195864465681	-0.00175646582959212	-0.00262713166526818	-0.00178394350621655	-0.00263632584216379	-0.00177814453533695	0.00187541865372516	-0.0131099742542229
6.4	0.00648177204812114	-0.0039179805467287	-0.00285518548696354	-0.00138450046784886	-0.00284540228153309	-0.00138947010663528	0.00145274587025918	-0.013440183099711
6.5	0.00460987184034273	-0.00569100122981314	-0.00301006215217446	-0.00097098276962068	-0.00301795541696341	-0.000966437029631835	0.00106398053611908	-0.0140025677194218
6.6	0.0024731280377376	-0.00684508610639991	-0.00311363238079395	-0.000538896675575039	-0.00311529580901481	-0.000542885840870492	0.000436852397510732	-0.0146721963655022
6.7	0.000264859828830511	-0.00739516286115075	-0.00315757113046616	-9.65140061311746E-05	-0.00316642197291475	-9.01582861036143E-05	-0.000691241852283721	-0.015080225270644
6.8	-0.00197021737083268	-0.0074131649444688	-0.00312854096129942	0.000346385069312672	-0.00313962949091795	0.000351511992638075	-0.00192552849183634	-0.0149568470754466
6.9	-0.00420273091465038	-0.00695199926653363	-0.00304629431416989	0.000778125019046047	-0.00304927038096447	0.000780534784914802	-0.00284563117138217	-0.0145817465815347
7	-0.00629046728200645	-0.00589371540836763	-0.00290453702138069	0.00119478381487964	-0.00291737328920894	0.00119265162498922	-0.0035668734049051	-0.0142782001549138
7.1	-0.00815449022555511	-0.00432328553337857	-0.00272438788808523	0.00157821856216634	-0.00272069481504034	0.00158686017841185	-0.00439886298038098	-0.0139911809916794
7.2	-0.00959302291060143	-0.00231732929739798	-0.00246842516316759	0.0019407536676395	-0.00247493926617639	0.00194284611679111	-0.00524948057321409	-0.013542385945596
7.3	-0.0106075260261199	-9.08492965336137E-05	-0.00217600187188205	0.00225583467491919	-0.00218719237493936	0.00226089391505143	-0.0059530930136488	-0.0129729240158568
7.4	-0.011276974348647	0.00216528123125552	-0.00183892476684523	0.00253743326424989	-0.00184580251673474	0.0025510287392923	-0.00648699083566512	-0.0125407608095307
7.5	-0.0115739342149941	0.00455442946277635	-0.00147793886364772	0.00277793036209878	-0.00147095356747332	0.00278533370603348	-0.00677846928009435	-0.0121420524588157
7.6	-0.0112132323978664	0.0070699808398901	-0.00107504554071595	0.00296023303783479	-0.00107641470894542	0.00295552755251252	-0.00695753919457262	-0.011875462650069
7.7	-0.0105284187289991	0.00934386279221487	-0.000647581001848915	0.00308693108259783	-0.000648923107818554	0.0030858642323973	-0.00741255397072647	-0.0125070581691523
7.8	-0.00898228452626403	0.0112697760247239	-0.000219824861752667	0.00314166495866084	-0.000227672826285229	0.0031481398279578	-0.00814908870132264	-0.0127218179675742
7.9	-0.00709078733033853	0.0127239333821914	0.00022623948753796	0.00315333389468241	0.000234223758991876	0.00315484322688516	-0.00882570478881284	-0.0128507628001807
8	-0.00448383919596812	0.013665381111681	0.00067516525664389	0.00308322122215975	0.000675252143789146	0.00308815228613795	-0.00951876636336073	-0.0126121962220279
8.1	-0.00190185294265509	0.0142237246572538	0.00109363894088444	0.00296437977105983	0.00111292275293432	0.00296542343782931	-0.0105100090757746	-0.0126119643552378
8.2	0.000876286320865261	0.014149208978793	0.00150578785382502	0.00277881179415113	0.00151506792064635	0.00277152544395733	-0.011473274470824	-0.0121487310602515
8.3	0.00358533468517544	0.0134351914399774	0.00188761378225538	0.00253201160684351	0.00188604409727921	0.00254566122104426	-0.01228187005464	-0.0114543188227168
8.4	0.00598195019103617	0.0122096165876453	0.00222552953364515	0.00224463830420443	0.00222248040689178	0.00224443652908552	-0.0129135963060681	-0.0107429043949559
8.5	0.00799537586112048	0.0105424985553508	0.00250948401650013	0.00190384952188376	0.00250861280275585	0.00190705475630657	-0.0135141209422835	-0.0100608234112382
8.6	0.00960201573409683	0.00863103602393126	0.00275003064478505	0.00153443392672849	0.00275948576517337	0.00152777995668823	-0.0141128561674435	-0.00944246968412222
8.7	0.010908017458514	0.00641660030796704	0.00292692555880987	0.00112542486877259	0.00293249531770037	0.00112608894727112	-0.014793306389492	-0.00880477365026741
8.8	0.0118193794742808	0.00389239054546498	0.00305303481091826	0.00071189809592719	0.00305870198320191	0.000703091823737122	-0.015589690794834	-0.00800450240385692
8.9	0.0122614654970202	0.0010025863782525	0.00311976448081803	0.000279399949767773	0.00311887450050508	0.000277169303480974	-0.0160243891754028	-0.00684110067753218
9	0.0120063383591189	-0.00211868196960902	0.00312041066368778	-0.000158509506121227	0.00312358693312417	-0.00015445668835992	-0.0159612505048944	-0.00565590859680166
9.1	0.0110480275064787	-0.00520754076908539	0.00306801679253572	-0.000591876819880763	0.00307097501476498	-0.000579082100824753	-0.0156210858992301	-0.00476175690436356
9.2	0.00940108661059326	-0.00813229113583739	0.00295615402041212	-0.00100027041314056	0.00296374245193091	-0.00100316813429153	-0.015303184085073	-0.00410239419873543
9.3	0.00707606142477982	-0.0107196121325339	0.00278891275000257	-0.0013967793381474	0.00278816918876642	-0.00140173171580742	-0.0149267167759117	-0.00344098895941956
9.4	0.00408870541788115	-0.0128234965433333	0.00257082206313517	-0.00178014664992911	0.00257730486724117	-0.00177261246004963	-0.0144745893158056	-0.00300361480357674
9.5	0.000522825415345128	-0.0139022004660321	0.00230189821777631	-0.00211067456856352	0.00230926624398859	-0.00211201859939102	-0.0140936666695237	-0.00261533710841399
9.6	-0.00329202940107068	-0.0141470057069459	0.00199130710979912	-0.00241378293389018	0.00199163510049525	-0.00241280537607194	-0.0141326700213885	-0.00245851136243442
9.7	-0.00706526943685539	-0.0134582276337245	0.00162936049528468	-0.00266669080230687	0.00163488267455859	-0.00267396881271767	-0.0144218069490205	-0.0020549566472373
9.8	-0.0106588853275203	-0.0120248630544481	0.0012472445973982	-0.00287973414794504	0.00125292575097287	-0.00287124828184835	-0.0147449627044245	-0.00134214380181248
9.9	-0.0140169773341662	-0.00976126540732031	0.000841944070579799	-0.00302363728055471	0.000834617980025425	-0.00302241279487634	-0.0150038706340794	-0.000343410025619047
10	-0.016954608632389	-0.0067870094287252	0.00040911277250322	-0.00311654143415727	0.000401611554603498	-0.00312898041085078	-0.0149576107380873	0.000663635489167035
10.1	-0.0191853660107441	-0.00308965115070759	-3.76065677448915E-05	-0.00314945042824402	-4.78334092211385E-05	-0.0031440321322296	-0.0146977309421909	0.0015023717301252
10.2	-0.0204973571402947	0.00104945990000841	-0.000488789049846291	-0.00311104947122806	-0.00049218811715819	-0.00310825644126975	-0.0143510727547901	0.00227888673659882
10.3	-0.0208676758440033	0.00535631480065323	-0.000925323196735178	-0.00300082336098476	-0.000917277262912153	-0.00300993802000206	-0.0138562535222746	0.0030394117467512
10.4	-0.0203788962788656	0.00960908028116297	-0.00132433180247011	-0.00283945687985175	-0.00132267668368696	-0.0028456574482734	-0.0130114464412461	0.00354877146727281
10.5	-0.0191552515437594	0.0138003136021175	-0.00171434731673425	-0.00263278956390417	-0.00171115739706531	-0.00261984278738406	-0.0121138128570322	0.00371582504005728
10.6	-0.0169983747601977	0.0178942556424254	-0.00206168178281735	-0.00235549138176855	-0.00205953395054273	-0.00235931477244036	-0.0114263723027647	0.00361729216101944
10.7	-0.0139619301607727	0.0216413969635077	-0.00236837035327791	-0.00204829983048623	-0.00236485725979995	-0.00204307851407859	-0.0110115884004105	0.00355922792236877
10.8	-0.0100860648318389	0.0247202883083228	-0.00262662554311092	-0.00168672756282883	-0.00262153146242527	-0.00169561607399773	-0.010742960341912	0.00363474150695819
10.9	-0.00570303273915473	0.0269848697924877	-0.00282359618361983	-0.00131531851828928	-0.00282872753366137	-0.00131456514979596	-0.0104200625614582	0.00379274434020255
11	-0.000856604421342701	0.0285111090016881	-0.00297281097745496	-0.000906049550701722	-0.00297762614133367	-0.000912692981791998	-0.0100311802605576	0.0039246467756952
11.1	0.00434875746115662	0.0292055603930262	-0.00307431073938306	-0.000491693373316802	-0.00306358156180242	-0.000488889291903248	-0.00965667530003681	0.00390421374677164
11.2	0.00985570551303536	0.0288267047532456	-0.00310131325652389	-6.66758844653652E-05	-0.00310837193170399	-7.14539006345397E-05	-0.00933825793357075	0.00390301547671999
11.3	0.0154644291233271	0.0272674514607492	-0.0030769598775556	0.000369139388086859	-0.00308832831302451	0.000359195560531717	-0.00896680347247027	0.00410540280096137
11.4	0.0205084689839994	0.024408192645006	-0.00300999936175094	0.000786010954301416	-0.00300518024556575	0.000793513068849404	-0.00837748387960765	0.00418215144895647
11.5	0.0247764429375725	0.0205835613553833	-0.00287686256183092	0.00119407213196202	-0.0028796818729764	0.00120422387064029	-0.00782980048976947	0.00383633663460952
11.6	0.0283931403572921	0.0160095995161525	-0.00269418127451946	0.00158122524880714	-0.00269418617185524	0.00158414062569128	-0.00742286166302578	0.00337059783745083
11.7	0.0311833491936078	0.0107577480763118	-0.00244437533276092	0.00193736824470044	-0.00244501101886382	0.00194591237565475	-0.00715967153165107	0.00285478212454979
11.8	0.0329873062162037	0.00491247506217166	-0.00215856591081567	0.00227453126610332	-0.00216267776072805	0.00227618560858826	-0.00693465575232933	0.00250296679892437
11.9	0.033672768382167	-0.00121126701164553	-0.0018155175368546	0.00255832105497449	-0.00182854116329917	0.0025625072490591	-0.00652901758895343	0.00255456990759674
12	0.0328729018262047	-0.00752913436098399	-0.00144448003874382	0.00278977507881873	-0.00144389530996566	0.00279118978415872	-0.00614131235730519	0.00216553795281628
