# GHZ S RI R 50
0.2	0.00562665946759004	0.00176974306553526	0.00304838174771443	-0.000897620811844624	0.00305874957594187	-0.000890811008099937	-0.0142978597000418	0.00544641226337627
0.3	0.00616264336949487	-0.000430294672115927	0.00290432114450693	-0.00132087941438259	0.00289707293750572	-0.00130794197626358	-0.0132836054163521	0.00537980301146327
0.4	0.00593674460897651	-0.0023699249374949	0.00267295041729007	-0.00169254236268507	0.00267821982235179	-0.00170110190279155	-0.0127751674558128	0.00562159567225378
0.5	0.00507151364043343	-0.00396668795854663	0.00241444377766038	-0.002049240317654	0.00242598539685796	-0.00206147756897825	-0.0124638015892826	0.00605082103398679
0.6	0.00383026167436523	-0.00505146124801799	0.00210228309813495	-0.00236388228275987	0.00210149899068033	-0.00237103295788318	-0.0122385899533734	0.00665379055636335
0.7	0.0023903599437197	-0.00560035602961161	0.00175544578334371	-0.00264198289580781	0.00175348943962956	-0.0026421825022702	-0.0120200213315666	0.00746214661795611
0.8	0.00107362761456746	-0.0057453776631063	0.00137018913045687	-0.00285984842385029	0.00135758696566529	-0.00286440371783446	-0.0116007557146746	0.00843101410055854
0.9	-0.000175221037089596	-0.00560649561977644	0.000953092673991294	-0.00302395469393164	0.000954131782371339	-0.00303465808680162	-0.0109752487206562	0.00929586160661081
1	-0.00133678578714593	-0.00536027810801173	0.000527995036619507	-0.00312791587189324	0.000518128249266767	-0.00312865911499887	-0.010259501792577	0.00997741210192695
1.1	-0.00260022883115249	-0.00503456684637268	7.18728382940142E-05	-0.00315714245488636	6.83669628844911E-05	-0.00317480437765095	-0.0097247690083095	0.0106005442471844
1.2	-0.00397866456285382	-0.00469116288554058	-0.000370911324605456	-0.00314675332736842	-0.000371723779688984	-0.00314467557621545	-0.00898478433397883	0.011311462286761
1.3	-0.00549963813387458	-0.00429051187407803	-0.000798728767337621	-0.00306348787804393	-0.000801971173561614	-0.00306549424073109	-0.00764741289926406	0.0119906651905581
1.4	-0.00676923141533037	-0.00367812819882293	-0.00122066114042833	-0.00291491710092023	-0.0012194484025058	-0.00292045424288946	-0.00603483540699895	0.0119728765993339
1.5	-0.00738120813007682	-0.00255572894376986	-0.00162199554355819	-0.00271852276319523	-0.00162038528340893	-0.00272702895759617	-0.00473942260594182	0.0115992981052961
1.6	-0.00740228624801322	-0.000976041623968811	-0.00198277943566686	-0.00246545920696434	-0.00198299269206399	-0.00247069629070219	-0.00417695114455588	0.0116165813184027
1.7	-0.00681146407705029	0.000649751816467121	-0.00231118463024884	-0.0021679508112395	-0.0023121476705115	-0.00216168600843505	-0.00344572496792299	0.0119448866872725
1.8	-0.00579702811607379	0.00216073749442909	-0.00258196226106749	-0.00181592302027168	-0.00259293481190419	-0.00182155599349935	-0.00258747801675778	0.0121369845637814
1.9	-0.00447916090921953	0.00321416586393593	-0.00280692717264488	-0.00144485181646216	-0.00281936677787399	-0.00143869085126876	-0.00181238516434889	0.0121844784070577
2	-0.00308286100378085	0.0038753297382552	-0.00298218331552418	-0.00103702459048646	-0.00299180435298484	-0.00103231096880221	-0.00119112553741289	0.0122788052503065
2.1	-0.00167878326720832	0.00415944390411918	-0.00309527000470936	-0.00060861676754976	-0.00309118719650355	-0.000610610400338845	-0.0004832050972834	0.0123927645601573
2.2	-0.000316410737109465	0.0042254820316655	-0.00315236518734348	-0.000170457482514015	-0.00316367046705151	-0.000173289501648019	0.000455805231293045	0.0124817164466335
2.3	0.00105444616648509	0.00393537284675016	-0.00314756258163779	0.000272788869955304	-0.00314726222334837	0.0002659055302616	0.00147980109805768	0.0123019820442656
2.4	0.00235549515066886	0.00333933401883428	-0.00307509679506657	0.000711006118643642	-0.00307763925870159	0.00070674905718167	0.00247790316827872	0.0119432527184172
2.5	0.00347919539503044	0.00233964639044779	-0.00293808816073681	0.00112328961722517	-0.00294897760722249	0.00112967330222292	0.00336703921173115	0.0113564623579623
2.6	0.00434110471663609	0.00106541569014007	-0.00276420429454438	0.00152650420066888	-0.00276064936898244	0.0015141773971276	0.00410022440933149	0.0107026719192358
2.7	0.00495638294251329	-0.000345125657124347	-0.00251820440706288	0.00189819025568915	-0.00252348646409358	0.00189820278766983	0.00463163388218944	0.0100754575017491
2.8	0.00543425583671328	-0.00188445965155635	-0.00223498092272715	0.00222608576632923	-0.00222715954828446	0.00223587730942863	0.00508352802596651	0.00962601184770238
2.9	0.00576016318525845	-0.00364687470718475	-0.00190004210509991	0.00252661487871251	-0.00189633116249891	0.00252618578756007	0.00572654649720868	0.00931632578423677
3	0.00566778184964423	-0.0056375907588955	-0.00151288231286721	0.00276220659513633	-0.00152766796573127	0.00276831967646352	0.00649616455999661	0.00900700150499505
3.1	0.00510346235264846	-0.00765468764439973	-0.00112159849727448	0.00293924268143564	-0.00111693169473593	0.00294758665499061	0.00723682019062985	0.00860144356909827
3.2	0.00395835398833552	-0.00952707075737614	-0.000699976425302039	0.00307594561218519	-0.000701722565247171	0.00307533637684135	0.00784382140038145	0.0082632816276814
3.3	0.00241059626711623	-0.0112250745854279	-0.000260540145628578	0.00314490197771985	-0.000258895010430532	0.00314115790544961	0.00863141075883295	0.00777175262111865
3.4	0.000420017772560078	-0.0125654746862365	0.000187030433636854	0.00313762496395928	0.000180845340463062	0.00315420448119125	0.0093998407618511	0.00694385323016083
3.5	-0.00189282297647272	-0.0135887027891477	0.000609194589002625	0.00309334408415589	0.000614791777654883	0.00309341129686252	0.00981281559056038	0.00583084144235129
3.6	-0.00453764312353984	-0.0140608743848549	0.00103761692383725	0.00297257954973969	0.00104580865838204	0.00297224913394755	0.00996544630378317	0.00495511687753969
3.7	-0.0072715281445906	-0.0138919777900266	0.00144767748332016	0.00279008622202867	0.00143811494890636	0.00280377525791765	0.0102159753597771	0.00420417606458266
3.8	-0.00990141040854848	-0.0130785282050819	0.00182488605770743	0.00256166748123418	0.00182730405216834	0.00257081010405368	0.0104870723259553	0.00338826129343054
3.9	-0.0121581412843959	-0.0117816212770059	0.00216948524780439	0.00228762341446206	0.00216222119906623	0.00228585622835696	0.010645617177201	0.00247362329926732
4	-0.0141048905598475	-0.0101867644722152	0.00245283348593387	0.00196596961549145	0.00245727562493624	0.00196353069365208	0.0106927344717273	0.00165716737739256
4.1	-0.0157839433471113	-0.00831560105059979	0.00270345568409988	0.00160597334175845	0.00270220509475061	0.00160671009440881	0.0108108327780212	0.000983042685448023
4.2	-0.0171974172496636	-0.00608785987490053	0.00290149915252156	0.00120506019926949	0.00290595139002412	0.00119634751262184	0.0110119663816385	0.000306017959793366
4.3	-0.018178418067743	-0.00362217526607097	0.00304358874233451	0.000793524444619277	0.00304999799408425	0.000785723046138103	0.0112474457004699	-0.000577369434791076
4.4	-0.018756611958232	-0.000967814011124329	0.00311926501920975	0.000360114745043443	0.0031216354357061	0.000357858506233953	0.01125916058717	-0.00156869512679096
4.5	-0.018877263922928	0.00176382168277497	0.00314164920854297	-7.71728756104605E-05	0.00314700263702356	-8.05466537452142E-05	0.0111223341211818	-0.00252974140187059
4.6	-0.018634328449729	0.00446252682507167	0.00309746571801187	-0.000519354029883494	0.00309870087518093	-0.000506452148428785	0.0108107749159543	-0.00347139492213988
4.7	-0.0178726248198034	0.00720887293995585	0.00299226255027118	-0.000937708954867029	0.00300753153662559	-0.000947326965058697	0.0103963321514331	-0.00429757916240531
4.8	-0.0166088751574475	0.00986365319161747	0.00283122126152846	-0.0013515038149773	0.00283969041309288	-0.00135759352660933	0.009992070328684	-0.00499748096526223
4.9	-0.0145995005623801	0.0122203548882731	0.00261039948362348	-0.0017354725331469	0.00261456493851262	-0.00173257219375407	0.00963333760674115	-0.00561426026896409
5	-0.0121143303164324	0.0139751851041656	0.00235042396681973	-0.0020904467945009	0.00235404545565798	-0.00208778703858236	0.00947724865093049	-0.00613884904646012
5.1	-0.00922462545154323	0.0151698607169389	0.0020392199885972	-0.002400755388313	0.0020415202488665	-0.00239940065538928	0.00944755389476524	-0.00674036161023819
5.2	-0.00626770717390137	0.0157610487473565	0.00168115058086887	-0.00265011701761906	0.00168285712194021	-0.00265525737659315	0.00945388595511636	-0.00739697459685832
5.3	-0.00322563047799009	0.0158144001998316	0.0012940018110112	-0.00286469064799064	0.00129713363637574	-0.0028626335803043	0.00945034046348099	-0.00812377956204
5.4	-0.000250015029293025	0.0152713021796788	0.00086896804620226	-0.00301101959193661	0.000886099238239152	-0.00302223614839486	0.00933147571505487	-0.00913255514318387
5.5	0.00241868704840807	0.0141687758778555	0.000455509222204564	-0.00310750819604574	0.000465536079240863	-0.00311693611288416	0.00879298205941307	-0.0102316668515788
5.6	0.00464598582526499	0.0126207820404183	1.76089781069824E-05	-0.00314216967024871	9.09310893613449E-06	-0.00314537221672347	0.0078552416639561	-0.0110012535695249
5.7	0.0063381962624118	0.010852113986039	-0.000412367771591853	-0.00311035237830932	-0.000428953847959952	-0.00311398572540277	0.00687172923151501	-0.0113681425340764
5.8	0.00765863468646861	0.00895995241508293	-0.000856701131427275	-0.00301439267757378	-0.000860244712126904	-0.00302834846452999	0.00606204628797043	-0.0117645995089215
5.9	0.00862561438237308	0.00698786388433062	-0.00125974029499134	-0.00287385962757621	-0.00126795177902176	-0.00287377051942564	0.00512330699992477	-0.012219264375983
6	0.00920406363664235	0.0047818406422366	-0.00165592341842292	-0.00266761359248682	-0.00165237110735707	-0.00266778235488922	0.00390782641998343	-0.0125124311891303
6.1	0.00928867776969541	0.00240882715120715	-0.00200903203247179	-0.00241371024392688	-0.00201066531002501	-0.00240971543686361	0.00280543614123776	-0.0124368119146608
6.2	0.00879681071462207	-1.3863511377721E-05	-0.0023200854368259	-0.00210170538303545	-0.00232378756624115	-0.00211354437558157	0.00202862456848431	-0.0123227520856368
6.3	0.00789219674125311	-0.00231686523343439	-0.00259653045908915	-0.00176878389383853	-0.0026056351721244	-0.00176306016615257	0.00149051997201703	-0.0124702899116346
6.4	0.00653391835661807	-0.00450179128630227	-0.00282203478911477	-0.00137998464476224	-0.00281233333461897	-0.00138487241424427	0.000922396508368109	-0.0128118804873732
6.5	0.00476264665932792	-0.00644544317940971	-0.00297845773694999	-0.000976862546735834	-0.00298630242939871	-0.000972395622030493	0.000286234851609153	-0.0131730971006186
6.6	0.00253954110198152	-0.00783873766126205	-0.00308703608125601	-0.000553587391177839	-0.00308866303247493	-0.000557556643125753	-0.000334315712922205	-0.0134209099186127
6.7	9.85145847675605E-05	-0.00847944198645427	-0.00313849750501454	-0.000117178895196864	-0.00314733943074187	-0.000110919764857826	-0.00109793240683634	-0.013569401892799
6.8	-0.00230166970084172	-0.00839498483271184	-0.00311811172574072	0.000323356613167935	-0.00312919022286047	0.000328385936225748	-0.00194745475371919	-0.013579933949905
6.9	-0.00451925974896184	-0.00777425689401172	-0.00304391905827352	0.00075620416643774	-0.00304690363929991	0.000758588463045353	-0.00284302710144695	-0.0134851234985248
7	-0.00648517288577272	-0.00674770275117912	-0.00290830488810669	0.00117677144950222	-0.0029211151094127	0.00117456760433484	-0.00378394332340162	-0.0132976028835391
7.1	-0.00835107062806191	-0.00535891096972663	-0.00273139523763161	0.00156558211964702	-0.00272774213380794	0.00157423993840236	-0.00477660078726209	-0.0127797708770029
7.2	-0.0100152443590606	-0.00348630743788771	-0.00247562901358904	0.00193362526044244	-0.00248215242609465	0.00193569768509388	-0.00541968703775885	-0.0119964260215959
7.3	-0.0113481676424441	-0.00114813013346573	-0.00218076443973858	0.00225273043235412	-0.00219196778271397	0.00225777147037712	-0.0056054718711231	-0.0113980047630417
7.4	-0.0121369025111997	0.00153031578536247	-0.00183978269705466	0.00253588106022274	-0.00184666575897933	0.00254946974290391	-0.00580687031154589	-0.0112632225362551
7.5	-0.0122592358854876	0.00426318463694081	-0.0014748334239586	0.0027750577503044	-0.00146785371973114	0.00278244860479803	-0.00607940133536966	-0.0114289787332112
7.6	-0.0117123379059198	0.0067727253175292	-0.00106939530255115	0.00295350143071624	-0.0010707653833176	0.0029488095904764	-0.00647865041402736	-0.0117861675956714
7.7	-0.0106997197443258	0.0090551088374144	-0.000642007003089875	0.00307482604401711	-0.000643344585591283	0.00307376485181478	-0.00719541636162692	-0.0123556319786409
7.8	-0.00896922281928409	0.0109415442124123	-0.000217392869613452	0.00312415546041329	-0.00022519440989085	0.003130597070044	-0.00817815208006591	-0.0127330101343016
7.9	-0.00663038614589851	0.0121980667995626	0.000222506823054203	0.00313176595474253	0.000230435048731481	0.00313327039359966	-0.00931851893758449	-0.0127370895317685
8	-0.00409975194350027	0.0128345742654287	0.000663093495073109	0.00306055709469029	0.000663168852705247	0.00306544972687893	-0.0105986068001413	-0.0124249880511519
8.1	-0.00151216741497008	0.0129290598028921	0.00107263983916904	0.00294410599067387	0.00109175901814933	0.00294521838498205	-0.0116345147958039	-0.011652998951325
8.2	0.000924134783608331	0.0126629449511955	0.0014766696721073	0.00276485109125001	0.00148591665220061	0.00275768066097757	-0.0122879977782509	-0.0107133495335548
8.3	0.00332896622999543	0.0120278809448661	0.0018529517243947	0.00252768775031226	0.00185128512282405	0.0025412203158429	-0.0126792601826787	-0.00995822238038548
8.4	0.00564841081271758	0.0109827979404387	0.00218909749210479	0.00225189587472923	0.00218607011533141	0.00225166552258295	-0.0131611769926899	-0.00944227372549302
8.5	0.00774942648642859	0.00936180906586788	0.00247589486587641	0.00192302160217871	0.00247499164849344	0.0019262015589034	-0.0139092666339412	-0.00882495219824468
8.6	0.00937382851693016	0.00731386397494031	0.00272352299584071	0.001564065579812	0.00273303393048752	0.00155754648414215	-0.0146204126211789	-0.00794655695836946
8.7	0.0104749781583585	0.00498314250818386	0.00291113036715447	0.00116225456971605	0.0029166889369915	0.00116298945143055	-0.0150715911220529	-0.00694970393758306
8.8	0.0111073394680419	0.00256464921044424	0.00304967900517321	0.000751691280612193	0.00305546760754323	0.000742940239078139	-0.0153514593884785	-0.00613734713778347
8.9	0.0114606441126309	-3.08281790814483E-05	0.00312902120408895	0.000317431087525934	0.00312815402824341	0.000315180931105725	-0.0154573727460143	-0.00537728040692393
9	0.0113651364939843	-0.0029423572761062	0.00314046265249836	-0.00012664782345947	0.00314361504180995	-0.000122537743006015	-0.0154845167737975	-0.00462200248123176
9.1	0.0106263298770028	-0.00605587616169824	0.00309553773748669	-0.00056928766102482	0.00309840532074133	-0.000556373875004851	-0.0153549719937154	-0.00386786478437749
9.2	0.0090164921352452	-0.00903689568402512	0.00298680255717161	-0.000988311366168377	0.00299447190013373	-0.000991181053287598	-0.015110552094104	-0.00324474533943649
9.3	0.00672901390760996	-0.0115636900423642	0.00281850649049314	-0.00139504776828246	0.00281778030573952	-0.00140004445556673	-0.0147939639748829	-0.00276366371912017
9.4	0.00390691598340548	-0.0135541082829026	0.00259596044186032	-0.00178662133996569	0.00260247207933393	-0.00177900983987835	-0.0146601439838838	-0.00243280809335999
9.5	0.000563278708561759	-0.0148596758272841	0.00232045373494313	-0.00212195891516459	0.00232787383648674	-0.00212330215039438	-0.0147404316775777	-0.00199646624748617
9.6	-0.00320990106968822	-0.0153901612283661	0.00200300105475099	-0.00242639009003403	0.00200333053323753	-0.00242540706479266	-0.0149854121751113	-0.00135628087339053
9.7	-0.00718159104977582	-0.0148946491952044	0.00163544912812843	-0.00267748192318178	0.0016409921854069	-0.00268478953336218	-0.0150383610682259	-0.000508808791879731
9.8	-0.0110104705556456	-0.0134000537264734	0.00125031468551326	-0.00288678309986163	0.00125600971507986	-0.00287827641552571	-0.0149317704426114	0.000264122221536969
9.9	-0.0143755646084951	-0.010965614214315	0.000845034298451119	-0.00302649158886898	0.000837698992048617	-0.00302527086860007	-0.0149400895431813	0.00095719132215856
10	-0.0171673116923008	-0.00791718844671205	0.000415010129253877	-0.00311640355185531	0.000407530616024033	-0.00312885902182075	-0.0150130334016079	0.00176113209483409
10.1	-0.0193069295063883	-0.00434173736092847	-2.70622504482524E-05	-0.00314880436579624	-3.73047101552741E-05	-0.00314342160706789	-0.0148795689962248	0.0026648529374673
10.2	-0.0207302106445084	-0.000307009436485422	-0.000473256583833224	-0.0031131040743549	-0.000476669131476179	-0.00311032828815737	-0.0144049851455351	0.00353759232967349
10.3	-0.0212455364087479	0.00411450345820683	-0.000906154921780219	-0.0030086950373818	-0.000898044287902423	-0.00301776226017035	-0.0137145837705539	0.0040969494961501
10.4	-0.0206807398086419	0.0085833329915829	-0.00130423081956585	-0.00285534430440082	-0.00130252324047559	-0.00286154338186888	-0.0130054142517236	0.00421675099602817
10.5	-0.0191822469682571	0.0128330428090744	-0.00169702385239297	-0.00265780584501891	-0.00169393832100237	-0.00264478303397714	-0.0125991422618744	0.00427146968560398
10.6	-0.0169073471233062	0.0166879229338405	-0.00205143490309068	-0.00238862708501534	-0.00204923851977081	-0.002392452422433	-0.0123229532169217	0.00442831391898268
10.7	-0.0139735627847466	0.0202500327099902	-0.00236867209751492	-0.00208696656395795	-0.00236517880817519	-0.00208167009871134	-0.0119688339789555	0.00475064809325154
10.8	-0.0102310839307583	0.0233664642007387	-0.0026399446791546	-0.00172657555509095	-0.0026347221902668	-0.00173551431632228	-0.0116046407225236	0.00497372078612112
10.9	-0.00576698571240976	0.0257840001359776	-0.00285009227733373	-0.00135145015162891	-0.00285529354223847	-0.00135072280763093	-0.0114059175170052	0.00513948263147696
11	-0.000681991984599454	0.0272118933608127	-0.00301094505341289	-0.00093334404781792	-0.00301579701741583	-0.00094010569231294	-0.0112802313707472	0.00554070182106798
11.1	0.00459278413932359	0.0275532519345407	-0.00312048784693575	-0.000506303534434357	-0.00310960000708145	-0.00050343172204954	-0.0109362715335529	0.00612071924997574
11.2	0.00983815903639776	0.026861842406748	-0.00315022913405845	-6.62858907171112E-05	-0.00315740129268003	-7.11359413494144E-05	-0.0101514756766377	0.00668560153184953
11.3	0.0149988177071169	0.0252086183471432	-0.00312313732245633	0.00038469934193904	-0.00313471267054521	0.000374638948740021	-0.00893172383539419	0.0069059026364644
11.4	0.0198387089188286	0.022605890035661	-0.00304860700562424	0.000814453833036055	-0.00304367604893838	0.00082203584038751	-0.00786722067948179	0.00664079829584005
11.5	0.0241941881227395	0.0189506083106899	-0.00290402369657125	0.0012315488910142	-0.00290679984118238	0.00124185111840747	-0.0071794051596729	0.00606822952738261
11.6	0.0277674172258348	0.0143461215285376	-0.00270812704709663	0.00162287587292838	-0.00270810506100162	0.00162582219425277	-0.00659979555732805	0.00542462686614503
11.7	0.0303527458188365	0.00918116871259195	-0.00244528733390634	0.00197803032078662	-0.00244584257086989	0.00198665197673836	-0.00600463807988844	0.00462566307905868
11.8	0.0320678050288374	0.00369718933937832	-0.00214858387692548	0.00231023856811977	-0.00215270389168701	0.00231194467560103	-0.00557077216964877	0.00365202951626688
11.9	0.0329385852114083	-0.00213808656237746	-0.00179805012274376	0.00258585306213609	-0.00181108472378457	0.00259018101637143	-0.00552733840250916	0.00281687676646627
12	0.0327106431279518	-0.00823736089089324	-0.00142399530441887	0.00280877923713279	-0.00142339706095946	0.00281019228843438	-0.00583513432949242	0.00231557915302726
