# GHZ S RI R 50
0.2	0.00670242182787457	0.000764746298622475	0.00304834098221273	-0.000897678777910643	0.00305870888011008	-0.000890869241865603	-0.013276177554952	0.00438576566894724
0.3	0.00651882653052963	-0.001109623921323	0.00290425867141829	-0.00132087702785509	0.00289701069191591	-0.00130793977051624	-0.0129816408662296	0.00467402031587107
0.4	0.0060199263702447	-0.00231534991878667	0.00267291394119537	-0.00169248693509966	0.00267818331944051	-0.00170104626611262	-0.0126854544355556	0.00566637231494941
0.5	0.00547898236839581	-0.00321877272326135	0.00241445341704562	-0.00204916591010522	0.00242599513085989	-0.00206140277429422	-0.0119596757610028	0.00673696994507818
0.6	0.00493728807729526	-0.00406945860127827	0.00210233344912044	-0.00236381198393238	0.00210154953702723	-0.00237096263685947	-0.0109890353464357	0.00744605876920419
0.7	0.00411236505125398	-0.00496860458446079	0.00175553553055052	-0.00264193001485963	0.0017535791898963	-0.00264212968582646	-0.0102109492811066	0.00776351208739404
0.8	0.00291504929135667	-0.00579109659893215	0.00137030971901625	-0.00285983704001752	0.00135770755122332	-0.00286439284581108	-0.00981038222114669	0.00799825907522264
0.9	0.00120176810551841	-0.00616533156995191	0.000953212808894032	-0.00302399733847108	0.000954252285949405	-0.00303470095717454	-0.00976796799481269	0.00842837318159787
1	-0.000684132960193789	-0.00585815204994011	0.000528087973314046	-0.00312799376553214	0.000518220917384095	-0.00312873727494309	-0.00975628619066432	0.00932605526744583
1.1	-0.00237920684327094	-0.00488571818350826	7.19382273623404E-05	-0.00315723268410793	6.84326042989582E-05	-0.00317489518998542	-0.00946597893525447	0.0106765950414881
1.2	-0.00355451729963589	-0.00379201711850754	-0.000370860679820633	-0.00314684817072733	-0.000371673197795203	-0.0031447703774385	-0.00829920389919817	0.0120276248238386
1.3	-0.00454272417944607	-0.00309792384927061	-0.000798697086215307	-0.00306359825547025	-0.00080193955657029	-0.00306560474069198	-0.00634616434974427	0.0127857369560654
1.4	-0.00548532908336825	-0.00252729924550836	-0.00122066265560889	-0.00291503758399855	-0.00121944979572542	-0.00292057490437676	-0.00442521524142727	0.0125786317120572
1.5	-0.00580034465711029	-0.00147994449265418	-0.00162202418378633	-0.00271864816869295	-0.00162041375482443	-0.00272715467170602	-0.00287021185184075	0.011982369188053
1.6	-0.00547220426044224	-0.000237067114059823	-0.00198284675382977	-0.002465586250486	-0.00198305997477176	-0.00247082356972871	-0.00211717267037321	0.0115048643065831
1.7	-0.00483826640871019	0.000813473109500605	-0.00231129963344169	-0.00216806323820428	-0.00231226272907965	-0.00216179811848687	-0.00159528074125081	0.0112468893582497
1.8	-0.00418685002245231	0.00190251658356408	-0.00258211457989032	-0.00181599310413983	-0.00259308775793661	-0.0018216262663338	-0.00126580604805218	0.0111821097078167
1.9	-0.00334871905784883	0.0029495368726179	-0.00280708475496268	-0.00144486750707421	-0.00281952482697579	-0.00143870602530421	-0.00093642674885979	0.0114176725474238
2	-0.00217847004112551	0.00391521908732575	-0.00298232258436283	-0.00103699946474132	-0.00299194389378129	-0.00103228544739945	-0.000377847509857989	0.0118649352506374
2.1	-0.000633588512838678	0.00445521742590346	-0.00309538345113759	-0.000608569342119138	-0.00309130055398678	-0.000610563128108068	0.000572732887602024	0.012103261722321
2.2	0.000996353019334908	0.00443895629684627	-0.003152455552118	-0.000170405375301017	-0.00316376119598532	-0.000173237269092074	0.00168556631929941	0.0119536212243787
2.3	0.00238043691704601	0.00378501036615234	-0.0031476453439755	0.000272835590032626	-0.00314734506334536	0.000265952058158598	0.00250556397630186	0.0114363716831428
2.4	0.00329451138183496	0.00291754097001277	-0.00307519292458153	0.00071105421881549	-0.00307773550641251	0.000706797036721102	0.00301374667510318	0.0110558236699744
2.5	0.00389969157260482	0.00205884857123195	-0.00293818785795602	0.00112335961981148	-0.0029490776529425	0.00112974364762545	0.00355424997737745	0.0108771416601209
2.6	0.00452546472968721	0.00123428020631984	-0.00276429717064332	0.00152659493547517	-0.00276074223901569	0.00151426760441757	0.00436974960136704	0.0107141850121306
2.7	0.00524219720818195	0.000192023286041291	-0.00251829266317837	0.00189829497940146	-0.00252357494380248	0.00189830756300555	0.0052134783443813	0.0102966141843978
2.8	0.00585878247852742	-0.00119355263146094	-0.00223507162037767	0.00222621434532266	-0.00222724977758809	0.0022360063023892	0.00587463585931822	0.00985712590926571
2.9	0.00623191881025053	-0.00279185481247646	-0.00190012477605412	0.00252678874810209	-0.00189641361726561	0.00252635958626685	0.00666753696465972	0.00961710800581507
3	0.0062986130500148	-0.0045071624053578	-0.00151293349511075	0.00276242145278687	-0.00152772003492476	0.00276853522144497	0.00774750516137563	0.00937384667985709
3.1	0.00612986379709039	-0.00635729151000174	-0.00112159512711457	0.0029394831437064	-0.001116927757374	0.00294782757810529	0.00889050801440382	0.00877787726901207
3.2	0.00540558373275864	-0.008372534352124	-0.000699915361178226	0.00307622391915528	-0.000701661667262534	0.00307561470116455	0.00968675383089862	0.00800197857378012
3.3	0.004032179407152	-0.0104156417370765	-0.00026038568934449	0.00314517690250789	-0.000258740627520554	0.0031414324282152	0.0103314294595971	0.00711060626075259
3.4	0.00194255034174862	-0.0120009584849602	0.000187274172449544	0.00313785301908019	0.000181089814571393	0.00315443426568068	0.0108376907385434	0.00615983670831306
3.5	-0.000480530021737843	-0.0130241660711005	0.000609496395024662	0.0030934964232502	0.000615093958248016	0.00309356316693619	0.0111625731315725	0.00509970721450832
3.6	-0.00303365220231807	-0.0134460086737138	0.001037966492208	0.00297264084231283	0.00104615864453943	0.00297230960221243	0.0113935415839807	0.00415458959360309
3.7	-0.00557780905187895	-0.0134424809472204	0.00144803830830762	0.00279004363475762	0.00143847686356536	0.00280373426375689	0.0116097281261737	0.00312645100655572
3.8	-0.00823978345811449	-0.0129929519258217	0.00182522308331526	0.00256151855770578	0.00182764218394747	0.00257066111890891	0.0115498804318276	0.00209720017890655
3.9	-0.0108448474089081	-0.0119253147608824	0.0021697623426119	0.0022873836865651	0.00216249805016419	0.00228561733440604	0.0113012428205019	0.00131362948868625
4	-0.0131668097174993	-0.0102085827991801	0.00245302809450975	0.00196567005772423	0.00245746990756873	0.00196323066112497	0.0112199042555964	0.000857198910121513
4.1	-0.0149437941628121	-0.00805591973161584	0.00270355744288247	0.00160564046455218	0.00270230696558693	0.00160637733235748	0.0115030496695933	0.000402880015286456
4.2	-0.0162495837172438	-0.00571847061063944	0.00290150069058898	0.00120472698851522	0.00290595189398319	0.00119601421543933	0.011839704534243	-0.000320661307805702
4.3	-0.0172326310313476	-0.00335208776350519	0.00304349829284456	0.000793228497940852	0.00304990656040465	0.000785426964687941	0.0119798886515785	-0.00126601723904561
4.4	-0.0180447130944252	-0.000724677916509701	0.00311912349928425	0.000359886849632086	0.00312149363889955	0.000357630571965714	0.0118461661671697	-0.00208471458074919
4.5	-0.0184092568287052	0.00225602449343941	0.00314149607562556	-7.73401088957077E-05	0.00314684906678614	-8.07140182996131E-05	0.0118040058536658	-0.00273294549500992
4.6	-0.018140148117481	0.00535111833293134	0.00309731689968065	-0.000519488637232861	0.0030985526543019	-0.000506587329157495	0.0118471956554368	-0.00353500815050664
4.7	-0.0171019202782728	0.00831689925694584	0.00299212313790667	-0.000937817652241885	0.00300739118871573	-0.00094743606216075	0.0117433701921415	-0.00453114597683749
4.8	-0.0156076041838938	0.0109185575147801	0.00283108679057633	-0.00135160933041903	0.00283955543994327	-0.00135769930816182	0.0113822542057207	-0.00548269991347772
4.9	-0.013583539841121	0.0132038030718082	0.00261025806257572	-0.00173557512599248	0.00261442358792198	-0.00173267506057809	0.0109565138024143	-0.00616580037231078
5	-0.0110947961613866	0.0150744018673785	0.00235026391756006	-0.00209054626124347	0.0023538854975872	-0.00208788675857511	0.0108971793667846	-0.00667153691007989
5.1	-0.00796770478761164	0.0163818515899041	0.0020390333270332	-0.00240084333682742	0.00204133363366934	-0.0023994887725102	0.0110499701599618	-0.00746983503781174
5.2	-0.00470964587278565	0.0167823834680856	0.00168093484124251	-0.002650182050083	0.00168264099387578	-0.00265532242770565	0.0109797292294704	-0.00849500262016997
5.3	-0.00167154188982423	0.0164469955762799	0.00129375592406798	-0.00286472198090372	0.00129688783210081	-0.0028626651968498	0.0106039226151381	-0.00937551888371331
5.4	0.000978361415868225	0.0157257527171535	0.000868696138731511	-0.0030110063433161	0.000885825927167686	-0.00302222399229476	0.0101995684577739	-0.0101620407382016
5.5	0.00337726370732878	0.0148222966616701	0.000455208998457912	-0.00310743878950387	0.000465234635797546	-0.00311686728558912	0.00975210266381292	-0.0109678673432803
5.6	0.00569658489487282	0.0135791710931871	1.72888046278617E-05	-0.00314201501988569	8.77303407433735E-06	-0.00314521654144051	0.00911712391342678	-0.0117565618425592
5.7	0.00773238961065015	0.0118226831687539	-0.000412656194305541	-0.00311006764010713	-0.000429241353244877	-0.00311369899479089	0.00822630140335317	-0.0124662759305349
5.8	0.00925064700974447	0.00957634146272617	-0.000856902288795541	-0.00301400360281356	-0.000860446843695334	-0.0030279576287336	0.00711535774799752	-0.0131627220978899
5.9	0.00999644075982012	0.00718774938095259	-0.0012598118815176	-0.00287341416889177	-0.00126802236589896	-0.00287332443177808	0.00570976184146833	-0.0135269459849614
6	0.0100835377886198	0.00489035426052644	-0.00165586073850231	-0.00266717404652528	-0.00165230889664815	-0.00266734298905652	0.00428212035593111	-0.0133837211199057
6.1	0.00980789572563815	0.00279411841031487	-0.00200886400810254	-0.00241331138504072	-0.00201049690977696	-0.00240931703919007	0.00336049758304737	-0.012920716159946
6.2	0.00926544030795222	0.000679658301128348	-0.00231982824965267	-0.00210136201698477	-0.00232353019028708	-0.00211319932020645	0.00285988979487017	-0.0127162894165
6.3	0.0083660773232655	-0.0015016733584462	-0.00259619819745165	-0.00176852188132157	-0.00260530163341243	-0.00176279883728443	0.00243094785142382	-0.0128652384280348
6.4	0.00686615726963844	-0.00348586597468229	-0.00282165512667072	-0.00137982080382973	-0.00281195491720523	-0.00138470787021423	0.00202441157307683	-0.0130559760972101
6.5	0.00514533317823354	-0.00497603996356209	-0.00297806373019567	-0.000976796048916924	-0.00298590751874205	-0.0009723298365474	0.00182642588235662	-0.0134218116662467
6.6	0.00340239807052075	-0.0060506947152599	-0.00308664541032797	-0.000553613364785883	-0.00308827204484267	-0.000557582185029618	0.00156528513836836	-0.0141181181256148
6.7	0.00151255662606646	-0.00687007135394371	-0.00313813049092885	-0.000117298316398844	-0.00314697166184407	-0.000111040282733877	0.000673386171294301	-0.0148443589134036
6.8	-0.000739575644805146	-0.0072550475337699	-0.0031178021445312	0.000323153219763251	-0.00312887975268324	0.000328181412932592	-0.000635860716617022	-0.0150626286242509
6.9	-0.00321776215353629	-0.00689149576555486	-0.00304369473027223	0.000755948188337552	-0.00304667919320943	0.000758332087496623	-0.00181900582326278	-0.0147506864964533
7	-0.00544044241468191	-0.00569613496003095	-0.00290816537929185	0.00117650393366258	-0.00292097452550006	0.00117429945084555	-0.00262841195199644	-0.0143188227895561
7.1	-0.00715937269427965	-0.00396668031511247	-0.00273132169476985	0.00156533406192986	-0.00272766929947485	0.00157399157322797	-0.003298894670907	-0.0139436690190198
7.2	-0.00830823085830337	-0.00206579207388871	-0.00247559429962236	0.00193341313482834	-0.00248211748041604	0.00193548515247994	-0.00391482036677224	-0.0136765305487069
7.3	-0.00921234767547994	-0.000238704401035901	-0.0021807378679369	0.00225254958665891	-0.00219194085215882	0.00225759000482264	-0.00460675061097685	-0.0135196314466744
7.4	-0.0100923964233349	0.00168993489914941	-0.0018397494114429	0.00253571106925275	-0.00184663244425823	0.00254929891025242	-0.00556168433097409	-0.0133130600240154
7.5	-0.010812849921402	0.00395656929892554	-0.00147478508093148	0.00277487918265232	-0.00146780587399262	0.00278226970426429	-0.00630551672546112	-0.0129018457846238
7.6	-0.0108993701172052	0.00649708236914093	-0.00106933697762129	0.00295329379025637	-0.00107070694089541	0.00294860226438252	-0.00667720319507418	-0.0126500836992029
7.7	-0.0102390619504005	0.0089597559595881	-0.000641959360612499	0.00307457381306018	-0.000643296832167359	0.00307351270546816	-0.00722282989495259	-0.012879022209024
7.8	-0.0088630624504547	0.0110225780045364	-0.000217377216079683	0.00312384867899997	-0.000225178002941281	0.00313028964274996	-0.00802624389681363	-0.0129174720428588
7.9	-0.00693886680923255	0.0127348974076787	0.000222461367687483	0.00313140372630815	0.000230388663409755	0.00313290804015976	-0.00870648481724907	-0.0125412345707213
8	-0.00446473365136586	0.014151364771672	0.000662943121155306	0.00306015884248138	0.000663018370794022	0.00306505081832606	-0.00922162977114996	-0.0122379475534821
8.1	-0.00139788928582117	0.014892958616698	0.00107233998821414	0.00294371083126264	0.00109145622341474	0.00294482395099259	-0.00966080991635103	-0.0119846280856266
8.2	0.00173054276437479	0.0147408654543232	0.0014762227421114	0.00276453071525329	0.00148546882393862	0.0027573621308501	-0.0102586400258442	-0.0117495715455326
8.3	0.0045247335773889	0.0137962173718294	0.00185239273847593	0.00252750492975888	0.00185072491115703	0.00254103524940819	-0.0109929699120751	-0.0113685269548915
8.4	0.00679217327214873	0.0124941655356593	0.00218848358500779	0.00225188003260618	0.00218545666315704	0.002251649298998	-0.0117303064513736	-0.0107991732203248
8.5	0.00874549194023615	0.0109919478283502	0.00247527798473709	0.00192317752990775	0.00247437437142243	0.0019263569449701	-0.0123583319267646	-0.0100742058298742
8.6	0.0105626518992687	0.00926734824555094	0.0027229417398557	0.00156439914515822	0.0027324528523967	0.00155788250349701	-0.0127907380392943	-0.0094445160845645
8.7	0.0122054075788333	0.00698382912116872	0.00291064918349839	0.00116277461661802	0.00291620714775446	0.00116351061162798	-0.0132834325342543	-0.00900611915810464
8.8	0.0132988295439027	0.00410868468961198	0.00304937602516456	0.000752354637152159	0.00305516637446028	0.000743605293554814	-0.0140944589405259	-0.00860185451510109
8.9	0.0136041454032503	0.000880640644715945	0.00312894562770713	0.000318153710425843	0.00312807897231257	0.000315903355293397	-0.0148345349643048	-0.0077177140787028
9	0.0130973126403863	-0.00233163514752768	0.0031406102130242	-0.000125961122653901	0.00314376181744329	-0.000121850191425715	-0.0151147489572005	-0.00652644203791266
9.1	0.0120682290698858	-0.00541100610958633	0.00309586372058887	-0.000568711737432806	0.00309872893514071	-0.000555796493616649	-0.0149258157854623	-0.00550180205454761
9.2	0.010360867950357	-0.00839182239870724	0.00298724200339284	-0.000987893028650463	0.0029949125312407	-0.000990761671772225	-0.0146823785781657	-0.00478582510857749
9.3	0.00784673192229018	-0.0110467629402139	0.00281897959943689	-0.00139479960561314	0.00281825402904968	-0.00139979689156711	-0.0144573712088745	-0.00406117086866591
9.4	0.00457626446840598	-0.0129494754482906	0.00259640643442387	-0.00178652696319525	0.00260291792201339	-0.00177891402201489	-0.0141520239577576	-0.00331965482898137
9.5	0.000932679928319368	-0.0137969235509117	0.00232085530439448	-0.0021219365936833	0.00232827619244642	-0.00212327927092584	-0.0137266605986921	-0.00271062327516076
9.6	-0.00267807895045412	-0.0137758786300485	0.0020033469258664	-0.00242642244115554	0.00200367635294093	-0.00242543931379607	-0.0134907633921885	-0.00237514015135498
9.7	-0.00615650933526476	-0.0130958651163221	0.00163574489381506	-0.00267754765980702	0.00164128883037	-0.00268485537453002	-0.0135075828841275	-0.00206367661357008
9.8	-0.00962658538613034	-0.0118717524151704	0.00125056700744655	-0.00288686333199342	0.00125626181164399	-0.00287835581601903	-0.0137732645856829	-0.00157075411051512
9.9	-0.0130643764714052	-0.00980885776538274	0.000845270740627125	-0.00302656025526703	0.000837935049882595	-0.0030253399730327	-0.0141293669289628	-0.000716121015169806
10	-0.0161355120015736	-0.00680373203337207	0.000415238995875422	-0.00311646188120134	0.00040776014139684	-0.00312891822123598	-0.0141789985641172	0.000354076893706633
10.1	-0.0183334710020013	-0.00303225202057077	-2.68075734024208E-05	-0.00314885438195357	-3.70506247751087E-05	-0.00314347237115712	-0.0138603755186552	0.00124880846992463
10.2	-0.0195566072366578	0.00100899546167915	-0.000472945710709093	-0.00311317663893296	-0.000476358566006308	-0.00311040117552014	-0.0134516065288358	0.00192622984367989
10.3	-0.0200422897168703	0.00510444135732607	-0.000905785426890171	-0.00300884254085267	-0.000897673559780907	-0.0030179088406595	-0.0130814140117305	0.00254834722367039
10.4	-0.0198880648862309	0.00932484547035821	-0.00130383374411182	-0.00285561312289229	-0.00130212518787637	-0.00286181210021801	-0.0124819176973064	0.00311055659162415
10.5	-0.0189141004311085	0.0138115728499325	-0.00169665396550172	-0.00265822393693093	-0.00169357050072546	-0.0026451999675167	-0.0117045466429292	0.00355459787772641
10.6	-0.0167846819082109	0.0182200943773924	-0.00205116046058025	-0.00238919135653866	-0.00204896320375313	-0.0023930165951624	-0.0109001049118527	0.00364773867658602
10.7	-0.0136023425297711	0.0221526963677972	-0.0023685567730257	-0.00208764465928199	-0.00236506406487712	-0.00208234693981782	-0.0103157055898443	0.00362134207308378
10.8	-0.00965888016236158	0.0253088197638027	-0.00264003583542875	-0.00172729800266504	-0.002634810993579	-0.00173623718228431	-0.00999536184605151	0.00364652243134484
10.9	-0.00527573054244393	0.0277851039594123	-0.00285038060260901	-0.00135213686614173	-0.00285558289683818	-0.00135141021376094	-0.00972893195979665	0.00385916681028125
11	-0.000244942614169297	0.029627441075575	-0.00301142156942615	-0.000933951569188193	-0.00301627356879577	-0.000940715251860698	-0.00923288283448974	0.00415123610632212
11.1	0.00543445657192988	0.0305298715760861	-0.00312113917918941	-0.000506782522469904	-0.00311024919557939	-0.000503908787244568	-0.00856195016544363	0.00417500611405247
11.2	0.0115194258043278	0.0300007042785464	-0.00315101797917721	-6.65683264483954E-05	-0.00315819153740638	-7.14202051559864E-05	-0.00795073043753354	0.00395402531597388
11.3	0.0174541556268006	0.0278591991343877	-0.0031239955883354	0.00038467389419418	-0.00313557364224254	0.000374610308696113	-0.00744288900169218	0.00368539697879505
11.4	0.022505312990047	0.0245513880397303	-0.00304942958209167	0.000814691357137435	-0.00304449724652195	0.000822275394463907	-0.00706722232478329	0.00349304373271571
11.5	0.0267332657228469	0.0204513477003871	-0.00290471486312631	0.0012320028776803	-0.00290749124003015	0.00124230789251892	-0.00671216698220519	0.00319310113757058
11.6	0.0302676936690002	0.0155853455950753	-0.00270863315658328	0.00162347974492657	-0.00270861092469487	0.00162642675926856	-0.00634509774466528	0.00267270356451909
11.7	0.0328951491912223	0.00995955052225642	-0.00244558528684896	0.00197869776994039	-0.0024461397299848	0.00198732127011968	-0.00616175979434951	0.00200110478044933
11.8	0.0342815504611203	0.00379393757902244	-0.00214869366595904	0.00231089568811042	-0.00215281420821159	0.00231260257565992	-0.00619615482469454	0.00155121532173459
11.9	0.0342832174258643	-0.00243184651069361	-0.00179804210647916	0.00258645540300408	-0.00181107825368035	0.00259078548089786	-0.0061763668645266	0.00160590098919839
12	0.0331450988273341	-0.00824318085758286	-0.00142388438747971	0.00280930965125025	-0.00142328591166851	0.0028107228279664	-0.00589502248410025	0.00176573166738339
