# GHZ S RI R 50
0.2	0.00557631643631494	0.0055666697836659	0.00304821587762446	-0.000894712651745511	0.00305857462882593	-0.000887896000421425	-0.0143523419028544	0.00921766833041931
0.3	0.00667979156411997	0.00107892331428448	0.00290548441407357	-0.00131576098861621	0.00289821777004807	-0.00130283952764381	-0.0127764277234973	0.00685189053830531
0.4	0.00571195788632038	-0.00232339047222494	0.0026770431420384	-0.00168576615534948	0.00268233368110138	-0.00169431206074263	-0.0130185663652789	0.00561877000340309
0.5	0.00366509765591828	-0.00422838251544311	0.00242279973003161	-0.00204228016478431	0.00243438955201841	-0.00205448558410045	-0.0139028474468564	0.00572692503340901
0.6	0.00164058905529681	-0.00467430001307556	0.0021153167875012	-0.00235901549317713	0.00211456075990321	-0.00236618074213493	-0.0144840626902063	0.00695823234879702
0.7	0.000251215510239616	-0.00428409885922866	0.00177243934466634	-0.00264165012177323	0.00177047827389909	-0.00264185914570096	-0.0142491656018633	0.00870626755196719
0.8	-0.000320839167329671	-0.00388363742559233	0.00138914358374276	-0.00286606054316558	0.001376507307969	-0.00287069291351381	-0.0131229237800273	0.0102442520791224
0.9	-0.000690347912401721	-0.00393561790225255	0.000971121476339068	-0.00303780087866573	0.000972210685144596	-0.00304856287613945	-0.0116376305040657	0.0109683409366256
1	-0.00143427091325356	-0.00444103481946085	0.000541853199263828	-0.00314905616607332	0.000531916776455294	-0.00314983639252393	-0.0104807370493172	0.0109576761709194
1.1	-0.00299556429585733	-0.0048808231831217	7.83119296218563E-05	-0.00318371388038559	7.48090214763424E-05	-0.00320153166890747	-0.0101697639251058	0.0108431716149514
1.2	-0.00511056866172391	-0.00482041569446656	-0.000373816516356558	-0.00317582117982993	-0.000374636800124431	-0.00317372440832466	-0.010065768637137	0.0112572681128367
1.3	-0.00718874246845726	-0.00416103979205035	-0.00081158015926913	-0.0030911802995101	-0.0008148567836332	-0.00309320011830861	-0.00920817016356503	0.0121287264969509
1.4	-0.008586935055952	-0.00322046746791597	-0.00124256465860834	-0.00293732977185694	-0.00124136097155108	-0.00294292239170889	-0.00771109018289529	0.0124229407734987
1.5	-0.0091487231001145	-0.00174237961384293	-0.00165047781027989	-0.00273251720886736	-0.00164890047007841	-0.00274110370399731	-0.00633868841820566	0.0123973077272332
1.6	-0.00892842366647452	0.00027180662981829	-0.00201405820109145	-0.00246912542470262	-0.00201430951474996	-0.00247439819713208	-0.00559029078039178	0.0128051887901228
1.7	-0.00783742667933079	0.00213613069394986	-0.0023411538063231	-0.00216106116508678	-0.00234207158774218	-0.00215475470962595	-0.00438733140369239	0.0133456163457013
1.8	-0.00629092796194014	0.00352414853240906	-0.00260657172751663	-0.00180009057790376	-0.00261763096333594	-0.00180564899114192	-0.00303903860956187	0.0133952004131235
1.9	-0.00475767302751506	0.00421112670468757	-0.00282352513953697	-0.0014231422543259	-0.00283593125002936	-0.00141686588780348	-0.00206489446457026	0.013091244597943
2	-0.00346173033463683	0.00458608306742346	-0.00298946674983003	-0.00101328943691382	-0.00299904795491163	-0.00100850158056763	-0.00154066470547191	0.0129048246729418
2.1	-0.0022473588910072	0.00485587519270654	-0.00309386948733197	-0.000586903920021635	-0.00308980717316039	-0.000588921261241989	-0.00102211306263145	0.0129927227111984
2.2	-0.000886396881679031	0.00509526586052561	-0.00314462497681723	-0.000153969662781479	-0.0031559137849778	-0.000156736488926959	-0.000106950146798742	0.0132432009014894
2.3	0.000730563871266705	0.00488566248710388	-0.00313698415578523	0.000282332762962356	-0.00313670742677116	0.000275469598369768	0.00112752409187105	0.0131583719768019
2.4	0.00230438158563368	0.00410462080260382	-0.00306551047976486	0.00071378968143427	-0.00306805249547833	0.000709548295920431	0.00237626940730268	0.0126402307982287
2.5	0.00346282575241008	0.0027490668017698	-0.00293270577958972	0.00112133531019957	-0.00294357520907648	0.00112770771034503	0.00331179089078925	0.0117459323810424
2.6	0.00411793182429437	0.00124306818804456	-0.00276473615520912	0.00152308929599016	-0.00276116989057078	0.00151077077425701	0.0038738009980188	0.0108755108965959
2.7	0.00452245061511339	-0.000186733317721933	-0.00252453402329334	0.0018970930420756	-0.00252982345884675	0.00189709774213901	0.0042176508887175	0.0102173306070311
2.8	0.00490780493380151	-0.0017034934592983	-0.00224512535541026	0.00223054917435943	-0.00223729075518699	0.00224038271384081	0.00458385153629754	0.00978853348412421
2.9	0.0051304597582671	-0.00351669130755148	-0.00191054649206903	0.00253867298403102	-0.00190681666987364	0.00253824307556363	0.005151679284592	0.00945818099704066
3	0.00484279110425844	-0.00548904691324807	-0.00151949577321716	0.00278185982405932	-0.00153437019932532	0.00278802962120683	0.00579231435024164	0.00917043091192957
3.1	0.00411388732725191	-0.00729892366016881	-0.00112056580116213	0.00296459761536511	-0.00111583787000602	0.00297298860092078	0.00641762138227045	0.00892615832694886
3.2	0.0029714431333044	-0.00892530084883851	-0.000688376490897611	0.00310344564785172	-0.000690139411473509	0.00310284136940406	0.0070510894655672	0.00878028026985516
3.3	0.00154985816159823	-0.0104799191437398	-0.000237364865199993	0.00316971027322316	-0.000235737671189333	0.00316592602923288	0.00797940741033217	0.00839174160953214
3.4	-0.000338407495575387	-0.0118054113356668	0.000220506694083405	0.00315459508599683	0.000214455286239862	0.00317133823446322	0.00887687924763301	0.00753741961996933
3.5	-0.00266855813875648	-0.0128360812316076	0.000649808074367885	0.00309855503466266	0.00065542909990513	0.00309855356771719	0.00931689839187399	0.006336179343426
3.6	-0.00532421743655281	-0.0131831860022942	0.00108023954982475	0.00296305469523251	0.00108843988152992	0.00296261088112428	0.00945035680200898	0.00547522107795141
3.7	-0.00795502817382014	-0.0128368348990274	0.00148628450553604	0.00276541291343767	0.0014769332323924	0.0027792228292312	0.00973432750266895	0.00477926804172448
3.8	-0.010339785602046	-0.0119454664608124	0.00185376950055477	0.00252403389825986	0.00185630866870658	0.00253310126483276	0.0101207198630875	0.00397124571167439
3.9	-0.0123687449094008	-0.0107511759970499	0.00218410227661166	0.00224141046449806	0.00217686854203649	0.00223975414096841	0.0103721104462707	0.00295733352247095
4	-0.0142351809318319	-0.00932477369403189	0.00245085978671226	0.00191750986609508	0.00245522854107281	0.00191504396351444	0.0103915788585331	0.00201468688357621
4.1	-0.0159264927092264	-0.00754142082941872	0.00268512595747777	0.00156170866470592	0.00268389734976979	0.00156244784037921	0.0104074474658415	0.00130765195335276
4.2	-0.0173022603023346	-0.00533752541898122	0.00286985477389705	0.00117101219529977	0.00287419355162631	0.00116238940825195	0.0105581194860397	0.000690560249240683
4.3	-0.0181677262164276	-0.00297280232211443	0.00300397812229494	0.000773578217833386	0.00301027593001306	0.000765865402739948	0.0108423816115269	-0.000179992601039592
4.4	-0.0187167874548713	-0.000533531717582734	0.00307815226836081	0.000355704988970901	0.00308049171159078	0.000353478712716113	0.010888159271289	-0.0012269708319742
4.5	-0.0189763288878507	0.00199218241436196	0.00310512130534568	-6.76005712361051E-05	0.00311042143708521	-7.09201203345628E-05	0.0107000101688557	-0.00226045636711892
4.6	-0.0189655522988402	0.00465176340610143	0.00307034453391746	-0.000499681894484169	0.00307150661625099	-0.000486897388947308	0.0103146881858255	-0.00316243061413235
4.7	-0.0183773156337129	0.00748586281641971	0.00297688283734314	-0.000913462803551571	0.00299210191518055	-0.000922923295256484	0.00985151788135836	-0.00392634020702283
4.8	-0.0171368067967544	0.0102575570662111	0.00282736880449235	-0.00132821265303072	0.00283583906315794	-0.00133422387805684	0.00951475696172688	-0.00458294229131612
4.9	-0.0151534751153369	0.0126509995484538	0.00261538486570044	-0.00171791196239081	0.00261952683373846	-0.00171499367698413	0.00918376145388828	-0.00522667643536229
5	-0.0127455200357694	0.0144549082447299	0.00235985381276226	-0.00208143445487304	0.00236346552513552	-0.00207875883714015	0.00900214491373735	-0.00579345705427424
5.1	-0.00989525096451721	0.0157935120575918	0.0020479655187333	-0.00240079931594641	0.00205026708347922	-0.00239943728683038	0.00892961433423139	-0.00638848104232986
5.2	-0.00682730070910249	0.0165339835078133	0.0016845297381359	-0.00265721604463039	0.00168623896822038	-0.00266236970321745	0.00894327431812958	-0.00700566576564902
5.3	-0.00358682305019962	0.016601248148944	0.00128882172100032	-0.00287493590208575	0.00129196657367748	-0.00287288302519885	0.00899295126493655	-0.00771866192854649
5.4	-0.000493443272880457	0.0159362347455735	0.000854230162807411	-0.00301922731684642	0.00087132329823529	-0.00303054731666087	0.00890530708817134	-0.00876463963300175
5.5	0.00215408725909322	0.0147159768866862	0.000432701441793517	-0.00310867971499527	0.000442653187424737	-0.00311817376888835	0.00833260856897455	-0.00989921450666229
5.6	0.00430603018468209	0.0131554641368755	-9.41773287018215E-06	-0.00313209242798991	-1.79333688527476E-05	-0.00313521145745013	0.00732489888491885	-0.0106413159192814
5.7	0.00601647343870884	0.0114292914392073	-0.000438006823931156	-0.00308705980628825	-0.000454521628482205	-0.00309051977382756	0.00634641885593954	-0.0109176050140421
5.8	0.0074040445998971	0.00955496247480834	-0.000874435763136634	-0.00297840701371131	-0.000878065465381834	-0.00299219982520503	0.0055833733723348	-0.0112208212558936
5.9	0.00844252407722416	0.00749128269609631	-0.00126418612608617	-0.00282882775243079	-0.00127229372089372	-0.00282868179814138	0.00475113585334003	-0.0116500424126828
6	0.00898894699338534	0.00514226391800071	-0.00164296995273211	-0.00261954798024101	-0.00163947234488248	-0.00261973040939453	0.00362427488461481	-0.0119927453868875
6.1	0.0089499754563705	0.00270583923006313	-0.00197796063471172	-0.00237006341571102	-0.00197956098683987	-0.00236613446590396	0.00255603165811028	-0.0119710293376352
6.2	0.00837021079021519	0.000340588851654844	-0.00227346572166382	-0.00207005546467652	-0.00227707220362758	-0.00208169270610183	0.00181183542811693	-0.0118639066167197
6.3	0.00749522191290191	-0.00188636617322616	-0.00253969019489198	-0.0017546074470483	-0.00254867259705803	-0.00174904262648307	0.00135971494150384	-0.0120089479048962
6.4	0.00613203256788451	-0.00406227246717211	-0.00276279088079093	-0.00138662332934848	-0.00275319500943547	-0.0013913340355771	0.000826095629238637	-0.0124195141060349
6.5	0.00428393756150831	-0.00596561833196209	-0.00292515729440514	-0.00100335308651367	-0.00293295544024238	-0.000999051136010421	0.000133108526141978	-0.0128540023662082
6.6	0.00202774585496868	-0.00723705995125672	-0.00304670935544395	-0.00059609030140925	-0.00304825765195877	-0.000600044207014599	-0.000565574940338728	-0.0131064299788735
6.7	-0.00031631028363747	-0.00778558195753607	-0.00311595855373552	-0.000169256028896312	-0.0031248479292735	-0.000163186790724466	-0.00133761761670796	-0.0132270001811813
6.8	-0.00258712606471794	-0.00775080528420981	-0.00311505061763689	0.000269625115018708	-0.00312618400464358	0.000274452903152128	-0.00214296599586266	-0.0132510775670089
6.9	-0.00480111718216873	-0.00721455918154417	-0.00305854857773978	0.000708180767410515	-0.00306157376259794	0.000710519348807883	-0.00305325989198815	-0.0131648391216196
7	-0.00687323931763088	-0.00627010846806581	-0.00293614273590307	0.00114038292532389	-0.00294897156479137	0.00113799017551164	-0.00400133898589193	-0.0130519270271807
7.1	-0.00887569873092862	-0.00481282116169261	-0.00276606982978371	0.00154391354208695	-0.00276249343997622	0.00155266627997505	-0.00505645628155584	-0.0125799395530976
7.2	-0.0105719679405688	-0.00276929612974398	-0.00251020509125486	0.00192732719340104	-0.00251679435675441	0.00192936053153807	-0.00577488161224666	-0.0117798143941215
7.3	-0.0118010515653138	-0.000304223450626915	-0.00220905994729	0.00225897700011372	-0.00222037535130986	0.00226399977746993	-0.00597891526629709	-0.0111194409328344
7.4	-0.0123489121618729	0.00252627176679007	-0.00185759804745153	0.00254978959524358	-0.0018645559459481	0.00256345874601798	-0.00622626438132446	-0.0107345815262657
7.5	-0.012296620137125	0.00514979476146388	-0.00148068117624635	0.00279041018845125	-0.00147366046718537	0.00279783484689447	-0.00639545300032349	-0.010877209884859
7.6	-0.0119271263661047	0.00738639119020875	-0.00106467446052716	0.00296401136434562	-0.00106606012523694	0.00295931066086172	-0.00673987798257993	-0.0116257897058394
7.7	-0.0106892331665517	0.00953496427044285	-0.000631043416324669	0.00307567203015166	-0.000632384081399361	0.00307461595888306	-0.00737512506920095	-0.0119879212234807
7.8	-0.00899705407856772	0.0112669645343895	-0.000206380148692301	0.00311313017421652	-0.000214131362069634	0.00311957304975318	-0.00830409930271862	-0.0124092171013859
7.9	0.29098318589835	-0.117080966811928	0.000845696093387701	0.00261444250425561	0.000832501800290424	0.00251755733709592	0.432424977379573	0.231177502801033
8	-0.00463463145455819	0.0129895307584113	0.000654904021488468	0.00303186000468091	0.000654975651334801	0.00303670615545063	-0.0108809904649286	-0.0124276504339395
8.1	-0.00200425051199031	0.0130817577142102	0.00104887451831642	0.0029153673412867	0.00106777486279338	0.00291654348129827	-0.0117459890332336	-0.0114353002974376
8.2	0.000320619675294941	0.0130078772067371	0.0014374592696257	0.00274408508370107	0.00144665445841715	0.0027370719857269	-0.0124233559031779	-0.0105110726291097
8.3	0.00270984037486572	0.0125122755640489	0.00180242743397986	0.00252220557291041	0.00180061711821643	0.00253557012431566	-0.0128049359411998	-0.00977185198106204
8.4	0.00501721625986155	0.0115479800231774	0.00213437494507172	0.00226634670270561	0.00213137796574093	0.00226607085485955	-0.0132683814554437	-0.00931167228330402
8.5	0.00707379547570125	0.010025307639101	0.00242599820362711	0.00195851772569995	0.00242504058442143	0.00196166290143971	-0.0140380125902299	-0.00878712796262728
8.6	0.00868773407583216	0.0081529172916137	0.00268691518601123	0.00161787101654033	0.0026965458208497	0.00161155870115416	-0.0148364888592776	-0.00799072792720056
8.7	0.00989639430180067	0.0060297034800472	0.00289480169861987	0.00122786084089251	0.00290036081001241	0.00122871665431709	-0.0154434823719111	-0.00702779057901144
8.8	0.0107438108639327	0.00369155534061278	0.00305681929712086	0.000820658070194381	0.00306283289874923	0.000811961987345538	-0.0158575345610064	-0.00618445394081291
8.9	0.0112950610051277	0.00101654131364833	0.00315948170024004	0.00038040593705367	0.0031586470419563	0.000378113124088596	-0.0160505565066716	-0.00534863899462451
9	0.0112808160362369	-0.00205112402849552	0.00319012637970091	-7.81757659966287E-05	0.00319326062965308	-7.39527635171443E-05	-0.016104044115209	-0.00453440720770446
9.1	0.0106359960180174	-0.00531365139595687	0.00315743965487366	-0.000541187752946892	0.00316019874652719	-0.000528009649676068	-0.0159217008174571	-0.00374747511055311
9.2	0.00901167011178103	-0.00843586650355977	0.00305204791681508	-0.000982968795452272	0.00305988749097576	-0.000985831122962274	-0.0157064679084841	-0.00311052889246703
9.3	0.00667610827457792	-0.0111161309348825	0.00287830964684707	-0.00141146681472384	0.00287758817349372	-0.00141656295954707	-0.015407841379683	-0.00256853907506125
9.4	0.00368035803932377	-0.0131471404007735	0.00264281238902896	-0.00182047424458716	0.00264944663150919	-0.00181272590708694	-0.0152074264941392	-0.00203485772001214
9.5	0.00010511374005456	-0.0145748455570078	0.00234944653125612	-0.0021657104496114	0.00235698136092118	-0.00216710545773953	-0.0153001031934651	-0.00166533949816281
9.6	-0.00382740257927225	-0.0149381245228165	0.00201277026866912	-0.00247188424436304	0.00201311076754235	-0.00247089055832282	-0.0154967405613389	-0.000998841458657662
9.7	-0.00780798286835803	-0.0142168964114932	0.00162822888798831	-0.00271654102425216	0.00163376241267452	-0.00272396436277475	-0.0155197182599845	-0.000120209771042461
9.8	-0.0115072490912205	-0.0125612849349767	0.00123172603832673	-0.00291355153092456	0.00123752705271732	-0.0029050485415819	-0.0153637110475683	0.00070126570576811
9.9	-0.0146645514164976	-0.0101512610648586	0.000822785658378629	-0.00303812335307495	0.000815447706467006	-0.00303684327856353	-0.0152521196781886	0.00137843666891905
10	-0.0173568632491734	-0.00715351521391594	0.000396993019274596	-0.0031139570357103	0.000389455458111418	-0.00312635175551216	-0.0152508323535578	0.00215305289966036
10.1	-0.0194384764449408	-0.00363602462160422	-3.43600168089953E-05	-0.00313707751543626	-4.45518915181494E-05	-0.00313169063035918	-0.0150763003607128	0.0030058568640195
10.2	-0.0208037457107085	0.000336737933066027	-0.000466501376252307	-0.00309959350922568	-0.000469902445257623	-0.00309683542969048	-0.0145930802893372	0.00384726280019782
10.3	-0.0212835204884659	0.00463791255235063	-0.000886278148748995	-0.00300165573733055	-0.00087815064614295	-0.00301064308305497	-0.013895814543353	0.00439829466770536
10.4	-0.0207909232227721	0.00894477033627594	-0.00127612710921083	-0.00286141043140392	-0.00127436742120402	-0.00286758207016352	-0.0131720504130399	0.00450573039065223
10.5	-0.01950647335566	0.0131016339952351	-0.00166822800601205	-0.00268082958341042	-0.00166529005170623	-0.00266775475857071	-0.01276498903493	0.00451411490807762
10.6	-0.0174827087590661	0.017027273446423	-0.0020309305046942	-0.00242811618948401	-0.00202867238719439	-0.00243193289421546	-0.0125317981862855	0.00460680385603135
10.7	-0.0147105367994882	0.0207783610376395	-0.00236406318364933	-0.00213850525568941	-0.00236060600982896	-0.00213311126724643	-0.0122592982499881	0.00488562492177251
10.8	-0.0111374691357366	0.0241590318076058	-0.00265653451509737	-0.0017823097393979	-0.00265113208822509	-0.00179131209962633	-0.0120832044435307	0.00498101104238781
10.9	-0.00658382633530846	0.0267988160227089	-0.002888684672304	-0.00140213641347259	-0.00289398599511536	-0.00140144427510187	-0.0119586201543074	0.00528110597989232
11	-0.00141046446792238	0.0284352164651619	-0.00306889714142226	-0.000969623239326407	-0.00307381331444553	-0.0009765535841844	-0.0118627261468197	0.00573523775639331
11.1	0.00404296341057423	0.0289832805245914	-0.00319135034899727	-0.000521057523861589	-0.00318021638326403	-0.000518108951523897	-0.0115597183758789	0.00633435293135359
11.2	0.00958735615788189	0.0284195075896676	-0.00322445400860197	-5.53461667515846E-05	-0.00323181379578597	-6.02816384293156E-05	-0.0108578505318087	0.00694305521536381
11.3	0.725795883061943	0.197918072405611	-0.0111815324168973	-0.0113944863177174	-0.0114312333156322	-0.00848479549871948	0.410913770089133	2.92908628214279
11.4	4.18303575730972	6.55743525393759	0.00304487225185589	-0.0243620331176612	0.00210370982937221	-0.0235371112037049	-0.576934495916234	0.560152480341254
11.5	9.09735021091303	-3.07507734122698	0.038101659703229	-0.0251628181212727	0.0375478750369309	-0.0256947217799683	-0.22523982006608	-2.25668569257578
11.6	0.0282053192379444	0.0148469130731796	-0.00270929665197665	0.00169983242267727	-0.0027092133416385	0.00170281614094239	-0.0070003778270932	0.00585069994829343
11.7	0.030784686749898	0.00950173063477686	-0.00242016861747887	0.00204827621362607	-0.0024205351894554	0.00205697786968452	-0.00634558820392032	0.00524507825445316
11.8	0.0323484121491112	0.00379179966310477	-0.00210201056569117	0.00236465071069496	-0.00210610271134596	0.00236645413996858	-0.0057710850621535	0.00434331963516783
11.9	0.032781306527057	-0.00217152952097543	-0.00173894855526731	0.00261781926522538	-0.00175186037880506	0.00262241326454897	-0.00568868753084925	0.00329559200251684
12	0.0324011378776771	-0.0083655144271294	-0.00136264378688984	0.00281598487242498	-0.00136202357683491	0.00281737734484425	-0.005708608383522	0.00278741538177744
