# GHZ S RI R 50
0.2	0.00605835975781007	-0.000594497226557171	0.00304833650235285	-0.000899362363858373	0.00305870940138629	-0.000892557091227208	-0.0138627384039623	0.00309742777705447
0.3	0.00603176728282292	-0.00148455262215435	0.00290340316068364	-0.00132375238033998	0.00289616629537563	-0.00131080670329039	-0.0134070396157711	0.0043466104443696
0.4	0.00608609176247046	-0.00238144601908011	0.00267039875630195	-0.00169618681943745	0.00267565579441689	-0.00170475320391236	-0.0126135865502228	0.00563703335614788
0.5	0.00596884071307667	-0.00354423792598578	0.00240961306568903	-0.00205287415213697	0.00242112704726195	-0.00206512774752542	-0.0115472002467009	0.00650672474154868
0.6	0.00542798572218345	-0.00487703860800748	0.0020949946714901	-0.00236631752336905	0.00209419534482097	-0.00237345961246155	-0.010609872093093	0.00686760553230089
0.7	0.0042144326244322	-0.00608278828740364	0.0017461019983872	-0.00264195604116514	0.00174414836888247	-0.00264215053011764	-0.0101467433551813	0.00701974844035662
0.8	0.00253428043421057	-0.00681342713375324	0.00135985083933519	-0.00285633377580239	0.00134726781100972	-0.00286084708343663	-0.0100697483512439	0.00739100716404447
0.9	0.00059592961999268	-0.00677543791211624	0.000943258440439511	-0.00301640646587617	0.000944270217214177	-0.0030270779063937	-0.0101221831816964	0.0081275568754879
1	-0.00109103365280462	-0.00606088184965917	0.00052033058070301	-0.00311651129189178	0.000510501413691765	-0.00311723399843636	-0.00994444780521293	0.00924433886685258
1.1	-0.00232166283692774	-0.00502999329498182	6.80655556810843E-05	-0.00314282430152207	6.45562025434476E-05	-0.00316040181759842	-0.00941731269656859	0.0105573117839187
1.2	-0.00316208992384749	-0.00427256010773912	-0.000369852808492552	-0.00313102317942936	-0.000370660707980924	-0.00312895555096661	-0.00819438282512826	0.0116916860832387
1.3	-0.00417548479792029	-0.00396150339062657	-0.000792484371371047	-0.00304834746897873	-0.000795708750883992	-0.00305034582485902	-0.00638810848031776	0.01231552737198
1.4	-0.00527964297414511	-0.00354882370214388	-0.00120968465642106	-0.00290235571588995	-0.00120846875351099	-0.00290786310429122	-0.00461790280992622	0.0121046368553938
1.5	-0.00577680237229082	-0.00263462544453587	-0.00160753058868623	-0.00271011209710836	-0.00160590597384675	-0.00271857484203662	-0.00322168550024942	0.0115275697885753
1.6	-0.00578338458218247	-0.00145888571130053	-0.00196671004879924	-0.00246213819462174	-0.00196690516908342	-0.00246735502840546	-0.00261736183980747	0.0111693696805186
1.7	-0.00548107006966226	-0.000218163895162676	-0.00229551018005851	-0.00216980913932201	-0.00229649401242842	-0.00216356809516073	-0.00215671453649599	0.0111256143574383
1.8	-0.00492458286808153	0.00120377982775005	-0.00256860706419681	-0.00182217142323127	-0.00257953130664123	-0.00182783578954694	-0.00173183903260779	0.0112354088286654
1.9	-0.00392076260445809	0.00248277793464235	-0.00279708766703589	-0.00145402708348883	-0.00280953405535183	-0.00144792488617264	-0.00126281985819583	0.0114972451702252
2	-0.00253779227806916	0.00343126381996291	-0.0029764028826783	-0.00104738201920812	-0.00298603508865538	-0.00104270706522898	-0.000658863970506664	0.0118744340610775
2.1	-0.000957550499711936	0.00380590397268788	-0.00309322441055924	-0.000618379770470592	-0.00308913545869459	-0.000620360415920129	0.000223295352093549	0.012085146904452
2.2	0.00050096497197133	0.00371776737046223	-0.00315298975093388	-0.000178278073948545	-0.00316429180105476	-0.000181138875698874	0.00126957640853361	0.0120273077228925
2.3	0.00170944773304124	0.00323441949674582	-0.00314933407579298	0.000267575676424363	-0.00314902194366392	0.000260689980568636	0.00215088252183284	0.0116470559539278
2.4	0.00267925965591845	0.00265937563062528	-0.00307639838699506	0.000708231728343326	-0.00307893732738237	0.000703971385794409	0.0028329372558897	0.0112959070281699
2.5	0.00358871828842686	0.00196228440048786	-0.00293759364595471	0.00112199819858065	-0.00294848198648781	0.00112837644556656	0.0035001012001152	0.0109816695421037
2.6	0.00452109227992611	0.00101930859499216	-0.00276126414206454	0.00152515543838291	-0.00275771378757085	0.0015128409565491	0.00428018765227111	0.0106479731092061
2.7	0.00534149044329402	-0.000253070919236962	-0.00251306115076998	0.00189506322450146	-0.00251833317331403	0.001895076735718	0.00499972979082244	0.0101650516517266
2.8	0.00594585285939668	-0.00177623458579845	-0.00222871981873195	0.00221972742194001	-0.00222092083764637	0.00222949148193918	0.0055714794784642	0.00973344275264558
2.9	0.0063591727596392	-0.00347117750638141	-0.00189449615004652	0.00251616407845762	-0.00189079867407185	0.00251573874364626	0.00628375221189152	0.00947596709555755
3	0.00645983544084404	-0.00538821869561931	-0.00151024772502988	0.00274787566624308	-0.00152497730429424	0.00275394042216942	0.00720664783367096	0.00923787323259108
3.1	0.00616523193483748	-0.00749900175952818	-0.00112375487498559	0.00292216909581663	-0.00111913208306051	0.00293048481859651	0.00818320748552355	0.00877489672994357
3.2	0.00515533706460103	-0.00962753422133085	-0.000708402769597574	0.00305815525086247	-0.000710137993411455	0.00305754227160494	0.00891411751543721	0.00820561654527379
3.3	0.00355073344401571	-0.0115631653080147	-0.000275617001427061	0.0031290706403926	-0.000273960064651474	0.00312535232484237	0.00963683361977058	0.00750047088945964
3.4	0.00142847869960243	-0.0129883241335563	0.000166156445527104	0.00312653748081171	0.000159889145760867	0.00314301236227131	0.0102579814962559	0.00661114818125899
3.5	-0.000917109897128125	-0.0139905474123204	0.000584339204413711	0.00308900553253022	0.000589919807456806	0.00308911435871542	0.0106088973318929	0.00556378775171396
3.6	-0.00350659869851271	-0.014531489218337	0.0010116007906858	0.00297650440104085	0.00101978257218498	0.00297624176912855	0.0108209519244596	0.0046831448414678
3.7	-0.00625169523461513	-0.0145549171462078	0.0014236805008829	0.00280238234012532	0.00141400095954041	0.00281598874836546	0.0110969678992835	0.00381042944801082
3.8	-0.00908136777879316	-0.0139148216813284	0.00180581113378742	0.00258110956394503	0.00180815484243577	0.00259028666100702	0.0112383561571054	0.00286199100163425
3.9	-0.0116177738679117	-0.0125955916638735	0.00215756136335678	0.00231197043671446	0.00215028975667285	0.00231013941219526	0.0111881355317807	0.00196968917675624
4	-0.0137180680932217	-0.0108168391364442	0.00244919369150694	0.0019920957377907	0.00245367249013758	0.00198967836707811	0.0111351675546253	0.00131768482368228
4.1	-0.0153795353237239	-0.00879374801138852	0.00270800336855136	0.00163084055461818	0.00270674170820209	0.00163157361997782	0.0113134174481468	0.000773557677924746
4.2	-0.0167570546369739	-0.00654044248063523	0.00291290006304328	0.0012258548296801	0.00291741965328296	0.00121711184351143	0.0115944758195676	8.90022258409789E-05
4.3	-0.017806960812371	-0.00407141858529992	0.00305946055815579	0.000808413289597561	0.00306593456252374	0.000800585679036211	0.0117969270768799	-0.000835089108375855
4.4	-0.018488305149765	-0.00129405403458578	0.00313679183678423	0.00036833229146735	0.00313918053007943	0.000366067509803382	0.0117138962322063	-0.00177472168163706
4.5	-0.0185877513437095	0.00165433318291551	0.00315815080734452	-7.5059614737147E-05	0.00316353495256106	-7.84467581608037E-05	0.0115654416355336	-0.00258196370608215
4.6	-0.0181578791724539	0.00450470853014493	0.00311080780747537	-0.000521775158905769	0.00311204904260967	-0.000508817649974381	0.0113758444935057	-0.00340533270408933
4.7	-0.0171872056149689	0.00721682118335373	0.00300135819095922	-0.000942310198441209	0.00301667101565243	-0.000951967186047616	0.0111209114868476	-0.00424909690583054
4.8	-0.0158565123779628	0.00973219000998101	0.00283620096654306	-0.00135590244426606	0.00284468382380825	-0.00136200948208544	0.0107515127379432	-0.00505351926799816
4.9	-0.01386539308379	0.0120393349381591	0.00261251609391892	-0.00173763382169803	0.00261668606214333	-0.00173473157878642	0.010363541733273	-0.005697094297615
5	-0.0113381661975255	0.0138137755220214	0.0023517719907551	-0.0020892513468236	0.00235539221178194	-0.00208658935111832	0.0102317443416676	-0.00616836644633236
5.1	-0.00834132389495047	0.0149378846953848	0.0020421923230787	-0.00239628974422922	0.00204448928539384	-0.00239493188201839	0.0103154256616763	-0.00677979983406783
5.2	-0.00538885077750344	0.015343210271598	0.00168779570716855	-0.0026437317056013	0.00168951604507777	-0.00264886415230459	0.0103778611056102	-0.00757447411415463
5.3	-0.0025318530002674	0.0152799554997389	0.00130557952414839	-0.00285865096056661	0.00130870208221188	-0.00285658138636512	0.0102721998683182	-0.00843341558670114
5.4	0.000249129478185755	0.0148259176565597	0.000885400453381156	-0.0030081378774575	0.000902600784486842	-0.0030192701601011	0.0100026042890753	-0.00941909730000126
5.5	0.00290112768512391	0.0139108183413147	0.000475488976183103	-0.00311021272763464	0.000485591791775196	-0.00311959551623541	0.00944163990653109	-0.0103909468465401
5.6	0.00527442292036736	0.0124405732040322	3.85868033303252E-05	-0.00315234766862759	3.00643543078459E-05	-0.00315561740559057	0.00863063522550852	-0.0111096808872042
5.7	0.00707995009181604	0.0105866402873389	-0.000393621606854261	-0.00312846560062242	-0.000410265303091438	-0.00313222771043384	0.00775615778284375	-0.0115821345604218
5.8	0.00835897004753521	0.00853436850325941	-0.000843671021882265	-0.00303964301600724	-0.000847151481027383	-0.00305371308311946	0.00691043930012442	-0.0121752248392983
5.9	0.00914948872379517	0.00652609852643459	-0.00125495205369322	-0.00290387010459213	-0.00126323090193934	-0.00290382327615788	0.00577501541622047	-0.0127282491721789
6	0.00959309593875772	0.00445443831375832	-0.00166121756430568	-0.00269904705937591	-0.00165763122952003	-0.00269920374017085	0.00435655003706802	-0.0129379152148645
6.1	0.00969879166647857	0.00225212363479127	-0.00202445244086951	-0.00244271146402673	-0.00202611096581066	-0.00243867923868911	0.00318563888875749	-0.0126964976620782
6.2	0.00930491226864751	-0.000113507149346218	-0.00234417989416798	-0.00212451210487532	-0.00234791850169578	-0.00213647739506787	0.00243683815196343	-0.0124869554807862
6.3	0.00840369919542519	-0.00243019877671762	-0.00262662400910419	-0.00178280544047068	-0.00263581392043612	-0.00177700650379498	0.00186301692635525	-0.0126111719529904
6.4	0.0070586895547185	-0.00456088192871518	-0.00285440050433002	-0.00138351591297652	-0.00284462165202567	-0.001388485448159	0.00128555747138768	-0.0128526162621878
6.5	0.00542760791110841	-0.00644473418555289	-0.0030090633990964	-0.00097022094852502	-0.00301695310664935	-0.000965675866652284	0.00077604202972635	-0.0130889482875432
6.6	0.00339333783078766	-0.00793914408663777	-0.00311248679992036	-0.000538402127319025	-0.00311414995809129	-0.000542389607492199	0.000368167473522711	-0.0133620792294001
6.7	0.000983769705848765	-0.00879913073480226	-0.00315635414290377	-9.63122137752584E-05	-0.00316520122902167	-8.99584925911711E-05	-0.000300091170956331	-0.01368813028108
6.8	-0.00156627918370964	-0.00884069803885162	-0.00312734093191623	0.000346291171914144	-0.00313842516031415	0.000351416272064739	-0.00124182076419808	-0.0138454947567181
6.9	-0.00391878610063226	-0.0081841886459297	-0.00304518632098464	0.000777773224261357	-0.00304816134033022	0.000780182037491731	-0.00225389524366154	-0.0137654535426471
7	-0.00586502373201041	-0.00701141723380753	-0.00290357644441068	0.00119422375443338	-0.00291640810714285	0.00119209168886612	-0.00323107344579594	-0.0134427586427452
7.1	-0.00755732190611104	-0.00560530334756145	-0.00272359131111738	0.00157751714895371	-0.00271990002891052	0.0015861561518968	-0.00409294860219329	-0.0128448903660895
7.2	-0.00908877515108793	-0.00392548621283497	-0.00246779366204686	0.00193995842344799	-0.00247430587201981	0.00194204972704638	-0.0045733156649373	-0.0121684117622631
7.3	-0.0105033081209597	-0.00185550571049813	-0.00217551716450502	0.00225497013333702	-0.00218670465025096	0.00226002692847756	-0.00475939820363439	-0.0118077294663379
7.4	-0.0115840306656484	0.000613046170078837	-0.00183858937161058	0.00253650552215651	-0.0018454662245227	0.00255009628542884	-0.00509012938936637	-0.0119503051734189
7.5	-0.0120171380495657	0.00343291287032868	-0.0014777603322403	0.0027769542774028	-0.00147077784300637	0.00278435606446142	-0.00563503767327067	-0.0121101200499786
7.6	-0.0115052738633122	0.00630238656264035	-0.00107502771385	0.00295922557472724	-0.00107639597897798	0.00295452137110699	-0.00628565319561859	-0.0120953638330152
7.7	-0.0106564490500048	0.00870689086036134	-0.000647719879907787	0.00308592754193599	-0.000649061464427432	0.00308486086879215	-0.00703647799154311	-0.0127195237440847
7.8	-0.00893961680091975	0.0107940568646258	-0.00022011819731118	0.00314066621339352	-0.000227964475060174	0.00314713817352386	-0.00810818967572216	-0.0129664409288348
7.9	-0.00666362480821465	0.0123637848390391	0.000225773304864892	0.00315235798493132	0.000233754845056743	0.00315386783443799	-0.00930049838599177	-0.0128919471004443
8	-0.00362126123017806	0.0131378129445652	0.000674521924828448	0.00308230159463814	0.0006746081089767	0.00308723105202212	-0.0103429952629325	-0.0121183198046948
8.1	-0.000794521558217847	0.0132327358879233	0.00109280874523888	0.00296353361934085	0.00111208579810194	0.00296457989513122	-0.0112204180598236	-0.0114075901896871
8.2	0.00185492045779784	0.0127187277027386	0.00150474741917998	0.00277807989962448	0.00151402544613505	0.00277079783778657	-0.0116886935795689	-0.0105707816792259
8.3	0.00427270208686425	0.0118511550791683	0.00188635126713988	0.00253147246281826	0.00188477919008415	0.00254511660461651	-0.0120626173602052	-0.00995092794349551
8.4	0.00652372491792101	0.0107104789693862	0.00222408263165444	0.00224438497199679	0.00222103471534194	0.00224418245430671	-0.0126160172001049	-0.00945445929585982
8.5	0.00863045473170602	0.00908382024561268	0.00250795089628307	0.00190395608108795	0.002507078973263	0.00190715985843919	-0.0133652179012189	-0.00874013542216076
8.6	0.0103536904859672	0.00696357590718028	0.00274852037685788	0.00153492274731592	0.00275797470940146	0.00152827455176625	-0.0139350826812609	-0.00779102430342187
8.7	0.0115145226147072	0.00440752237123324	0.00292554956338127	0.00112627577347029	0.00293111731073605	0.00112694193244367	-0.0141825437390806	-0.00688363387970762
8.8	0.0120066840205326	0.00175580442243005	0.00305187380203927	0.00071307190233511	0.00305754336398135	0.000704270600649601	-0.014404075376579	-0.00627873823946645
8.9	0.0120923112477508	-0.00090137250591826	0.0031189050103644	0.000280842677289448	0.00311801631465894	0.000278612118908927	-0.0146218709081178	-0.00567234183079883
9	0.0118036323914431	-0.00368630883571624	0.0031199312968555	-0.000156886585305454	0.00312310492499617	-0.000152832872347726	-0.0147915273332982	-0.00490900642847777
9.1	0.0109893378904199	-0.00663674451127865	0.00306795100929634	-0.000590195011418826	0.00307090215770361	-0.000577400309740359	-0.0147281891134182	-0.00407307427327571
9.2	0.00937148753932914	-0.00953638448373774	0.00295648769218234	-0.000998647283972314	0.00296407715414144	-0.00100154081695262	-0.0144751307646278	-0.0034365605875091
9.3	0.00702972979463148	-0.0119732301858817	0.00278960449856603	-0.00139531401042716	0.0027888635184161	-0.00140026671443775	-0.0142124465635144	-0.00297470457203491
9.4	0.00423144397271383	-0.0138417408819807	0.00257182129469103	-0.00177893288190599	0.00257830059457037	-0.00177139512944398	-0.0141804666776748	-0.002660761283347
9.5	0.00102381675565286	-0.0149149179243319	0.00230309269742564	-0.002109748469472	0.00231046196531541	-0.00211108909507237	-0.0142225246064184	-0.00202013425861093
9.6	-0.00252168624544	-0.0154652962530583	0.00199259913310571	-0.00241316399840502	0.00199292672549543	-0.00241218618735448	-0.0143434936363172	-0.00131794381017344
9.7	-0.00636677321874008	-0.0151553256133587	0.00163066208084574	-0.00266635119947012	0.00163618794602574	-0.00267362784016427	-0.0142724804421204	-0.000551250304443905
9.8	-0.0102601916257795	-0.0138574463169551	0.00124851739677343	-0.00287961607341985	0.00125419598455463	-0.00287112693322563	-0.0141697450806079	7.24247778363386E-05
9.9	-0.0138261768677548	-0.0114321181791619	0.000843183514598946	-0.00302368819031219	0.000835856072762326	-0.00302246631087515	-0.0143264532992251	0.000721237748223545
10	-0.016705480005973	-0.00829526221254414	0.000410321310629665	-0.00311676140880344	0.000402823825286059	-0.0031292046622291	-0.0144834566054661	0.00157879405072033
10.1	-0.0188207658456884	-0.00464259843918435	-3.64318611419604E-05	-0.00314984027255992	-4.66619515887803E-05	-0.00314442515904717	-0.0143383999190332	0.0025423178433123
10.2	-0.0202138509809938	-0.000620700024235931	-0.000487657377054937	-0.00311161204300275	-0.000491057923663479	-0.00310881997670136	-0.0138306263842529	0.00338613816802014
10.3	-0.0207821055977462	0.00378750179629633	-0.00092424298679758	-0.00300156893806007	-0.000916192409217764	-0.00301068153328314	-0.0131956774669928	0.00388281562374245
10.4	-0.0202764211931693	0.00835414974510023	-0.0013233164366954	-0.00284040767630344	-0.00132165847282775	-0.00284660840210015	-0.0126043757646057	0.00403451564336579
10.5	-0.0186958706775625	0.0127597253776698	-0.00171342595606694	-0.00263399485410344	-0.00171024141311961	-0.00262104453539623	-0.0122406556074619	0.00423763231677975
10.6	-0.0162069470256711	0.0166583483407824	-0.00206096569903256	-0.00235694563949225	-0.00205881561128714	-0.00236076876388097	-0.0118658412218007	0.00453324502493317
10.7	-0.0130900843474043	0.0200950084853603	-0.00236793758368565	-0.00205000014765831	-0.00236442622590923	-0.00204477576205136	-0.0113622303528121	0.00488135649783749
10.8	-0.00930843109562427	0.023038840309401	-0.00262658836063354	-0.0016886062075767	-0.00262148811591048	-0.00169749490794445	-0.0109159188477076	0.00505521557826531
10.9	-0.0048867991217629	0.0253346289736868	-0.0028240204754052	-0.0013172473684665	-0.00282915418025886	-0.00131649629537138	-0.0106746500690234	0.00520116299003488
11	0.000199877515826797	0.0267205916109763	-0.00297372439876019	-0.000907898138341041	-0.00297853854072863	-0.000914546916539886	-0.010490130910886	0.0056488148712213
11.1	0.0055227844471899	0.0269535368109254	-0.00307568979286305	-0.000493328627369207	-0.00306495629074195	-0.000490518272889132	-0.00998240518199264	0.00623819774029346
11.2	0.0107312161145139	0.0260601919613348	-0.00310308275842137	-6.79631552583614E-05	-0.00311014359844551	-7.27467809251613E-05	-0.00901581477209786	0.00666319741211426
11.3	0.0157246434371674	0.0243097444381453	-0.00307903415155647	0.00036831587229884	-0.00309040636587058	0.000358361845322327	-0.00780659789221842	0.0067208691119212
11.4	0.020306702249533	0.0216873007172122	-0.00301224296763387	0.000785694468184702	-0.00300742271801943	0.000793202977374021	-0.00681801190152395	0.00624809235678577
11.5	0.0244473484151917	0.0181318740943231	-0.00287914896826483	0.0011943008644934	-0.00288197243828457	0.00120445916931239	-0.00628810884854893	0.00551908595456546
11.6	0.0279605046981987	0.0136730197836742	-0.00269634493126676	0.00158200743823762	-0.00269635022465718	0.00158492492539997	-0.00581561278574829	0.00485706036679655
11.7	0.0304948914513809	0.00858648802135833	-0.00244624599340811	0.0019386433840991	-0.00244688258521932	0.00194719366758058	-0.00532663488429462	0.00398530858446419
11.8	0.032099569394761	0.00320282106994599	-0.00216002369312466	0.00227618800387946	-0.00216413839089414	0.00227784361868737	-0.00511084240773732	0.00293436505685553
11.9	0.0329747513042495	-0.00232882777218489	-0.0018164872583907	0.00256019702103266	-0.00182951917262786	0.00256438722966821	-0.00526948070796042	0.00231046922419833
12	0.0327330030222883	-0.00834138792230719	-0.00144498121121461	0.00279170938533177	-0.00144439591974231	0.00279312488526458	-0.0057862958492514	0.00186760948820947
