# GHZ S RI R 50
0.2	0.00680300899097193	0.0029669365465049	0.00304821462858915	-0.000895873797542365	0.00305857683365124	-0.000889060081156021	-0.0131213692973667	0.00663046726155929
0.3	0.00686009092986545	-0.000278834037083403	0.00290499630387344	-0.00131767747717547	0.00289773676008682	-0.00130475017843118	-0.0125896932805584	0.00550917033831915
0.4	0.00589215095091567	-0.00227877065188341	0.00267549820460954	-0.00168826644321771	0.00268078084629038	-0.00169681733101497	-0.0128315721494981	0.0056820200277242
0.5	0.00471828265621022	-0.00330656075285599	0.00241970332118412	-0.00204484942646493	0.00243127528680939	-0.00205706658920754	-0.0128417358231767	0.00667434168005644
0.6	0.00381426961075539	-0.00380836417432013	0.00211049842676486	-0.00236082257758433	0.00210973200511892	-0.00236798245085753	-0.0122959940513274	0.00785920666096819
0.7	0.00306512434351728	-0.00425556985510075	0.00176615779656004	-0.00264179138800684	0.00176419846309273	-0.00264199692555739	-0.0114059382973241	0.00877580793678691
0.8	0.00226243312403461	-0.00485296699729958	0.00138212693314142	-0.0028638005069891	0.00136950311823892	-0.00286840432813875	-0.0104904195684434	0.00930981871073795
0.9	0.000978164612494573	-0.00535787941726445	0.000964408697496102	-0.00303272223348921	0.000965479198151425	-0.00304346266513868	-0.00990738159147226	0.00955921677789855
1	-0.000711165184900207	-0.00542981746501818	0.000536647354489197	-0.00314123805184669	0.000526736707461504	-0.00314200435006844	-0.00970533964772108	0.00995327753771185
1.1	-0.00254126800926012	-0.00482729801515829	7.58612789507279E-05	-0.00317382498298228	7.23569644904665E-05	-0.0031915846969154	-0.00969837702385387	0.0108672483500548
1.2	-0.0040456074580931	-0.00387074859935112	-0.000372761539943018	-0.00316496312513622	-0.000373578880585316	-0.00316287344850304	-0.00903063138479415	0.0121862007447543
1.3	-0.00525979578881368	-0.00307021870691438	-0.00080678681685513	-0.00308082045264274	-0.000810050652643584	-0.0030828352254693	-0.00734248757924934	0.0132329715504358
1.4	-0.00621533639781772	-0.00239051014200432	-0.00123436060374865	-0.00292893807364142	-0.00123315352349981	-0.00293450991849923	-0.00540649033592073	0.0132800080012146
1.5	-0.006484737443426	-0.00126077963467697	-0.00163976892967325	-0.00272729814221299	-0.00163817913479116	-0.00273585453276288	-0.00375048703351143	0.0129139040785741
1.6	-0.00608290513809539	0.00010669912103402	-0.00200228572786044	-0.00246783262887654	-0.00200252263203979	-0.00247309208500816	-0.00279245024692013	0.0126988752400655
1.7	-0.00529460650573878	0.00124081185235932	-0.00232989582139697	-0.00216378978866261	-0.00233083083616509	-0.00215749882116257	-0.00187130362570474	0.0125194105285766
1.8	-0.00446241339233329	0.00230474267607156	-0.00259737902390014	-0.00180621987204094	-0.00260840599521738	-0.00181180696941988	-0.00121538415002776	0.0122455468031143
1.9	-0.0035236280248582	0.00324381547422458	-0.00281740474558002	-0.00143150740115787	-0.00282982448038592	-0.00142527452763092	-0.000830871014606116	0.012180205895838
2	-0.00234208013597516	0.00409902803098799	-0.0029869355691752	-0.00102242915580818	-0.00299653276547192	-0.00101766922595379	-0.00042919116316335	0.0124704837003359
2.1	-0.000832798133757043	0.00458168398893926	-0.00309471536003021	-0.000595254804140408	-0.00309064481111326	-0.000597263294325743	0.00038028193284712	0.0127812156413178
2.2	0.000772911779291362	0.00456372617028547	-0.00314796222710633	-0.000160270592176377	-0.00315925870467632	-0.000163062598697717	0.00155282556279816	0.0127857739136464
2.3	0.00217356275981212	0.00392928136849752	-0.00314146313065434	0.00027877714413436	-0.0031411774463628	0.00027190530001252	0.00259370258409306	0.0122695731526091
2.4	0.00314369259832587	0.00307998382253313	-0.00306964354669877	0.000712940627794962	-0.00307218628059184	0.000708692652574606	0.00325084338760781	0.0116634019999324
2.5	0.00381889894396216	0.00218336670358258	-0.00293520642766739	0.00112244518289989	-0.00294608502392607	0.00112882362516435	0.00369176915771818	0.0111989074297283
2.6	0.00448566255999769	0.00128774321470618	-0.00276489799627702	0.00152488874115023	-0.00276133643670947	0.00151256458520356	0.00423958363162094	0.0109317738729147
2.7	0.00520368044681651	0.000176764041506132	-0.00252237675138026	0.00189809951364423	-0.00252766430802463	0.00189810773056288	0.00488040160991595	0.0106030471925195
2.8	0.00581410332036836	-0.00125545231889753	-0.00224140461716585	0.00222950998707693	-0.00223357250689671	0.00223932838269301	0.00546596309746075	0.0102650084670783
2.9	0.00619278812403069	-0.00290962077058403	-0.00190655563537753	0.00253481456348882	-0.00190283236693228	0.00253438437730121	0.00617510732509795	0.0100875778055267
3	0.00626181090970009	-0.0047090530857818	-0.00151681585146476	0.00277514414224068	-0.00153165828060043	0.0027812958970579	0.00714308054602259	0.00998079349088963
3.1	0.00604452374099432	-0.00663916619778892	-0.00112060024932874	0.00295569034644978	-0.00111589315288093	0.00296406405102754	0.00826103533130656	0.0096483655913568
3.2	0.00522821352542874	-0.0087000667530058	-0.000692245900593078	0.00309367909056447	-0.000694002877967302	0.00309307319750144	0.00922346774198239	0.00909972231370641
3.3	0.0037606787521097	-0.0107246819953242	-0.00024543981914433	0.00316082981601521	-0.000243806473604023	0.00315705985887639	0.0101142543055474	0.00825705981358741
3.4	0.00162888721729722	-0.012257611961638	0.000208647995648998	0.00314847737231891	0.000202549472743712	0.00316516200906117	0.0107653059918809	0.00720521713239806
3.5	-0.000803101726501204	-0.0132580048627586	0.000635263364086033	0.00309666970499414	0.000640875819744644	0.00309669282698573	0.011084223381393	0.00606092375395711
3.6	-0.00337091504547585	-0.0136773476522756	0.0010648929133418	0.00296655109192589	0.00107309031619871	0.00296614815856823	0.0113108261552068	0.00517340633011018
3.7	-0.00597454513949851	-0.0136466429955482	0.00147235592604249	0.00277450531448163	0.00146292753645859	0.00278827208965435	0.0116568136937312	0.00421109320671283
3.8	-0.00867390153553356	-0.0130909016832168	0.00184341084018784	0.00253796147025538	0.00184590609419259	0.00254705703853927	0.0117887960891791	0.00308690268653142
3.9	-0.0112119751120682	-0.011886548561264	0.00217906383627888	0.0022585719224719	0.00217181806804582	0.00225687493061929	0.011582955824655	0.00206688867323206
4	-0.0133716921003595	-0.0101120911733747	0.00245208276198919	0.00193553006350639	0.00245647910703722	0.00193307346568837	0.0113391410579717	0.00144717209506816
4.1	-0.0150032718195906	-0.008023109621761	0.0026925764694945	0.00157810581874368	0.00269133957221739	0.00157884436407703	0.0114389604425168	0.00102812095377992
4.2	-0.0162602730550885	-0.00578998498617007	0.00288238182754556	0.00118343521697874	0.0028867622434971	0.00117477658273173	0.0117421671127636	0.000413073461241293
4.3	-0.0172483861769375	-0.00347433580630932	0.0030195051894692	0.000780504796961559	0.00302584408241339	0.000772756056915547	0.0119316980079721	-0.000554502928162847
4.4	-0.0180204348173699	-0.000846193885987997	0.00309417314871771	0.000356581435781992	0.00309652398775672	0.000354342921647544	0.0117468103695375	-0.00148321508431598
4.5	-0.018284143941116	0.00208533940551125	0.00311927008842673	-7.21799568904294E-05	0.00312458996519525	-7.55220185243622E-05	0.0115048940111594	-0.00216395794851484
4.6	-0.0179495935157685	0.00503501549897771	0.00308072752635497	-0.000508218655524059	0.0030819217236525	-0.000495388921088137	0.0113716081558193	-0.0027942012824018
4.7	-0.0169711345497941	0.00784698248025057	0.00298258946217609	-0.00092379260479261	0.00299782509754543	-0.000933318961627287	0.0112489093153032	-0.00355619176344786
4.8	-0.0155859272957414	0.0104064090717607	0.00282845826442067	-0.00133820091586772	0.00283692620709907	-0.00134424546806877	0.0110264713955727	-0.00439233865127374
4.9	-0.0136128191182581	0.0127229623388307	0.00261286117837792	-0.0017256928838133	0.00261701336615668	-0.00172278302412783	0.0106639861814145	-0.0050871902451906
5	-0.0110991097585388	0.0145733441336158	0.00235536420681222	-0.00208588392270756	0.00235898079542164	-0.00208321590420124	0.0105634728259062	-0.00556569402199116
5.1	-0.00800390419689961	0.0157840482407571	0.00204345418341802	-0.00240164120311599	0.00204575579715079	-0.00240028306302451	0.0107390300819453	-0.00622264965548488
5.2	-0.00487929324210099	0.0161517437369982	0.00168180460009369	-0.00265510974032699	0.00168351014818228	-0.00266025873247084	0.0108615030533563	-0.00716330409472669
5.3	-0.00193386670005502	0.0159329881488942	0.00128915582561634	-0.00287126118851735	0.00129229628953147	-0.00286920860263384	0.0106825703451111	-0.00816865077583404
5.4	0.000792162189298273	0.0153506529708945	0.000858141454327511	-0.00301586989398648	0.000875239666750522	-0.00302715659868335	0.0102576070035163	-0.00917472138803922
5.5	0.00336358072714276	0.0144333014770986	0.000439776268533948	-0.00310753782591389	0.000449749193118264	-0.00311700869176572	0.00960302848094194	-0.010036039989849
5.6	0.00575496650618568	0.0130128535854373	-4.80744137873588E-07	-0.00313481566718149	-8.99480315241519E-06	-0.00313796170184004	0.00882966708772099	-0.0106386978130127
5.7	0.00768763256003706	0.0110824587472448	-0.000429193864982357	-0.00309450034442302	-0.000445730288590898	-0.0030980188651449	0.00809038690993093	-0.0111222621089946
5.8	0.0089660179980517	0.00883937676627743	-0.000868157614918267	-0.00299055913271657	-0.000871756905690912	-0.00300440694221315	0.00724808575696997	-0.0118256273496086
5.9	0.00957705745773731	0.00665371391390183	-0.00126253182548528	-0.00284449518516536	-0.00127067545486543	-0.00284436926745545	0.00598792177118267	-0.0124445947974499
6	0.00975266233152019	0.00458029098580704	-0.00164761963543219	-0.00263658586253808	-0.00164410260454668	-0.00263676350461612	0.004432500058471	-0.0125687081655818
6.1	0.00968904037423928	0.00254709773276744	-0.00198935999697937	-0.00238566752869793	-0.00199097193223704	-0.00238171468119803	0.00325920125366391	-0.0121522925162302
6.2	0.00928487215208251	0.000365390624082965	-0.00229075290187827	-0.00208128023948498	-0.00229439587832852	-0.00209299054614568	0.00263241619039567	-0.0118299161302615
6.3	0.00845185375704069	-0.00183740470984542	-0.00256088155937679	-0.00175928280206626	-0.00256990764821121	-0.00175365790205811	0.00219844256331431	-0.0119209175096745
6.4	0.00709852599090567	-0.00380861814361126	-0.0027848849074259	-0.00138340252074967	-0.00277525171262512	-0.00138818081757133	0.00164528881576087	-0.0120978836575125
6.5	0.00556662572206435	-0.00547220426273673	-0.00294492897231892	-0.000992571132529518	-0.0029527423457503	-0.000988206137807828	0.00124354705443259	-0.0122315403515583
6.6	0.00379792221776707	-0.00687731959933561	-0.00306142001157496	-0.000579222265715676	-0.00306299857405036	-0.000583180768786732	0.00105350602626936	-0.012538698223276
6.7	0.00163867870271047	-0.00789073841345454	-0.00312374196887635	-0.000148807794474526	-0.00313260979188759	-0.00014266623087598	0.000531707742927122	-0.0130845207869949
6.8	-0.00086293003741889	-0.0081989097147836	-0.00311527949688116	0.000290580545628592	-0.00312638792510178	0.000295485744700791	-0.000450398465979891	-0.0134750063960969
6.9	-0.00336177879862791	-0.00764592944868933	-0.00305192888927412	0.000726821866846569	-0.00305493727170145	0.000729177714930435	-0.00163802163346799	-0.0134140729310939
7	-0.00543998827402483	-0.00645780804286029	-0.00292438461236079	0.00115443138836911	-0.00293720269798806	0.00115211377487447	-0.00264382991380652	-0.0130614318102776
7.1	-0.00713323980354167	-0.00495153362762282	-0.00275159087871309	0.00155216340256907	-0.00274798482086407	0.00156087621734316	-0.00342259902088772	-0.0124786865856982
7.2	-0.00854591730639735	-0.00326232225630688	-0.0024956611024019	0.00192944815943859	-0.00250222226716456	0.00193149685979122	-0.00382297100607583	-0.0119558212427174
7.3	-0.00988735300484426	-0.00136476926695005	-0.00219686611950165	0.00225594894847825	-0.00220813274428244	0.0022609783715655	-0.00405988747116419	-0.0118422570659873
7.4	-0.0110152823320784	0.00103026732322389	-0.00184950047811172	0.00254338250641447	-0.00185642442687915	0.00255701467283348	-0.00474604314084929	-0.0119567773747594
7.5	-0.0116309400981152	0.00377772930060466	-0.00147744195134635	0.0027830002858515	-0.0014704406022572	0.00279040735129151	-0.0055607627788482	-0.012066029391273
7.6	-0.0114934409663106	0.00648242589239117	-0.00106596346283019	0.0029581136139069	-0.00106734209073509	0.00295341913359454	-0.00625313249495184	-0.0123128204713239
7.7	-0.0104469933138141	0.00900050203659116	-0.000635345930087822	0.00307333672189157	-0.000636684412061407	0.00307227912913224	-0.00704010298555861	-0.0124439825387898
7.8	-0.00880585628403939	0.0110790386420753	-0.000211346891620412	0.00311546175837959	-0.000219114616712516	0.0031218981875153	-0.00807682065999837	-0.0125617167531896
7.9	-0.00633677144519583	0.0125553190227473	0.000223885343753089	0.00311663885548758	0.000231776886028147	0.00311812993149183	-0.00914082588545152	-0.011971159193224
8	-0.00378916919617167	0.0137097686276388	0.000656390795401981	0.00304190359721947	0.000656461616595918	0.00304676559195211	-0.0101862824447179	-0.0115694121024396
8.1	-0.000630533813645183	0.013857996193077	0.00105622827131448	0.00292603045379963	0.00107520626513968	0.00292719115742867	-0.0105626705510086	-0.0105844159426855
8.2	0.00212477944721214	0.0133871683942959	0.00145086470261401	0.00275223292055694	0.00146008145554409	0.00274516537474813	-0.010822336461844	-0.009957182066547
8.3	0.00452660307360466	0.0124801826352673	0.00182044562038494	0.00252489698056615	0.00181868436109318	0.00253832378256559	-0.0111799890478491	-0.00957304494754222
8.4	0.00667138280600748	0.011400467170363	0.00215433554209247	0.00226164033785742	0.00215132711353487	0.0022613806758813	-0.0118168283496267	-0.00918967281829339
8.5	0.00875126280827736	0.00997734863152736	0.00244443576351425	0.00194584722413703	0.00244349781063697	0.00194900542793103	-0.012586472844952	-0.00849057154714688
8.6	0.0106420281134321	0.00806770457804648	0.00270053039772506	0.00159820246644014	0.00271011764763546	0.00159181379102798	-0.0130835377274864	-0.0076087070754678
8.7	0.012064435920925	0.00558879918348633	0.00290087403483804	0.00120365239381203	0.00290643302810582	0.00120446356320353	-0.0133582328700988	-0.00688884586624884
8.8	0.0127967555547988	0.00276746369446024	0.00305410729982394	0.000795112550941553	0.00306003748555763	0.000786396322679234	-0.0137219271614143	-0.00650996085102293
8.9	0.0129318094296926	-0.000145215982120405	0.00314802122611051	0.000357058734952518	0.00314717457039358	0.000354781851045182	-0.0142021177173459	-0.00599306230472338
9	0.0125555029110507	-0.00310330652720004	0.00317144441670037	-9.61113346499768E-05	0.00317458508854336	-9.19305268900736E-05	-0.014578464176015	-0.00517512970682292
9.1	0.011723970120021	-0.00620034248871306	0.00313411881385856	-0.000551486572305489	0.00313691757098774	-0.000538408003289503	-0.0145698893839278	-0.00430400267656639
9.2	0.0100234327638767	-0.00921782307728397	0.0030274120074107	-0.000984680253563256	0.0030351873348606	-0.000987544564561192	-0.014430495164949	-0.00362972505474144
9.3	0.00752426464474253	-0.0117496489145344	0.00285566981436446	-0.00140488162693127	0.00285494712126651	-0.00140993993603371	-0.014318039100697	-0.003035892090345
9.4	0.00447817539798453	-0.0134898212293953	0.00262508035035069	-0.00180715145544272	0.00263166657686214	-0.00179945473701149	-0.0142834282005641	-0.00231565843720088
9.5	0.00113274004256605	-0.0145242864336859	0.00233862713229118	-0.00214842399136036	0.00234611792268202	-0.0021497977319605	-0.0142595471166763	-0.00155660574306295
9.6	-0.00238808582657338	-0.0148507001387478	0.00200953300345586	-0.00245379140390293	0.00200986900636132	-0.00245280177675161	-0.0141329620435993	-0.000767141841730726
9.7	-0.00610016535652928	-0.0144297419535126	0.00163186033345521	-0.00270090431972888	0.00163739982900797	-0.00270828111090437	-0.0138839174069861	-9.0797598734007E-05
9.8	-0.00988628566237345	-0.0131376480288722	0.00124013323664822	-0.00290282414674939	0.00124589008980245	-0.00289431705615287	-0.0137616752264632	0.000409705425882618
9.9	-0.0133692094032872	-0.0108085604886051	0.000832958240237958	-0.00303363046007593	0.000825619727919192	-0.00303237669650272	-0.0139354850816368	0.000987148553092481
10	-0.0162324618742984	-0.00764819428088575	0.000405664999346634	-0.00311550549923586	0.000398154308916185	-0.00312793079922337	-0.0141060690831172	0.0019087433116498
10.1	-0.0182491019817432	-0.0040094472919188	-2.9986775981688E-05	-0.00314287184527086	-4.02049354711193E-05	-0.00313748950608759	-0.0138671731178475	0.00289185743430908
10.2	-0.019569436031655	-0.000131511586638687	-0.000467999426230066	-0.0031066295525065	-0.00047140790453113	-0.0031038646833722	-0.0133031831325746	0.00363501864430178
10.3	-0.0202443235692305	0.00408244161961274	-0.00089346778558613	-0.00300651664748146	-0.000885338737389278	-0.00301553755805687	-0.0127719075585817	0.00403552809247347
10.4	-0.0200048573099385	0.00859166880855327	-0.00128715124453305	-0.00286128189958965	-0.00128540903624939	-0.0028674678361789	-0.0123470207331775	0.00425635244240179
10.5	-0.0186858607419188	0.0131385503145073	-0.00168013101438752	-0.00267402340458958	-0.00167713584683007	-0.00266095921667518	-0.0120237585778695	0.00463066510013204
10.6	-0.0164451495034378	0.0172454492126057	-0.00204015315049156	-0.00241468672090176	-0.00203791707818725	-0.00241850933265786	-0.0115809999996319	0.00489919525413733
10.7	-0.0132424307536054	0.020946776490493	-0.0023675388191235	-0.00212004538660715	-0.0023640651703703	-0.00211468536648679	-0.0110095392837153	0.00531406742057508
10.8	-0.00945315359109998	0.0241161142551605	-0.00265213093642844	-0.00176175612142391	-0.00264679515054782	-0.00177074064732968	-0.0106205359217525	0.00547024646391028
10.9	-0.00498141611465523	0.0267792835396831	-0.00287600308915994	-0.00138302747288738	-0.00288126928831252	-0.00138232035333512	-0.0105221307804446	0.00572787526469232
11	0.000371571475237235	0.0284698137380973	-0.00304879325425867	-0.000955512090307367	-0.00305368958356953	-0.000962380700272665	-0.0102158585860748	0.00632496641608396
11.1	0.00616035100575643	0.0288728943838464	-0.00316616413254045	-0.000514696493929369	-0.00315511726037653	-0.000511779164250983	-0.0094865408353739	0.00689989642189681
11.2	0.011907975965767	0.0278685222298566	-0.00319769392432828	-5.84012406166599E-05	-0.00320498739186412	-6.33038638019767E-05	-0.00839062134626751	0.00713994722367937
11.3	0.0172153613414419	0.0255344331489272	-0.00316601444946361	0.000408912388927063	-0.00317781729943337	0.000398775596228615	-0.00709222618552141	0.00676512620393408
11.4	0.021932623519301	0.0224887944929919	-0.00308121682123385	0.000852205110689324	-0.00307615399685881	0.000859842388560069	-0.00629885406042578	0.00624632882549807
11.5	0.026136195417566	0.0186071592025134	-0.00292180224694499	0.00127795724111393	-0.00292449187219483	0.0012884035953612	-0.00582478254992948	0.00572667474539388
11.6	0.0295365294656957	0.013749577245791	-0.00270902774258803	0.00167172861449976	-0.00270896690224527	0.00167469880298326	-0.00532441293177131	0.00500840486367737
11.7	0.0318354696805768	0.00827627697115578	-0.00242988835185442	0.00202251829427276	-0.00243032505157994	0.00203119164431753	-0.00489182791200267	0.0040470718112686
11.8	0.033023501102065	0.00263450584611475	-0.00212001310739895	0.00234487977545268	-0.00212411676745034	0.00234664720740559	-0.0048108953646044	0.003044367529135
11.9	0.0332669273975301	-0.00285435992573931	-0.00176187652860884	0.00260671270099882	-0.00177483936560014	0.00261120800913159	-0.00524213940598584	0.00263024852560358
12	0.032730998387681	-0.00856717632241614	-0.00138642623941637	0.00281471628231538	-0.00138581397687244	0.00281611721119529	-0.00559892641157243	0.00237930608043582
