# GHZ S RI R 50
0.2	0.00571314841194637	0.00168442818543333	0.00304837422090225	-0.00089764241692146	0.00305874209445245	-0.000890832690126209	-0.0142150298270926	0.00535741026950183
0.3	0.00618910882576057	-0.000482972590645006	0.00290430471769757	-0.00132090408923004	0.00289705664011186	-0.00130796660384711	-0.013260782683999	0.00532547902312504
0.4	0.00594406652158147	-0.00235768038088399	0.00267292486408989	-0.00169256913154319	0.00267819415887274	-0.00170112871242274	-0.0127672831791258	0.0056333908303695
0.5	0.00511073735437245	-0.00389704373106897	0.00241440593737167	-0.00204926825885182	0.00242594734038341	-0.00206150563543961	-0.0124177683001524	0.00611649749419923
0.6	0.00393005606600306	-0.00496662156508596	0.00210222963536579	-0.0023639066619935	0.00210144540527787	-0.00237105728406827	-0.0121287622144126	0.00672592195165087
0.7	0.0025384761033076	-0.00554946056803671	0.00175537622774794	-0.00264199693216876	0.00175341989642857	-0.0026421964964224	-0.0118655593234733	0.00749072050144331
0.8	0.00122478908661677	-0.00575139820812401	0.0013701059559881	-0.00285984606962584	0.00135750383616245	-0.00286440101488732	-0.0114525430202629	0.00839875269569669
0.9	-6.85535830503543E-05	-0.00564917263389718	0.000952999178364164	-0.00302392958443139	0.000954037994138019	-0.00303463282832728	-0.0108795196226389	0.00923216136778799
1	-0.00128951007939771	-0.00538820808432504	0.000527897908333156	-0.0031278611406141	0.000518031318823563	-0.00312860409772488	-0.0102217602895271	0.009938892736908
1.1	-0.00258006955263688	-0.00500260736741757	7.17850371415619E-05	-0.0031570542674462	6.82787821249916E-05	-0.00317471559072396	-0.00970139551182252	0.0106273260578471
1.2	-0.00393109598011184	-0.00459960788444334	-0.000370977639777705	-0.00314663449526944	-0.00037179001428226	-0.00314455679595961	-0.00891879430391565	0.0113901961820792
1.3	-0.00540371870423219	-0.00418227614466871	-0.000798764248171022	-0.00306334753703253	-0.000802006568677304	-0.00306535374790406	-0.00752755699872651	0.0120713674619873
1.4	-0.00664686632948506	-0.00357800200535637	-0.00122065949798209	-0.00291476538494721	-0.00121944691403218	-0.00292030230251212	-0.00588994421071622	0.0120352405019261
1.5	-0.00723588540955784	-0.00246650865441164	-0.00162195339100428	-0.00271837179537044	-0.00162034331836817	-0.00272687760430593	-0.00457443299221467	0.0116404745704729
1.6	-0.00723516793257633	-0.000919986636134864	-0.00198270046071229	-0.00246532211155583	-0.00198291374691925	-0.00247055893488218	-0.00400107663058386	0.011613869334616
1.7	-0.00665229276891718	0.000659446830089129	-0.00231107615184152	-0.00216783660974197	-0.00231203912636463	-0.00216157211505767	-0.00329515942044973	0.0118951615628765
1.8	-0.00567570938259164	0.00214473018152144	-0.00258183361141795	-0.00181583696341844	-0.00259280561791572	-0.00182146967309715	-0.00248608897060052	0.0120730055461539
1.9	-0.00439634125120052	0.0032084375924219	-0.00280678551223763	-0.00144479483397364	-0.00281922454604915	-0.00143863422131741	-0.0017471404313352	0.0121441017757959
2	-0.0030116348451811	0.00389916007963842	-0.00298203602548679	-0.00103699747581709	-0.0029916566458751	-0.0010322841445032	-0.0011262924916247	0.0122713181345721
2.1	-0.00159144673710969	0.00420080111619228	-0.00309512410637721	-0.000608617094859242	-0.00309104146538432	-0.000610610600375506	-0.000395292879714937	0.01239381675556
2.2	-0.000211152180997461	0.00425517143695388	-0.00315222484219952	-0.000170481007317493	-0.00316352959674218	-0.000173313013136056	0.000555252312488114	0.0124604396040827
2.3	0.0011510476495145	0.00393819321369275	-0.00314742936889963	0.000272746522978919	-0.00314712895672182	0.000265863483317853	0.00155579623260962	0.0122556310910673
2.4	0.00241535195532482	0.00333281139216653	-0.00307497020538133	0.000710948188817316	-0.00307751252149102	0.000706691288817095	0.00251014098029656	0.0119046197943328
2.5	0.00350346715674479	0.00235883776528618	-0.00293796475874607	0.00112321722210209	-0.00294885376449494	0.00112960053916365	0.00337532861165138	0.0113616908660672
2.6	0.00435978228142974	0.00112591797240869	-0.00276408097673279	0.00152641227379851	-0.00276052614131734	0.00151408608862697	0.00412466736032288	0.0107519170200936
2.7	0.00499269710678209	-0.000258870716385068	-0.00251808428132317	0.00189807184555803	-0.00252336605839121	0.00189808433961004	0.00468809443914722	0.0101395016090153
2.8	0.00548512435072016	-0.00178955875249872	-0.00223487065586357	0.00222593522601159	-0.0022270498280831	0.0022357262683731	0.00515932819317215	0.00968874543668633
2.9	0.00581937581641332	-0.00354018951398213	-0.00189995282433821	0.00252642904109502	-0.00189624211360449	0.002526000024742	0.00581767545657362	0.00938416224583153
3	0.00574678938991749	-0.00551488068909338	-0.00151282721649647	0.00276198671475025	-0.00152761195094728	0.00276809910135933	0.00661718276122546	0.00907626424933316
3.1	0.00521585671683913	-0.00753149486255063	-0.00112158997307438	0.00293899300337221	-0.00111692373605342	0.00294733647040264	0.00739124524350575	0.00864675011844569
3.2	0.00409570946850023	-0.00942647823417921	-0.000700029669718733	0.00307567987605965	-0.000701775651364499	0.00307507062710069	0.00800707149509416	0.00826579228522783
3.3	0.0025488078864768	-0.011153206372579	-0.000260662739129072	0.00314463673797113	-0.000259017565521227	0.00314089304242268	0.00877338488168641	0.00774186166380552
3.4	0.00054327986794615	-0.0125064439583445	0.000186835191654595	0.00313738208425059	0.000180649646633099	0.00315395990627444	0.00951524917608752	0.00690968334932206
3.5	-0.00177723239758637	-0.0135251659651789	0.00060892918643903	0.00309314412846775	0.000614525931022713	0.00309321172960335	0.00992145992094728	0.00580520487032923
3.6	-0.00441465321586179	-0.0139967173533179	0.00103729605374416	0.00297244750447452	0.00104548721601785	0.00297211778784423	0.0100803437452825	0.00492242995817037
3.7	-0.00714221839396237	-0.013844687643	0.00144732220260558	0.00279003983178634	0.00143775901091814	0.00280372708137138	0.0103216572844567	0.00414770964329377
3.8	-0.00978757652624762	-0.0130533048510772	0.0018245222172546	0.00256171430965017	0.00182693913836275	0.00257085667839776	0.0105569340901841	0.00332083368484254
3.9	-0.0120757658355062	-0.0117582463091677	0.00216914008804761	0.00228776323562187	0.00216187654710327	0.00228599532706561	0.0106803303601699	0.00242967211619298
4	-0.0140431550559796	-0.0101414009339575	0.00245253469539215	0.00196619061890981	0.00245697697903299	0.00196375227847962	0.0107241796160404	0.00165202976175249
4.1	-0.0157193208626739	-0.00824790370207595	0.002703223410977	0.00160625848133883	0.00270197275789842	0.00160699507664491	0.010863741379583	0.000996399463309152
4.2	-0.0171231078691725	-0.00601599238028811	0.00290134658084986	0.00120538627932918	0.00290579979331168	0.00119667414626062	0.0110770874440265	0.000313062553273496
4.3	-0.0181088718232302	-0.00355494407429792	0.00304351798237126	0.000793867105961281	0.00304992813744548	0.000786066374921888	0.0113021155723234	-0.000572171150970641
4.4	-0.0187030792871765	-0.000892013033829523	0.00311927308379751	0.000360451078119848	0.00312164377487292	0.000358195057365869	0.011304610291161	-0.00154136808545605
4.5	-0.0188296229846159	0.00186528164769773	0.00314172546352747	-7.68610637571749E-05	0.00314707934548256	-8.0234381308766E-05	0.0111857106717251	-0.00247268890680136
4.6	-0.0185705530511144	0.00458793002639959	0.00309759404607571	-0.000519080278811714	0.00309882803896221	-0.00050617794888445	0.0109132156932293	-0.0034086140899161
4.7	-0.0177846058925055	0.00733788848567809	0.00299242585053361	-0.000937475127733752	0.00300769608934228	-0.000947092077147158	0.0105255725626665	-0.00425826684050471
4.8	-0.0165100292920566	0.00998161105535865	0.00283140791712152	-0.00135130768105379	0.00283987779498276	-0.0013573968607557	0.01011924707314	-0.00498307819248841
4.9	-0.0145031713651405	0.0123348010447288	0.00261060275412189	-0.00173530682462098	0.00261476808023142	-0.00173240608057098	0.00975259225067654	-0.00560322857733657
5	-0.0120138238194891	0.0140973020814375	0.00235064407331244	-0.00209030436255698	0.00235426542884749	-0.0020876442566652	0.00960722549173888	-0.00612703062773117
5.1	-0.00910690622389069	0.015290212836699	0.00203946146596025	-0.00240063316983954	0.00204176165918236	-0.00239927821756207	0.00959105563703047	-0.00675170698404779
5.2	-0.00614148337493369	0.0158602089189111	0.00168142011231365	-0.00265001838677744	0.00168312714592999	-0.00265515869332818	0.00958014486829425	-0.00744177273306112
5.3	-0.00311579194013729	0.01589390797674	0.00129430741810939	-0.00286462635211678	0.00129743911085729	-0.00286256893658762	0.00953528947650249	-0.00817227667242559
5.4	-0.000165421712210237	0.0153558143004376	0.000869309005778526	-0.00301100737887216	0.000886441835075865	-0.00302222242244869	0.00939425831864342	-0.00914900863683442
5.5	0.00249656752170671	0.0142762367206136	0.000455879201559657	-0.00310756442314751	0.000465907481916883	-0.00311699152540959	0.00887399682397825	-0.0102193517712105
5.6	0.00474064619552692	0.0127418146174203	1.79900488939887E-05	-0.00314231276266737	9.47417371330222E-06	-0.00314551648772055	0.00796745143026369	-0.0109982549979573
5.7	0.00645024260459309	0.0109611588200719	-0.000411997746822988	-0.00311059134172119	-0.000428584357219553	-0.00311422701192994	0.00698397837651686	-0.0114021463742561
5.8	0.00776580863867459	0.00904452638028154	-0.000856375935371061	-0.0030147347760006	-0.00085991797809157	-0.00302869209196525	0.00613491948399776	-0.0118198561138149
5.9	0.00870434877648116	0.00706235127403816	-0.00125948954752386	-0.00287429602379237	-0.00126770182553343	-0.00287420796662012	0.00515042733072284	-0.0122504742640289
6	0.00925473023089455	0.00487364885309308	-0.00165578342723901	-0.00266812554711833	-0.00165223068666446	-0.00266829388889469	0.00392540901509725	-0.012490561684758
6.1	0.00933326973494309	0.00253028597728939	-0.00200902662053684	-0.00241426215775649	-0.00201066057132341	-0.00241026700129602	0.00285321586240299	-0.012378003726512
6.2	0.00885157838176517	0.000125510152990976	-0.00232022566223649	-0.00210225208858109	-0.0023239271723266	-0.00211409323007953	0.00210809202623464	-0.0122608858226256
6.3	0.00795163477158783	-0.00217119002277128	-0.0025968110037074	-0.00176928564877762	-0.00260591767502648	-0.00176356172806805	0.00158111002016774	-0.0124103112238973
6.4	0.00659469626578812	-0.00434015339678622	-0.00282243703460974	-0.00138039761777499	-0.00281273360158268	-0.0013852856317656	0.00103469773429218	-0.0127388122613262
6.5	0.00484401011965525	-0.00626453129274261	-0.00297894571705207	-0.000977157727471787	-0.00298679198313056	-0.000972690332270497	0.000445612999842953	-0.0131116164014459
6.6	0.00265494514912386	-0.00766270680187089	-0.00308757130773789	-0.000553749034285434	-0.00308919846525854	-0.000557719022624668	-0.000149045411530474	-0.0134164449430137
6.7	0.000229866531583234	-0.00833320224650078	-0.00313903981512089	-0.000117206111144993	-0.00314788328329108	-0.000110945918366468	-0.000943080291658885	-0.0136217547386968
6.8	-0.00218448288519108	-0.00827395498722212	-0.00311862439808747	0.000323452261083217	-0.00312970466441226	0.000328482567406213	-0.00184817570290343	-0.0136394983341578
6.9	-0.00442450519476849	-0.00765220408946636	-0.00304437586148516	0.000756402232934813	-0.00304736084742716	0.000758786980965654	-0.00276744973136741	-0.0135111561496041
7	-0.00639520143999452	-0.00660601465722991	-0.00290868811048596	0.00117704607877994	-0.0029215002807671	0.0011748423642765	-0.00368667487980565	-0.0132990713002746
7.1	-0.00824150264838338	-0.00520728406569189	-0.00273170145465595	0.00156590495345488	-0.00272804750481127	0.00157456379599868	-0.00464800391954054	-0.0128044902347822
7.2	-0.00988381591369843	-0.00335316703374368	-0.00247585931368325	0.00193397306765311	-0.00248238346040159	0.00193604602813214	-0.0053029815733816	-0.0120768344931728
7.3	-0.0112211079961402	-0.00105177376583303	-0.00218093234087055	0.00225308688553222	-0.00219213681160458	0.00225812897792999	-0.00555736439102766	-0.0115104471678188
7.4	-0.0120449168301739	0.00160033040330407	-0.00183990128799124	0.00253624206978385	-0.00184678464172799	0.00254983257678234	-0.00583724638264438	-0.0113450103328172
7.5	-0.0122113399987627	0.00434088067449386	-0.00147491278820893	0.00277542855306655	-0.00146793202959861	0.00278282003437605	-0.00614490239705407	-0.0114315863189778
7.6	-0.011688093959756	0.00688329127943777	-0.00106943502479299	0.00295388953289245	-0.00107080541219446	0.00294919716872466	-0.0065268643174587	-0.0117169427010516
7.7	-0.010683554726241	0.00918750308068188	-0.000641996492249135	0.0030752387070283	-0.000643334277819757	0.00307417741937866	-0.00721237481825423	-0.0122543322118847
7.8	-0.00895920167982743	0.0110981989370833	-0.000217319404254845	0.00312459235193148	-0.000225121804435427	0.0031310351056679	-0.00816571173537526	-0.0125968398586831
7.9	-0.0066203330507389	0.0123902816425252	0.000222665737612204	0.00313222164478045	0.0002305952000186	0.00313372598810939	-0.00924157592197711	-0.012572518714255
8	-0.00405424156449045	0.0130631081414391	0.000663357777031614	0.0030610091430695	0.000663433400635107	0.00306590254902403	-0.0104377685836405	-0.0122753636646699
8.1	-0.00142386663333402	0.0131619294681219	0.00107301816490832	0.00294452903355814	0.00109214063422471	0.00294564032962411	-0.0114208216471254	-0.0115812156143744
8.2	0.00104344186463237	0.0128722117057667	0.00147716736355726	0.0027652060648425	0.00148641533735011	0.00275803358017727	-0.0120885865025521	-0.0107208440986224
8.3	0.00345004692242968	0.0122104392156453	0.00185355719162954	0.0025279333777844	0.00185189177579067	0.00254146852676183	-0.0125296397439723	-0.0099958486298889
8.4	0.00575719553446772	0.0111587601011075	0.00218978372850621	0.00225199566283246	0.00218675579067855	0.00225176567762491	-0.0130388129038005	-0.00946391291703868
8.5	0.00785780943726324	0.00954825490215267	0.00247661583865607	0.00192294579247464	0.00247571297994956	0.00192612642426598	-0.0137695406927263	-0.00883524889023906
8.6	0.00950163802773842	0.00750358388380604	0.00272422662427818	0.00156380228766738	0.00273373780836821	0.00155728044506994	-0.0144552948389252	-0.00799098670124249
8.7	0.0106225102447759	0.00515210093710165	0.00291175687596818	0.00116181292058661	0.00291731633783794	0.00116254676102296	-0.0149263356440066	-0.00705457336635184
8.8	0.0112497527387466	0.00269974706698168	0.00305018319049946	0.000751098411293013	0.00305597049359177	0.000742345117923805	-0.0152782826917156	-0.00627133291004558
8.9	0.0115734589789259	8.64455369496338E-05	0.00312936232538734	0.000316726225294599	0.00312849454922999	0.000314476079812078	-0.0154524017866707	-0.00547626235837054
9	0.0114504043429708	-0.00281633099390087	0.00314061458362851	-0.000127411848765612	0.00314376814637047	-0.000123302289076573	-0.0154946788655302	-0.0046613184549816
9.1	0.0107011362335424	-0.00591532782420908	0.00309549441825058	-0.000570053873267596	0.00309836521297374	-0.00055714038714833	-0.0153496616817993	-0.00387640579574733
9.2	0.00908664972940033	-0.00888964339820764	0.00298658221022924	-0.000989025769004851	0.00299425090853179	-0.000991897292142219	-0.0151018619015978	-0.00324077415439797
9.3	0.00678594892153632	-0.0114081735369785	0.00281813688456455	-0.00139566743497359	0.00281740956994179	-0.00140066386661147	-0.0147882796829068	-0.0027269031273222
9.4	0.00395484972280821	-0.0133757550453844	0.00259547733486337	-0.00178711888180546	0.00260199038432062	-0.00177950907447418	-0.0146207968404387	-0.00235341663201786
9.5	0.000619826589443774	-0.0146514580488911	0.00231991058515935	-0.00212232243069712	0.00232733004851122	-0.00212366709750421	-0.0146364456603018	-0.00190736668662603
9.6	-0.00312629695654369	-0.0151709654894512	0.00200243123763252	-0.00242662551712394	0.00200276088120682	-0.00242564261019281	-0.0148329046171394	-0.00131563217529309
9.7	-0.00707686773156223	-0.0146885544500391	0.00163488281802083	-0.00267760421087597	0.00164042426397432	-0.00268491234297658	-0.0148964835318963	-0.000531259203990572
9.8	-0.010906972491612	-0.0132142931974548	0.00124976443705614	-0.00288681533361343	0.00125546052423371	-0.00287831009784155	-0.0148415605508808	0.00022055542711301
9.9	-0.0142904636321898	-0.0107852886685577	0.000844506389706432	-0.00302645509703044	0.000837171690489821	-0.00302523328148298	-0.0148870542778333	0.000944278224120562
10	-0.0170917763034601	-0.0077249348410485	0.000414493986387852	-0.00311630544506693	0.000407012890980344	-0.00312875907343713	-0.0149490090104711	0.00178090904384941
10.1	-0.0192254616061751	-0.00413987832053552	-2.75742697026091E-05	-0.00314864136704647	-3.78153359388492E-05	-0.00314325720946884	-0.0147933003541503	0.00267980159281878
10.2	-0.0206432414078614	-0.000110662348536892	-0.000473765195130793	-0.00311286490285263	-0.000477177094402059	-0.00311008867380931	-0.0143319114793907	0.00353266021196391
10.3	-0.0211701114499223	0.00430316627918798	-0.000906652907383871	-0.00300836458621186	-0.000898544370473032	-0.0030174327871354	-0.0136779292366199	0.00411048940006791
10.4	-0.0206250897511824	0.0087829774395249	-0.00130470359853948	-0.00285490726274317	-0.00130299733666174	-0.00286110627578913	-0.0129690050003419	0.00428857880046226
10.5	-0.0191306122459151	0.013060294398186	-0.00169744204284015	-0.00265724388340806	-0.00169435405011967	-0.00264422273981878	-0.0125063635497588	0.00438174352946051
10.6	-0.0168377657886895	0.0169361415067066	-0.00205175337882669	-0.00238794108076454	-0.00204955805033692	-0.00239176651833683	-0.0121673145763129	0.00451796883307059
10.7	-0.0139337866676512	0.0204815555649638	-0.00236886006482827	-0.0020861767810136	-0.00236536599447267	-0.00208088174837481	-0.0117871375611382	0.00473691420151317
10.8	-0.0101804859564636	0.0236020678600969	-0.00263994558127394	-0.00172571808612109	-0.00263472590309704	-0.0017346567084672	-0.0114414593308899	0.00493589001823812
10.9	-0.00566873108439327	0.0260304066689947	-0.00284985636158097	-0.00135056079605958	-0.00285505648468106	-0.00134983243067377	-0.0112301051879729	0.00516709279302109
11	-0.000570888261176664	0.0274700187618691	-0.00301047497388384	-0.000932506588299965	-0.00301532728239863	-0.000939265720837707	-0.0110613540565421	0.00554606994627244
11.1	0.00473248719177792	0.0278101734142061	-0.00311979967051621	-0.000505586506077762	-0.00310891402290013	-0.000502717473150859	-0.0106920917157371	0.00605036150474159
11.2	0.0100019106315163	0.0270925542931169	-0.00314936799610308	-6.5755510651675E-05	-0.00315653895795597	-7.06030531458359E-05	-0.00994963302754709	0.00652503069060431
11.3	0.0151602681159266	0.0254016301718145	-0.00312215826311906	0.000384997388093175	-0.00313373149916885	0.000374941513495235	-0.00883220668859546	0.00670645490630077
11.4	0.0199773771448367	0.0227760130685175	-0.00304757779693326	0.000814497766154201	-0.00304264763605573	0.000822076930158269	-0.00784949593075641	0.00647108137341729
11.5	0.024311470469291	0.0191164552652001	-0.00290302391689098	0.00123133521306357	-0.00290579854564548	0.00124163433224993	-0.00719364152428283	0.00594153303190133
11.6	0.0278721008643577	0.0145103531597259	-0.00270722399747939	0.00162242953889491	-0.00270720194246687	0.001625374922665	-0.00663715532043728	0.00532016142747608
11.7	0.0304398177184571	0.00933628270123902	-0.0024445412673057	0.00197739581885916	-0.00244509639748531	0.00198601478661698	-0.00608971539782478	0.00454953900590152
11.8	0.0321207051043566	0.00385183158296432	-0.00214802898360244	0.00230946725437118	-0.00215214783162535	0.00231117269672225	-0.0056995259916597	0.00365435156869334
11.9	0.0329595267451085	-0.00196060320068875	-0.0017977031325863	0.00258501586917341	-0.00181073433442289	0.00258934180767414	-0.00562791090992731	0.00292733065750892
12	0.0327194143498012	-0.00801275042322359	-0.00142384911876357	0.00280793352102526	-0.00142325114425127	0.00280934625207598	-0.0058500767602163	0.00249630513838768
