# GHZ S RI R 50
0.2	0.00565730146818996	0.00180166322877495	0.00304839740273466	-0.000897585045981251	0.00305876516399825	-0.000890775105339735	-0.0143302233509687	0.00541297987351076
0.3	0.00619847217917964	-0.000425574565353524	0.0029043523299614	-0.00132083147464942	0.00289710387425741	-0.00130789413036424	-0.0133113249989273	0.00535335603002506
0.4	0.00593285159094356	-0.0023872233455837	0.00267300026143809	-0.00169248517022968	0.00267826988855159	-0.00170104461659736	-0.0127720550384934	0.00559287569842194
0.5	0.00500346910340541	-0.00395852435320962	0.002414519040526	-0.00204917602659831	0.00242606109483134	-0.00206141298276054	-0.012419964527956	0.00598728168491812
0.6	0.00372622526279783	-0.00496237711038407	0.00210239240580787	-0.00236381808385833	0.00210160857330237	-0.00237096884556175	-0.0121775084085665	0.00652247571642267
0.7	0.00232087448156769	-0.00541805303841857	0.00175559646414868	-0.00264193247272405	0.00175364010455933	-0.00264213217640602	-0.0119888791309374	0.00726086743219271
0.8	0.00109872310728402	-0.00552590836151219	0.00137038069802946	-0.00285983098956381	0.00135777852577182	-0.00286438709636018	-0.011635216316599	0.00820118622428366
0.9	-6.54829371458905E-05	-0.00544407537197243	0.000953314877753896	-0.00302399011637417	0.000954354698578008	-0.00303469378281703	-0.0110627920892629	0.00909962686098575
1	-0.00123687692357272	-0.00531159460974492	0.000528228981889825	-0.00312801675653046	0.000518361814116311	-0.00312876069735559	-0.0103337460750418	0.00984753999379767
1.1	-0.00262754343936839	-0.00505165192307547	7.20945921138888E-05	-0.00315731315209933	6.85897398288028E-05	-0.00317497629933026	-0.00970914668107418	0.0104989318016391
1.2	-0.00416226045314252	-0.00464235834800259	-0.000370719378852872	-0.00314699118484252	-0.000371532032005823	-0.00314491334954068	-0.00886592418854055	0.0111479267101726
1.3	-0.00574413498118923	-0.00410055926932498	-0.000798585723358278	-0.00306378591799412	-0.000801828252616579	-0.00306579265935226	-0.00749317610921121	0.0117190800736231
1.4	-0.00700285786657202	-0.00339120469173461	-0.00122058945148027	-0.00291526439012905	-0.00121937625034934	-0.00292080196800437	-0.00589115323847507	0.0116266629779513
1.5	-0.0075900456834162	-0.00217182354716906	-0.00162201047677547	-0.00271889862178421	-0.00162039956553605	-0.00272740561261344	-0.00461431408140831	0.0111783299814618
1.6	-0.00750334990611525	-0.000487712416979623	-0.00198288784431253	-0.00246583996083705	-0.00198310087014498	-0.00247107765856158	-0.00412870449796797	0.0111173526028345
1.7	-0.00673867800112179	0.0011429981471568	-0.00231138799906158	-0.00216831222273445	-0.00231235140560815	-0.00216204667568398	-0.00351685238912617	0.011438214061476
1.8	-0.00560816728834949	0.00253727093140902	-0.00258225350722093	-0.00181623637049316	-0.00259322735437277	-0.00182187039904852	-0.00273437738969189	0.0117055164843176
1.9	-0.00431073573144749	0.00345144946564959	-0.00280728950985284	-0.00144509439718894	-0.00281973091927502	-0.00143893278304447	-0.00193995334511647	0.0118395901974588
2	-0.00302511142006332	0.00407209789283388	-0.00298259219017631	-0.00103718069640275	-0.00299221458029879	-0.00103246646169186	-0.00123942622530301	0.0119492355864275
2.1	-0.0016914620430885	0.0044390972965875	-0.00309569918922772	-0.000608684073294491	-0.00309161582975592	-0.000610678002128591	-0.000483893103030196	0.0119935271608561
2.2	-0.00026605683795546	0.0046073311992025	-0.00315279511285503	-0.000170442562449492	-0.00316410196119949	-0.000173274829495774	0.000409249253676089	0.0120029573079336
2.3	0.00125397074860013	0.00429567668985774	-0.00314798109265687	0.000272876456543928	-0.00314768080539168	0.000265992187098305	0.00133040245514928	0.0118323122898861
2.4	0.0026284237936196	0.00352434224895741	-0.00307549683074714	0.000711157660643894	-0.00307803971343819	0.000706900073784887	0.00228237155913102	0.0115881411203916
2.5	0.00363910656483927	0.00233462906867243	-0.00293846924446713	0.00112349914236006	-0.00294936006127463	0.00112988390801241	0.00325597235859886	0.0111216330317903
2.6	0.00428439934478314	0.00102349389045978	-0.00276456804532971	0.00152677591458398	-0.0027610128554676	0.00151444728542811	0.00414244922297953	0.0104788189310957
2.7	0.00475494478237854	-0.000286378612268648	-0.00251854288021351	0.00189853007788499	-0.00252382573230503	0.00189854272501352	0.00477379509381346	0.00976798916320983
2.8	0.00518377034242399	-0.00173396967371792	-0.00223528501483489	0.0022265016250037	-0.0022274621300544	0.00223629454932701	0.00525877991771909	0.0092433744467037
2.9	0.0054392542595539	-0.0034387246232391	-0.00190028916381188	0.00252711773215202	-0.00189657758935484	0.00252668844328598	0.00595049024111551	0.00888180837388077
3	0.00524217523128378	-0.00529340573910871	-0.00151304065827498	0.00276279237060584	-0.00152782880362642	0.00276890726586341	0.0067911095788221	0.00846555453725972
3.1	0.00467020480260328	-0.00707170020327222	-0.00112164091548161	0.00293990304030278	-0.00111697265597838	0.00294824839986546	0.00753259044678691	0.00788361826493658
3.2	0.00368221842343336	-0.00874588645123006	-0.000699866616557723	0.00307664873156337	-0.000701613173320556	0.00307603951414113	0.00802691423837362	0.00740112709294534
3.3	0.00235179839902737	-0.0104104933423638	-0.00026025727224636	0.00314561090398139	-0.000258612184820776	0.00314186584370264	0.00866353019173366	0.00688033937042143
3.4	0.000474200018442225	-0.0118392191996921	0.000187496721861084	0.00313828847838591	0.000181312517693041	0.00315487247386401	0.00935595784819451	0.00610591179893086
3.5	-0.00185362656831785	-0.0129044114690793	0.000609842857671475	0.00309391489766501	0.00061544127419856	0.00309398119159202	0.00978196083997709	0.00501136345380204
3.6	-0.00448869367656852	-0.0133005521850417	0.00103842117470428	0.00297299918519879	0.0010466145645053	0.00297266708422305	0.00992830136258368	0.00407276780579661
3.7	-0.00706908499149348	-0.0130612133794005	0.00144859858593021	0.00279030242010329	0.00143903730413104	0.0028039963235839	0.0100725027927024	0.00326206920311833
3.8	-0.00949471706019971	-0.0123569423255576	0.00182586648889681	0.00256164686528362	0.00182828726374203	0.00257079046977749	0.0102015584697129	0.00251128133857126
3.9	-0.0117120962403052	-0.0113119914164591	0.00217045580860596	0.00228735040652154	0.00216319017746118	0.0022855850125157	0.0103320097479354	0.00176178764513793
4	-0.0138284053424658	-0.00988450440197839	0.00245371592368807	0.00196545937683015	0.00245815784767969	0.00196301882583714	0.0104966242537323	0.00105295697973018
4.1	-0.0156864862934407	-0.00797488939425607	0.00270418543084147	0.00160525904502877	0.00270293496826994	0.00160599625166479	0.0107406045501192	0.000343729293496272
4.2	-0.0171169659606697	-0.00564531689942128	0.00290202598483424	0.00120420003586628	0.00290647568097493	0.00119548550283137	0.0109560906490229	-0.000413810226188287
4.3	-0.0180319796791299	-0.00321154495795115	0.00304389913920956	0.000792582458038166	0.00305030606366144	0.000784778887054976	0.0111481848735167	-0.00128694918212029
4.4	-0.0186698729287222	-0.000701015876259594	0.003119358416621	0.000359155394812833	0.00312172812760751	0.00035689844085549	0.0112016992180594	-0.00219045755839635
4.5	-0.0190219880532184	0.00198068015696325	0.00314154560055034	-7.8104651296915E-05	0.00314689788881447	-8.1479933945705E-05	0.0112254915708643	-0.00312784732001264
4.6	-0.0190026554559374	0.00484961795864762	0.00309719076735676	-0.000520221977763857	0.00309842957750743	-0.00050732097517743	0.0110702327909631	-0.00419809591783299
4.7	-0.0182633528768932	0.00785569421681894	0.00299184193373481	-0.000938490709911888	0.0030071074301284	-0.000948112450958638	0.0106711480926894	-0.00521638906180623
4.8	-0.0168710822312048	0.0106404641920867	0.00283067964570532	-0.00135218307510758	0.00283914662492336	-0.00135827469065735	0.0101768867560348	-0.0060155766615174
4.9	-0.0148049256806655	0.0129881531843941	0.00260976431586749	-0.0017360390433053	0.0026139302465273	-0.00173313999731001	0.00977932953448833	-0.00663431113870822
5	-0.0123809363265187	0.0148034721145272	0.00234971317870916	-0.00209090444785149	0.00235333509480398	-0.0020882458214086	0.00966987270569581	-0.00721052012050585
5.1	-0.00945072591417649	0.0162017926917119	0.00203844512917508	-0.00240110315792224	0.00204074556750209	-0.00239974912242489	0.00961650746697119	-0.00796774501257603
5.2	-0.00623464682380004	0.0169047346917305	0.00168032364982225	-0.002650350909481	0.00168202870848387	-0.00265549131423709	0.00944260772054086	-0.00871862281074956
5.3	-0.00294251288140638	0.016788290059236	0.00129312145745624	-0.00286480651248598	0.00129625358319272	-0.0028627504597258	0.00926122073776025	-0.00934079371458341
5.4	3.63331119415821E-06	0.015964555701189	0.000868034423757439	-0.00301100046249669	0.000885160908678779	-0.00302222090107834	0.00916041721766267	-0.0101638859729307
5.5	0.00242614219141496	0.0147914097525735	0.000454519298953994	-0.00310732664389479	0.000464542263004777	-0.00311675663340224	0.008794537160423	-0.0112245175784369
5.6	0.00451010676799669	0.0134568336889748	1.65926498295523E-05	-0.00314177414124677	8.07683443238137E-06	-0.00314497353043603	0.00795707625989934	-0.0121568630505644
5.7	0.0063723610530799	0.0119233166000277	-0.000413355300152224	-0.00310970756175792	-0.00042993991533317	-0.00311333469582424	0.00685251953065571	-0.0127006716251093
5.8	0.0080308092183679	0.0099878142775987	-0.0008575648054135	-0.00301348124604077	-0.000861112471126565	-0.00302743295895686	0.00580147406447487	-0.0130767299710913
5.9	0.00916416280146408	0.00766285663260809	-0.00126040532909763	-0.00287271541068488	-0.00126861473908613	-0.00287262352859004	0.00474292406866974	-0.0132923130245011
6	0.00955138664842734	0.00509196536558949	-0.00165631303910287	-0.00266628993030707	-0.00165276182324612	-0.0026664598075776	0.00366296752522579	-0.013337305463829
6.1	0.00926653062972653	0.00263625678172025	-0.00200910156754161	-0.0024122825726691	-0.00201073306773169	-0.0024082886019929	0.00282045469821387	-0.0132153830629837
6.2	0.00854897282224881	0.000356051094775537	-0.00231980230515553	-0.00210026488966359	-0.0023235063612679	-0.00211209839345949	0.00219984551180239	-0.0132115770540444
6.3	0.00757325318242905	-0.00186675179427778	-0.00259588642255451	-0.00176741931833388	-0.00260498597266819	-0.00176169574247314	0.00171164362536287	-0.013422624005765
6.4	0.00600756649717732	-0.00402165273823089	-0.0028210596032358	-0.00137880791208864	-0.0028113634288861	-0.00138369545582016	0.00128976496739632	-0.0137922879391081
6.5	0.00397191496784592	-0.00565778517310727	-0.00297722321485816	-0.000975954460601693	-0.00298506358195394	-0.000971488414220334	0.00083966233699284	-0.0143790708791138
6.6	0.00183057206143377	-0.00653246700227702	-0.00308562349037419	-0.000553006638307852	-0.0030872500749853	-0.000556973833628548	0.000159554683975909	-0.0150003137543452
6.7	-0.000148026203096374	-0.00690476792148942	-0.00313700573498672	-0.000116954021966705	-0.00314584310328456	-0.000110697403315594	-0.000931324615519857	-0.0153433763751466
6.8	-0.00213288669795177	-0.00700245185336798	-0.00311664440927054	0.00032323103867525	-0.00312771766029657	0.000328258092895485	-0.00207146931699881	-0.0152312644348902
6.9	-0.00433103937950382	-0.00670824188388616	-0.00304256354526657	0.000755759272597041	-0.00304554685211981	0.000758142387718709	-0.00297919044755608	-0.0149132331484322
7	-0.00655972124523472	-0.00573962141018714	-0.00290712750292754	0.00117607043961388	-0.00291993204789394	0.00117386669562479	-0.00373110772690961	-0.014695425013645
7.1	-0.00854425444706908	-0.00402858942033725	-0.00273042910617626	0.00156469841461033	-0.00272677827205162	0.00157335305187076	-0.00463854060264522	-0.0144168988088694
7.2	-0.0098762454716701	-0.00179214298868924	-0.00247489733153066	0.0019326335700714	-0.00248141849734966	0.00193470452381429	-0.00551680176391495	-0.0139015646308691
7.3	-0.0105731843024095	0.000491866903435691	-0.00218024060351161	0.00225170314716159	-0.00219144055090216	0.00225674120440027	-0.00615257579765758	-0.0132752751834394
7.4	-0.01091598811691	0.00260952056731897	-0.00183942054685085	0.00253485400114766	-0.00184630265970132	0.00254843747467655	-0.00668015332694365	-0.0127470276594574
7.5	-0.0111265050796696	0.0046308863017102	-0.00147458100627287	0.00277402186405912	-0.00146760421584314	0.00278141087335728	-0.00689268678355442	-0.0124123866560567
7.6	-0.011029084469664	0.00673813112093997	-0.00106924170884838	0.00295243085815464	-0.00107061099905611	0.00294774050359876	-0.00696426552183327	-0.0125000172524331
7.7	-0.0103689589707591	0.00891442043902439	-0.000641983663318345	0.00307368365189226	-0.000643320696433344	0.00307262274939837	-0.00743179119876293	-0.0129873391332335
7.8	-0.00899893605365033	0.0106882023989399	-0.000217532989329845	0.00312294155620175	-0.00022533199796655	0.00312938013685124	-0.00815069108893914	-0.0132890618402275
7.9	-0.00724111476285571	0.0119970707175645	0.000222142304435916	0.00313048113487427	0.000230067098029077	0.00313198563548458	-0.00886707904400053	-0.0133267773999068
8	-0.00527036376045448	0.013150707386682	0.000662424738804021	0.00305925731140418	0.000662499471309368	0.00306414774677644	-0.00973448801281315	-0.0134169234810033
8.1	-0.00275075027928887	0.0140305719397015	0.00107162818312803	0.00294287113629531	0.0010907379821491	0.00294398621633241	-0.0107047747170633	-0.013212833764399
8.2	0.000118981268429012	0.0143042274798912	0.00147530951394251	0.00276381391468933	0.00148455353155244	0.00275664914105407	-0.0116641974669565	-0.0126869948810439
8.3	0.00301634449807264	0.0137004186572615	0.00185129808265505	0.00252695876151061	0.00184962841597277	0.00254048408700817	-0.0124132010369013	-0.0119764750479558
8.4	0.00546942097920852	0.0124370731834889	0.00218722660325126	0.00225154966046333	0.00218420080355265	0.00225131836166605	-0.0129966272351368	-0.0113184380239498
8.5	0.00738868513754783	0.010816624693659	0.00247390340151667	0.001923127699922	0.00247299929441913	0.00192630575121676	-0.0136138682797062	-0.0107141808863578
8.6	0.00895649823421825	0.00914729122092313	0.00272152258178943	0.00156468089230169	0.00273103236654959	0.00155816939399558	-0.0142795768935053	-0.0101259242165896
8.7	0.0104503443605385	0.00721268176290303	0.00290928910562056	0.0011634021365438	0.00291484498769796	0.00116413981771641	-0.0150166359657234	-0.0094402727094271
8.8	0.0117460124069276	0.00474804824424846	0.00304815895911625	0.000753314884872224	0.00305395096324096	0.000744570448402959	-0.015787908088416	-0.00861940660757761
8.9	0.0124842200059284	0.00163524045042783	0.00312796661780323	0.000319410110911108	0.00312710116099957	0.000317159990017165	-0.016191287495647	-0.00749888516528982
9	0.0122732222326066	-0.0017738389749936	0.00313995070954465	-0.00012448051736777	0.00314309969334409	-0.000120369068716899	-0.016150615623948	-0.00638630342705756
9.1	0.0112996338360358	-0.00504299734664047	0.00309558590683559	-0.000567094491542042	0.00309844428609362	-0.000554180165584317	-0.0158547303115092	-0.00551657040269659
9.2	0.00962635086600883	-0.00808756925818232	0.00298736026524361	-0.000986250470933916	0.00299503126520588	-0.000989114853770338	-0.0155647195720716	-0.00484990367990643
9.3	0.00725113942147152	-0.0108686440282895	0.00281949107394637	-0.00139324620002025	0.00281876812929443	-0.00139824349325534	-0.0151822612660726	-0.00418956198674151
9.4	0.00401069164273952	-0.0130793501569063	0.00259726327661769	-0.00178514355031547	0.00260377067627222	-0.00177752744001609	-0.0147478194266399	-0.00370062115789692
9.5	0.0001272287268189	-0.0142065923907734	0.00232194642633419	-0.00212082487881462	0.0023293681092865	-0.00212216390575302	-0.0144324013477678	-0.00341591800333968
9.6	-0.00386371323755248	-0.0141673763086043	0.00200461484695222	-0.00242559754709388	0.00200494382268797	-0.00242461420871588	-0.0145252536126764	-0.00319855169764321
9.7	-0.00753121622697259	-0.0131900328744984	0.00163711018836127	-0.00267702337298757	0.00164265794254447	-0.00268432916182189	-0.0148050715332906	-0.00270471915113005
9.8	-0.0108680451917662	-0.0116892561823896	0.00125196769437945	-0.00288662661342571	0.00125765938360827	-0.00287811568252265	-0.0150544756439258	-0.00193619555670086
9.9	-0.0140427399480516	-0.00962020435478973	0.000846624352545538	-0.00302658635316684	0.000839287249843667	-0.00302536894704971	-0.0151933787880849	-0.00098639025905012
10	-0.0170403528654285	-0.00678892176020024	0.000416536737623083	-0.00311671001792617	0.000409061857149745	-0.00312917099371912	-0.0151196626890598	-3.68584285098142E-05
10.1	-0.0193484701607393	-0.00307895866641188	-2.55815232160625E-05	-0.00314930406883886	-3.58281052376538E-05	-0.00314392530791188	-0.0148681206489568	0.000764430280932514
10.2	-0.02059274418676	0.00109004504784655	-0.000471809470206542	-0.00311381476626179	-0.00047522389892658	-0.00311104021871593	-0.0145214458735871	0.00153608341912878
10.3	-0.0208692105430217	0.00524292695901076	-0.000904755906519633	-0.0030096558753375	-0.000896639274193087	-0.00301872041586092	-0.0139989162538292	0.00227838518606029
10.4	-0.0205097597425172	0.00923555672793743	-0.00130291941511992	-0.00285659204662268	-0.00130120813571476	-0.00286279135857149	-0.0131441665694562	0.00272534832928763
10.5	-0.0196243211269805	0.0133779581665162	-0.00169587723359146	-0.00265938144798313	-0.00169279849955348	-0.00264635392568282	-0.0123076649006812	0.00284742525861228
10.6	-0.0178123611427825	0.0176508648131649	-0.00205056706579353	-0.00239052026511451	-0.00204836777675246	-0.00239434534073091	-0.0117113233130631	0.00270536393798818
10.7	-0.0148674744113778	0.0217061647089342	-0.00236818785594748	-0.0020891394136873	-0.00236469665162363	-0.00208383898966346	-0.0113634588154498	0.00268267355820516
10.8	-0.0109545263948231	0.0249832303998464	-0.00263995849171516	-0.00172893128879313	-0.00263472828368491	-0.00173787048488633	-0.0111138513482972	0.00278746839861693
10.9	-0.00659316905547451	0.0274099771324648	-0.00285066132614975	-0.00135387477122605	-0.00285586560085304	-0.0013531502793988	-0.0108423346173093	0.00294384025225715
11	-0.00179423570548795	0.0291973795199941	-0.00301213178216561	-0.000935666843371839	-0.00301698254406507	-0.000942435268373824	-0.0105127830669459	0.00309336670687922
11.1	0.00354069394334091	0.0303077003205216	-0.00312228080949761	-0.000508348800019847	-0.00311138731907137	-0.000505469118055024	-0.0101974760342231	0.00314195197581237
11.2	0.00949654258222845	0.0302655329672964	-0.00315253858479292	-6.78544827158613E-05	-0.00315971373496396	-7.27115972361371E-05	-0.00988143361879419	0.00324769686875001
11.3	0.015693259070487	0.0286007140165183	-0.00312582140674214	0.000383759197163804	-0.00313740209916491	0.000373686015082437	-0.00935616590917999	0.00345412323811783
11.4	0.0211599948030961	0.0254463669228982	-0.003051466397844	0.00081423893314232	-0.00304653348317465	0.00082182892258895	-0.00872026777144708	0.00354090585165803
11.5	0.0256652514388697	0.0212860283123583	-0.00290680421718742	0.00123206637583437	-0.00290958478208112	0.00124237708744179	-0.00813296036721061	0.00329500801162033
11.6	0.0293596313452744	0.0163993903006261	-0.002710651602854	0.001624036151878	-0.00271062987976934	0.0016269850527669	-0.00763814048970783	0.00282225616813496
11.7	0.0322536093007474	0.0108114192260928	-0.00244740693629906	0.00197970649697184	-0.00244796273213622	0.00198833555478533	-0.00726584045411576	0.00228917006754269
11.8	0.034049894463672	0.00448660986498583	-0.00215022388988311	0.00231230617844669	-0.00215434722832578	0.0023140139792021	-0.00691650875857529	0.00188468021335287
11.9	0.0343169680348684	-0.0022118234967163	-0.00179917520205254	0.00258813756747603	-0.00181221970089647	0.00259247055641735	-0.00650067888793791	0.0016771636934384
12	0.0330655875908455	-0.00856879794397192	-0.00142458175707444	0.00281118080489441	-0.00142398280374229	0.00281259482939257	-0.00608095395172725	0.00136301195318758
