# GHZ S RI R 50
0.2	-0.0139877888810105	0.0052643602297909	0.00304492109231909	-0.000885102733398506	0.00305538188007978	-0.000884949568629754	0.00583939742483751	0.000797846541927783
0.3	-0.0131652803743782	0.00576869649978751	0.00289886742100816	-0.00130116180003274	0.00289258260375763	-0.00131280595615883	0.00616221056931715	-0.0014591008096175
0.4	-0.0124278335639569	0.00648107109433832	0.00268478199705456	-0.00169548491615829	0.00268267655002194	-0.00169739745951445	0.00572424706753044	-0.00328957615986599
0.5	-0.0117470170033417	0.00719393176990218	0.00241498953598356	-0.00205257418634966	0.00241780415717252	-0.00205630037090618	0.00483706224725798	-0.00483127867190012
0.6	-0.0110611574301341	0.00796757632777532	0.00210238371000067	-0.0023726792824729	0.00210164044305336	-0.00237552189086334	0.00359371111263441	-0.006096578333051
0.7	-0.0104128099615662	0.00871651676095645	0.00175180798059986	-0.00264277989383091	0.00175801494875543	-0.00264687321412549	0.00201579287913435	-0.00694133379439698
0.8	-0.00964561101618896	0.0094536435994111	0.00135827097095693	-0.00286280179993911	0.00136654443778302	-0.00286120496578505	0.000273923605236815	-0.00729415266322619
0.9	-0.00892829155836494	0.0101371267242065	0.000953709749006492	-0.00301485235759028	0.000953690695721528	-0.00302426893175504	-0.00147280463484254	-0.00720737554265062
1	-0.00814514947442712	0.0107591138404818	0.000520754918945457	-0.00312297738725197	0.000520606519103496	-0.00312833447962561	-0.00311533503026527	-0.00666347017469522
1.1	-0.00747663703070011	0.011230455260029	7.33603262476877E-05	-0.00316290062715181	7.42482387400006E-05	-0.0031676275299852	-0.00463379808032964	-0.00569024998146583
1.2	-0.00685849531876766	0.0113972911786497	-0.000365575658260774	-0.00313585372781903	-0.000364349825172188	-0.00315265041493943	-0.00554139950041473	-0.00437583151065319
1.3	-0.00652521923098612	0.011178524995477	-0.000796842983730275	-0.00306156739941116	-0.000801782089846019	-0.00306922362949204	-0.00562696790648202	-0.00306866944258414
1.4	-0.00630149707398784	0.0108714827882829	-0.00122288077961257	-0.00291633156270728	-0.00122529714799348	-0.0029234623045376	-0.00531449539347424	-0.00225029903462788
1.5	-0.00576318400561951	0.0109141512104328	-0.00161455568907844	-0.00271802044027142	-0.00161258388465705	-0.00272356292530351	-0.00501735586953756	-0.0016307140723363
1.6	-0.00495215135285896	0.0112502544003196	-0.00197770803384631	-0.00246174845364633	-0.00198117915679443	-0.00246262777085763	-0.00516368260903815	-0.000654518200577246
1.7	-0.0039612067132299	0.0116129947162188	-0.00230281931689475	-0.00216715818463083	-0.00230486993651	-0.00217574777126949	-0.00495135442829072	0.000634406112561466
1.8	-0.00295657598258686	0.0119843342503338	-0.00257974385271181	-0.00181770105530072	-0.00258492272496034	-0.00182316192130766	-0.00442722049412262	0.00184069447454432
1.9	-0.00195861508085616	0.0121648177082223	-0.00280534982198502	-0.00144835317761082	-0.0028018366974681	-0.00144216326818509	-0.00360373005531611	0.00292351315332559
2	-0.00102468959117262	0.0122642903313291	-0.00298088560789668	-0.00103654622650318	-0.00298362489259489	-0.00102969980637818	-0.00255027889538851	0.00383621541179918
2.1	-0.000120839010809749	0.0122257938712272	-0.00309608488254587	-0.000603872408161767	-0.00309818901771424	-0.000610569176617006	-0.00120367915177453	0.00436720005475683
2.2	0.000689156312774299	0.0121684997386707	-0.00314940439724851	-0.000172629445492575	-0.0031512146470241	-0.000162900983785033	0.00039837192512376	0.00448742097047616
2.3	0.00138240159730183	0.0119866677300591	-0.00314097010413859	0.000269762405596105	-0.00314772851909976	0.000266854625744928	0.00196087190692134	0.00406263935088367
2.4	0.00198432773934147	0.0118265273003068	-0.00308067154388842	0.000704625480958146	-0.00307949186153625	0.000719747696634578	0.00343231531567441	0.00327673072740937
2.5	0.00250890221076964	0.0116638086274969	-0.00294504417200375	0.00113711352362651	-0.0029580510380354	0.00113842055357052	0.00470925812244263	0.00205848421333357
2.6	0.00307025970431437	0.0116021918017445	-0.00275431525613444	0.0015323400530042	-0.0027752411111793	0.00153626921469526	0.00573058223264081	0.000511939173377411
2.7	0.00377118389794616	0.0115712630585561	-0.00252184937647367	0.00190141947346255	-0.00252212448193736	0.00190650757534524	0.00634173130381524	-0.0013021132921157
2.8	0.00465318083865918	0.0114943901714117	-0.0022263538717451	0.00222645727013217	-0.00223618232549172	0.00223766547655713	0.00653177915044192	-0.00315341454802442
2.9	0.00572249962244526	0.0112506351310317	-0.00188931617403792	0.00251946928131433	-0.0018873786462358	0.00252838072377474	0.00647982171045669	-0.00492308082188808
3	0.00683031586236152	0.0107717883964377	-0.00151764824395403	0.00276217412745191	-0.00153275059549992	0.0027491474915047	0.00617755344841727	-0.00667638855479293
3.1	0.00785984562749398	0.0101641987580079	-0.00111862324278925	0.00294509629367179	-0.00113556795511625	0.00295052234370015	0.00550887885918021	-0.00845559766003505
3.2	0.00872962099479518	0.00940799022840321	-0.000698874180149349	0.00306983114503385	-0.000694591068351512	0.00308063781972884	0.00428028744831544	-0.0100953625686274
3.3	0.00943097456701879	0.00851955676375152	-0.00026906653639134	0.00314085861352228	-0.00026577191013611	0.00313647282294813	0.00273048546330171	-0.011595181191617
3.4	0.0099521915025562	0.00760717608101406	0.000176884128772063	0.00314833037866265	0.000167454079329093	0.00314942273268239	0.000854837568395822	-0.0129484220102481
3.5	0.0103042797698317	0.00670827985307281	0.000610416753805936	0.00309099626172824	0.000615424122778795	0.00308965923106949	-0.00147270653981279	-0.014074631148176
3.6	0.0105561990261838	0.00589666379567072	0.00103046836549016	0.00297054186740064	0.00103707300758882	0.00297402574411521	-0.00410726046168941	-0.0146103157513852
3.7	0.0107527352249082	0.00516332300972039	0.00144689239548971	0.00279345630816367	0.00144516980051365	0.00280983069725777	-0.00681763348601789	-0.0145792684861377
3.8	0.0109828052337316	0.00448907928517552	0.00181482816087523	0.00256622718783431	0.0018254377981103	0.00257256424492387	-0.00955819980773826	-0.014046957718881
3.9	0.0112832311138828	0.00382876061961483	0.00216169087046424	0.00228759821608814	0.00215709306435098	0.00228750848420855	-0.0122263013504971	-0.0129289850537274
4	0.0116275750554484	0.00311967591591789	0.00245240848218218	0.00196822880654162	0.00246385624673352	0.00197435434485491	-0.0145691894574856	-0.0112284401699604
4.1	0.01196907209636	0.00231820275929521	0.00270373163384484	0.00160141899525337	0.00272030693829404	0.00161117337653121	-0.0164517199600218	-0.00906349321985039
4.2	0.012246651537797	0.00141840221032171	0.00290483392370449	0.00120450909228751	0.00290606976693272	0.00120679284942909	-0.0178993812826404	-0.00661817358235795
4.3	0.0123910715311	0.000479418057751549	0.00304705278221447	0.000796517870214343	0.00304824905536929	0.000805097568272397	-0.0188954823887595	-0.0040710428995985
4.4	0.0123632540956171	-0.000506205815139413	0.00312555123283578	0.000361431892207721	0.00313346360135932	0.000356787876783985	-0.0195191439632597	-0.00133679018692064
4.5	0.0121861174135454	-0.00139624105463919	0.00314862819664092	-8.32340333852363E-05	0.00314544194154876	-8.09689646144182E-05	-0.0196269093614783	0.00147086480683046
4.6	0.0118755775014841	-0.00224689227543733	0.00309440760253651	-0.000528920308812749	0.0031074470713609	-0.000516962596804213	-0.0192909188739878	0.00421792343253615
4.7	0.0115679043688908	-0.00292890459508852	0.00299196698716256	-0.000941431810673908	0.00299186132360012	-0.000950860152048003	-0.018546305450056	0.0068186233911428
4.8	0.0112377925679386	-0.00359346367068619	0.00284270538823227	-0.00134353669900525	0.00283504016831494	-0.00136369376568686	-0.017312007591398	0.00935112747740992
4.9	0.0110810703317561	-0.0041841492244489	0.00262685295043297	-0.00174051893876924	0.00262079408428573	-0.00173207705105616	-0.0155493612821795	0.0116439928090935
5	0.011028469242933	-0.00488784354043753	0.00235060704172123	-0.00207200369235626	0.00235333965227043	-0.00208441800199806	-0.0131426327413085	0.0135829811677481
5.1	0.0110467844682344	-0.00570817124421718	0.00202922342924849	-0.00239462924889126	0.00204243859000908	-0.00239216147755144	-0.0103112991618082	0.0149613679331432
5.2	0.010987131995341	-0.00665331154027626	0.00168687602096038	-0.0026511003981941	0.00168737408630347	-0.00265525783032291	-0.00727733675932911	0.0156913304690813
5.3	0.0108024485152434	-0.0076622477246862	0.00129729454714991	-0.00286189853580414	0.00129355237929647	-0.00286446588916342	-0.00420620460740857	0.0158344693635912
5.4	0.0104315560656503	-0.00864791694326726	0.000886513402096094	-0.00302032990863122	0.000885624850206949	-0.00302278536075088	-0.00120772107780679	0.0152860093997446
5.5	0.00982980870745327	-0.00948891028443523	0.000448485818517347	-0.00311387102321208	0.000461046795966361	-0.00311385636902404	0.00141904757390719	0.0140901698090404
5.6	0.00913649632692678	-0.0102217559268081	1.58352662540414E-05	-0.00314389110925726	1.25429170906207E-05	-0.00314043663867545	0.0035178927214779	0.0125280407196101
5.7	0.00828327680716094	-0.0107962055174474	-0.000416525675958388	-0.00311769674089083	-0.00042023863190542	-0.00312138039285486	0.00513647494323422	0.0107539242677002
5.8	0.00744153304493451	-0.0112363808529776	-0.000850634929917661	-0.00302741159375094	-0.000849907417817676	-0.00303508545696633	0.00636675407976343	0.00865631544172485
5.9	0.00655342565381628	-0.0115141910635078	-0.00126659263316072	-0.0028747315711699	-0.00126499469749615	-0.00287887768192971	0.00702167979150456	0.00643612363218113
6	0.00566080756571776	-0.0117576836337327	-0.00165427880189454	-0.00267003420125128	-0.00164829585398258	-0.00267337862961504	0.00709796883296991	0.00424029448561379
6.1	0.0048101142114765	-0.011952997041902	-0.00201188501241841	-0.0024193717099379	-0.00200774762801517	-0.00242413187294397	0.00690524293055399	0.00222078740489674
6.2	0.00398068939781185	-0.0122302279036168	-0.00233120179558515	-0.00210412367068035	-0.0023276295160801	-0.00211277690300435	0.00648540209108526	0.000152583505775261
6.3	0.00323029457912084	-0.0125713780697194	-0.00259807050356577	-0.00176574620559568	-0.00260787117238349	-0.00177349633036881	0.00577981729544429	-0.00200319647855508
6.4	0.00239714150037878	-0.0130029334148741	-0.00282501859142963	-0.00138176746529857	-0.00282302928477421	-0.00138755522736955	0.00472495888800969	-0.00409980689702982
6.5	0.00158029981090721	-0.0134242592814782	-0.00299041013847363	-0.00098027933392991	-0.002990813952435	-0.000979158234069323	0.00331806622336761	-0.00601730387948709
6.6	0.000712269512874832	-0.013702229561965	-0.00309462409400249	-0.000555390415683023	-0.00310527931957505	-0.000558394353561271	0.00150008952582943	-0.00757670621590559
6.7	-0.000140058756544619	-0.0138332498393643	-0.0031397765028337	-0.000121978379112166	-0.00313873729781277	-0.000115746337025853	-0.000774125257950377	-0.00853072515609045
6.8	-0.000996128822460561	-0.0138005240825369	-0.00312575524075331	0.000325608067869404	-0.00312485227953142	0.00033036389843529	-0.00327725034321701	-0.00873980108657214
6.9	-0.00183875434139723	-0.0136771729110646	-0.00304424460638444	0.000755473130104594	-0.00304466951404552	0.000760452396486469	-0.00565632407306048	-0.00821365176341988
7	-0.00264182761815397	-0.0134489710972248	-0.00291419995282027	0.00117313537562869	-0.00291561435775226	0.00117634782358997	-0.00778060178335578	-0.00715127771411811
7.1	-0.00345705531625735	-0.0131830907701884	-0.00271750466809374	0.00157062655582763	-0.00271993163518012	0.00158163097035894	-0.0096044641372141	-0.00553852020108069
7.2	-0.00427855693496049	-0.0128622978402521	-0.00247815508475699	0.00193198329347585	-0.00247834196972187	0.00193787262160086	-0.0109423317003358	-0.00346064836288525
7.3	-0.00516751888545501	-0.0124915131681335	-0.00218850664268377	0.00225707270941101	-0.00218574826029829	0.0022585474122261	-0.01164611699497	-0.00117972906039465
7.4	-0.00615347974445644	-0.0120744405676038	-0.00184689772374474	0.00254117290703644	-0.00183969369575091	0.0025476946579801	-0.0118453716328675	0.00103092543890267
7.5	-0.00718082452878411	-0.0115606052996242	-0.00147066322196162	0.00277629263632819	-0.00147169919789718	0.0027742790150659	-0.0114512735382758	0.00317254488294507
7.6	-0.00806045709168974	-0.0109980041163017	-0.0010779470531398	0.00295415612895562	-0.00106731183900051	0.00296450981751805	-0.0105131400052514	0.00504813621043688
7.7	-0.00893901796089761	-0.0104245551973881	-0.000649024217946697	0.00307874748694992	-0.000643463859432698	0.00307840580465803	-0.00936407576239427	0.006345033045382
7.8	-0.00949594968055331	-0.00997223271508141	-0.000203190199497057	0.00314053717802766	-0.000216816344442295	0.00313344744721052	-0.00799739705409029	0.00756557142920706
7.9	-0.00988812082819542	-0.00961858166723329	0.000220371980607173	0.00312773950177334	0.000231454308656898	0.00312744725239352	-0.00630289260523909	0.00871437172108718
8	-0.0101762096998847	-0.00930884204531951	0.000655673131258223	0.00307340457399228	0.000663963402711806	0.00307134090135299	-0.00437397173908263	0.00957978169594514
8.1	-0.0104811812426865	-0.00899906387713083	0.00108779938897573	0.00295042346914167	0.00108552320024099	0.00294716877310668	-0.00216490134638524	0.0101380814098718
8.2	-0.0108625896242714	-0.00864670391634006	0.00147979669766612	0.00276897502545069	0.00147896162459297	0.00278055581029712	0.000259705228841083	0.0102445641709589
8.3	-0.0113061867444451	-0.00822703424592568	0.00185293029791078	0.002537224778892	0.00185800786494174	0.00253464647087379	0.00271441689669379	0.0097875259714124
8.4	-0.0117924805987085	-0.00764185943743713	0.00220030792099596	0.00225721877888672	0.00218914607084728	0.00225760398190545	0.00498811309809432	0.00873751062008779
8.5	-0.0122440654910531	-0.00696529692960663	0.0024975270812733	0.00192170719624819	0.00249753473605012	0.00192305789729102	0.00689500497039912	0.00718837383685796
8.6	-0.0126444289180078	-0.00617093920974009	0.00272925761106271	0.00156170245964417	0.00272504971791487	0.00155938951917166	0.00841690524910809	0.00522601593754192
8.7	-0.0129084894069838	-0.00532451694134328	0.00291993555362241	0.00116296703332259	0.00291877332495035	0.0011625546950771	0.00944061890978299	0.00290593375647062
8.8	-0.0130158185531594	-0.0044837529144734	0.00304991430560907	0.000744438809060318	0.00306089680849211	0.000742345182510646	0.00987013233432747	0.000329112587035901
8.9	-0.0129390161911547	-0.00376132007193454	0.00312453242342047	0.000313470741149975	0.0031338941725058	0.000306340839583009	0.00985222513065121	-0.00222954778846673
9	-0.0127291235604861	-0.00326779228259553	0.00313741534434608	-0.000135101881879023	0.00314418442899791	-0.000129492495632261	0.00940196980152511	-0.00477437019125713
9.1	-0.0125005640506964	-0.00299884088792565	0.0030908221990925	-0.000567228247039385	0.00309104020455492	-0.000567420382288781	0.00848924272306936	-0.00727386874264371
9.2	-0.012391224415906	-0.0028803272627849	0.00297667245472672	-0.000988802801255371	0.00298049277200856	-0.000988573913945896	0.0070467861307411	-0.00965814297952803
9.3	-0.0124320542844963	-0.0027775692796084	0.00280515054374776	-0.00139839318680547	0.00282320138552725	-0.00139880444577432	0.00504706417359914	-0.0117505953370847
9.4	-0.0125989781504951	-0.00262869138459073	0.00258777431506926	-0.00177128795611638	0.00259111156387335	-0.00178231162690604	0.0024959398337885	-0.0134514738626609
9.5	-0.0128804240818424	-0.00223403082320996	0.00231722785632209	-0.00212745108678161	0.00233202900853574	-0.00212808850855974	-0.00058085767654969	-0.0144933223153393
9.6	-0.0131973994612993	-0.00176225179922952	0.0019991527328874	-0.00243041469178948	0.00199946226470928	-0.00242339527311724	-0.0040944933618539	-0.0148599483771129
9.7	-0.0134930748202643	-0.00112801790413728	0.00163741489393657	-0.0026855657270817	0.00164571948529264	-0.00268713987485725	-0.00776692131843593	-0.0143376334600462
9.8	-0.0137327434175031	-0.000399306704630772	0.00125339903304615	-0.00288247239584831	0.00125158765017665	-0.00289113007813471	-0.0113516583315853	-0.0129607677299676
9.9	-0.0138943701580393	0.000486892947804332	0.00084364061299575	-0.00302928205782574	0.000831756813449333	-0.00303192586001156	-0.014782837350105	-0.0106919243405685
10	-0.0139286662387331	0.00136179063023383	0.000409541093047578	-0.00310985094745322	0.000408740556724082	-0.00311717958558208	-0.0176424033052183	-0.00765770766886472
10.1	-0.0137889458602176	0.00226864910124364	-2.57884262195777E-05	-0.00314727043193907	-3.04333529618404E-05	-0.00315005098515289	-0.0197733977102382	-0.00403543555401078
10.2	-0.0134800001362549	0.00310370679473094	-0.000466621711562544	-0.00310809626086113	-0.000479233784501387	-0.00311188226881106	-0.0210368338545138	-5.30248846513428E-05
10.3	-0.0130496190153953	0.0038430685030687	-0.000899663090351611	-0.00300630331424173	-0.000899425192136525	-0.00301971020530438	-0.0214189665004127	0.00415201380690604
10.4	-0.0125104645071065	0.00444450983144042	-0.00130996658219479	-0.00285931431295421	-0.00131314423884334	-0.00285718578347549	-0.0208125804305209	0.00823800527769931
10.5	-0.0119446439141906	0.00495142365509907	-0.00169523534295147	-0.00264007871984928	-0.0017014093402243	-0.00264735153831923	-0.0194307807767984	0.0121664544726634
10.6	-0.0113804598087924	0.00534213415159462	-0.00205495366505335	-0.00238288577209897	-0.00205645255423063	-0.00238800600633141	-0.0173111182965855	0.0157594055022155
10.7	-0.0107255036559045	0.00579501639617104	-0.00236265999282619	-0.00207000082338293	-0.00236586558643558	-0.0020860564893784	-0.0144942643581761	0.0191768289512159
10.8	-0.0100502398972387	0.00615903947855727	-0.00263036936203734	-0.00172177611633425	-0.00262742620768038	-0.00172394456245667	-0.0110561609113887	0.0220699756041305
10.9	-0.00940041130698793	0.00647804447321457	-0.00284827391233412	-0.00134295745711696	-0.00284755224252431	-0.00134809097320603	-0.00706722227895972	0.0243576672087544
11	-0.00861534683027868	0.00672925701749514	-0.00301140496156956	-0.000926188717344571	-0.00300437294150505	-0.000930486314149061	-0.00252395511436776	0.025992421514072
11.1	-0.00778682390303613	0.00685660441215409	-0.00310704099648564	-0.000508550573658229	-0.00309928593470009	-0.000500240729713449	0.00245772275890052	0.0267317157201281
11.2	-0.00694377688207059	0.00678751937065361	-0.00314735177592267	-6.57773503835893E-05	-0.00315396007334145	-6.25611828392302E-05	0.00774479061543848	0.0264708497917791
11.3	-0.00607656546618836	0.00651303128627936	-0.00312423939725551	0.000376239743603602	-0.00312741012090028	0.000374072749408232	0.0131559063785117	0.0251716711066094
11.4	-0.00544818504809922	0.00608109390856559	-0.00303685800898419	0.000807874854649828	-0.00304149501036443	0.000808030533377977	0.0182713004096175	0.0226634297571123
11.5	-0.00499563894392312	0.00558650538345683	-0.00290377460913245	0.00121678291968856	-0.00289624566629598	0.00122154133338202	0.0227262515179902	0.0189926745439338
11.6	-0.00462333289710879	0.00502069174508235	-0.00270073549410629	0.00161171739545822	-0.00270886040007883	0.00162143946154105	0.0264506605050466	0.0143918315089418
11.7	-0.00439069223897225	0.00442280808504084	-0.0024460032954678	0.00197951838207625	-0.00244775392664507	0.00198321709198067	0.0292739213672675	0.00904134349643196
11.8	-0.00422644813580469	0.00392399152067151	-0.00214615763533011	0.00230402039225626	-0.00215537153053895	0.00231384217029835	0.0310636821160563	0.00326181871364186
11.9	-0.00399337989627727	0.00345108991447396	-0.00180555005660913	0.00257643814254482	-0.00180557707580625	0.00258300847739659	0.0316831310103064	-0.00253500352157443
12	-0.00399031936926781	0.00297692188881357	-0.00142510170381029	0.00280166092193103	-0.00142959995860472	0.00280445626627712	0.0311661676892642	-0.00836351887314886
