# GHZ S RI R 50
0.2	-0.0139800098185411	0.00525320638850753	0.00304493368664111	-0.000885080659245086	0.00305539449277824	-0.00088492741266565	0.00584724938443276	0.000786835624291617
0.3	-0.0131621885438776	0.0057540573100807	0.0028988923561806	-0.00130114603311875	0.00289260759683622	-0.00131279029759611	0.00616545720308377	-0.00147362783000508
0.4	-0.0124217115273444	0.00645610832336805	0.00268479406404964	-0.00169548277232187	0.00268268861598377	-0.00169739532660795	0.00573044942384116	-0.00331451898666653
0.5	-0.0117763014115429	0.00715234563862818	0.00241498403669592	-0.0020525121519681	0.00241779866987133	-0.00205623824555253	0.00480771087467439	-0.0048724765605896
0.6	-0.0110966677413217	0.00797282612789674	0.00210246135041057	-0.00237262250402087	0.00210171816722633	-0.00237546514292986	0.00355866090218616	-0.00609093142279808
0.7	-0.0104238879886701	0.0087324761686004	0.00175189065166928	-0.00264276202444843	0.00175809778178933	-0.00264685523026114	0.00200522065498068	-0.00692522075872261
0.8	-0.00963594391449028	0.00947335229881446	0.00135834601742839	-0.00286278758434089	0.00136661949747508	-0.00286119054750583	0.000284028335609074	-0.0072743238263016
0.9	-0.00887502885807146	0.0101510223598171	0.00095381133550923	-0.00301480191366603	0.000953792616067612	-0.00302421843652424	-0.00141905141999526	-0.00719314255713392
1	-0.00807185689903083	0.0106792422742799	0.000520995155064121	-0.00312300346846829	0.000520847145853714	-0.00312836068213363	-0.00304082050155006	-0.0067433750461556
1.1	-0.00747415968560225	0.0111381461511749	7.35015607447821E-05	-0.00316305786983716	7.43897237872525E-05	-0.00316778497383073	-0.00463028401742909	-0.00578339036487853
1.2	-0.00687774710046563	0.0112840094465687	-0.000365477528213435	-0.00313600019287385	-0.000364251034247856	-0.0031527975491069	-0.00556057671116158	-0.00448952927134388
1.3	-0.00662211549946976	0.0110599067506149	-0.00079674029044772	-0.00306173593879172	-0.000801679267569994	-0.00306939272244775	-0.00572342606126826	-0.00318722139878242
1.4	-0.00643374568010088	0.0108203425134525	-0.0012227749045908	-0.00291659809911723	-0.00122519097693235	-0.00292372945624975	-0.00544557528793961	-0.00230243991354158
1.5	-0.00590901874675035	0.0109096131218296	-0.00161468684747559	-0.00271838580063515	-0.00161271467592393	-0.0027239289077654	-0.00516294127477863	-0.00163735899692103
1.6	-0.0050184020561607	0.0113314103467119	-0.00197789055456634	-0.00246189821663939	-0.00198136194502191	-0.00246277754489025	-0.00523002303321152	-0.000575752593481608
1.7	-0.00394913590149371	0.0116695521665854	-0.0023029495687585	-0.00216730828973018	-0.00230500026215473	-0.00217589842645165	-0.00493947462304917	0.00068964596871752
1.8	-0.00290215936791705	0.012005875954906	-0.00257992162750974	-0.00181789200462205	-0.00258510082582603	-0.00182335340053166	-0.00437281656369354	0.00186124623528708
1.9	-0.00186826854943728	0.0121228430426015	-0.00280569152629764	-0.00144851209938086	-0.00280217795232759	-0.00144232146901338	-0.00351357620606828	0.0028803376044587
2	-0.00101746343097188	0.0121305235376832	-0.00298120789817378	-0.0010363855951291	-0.00298394684252344	-0.00102953840549644	-0.00254398106016124	0.00370165213484926
2.1	-0.000165580554937003	0.0121788555987815	-0.0030962145579357	-0.000603817143377649	-0.00309831893879825	-0.000610514106832766	-0.00124877302590878	0.00431994612861744
2.2	0.000677788045289973	0.0121517635088097	-0.00314961774551285	-0.000172586874330839	-0.00315142794908716	-0.000162857731653266	0.000386820845761502	0.00447003145842457
2.3	0.00141006216861389	0.011981670987	-0.00314120623572663	0.000269911294546842	-0.00314796530054993	0.000267003560646232	0.00198823442406235	0.00405665942250362
2.4	0.00208804948681504	0.0117950778598323	-0.00308077396983603	0.000704915762005594	-0.00307959298125761	0.000720038668076884	0.00353572845355625	0.00324506534025682
2.5	0.00260525981175066	0.0114769129947311	-0.00294492534770776	0.00113714624520917	-0.00295793177522523	0.00113845353625695	0.00480623673661887	0.00187230594506446
2.6	0.00304488088242002	0.0114136519534796	-0.00275450589323256	0.00153235769665955	-0.00277543300755078	0.0015362865637453	0.0057064113397395	0.000322230961024089
2.7	0.00368971942738109	0.0114178612977335	-0.0025219993847761	0.00190161172315413	-0.00252227440893177	0.00190670020994206	0.00626010347568382	-0.00145774728197116
2.8	0.00455951447968611	0.011401450287828	-0.00222637764801702	0.00222666876426328	-0.00223620614857921	0.002237877977206	0.00643662876007762	-0.00324802926033205
2.9	0.00566957933153244	0.0111699783316256	-0.00188928427497012	0.0025195153409989	-0.00188734658586341	0.00252842680086444	0.0064263513954485	-0.00500316548476615
3	0.00671775435039014	0.010650874925679	-0.00151798485907592	0.00276227659828166	-0.00153308740227666	0.00274924774390618	0.00606686969903881	-0.00679817263821909
3.1	0.00773436116781695	0.0101511282137976	-0.00111869211768532	0.00294553456236226	-0.00113563900809562	0.00295096185087256	0.00538276321223656	-0.0084712845389839
3.2	0.00865452853379566	0.00942991676675978	-0.000698785548626474	0.003070148854672	-0.000694501503452354	0.00308095631164176	0.00420357230025324	-0.0100750941526837
3.3	0.00940323685789349	0.00856220151330306	-0.000269005616668192	0.0031411050353767	-0.000265710852953967	0.00313671882502931	0.00270149131004234	-0.0115538168191055
3.4	0.00999996122345618	0.00763496254524917	0.000176832493224029	0.00314871227961747	0.000167401286871716	0.0031498045464819	0.00090176718637666	-0.0129232318316766
3.5	0.010319687838601	0.00665072169426108	0.000610815519185978	0.00309169876964995	0.000615823998021251	0.00309036100830067	-0.00146235057103934	-0.0141370732323666
3.6	0.010569066706641	0.00593444381151171	0.0010310963107098	0.00297074155528936	0.00103770236624262	0.00297422476035334	-0.00410011473119102	-0.0145728177651713
3.7	0.0108666475246475	0.00519994729881838	0.00144740577612059	0.00279353933535546	0.0014456851854554	0.00280991556585611	-0.006708597581862	-0.0145421737082549
3.8	0.0111795165453601	0.00446006200897922	0.00181538562090495	0.00256630230509052	0.00182599738187152	0.00257263874484638	-0.00936704958713757	-0.0140751760667751
3.9	0.0115330848924212	0.00365692262186641	0.00216250547376657	0.00228756095817352	0.0021579068722843	0.00228747211342066	-0.0119841435720339	-0.0130983552352083
4	0.0117114920338118	0.0027578208775095	0.00245317373716714	0.00196745601349172	0.00246462402059187	0.00197357783428692	-0.0144907753150027	-0.011581142765228
4.1	0.0118961829562638	0.00207624215278864	0.00270388353059164	0.00160074315129931	0.00272045975300383	0.00161049339359217	-0.0165244173701216	-0.00929847735657013
4.2	0.0121764410404791	0.00125403255215045	0.00290495726055873	0.00120394716257194	0.00290619347525096	0.00120623062357983	-0.0179696132221505	-0.00677712125384566
4.3	0.0123488417613655	0.000350512240864176	0.00304712680763764	0.000795859516444628	0.00304832483093455	0.000804438706970275	-0.018938218623538	-0.00419321601490573
4.4	0.0123813091475228	-0.000659155655585288	0.00312532753861912	0.000360563914065585	0.00313323786287803	0.000355918270107829	-0.0194982572333159	-0.00148059330175072
4.5	0.0121073416255039	-0.00167773312929972	0.00314777814656211	-8.35809910444765E-05	0.00314459300738068	-8.13161531848322E-05	-0.0196965072928331	0.00119311666593153
4.6	0.011684230745283	-0.00239364096263411	0.00309407530914755	-0.000528888244962702	0.00310711348790657	-0.000516931902434126	-0.0194788815338413	0.0040709670790759
4.7	0.0113956176905991	-0.00299134930243865	0.00299171813316662	-0.000941558569004562	0.00299161188834223	-0.000950986304608877	-0.0187160261713981	0.00675778568166244
4.8	0.0111026770864165	-0.00358540370709804	0.00284232670453587	-0.00134366953855684	0.00283466037358385	-0.0013638240869775	-0.0174426186255622	0.00936102786900916
4.9	0.0110398652487872	-0.00415301801197783	0.00262635968942957	-0.00174032847341012	0.00262030212070356	-0.00173188775053804	-0.0155850571248262	0.0116736621180486
5	0.0109507137754531	-0.00492388387336659	0.00235081517836436	-0.00207167954243073	0.0023535492468136	-0.00208409328937367	-0.0132216380676425	0.0135436096549536
5.1	0.0110195972772269	-0.00560955341718161	0.00202921860045739	-0.00239492243243047	0.00204243484172207	-0.00239245530122647	-0.0103381986590436	0.015062386282052
5.2	0.011099184685536	-0.00660060748446049	0.00168659847114222	-0.00265124375187761	0.00168709612040227	-0.00265540119620481	-0.00716281224610298	0.0157451945754223
5.3	0.0109585377314183	-0.00771922498456658	0.00129706841901007	-0.00286186006222438	0.00129332624877497	-0.00286442708430503	-0.00404831071631062	0.0157771511763983
5.4	0.010579975783475	-0.00881834216411544	0.000886577220133126	-0.00302038837107122	0.000885688682260845	-0.00302284389360404	-0.0010599993296396	0.0151157062558995
5.5	0.00975490467662653	-0.00974919223652967	0.000448061545000581	-0.0031145401035726	0.000460624927501923	-0.0031145275040927	0.0013459947053668	0.0138355139088943
5.6	0.00905075988068021	-0.0102087439120108	1.49631520878923E-05	-0.00314382289946982	1.16718368244636E-05	-0.00314036759575591	0.00343853175890373	0.0125424799630711
5.7	0.00838269427787444	-0.0107392365835326	-0.00041713191526121	-0.0031173299946928	-0.000420845297491781	-0.00312101254831288	0.00524026756213512	0.010810190034563
5.8	0.00769910725315669	-0.0112409065977477	-0.000851081874979958	-0.00302702918739856	-0.000850355722578159	-0.00303470257073404	0.00662743705977297	0.00865082475888064
5.9	0.00699058895151496	-0.0117093546421522	-0.00126722109725709	-0.0028743864903835	-0.00126562413609847	-0.00287853288207912	0.00746277313649067	0.00624176545197269
6	0.00596409864470873	-0.0124187960099678	-0.00165493007952913	-0.00266876860052874	-0.00164894982676926	-0.00267211457274414	0.00740696294800725	0.00357599047877754
6.1	0.00471908266226073	-0.0126160733376808	-0.00201150862318633	-0.00241826709963488	-0.00200737330261366	-0.00242302616182264	0.00681536315885313	0.00155447173301813
6.2	0.0036614981190794	-0.0127756140068155	-0.00233073514571462	-0.00210344984582839	-0.00232716429059315	-0.00211210109287758	0.0061678052710845	-0.000394003485101604
6.3	0.00280827272014453	-0.0128864905189632	-0.00259767464950315	-0.00176516979964779	-0.00260747391318988	-0.00177291752419158	0.00536029398327322	-0.00232044292123118
6.4	0.00208391743259173	-0.0131778572368551	-0.00282447320128878	-0.00138093242084489	-0.00282248537615755	-0.00138671892894046	0.00441457465264035	-0.00427805051492792
6.5	0.00118621323970289	-0.0135867530964695	-0.00298899119632122	-0.00097998498104599	-0.00298939488332898	-0.000978864414994397	0.00292414752285024	-0.00618309018242608
6.6	0.000462227963334053	-0.0136449390539754	-0.00309390587066606	-0.000555758229914541	-0.00310455845354565	-0.000558763211316646	0.00124889598901915	-0.00752043324622338
6.7	-0.000262977391130537	-0.0138136065597192	-0.0031392770644659	-0.000122105802384049	-0.00313823831384585	-0.000115874691758561	-0.000897373235537154	-0.00851143048221733
6.8	-0.00106268996092528	-0.0137739005653937	-0.00312506289140256	0.000325536674858944	-0.0031241601290358	0.000330291451945761	-0.00334313615647926	-0.0087131444879469
6.9	-0.00176676895154042	-0.0137075105688773	-0.00304326263065378	0.000754928739475698	-0.00304368785470309	0.000759906245204655	-0.00558322956526249	-0.00824644879075787
7	-0.00276847641973016	-0.0136678911013034	-0.00291420097571942	0.00117202152699788	-0.00291561625076267	0.00117523308516937	-0.00790822471492021	-0.00737219178938278
7.1	-0.00360887680324233	-0.0130793969647254	-0.0027175964689724	0.00157035446977388	-0.00272002437920084	0.00158135846791689	-0.00975586069868804	-0.00543520298744848
7.2	-0.00422111717226268	-0.0126875269084413	-0.00247797552246153	0.00193160933129904	-0.00247816273118013	0.00193749795208744	-0.0108838549519194	-0.00328648094640647
7.3	-0.00491970001536324	-0.0123222551440575	-0.00218846944425534	0.00225645155545429	-0.00218571166616037	0.0022579263928872	-0.0113979962136824	-0.00100986990345691
7.4	-0.0056100280994867	-0.0120182786541645	-0.00184745248622148	0.00254062301292775	-0.00184025033318014	0.00254714628800668	-0.0113066833251421	0.00107966317996257
7.5	-0.00663451220821121	-0.0120093064627614	-0.00147091659824722	0.00277685631795343	-0.00147195280315343	0.00277484231460674	-0.0109111439748524	0.00271655491375565
7.6	-0.00775546660941679	-0.0114711095468376	-0.00107742655099507	0.00295404556300069	-0.00106679080642734	0.00296439679665407	-0.0101905128920256	0.00456675157709929
7.7	-0.00869963951786294	-0.0109762672416372	-0.000648822896244938	0.00307827062354123	-0.000643263446417879	0.00307792882213338	-0.00912529886194873	0.005790168849457
7.8	-0.00936887771698653	-0.0105672681430407	-0.000203255697976041	0.00314013616855186	-0.000216879923011896	0.00313304693460493	-0.00786796974123202	0.00696909411796599
7.9	-0.00984832223413237	-0.0102873220167491	0.000220508279644827	0.0031276509903346	0.000231590316233345	0.00312735824574596	-0.00629265773286861	0.00803193143251691
8	-0.0105914141927397	-0.00998877667266609	0.000656216888620638	0.00307232321264952	0.000664504172074594	0.00307025816190366	-0.00476749166641872	0.0088834459557146
8.1	-0.0108810968172785	-0.00924199289468254	0.00108705527140012	0.00294932698649259	0.00108478034371418	0.00294607339088716	-0.00257663756781871	0.0098912658433369
8.2	-0.0111331898233508	-0.00878124924130229	0.00147888395081211	0.00276855215451744	0.00147804685720703	0.0027801298156943	-1.97178697716058E-05	0.0101095312015528
8.3	-0.0114883419717861	-0.00829537528156982	0.00185226398547575	0.00253708158981017	0.00185734110281478	0.00253450443233476	0.00252601600080462	0.00971925857613806
8.4	-0.0118164913641708	-0.00774060637372407	0.0021997610875928	0.00225670007754016	0.00218860190065144	0.00225708508403463	0.00495875461291479	0.00863599788623119
8.5	-0.0124764861271429	-0.00725579242458747	0.00249579701407584	0.00192153701811518	0.00249580427087749	0.00192288708921068	0.00664963758993949	0.00689882920675689
8.6	-0.0129236090649768	-0.00608500304407333	0.0027282650755935	0.00156258479467348	0.0027240586747408	0.00156027048107403	0.00812998917931751	0.00531909650560987
8.7	-0.0129554105396759	-0.00512404441485878	0.00291941508243346	0.00116365619121167	0.00291825304752848	0.00116324357498207	0.0093886597365696	0.00311224891341335
8.8	-0.0128399429366778	-0.00428119503429196	0.0030493524338247	0.000744962724914292	0.00306033389008035	0.000742871626108422	0.0100413343745899	0.000536903621178254
8.9	-0.0124754314410033	-0.00371451890715794	0.00312358611938616	0.000314369508976831	0.00313294757382531	0.000307244489241501	0.0103091630249472	-0.00217413234808579
9	-0.0123488871081905	-0.00365509499653542	0.00313759383269394	-0.000133329222988937	0.00314435996013607	-0.000127715820383739	0.00978505796687756	-0.00514784374366096
9.1	-0.0122636162888411	-0.00338661103919971	0.00309134458048921	-0.000566577639440127	0.00309156265833262	-0.000566769747965703	0.00873064014784716	-0.00765744601196243
9.2	-0.0122527895249691	-0.00339406215411449	0.00297680009651856	-0.000988149809306726	0.00298062026246845	-0.000987920124351153	0.00718715909576443	-0.0101674117744504
9.3	-0.0124954545135713	-0.00329855969773799	0.00280539301928024	-0.00139736434882185	0.00282344260242169	-0.00139776965029984	0.00498730995613688	-0.0122659317773374
9.4	-0.0127572833496064	-0.00308823995592447	0.00258890790122254	-0.00177009456580947	0.00259225114091546	-0.00178111742593455	0.00234598291941504	-0.0139038580713902
9.5	-0.0133413777602761	-0.00262154709519343	0.00231854730501914	-0.00212781355535643	0.00233335431067727	-0.00212844828148376	-0.00103527557956975	-0.0148844376141758
9.6	-0.0135470492311517	-0.00169839705029106	0.00199951651593749	-0.00243039685167426	0.00199982541732223	-0.00242337691965543	-0.00444214403421366	-0.0147960309860916
9.7	-0.0135754046662548	-0.000985033652908598	0.00163814212546029	-0.00268531820570317	0.00164644753368054	-0.00268689045774354	-0.00784510416436181	-0.0141934992469058
9.8	-0.0136002211099386	-0.000271863664196557	0.00125445840485363	-0.00288259610594508	0.00125264925317942	-0.00289125579589566	-0.011214450187557	-0.0128350038521734
9.9	-0.0135032380173113	0.000437525480617672	0.000844382163337765	-0.00303024569502953	0.000832494486834556	-0.0030328921677082	-0.0143909134840847	-0.0107465673411231
10	-0.0137283586638193	0.000930721690264594	0.000409102911486662	-0.00311005024247555	0.000408301263537391	-0.00311737909101047	-0.0174438730826162	-0.00809076060847468
10.1	-0.0137108730529929	0.00201584828659073	-2.51937776951478E-05	-0.00314718591532608	-2.98380478114849E-05	-0.00314996726614922	-0.0196960301654196	-0.00429184460638189
10.2	-0.0133375698444995	0.00285230011866601	-0.000466111691931256	-0.00310862651298544	-0.00047872486288537	-0.00311241540126388	-0.0208983395494592	-0.000307898742029632
10.3	-0.0128413518877577	0.00357839951758141	-0.000899716807273183	-0.00300690048657982	-0.000899478352963846	-0.00302030987860612	-0.0212161182296579	0.00388689358705942
10.4	-0.0121331171905251	0.00400612974472908	-0.00131040430677207	-0.00285905244544047	-0.00131358156400508	-0.00285692344139185	-0.02043813433333	0.00780132780902013
10.5	-0.0118548118465795	0.00413006942047329	-0.00169395911256408	-0.00263950479949206	-0.00170012903209234	-0.00264677640295363	-0.0193454033437659	0.0113429173231071
10.6	-0.011559567228542	0.00461091914528523	-0.00205394606077089	-0.00238378090644693	-0.00205544276636888	-0.00238890181470711	-0.0174937901044429	0.0150277948136337
10.7	-0.0112109180629261	0.00514159682389214	-0.00236225162781253	-0.00207097024973955	-0.00236545245715582	-0.00208702862969409	-0.0149232215836193	0.0184998216107152
10.8	-0.0105683349892303	0.00585233863320785	-0.00263006280580005	-0.00172258550967018	-0.00262711889343356	-0.00172475329346107	-0.0115742987275716	0.0217710209641374
10.9	-0.00972624815108709	0.00633170718087223	-0.0028475297718866	-0.00134407303129255	-0.00284680598484223	-0.00134920592177485	-0.00740071132901397	0.0242095593676309
11	-0.00911538832396189	0.00650618975128928	-0.00301191566413128	-0.000928622981800239	-0.00300487798831013	-0.000932917362673603	-0.00303487093480984	0.0257791967776091
11.1	-0.00820615206570885	0.00704911740381388	-0.00310848004799519	-0.000509610746600465	-0.00310072321425281	-0.000501294697813631	0.00203752219625377	0.0269350098579001
11.2	-0.00709724794070083	0.00706858230585936	-0.00314846537816344	-6.64034906172546E-05	-0.00315507665597638	-6.31874375130949E-05	0.00759166645681452	0.0267609656870926
11.3	-0.0060073999152294	0.00679787926534929	-0.00312532703435198	0.000375495734737422	-0.003128498158187	0.00037332718287913	0.013227665770968	0.0254686717786836
11.4	-0.00511094251098019	0.00623287668530166	-0.00303876181129533	0.000806965723483051	-0.00304340125037744	0.000807119463163801	0.0186157926308107	0.0228360310994928
11.5	-0.00483582767597468	0.00547867971526831	-0.00290614514734825	0.00121784848587288	-0.00289860989071294	0.00122261066705284	0.0229054973568539	0.018894132967086
11.6	-0.00438276810352245	0.00517617792338095	-0.00270161057649835	0.00161279353662771	-0.00270973737803457	0.00162252085907227	0.0267057543945147	0.014546050431725
11.7	-0.00385277293905321	0.00450825676008087	-0.00244692497155462	0.00198026666032743	-0.00244867626104273	0.00198396676673209	0.0298238175417938	0.00912744012231187
11.8	-0.00344409396448999	0.00376254114837312	-0.00214734189228618	0.00230508507527199	-0.00215656086862202	0.00231491138904145	0.0318615190903582	0.00310083360795851
11.9	-0.00304331807525543	0.0027333399608431	-0.0018064103384997	0.00257862584164861	-0.00180643622658771	0.00258520095382673	0.0326537214505261	-0.00326845142988072
12	-0.003749994228656	0.00173437960916186	-0.0014240059784197	0.00280326668720416	-0.00142850405450428	0.00280606530210108	0.0314046514942733	-0.00963108970552681
