# GHZ S RI R 50
0.2	-0.0139946882592228	0.00527165217880478	0.00304494934802477	-0.000885011454562154	0.00305541013662774	-0.000884857974539968	0.00583264829394783	0.000805727743582052
0.3	-0.0131795091868474	0.00576962393553135	0.00289894822061539	-0.00130104466767523	0.00289266386528523	-0.00131268919496887	0.00614845837059956	-0.00145738490443893
0.4	-0.0124426994307668	0.00648633037670107	0.00268492612741607	-0.00169536900446621	0.00268282074600118	-0.00169728169995675	0.00571026300753847	-0.00328350373255398
0.5	-0.0117557007222241	0.0071900392618614	0.00241517396481244	-0.00205248173770116	0.00241798888086751	-0.00205620784845755	0.00482952258946813	-0.0048344856308648
0.6	-0.0110814473478166	0.00796468333899428	0.00210263129431698	-0.00237260121858853	0.00210188821515525	-0.00237544397740493	0.00357496269598022	-0.00609884864611558
0.7	-0.0104313533034002	0.00871743316924035	0.00175211214482442	-0.00264276118528827	0.00175831975207971	-0.0026468541858669	0.00199915531187007	-0.006940139918856
0.8	-0.00966446994122556	0.00945401361855148	0.00135860874274531	-0.00286285954146533	0.00136688258251153	-0.00286126187588978	0.000257177316058921	-0.00729395556862608
0.9	-0.00895011899674879	0.0101418022527844	0.00095405472331542	-0.0030149928396545	0.000954036521896263	-0.00302441012425678	-0.0014924724397885	-0.00720335510334377
1	-0.0081561114481225	0.0107681104705866	0.000521102115417717	-0.00312318919406354	0.000520954223622654	-0.00312854675098079	-0.00312418420813021	-0.00665550891499227
1.1	-0.00749056485761265	0.0112337447416928	7.36901721001552E-05	-0.00316322393333077	7.45786589350262E-05	-0.00316795124006412	-0.00464574917311106	-0.00568854420358733
1.2	-0.00686754481032371	0.0114052298763391	-0.000365305939365423	-0.00313626748358824	-0.000364078278596738	-0.00315306606841834	-0.00554871923610012	-0.00436995390466268
1.3	-0.00652969046854635	0.0111799835406449	-0.000796648743798072	-0.00306205932994844	-0.000801587761989029	-0.00306971708070217	-0.00563006568632604	-0.00306919369051338
1.4	-0.00631305498869291	0.0108700108663016	-0.0012227788626133	-0.00291688405097776	-0.00122519489651154	-0.00292401608789011	-0.00532465199421682	-0.00225341972482082
1.5	-0.00577822826614548	0.0109119051333762	-0.00161455829924529	-0.00271863868814204	-0.0016125856128397	-0.00272418191186096	-0.00503094021181928	-0.00163520674258276
1.6	-0.00497381923728332	0.0112542603702636	-0.00197786227346658	-0.00246238512999643	-0.00198133397064085	-0.00246326491846264	-0.00518430042712774	-0.000652348687661754
1.7	-0.00397987795517891	0.0116199312438407	-0.00230310789267824	-0.00216778205958629	-0.00230515822894437	-0.00217637354482689	-0.00496926172721734	0.000639276823805159
1.8	-0.00297432845361082	0.0119919566176414	-0.00258016907189252	-0.00181828805906923	-0.00258534866289491	-0.00182375049717093	-0.0044446483793014	0.00184613536938647
1.9	-0.00197380353476517	0.0121754004177	-0.00280591057074555	-0.00144888465948257	-0.00280239704203338	-0.00144269305589099	-0.00361874643905109	0.0029319620062398
2	-0.00103258230863385	0.0122692557622756	-0.00298159946880292	-0.00103697472162018	-0.00298433983025455	-0.00103012668126272	-0.00255813454202134	0.0038390767456123
2.1	-0.000134876037645408	0.0122278182679842	-0.00309689842902873	-0.000604153450442333	-0.0030990028777441	-0.000610852108425987	-0.00121771831444979	0.00436722328983234
2.2	0.000674865021247202	0.0121717904595346	-0.0031503037665579	-0.000172757615218011	-0.00315211477866528	-0.000163026407257171	0.000384224025966214	0.00448868637731708
2.3	0.00136688205192915	0.0119902452275698	-0.00314192827141127	0.000269819553742575	-0.00314868872033744	0.000266910835138245	0.00194569738597987	0.00406401131724333
2.4	0.00196750512978007	0.0118342871995915	-0.00308165549166718	0.000704892458663089	-0.0030804752334753	0.000720019533757856	0.00341602400873126	0.00328172777334773
2.5	0.00250021745378991	0.0116734938557427	-0.00294597837414147	0.00113761177605427	-0.00295898951710026	0.00113891976978048	0.00470119076444404	0.00206488716136136
2.6	0.00306161795975826	0.0116075862041322	-0.00275516998785478	0.00153302875343318	-0.00277610279256073	0.00153696050044148	0.00572259448172369	0.000513349004997511
2.7	0.00376290147396638	0.0115750664738554	-0.00252258685667887	0.00190231236860858	-0.00252286162694992	0.00190740230856798	0.00633371682934691	-0.0013032297243628
2.8	0.00464328349841906	0.011497654851223	-0.00222691420516108	0.00222752753322021	-0.00223674497460866	0.00223874096951897	0.00652131375514114	-0.00315587743050431
2.9	0.00571338009116544	0.0112560349610944	-0.00188964762552393	0.0025206835547232	-0.00188770806659048	0.00252959802388263	0.00646866444307514	-0.00492340359817802
3	0.00682547148051565	0.0107735608751877	-0.00151772674285416	0.00276346084471696	-0.00153283695605122	0.00275043203081352	0.00616979534405328	-0.0066804187932124
3.1	0.00785001950880447	0.010164200711742	-0.00111844086380499	0.00294643352574384	-0.00113539084015522	0.00295186508822573	0.00549518254458125	-0.00846365978720651
3.2	0.00872164388780556	0.00940860177477007	-0.000698398566289306	0.00307114735247868	-0.0006941112575417	0.00308195704153445	0.00426608828418817	-0.0101009084092876
3.3	0.0094217796325263	0.00851877668450513	-0.000268305923980865	0.00314208728484664	-0.000265011286404035	0.00313769897977696	0.00271344230226692	-0.0116014727788709
3.4	0.00994181171413448	0.00760779479113125	0.000177908288507883	0.00314940042495423	0.00016847520571639	0.00315049604743499	0.000835071045607555	-0.0129523274258116
3.5	0.0102962934168867	0.00670635615931831	0.000611656163637111	0.00309187633240793	0.000616664842788368	0.00309053717197986	-0.00149097471944106	-0.0140803724506379
3.6	0.0105440797613571	0.00589465972521053	0.00103191521281996	0.00297116985173871	0.00103852338381995	0.00297465247222874	-0.00413183008916912	-0.0146139859042337
3.7	0.0107410222916743	0.00516395891239764	0.00144847663988108	0.00279377531428056	0.00144676004917334	0.00281015566017872	-0.00684285639857983	-0.0145781110773645
3.8	0.0109724874774717	0.00449093001288453	0.00181648096205477	0.00256622559541978	0.00182709653883428	0.00257256001577488	-0.00958270400456179	-0.0140420836175956
3.9	0.0112761936409115	0.00383201719229314	0.00216334999441497	0.0022872624770079	0.00215875083917125	0.00228717481806824	-0.0122477075529726	-0.0129199205639355
4	0.0116268175629676	0.00311668782173761	0.00245402820643479	0.0019675564624934	0.00246548203397881	0.00197367804204113	-0.0145839587849	-0.0112225230658439
4.1	0.0119627625610851	0.00230981848247181	0.00270520515300295	0.00160039611524987	0.00272178945811945	0.00161014421072658	-0.0164705309390624	-0.0090598567883337
4.2	0.0122376017223693	0.00140963850489517	0.00290610004316052	0.00120318533976216	0.00290733738698879	0.00120546890690057	-0.0179187441132112	-0.0066123316193512
4.3	0.0123801378565649	0.000470333427790295	0.00304806206753037	0.000794934413230765	0.00304926342825681	0.000803515001583332	-0.0189142823804398	-0.00406374323919994
4.4	0.0123510599975901	-0.000513429860835512	0.00312624836233121	0.000359636215116379	0.00313415920258165	0.000354986794830809	-0.0195364497391785	-0.00132590794660791
4.5	0.0121775512931684	-0.0014059374594383	0.00314894499418056	-8.51964111761904E-05	0.00314575977096493	-8.29291014004008E-05	-0.0196373230633539	0.00148054816265076
4.6	0.0118617082162356	-0.00226059477230002	0.00309431727093155	-0.00053092526808943	0.00310736535882824	-0.00051897488057213	-0.0193037758141455	0.0042240229240434
4.7	0.011551801712465	-0.00294216455536102	0.00299148526963436	-0.000943424683820823	0.00299137345255698	-0.000952853373040991	-0.0185579974896925	0.00682506975414446
4.8	0.01121935177973	-0.00360479101993586	0.00284182236611111	-0.00134544734732772	0.0028341436088671	-0.00136559939879422	-0.017321631949738	0.00935893020726642
4.9	0.0110603218568263	-0.00419258683710004	0.00262556212210054	-0.00174225773451995	0.00261950927152797	-0.00173381199873334	-0.0155580235630342	0.0116532108377761
5	0.0110091136812853	-0.00489655807839771	0.00234896826247409	-0.00207345672794812	0.0023516920271104	-0.00208587186930364	-0.0131468640381994	0.0135894479193879
5.1	0.0110229720853424	-0.00571455499003684	0.00202729181967723	-0.00239575021867538	0.0020405070517533	-0.00239329201246921	-0.0103176350597114	0.0149673494570228
5.2	0.010964707049251	-0.0066564722148734	0.00168470769730037	-0.00265183746245478	0.00168520273279391	-0.00265599452993544	-0.00728039040244201	0.015697164312438
5.3	0.0107812735862437	-0.00766549251546848	0.00129497283690973	-0.00286218339783823	0.001291229677797	-0.00286474752157804	-0.00420694305620847	0.0158364403940941
5.4	0.0104101766627519	-0.0086508755559098	0.00088413512468303	-0.00302012628941312	0.00088324508163378	-0.00302258043865059	-0.00120863052452484	0.0152843707465237
5.5	0.00980931249907574	-0.00949601406588736	0.000446177587017792	-0.00311318422253445	0.000458734546674309	-0.00311317830402771	0.00141788472637806	0.0140809329175298
5.6	0.00910804033426357	-0.0102263438760687	1.36576483499137E-05	-0.00314274169894108	1.03689006502717E-05	-0.00313928622901051	0.00350735446998108	0.0125185410048721
5.7	0.00825263649977164	-0.0107975039840165	-0.00041846049856336	-0.00311610023263257	-0.00042217438252406	-0.0031197798180217	0.00512177803992415	0.0107449410620888
5.8	0.00741182515753326	-0.0112336929071712	-0.000852224408597307	-0.00302542238339523	-0.000851502287347848	-0.00303309310104935	0.00635050220033995	0.00864962946323541
5.9	0.00652642021383731	-0.0115058690641553	-0.00126775299568865	-0.00287243496028712	-0.00126615851471388	-0.00287657992585457	0.0070055434134264	0.00643419804574036
6	0.00564496951720822	-0.0117501048218373	-0.00165497951623792	-0.00266752089382733	-0.00164900197860348	-0.00267086709628037	0.00709088250602817	0.00423745731263212
6.1	0.0047938967140892	-0.0119524762107446	-0.00201205711627298	-0.00241671194432081	-0.00200792504905201	-0.00242147159013231	0.00689588400640153	0.00221084936685765
6.2	0.00396249796298914	-0.0122331426985214	-0.00233081420178024	-0.00210146330355714	-0.0023272490034488	-0.00211011278243647	0.00647238968387556	0.000139524433778489
6.3	0.00320991331777905	-0.0125746263296622	-0.00259714930533111	-0.00176319059972299	-0.00260694705246725	-0.00177093032173642	0.00576373765659688	-0.00201469449828412
6.4	0.00237352726765536	-0.0129994118770556	-0.00282358679656046	-0.00137942559140917	-0.0028216016682629	-0.00138521002546599	0.00470466147339104	-0.00410362322527896
6.5	0.00155948189394622	-0.0134189428005985	-0.00298850864759391	-0.000978228665316261	-0.00298891166454454	-0.000977108262673541	0.00329994153781782	-0.006018273755844
6.6	0.000690750786188962	-0.0136917753797709	-0.00309232091349754	-0.000553765092884262	-0.00310296862308593	-0.000556762547750569	0.00148103999526238	-0.00757126083814775
6.7	-0.000157081881178522	-0.0138222991254905	-0.00313717701116966	-0.000120835050129878	-0.00313613661412166	-0.000114608592420852	-0.000788038450772492	-0.00852364804518291
6.8	-0.00101308968952287	-0.0137911644320362	-0.00312294909827411	0.000326209340522965	-0.00312204557608626	0.00033096078629013	-0.00328981667018653	-0.00873369413738435
6.9	-0.00185706846529898	-0.0136630978843391	-0.00304134213788936	0.000755507856600523	-0.0030417655017777	0.000760482763565554	-0.00566986372505837	-0.00820359703928369
7	-0.00265433551686154	-0.0134386381150385	-0.00291130256351063	0.00117256027388128	-0.00291271510072183	0.00117577000066633	-0.00778712589142543	-0.00714584288907505
7.1	-0.00347424954527924	-0.0131726019754802	-0.00271477281119051	0.00156946870645541	-0.0027171962232605	0.00158046307907257	-0.00961473340475141	-0.00553436694751881
7.2	-0.00429339909179225	-0.0128494262636338	-0.00247567411884422	0.00193028566909497	-0.00247586047571175	0.00193616938489568	-0.0109497875504259	-0.00345608232697773
7.3	-0.00518065600899679	-0.0124788709610026	-0.00218638828738399	0.00225488233997125	-0.00218363258036189	0.0022563556169012	-0.0116520970670408	-0.0011773964917822
7.4	-0.00616935736310465	-0.0120562233215684	-0.00184525382445851	0.00253855695194725	-0.00183805729771042	0.00254507278071592	-0.0118590676687695	0.00103372855684284
7.5	-0.00718789990610901	-0.0115415051373704	-0.00146959959230657	0.00277336791639369	-0.00147063427678299	0.00277135612918571	-0.0114575495725967	0.00317369106038164
7.6	-0.0080634073518927	-0.0109891072546116	-0.00107747237288963	0.00295104987150464	-0.00106684961538981	0.00296139550973075	-0.010509652621565	0.00504370339468871
7.7	-0.00894000846095371	-0.0104103044250964	-0.000649202304408277	0.00307556624587128	-0.000643647291795165	0.00307522636522679	-0.00936950812644285	0.00634012381855653
7.8	-0.00949597899330772	-0.00995992504606346	-0.000204039011371655	0.00313742513977673	-0.000217649586551588	0.00313033774418302	-0.00800562791189598	0.00755870791886412
7.9	-0.00988297732522289	-0.00960646396822383	0.000218897710051995	0.00312484455469426	0.000229969583160717	0.00312455706287819	-0.00630806276909122	0.00870856356352723
8	-0.0101709936402657	-0.00930463451666109	0.000653625701999959	0.00307085305276817	0.000661909228936807	0.00306879517729933	-0.00438526775736073	0.00956725706988149
8.1	-0.0104779058791683	-0.0089956853471861	0.00108523075610359	0.00294831578194287	0.0010829583818124	0.0029450628356693	-0.00218093427790102	0.0101264702886554
8.2	-0.0108590411072769	-0.00864540313315235	0.00147681872266211	0.00276742814529328	0.00147597738721118	0.00277899821572055	0.000240857721379013	0.0102347632096009
8.3	-0.0113040340237866	-0.00822887290631538	0.00184966245463723	0.00253632498298408	0.00185473746278138	0.00253375226028312	0.00269172945922565	0.00977912677114185
8.4	-0.0117917419406574	-0.00764363643439539	0.00219689183054834	0.00225702471510478	0.00218573863355285	0.00225740142756762	0.00496269815890867	0.0087343898267037
8.5	-0.012240327307089	-0.00697230712425324	0.00249411558478836	0.00192221699863332	0.00249412216887938	0.00192356668008171	0.00687248128001625	0.00718531689210444
8.6	-0.0126474568638951	-0.00617968573971894	0.0027259903512102	0.00156291781603636	0.00272178741466791	0.00156060293442967	0.0083887473944776	0.00522675600829301
8.7	-0.0129128689619976	-0.00533159727026713	0.00291697642327174	0.00116485116771378	0.00291581532665756	0.00116443804651325	0.0094140168155531	0.00291374226481352
8.8	-0.0130212342034603	-0.00449084189109547	0.00304739381880161	0.000746907682490699	0.00305837180193945	0.000744825779562724	0.00984629643338967	0.000340906420854317
8.9	-0.0129452280645699	-0.00376563322880821	0.00312255531724386	0.000316421473057192	0.00313191919400354	0.000309304710614734	0.00983191611651513	-0.00221217861547424
9	-0.0127304580744351	-0.00327316979296599	0.00313607541202325	-0.000131759251070778	0.00314283543883656	-0.000126145438689682	0.00939099183655414	-0.00475627303544365
9.1	-0.012502769419217	-0.00300664172522018	0.00309020730550722	-0.000563652228265894	0.00309042543249906	-0.000563844050760577	0.00848229933995475	-0.00725704980921249
9.2	-0.0123916626047607	-0.00289055277074512	0.0029768011730763	-0.000985158685772972	0.00298061998461364	-0.000984925611823738	0.0070466887655099	-0.00964402613538625
9.3	-0.0124341916841502	-0.00279276328393798	0.0028060344587807	-0.00139482470450559	0.00282408115843044	-0.00139521519515334	0.00505027516134435	-0.0117428684062963
9.4	-0.0126072129684964	-0.0026438728607448	0.00258937735273506	-0.00176793008442986	0.00259272691439493	-0.00177894782568086	0.00249815732762943	-0.0134466481313818
9.5	-0.0128906367195446	-0.00225618709453264	0.00231954737590099	-0.00212446028986492	0.00233434781473687	-0.0021250799011136	-0.000577560332001903	-0.0144996586762635
9.6	-0.0132156733904324	-0.00178132736047273	0.0020020570209743	-0.00242794995536915	0.0020023580516027	-0.00242093029264437	-0.00409706060651624	-0.0148682777936098
9.7	-0.0135127238313575	-0.00114386073940357	0.00164079896654296	-0.00268372919378889	0.00164910599360049	-0.00268529328555616	-0.00777019925454229	-0.0143480820962293
9.8	-0.0137542231850023	-0.000413290636853338	0.00125712876292385	-0.00288134743858417	0.00125532777421196	-0.0028900086055404	-0.0113577822163997	-0.0129746203703
9.9	-0.0139156830510223	0.000474534978646202	0.000847579784692988	-0.00302894379648657	0.000835696489485357	-0.00303160289718464	-0.0147901555396656	-0.0107079500689347
10	-0.0139471574881792	0.00134756680952168	0.000413488999167446	-0.00311035724259095	0.000412697193728534	-0.00311768923989884	-0.0176504900592703	-0.00767957820476035
10.1	-0.013812538156172	0.00225463760593183	-2.19700652000412E-05	-0.00314858283254654	-2.66134998325534E-05	-0.00315137016837607	-0.0197910874489705	-0.00405974123265172
10.2	-0.0135048804247116	0.0030915093120493	-0.000463114706702343	-0.00311020073109058	-0.000475728487432084	-0.00311400378968237	-0.0210609453860314	-7.66855956776595E-05
10.3	-0.0130771544448463	0.00383261360519729	-0.000896641817789921	-0.00300913096166325	-0.000896387950165057	-0.00302254544481423	-0.0214511537029637	0.00413057829122963
10.4	-0.0125390293668473	0.00443969487801575	-0.00130757060692904	-0.00286276024227022	-0.00131075286606727	-0.00286063391889281	-0.0208508150913758	0.00822445608394244
10.5	-0.0119685653971762	0.00494699891599604	-0.00169360065561538	-0.00264396176666877	-0.00169977129259658	-0.00265124694718197	-0.0194686304904518	0.0121570830958446
10.6	-0.0113596904029412	0.00537402974685952	-0.00205412314978906	-0.00238709657643143	-0.00205561780132478	-0.00239222272658102	-0.0173614135224058	0.0158041991376943
10.7	-0.0107495164407235	0.00578903494706649	-0.00236273564634202	-0.00207433454258771	-0.00236592780621345	-0.00209040837228697	-0.0145373309566376	0.0191774658025817
10.8	-0.0100785090051272	0.0061526998197483	-0.00263135663252591	-0.00172605271093512	-0.00262840841699813	-0.00172822049873402	-0.0111033403437259	0.0220773841101084
10.9	-0.00942832710961224	0.00647373594574829	-0.00285014496073162	-0.00134698215307951	-0.00284941787602804	-0.00135212057478002	-0.00711012501754121	0.0243790418083702
11	-0.00864078311726929	0.00672465381458814	-0.0030140898955459	-0.000929788647997847	-0.00300704616873506	-0.000934085270716886	-0.00255876278756302	0.0260196638124599
11.1	-0.0078158149449043	0.00685473644138953	-0.00311045323739171	-0.000511565491958522	-0.00310269507975255	-0.000503239503499681	0.00242713317103916	0.0267665481489514
11.2	-0.00697099415121259	0.00678827914024077	-0.00315135743442182	-6.80363092485091E-05	-0.00315797645951449	-6.48205672576972E-05	0.00772521376678898	0.0265110226719254
11.3	-0.00610370763874159	0.00652293278134295	-0.00312866683236356	0.000374844175820977	-0.00313184049829233	0.000372672340066144	0.0131376919915812	0.0252170338580987
11.4	-0.00547355707143284	0.00609340167468091	-0.00304151404508461	0.000807406288305772	-0.0030461575899191	0.000807559749548244	0.0182642433057029	0.0227109601248875
11.5	-0.0050179718130591	0.00559078206841052	-0.00290851090245148	0.00121726297027247	-0.00290097316721288	0.00122203158496918	0.0227387726544845	0.019029811241044
11.6	-0.00464864067092951	0.00502611065754968	-0.00270530775232296	0.0016131904226203	-0.00271344808413411	0.00162292417363531	0.0264693611281774	0.0144234453633008
11.7	-0.00441412934326055	0.00443068932929638	-0.00245021676470433	0.00198192485060661	-0.00245197097716697	0.00198562875593286	0.0293020431764483	0.00906686559788007
11.8	-0.00424635983472722	0.00393368373204209	-0.00214983582314093	0.00230726891986034	-0.00215906549897732	0.00231710453614481	0.0311014291372249	0.00327991524496421
11.9	-0.00401193983078245	0.00346720380205047	-0.00180853909845157	0.00258040177146338	-0.00180856652173123	0.00258698246604273	0.0317194293438764	-0.00252913346819181
12	-0.00399886420323358	0.00298201687285277	-0.00142723520508509	0.00280621786705714	-0.00143174051048255	0.00280901791897695	0.0312157025765235	-0.00837716543676249
