# GHZ S RI R 50
0.2	-0.0139878595227662	0.00526442270587958	0.00304492089841606	-0.000885103149406292	0.00305538168596748	-0.000884949986137312	0.00583934336463368	0.000797917263153692
0.3	-0.0131653135906046	0.00576878182825912	0.00289886701004389	-0.00130116230688644	0.00289258219081317	-0.00131280646115171	0.00616217357766588	-0.00145900984353516
0.4	-0.0124278495382566	0.00648119815856946	0.00268478141336219	-0.00169548542288809	0.00268267596603162	-0.00169739796561922	0.00572419447905682	-0.00328944169856656
0.5	-0.0117468558446816	0.00719410623391136	0.00241498876907713	-0.00205257488552057	0.00241780338893902	-0.00205630107083658	0.00483711643485839	-0.00483106993385484
0.6	-0.0110609464746421	0.0079675242514691	0.00210238238489531	-0.00237267984976433	0.00210163911682782	-0.00237552245742675	0.00359377980137456	-0.00609649318357893
0.7	-0.0104126957200279	0.00871637677370355	0.00175180640539089	-0.00264278012303924	0.00175801337035821	-0.00264687344527506	0.00201579355264526	-0.0069412500095054
0.8	-0.00964559582093264	0.00945345473077115	0.00135826923649833	-0.00286280173744724	0.00136654270201196	-0.00286120490771789	0.000273878372220718	-0.00729406098916503
0.9	-0.00892847202955273	0.0101369504239236	0.000953707796718679	-0.00301485209112917	0.000953688738135052	-0.00302426866277315	-0.00147297543980305	-0.00720726634183887
1	-0.00814540371572753	0.0107593226486104	0.000520752415409232	-0.00312297644120501	0.000520604011715263	-0.00312833353119454	-0.00311558970688802	-0.00666306277359813
1.1	-0.00747655414480869	0.0112307098482799	7.33582528105307E-05	-0.0031628987640419	7.42461617340957E-05	-0.0031676256645902	-0.00463387893873108	-0.00568979825864242
1.2	-0.00685824052903032	0.0113975642836294	-0.000365577393844961	-0.00313585147039967	-0.000364351572111397	-0.0031526481474308	-0.00554150681412257	-0.00437526619159845
1.3	-0.00652458828058686	0.0111786788048777	-0.000796844446009806	-0.00306156464619709	-0.000801783553643858	-0.00306922086742898	-0.00562692851009235	-0.00306800835056328
1.4	-0.00630075864351238	0.0108712110705182	-0.00122288183864323	-0.00291632809445062	-0.00122529821011954	-0.00292345882822115	-0.00531440463902575	-0.00224978265740921
1.5	-0.00576251465322298	0.0109136108202427	-0.00161455536968742	-0.0027180163440224	-0.00161258357075054	-0.00272355882372776	-0.00501720734375011	-0.00163028971023572
1.6	-0.00495195630668064	0.011249375960357	-0.00197770693249788	-0.00246174500274317	-0.0019811780520933	-0.00246262431758127	-0.00516372220138395	-0.000654338682812598
1.7	-0.00396146115264071	0.0116122963836075	-0.00230281776568987	-0.00216715470861246	-0.00230486838701601	-0.00217574428475963	-0.00495155659208515	0.000634667575145203
1.8	-0.00295707437334235	0.011983896020502	-0.00257974145857675	-0.00181769756504355	-0.00258492032686536	-0.00182315842176598	-0.00442749168262623	0.00184104486955249
1.9	-0.00195926599202589	0.0121647588319158	-0.00280534617512791	-0.00144835008191532	-0.00280183305368411	-0.00144216018282641	-0.00360408672779256	0.00292403903116258
2	-0.00102496055347515	0.0122646851320269	-0.00298088141991022	-0.00103654475044531	-0.00298362070071382	-0.00102969833993706	-0.00255035966409356	0.00383703372434231
2.1	-0.000120847970453608	0.0122258743641039	-0.00309608087585728	-0.000603871138622654	-0.00309818500925737	-0.00061056789789358	-0.00120359366080164	0.00436774714373173
2.2	0.000689033664463218	0.0121684696071703	-0.00314939968046464	-0.000172628838966516	-0.00315120992644648	-0.000162900391688324	0.000398364960475747	0.00448789597842295
2.3	0.00138211897702319	0.0119866183074624	-0.00314096505093425	0.000269761797882896	-0.00314772345483096	0.000266854022352481	0.00196075901308939	0.00406308107608078
2.4	0.00198373836927497	0.0118266512010109	-0.00308066689169212	0.000704623461933598	-0.00307948721565546	0.000719745654102289	0.00343194839962708	0.00327723528989552
2.5	0.00250838975008065	0.0116646475683875	-0.00294504046313245	0.00113711150895561	-0.00295804731214417	0.00113841853492737	0.00470885064123021	0.00205948596813155
2.6	0.00307033372173059	0.0116031050145324	-0.00275431074103162	0.00153233719002738	-0.00277523656102245	0.00153626634302815	0.0057304866435177	0.000512989049225398
2.7	0.00377160177081718	0.0115720595760788	-0.00252184552802813	0.00190141511291384	-0.00252212063487212	0.00190650320551559	0.0063417678191974	-0.00130109619432853
2.8	0.00465378645916598	0.0114949213226091	-0.00222635121863165	0.00222645210212852	-0.00223617966144473	0.00223766028331627	0.0065318428909019	-0.0031525240306475
2.9	0.00572308012550563	0.0112510297747411	-0.00188931463252695	0.0025194641150566	-0.00188737711311759	0.0025283755443521	0.00647975238122372	-0.00492218195048007
3	0.00683124675974586	0.0107721821691078	-0.0015176463894828	0.00276216834247258	-0.00153274870765781	0.00274914172561201	0.00617768624208163	-0.00667529092314249
3.1	0.00786085810691613	0.010163945829461	-0.00111862350370521	0.00294508907340236	-0.00113556818506172	0.00295051509686354	0.00550910472642871	-0.00845478007643254
3.2	0.00873035397763867	0.00940739049621487	-0.000698876203914577	0.00306982442726082	-0.000694593112308236	0.00308063108572775	0.00428043620108448	-0.0100946228826771
3.3	0.00943138096833149	0.00851874507785957	-0.000269069638941963	0.00314085244737327	-0.0002657750137979	0.00313646666875896	0.00273056640896549	-0.0115945087089045
3.4	0.00995215200188896	0.00760637561410452	0.000176880298636883	0.0031483242746454	0.000167450266855869	0.00314941661606736	0.000854729990652555	-0.012947730192172
3.5	0.0103042694873102	0.00670781236416166	0.000610410248569576	0.00309098977848437	0.000615417607606109	0.00308965275920613	-0.00147267665895981	-0.0140736715105949
3.6	0.0105561123151107	0.00589579937814529	0.00103046018004794	0.00297053826684117	0.0010370648021046	0.00297402215057984	-0.00410721400587902	-0.014609691301375
3.7	0.0107521391574061	0.00516245973997778	0.00144688398720285	0.00279345437574799	0.00144516136104871	0.00280982873218093	-0.0068178981736587	-0.0145786365255176
3.8	0.0109817731884686	0.00448851237244841	0.00181481922397385	0.00256622662514109	0.00182542882818363	0.00257256369443388	-0.00955871292508522	-0.0140461331633497
3.9	0.0112819031354411	0.00382883392336727	0.00216168089128051	0.00228759951881235	0.00215708309402881	0.00228750977519848	-0.0122269966708935	-0.0129277377163542
4	0.0116268651522983	0.00312058349950113	0.00245239890165467	0.00196823425754619	0.00246384663146345	0.00197435982525801	-0.0145694016860951	-0.0112265965884961
4.1	0.0119689480074144	0.00231869447069312	0.00270372483942439	0.00160142552075947	0.00272030010240266	0.00161117994209277	-0.0164514783847523	-0.00906199735936516
4.2	0.0122464542184227	0.00141867912005426	0.00290482806275317	0.00120451652567063	0.00290606389835568	0.00120680028452893	-0.0178991377097366	-0.0066168732642501
4.3	0.012390730954882	0.00047971554002913	0.00304704818132297	0.000796526800076433	0.00304824442693911	0.000805106495884238	-0.0188952905036702	-0.00406983905039437
4.4	0.0123627359359947	-0.000505610024762662	0.00312554907886542	0.000361442504639559	0.00313346146099911	0.000356798517707899	-0.0195191332266083	-0.00133553078756934
4.5	0.0121861713335007	-0.00139497600582913	0.00314862990331993	-8.32246913940641E-05	0.00314544364000342	-8.09596310664963E-05	-0.0196266154202112	0.00147256243658025
4.6	0.0118763168035976	-0.00224613965612318	0.00309440910904744	-0.000528912096956808	0.00310744854649395	-0.000516954349886167	-0.0192902548379438	0.00421921907104999
4.7	0.011568748991914	-0.00292855943684909	0.0029919698715018	-0.000941423076084711	0.00299186423558227	-0.000950851418158459	-0.018545684633435	0.0068196798562309
4.8	0.0112386010963825	-0.00359350887999514	0.00284271043402938	-0.00134352833117038	0.0028350452740307	-0.00136368542787503	-0.0173114904859516	0.00935195713808816
4.9	0.0110815536702827	-0.00418438434467299	0.00262686008441285	-0.00174051252509479	0.00262080118876289	-0.00173207064879664	-0.0155491707476451	0.011644733912441
5	0.0110291345530577	-0.00488789768270315	0.00235061301519231	-0.00207199889714051	0.00235334565678495	-0.00208441320539157	-0.013142367482409	0.0135839556951907
5.1	0.0110472522662498	-0.00570886068386485	0.0020292314582846	-0.00239462361510312	0.00204244661512402	-0.00239215580193671	-0.0103112662547762	0.0149619326167999
5.2	0.0109870111998252	-0.00665387381577201	0.00168688599453527	-0.00265109694270772	0.00168738407385232	-0.00265525437643542	-0.00727776851586372	0.0156921098844436
5.3	0.0108021560237325	-0.0076623884100679	0.00129730493297718	-0.0028618976173427	0.00129356276905205	-0.00286446498523904	-0.00420674958316586	0.0158356313993755
5.4	0.0104313589616211	-0.00864763245251509	0.00088652294827677	-0.00302033062101841	0.000885634402424542	-0.00302278607829751	-0.00120822377278191	0.0152875207580401
5.5	0.00983060756371456	-0.00948838948668502	0.000448496930340762	-0.00311387154187562	0.000461057916113395	-0.0031138568440602	0.001419242686129	0.0140919788812008
5.6	0.00913735991467569	-0.0102225610342888	1.58473754954824E-05	-0.00314389628948272	1.25550075671578E-05	-0.00314044182579542	0.00351810907918317	0.012529037127563
5.7	0.00828326196958076	-0.0107973964494441	-0.000416515575472263	-0.00311770483490659	-0.000420228526330473	-0.003121388507783	0.00513618552604752	0.010754858229903
5.8	0.00744065555939479	-0.0112374285676939	-0.0008506268582771	-0.0030274213524666	-0.000849899319103697	-0.00303509523087174	0.00636607649076889	0.00865744864927367
5.9	0.00655160920691583	-0.011514424897821	-0.00126658567211107	-0.00287474248267588	-0.00126498771858044	-0.00287888859743229	0.00702049491976297	0.00643778605077839
6	0.00565943473225982	-0.011755921404741	-0.00165427377415259	-0.00267004942073024	-0.00164829079355522	-0.00267339383664101	0.00709718901759632	0.00424340468375207
6.1	0.00481034559215998	-0.0119511410523286	-0.00201188597245084	-0.00241938686478681	-0.00200774855837712	-0.00242414703457907	0.00690567221107225	0.00222385860570305
6.2	0.00398187889436142	-0.0122288477242633	-0.00233120543669994	-0.00210413724153252	-0.00232763312274013	-0.00211279049767523	0.00648646619077409	0.000155272640282236
6.3	0.00323190831572182	-0.0125709835598578	-0.00259807615578499	-0.00176575897277275	-0.002607876843365	-0.0017735091498166	0.00578106955559863	-0.00200124170847072
6.4	0.00239830571224032	-0.0130031909459296	-0.00282502700329941	-0.00138178024577601	-0.00282303767398498	-0.001387568027164	0.00472567858584861	-0.00409827958724714
6.5	0.00158171859824468	-0.0134246732458244	-0.00299042371968847	-0.000980288762060543	-0.00299082753736735	-0.000979167657162882	0.0033189067541455	-0.00601569905274461
6.6	0.000712933134894428	-0.0137035868622948	-0.00309463675743044	-0.000555395623101424	-0.0031052920256022	-0.000558399583556513	0.00150043477456666	-0.00757565357055151
6.7	-0.000140138309306617	-0.0138343465964412	-0.00313978963767346	-0.000121982363739523	-0.00313875043514651	-0.000115750294166395	-0.000774069996774536	-0.00852943882222561
6.8	-0.000996556966399705	-0.013801387403688	-0.00312576993825157	0.0003256062779935	-0.00312486697788156	0.000330362131350218	-0.00327723742258466	-0.00873854878749988
6.9	-0.00183966760920102	-0.0136775187764967	-0.00304426067449264	0.00075547560415197	-0.00304468558667926	0.000760454896038048	-0.00565669181529746	-0.00821229686879488
7	-0.00264172740551599	-0.0134483824121219	-0.00291421224565256	0.00117314252494922	-0.00291562665483348	0.00117635498822146	-0.0077803273809347	-0.00714931441640512
7.1	-0.0034566369261099	-0.0131838026000995	-0.00271751588840997	0.00157063313658004	-0.00271994286526342	0.00158163759678014	-0.00960412134509356	-0.00553756149132356
7.2	-0.0042789136019017	-0.0128633785274901	-0.0024781661001172	0.00193199258891602	-0.00247835298489241	0.00193788194406812	-0.0109426009708273	-0.00345983684519398
7.3	-0.00516869304950486	-0.0124925880023213	-0.00218851544606926	0.00225708499144018	-0.0021857570495247	0.0022585596993099	-0.0116469014826632	-0.00117890111334948
7.4	-0.00615589321902697	-0.0120749975107527	-0.00184690219642137	0.00254118664235446	-0.0018396981276644	0.00254770841160245	-0.01184699710197	0.00103199971378332
7.5	-0.00718323945317514	-0.011558914491421	-0.00147066632718098	0.00277630351625271	-0.00147170230827156	0.00277428988867133	-0.0114530387214429	0.00317514077734096
7.6	-0.00806169348711406	-0.0109958011213214	-0.00107795032315196	0.00295417029492678	-0.00106731505434184	0.00296452402496132	-0.0105145656078346	0.00505093328992992
7.7	-0.00893972580230176	-0.0104219636992143	-0.000649023410730424	0.00307876312844345	-0.000643463025899539	0.00307842143740999	-0.00936537313016444	0.00634810788338667
7.8	-0.00949580318444305	-0.00996949069325875	-0.000203185496085257	0.00314055206766599	-0.000216811716788749	0.00313346232854428	-0.0079984642507396	0.00756888232433549
7.9	-0.00988723370998171	-0.0096157918067498	0.000220378593935762	0.00312775215968566	0.000231460967724862	0.00312745988891316	-0.00630366039583663	0.00871807122232188
8	-0.010173269566598	-0.00930653425921456	0.000655680735812456	0.00307341931041754	0.000663971046606855	0.00307135561576347	-0.0043734270823522	0.00958367324365321
8.1	-0.01047833582906	-0.0089990886007358	0.00108781387977702	0.00295043617181775	0.0010855376692625	0.00294718146491935	-0.00216418767126742	0.0101406692275818
8.2	-0.010860586210506	-0.00864760538725332	0.00147981346105091	0.00276898278876542	0.00147897842509264	0.00278056363097111	0.000260210273972523	0.0102468676558624
8.3	-0.0113049424048953	-0.00822840012796411	0.00185294733433001	0.00253722870718094	0.00185802491333684	0.00253465036982301	0.00271483863630097	0.00978956699384327
8.4	-0.0117922005563792	-0.00764309506531242	0.00220032514983608	0.00225722102476618	0.00218916325272473	0.00225760626758543	0.00498811901237023	0.00873953301252611
8.5	-0.0122431158139842	-0.00696572417388424	0.00249754857581516	0.00192170498510715	0.00249755623699941	0.00192305569283761	0.00689569589013812	0.00719094978933657
8.6	-0.0126434095806911	-0.00617293416647323	0.00272927565383248	0.00156169335414761	0.00272506773337546	0.00155938042804966	0.00841766908417483	0.0052273660759188
8.7	-0.0129086215908126	-0.00532706465099238	0.00291995049834798	0.00116295573485229	0.00291878826398522	0.00116254340126004	0.00944061363004592	0.00290698628805124
8.8	-0.0130171640481012	-0.00448633653238433	0.00304992746485966	0.00074442554820822	0.00306090999079168	0.000742331859248114	0.0098694262038797	0.000330198322728201
8.9	-0.0129418714263798	-0.00376315998661541	0.00312454457350651	0.000313453941341059	0.00313390631292612	0.000306323962682691	0.00985055354344103	-0.0022280001901325
9	-0.012731919588144	-0.00326764695229799	0.00313742046765315	-0.000135123593400314	0.00314418960370411	-0.000129514242623644	0.00940040576291853	-0.00477140774199454
9.1	-0.0125029895639379	-0.00299836876936388	0.00309082288223741	-0.000567246887129861	0.0030910408868664	-0.000567439023889436	0.0084880215651902	-0.00727076947358163
9.2	-0.0123933567736558	-0.00287891165806086	0.00297667123189143	-0.000988821810463564	0.00298049155640314	-0.000988592945243287	0.00704589594530299	-0.00965451830886839
9.3	-0.0124332499955978	-0.0027756114466474	0.00280514545447687	-0.00139841325225275	0.0028231963189266	-0.00139882462829313	0.00504690423326302	-0.0117469212851036
9.4	-0.0125993678388267	-0.00262657506428095	0.00258776266380245	-0.00177130762014386	0.00259109983401789	-0.00178233132045153	0.00249612983363776	-0.013448094996586
9.5	-0.0128790494498044	-0.00223197456208459	0.00231721232253821	-0.0021274633791718	0.0023320134560635	-0.00212810089235019	-0.000579667387384282	-0.0144900777620488
9.6	-0.0131959582881767	-0.00176215119391697	0.00199913801522581	-0.00243042604359087	0.00199944758842752	-0.00242340662804396	-0.00409363034816516	-0.0148581247543811
9.7	-0.0134924304410442	-0.00112849296988474	0.0016373966522737	-0.00268557502947756	0.00164570122930873	-0.00268714923038144	-0.00776680478354388	-0.0143360066328316
9.8	-0.013732854169962	-0.00039993738402122	0.00125337802601925	-0.00288247707550422	0.00125156658730138	-0.00289113473435841	-0.0113520966451198	-0.012959121700861
9.9	-0.0138954883642983	0.000486935527660646	0.000843619952895223	-0.00302928007999568	0.000831736165209962	-0.00303192380270798	-0.0147840987320001	-0.0106898053129094
10	-0.0139288575704085	0.00136332205697362	0.0004095246973017	-0.00310984806105229	0.000408724125156328	-0.00311717668344039	-0.0176431174841358	-0.00765440672116684
10.1	-0.0137884566871178	0.00226933582180501	-2.58080363841948E-05	-0.00314726489263369	-3.04529725526783E-05	-0.00315004541208837	-0.0197738418956749	-0.00403265217290484
10.2	-0.0134796494493367	0.00310422775766579	-0.000466639571957637	-0.00310808493844282	-0.000479251633906613	-0.00311187085847645	-0.0210374969654652	-5.01209060053215E-05
10.3	-0.0130494119334018	0.00384349276212698	-0.000899676713043989	-0.0030062885595121	-0.000899438889434905	-0.00301969540817921	-0.0214198042507985	0.00415500325707465
10.4	-0.0125107809539938	0.00444543188418465	-0.00130997607907845	-0.00285930000627844	-0.00131315371670571	-0.00285717146818163	-0.0208139956037931	0.00824152938190146
10.5	-0.0119436754613565	0.00495351904465733	-0.00169524782078499	-0.00264006352387252	-0.00170142184953345	-0.00264733629151242	-0.0194313369464074	0.0121712930471028
10.6	-0.0113334103079864	0.00537919595554912	-0.00205494866490812	-0.00238286623729458	-0.00205644756009577	-0.00238798643786186	-0.0173194944376759	0.0158126149888598
10.7	-0.0107229393696857	0.00579534728176875	-0.00236266181989153	-0.00206997795747487	-0.00236586749358882	-0.00208603353469571	-0.0144930215352673	0.0191811694525499
10.8	-0.0100477644776412	0.00615799282390499	-0.00263036675353855	-0.00172175398201413	-0.00262742362436263	-0.0017239224342701	-0.0110544552853086	0.022073274831266
10.9	-0.00939914124111692	0.00647648904792276	-0.00284826905347676	-0.00134293518143198	-0.00284754741631957	-0.0013480686790125	-0.00706606623752538	0.0243602903929006
11	-0.00861358817965253	0.00672815527025984	-0.00301139183794777	-0.000926163386239239	-0.00300435989026476	-0.000930461001204667	-0.00252227027414245	0.0259952062011614
11.1	-0.00778551476912341	0.00685387979374331	-0.00310702130758771	-0.000508532764478743	-0.0030992662627544	-0.000500223014868598	0.00245905286609269	0.026733187347471
11.2	-0.00694374843518837	0.00678445750853031	-0.00314733061203155	-6.57642653492518E-05	-0.00315393885154579	-6.25480931678084E-05	0.00774529929198722	0.0264721105646185
11.3	-0.00607775877880882	0.00650995357974268	-0.00312421634645911	0.000376249649635437	-0.00312738705690845	0.000374082683070767	0.0131557881258997	0.0251729928205589
11.4	-0.00545075243826058	0.0060787813354303	-0.00303683075150531	0.000807881408790911	-0.00304146771584195	0.000808037105983777	0.0182702798979964	0.0226650771884301
11.5	-0.00499763265906529	0.00558553594647068	-0.00290374511938885	0.00121677808501183	-0.00289621623557545	0.00122153643818316	0.022725622868226	0.0189951637737803
11.6	-0.00462582529542073	0.00501897153306743	-0.00270071196624831	0.00161170825912559	-0.00270883679491377	0.00162143025916193	0.0264497004039579	0.0143935830270245
11.7	-0.00439452518584013	0.00442184173281892	-0.00244598089742693	0.00197950630127506	-0.00244773150916556	0.00198320498439543	0.0292720399467483	0.00904339435516314
11.8	-0.00423116372898045	0.00392464109544817	-0.0021461363987747	0.00230400333478823	-0.00215535020289738	0.0023138250401971	0.0310610420823953	0.00326462694329183
11.9	-0.00399825327135883	0.0034545524976184	-0.00180553290801022	0.00257641366886537	-0.00180555992695472	0.00258298394130808	0.0316798996997229	-0.00253040684189082
12	-0.0039916405767864	0.00298276870863433	-0.00142509533024279	0.00280163593940427	-0.00142959355405655	0.00280443125329867	0.0311652066293293	-0.00835714544183149
