# GHZ S RI R 50
0.2	-0.0139141842963127	0.00519815592612905	0.00304494700171377	-0.000885181396146472	0.00305540794728464	-0.000885028454446888	0.005913188476054	0.000731167330915915
0.3	-0.0130719123652534	0.00571780823106052	0.00289883117794529	-0.00130124817415686	0.00289254601297962	-0.00131289215351369	0.00625538427741107	-0.00151055390107001
0.4	-0.0123473347720831	0.0064023200328669	0.00268468161595004	-0.00169552343210014	0.00268257615965866	-0.00169743587959162	0.00580411480078608	-0.00336862973216896
0.5	-0.0117116999200713	0.00715239527534818	0.00241495271017351	-0.0020525419541432	0.00241776728874056	-0.00205626808054112	0.00487212597866355	-0.00487263628358817
0.6	-0.0109905741048851	0.00792364068339154	0.00210231438178323	-0.00237270160920518	0.00210157106189022	-0.00237554417571915	0.00366386347184552	-0.00614069981331861
0.7	-0.0103640357875257	0.00866052098936957	0.0017517119135763	-0.00264274036081997	0.00175791863814105	-0.00264683368405205	0.00206392844410239	-0.00699715049844383
0.8	-0.0096061373736944	0.00940646669025506	0.00135820322804274	-0.00286270688510525	0.00136647640548291	-0.00286111016238061	0.000312862847641616	-0.00734079581225826
0.9	-0.00888214321347657	0.0100746926145855	0.000953718534988098	-0.00301473233411475	0.000953699615116387	-0.00302414857567016	-0.00142681607878966	-0.00726908902790377
1	-0.00815199953875585	0.0106722599680499	0.000520777477984956	-0.00312294350333412	0.000520629126608022	-0.00312830054674941	-0.00312215292007089	-0.00675007267647231
1.1	-0.00747835889703485	0.0111477409785623	7.33714075020215E-05	-0.0031628004977231	7.42593119839452E-05	-0.00316752724762718	-0.00463573709814987	-0.00577220050840601
1.2	-0.00690383876886954	0.011248452635584	-0.000365497163243021	-0.003135772937307	-0.000364270999815633	-0.00315256912249636	-0.0055869194886825	-0.00452350505408738
1.3	-0.0066407492906237	0.0110056426784534	-0.000796737269229087	-0.003061539624685	-0.000801676061155129	-0.0030691958740791	-0.00574209271603833	-0.00324083055765683
1.4	-0.00643994215564396	0.0107058939959993	-0.00122279544268012	-0.00291637359446631	-0.00122521160137272	-0.00292350442184382	-0.00545248475927395	-0.0024164016404913
1.5	-0.00590191627812966	0.0108069559208784	-0.00161452601417442	-0.00271801523981272	-0.00161255418194303	-0.00272355767617698	-0.00515626620082988	-0.00173776853881336
1.6	-0.00503836894703645	0.011181693806546	-0.00197760325199623	-0.00246178939003966	-0.00198107430802882	-0.00246266881582979	-0.00524983370751013	-0.000722946661964369
1.7	-0.00402322675073301	0.0115813832251328	-0.00230276579015585	-0.00216725975778621	-0.00230481612909446	-0.00217584949937355	-0.00501307220091077	0.000602807720321558
1.8	-0.00298444365686201	0.0119793800863017	-0.00257975573374408	-0.00181780648489939	-0.00258493458431848	-0.00182326760298277	-0.00445466424798782	0.00183554681354084
1.9	-0.00196446631518106	0.0121601797298151	-0.00280541106636416	-0.00144840076794652	-0.00280189788484061	-0.00144221069321552	-0.0036093969032263	0.00291868409793374
2	-0.00103718438229839	0.0122875366756112	-0.00298087290695175	-0.00103657413902327	-0.00298361225544987	-0.00102972775152789	-0.00256257548628547	0.00385947291122406
2.1	-8.5963101417318E-05	0.0122592875181267	-0.00309614381956939	-0.000603930915025903	-0.00309824790284618	-0.000610627860836198	-0.00116853868895183	0.00440045654556391
2.2	0.000739225443943448	0.0121891404666903	-0.00314946807196957	-0.000172625324321231	-0.00315127833467015	-0.000162896662840907	0.000448568448469182	0.00450777054714632
2.3	0.00144729605481783	0.0119973117451929	-0.00314099996931304	0.00026979875174416	-0.00314775848578045	0.000266891013735748	0.00202576727609544	0.00407302381650057
2.4	0.00206141909256379	0.0118080922299963	-0.00308064214651114	0.000704650004290684	-0.00307946232706032	0.000719772097631956	0.00350962118529402	0.00325822391216241
2.5	0.00255567024736636	0.0116243456259811	-0.00294506682122212	0.00113707267232849	-0.00295807373284123	0.00113837951429918	0.00475634588050758	0.00201871607372151
2.6	0.00312256153433082	0.0115665517180979	-0.00275431855716486	0.00153237864851307	-0.00277524451590544	0.00153630805045154	0.00578269031100161	0.000475763807726131
2.7	0.00382470862337921	0.011522166686219	-0.00252180655676047	0.00190142026886242	-0.00252208161675149	0.00190650831873147	0.00639484788510974	-0.00135126775316524
2.8	0.00470899219115627	0.0114257943520849	-0.00222631503195712	0.0022264096340777	-0.00223614331698497	0.00223761760341848	0.00658742088693262	-0.00322165800485467
2.9	0.00576129232151479	0.0111542450336937	-0.00188933497821693	0.00251938141662001	-0.00188739767847992	0.00252829273377001	0.00651910616936458	-0.00501937417402659
3	0.00682844387045375	0.0106840882211033	-0.00151769575621547	0.00276216874288867	-0.001532798011963	0.00274914181991619	0.00617590580018849	-0.00676452448628908
3.1	0.00785402289736078	0.0100897459006392	-0.00111863704650291	0.00294503330088859	-0.00113558152921233	0.00295045906822073	0.00550299137999159	-0.00853016057897021
3.2	0.00870535391306074	0.0093483792078682	-0.000698953973807732	0.0030697685115742	-0.000694671235775684	0.0030805751622018	0.00425659261032993	-0.0101549328715722
3.3	0.00940316348119243	0.00848294621366611	-0.000269182981681422	0.00314084384873209	-0.000265888197245	0.00313645818736994	0.0027033857235169	-0.0116321420539616
3.4	0.00992790709651743	0.00758100491822646	0.000176779491456244	0.00314839760439054	0.000167349221344656	0.00314948965592183	0.000831030182415955	-0.0129755219784194
3.5	0.0102694727404425	0.00670457100675092	0.000610402503477813	0.00309103579589193	0.000615409938886663	0.00308969878433782	-0.00150763115427885	-0.0140785536647879
3.6	0.0105491127836126	0.00590336145288811	0.00103038857411559	0.00297059430016694	0.00103699316276992	0.00297407839724223	-0.00411399980624672	-0.01460425206553
3.7	0.0107495425053237	0.00516013411426824	0.00144685677286958	0.00279356272320867	0.00144513371573996	0.00280993747473267	-0.00682091742067145	-0.0145833967118866
3.8	0.0109756963810269	0.00447948341184873	0.00181485267177364	0.00256633650981363	0.00182546257115324	0.00257267392091532	-0.00956585514162549	-0.014057384862826
3.9	0.0112608903409588	0.00381259029738437	0.00216176978260963	0.00228765401022395	0.00215717183753778	0.00228756430344977	-0.0122494371796687	-0.0129454682716352
4	0.0115756074658199	0.00313457686852026	0.00245241036006308	0.00196824891000844	0.00246385814750303	0.00197437452848499	-0.0146211436766876	-0.0112137730513009
4.1	0.011944548472812	0.00236447283688569	0.00270379648442449	0.00160149027083901	0.00272037218701046	0.00161124508722234	-0.0164769952904967	-0.00901791932593154
4.2	0.012242237426489	0.0014727412921696	0.00290492498823637	0.00120451990856787	0.00290616088422727	0.00120680372002738	-0.0179048711787177	-0.00656390016212715
4.3	0.0124084778432064	0.000537759495725329	0.00304712268521392	0.000796481731439006	0.00304831912399592	0.000805061568842372	-0.0188787320016088	-0.00401213593319017
4.4	0.0123992809898559	-0.00045953977206341	0.00312555802420201	0.000361384013548866	0.00313347032450845	0.000356739874719087	-0.0194830290969774	-0.00128951312055412
4.5	0.0122156067131587	-0.00134747652337149	0.00314866990492502	-8.32073789497886E-05	0.00314548358841377	-8.09423087689924E-05	-0.0195976992725156	0.00151936424670935
4.6	0.0119324952725046	-0.00219831106745162	0.00309445487792131	-0.000528988213226082	0.00310749481243764	-0.000517030525069711	-0.0192345487289369	0.00426719695681153
4.7	0.0116332337194022	-0.00289584047285404	0.00299195120095492	-0.000941495048230403	0.00299184534169277	-0.000950923399200191	-0.0184808879595994	0.00685230302543411
4.8	0.0113094999315071	-0.00357257682167739	0.00284266031080348	-0.00134356206167075	0.00283499489332972	-0.00136371883369646	-0.0172398760297441	0.00937226650619302
4.9	0.0111555359313182	-0.00418507590119995	0.00262683465666373	-0.00174048826714332	0.00262077581098248	-0.00173204649540346	-0.0154747393983632	0.0116427639646169
5	0.0110881538562779	-0.00489415516959785	0.00235062356683206	-0.00207204346134886	0.00235335613622039	-0.00208445794077888	-0.0130831607697721	0.0135770252989695
5.1	0.0111195202354457	-0.00573032934823036	0.0020291756845887	-0.0023946125418447	0.00204239068187042	-0.00239214491267953	-0.0102382065643133	0.0149391407030689
5.2	0.0110456571395981	-0.00669662749882303	0.00168688117075438	-0.00265105187424981	0.00168737927025642	-0.00265520925105471	-0.00721893352446579	0.0156476552652549
5.3	0.0108435113128832	-0.00771086629671307	0.00129734460417889	-0.00286187026281909	0.00129360248916208	-0.00286443768022543	-0.0041656080696275	0.0157856410096531
5.4	0.0104574391828153	-0.00869942526406463	0.000886574994332851	-0.0030203687372712	0.00088568646458707	-0.00302282424558633	-0.00118238134822663	0.0152347507168742
5.5	0.00983288232348643	-0.00951607114574847	0.000448458981428791	-0.00311389014442921	0.000461020019276824	-0.00311387560712265	0.00142236287721626	0.0140632965891191
5.6	0.00915916055445527	-0.010245972330361	1.58866680204201E-05	-0.00314389530763652	1.25942576862283E-05	-0.00314044088597856	0.00354021451651755	0.0125038639657764
5.7	0.00829415000514995	-0.0108257591685402	-0.000416486253518556	-0.00311775770553438	-0.000420199219493392	-0.00312144147782761	0.00514681632170772	0.0107248202410795
5.8	0.00744114507916845	-0.0112587045014214	-0.000850638322114089	-0.00302750024249377	-0.000849910739611971	-0.00303517431143505	0.00636604202306237	0.0086345134774091
5.9	0.0065428975948616	-0.0115380247232645	-0.00126666018834399	-0.00287479578303308	-0.00126506225647694	-0.00287894202558022	0.00701126150677387	0.00641297099894063
6	0.00560806127384591	-0.0117601951414538	-0.00165428463020241	-0.00267005346495044	-0.00164830163984895	-0.00267339790412995	0.00704514258089611	0.00423783505623875
6.1	0.0047710561318351	-0.0119137476296207	-0.00201194936056083	-0.00241945996990151	-0.00200781182242436	-0.00242422028865497	0.00686612096809237	0.0022604943483975
6.2	0.00396027441149135	-0.0121769454250672	-0.00233131795779683	-0.0021041550239923	-0.00232774570673216	-0.00211280861385568	0.00646527549404342	0.0002062136273044
6.3	0.0032365784110477	-0.012522854888092	-0.00259818659596888	-0.00176571689703424	-0.00260798773382291	-0.00177346693880577	0.00578628344813152	-0.00195463579546077
6.4	0.002414651795449	-0.0129871246039508	-0.00282507240197847	-0.00138169073535805	-0.00282308325649187	-0.00138747858287337	0.00474248940538063	-0.0040839307466986
6.5	0.0015828922144984	-0.0134086551723851	-0.00299046430655681	-0.00098026842985575	-0.00299086811702583	-0.000979147309341251	0.00332041155730321	-0.00600151971851862
6.6	0.000726080497795485	-0.0136953305286629	-0.00309468519635346	-0.000555284901069838	-0.00310534067215243	-0.000558288490020219	0.00151389000944774	-0.00756973094364464
6.7	-0.000130334549517485	-0.0138167451160189	-0.00313975547580293	-0.00012186807054502	-0.00313871606217576	-0.000115636114774556	-0.000764459432515064	-0.00851412027780401
6.8	-0.000966621437212928	-0.0137707303859124	-0.00312568381730755	0.000325673233524245	-0.00312478076529563	0.000330428946083789	-0.00324779549272482	-0.00870989976583717
6.9	-0.0017892076068944	-0.0136613565306065	-0.00304418278915552	0.000755460564554745	-0.00304460768402087	0.000760439731275609	-0.00560683839788173	-0.00819785669930583
7	-0.00260098564337235	-0.0134220113574873	-0.00291419762298047	0.00117317399765043	-0.00291561199592006	0.00117638647468641	-0.0077398145077891	-0.00712403744014658
7.1	-0.00337993152162171	-0.0131643413826834	-0.00271742879577469	0.00157062461039396	-0.00271985558412007	0.00158162881926603	-0.00952731695694123	-0.00551957720433701
7.2	-0.00420008427346743	-0.0128655712282613	-0.00247812229006858	0.00193193151988202	-0.00247830921034443	0.00193782073864389	-0.010863967183087	-0.00346364608203319
7.3	-0.00508708498914193	-0.0125070689888794	-0.00218852663151359	0.00225702215489897	-0.00218576829200601	0.00225849689068301	-0.0115658690863108	-0.00119472988730405
7.4	-0.00606884812031309	-0.0121163547791293	-0.00184695205881267	0.00254118361950966	-0.00183974801586537	0.00254770554111154	-0.0117609653847245	0.000989072795646274
7.5	-0.00712946858271295	-0.0116181743458458	-0.00147062553309717	0.00277630467617353	-0.00147166153168231	0.00277429107223906	-0.0113995717875324	0.00311526487755037
7.6	-0.00799799377254541	-0.0110696285730908	-0.00107798317843586	0.0029541246690551	-0.00106734816960814	0.00296447845232764	-0.0104508535449363	0.00497704471072351
7.7	-0.00888549355162811	-0.0105188134758944	-0.000649072186724375	0.00307877427991288	-0.000643511759898187	0.00307843266688088	-0.00931043775315874	0.00625112865122132
7.8	-0.00945641538631059	-0.010086524812454	-0.000203208341401781	0.00314060422997237	-0.000216834750100128	0.00313351428613776	-0.00795750103414182	0.00745177494358572
7.9	-0.0098795311513747	-0.0097463460519346	0.000220422151807372	0.00312780274402615	0.000231504711043559	0.00312751032725866	-0.00629539733232593	0.00858572808314863
8	-0.0102012081667636	-0.00940266006741329	0.000655676033591522	0.00307340899250073	0.000663966316781952	0.00307134531157101	-0.00439819721363813	0.00948599950575802
8.1	-0.0105018905707975	-0.00907861440058717	0.00108783940570036	0.00295050835343825	0.0010855631408256	0.00294725356656556	-0.00218516226429831	0.0100587895920254
8.2	-0.0108969263322568	-0.00870559817408257	0.00147990615442479	0.00276902082583287	0.00147907133334218	0.00278060196991138	0.000226281999033182	0.0101856931901575
8.3	-0.0113382982312899	-0.00825868639262293	0.00185306038074572	0.0025371994869826	0.00185813794030295	0.00253462093888271	0.00268328847092427	0.00975541587851718
8.4	-0.0118165209405619	-0.00766458947899473	0.00220038296217769	0.00225712012940662	0.00218922119166788	0.00225750576429767	0.00496460793146055	0.00871390162094779
8.5	-0.0122789601163375	-0.00696056402136907	0.00249757265880662	0.00192167363841537	0.00249758033693266	0.00192302434603702	0.00686043542082696	0.00719264004777782
8.6	-0.0126460217341591	-0.0061586943547536	0.0027293271154729	0.00156158577847446	0.00272511911925938	0.00155927301796856	0.00841575462928792	0.00523716475749835
8.7	-0.0129057146468529	-0.00532469761395791	0.00291992594428367	0.00116282779763335	0.00291876372145828	0.00116241551383455	0.00944325116186233	0.00290464538338418
8.8	-0.0130154474297616	-0.00448970084130668	0.0030498399454138	0.0007443274152617	0.00306082204277484	0.000742233537616937	0.00986978442397514	0.000322387147962218
8.9	-0.0129454270385335	-0.00378124700989613	0.00312443573275843	0.000313438994322052	0.00313379713576912	0.000306309252993603	0.00984494629093991	-0.00224954540775275
9	-0.0127659146683103	-0.00327748728842798	0.00313737597245933	-0.000135160645065354	0.0031441450856633	-0.00012955145476568	0.00936474998155531	-0.0047841698141307
9.1	-0.0125302738662499	-0.00299156314961906	0.00309069450909515	-0.000567248230020127	0.00309091250348116	-0.000567440360773344	0.00845868079348511	-0.00726657578252746
9.2	-0.0124184904422103	-0.00285760791203975	0.00297657650914986	-0.00098874514696269	0.00298039669160453	-0.000988516237821522	0.00701890867676971	-0.00963491212076711
9.3	-0.0124372034582785	-0.00273558702532581	0.00280511754122526	-0.00139830784073634	0.00282316800170885	-0.00139871873575011	0.00504173408872693	-0.0117080151983464
9.4	-0.0125730711587937	-0.00259166885697787	0.00258780944055308	-0.00177124614518017	0.00259114688608905	-0.00178226977701349	0.00252164527869915	-0.0134140918691136
9.5	-0.0128389012210306	-0.00219129514156748	0.00231718700401887	-0.0021274387509848	0.00233198797161284	-0.00212807625222018	-0.000539629035360142	-0.0144503895932788
9.6	-0.0131225919516936	-0.00174559907485346	0.00199918153619585	-0.00243035309042527	0.00199949092821066	-0.00242333373102518	-0.00401951492364248	-0.0148428568565047
9.7	-0.0134204192734006	-0.00113661905160366	0.00163747280379847	-0.00268556205203391	0.00164577749214592	-0.00268713607774633	-0.00769390690687105	-0.014346154377179
9.8	-0.0136627299160565	-0.000422750198043989	0.00125343796635758	-0.00288252025468611	0.00125162659500056	-0.00289117811023313	-0.0112814974611596	-0.0129844959954972
9.9	-0.0138313882062736	0.000439319412516927	0.000843603115437563	-0.00302934423719328	0.000831719083116652	-0.00303198788175677	-0.0147199157783513	-0.0107399141182291
10	-0.0138944595406346	0.00131547287045871	0.00040952922708076	-0.00310983389178159	0.000408728673161337	-0.00311716248438487	-0.0176081714580552	-0.00770426384001639
10.1	-0.0137477352828584	0.00221662867343982	-2.5814135921232E-05	-0.00314732570895828	-3.04591668936737E-05	-0.00315010627394135	-0.0197323904508045	-0.00408779861897092
10.2	-0.0134512160903732	0.00303803594681967	-0.0004667078759442	-0.00310811707082247	-0.000479320181749095	-0.00311190278944772	-0.0210083110147486	-0.000118792154282648
10.3	-0.0130316489144944	0.00376684259113453	-0.000899759777203283	-0.0030062581768104	-0.000899522331219377	-0.00301966500955765	-0.021401137449341	0.00407598632635188
10.4	-0.0125144067183085	0.00434745562747546	-0.00130999949760302	-0.00285919860229497	-0.00131317700897054	-0.00285707005579734	-0.0208163448699174	0.00814106544070613
10.5	-0.0120370299788995	0.00482968419877874	-0.00169521538733225	-0.00264005128775359	-0.00170138931340874	-0.00264732403158779	-0.0194674279407846	0.012041243421321
10.6	-0.0114051962311942	0.00532082599175669	-0.00205496481517865	-0.0023828265261875	-0.00205646376319362	-0.00238794667678603	-0.0173896414513914	0.0157509017316216
10.7	-0.0108063753834609	0.00578001286642549	-0.0023626377391584	-0.00206991334384955	-0.00236584351825054	-0.00208596857743177	-0.0145746716908068	0.019161489040412
10.8	-0.0101088624034921	0.00618015875521282	-0.00263029350304059	-0.00172170120706816	-0.00262735046112725	-0.00172386960086687	-0.0111149522829952	0.0220900950218281
10.9	-0.00943156060129291	0.00650454146920403	-0.00284816547904107	-0.00134295723448701	-0.00284744375670808	-0.00134809057994572	-0.00709804724875973	0.0243837336707232
11	-0.00864228087211772	0.00677557053489142	-0.00301137181618313	-0.000926173649334943	-0.00300433988309411	-0.000930471207250346	-0.00255074436803687	0.0260384025239537
11.1	-0.00778003721389204	0.00690101976596164	-0.00310692118802595	-0.00050854468645055	-0.00309916645557183	-0.000500235123706012	0.00246432508486291	0.0267758447276868
11.2	-0.00692918614627532	0.00682246412168916	-0.00314724158066136	-6.58469609056978E-05	-0.00315384972331916	-6.26310553453723E-05	0.00775910340304695	0.0265058366628614
11.3	-0.00606193925148425	0.00654591696483021	-0.00312418424253304	0.000376126611541594	-0.00312735482456603	0.000373959557843762	0.0131687406074463	0.0252058304740784
11.4	-0.00543093654899228	0.00610273171724039	-0.00303688364162538	0.000807782698513005	-0.00304152064933518	0.000807938236158433	0.0182877314036519	0.0226864523232116
11.5	-0.00498532264907107	0.00561861662207554	-0.00290373858720113	0.00121673250660746	-0.00289620981963407	0.00122149091853903	0.0227360745323082	0.0190249098005501
11.6	-0.00458774826343516	0.00505078342179832	-0.00270076341549073	0.00161160132584808	-0.0027088885820718	0.00162132298773333	0.0264856218112152	0.0144228687447708
11.7	-0.00434665203744186	0.00444050635399488	-0.00244608748516902	0.00197945207495667	-0.00244783825238538	0.0019831507546152	0.0293180270993803	0.00906000516614625
11.8	-0.0041749896522798	0.00392573679300587	-0.00214624984351732	0.00230401793674932	-0.00215546413305665	0.00231383970289758	0.0311156166869117	0.00326404563896541
11.9	-0.00395098139000965	0.0034274189660062	-0.00180557835048706	0.00257648350193592	-0.00180560536416407	0.00258305394830122	0.0317259488534348	-0.00255902927191501
12	-0.00397589303144333	0.00297013817569567	-0.00142513736527247	0.0028016288002377	-0.00142963564345033	0.0028044240671733	0.0311802491574442	-0.00837001247047529
