# GHZ S RI R 50
0.2	-0.0139878426171576	0.00526443362588404	0.00304492089497107	-0.000885103148506279	0.00305538168251076	-0.000884949985237794	0.00583932495374021	0.000797906239270622
0.3	-0.0131653156395992	0.00576879119579544	0.00289886700634311	-0.00130116230326983	0.00289258218712853	-0.00131280645752083	0.00616217416908233	-0.00145901864362696
0.4	-0.0124278830237114	0.00648120972440459	0.00268478141117224	-0.00169548541608308	0.00268267596384807	-0.00169739795881395	0.00572422710100287	-0.00328945197824543
0.5	-0.0117469576757454	0.00719414578296831	0.00241498877134829	-0.00205257487785067	0.00241780339121591	-0.00205630106315638	0.00483721938421166	-0.00483110860188902
0.6	-0.0110610800835765	0.00796766475708713	0.00210238238831129	-0.00237267984494946	0.00210163912024927	-0.00237552245261203	0.00359391446250417	-0.00609663567874801
0.7	-0.0104128001069947	0.00871660116757251	0.0017518064077533	-0.00264278011841569	0.00175801337272148	-0.00264687344063937	0.00201589679748516	-0.00694147767550037
0.8	-0.00964564741261001	0.00945373431431688	0.00135826923867245	-0.00286280173138573	0.0013665427041719	-0.00286120490164675	0.000273926465022289	-0.00729434353403163
0.9	-0.00892845355385048	0.0101372349218371	0.000953707800405214	-0.00301485208197222	0.000953688741840322	-0.00302426865359355	-0.00147299913686373	-0.00720755162751917
1	-0.00814539149463623	0.0107595185463928	0.000520752427621053	-0.00312297642999971	0.000520604023951009	-0.00312833351997458	-0.00311560485388572	-0.00666325581836882
1.1	-0.00747670405329137	0.0112308985912459	7.33582744657067E-05	-0.00316289876313462	7.42461834215407E-05	-0.00316762566367623	-0.00463372639738243	-0.00568998559649482
1.2	-0.00685859113396964	0.0113978455611502	-0.000365577368785583	-0.00313585148706029	-0.000364351546904023	-0.0031526481641536	-0.00554114913318838	-0.00437555059803912
1.3	-0.00652516727722275	0.0111791738826057	-0.000796844425513576	-0.00306156467937506	-0.000801783533121464	-0.00306922090071618	-0.00562633952223679	-0.0030685119346434
1.4	-0.00630139170843112	0.0108719822665148	-0.00122288182835171	-0.002916328134763	-0.00122529819979684	-0.00292345886862756	-0.00531376160124729	-0.00225056530839722
1.5	-0.00576302454465706	0.0109145525007571	-0.00161455536964861	-0.0027180163803418	-0.0016125835706597	-0.00272355886009027	-0.00501668993476115	-0.00163124385740302
1.6	-0.0049521869738953	0.0112504118760331	-0.00197770694154694	-0.00246174502800682	-0.00198117806116781	-0.00246262434286161	-0.00516349014033978	-0.000655385958959626
1.7	-0.00396140749438635	0.0116132388880332	-0.00230281777624687	-0.00216715472350554	-0.00230486839757482	-0.00217574429970364	-0.00495161258850269	0.000633717341711525
1.8	-0.00295684711079657	0.0119846691403748	-0.00257974146814015	-0.00181769757294938	-0.00258492033644741	-0.00182315842969476	-0.0044277226609423	0.00184026715823441
1.9	-0.00195897327103792	0.0121653284734053	-0.00280534618179841	-0.00144835008442618	-0.0028018330603451	-0.0014421601853243	-0.00360438335502123	0.00292346705397732
2	-0.00102477453059892	0.0122650958094127	-0.00298088142235341	-0.00103654475105336	-0.00298362070315868	-0.00102969834053945	-0.00255054828969702	0.00383662170367033
2.1	-0.00012075543671721	0.0122263295470354	-0.00309608087768714	-0.000603871140392429	-0.00309818501108569	-0.000610567899668807	-0.00120368832282139	0.00436728959152851
2.2	0.000689148313095881	0.0121689616931293	-0.00314939968341837	-0.000172628840027514	-0.0031512099294047	-0.00016290039274056	0.000398248050860601	0.00448740072137436
2.3	0.00138228761742396	0.0119870942437728	-0.0031409650555218	0.000269761798758786	-0.00314772345942891	0.000266854023225117	0.00196058771580918	0.00406260131611524
2.4	0.00198396062496932	0.0118270175584748	-0.00308066689691329	0.000704623467200126	-0.00307948722085529	0.000719745659397309	0.00343172294209684	0.00327686450449012
2.5	0.00250849823815048	0.011664797187735	-0.00294504046551955	0.00113711152168276	-0.00295804731455477	0.00113841854770271	0.00470873862302793	0.00205933182665955
2.6	0.00307016959565688	0.0116032183486657	-0.00275431073467996	0.00153233720619507	-0.00277523655466467	0.00153626635931302	0.00573064727514368	0.000512870492712896
2.7	0.00377121936293252	0.0115722488402413	-0.00252184551314751	0.00190141512884626	-0.00252212061995638	0.0019065032214462	0.00634214662789006	-0.00130129192713484
2.8	0.00465323547405574	0.0114952472786335	-0.00222635119611753	0.00222645211614332	-0.00223617963881991	0.00223766029739029	0.00653238958201906	-0.00315285839038083
2.9	0.00572241830758375	0.0112515061371399	-0.00188931460109339	0.00251946412581654	-0.00188737708160093	0.00252837555506357	0.0064804085582629	-0.00492266920212387
3	0.00683044099884915	0.0107728503996309	-0.0015176463513486	0.00276216834273256	-0.00153274866957539	0.00274914172610769	0.00617848569586727	-0.00667597329884602
3.1	0.0078600516572583	0.0101649638913627	-0.00111862346813938	0.00294508907429345	-0.00113556814937466	0.00295051509791484	0.00550990343563058	-0.00845581850121311
3.2	0.00872973162777207	0.00940868381988559	-0.000698876171038291	0.00306982441802737	-0.000694593079351142	0.00308063107639753	0.00428104321133242	-0.0100959420184581
3.3	0.00943100790071931	0.00852018576765208	-0.000269069607509853	0.00314085243737083	-0.000265774982421397	0.00313646665874228	0.00273091626924597	-0.0115959770732629
3.4	0.009952027475445	0.00760782360598977	0.000176880330241881	0.00314832426527507	0.000167450298494658	0.00314941660679034	0.000854824354031856	-0.0129492048108636
3.5	0.0103042300438841	0.00670919283914329	0.000610410291679201	0.00309098976458949	0.000615417650688254	0.00308965274524199	-0.00147267310080824	-0.0140750754575959
3.6	0.0105561519830328	0.0058972677449945	0.00103046021456484	0.00297053823634275	0.00103706483663195	0.00297402211997253	-0.00410729556567159	-0.0146111800849915
3.7	0.0107523728409559	0.00516394994154154	0.00144688400683065	0.00279345433594352	0.00144516138087692	0.00280982869225905	-0.00681817840995923	-0.0145801395377375
3.8	0.0109821878592932	0.00448991567262584	0.00181481922733012	0.00256622658155388	0.00182542883148259	0.00257256365068462	-0.00955917558259661	-0.0140475391863479
3.9	0.0112824244816535	0.0038300440252008	0.0021616808760364	0.00228759947503201	0.00215708307884593	0.00228750973144708	-0.0122275621380211	-0.0129289386198575
4	0.0116272668172268	0.00312159525195455	0.00245239886940389	0.00196823422456527	0.00246384659905674	0.00197435979216774	-0.0145698369179026	-0.0112275948950351
4.1	0.0119692444323839	0.00231977776081046	0.00270372480298333	0.00160142549895701	0.00272030006573819	0.00161117992015751	-0.0164518074116117	-0.00906306985482541
4.2	0.0122468327141408	0.00141978929743821	0.00290482802433739	0.00120451651191053	0.00290606385992243	0.00120680027074001	-0.0178995505007289	-0.00661796911091285
4.3	0.0123912107207051	0.000480724689190429	0.00304704814817968	0.000796526790968585	0.00304824439378393	0.000805106486682594	-0.0188958026534933	-0.00407082872498647
4.4	0.0123632391179218	-0.000504825401079074	0.00312554904802145	0.000361442493249929	0.00313346143006333	0.000356798506345875	-0.019519663651258	-0.00133629219564331
4.5	0.0121864274382328	-0.00139443852155118	0.003148629860556	-8.32247012606084E-05	0.00314544359729038	-8.09596409524826E-05	-0.0196268888481406	0.00147204602516871
4.6	0.0118762514115762	-0.00224550922356011	0.00309440906703049	-0.000528912084080826	0.00310744850427458	-0.000516954337152898	-0.0192902024771675	0.00421859857686764
4.7	0.0115685462729935	-0.00292775930093596	0.00299196984737137	-0.000941423045803485	0.00299186421151798	-0.000950851387781456	-0.0185454971274142	0.00681888073256404
4.8	0.0112383526192228	-0.00359255023563184	0.00284271043374014	-0.00134352829516482	0.00283504527398751	-0.00136368539184823	-0.0173112608109714	0.00935099425483042
4.9	0.0110813197908949	-0.00418334508531111	0.00262686010892289	-0.00174051249436327	0.00262080121316138	-0.00173207061813114	-0.0155489583312266	0.0116436864442645
5	0.0110287785243108	-0.00488682644328565	0.00235061305818771	-0.00207199888753582	0.00235334569994412	-0.00208441319585842	-0.0131420384060312	0.0135828683605943
5.1	0.011046870064197	-0.00570755429009567	0.00202923149832838	-0.00239462363506144	0.00204244665532702	-0.0023921558217884	-0.0103109253291866	0.0149606118315676
5.2	0.0109867646262456	-0.00665249434702056	0.00168688601596334	-0.00265109698594683	0.0016873840952812	-0.00265525441973882	-0.00727757048751107	0.015690724934356
5.3	0.0108019675708407	-0.00766106506231079	0.00129730492336957	-0.00286189767570702	0.00129356275935902	-0.00286446504360442	-0.00420661358014897	0.0158343104799058
5.4	0.0104311072123526	-0.00864639530343645	0.000886522899264971	-0.00302033067618764	0.000885634353352892	-0.00302278613347958	-0.00120802652043765	0.0152862938168821
5.5	0.0098300625795521	-0.00948708299791287	0.000448496860710789	-0.00311387156798761	0.000461057846547313	-0.0031138568704621	0.00141973255405019	0.0140906860862871
5.6	0.00913677894260704	-0.01022076547125	1.58473099869761E-05	-0.00314389630522256	1.25549421145526E-05	-0.00314044184144959	0.0035186297932576	0.012527261203315
5.7	0.00828303919995358	-0.0107952906533772	-0.000416515645796488	-0.00311770484667106	-0.000420228596759314	-0.00312138851949149	0.00513635090427695	0.010752783288098
5.8	0.00744089758381753	-0.0112352708964074	-0.000850626935468799	-0.00302742135565989	-0.000849899396469158	-0.00303509523414034	0.00636578739269259	0.00865532969250332
5.9	0.00655227996212615	-0.0115125487763843	-0.00126658575606264	-0.00287474247152506	-0.00126498780262737	-0.00287888858635385	0.00701978590092552	0.0064359485935849
6	0.00566006971624804	-0.0117546108661854	-0.00165427385819476	-0.00267004937982635	-0.00164829087767833	-0.00267339379592413	0.00709652678020527	0.00424212969755477
6.1	0.00481056301563069	-0.0119499652953633	-0.0020118860270201	-0.00241938679663641	-0.00200774861309877	-0.00242414696651444	0.00690543214356859	0.00222271390133018
6.2	0.00398176894726541	-0.0122275695763947	-0.00233120545594277	-0.00210413716784489	-0.00232763314220907	-0.00211279042396765	0.00648655687908253	0.000154024943843022
6.3	0.00323156502497082	-0.012569452463665	-0.00259807614917412	-0.00176575890813897	-0.00260787683674637	-0.00177350908492441	0.0057813988484118	-0.0020027450754656
6.4	0.00239787810423694	-0.01300143725175	-0.00282502698070398	-0.0013817801930776	-0.00282303765148584	-0.00138756797440921	0.0047260951365403	-0.00410000837803105
6.5	0.00158114662108984	-0.0134226834456837	-0.00299042368809735	-0.000980288720295219	-0.00299082750576002	-0.000979167615408988	0.00331947045714588	-0.00601766947763333
6.6	0.000712616552101614	-0.0137011943650963	-0.00309463672658857	-0.000555395594754741	-0.00310529199466187	-0.000558399555099875	0.00150074407914656	-0.00757803128337901
6.7	-0.00013999601037196	-0.0138319769868019	-0.00313978961348143	-0.000121982342975403	-0.00313875041092337	-0.000115750273458296	-0.000774221261081647	-0.00853179806808144
6.8	-0.000996099875782991	-0.0137992840464836	-0.0031257699191965	0.000325606294519142	-0.0031248669588035	0.000330362147844539	-0.0032777048169192	-0.00874064533409334
6.9	-0.00183910363381693	-0.0136758426537255	-0.00304426065684632	0.00075547561020236	-0.00304468556901466	0.000760454902064972	-0.0056572657484737	-0.00821396865869805
7	-0.00264153782259689	-0.0134470372150809	-0.00291421223434856	0.00117314253061753	-0.00291562664351596	0.00117635499388548	-0.00778052817457673	-0.00715065966683848
7.1	-0.00345668998032357	-0.0131821632490192	-0.00271751587227232	0.00157063314028059	-0.00271994284907682	0.0015816376004469	-0.00960408295423661	-0.00553920280028577
7.2	-0.00427880150199517	-0.0128615267224928	-0.00247816607956157	0.00193199258087092	-0.00247835296432373	0.00193788193598373	-0.0109427295880361	-0.0034616892022461
7.3	-0.0051682815729495	-0.0124907288439647	-0.00218851542761509	0.00225708496538671	-0.00218575703110051	0.00225855967324591	-0.011647327441242	-0.00118075843208743
7.4	-0.00615512407488728	-0.0120734496688626	-0.00184690219545181	0.00254118660024102	-0.00183969812682404	0.00254770836947209	-0.0118477750533845	0.0010304560103168
7.5	-0.0071826159428953	-0.0115581073147445	-0.00147066636217176	0.00277630347533497	-0.00147170234322373	0.00277428984774975	-0.0114536597292594	0.00317432771490947
7.6	-0.00806179080715594	-0.0109953214317454	-0.00107795041326678	0.00295417023228624	-0.00106731514490062	0.00296452396258765	-0.0105144671802219	0.00505042303407328
7.7	-0.00894035048848852	-0.0104215924722744	-0.000649023553753513	0.00307876311824687	-0.000643463168872718	0.00307842142746233	-0.00936475753776153	0.00634768879491213
7.8	-0.00949706520907716	-0.00996903632097332	-0.00020318567486819	0.0031405521304774	-0.000216811895500305	0.00313346239043359	-0.00799722795444843	0.00756836239243376
7.9	-0.00988907496131849	-0.00961504469123931	0.000220378419072232	0.00312775230288741	0.000231460793339933	0.00312746003275487	-0.00630187180217953	0.0087172469166038
8	-0.0101757063973539	-0.00930511444546508	0.000655680617935462	0.00307341952555812	0.00066397092932518	0.00307135583120461	-0.00437107595374706	0.00958217537141427
8.1	-0.0104806589084206	-0.00899657624936065	0.00108781383377078	0.0029504363837569	0.00108553762324437	0.00294718167658488	-0.00216197716704485	0.0101381038102373
8.2	-0.0108622818526072	-0.00864445664708329	0.00147981345995663	0.00276898297712132	0.00147897842362328	0.00278056381991402	0.000261782171215445	0.010243696196036
8.3	-0.0113059605907512	-0.00822501273713457	0.00185294736383933	0.00253722886692471	0.00185802494314053	0.00253465052956039	0.00271573784822101	0.00978618745178523
8.4	-0.0117926653231158	-0.00763983425499525	0.00220032519553119	0.00225722115881017	0.00218916329795959	0.00225760640142962	0.00498847972996957	0.00873629990602744
8.5	-0.0122435911185723	-0.00696267912330906	0.00249754864683261	0.00192170511376822	0.00249755630799207	0.00192305582155658	0.00689607074055601	0.00718793605358536
8.6	-0.0126438589076675	-0.00616948593112409	0.002729275776781	0.00156169344312351	0.00272506785613395	0.00155938051689294	0.00841801374667721	0.00522397750284445
8.7	-0.0129086558895205	-0.00532332663582932	0.00291995064480251	0.00116295575991536	0.00291878841038198	0.00116254342631549	0.00944055910942543	0.00290333956005158
8.8	-0.0130166530143534	-0.0044825016273682	0.0030499276100044	0.000744425502581362	0.00306091013633936	0.000742331813258986	0.00986885517061445	0.000326478968796861
8.9	-0.0129407852886313	-0.00375957705923061	0.00312454468604974	0.000313453834154323	0.00313390642550367	0.00030632385491455	0.00984944502090234	-0.00223145801641335
9	-0.0127307157849418	-0.00326461543306569	0.00313742051791786	-0.000135123724143411	0.0031441896543187	-0.000129514373543902	0.00939920811682346	-0.00477432935989696
9.1	-0.0125017797046873	-0.00299556597696182	0.00309082288905261	-0.000567246995777452	0.00309104089367702	-0.000567439132545989	0.00848683077776361	-0.00727347920209686
9.2	-0.0123920907666721	-0.00287653857998932	0.00297667121549737	-0.000988821879577165	0.00298049154002187	-0.000988593014442651	0.00704465835001547	-0.00965682164296068
9.3	-0.012432162072514	-0.00277374612627292	0.00280514543780476	-0.00139841328316995	0.00282319630224341	-0.00139882465941241	0.0050458420993933	-0.0117487421064528
9.4	-0.0125986993057499	-0.00262518411128757	0.00258776265344537	-0.00177130761598378	0.00259109982364068	-0.00178233131625574	0.00249547559812688	-0.0134494624912599
9.5	-0.012879149896019	-0.00223071824684069	0.00231721232906081	-0.00212746337504366	0.00233201346259706	-0.00212810088818735	-0.000579570321941019	-0.0144913128186159
9.6	-0.0131964583964298	-0.00176036564033408	0.00199913801979887	-0.00243042603744628	0.00199944759298385	-0.00242340662190267	-0.00409313265334492	-0.0148598805322734
9.7	-0.0134928634924215	-0.00112634980854631	0.00163739666434099	-0.00268557501437936	0.00164570124136779	-0.00268714921523195	-0.00776636668647167	-0.0143381223576431
9.8	-0.0137330859439741	-0.000397664046427154	0.0012533780554204	-0.00288247706169102	0.00125156661679268	-0.00289113472056143	-0.0113518504360074	-0.0129613718102246
9.9	-0.0138955570529631	0.000488979782856319	0.000843619991748216	-0.00302928008070569	0.000831736204052391	-0.00303192380356828	-0.0147840176241826	-0.0106918404168571
10	-0.013929336923371	0.00136505227333438	0.000409524744218223	-0.00310984809395414	0.000408724172161615	-0.00311717671644381	-0.0176426374941773	-0.00765613217610846
10.1	-0.0137893616765874	0.00227137861824127	-2.58080105285522E-05	-0.00314726496046123	-3.04529467735228E-05	-0.00315004548001487	-0.0197729359752332	-0.00403467950361229
10.2	-0.0134806662277422	0.00310655268615567	-0.000466639582722237	-0.00310808502423199	-0.00047925164501565	-0.00311187094437838	-0.0210364711400864	-5.2428674088873E-05
10.3	-0.0130504868151855	0.00384601119421657	-0.000899676768738268	-0.00300628864567678	-0.000899438945244312	-0.00301969549476718	-0.0214187138671885	0.00415249676385034
10.4	-0.0125119184262664	0.00444800246515722	-0.0013099761787948	-0.00285930007204414	-0.00131315381648191	-0.00285717153381501	-0.0208128351303343	0.00823896650679415
10.5	-0.0119452545196071	0.00495622655428307	-0.00169524794928439	-0.00264006354786011	-0.00170142197843022	-0.0026473363155205	-0.0194297155361564	0.01216858458974
10.6	-0.0113351468298227	0.00538263179455006	-0.00205494880769558	-0.00238286622323434	-0.00205644770311399	-0.00238798642387998	-0.0173177174310924	0.0158091518439191
10.7	-0.0107243473109415	0.00579939019723682	-0.00236266197072684	-0.0020699779064669	-0.00236586764521027	-0.00208603348395486	-0.0144915792852445	0.0191770903278542
10.8	-0.0100486071346311	0.00616238999528974	-0.00263036690278729	-0.00172175388799313	-0.00262742377365375	-0.00172392234044936	-0.0110535894718382	0.0220688214689898
10.9	-0.00939936358672554	0.00648074952767329	-0.0028482691793452	-0.0013429350484457	-0.0028475475424588	-0.00134806854615859	-0.00706583967591182	0.0243559863321491
11	-0.00861375871515621	0.00673218990756412	-0.00301139192533334	-0.000926163206519189	-0.00300435997785124	-0.000930460821966701	-0.00252209730226572	0.0259911155191884
11.1	-0.0077855357093914	0.00685824244394706	-0.00310702130298751	-0.000508532576605616	-0.00309926625775267	-0.000500222827542118	0.00245904821159965	0.02672875230525
11.2	-0.00694328321895711	0.00678895528369544	-0.00314733052173535	-6.57641238218365E-05	-0.00315393876091116	-6.25479514424539E-05	0.00774477699631792	0.0264675396483044
11.3	-0.00607669342718509	0.00651450379778219	-0.00312421622956515	0.000376249700792504	-0.00312738693994827	0.00037408273436882	0.0131546227033043	0.0251683659600353
11.4	-0.00544916896462386	0.00608293531800704	-0.00303683062823898	0.000807881374282067	-0.0030414675923868	0.000808037071466146	0.0182685719371325	0.0226608600852997
11.5	-0.00499612434586111	0.00558916051726821	-0.00290374501781651	0.00121677798276411	-0.00289621613440479	0.00122153633586575	0.022723978732939	0.0189914961947414
11.6	-0.0046241369737199	0.00502256402556035	-0.00270071191139602	0.00161170813479222	-0.00270883674001831	0.00162143013428277	0.0264478563835644	0.0143899835169452
11.7	-0.00439238841159014	0.0044249757288827	-0.00244598088838333	0.00197950617790715	-0.00244773150018089	0.00198320486087781	0.0292697595311759	0.00904030116492775
11.8	-0.00422884527807555	0.00392689488414332	-0.00214613643375058	0.00230400324536844	-0.00215535023802147	0.00231382495039431	0.0310586167679054	0.00326244745333326
11.9	-0.00399631219108389	0.00345563901390239	-0.00180553295410751	0.0025764136390257	-0.00180555997316661	0.00258298391147214	0.0316779126218587	-0.00253141356901099
12	-0.00399104158801012	0.00298315624221808	-0.0014250953472443	0.00280163594210156	-0.00142959357108491	0.002804431255985	0.0311645964387012	-0.00835750190824421
