# GHZ S RI R 50
0.2	0.000405617218944673	0.00296839586813474	6.31353103711347E-06	-1.00141490259665E-06	1.0668179723533E-05	1.05193187233137E-05	1.000647775223	-0.00647481997068612
0.3	0.00112518797596825	0.00283535560359161	5.82019245739558E-06	5.04852144617811E-06	8.1044144958345E-06	2.96397246095841E-06	1.00069797341249	-0.00946141438775114
0.4	0.00164435352563779	0.00291902473851852	-2.71745831248417E-06	7.88200372523173E-06	-4.7967418642933E-07	-4.43875337957446E-06	1.00108745482577	-0.012215907110445
0.5	0.00243720630656153	0.00274779610071907	2.31201985760844E-06	1.48095698307781E-06	7.52297943118455E-06	-1.05604047058999E-06	1.00094797728176	-0.0161263952424124
0.6	0.0023947240510631	0.00229426393699704	3.21777048355307E-07	3.54429714612492E-06	2.75488842268198E-07	-7.67051217841315E-06	1.00023272390879	-0.0188191736421829
0.7	0.00227243944557114	0.00247697344124279	4.17346518787124E-06	5.0682396939467E-07	-3.90197310984983E-06	-5.21060652294173E-09	1.00003663783049	-0.0212509347529358
0.8	0.00237611605681061	0.00272335617295834	-2.89513834566099E-06	2.96955738659638E-06	-6.83674213818317E-06	1.32035430359042E-06	1.0001357719519	-0.0231741133998352
0.9	0.00241367750923538	0.00310227528371582	6.0519472958937E-06	9.02797586543744E-07	-7.35989197694999E-06	-1.83881142542763E-06	1.00042921843613	-0.0253265820694521
1	0.00313900006443318	0.00361427332290543	2.36758778253798E-06	2.95189176631391E-06	-9.06907866566098E-06	-2.5853099531958E-07	1.00112832459325	-0.0272628441500231
1.1	0.00356023015605632	0.002862475579987	6.45485768859032E-07	3.54147187365229E-08	-5.31313240317106E-06	1.40854363829964E-06	1.00051748093355	-0.0304354488408032
1.2	0.0031701296190581	0.00213914575783211	-5.30659233971235E-06	-3.2940326431838E-06	-1.12138769829904E-05	-1.26785548842272E-05	0.999093038822947	-0.0318765335454489
1.3	0.00237269737102772	0.00125857709658126	3.05725276495401E-06	3.10687151616798E-06	6.96725490606904E-06	-4.09632389980336E-06	0.998175072179905	-0.0330423063675637
1.4	0.00159472445500522	0.000732943571151109	-2.80408172131378E-06	-1.11285582212206E-06	5.72121279638614E-06	5.77229327603609E-08	0.997264378235448	-0.0348172014440391
1.5	0.00178195063122885	0.000474487576208739	1.24034655607115E-06	-2.53900799643199E-06	8.05452425580761E-07	2.51565232804524E-06	0.998219655625167	-0.0380665395662269
1.6	0.00158600307944109	0.000530210913403927	-9.42271965172886E-07	-6.42860071476504E-06	3.18778806430001E-06	-4.25647533430205E-06	0.997884127685388	-0.0412953316953922
1.7	0.00194000568297625	0.00105952619671664	3.41483530220678E-06	6.30458933595339E-07	2.24543369907302E-06	3.85923053608678E-06	0.998775158722168	-0.0434549742041913
1.8	0.00240150942188839	0.00148769356126537	-2.38011910449597E-06	2.90873762677608E-06	-1.02231731518353E-06	-4.00704392911675E-06	0.999249528154024	-0.0460449645224591
1.9	0.00295842164598311	0.00178300871642921	-3.74536489951419E-06	-1.76151219802072E-06	5.64968465370812E-06	3.03063718610752E-06	0.99990932803391	-0.0480005321764011
2	0.0038606884953417	0.00155134848715037	-6.21070355534198E-06	-5.7671488525115E-06	-2.07581059798865E-06	9.19626723998003E-06	1.00109098156347	-0.0516175079795629
2.1	0.0036976887329024	0.000880246727702764	1.1884862216151E-06	4.62163908888368E-06	4.51099486946526E-06	3.99597659785327E-06	0.999984364368065	-0.0554429413992721
2.2	0.00341569491929576	0.00086142837127259	6.61217098315185E-07	9.08383957253676E-07	-3.67280058884379E-06	-1.09691695451295E-05	0.999344390532894	-0.0577753694468598
2.3	0.00318459428443236	0.000895787561301535	-2.28288993954061E-06	3.57990003961063E-06	-5.45418403927787E-07	-2.804716610993E-06	0.998868084623514	-0.0595605633950086
2.4	0.00295338947312462	0.00117024459793433	-1.56720633922616E-06	-1.45564809863888E-06	1.28541629755109E-06	-1.00666908300323E-06	0.998857370237696	-0.062740775633163
2.5	0.0033048932142255	0.0013557947871972	7.82757385751188E-06	4.04286187832575E-06	-2.38211931470543E-06	-7.24188289731638E-06	0.998562098141876	-0.065508231595509
2.6	0.00316614165404141	0.000920323497961064	4.95899749922557E-07	2.12180381895636E-06	-1.45447833994109E-06	4.70504315607599E-06	0.998022569375704	-0.0687951679312107
2.7	0.00287227819530833	0.00100553209182843	-7.87038802909639E-06	5.28700215602491E-06	2.57842503390126E-06	9.74076159353369E-06	0.997310246628886	-0.0719790880444356
2.8	0.00286673875098992	0.00133450883418019	-7.73441995483164E-06	8.01139653828597E-06	6.1160975897765E-06	1.99525414892496E-05	0.997031115701558	-0.0740000954881845
2.9	0.00326892496994314	0.00166913805820259	-1.18941867982708E-06	8.6766984671061E-07	-8.15526202138224E-06	-2.93444309118204E-06	0.996574296796887	-0.075956200421052
3	0.00411058967422953	0.0015002306957709	-6.31129996098968E-07	-4.48060173352616E-06	-2.16181110545462E-06	6.46420446940702E-06	0.996342029417823	-0.0785525676689222
3.1	0.00421677600665051	0.00102483183308127	-2.5947800418525E-06	1.0068643367755E-07	1.1029264939159E-05	-3.5841191269868E-06	0.995577533001094	-0.0806376159847416
3.2	0.00429825152648691	0.000904312849953033	-9.80964882329195E-06	2.59992042882272E-06	1.22108292234755E-05	4.21540891425358E-06	0.995032107490783	-0.0823237379401416
3.3	0.00436971565871297	0.000723206993047916	-3.46977969639975E-06	9.52781429744612E-07	-5.02019562365781E-06	-1.18141593081463E-07	0.994470594909652	-0.0855181447258548
3.4	0.0044362830927775	0.000727021996260249	5.3555097038926E-06	4.59369594153835E-07	1.35267875784069E-06	4.40229099322543E-07	0.993983606502204	-0.0873141643974267
3.5	0.00487215292733251	0.000334043017954906	2.77798932113191E-06	1.54619122737344E-06	1.31715412800999E-06	7.86761971176931E-07	0.993906375013405	-0.0897445276840354
3.6	0.00445827083662731	-0.00023072536013621	-7.15512619734497E-06	-9.77070469826591E-08	1.84904444321141E-06	-3.50972922793066E-06	0.993523633400172	-0.0925934077731539
3.7	0.00405965926336828	-0.000226884452490002	5.77207026125746E-06	-1.5437650605534E-06	-3.34416857950132E-07	-1.73177756917207E-06	0.993058256687947	-0.0952380466188249
3.8	0.00390115461043372	-5.21076055855872E-05	-1.99795478154821E-06	8.87590049692699E-07	-5.1928182150074E-06	3.26149982395253E-07	0.992664351923016	-0.0971232035744209
3.9	0.00404540332241333	0.000230090198202939	-8.3583012986621E-06	1.82276456104867E-06	-4.12578403377752E-06	-1.47918037982331E-06	0.993042444448759	-0.100074610833013
4	0.00465660900679834	-2.59858532672187E-05	-5.82786530867609E-06	4.0038154056604E-07	-9.55268748749636E-06	-8.40451135333306E-06	0.993549009268947	-0.102939588141615
4.1	0.00441393808483723	-0.000521823982393331	-3.96066320269455E-06	4.08977339528506E-06	-1.84521082739276E-06	5.59188964552675E-06	0.991538118693684	-0.105846043295699
4.2	0.00424070215611529	-0.000531519333845194	4.58896763613305E-06	-4.4094271396907E-06	6.7522517091736E-06	7.12445605107533E-07	0.989944544907074	-0.107980783487922
4.3	0.00419787264230983	-0.000468498614206877	-3.78375703843796E-06	1.1486667293509E-06	3.53657395159336E-06	-1.22628458435435E-06	0.989305436897453	-0.109604529336006
4.4	0.00427085755903149	-0.000266937889177213	-3.17381316271871E-06	-4.90552001836576E-06	9.21620699026049E-07	-1.0401667241817E-06	0.988569334591871	-0.111715411906662
4.5	0.00483073354840301	-0.000472522216968276	-1.37360792915834E-06	2.03230407504208E-06	2.08199334079786E-06	-8.45880784632006E-06	0.987785519731917	-0.114104085505924
4.6	0.00450086882144442	-0.00109043909378277	5.42336872261564E-06	9.52894948720678E-06	-1.40933755839152E-05	9.84801215859244E-06	0.986596567134261	-0.116232994358209
4.7	0.00416052564348693	-0.00118795211627302	-7.60541391521275E-06	-9.4885078036418E-06	-1.1411292431309E-06	-1.29086642039422E-07	0.9862479097044	-0.117680327645448
4.8	0.00390147773759274	-0.00112038835812028	-8.71847670070611E-06	-2.63882037512197E-06	-4.34152626521763E-06	4.54318604259389E-06	0.985683957005064	-0.11978717135429
4.9	0.00393159093135188	-0.000862307647231058	5.78121322627752E-06	8.25416708014617E-06	-7.20921905598361E-06	3.29545270340735E-06	0.985231919026358	-0.121237256693729
5	0.00452752338058943	-0.00120187356901537	4.22828167112351E-06	-8.51512473480907E-06	-4.29256563446431E-06	-6.13434312955712E-06	0.985122666601415	-0.122720667779577
5.1	0.00436764905077496	-0.00171806442870128	1.51205203379826E-05	-1.02447450083955E-05	3.44720816060567E-06	-8.69584356445151E-06	0.984907453792372	-0.123907652404596
5.2	0.00437053464931341	-0.00193449391007808	-4.22732981469251E-06	-4.68201427770333E-06	-3.14772887758688E-06	5.30870460307811E-07	0.984601054032393	-0.125970261565598
5.3	0.00436827819565332	-0.00219726068123821	4.76242073701875E-06	3.34370086867768E-06	-9.26223835736665E-06	-4.6958137573238E-06	0.98414464342993	-0.128263110938395
5.4	0.00440227580595676	-0.0022615747572995	5.15258669635526E-06	1.18037279217297E-06	-4.46590446120837E-07	1.03956724075423E-05	0.98361266135446	-0.130764862023366
5.5	0.0046968595939099	-0.0028983762792592	-1.80360369360235E-06	-1.9663905951618E-06	8.82770464864698E-06	4.94650331368464E-07	0.983379570834256	-0.133075148791554
5.6	0.0038268946685441	-0.00337842104510019	4.22798728905535E-06	7.18290136442254E-06	-4.70772109006343E-07	-8.56255828916977E-06	0.982728453378314	-0.135400771159718
5.7	0.00315124320848275	-0.00314975383511214	2.04288741666071E-06	-7.19263044718739E-07	5.44121500893831E-06	2.43581664627885E-06	0.982309273544911	-0.137134261319907
5.8	0.00263021707795199	-0.00276365140985146	3.88999329047498E-06	1.94828781966454E-06	2.71855767810196E-06	7.78761038626122E-06	0.982490895717857	-0.138522634108862
5.9	0.00235473735720618	-0.00197819535865924	-3.76208413203603E-06	-3.04268741120352E-06	-4.67414992151344E-06	-1.77224243685452E-06	0.98337673114449	-0.140104143536054
6	0.00298125418059629	-0.00174524909279535	-2.06695117885134E-06	1.69746225876763E-06	1.03844163421879E-05	-2.65291654644867E-06	0.984404572089302	-0.14371650233266
6.1	0.00257809835835744	-0.00224367945726421	-7.28813443371123E-06	-1.09511417295862E-06	-7.22441705531477E-07	-2.4697561892121E-06	0.982265371294001	-0.145863474481387
6.2	0.00201432925685739	-0.00219559763839997	-1.05599700551938E-06	1.97747832598753E-06	-3.46226023210858E-06	-5.33268471802831E-06	0.981011229474091	-0.146394881460968
6.3	0.00165609041901556	-0.00202723223025957	1.56701324555944E-06	2.81549421652473E-06	1.13718291515534E-06	5.93941952501961E-06	0.980450262471484	-0.147462035525647
6.4	0.00167956323793744	-0.00184176520732064	2.05564977550206E-06	5.0099105464085E-06	-3.31562513917591E-07	2.2588034931534E-07	0.980455035758632	-0.149162121859123
6.5	0.00197264283419398	-0.00263650966125732	4.63798090449213E-06	-1.86443803574653E-06	-4.6584720672753E-06	-1.53991396173481E-06	0.979467422590378	-0.152283731034925
6.6	0.0010565798520665	-0.00297975202441291	3.25619639057955E-07	-1.06102115750599E-06	9.22654866907135E-06	3.33222220764269E-06	0.978735433039795	-0.153083946772655
6.7	0.000484125573219265	-0.00269704649442754	5.107417214569E-07	5.57805391543452E-06	-1.79188764476569E-06	4.93725325797841E-06	0.979292998613123	-0.154493527619043
6.8	2.86398556841446E-05	-0.00211279840866412	1.79808667722315E-07	-1.57650392672978E-06	-3.43996178714937E-06	-5.10043689158737E-06	0.979509102216482	-0.156168772989641
6.9	9.21533127420509E-05	-0.00117587073934617	-6.63099384263659E-06	6.65634341325058E-06	2.26962338848946E-06	1.35466727654292E-06	0.980141247653078	-0.157667353233274
7	0.000854304036513586	-0.0013006644715212	8.02384679167719E-06	3.18131211727616E-06	4.51971519490216E-06	5.85089613538881E-06	0.9805201191036	-0.160154479552508
7.1	7.25566295362364E-05	-0.00142450944216097	1.3855960110506E-06	7.85868036745159E-07	-2.24188239113346E-06	-4.46404258780032E-06	0.979349776708724	-0.161709072963945
7.2	-0.000449636585440687	-0.000844395764064769	-1.55662081617043E-07	4.37517722921062E-06	-4.98316819886864E-06	-6.78407077916468E-07	0.978713538914533	-0.162562699931874
7.3	-0.0009667546614142	-8.45884740581691E-05	1.37097326987682E-06	-5.22945646348886E-06	-2.32197476345477E-06	-2.78640307014641E-06	0.977927903184552	-0.163306620152971
7.4	-0.00128557882162129	0.00119123797049428	1.80061163268337E-06	4.4060540872117E-06	-7.17520848831438E-07	-1.06721676886329E-06	0.977550955271625	-0.163706325591933
7.5	-0.000428372740194405	0.00194746659243169	-5.70203958811632E-06	-1.52587335989696E-06	-1.50532739255188E-06	-8.86807382747241E-06	0.979908888000492	-0.16510930763187
7.6	-0.000527967601336493	0.00191354275504972	5.62681746528392E-06	-3.33428630089037E-06	9.96222981035875E-07	3.18557213845303E-06	0.980455359573369	-0.169654195593707
7.7	-0.000477963076585975	0.00228090981166927	-6.46107957467778E-06	-2.89918327293702E-06	4.32148185111987E-06	5.68264476048747E-06	0.980526197584864	-0.173141681350364
7.8	-0.000172942123534125	0.00238736307523185	-1.04039360414327E-06	-5.34950377838039E-06	-2.21263947290424E-07	1.13875804041957E-06	0.980930895903658	-0.176628331525231
7.9	0.000476340468323495	0.00241670700268968	-3.39940625857257E-06	7.17156583103613E-06	5.25557257643264E-07	-6.86527938015341E-06	0.981821313297444	-0.180212118052345
8	0.00104688858654697	0.00126927912172175	-2.84573871398589E-07	7.38404473575895E-06	1.80318195962684E-06	-4.44571163955551E-06	0.982066828173157	-0.186020404896237
8.1	0.00039231937148716	0.00110748648593192	-6.97487451956348E-07	-6.47001733390604E-06	-1.74120372333888E-06	-1.07419115753163E-06	0.979005874058448	-0.188827595588622
8.2	0.000191768960698677	0.00145619857814532	-3.83763721299418E-06	1.6268589879693E-06	-1.09518569795864E-05	-2.68696753514057E-06	0.978267224205513	-0.190144706301055
8.3	9.78574624326526E-05	0.00198125047626861	-5.485418017463E-06	-9.90007953459271E-06	-7.80979404287037E-06	2.97047116294509E-06	0.977879620452205	-0.192162870660684
8.4	0.000428902932693366	0.00294453295071038	6.81115430165646E-07	-6.06440187781559E-07	-1.41968703687912E-06	4.32379832644267E-07	0.9776112772634	-0.194468239239021
8.5	0.00147013860651523	0.00288660272180737	-1.75028796165097E-06	-2.67985313872582E-07	-1.9172432917662E-08	1.80300224892494E-06	0.976965292338304	-0.197195416442382
8.6	0.00114383095306537	0.00289889224476729	2.45761942442873E-06	-3.95630592104681E-06	-4.52250520692655E-06	-5.95866401901651E-06	0.976842376123151	-0.199062326005931
8.7	0.00120247745542179	0.00353208987375396	-1.48545497137765E-06	-2.10838355044692E-06	-3.58981056188495E-06	3.61680412533272E-06	0.977295112786095	-0.201373533320876
8.8	0.00150541055743484	0.00429387005402764	-5.49429619089385E-06	-2.16464891058131E-06	-7.24059487507736E-06	-1.32361022155531E-06	0.977689031877609	-0.203686597879419
8.9	0.00239517818734384	0.00523505448376987	8.55202901731256E-06	4.16478144333771E-06	-1.44271324205693E-06	3.1990276164819E-06	0.978387774792746	-0.205797378748335
9	0.00421308761484046	0.00508706531063957	-5.30586589625908E-07	4.16994023118086E-06	-7.84989529175083E-06	1.17848101411586E-06	0.979068733919816	-0.208206474022877
9.1	0.00503824170511076	0.00437285968712503	-2.61150282925071E-06	6.6437639117868E-06	4.14175340922969E-06	-3.06555408069256E-06	0.979500827441445	-0.210833920627455
9.2	0.00583690687710068	0.00364608192922982	-1.20356870549176E-06	3.43095859966046E-06	-2.241782907998E-06	-2.08083358208211E-06	0.97939504647621	-0.213881324234232
9.3	0.00625757913715869	0.00290499419293366	2.36080467773365E-06	-4.04298635116312E-06	-7.85020687741668E-07	-1.793381091017E-06	0.978971958282354	-0.216589634721802
9.4	0.0068059701151144	0.00253838346624618	-1.83256763530698E-06	3.90058305780369E-06	-2.05328877062187E-06	-3.60833310933386E-06	0.978619160776247	-0.219006877528111
9.5	0.00742103434208678	0.00142084298528161	3.46799568707419E-06	6.35158025899546E-06	3.83775453131677E-07	-2.15815961896275E-06	0.979327032220843	-0.222040021668497
9.6	0.00690793693844458	0.000849030696199579	4.60377921282551E-06	7.14743447090797E-06	-8.3579571552978E-06	1.28255982060874E-05	0.978901709803288	-0.226090419022835
9.7	0.00677430037155358	0.000774449349815682	-2.89019800346761E-06	-1.55987276984695E-06	-1.37151962148119E-06	-4.00284855157866E-06	0.978565322724502	-0.228921286888674
9.8	0.00673508953191639	0.000859579337348596	1.52074887727433E-07	-3.61883829668419E-06	3.05119023317797E-06	2.43382938099602E-06	0.978942968847794	-0.231177302214711
9.9	0.0071257221385215	0.00129924093259048	5.84909980025058E-06	-5.85183551415066E-07	-2.62794647177489E-06	6.7656072418451E-06	0.980003305937163	-0.233514946387773
10	0.00808311834581832	0.000620451613696715	-1.14954805443941E-06	-5.88093436877351E-07	1.38054387830846E-06	-1.19213149235454E-06	0.980113743971751	-0.238127965481189
10.1	0.00772350049986419	6.75029725624144E-05	7.44455760511428E-07	-8.48270873060851E-06	6.1931399955249E-06	3.65438442313999E-06	0.978033700892654	-0.240005374165042
10.2	0.00765962866440359	0.000110620978522963	7.53163671228699E-06	8.40866119699171E-06	5.25702814147686E-06	3.57426435704421E-06	0.977818294273062	-0.241483355839666
10.3	0.0078670481685383	0.000360955813805696	1.7865579817563E-06	-7.01112273864454E-06	1.43168901018452E-06	2.89500842243038E-06	0.977538205147127	-0.24398759315664
10.4	0.00884840500355225	0.000691603302096124	-4.05694361422058E-06	-3.67284878457693E-06	1.97484069890459E-06	-5.64089651897626E-06	0.97691046112942	-0.247458685023053
10.5	0.0102933008923002	-0.000401037295934593	3.78767381855688E-07	-7.11410350672269E-06	-5.76966288002005E-06	4.09846748429225E-06	0.974774291161289	-0.251340317522294
10.6	0.0104411144416303	-0.00154184913966273	5.52389191878002E-06	6.78535350723332E-06	2.45021741162672E-06	1.20358773656881E-06	0.973308756802041	-0.253750585732894
10.7	0.0104668667135767	-0.0022810160695865	-7.12741267255698E-06	-1.70103337881335E-06	-7.78465916090098E-07	1.5707227104322E-06	0.972012647231759	-0.256742490106493
10.8	0.0105251342300532	-0.00265964619567303	1.5003619918368E-06	4.47251955077282E-06	9.47624502511584E-06	-4.50738453419553E-06	0.970816013652108	-0.258506755300501
10.9	0.0111382856218087	-0.00282477342770464	3.36900900182259E-07	7.4705212381809E-06	-5.19780811690197E-06	2.15765002634234E-07	0.970610413700628	-0.260136212501389
11	0.0121927949835728	-0.00428797467362708	-2.24496347226253E-06	-3.84932762150511E-06	1.21207363831197E-05	-3.59371531796044E-06	0.970440537025511	-0.261652243385908
11.1	0.0118802438686491	-0.0055347495043672	-6.17236997828245E-06	-4.96120125987913E-06	9.66949015836223E-07	5.61881400829018E-06	0.970341366402452	-0.26318033291433
11.2	0.0117639533350733	-0.00649795919289554	3.35053205749747E-06	4.32936013258907E-06	1.05216373750703E-06	-7.94023501109947E-06	0.970105473711862	-0.265267553991956
11.3	0.0115907782683007	-0.00736368767330437	7.09988344510016E-07	-2.6787228440085E-06	-4.84808108557121E-06	9.19405533067595E-06	0.969639642553942	-0.267503175668037
11.4	0.0116133483370684	-0.00801426105339014	1.4805259277686E-06	-2.22065524132724E-06	-3.04959792826472E-06	-7.47715881930151E-06	0.96891247469022	-0.270033837459082
11.5	0.0118078139583327	-0.00980661625103839	9.52647929269982E-07	-1.01951324477445E-06	-9.10593434780753E-07	-8.75838098804795E-07	0.969082278561868	-0.273891336564773
11.6	0.01075147098498	-0.0111313369061806	1.12996637650446E-05	-3.34154545140769E-06	-5.48883896745263E-06	-6.86427456190323E-06	0.967165793698823	-0.278659432283771
11.7	0.0100523752262361	-0.0119860082078426	5.35298391757334E-06	-2.94037514655941E-06	-4.43496086076546E-06	1.68243663715299E-06	0.965821877780388	-0.282554199242515
11.8	0.00957812079079273	-0.0127214285323806	-4.64858863313529E-07	-2.56392746298411E-06	1.12668514248971E-06	1.3352216450075E-05	0.965056593176729	-0.286674761120005
11.9	0.0096830058142292	-0.0135998553176688	3.36003268236923E-06	1.99202171759758E-06	3.75412029364372E-08	1.28389884008075E-05	0.965272689272477	-0.290483371524619
12	0.0093501825967696	-0.0159552592390702	2.02474439452098E-06	4.75076836780573E-07	-3.73829445335253E-06	-9.54452401923028E-07	0.963179336774282	-0.296392206398451
