# GHZ S RI R 50
0.2	0.000549350652186231	0.00390583579343783	6.30314392082044E-06	-1.00971923162893E-06	1.06694045051571E-05	1.04881743532752E-05	0.999317159549599	-0.00711248909409044
0.3	0.00115595566122662	0.00345234179013198	5.81670104605815E-06	5.03357651177085E-06	8.09480240701091E-06	2.94972180618778E-06	0.999042775114308	-0.0100388049063206
0.4	0.001640707217093	0.00322115608925359	-2.70533936970615E-06	7.86765872299625E-06	-4.8227714189108E-07	-4.42904005073993E-06	0.998927881995448	-0.0127262221941348
0.5	0.00180794578720387	0.00314914741049639	2.30734601836259E-06	1.47825311847925E-06	7.50829384611645E-06	-1.05329682395751E-06	0.998393660015056	-0.0156290546248841
0.6	0.00229625613763736	0.00336757301074522	3.22910707262706E-07	3.53880856186056E-06	2.71570677936808E-07	-7.65907770636516E-06	0.998709024067143	-0.0183072318186753
0.7	0.00268925998445563	0.00329347117935461	4.16519315025481E-06	5.02595888771307E-07	-3.89388247129545E-06	-2.22976711009405E-09	0.998419649186296	-0.0213742422608112
0.8	0.00303213869615236	0.00323502624925692	-2.88544280826257E-06	2.96391224493744E-06	-6.817966035219E-06	1.32186055030083E-06	0.998159151756446	-0.023603575948748
0.9	0.00329172499780143	0.0031218081042454	6.03330653879713E-06	8.96379003654132E-07	-7.33765825045745E-06	-1.82865860094653E-06	0.998005835972874	-0.0260937292271195
1	0.00324329815585204	0.00288999227486965	2.35870765393439E-06	2.94150468595876E-06	-9.03631386742091E-06	-2.58624381920141E-07	0.997440542835214	-0.0279086224506251
1.1	0.00316543149411497	0.00321073108884891	6.43471901362637E-07	3.56145082522431E-08	-5.29737057629721E-06	1.40163980040157E-06	0.996981870768547	-0.0295464665953818
1.2	0.00338907108198821	0.00305321359050215	-5.29037317615616E-06	-3.28762499700338E-06	-1.11767558416352E-05	-1.26493060084075E-05	0.996620214459517	-0.0303875470840356
1.3	0.00328931371687076	0.00240186151276416	3.04827426852244E-06	3.10185443903169E-06	6.95418012234346E-06	-4.08244043935985E-06	0.996998900537047	-0.0312190615976518
1.4	0.00296086776667658	0.00150854622194212	-2.79782577888582E-06	-1.11298065976167E-06	5.71022650787927E-06	6.22089884459903E-08	0.996950965633736	-0.0333336434118085
1.5	0.00257109496672896	0.00114454481110824	1.23965845724683E-06	-2.53255405207541E-06	8.01741836825073E-07	2.51085214816677E-06	0.99714792465018	-0.0367678115320563
1.6	0.00274924420158613	0.00120162343536967	-9.33602075551763E-07	-6.41155378071811E-06	3.18289592134248E-06	-4.24160617369362E-06	0.996557049435917	-0.0400212422427911
1.7	0.00291754612924581	0.00115893538538745	3.40281028681154E-06	6.32343120092604E-07	2.23352294164809E-06	3.8490785831375E-06	0.996628667171254	-0.0425568486776554
1.8	0.00302439129597254	0.0012881513666929	-2.37505957583031E-06	2.89512429022584E-06	-1.01356342435637E-06	-3.99367511278453E-06	0.996323949330665	-0.0453047359611868
1.9	0.0031347901451394	0.00127640152826078	-3.72814998016241E-06	-1.75774659240445E-06	5.62336320900385E-06	3.02340661876254E-06	0.995982706332314	-0.0477648837577596
2	0.0030358417188312	0.0014488894800177	-6.16616143397407E-06	-5.74172549240741E-06	-2.07625162602663E-06	9.13921996690169E-06	0.994526809255639	-0.0503411628403894
2.1	0.00334937813452062	0.00166534474659739	1.16701204904638E-06	4.59920799727278E-06	4.47266579619715E-06	3.98768564125685E-06	0.994344587185866	-0.0515450805152874
2.2	0.00352936980646387	0.00154814512594563	6.54593191531025E-07	9.06115423541321E-07	-3.61481187007211E-06	-1.09263475931642E-05	0.994756131033141	-0.0537141249951101
2.3	0.0035121852116518	0.00135958911164841	-2.28543152207372E-06	3.55343916708165E-06	-5.31914103985494E-07	-2.79298438612268E-06	0.994607751360392	-0.0555041772564957
2.4	0.00332946898993489	0.00118104132212136	-1.55321503637113E-06	-1.45537459021837E-06	1.28353070276353E-06	-9.9615495869439E-07	0.994632597991627	-0.0585828450943388
2.5	0.00278312843453136	0.00116248470468102	7.77384262498423E-06	4.06488237111773E-06	-2.33559241566986E-06	-7.22290408849756E-06	0.994106248076137	-0.0607606630139095
2.6	0.00261681781398738	0.00168509224307903	4.83761571556252E-07	2.11584017901252E-06	-1.47134947197494E-06	4.67955527131737E-06	0.994023667701168	-0.0632879440514215
2.7	0.00278993762589676	0.0019976831309465	-7.86505151278805E-06	5.22602438479573E-06	2.51902823714463E-06	9.71423353510499E-06	0.993777965446144	-0.0660454390568372
2.8	0.00313415716022175	0.00223467809106049	-7.74721418265799E-06	7.93759847996154E-06	5.98348454430375E-06	1.99065416329875E-05	0.99401336741139	-0.0678130651005398
2.9	0.0035901917552257	0.00221339568806723	-1.19022199421002E-06	8.57551688898071E-07	-8.10858978447395E-06	-2.97175326330698E-06	0.99401343548586	-0.0697308308763483
3	0.00392146685393059	0.00222489831620783	-6.0323546032288E-07	-4.47149644672474E-06	-2.19329095704696E-06	6.4331753711209E-06	0.994110679988077	-0.0722176106062251
3.1	0.00457526190377393	0.00210413274804237	-2.58783318441234E-06	8.55397329119591E-08	1.10178054283494E-05	-3.51058629575711E-06	0.993953294555691	-0.0741270849455899
3.2	0.00494224932417048	0.00166756125359349	-9.80034915318677E-06	2.53297488607882E-06	1.21534863593171E-05	4.27954696898784E-06	0.994019878233406	-0.0758788910041794
3.3	0.00508887027722223	0.00113991979460557	-3.46917978216531E-06	9.28242309937119E-07	-5.00955114257298E-06	-1.50702289440053E-07	0.994120368733986	-0.0791425163481896
3.4	0.00498109940526239	0.000640870730647051	5.34732489884663E-06	4.95031436765279E-07	1.34842620514173E-06	4.48928424615339E-07	0.994416501062691	-0.081311071113546
3.5	0.0045711687555952	0.000358734249995131	2.76827540739385E-06	1.56178412721971E-06	1.3122387351969E-06	7.94139915929681E-07	0.99412068046848	-0.0845876290177477
3.6	0.00444712318588121	0.00037209311795658	-7.14845551202122E-06	-1.40230928065504E-07	1.86837052455743E-06	-3.49573191353767E-06	0.993544672351715	-0.0867519035471468
3.7	0.00426951865473389	0.000218921648233059	5.7794037130078E-06	-1.50570942409889E-06	-3.2305835426047E-07	-1.73314475496923E-06	0.993626231500431	-0.0891694512208786
3.8	0.00409432654248614	0.000205091160138115	-2.00394445587629E-06	8.7456995135688E-07	-5.19540216998736E-06	2.92139721014397E-07	0.993607118109648	-0.0911855095654883
3.9	0.00399035322943879	0.000234068026754407	-8.37177402620752E-06	1.7715649277505E-06	-4.11772532514902E-06	-1.50508015151218E-06	0.993746048896149	-0.0946078839616402
4	0.00384493392569932	0.000450398552526299	-5.82717033394862E-06	3.60076718998004E-07	-9.48925322015951E-06	-8.46521634792983E-06	0.992802045696461	-0.0959403592505497
4.1	0.00424471151315564	0.000692942852593399	-3.99694631224736E-06	4.06058159031314E-06	-1.89214177714378E-06	5.5810553893494E-06	0.993135185641233	-0.0969786011035478
4.2	0.00458857903721464	0.000480457574733323	4.63322512824203E-06	-4.38109548570011E-06	6.75956403170347E-06	7.68030365880945E-07	0.993286582192435	-0.0996465561261803
4.3	0.00475909889363404	0.000186073752044185	-3.80288147291972E-06	1.12188501571721E-06	3.55565284861294E-06	-1.20165858301365E-06	0.993569269787618	-0.101874037879162
4.4	0.00471825808221934	-0.000185965092962101	-3.14441551675022E-06	-4.94715956243357E-06	9.33037317043948E-07	-1.03608649957561E-06	0.99332155934307	-0.104397899948396
4.5	0.00433342681469271	-0.000295785956305127	-1.39748272865497E-06	2.03068514540204E-06	2.16353935236875E-06	-8.48272693416973E-06	0.993367248495646	-0.106478338735242
4.6	0.00432890544643963	-0.000208696533744617	5.38727863777459E-06	9.62371679323188E-06	-1.42465733747064E-05	9.80538315229111E-06	0.993501512864637	-0.109410796973828
4.7	0.00431280006474009	-0.000384965855363084	-7.58814908827464E-06	-9.59557197222193E-06	-1.14710158366697E-06	-1.37406609356184E-07	0.993546264448649	-0.11161898565967
4.8	0.00419844118188978	-0.000517515876068962	-8.75546818925745E-06	-2.71129430993024E-06	-4.39765955361167E-06	4.5433623793271E-06	0.993257347892922	-0.114251162595528
4.9	0.00412388744783973	-0.000673097740241215	5.76650585528168E-06	8.34688552468515E-06	-7.27884569025403E-06	3.27085835875215E-06	0.993096841168847	-0.116188679386732
5	0.00398271780173616	-0.000707137962538491	4.31024113950252E-06	-8.55644764075818E-06	-4.29022784260386E-06	-6.20658988385884E-06	0.993181765859872	-0.118074968155929
5.1	0.00435368609222917	-0.000760853661257906	1.5285875501084E-05	-1.02463580129976E-05	3.51673985728575E-06	-8.74419695941112E-06	0.993291510490492	-0.119651240691573
5.2	0.00454357453205396	-0.00118861150453347	-4.23698388591907E-06	-4.73914181986646E-06	-3.1747345694855E-06	5.19455236016812E-07	0.993250222385332	-0.122097472989364
5.3	0.0045648395988018	-0.00160099687724306	4.78608371759424E-06	3.3946649395803E-06	-9.31699060329982E-06	-4.77982212457591E-06	0.993301363172242	-0.124662730807613
5.4	0.00439495010494701	-0.00203351429246616	5.1963556838205E-06	1.21440769615338E-06	-4.96859693910954E-07	1.04925450802614E-05	0.993629769998074	-0.127953877945716
5.5	0.00387192461640407	-0.00206456055509606	-1.81702985020737E-06	-1.99084457766101E-06	8.91612146713349E-06	5.21625097623508E-07	0.993139997016336	-0.131562746825397
5.6	0.00386640836944341	-0.00204607324257339	4.25328927042877E-06	7.2577970522635E-06	-4.5851346477881E-07	-8.64296560745797E-06	0.992543930590162	-0.134000700423819
5.7	0.00348619053129095	-0.0022430678017193	2.06344012183916E-06	-7.22618186575607E-07	5.48860163141648E-06	2.46807002462786E-06	0.99246756448792	-0.136572785973744
5.8	0.00292993750871728	-0.00217535769752045	3.92568772207184E-06	1.97075424928946E-06	2.73744254804457E-06	7.86531166337262E-06	0.992527751218482	-0.139053976232799
5.9	0.00236479173123407	-0.00186537721836471	-3.79657992276166E-06	-3.06987702655634E-06	-4.71677969920932E-06	-1.78779609100229E-06	0.992242227929037	-0.141903145664486
6	0.00164807449144494	-0.00118386216633101	-2.08495524518066E-06	1.70924848467507E-06	1.04697775603502E-05	-2.6651369177319E-06	0.991107659855559	-0.14356017837411
6.1	0.00192800078535018	-0.00021316569095621	-7.35879163037747E-06	-1.11236038949448E-06	-7.27345327425505E-07	-2.49467277257297E-06	0.991833680710174	-0.144403958569744
6.2	0.00243876939755152	-0.000145212349431828	-1.06576219249338E-06	1.99844461259185E-06	-3.50093070049567E-06	-5.38567155205459E-06	0.992132430612518	-0.14652616359468
6.3	0.00270751643320567	-0.000604019221802737	1.58710104643178E-06	2.84099920606326E-06	1.15798647317288E-06	5.99668861115296E-06	0.991795924582314	-0.14935556802269
6.4	0.00241636498495348	-0.00131411063716599	2.08305564192506E-06	5.0529373524085E-06	-3.34260427579031E-07	2.28527043728646E-07	0.990805413994782	-0.152057196075597
6.5	0.00178512005594498	-0.00143845232453364	4.68473082596452E-06	-1.88883657909926E-06	-4.7089791537455E-06	-1.55123316707693E-06	0.990248685529279	-0.154234663173623
6.6	0.00167758841626443	-0.00152960470831408	3.25890770712156E-07	-1.07371593028103E-06	9.33850452018264E-06	3.34009046701346E-06	0.990411823236537	-0.157232980047746
6.7	0.0013082051394302	-0.00160754111085046	5.39073344465393E-07	5.63259166431549E-06	-1.78960282105626E-06	4.99483619305376E-06	0.989919653965186	-0.160036518853782
6.8	0.000945851809854777	-0.00147371750513136	1.74099198441789E-07	-1.59234233763545E-06	-3.49667891552368E-06	-5.13275157679088E-06	0.989260696561759	-0.162619165885338
6.9	0.00051698134029244	-0.00133538620503388	-6.65661857690016E-06	6.75096621065077E-06	2.29719645863896E-06	1.35519369848395E-06	0.988686122970988	-0.165160417616113
7	-6.99191168183587E-05	-0.000666417710206049	8.11242855657819E-06	3.16296152261299E-06	4.59298653435552E-06	5.87610153260621E-06	0.987482137945652	-0.167128157617282
7.1	9.46570133120048E-05	-6.29051127757793E-05	1.40212319322959E-06	7.83620840655664E-07	-2.28888184418221E-06	-4.48699641268821E-06	0.98695097653681	-0.168718014845941
7.2	-3.42307238146142E-05	0.000130892701983923	-1.26901481866205E-07	4.41165426554777E-06	-5.02815262508773E-06	-6.49705384454273E-07	0.986237186807319	-0.170703862219572
7.3	-0.00043377594504887	0.000440021000452917	1.34287147647915E-06	-5.28224684149019E-06	-2.36175687294305E-06	-2.79162414959429E-06	0.985191020364304	-0.17269785099016
7.4	-0.00105631541612423	0.000763224636085907	1.85578473742173E-06	4.4281117840973E-06	-7.33325614836422E-07	-1.07003351515602E-06	0.984366448250329	-0.175593489044483
7.5	-0.00207138405844709	0.00166556351796696	-5.75955601207264E-06	-1.46865331098909E-06	-1.62110697663046E-06	-8.91143725905481E-06	0.982295042793083	-0.179055184612146
7.6	-0.00194010815250798	0.00307703604406267	5.61453540305027E-06	-3.41303823506495E-06	1.03677594543145E-06	3.18870629233396E-06	0.980723148874917	-0.180970573276493
7.7	-0.00165150938633776	0.0037725249278107	-6.51917566853544E-06	-2.83767370609828E-06	4.40257741990371E-06	5.65621203698838E-06	0.980463037775312	-0.183792047219189
7.8	-0.00108583799026814	0.00406813648121755	-1.1061917770422E-06	-5.35446000669648E-06	-2.08673092834465E-07	1.14498331927301E-06	0.980375964226909	-0.187179392304658
7.9	-0.000553034399874009	0.00406364870963809	-3.31646286545356E-06	7.22693191331032E-06	4.41169876500302E-07	-6.88435863519763E-06	0.979871453545271	-0.190977891662566
8	-0.000110708124248363	0.00438004903374908	-2.03813044604036E-07	7.38175034749566E-06	1.75336517137095E-06	-4.46213214150364E-06	0.978086310160261	-0.193383612778543
8.1	0.000881130257377732	0.00424692272968437	-7.59263927406929E-07	-6.46555185340316E-06	-1.75200512372101E-06	-1.05798898030258E-06	0.978366445161795	-0.195246944342519
8.2	0.0013321756097954	0.00393261899375358	-3.8237695038035E-06	1.66591391340781E-06	-1.09850290747414E-05	-2.57986524844676E-06	0.978431531577686	-0.197940774026992
8.3	0.00162520602965143	0.00374283129940317	-5.58611135892742E-06	-9.84582269493577E-06	-7.78070331818827E-06	3.04974332065377E-06	0.977832950262165	-0.200901384256002
8.4	0.0017154815744782	0.00361243961355645	6.75137049209272E-07	-6.12768886577164E-07	-1.41516177632274E-06	4.4580507563205E-07	0.976901848744834	-0.203718681044805
8.5	0.00153937030189665	0.00398930821735372	-1.75438922115502E-06	-2.51200071437585E-07	-1.66206746769999E-09	1.80472989223208E-06	0.976055859953471	-0.206351733149938
8.6	0.00210708941908181	0.0043788909912844	2.41298957841516E-06	-3.98312398948E-06	-4.5883647549738E-06	-5.90712691333189E-06	0.975541922857643	-0.20914469245065
8.7	0.0024481742586836	0.00440338282433405	-1.50667373106761E-06	-2.08861141378893E-06	-3.54402876260596E-06	3.65126947843361E-06	0.974805366650219	-0.211831974890168
8.8	0.00270744132643384	0.00455349164206968	-5.50330178127134E-06	-2.10034442879692E-06	-7.23611685595438E-06	-1.24280105962777E-06	0.974047747569398	-0.214077438953725
8.9	0.00302039363455734	0.00464433113696433	8.5668504937925E-06	4.06751489703255E-06	-1.40668343550911E-06	3.2034342639698E-06	0.973736814803294	-0.215957833088691
9	0.00331154309558072	0.00503580924111384	-4.86544136072513E-07	4.16406119390433E-06	-7.81658229289632E-06	1.25549048334472E-06	0.973351658270011	-0.218083120521759
9.1	0.00444532491237103	0.00521725481548029	-2.53123246254654E-06	6.64599344241366E-06	4.09348822942301E-06	-3.09765187357528E-06	0.973013788323158	-0.220045379181841
9.2	0.00542577799463602	0.00477738359085286	-1.16263873322722E-06	3.42867590260351E-06	-2.25377231015757E-06	-2.04849973409407E-06	0.972615795017257	-0.222583186070374
9.3	0.00619243111988584	0.00413285709781866	2.30753216160237E-06	-4.04912877887956E-06	-8.00214285824556E-07	-1.77688995679734E-06	0.972202867130659	-0.225239816704749
9.4	0.00664309240681361	0.003268012959043	-1.78149313729924E-06	3.90222831767988E-06	-2.08294102166421E-06	-3.56903800889658E-06	0.971552860999895	-0.228520866860998
9.5	0.00670456273036961	0.00303032692266037	3.52391272768566E-06	6.2705626398117E-06	3.5521046525351E-07	-2.14960645415661E-06	0.970005165135436	-0.231695271533797
9.6	0.00715226495034346	0.00252007927115433	4.64576515603851E-06	7.04025477748677E-06	-8.15092284154013E-06	1.28157223950877E-05	0.968856733456775	-0.23427420438179
9.7	0.00711735297608915	0.00196710761319041	-2.88179076188079E-06	-1.51728124396467E-06	-1.40079728820841E-06	-3.95519179414806E-06	0.968069941577315	-0.236712806592542
9.8	0.00694137222698763	0.00167252465770648	1.14421784811497E-07	-3.58754025867205E-06	3.04791209097884E-06	2.38117095094628E-06	0.967492100279523	-0.238922134633138
9.9	0.00668464203606618	0.00166374706127151	5.78016144598355E-06	-6.37498842053816E-07	-2.53179662642755E-06	6.7189910516195E-06	0.9661522717896	-0.241058740817834
10	0.00645685851059899	0.00218540260934185	-1.13933933193533E-06	-5.72475613446266E-07	1.35467780990187E-06	-1.18706801139617E-06	0.964268065274958	-0.241198360062941
10.1	0.00721386445336548	0.00258778346846788	6.84489148285037E-07	-8.39144605076304E-06	6.14541868911243E-06	3.57547517886542E-06	0.96474628519001	-0.241579837029411
10.2	0.00793912786013287	0.00245558091709885	7.49315855455781E-06	8.26540013716585E-06	5.2165658585957E-06	3.50118264524753E-06	0.964727449675175	-0.2429685575524
10.3	0.00858022923471956	0.00209401447894651	1.72871021275601E-06	-6.93136983223375E-06	1.42811977207077E-06	2.85117397367967E-06	0.964048545094441	-0.244788799176231
10.4	0.00902638223600446	0.00156247246050803	-4.01417524543642E-06	-3.61154128198392E-06	1.93129071401967E-06	-5.57184653227929E-06	0.962745188615521	-0.246696592496577
10.5	0.00926414064893158	0.00144946603383683	3.64046397037619E-07	-7.02970456115265E-06	-5.69489806349668E-06	4.05780323294199E-06	0.961546671226226	-0.24824439036544
10.6	0.0104354303677835	0.0010954464309321	5.46925675015181E-06	6.69477126610429E-06	2.42292422468794E-06	1.18503008205863E-06	0.961244962647557	-0.250200268456702
10.7	0.0112745813244293	0.000246075566294745	-7.04032307138244E-06	-1.67497457087631E-06	-7.67724176820574E-07	1.55181265396156E-06	0.96067896495695	-0.252458491313952
10.8	0.011909073047038	-0.00087134942374037	1.48030619980687E-06	4.41744110797318E-06	9.35996799302464E-06	-4.44838967150714E-06	0.960213459153677	-0.254178879886881
10.9	0.0120667638623344	-0.00209365524906229	3.22497794140705E-07	7.37949428636428E-06	-5.13444811786254E-06	2.05971981566741E-07	0.959894752622699	-0.255945811625436
11	0.012037019031885	-0.00283690268965865	-2.21302616766276E-06	-3.80727316711963E-06	1.19833231890362E-05	-3.53403014506402E-06	0.959294588044836	-0.257132273410996
11.1	0.0125404158641821	-0.0038613659785895	-6.08685004870788E-06	-4.91170484583383E-06	9.44382013771209E-07	5.55134856984337E-06	0.959197279816021	-0.258379424730475
11.2	0.0126078497857302	-0.00525266590685764	3.29731836871293E-06	4.2857088365005E-06	1.06155819858E-06	-7.83997365778754E-06	0.958896605777067	-0.260132514613955
11.3	0.0124477286338985	-0.00670061158522889	7.11157030523753E-07	-2.64521147653723E-06	-4.82416795662202E-06	9.07058257393265E-06	0.958807734108292	-0.262290597453252
11.4	0.0118578778823552	-0.00811637362442703	1.47236852787545E-06	-2.19233188269723E-06	-2.99249833026276E-06	-7.40865759387352E-06	0.958091167927559	-0.26554822260698
11.5	0.0109761089521306	-0.00899559746727511	9.43818797433479E-07	-1.00513192254306E-06	-8.97688286666573E-07	-8.67656354408254E-07	0.955800366707144	-0.268611641934761
11.6	0.0106075788960357	-0.0101074705577407	1.11731957419537E-05	-3.25004046136704E-06	-5.39003493014228E-06	-6.80267863530112E-06	0.954442193778147	-0.271056023280089
11.7	0.00973276182185067	-0.0113841923342108	5.30493375384525E-06	-2.87641139859676E-06	-4.39108761194917E-06	1.63843981820747E-06	0.953544961573847	-0.27426494432127
11.8	0.00865103501567493	-0.0123309959278076	-4.4471955201067E-07	-2.5363795533383E-06	1.03705222917359E-06	1.32013535066286E-05	0.952467641748602	-0.277817026746678
11.9	0.00751963133203172	-0.012952414429154	3.30427021213982E-06	1.98632607267948E-06	-4.03137449636947E-08	1.2672008244151E-05	0.950968371909437	-0.280140954554296
12	0.00656752976884516	-0.0129990416212174	1.99124507712777E-06	4.8797159091116E-07	-3.67569333566461E-06	-9.771571072013E-07	0.949115246177514	-0.28008559331973
