# GHZ S RI R 50
0.2	0.000493391952747343	0.00376925466062479	6.30496142309867E-06	-1.00828110401849E-06	1.06692183761493E-05	1.04936031215792E-05	0.999338772685689	-0.00713236703354022
0.3	0.00107707399068728	0.00337827199612949	5.81714473933191E-06	5.03653221593966E-06	8.09644508490477E-06	2.9526385914756E-06	0.999089245005133	-0.0100010107083951
0.4	0.00154478072434538	0.0032579385910458	-2.70808539404143E-06	7.87041346551174E-06	-4.81574363017356E-07	-4.43100079478616E-06	0.99912391493155	-0.012584348069118
0.5	0.00184781116898355	0.0031884008295111	2.30821118503115E-06	1.47883391791706E-06	7.51115693574869E-06	-1.05363610365314E-06	0.998915830241615	-0.0156755460916404
0.6	0.00219187039254145	0.00333490332394583	3.22454012321858E-07	3.53991293716044E-06	2.72848126305054E-07	-7.6613163042778E-06	0.999163583704483	-0.0185931960839099
0.7	0.00252622062709885	0.00338924506116397	4.16689028537286E-06	5.03637591882817E-07	-3.89556167172516E-06	-3.00190283915256E-09	0.998850527149806	-0.0217642124561621
0.8	0.0028841822985423	0.00342272244737705	-2.88746582364889E-06	2.96502393429937E-06	-6.82182032906502E-06	1.3214550027573E-06	0.998509832164465	-0.0241072253549782
0.9	0.00315207162745472	0.00341010159802157	6.03704273379132E-06	8.97524670915351E-07	-7.34213145397323E-06	-1.83051977839416E-06	0.998141660586887	-0.0265764355064551
1	0.00331976706346277	0.0033153254298778	2.36056017359102E-06	2.94316559581043E-06	-9.04222471576199E-06	-2.57819204191616E-07	0.997588366029561	-0.0280394600532392
1.1	0.00332535894158592	0.00336786118482019	6.43769797640586E-07	3.55583065038392E-08	-5.29963213018751E-06	1.40287654266584E-06	0.997337722276209	-0.029634943228935
1.2	0.00340437561825747	0.00314178438670745	-5.2926585289766E-06	-3.28879298444088E-06	-1.11817801746731E-05	-1.26541155584004E-05	0.997090032830058	-0.030415246387763
1.3	0.0031648035272974	0.00249439247007341	3.0492541685839E-06	3.10298769657669E-06	6.95666044885457E-06	-4.08369134988762E-06	0.99758087311779	-0.031283140725453
1.4	0.00270790704213688	0.00175242202420147	-2.79843105911077E-06	-1.11369772126136E-06	5.71178656956595E-06	6.30653387536217E-08	0.997514590440257	-0.0333936188339227
1.5	0.00243939557948074	0.00150684374425059	1.24102152290844E-06	-2.53292735680256E-06	8.01063534694386E-07	2.51198578743247E-06	0.998101812891989	-0.0367459680432111
1.6	0.00259506894501168	0.00163407096358918	-9.31197841982249E-07	-6.41598696218718E-06	3.18685651026718E-06	-4.24276872662691E-06	0.997752301413491	-0.0404071454117337
1.7	0.00290732778127604	0.00168137041884214	3.40538690451742E-06	6.3412772688741E-07	2.23394038622625E-06	3.85308691591949E-06	0.997817897086541	-0.0431570634697687
1.8	0.00313516557985434	0.00176971696141032	-2.37806246390698E-06	2.89708042710165E-06	-1.01333545589452E-06	-3.99761181127943E-06	0.997456653742818	-0.0459784625443186
1.9	0.00330060753934512	0.00170828983452727	-3.73126491480792E-06	-1.76073913556781E-06	5.62793718803735E-06	3.02828999928616E-06	0.997115273860059	-0.0482323628964198
2	0.00332078665566464	0.00173996248892631	-6.17355034680194E-06	-5.75184359889125E-06	-2.08185361869667E-06	9.15198094807527E-06	0.996471267211796	-0.0507352643685916
2.1	0.00340115011822646	0.00179272044122379	1.16981397333546E-06	4.6056393396662E-06	4.4801445272195E-06	3.99243469143435E-06	0.996373103690741	-0.0528425339449249
2.2	0.00344860426039822	0.0018044918722641	6.55781159926214E-07	9.07090665430983E-07	-3.62344837450631E-06	-1.09396074341943E-05	0.996483991131819	-0.0553005877266379
2.3	0.00343353740779377	0.00172946061025901	-2.28703626940499E-06	3.55912862526502E-06	-5.33768139457872E-07	-2.79650404238341E-06	0.996116579868543	-0.0572061394148991
2.4	0.00330047974536917	0.00163826324376336	-1.55621035573481E-06	-1.45668237868619E-06	1.28487607987168E-06	-9.98255919068632E-07	0.99596305787665	-0.0602118776858911
2.5	0.0029599141872298	0.00162945291316534	7.78856432895154E-06	4.06461462922238E-06	-2.34484472444666E-06	-7.2316640513936E-06	0.995659807763744	-0.0621904381509823
2.6	0.00276646340896133	0.0019059901862217	4.86299192894239E-07	2.11832526184422E-06	-1.46923579390689E-06	4.68729939428572E-06	0.995874634837851	-0.0649411859083164
2.7	0.0028060920675033	0.00216253221928836	-7.87103691227937E-06	5.24134685071089E-06	2.53234116840132E-06	9.72556461744887E-06	0.995783124453856	-0.0680064331426144
2.8	0.00301213511345452	0.00240363298534864	-7.74861796821484E-06	7.95842642201092E-06	6.01636054667974E-06	1.99277463325767E-05	0.995979285940386	-0.0701627250911467
2.9	0.00334381066359979	0.00248509758195155	-1.19046080079748E-06	8.60504860407526E-07	-8.12377392765782E-06	-2.96317066736769E-06	0.995689255716489	-0.0723329656816508
3	0.00367992223967074	0.002570986153977	-6.11635205340419E-07	-4.47425440279382E-06	-2.1838224255935E-06	6.44254074891218E-06	0.995536544733832	-0.0748248300701217
3.1	0.00415573757530162	0.00254502869678804	-2.5891627905011E-06	8.98525064467234E-08	1.10182817278592E-05	-3.53073606983468E-06	0.995192205449638	-0.0768394786542173
3.2	0.00451857146550744	0.00236279452662817	-9.80012224099023E-06	2.5497701810695E-06	1.21651674693742E-05	4.26163898337535E-06	0.994998948476849	-0.0786156387148513
3.3	0.00477352967200681	0.00201778985268775	-3.46846367198957E-06	9.34024846114961E-07	-5.0109132822171E-06	-1.42685571870307E-07	0.994827099650844	-0.0818545804908171
3.4	0.0048148270891163	0.00165774274156674	5.34792445315759E-06	4.86389337241138E-07	1.34910006923533E-06	4.4673711201908E-07	0.994778949807665	-0.0838268409964274
3.5	0.00467860367058148	0.00138707606370902	2.76941172168933E-06	1.55794247909864E-06	1.31284347844416E-06	7.92303666066074E-07	0.994681345596102	-0.0865229763983929
3.6	0.00457810797806338	0.00129247484820593	-7.14894676947801E-06	-1.32004385336075E-07	1.86443060998159E-06	-3.49804500570383E-06	0.994570169444186	-0.0891201691870495
3.7	0.00449833085105141	0.00118341712159788	5.77753599508419E-06	-1.51364264637041E-06	-3.25433247236888E-07	-1.73275993663345E-06	0.994341524500985	-0.0919671906024828
3.8	0.00447813614565413	0.00111938805985984	-2.00238933407315E-06	8.77441448689896E-07	-5.19430987763959E-06	2.9983432384873E-07	0.993803659944197	-0.0940625375617266
3.9	0.00450154233176436	0.0010349862679145	-8.36665689024347E-06	1.78321969156518E-06	-4.11866918762328E-06	-1.49862743288143E-06	0.993446474159859	-0.0970572494160846
4	0.00451457901990039	0.000989465805453357	-5.8261061179937E-06	3.69031671013435E-07	-9.50147914200896E-06	-8.4498431306374E-06	0.993055976745958	-0.0978972118944123
4.1	0.00467371623563671	0.000909141103292614	-3.9868854291703E-06	4.06686978146966E-06	-1.87994207954893E-06	5.58237781665622E-06	0.993412780887251	-0.0996234063099259
4.2	0.00477679159191072	0.000658284114180142	4.62037198472904E-06	-4.38622709560071E-06	6.75491423915455E-06	7.54016318738558E-07	0.993068459332238	-0.1024430141583
4.3	0.00476344907193296	0.000375824979745362	-3.79660283397265E-06	1.12727128343194E-06	3.54951499144827E-06	-1.20652144500094E-06	0.992939332776008	-0.10452339617466
4.4	0.00455837134957142	6.40476104794552E-05	-3.14861446231743E-06	-4.93704050613265E-06	9.30450762709624E-07	-1.03640319784679E-06	0.992538884050863	-0.106681239045433
4.5	0.0041238842852231	-3.89770208488558E-05	-1.39267607106999E-06	2.03093557548261E-06	2.14721459097683E-06	-8.47765975316083E-06	0.992846116381676	-0.10862358929922
4.6	0.00375713084410656	3.55877661003172E-05	5.39571065361453E-06	9.60503685233417E-06	-1.42161851032514E-05	9.81584412524508E-06	0.993018045828436	-0.111672485512943
4.7	0.00349884488330221	0.000189387368948049	-7.5950360185731E-06	-9.57540836990102E-06	-1.14622027633284E-06	-1.35597638258086E-07	0.993052395170716	-0.113960907095134
4.8	0.0033539218811257	0.000413802570666915	-8.75231961014687E-06	-2.69526121965876E-06	-4.38681077448757E-06	4.54642203339063E-06	0.99266619403917	-0.116686202459173
4.9	0.00339021626952662	0.000583058676480394	5.77646756189565E-06	8.32929859234372E-06	-7.26666122872208E-06	3.28107140524643E-06	0.992238483925561	-0.118611076186659
5	0.00353673443834654	0.000698488217978302	4.28824428724039E-06	-8.5532957532225E-06	-4.29634376924611E-06	-6.19019346492445E-06	0.992147399383405	-0.120129768255741
5.1	0.00395991709191199	0.00071140082687269	1.52469495355362E-05	-1.0254810911592E-05	3.49782515108999E-06	-8.73655311767419E-06	0.992341443822126	-0.121559475622182
5.2	0.00437113792383703	0.000440688537506781	-4.23721420181036E-06	-4.72557287000445E-06	-3.1690063722652E-06	5.23243476541603E-07	0.992119177560282	-0.123896552165331
5.3	0.00465456692137778	2.38623269984045E-05	4.78247131829073E-06	3.38206974884708E-06	-9.30740823964952E-06	-4.75849216208742E-06	0.99193891912192	-0.12616064859656
5.4	0.00468261406944116	-0.000469015125891727	5.1869142011378E-06	1.20504268712483E-06	-4.82099302278173E-07	1.04709266177998E-05	0.992068380616664	-0.128936644425804
5.5	0.00441416360135531	-0.000694735451098847	-1.81370403757084E-06	-1.98470125974409E-06	8.89402120006256E-06	5.14739575287659E-07	0.992049590488346	-0.131741403029998
5.6	0.00429837645845797	-0.000811406024552843	4.2465124652434E-06	7.24112354580001E-06	-4.60196923072152E-07	-8.6245246049787E-06	0.992092819277632	-0.13455167166198
5.7	0.00411765424357972	-0.000944663133496403	2.05866021390854E-06	-7.21801969135339E-07	5.47751293411657E-06	2.46064061099275E-06	0.991845002606532	-0.137486725365789
5.8	0.00391141600084209	-0.00111031231957221	3.91635010778654E-06	1.96469922185596E-06	2.73273715819586E-06	7.8447431986589E-06	0.991431648497201	-0.14006801851316
5.9	0.00356207297101016	-0.00135772167000921	-3.78513728336848E-06	-3.06140492169299E-06	-4.70281543686876E-06	-1.78317361705301E-06	0.990467368343569	-0.14245643140768
6	0.00280950349458694	-0.00154287256884684	-2.0797036488551E-06	1.70342988548735E-06	1.0440837265927E-05	-2.65293065684393E-06	0.989676569160126	-0.14343088558187
6.1	0.0020363156131544	-0.001447468914476	-7.33228239075593E-06	-1.1133043104691E-06	-7.23156517451259E-07	-2.48641246836832E-06	0.989908640393899	-0.144568549495662
6.2	0.00122607821076704	-0.00117125379482423	-1.06479236035692E-06	1.98942258287923E-06	-3.47985953986099E-06	-5.37089598182397E-06	0.98948248003348	-0.145918385162904
6.3	0.00072167079618683	-0.000705047354545772	1.57563048997234E-06	2.8348255073636E-06	1.14117338266621E-06	5.97894025221778E-06	0.989134716524671	-0.147692455070821
6.4	0.000439230868894746	-0.000361538694014163	2.06571225173318E-06	5.04445646232299E-06	-3.3391192173262E-07	2.2713985756008E-07	0.988906538039117	-0.149638044553728
6.5	0.000339172960016581	4.77232520726073E-05	4.67766159936585E-06	-1.87637928679139E-06	-4.69578793795405E-06	-1.55609557264103E-06	0.989446373974519	-0.152335315579661
6.6	0.000504098934435391	0.000311227592078951	3.27149537545086E-07	-1.07066309695277E-06	9.31101046324483E-06	3.34988665207136E-06	0.98951981122013	-0.15581824301623
6.7	0.000637200421552721	0.000473957290446432	5.27048370358744E-07	5.62289690012189E-06	-1.79593951966067E-06	4.98181205838527E-06	0.989114520416978	-0.158731420187307
6.8	0.000662034146147919	0.000591425495039019	1.76831343759439E-07	-1.58950340976298E-06	-3.48147521857044E-06	-5.13126249686006E-06	0.988452759416839	-0.161393978069342
6.9	0.000477260489318382	0.000722366272879974	-6.65876822881789E-06	6.73065698727625E-06	2.29180111537235E-06	1.35716822823373E-06	0.987757733597151	-0.163687539088023
7	0.000225650795034472	0.00122946995357089	8.09444814589746E-06	3.16995116408935E-06	4.57668666954411E-06	5.87339019361738E-06	0.987083578895035	-0.165207036330013
7.1	0.000255149503513394	0.00176165189201315	1.39810886389063E-06	7.84997172326974E-07	-2.27601821758402E-06	-4.48358600271423E-06	0.986958832384281	-0.167066588404318
7.2	0.000366114936828084	0.00219968448757845	-1.37141091891651E-07	4.40466187704297E-06	-5.0189887728261E-06	-6.60609737619009E-07	0.986374147440842	-0.169210325752046
7.3	0.000478242662507972	0.00251234788635428	1.35540970791414E-06	-5.2724126551723E-06	-2.35150031664373E-06	-2.79464031670132E-06	0.985366574406993	-0.171371775604495
7.4	0.000431308231639025	0.00256961893265968	1.84065140882241E-06	4.42952550930951E-06	-7.29399006265611E-07	-1.07123570942822E-06	0.98420343699886	-0.174215415518689
7.5	1.10141317248844E-05	0.00268661872887257	-5.75236436142405E-06	-1.49093210924862E-06	-1.58567736546483E-06	-8.91561504425166E-06	0.982578167753362	-0.176649692298904
7.6	-0.000317427416317081	0.00295451603972008	5.63371840434132E-06	-3.39680171193606E-06	1.02646261429447E-06	3.19632986167869E-06	0.981918483005799	-0.179430776489089
7.7	-0.000802417782290157	0.00325104602613125	-6.52090996688269E-06	-2.86156233020993E-06	4.39259147102489E-06	5.67819609570391E-06	0.981149995086196	-0.182829346924376
7.8	-0.000989167399511659	0.00367757728545431	-1.09389789818927E-06	-5.36484025771997E-06	-2.11927221202084E-07	1.14605161046706E-06	0.980358680704312	-0.185896911201021
7.9	-0.000935379945273076	0.00410858570558902	-3.33883985194118E-06	7.22634876524604E-06	4.59476995726161E-07	-6.89083831823935E-06	0.979679711923341	-0.188599886380688
8	-0.000578203374676406	0.00466083367138615	-2.22024558455138E-07	7.39314337831855E-06	1.76699874103584E-06	-4.46506972041475E-06	0.979665331475223	-0.190715260753252
8.1	1.67552602552858E-05	0.00495478818561688	-7.5020933747366E-07	-6.47380708105013E-06	-1.7523094835157E-06	-1.0618291346713E-06	0.979761807162055	-0.19384125900721
8.2	0.000494083147427065	0.00507060608863853	-3.82820150911198E-06	1.66103555281981E-06	-1.09867372506377E-05	-2.59761437880381E-06	0.979332063472778	-0.19674402097376
8.3	0.000822820712862789	0.00514232911030532	-5.57152947201384E-06	-9.8580843812899E-06	-7.78813472969652E-06	3.03780170482479E-06	0.978428805518401	-0.199665576612115
8.4	0.000935686339535245	0.00532160085769018	6.76515408078437E-07	-6.11917896745782E-07	-1.41661930432996E-06	4.43608578317204E-07	0.977418045997795	-0.202320450175361
8.5	0.0010074362105307	0.0058895132874998	-1.7549338350558E-06	-2.53509708516159E-07	-3.91245289986823E-09	1.80561016393965E-06	0.976651970911659	-0.20510031035583
8.6	0.00149432672481008	0.00650701380937327	2.41869786518522E-06	-3.98123831751459E-06	-4.58225765246352E-06	-5.9146057598331E-06	0.975926624917143	-0.207864308166216
8.7	0.00217798370154993	0.00697143034864562	-1.50479830218816E-06	-2.09112923673778E-06	-3.54957374846952E-06	3.64848877527462E-06	0.975289919089954	-0.210468169988894
8.8	0.00304971938251307	0.00721766971051024	-5.5036949411207E-06	-2.10609334913563E-06	-7.23798259879149E-06	-1.24973685522069E-06	0.974703431851167	-0.212843037733367
8.9	0.00393783574987449	0.00703330172987313	8.56770608795628E-06	4.07158592903718E-06	-1.40817537189727E-06	3.20379409980376E-06	0.974477403023642	-0.215017913708019
9	0.00461034226830292	0.00673349494585657	-4.86421155410764E-07	4.16108342789673E-06	-7.8111081549658E-06	1.25418390356962E-06	0.973987742338662	-0.217510308239718
9.1	0.00531133978422267	0.00625037602725413	-2.53306508316561E-06	6.63670999655345E-06	4.09105524337402E-06	-3.09126950982115E-06	0.973257014874402	-0.219719326533615
9.2	0.00578095816644629	0.00571919830176034	-1.16524038718463E-06	3.42358908124868E-06	-2.2489751351024E-06	-2.04879738981093E-06	0.972469683033412	-0.22209925257632
9.3	0.00616810227066292	0.00522626807373715	2.31105206865578E-06	-4.04185039832521E-06	-7.96887794707509E-07	-1.77628730463639E-06	0.971837062740753	-0.224477289065556
9.4	0.00638242943122477	0.0046744501584707	-1.78635521032956E-06	3.89519277811669E-06	-2.07470280426205E-06	-3.56895949761928E-06	0.970922753489471	-0.227335663553462
9.5	0.00647149469667809	0.00459770158311525	3.50421228388997E-06	6.27454171640273E-06	3.60620267227342E-07	-2.14681435622805E-06	0.969780909328596	-0.22972019045724
9.6	0.00675997839185029	0.00446860912432542	4.62668911829396E-06	7.05479210819458E-06	-8.18885136134104E-06	1.27950714507087E-05	0.969089781616554	-0.232491241393935
9.7	0.00709800725681279	0.00433845730849809	-2.87936113997682E-06	-1.52559040131623E-06	-1.39123402784959E-06	-3.96093127428373E-06	0.968285319004302	-0.234914236578496
9.8	0.00748212390529086	0.00408022387355092	1.23885868940641E-07	-3.58933854726397E-06	3.04345730162598E-06	2.39054714028474E-06	0.967750884198802	-0.236842789949971
9.9	0.00771762719631487	0.00373746026206258	5.78597890032275E-06	-6.20470927410147E-07	-2.55379403817267E-06	6.71586880142652E-06	0.966961333584684	-0.238339089415299
10	0.00779825329338513	0.00356833392046589	-1.13943367956175E-06	-5.76863537808438E-07	1.36047117173961E-06	-1.18486000533244E-06	0.967024069303069	-0.239348539116663
10.1	0.00808724315107741	0.00336050771156804	7.06970747643916E-07	-8.40336350577965E-06	6.1463184683463E-06	3.59694388826587E-06	0.96673330400061	-0.241569911833824
10.2	0.00838599145111746	0.00310141596501066	7.48519201679583E-06	8.30013864287644E-06	5.21692352744231E-06	3.52124990034442E-06	0.965865941646167	-0.24306987902338
10.3	0.00871791762954275	0.00274350928023613	1.75080443561743E-06	-6.94321811003977E-06	1.42407509683247E-06	2.86160867442412E-06	0.964927739665994	-0.244564118837235
10.4	0.00897011078216987	0.00223783653095321	-4.01854055174837E-06	-3.6324457055444E-06	1.95047532183355E-06	-5.58510860939671E-06	0.964141083125314	-0.246021459933725
10.5	0.00911073590816926	0.00195406595874906	3.74823701686456E-07	-7.05601637839529E-06	-5.72202766600552E-06	4.06566543582451E-06	0.964123347961062	-0.24820057961824
10.6	0.00945921739064255	0.0016223460389967	5.48263291016519E-06	6.72603208566633E-06	2.43079020193614E-06	1.19214856836683E-06	0.963622338800501	-0.250985088585719
10.7	0.00979314215052564	0.00128216010426819	-7.06816195124356E-06	-1.68658318090509E-06	-7.71922334168655E-07	1.55768174853488E-06	0.96299323407189	-0.253948393961618
10.8	0.010268475007219	0.000822909030542612	1.48636215492256E-06	4.43723978171681E-06	9.40207323558219E-06	-4.46704914124701E-06	0.96232339623402	-0.256210479727256
10.9	0.0104968195715904	0.000242999170148801	3.28413489938876E-07	7.4120730218792E-06	-5.1571266877491E-06	2.10006180976393E-07	0.96179276008502	-0.258300371167559
11	0.0108082784499512	-6.76603393073998E-05	-2.22500245187374E-06	-3.81896731260008E-06	1.20236191856595E-05	-3.55915759065917E-06	0.961123406851684	-0.260247929002515
11.1	0.0114305130879007	-0.000593762162218359	-6.11044636415258E-06	-4.92518114568608E-06	9.50694649146279E-07	5.5698659215513E-06	0.959889009158325	-0.262057636919366
11.2	0.012100575517968	-0.00143804107988278	3.31109105342876E-06	4.2994142568879E-06	1.06162998202901E-06	-7.86840161505877E-06	0.958631743151604	-0.263532621843067
11.3	0.0127728289103056	-0.00271958672748202	7.12196727199252E-07	-2.65511739996297E-06	-4.83629964633579E-06	9.10591599128752E-06	0.957831437456764	-0.26499901868302
11.4	0.012941035312334	-0.00430954305877706	1.47582682843279E-06	-2.2003940581987E-06	-3.00682310420825E-06	-7.4310025273246E-06	0.95661079136402	-0.267082292342281
11.5	0.0127265205422098	-0.00572778151517847	9.47092250402893E-07	-1.00816467003731E-06	-9.00391282963645E-07	-8.70659725653855E-07	0.95559193171208	-0.268887295562008
11.6	0.012488326387229	-0.00735327954697669	1.12185780479857E-05	-3.26305272106533E-06	-5.41179752153635E-06	-6.83036221119762E-06	0.954902438893712	-0.272265072633538
11.7	0.0119133943313293	-0.00905345892846666	5.32495206709623E-06	-2.89106241498167E-06	-4.4080681632759E-06	1.64754259849458E-06	0.953613608694319	-0.275643502170885
11.8	0.0110193753187775	-0.0106792066476441	-4.48918190792724E-07	-2.54554345128408E-06	1.05406718650147E-06	1.32503164202173E-05	0.952456373298565	-0.278830373692296
11.9	0.00994622518172418	-0.0121847482590876	3.31854207543309E-06	1.98894532388703E-06	-2.36658030286619E-08	1.27167017245612E-05	0.952190061515395	-0.28080315953622
12	0.00843721702011645	-0.0131071184648742	1.99975323507202E-06	4.85882926962843E-07	-3.69154983260947E-06	-9.73590996201102E-07	0.952750577191319	-0.282833973555538
