# GHZ S RI R 50
0.2	0.000425548360633555	0.00338469763082094	6.30993735205868E-06	-1.00458177926914E-06	1.0669157751777E-05	1.05081350424998E-05	1.00010588638839	-0.00669950394014296
0.3	0.00114202487807418	0.00317735876218268	5.81924096463383E-06	5.04277734822023E-06	8.10112873903854E-06	2.95833956553543E-06	1.00004772700173	-0.00965708764770289
0.4	0.00163584583618181	0.00318098502235139	-2.71284072456574E-06	7.87707977767812E-06	-4.80789462512588E-07	-4.43531493374281E-06	1.00027527027351	-0.0123160785950271
0.5	0.00232048720719438	0.00318786948004898	2.31094064330325E-06	1.47966830517152E-06	7.51839147499091E-06	-1.05680189902267E-06	1.00029183017635	-0.0158982941239929
0.6	0.00259243348379917	0.00280254570101414	3.23260938372846E-07	3.54172001154907E-06	2.71613176400037E-07	-7.66540198419882E-06	0.999857425303974	-0.0189616399704745
0.7	0.00258259520814452	0.00282233414610648	4.1696245813098E-06	5.04293385410625E-07	-3.89815392136846E-06	-3.30364769300354E-09	0.999431207950984	-0.021678527396264
0.8	0.00271357119359837	0.00292989303884151	-2.8904604818335E-06	2.96719659278119E-06	-6.82803076914741E-06	1.32158130330129E-06	0.999252956322182	-0.0237327449393761
0.9	0.00267395244606241	0.00310812497831927	6.04382816668994E-06	8.99916993692562E-07	-7.35021807237228E-06	-1.83428448213245E-06	0.999137668668481	-0.0259416066192676
1	0.00295107606023703	0.00373156414241755	2.36446971159044E-06	2.94796263793877E-06	-9.05705896427698E-06	-2.58126011343404E-07	0.999354839541786	-0.0273078405009074
1.1	0.00353608405283646	0.00350886843292143	6.44776478166651E-07	3.5347424964554E-08	-5.30721956129485E-06	1.40722536322418E-06	0.999281606637686	-0.0298497510527895
1.2	0.00349832815646692	0.00309748780535261	-5.30243024102007E-06	-3.29093029032769E-06	-1.12054851178395E-05	-1.26672640746697E-05	0.998627352132072	-0.0309832239428599
1.3	0.00333118812789533	0.0023782823229031	3.05663569919401E-06	3.10480034113104E-06	6.96325150317204E-06	-4.09614878989611E-06	0.998874123660434	-0.0322148866753742
1.4	0.00291240540662822	0.00143591146198155	-2.8033598687204E-06	-1.11100942637115E-06	5.7186764834258E-06	5.49474288462446E-08	0.998378524099783	-0.034785943347318
1.5	0.00294539949306174	0.000953168279351488	1.23796765790379E-06	-2.53698549671748E-06	8.05749375210037E-07	2.51274870741382E-06	0.998696278574657	-0.0383075270909982
1.6	0.002592497613969	0.000564609206987542	-9.41765256675054E-07	-6.41877647403524E-06	3.18237792523575E-06	-4.25051227981463E-06	0.997709808853552	-0.0419280218927901
1.7	0.00249581032413848	0.000918637466222072	3.40848590511382E-06	6.29524101631568E-07	2.24102704032724E-06	3.85225372138519E-06	0.997655876483556	-0.0441220617410074
1.8	0.00259951577928888	0.00134189632309499	-2.37538735955003E-06	2.90203942334942E-06	-1.01947403319405E-06	-3.99848007974299E-06	0.997331701004948	-0.0465774110353822
1.9	0.00276542990948284	0.00175938078983363	-3.73460376594803E-06	-1.75767645846596E-06	5.63335198865614E-06	3.02382513380466E-06	0.996973871648502	-0.0481651461912377
2	0.00358119638438681	0.00213926163043215	-6.18410258545643E-06	-5.75674130652686E-06	-2.08066694557635E-06	9.1648668913648E-06	0.997839935893394	-0.0500404214015147
2.1	0.00384955129713982	0.00143848636425106	1.17883597277121E-06	4.61161305068269E-06	4.49380856512531E-06	3.9923074934766E-06	0.997937252455355	-0.0538252435790885
2.2	0.00358048284130849	0.00126266200376752	6.58221756154307E-07	9.06949937623802E-07	-3.6478444433284E-06	-1.09457982166032E-05	0.997233605801712	-0.0564797620214579
2.3	0.00326987990508788	0.00118125282392199	-2.28249613580733E-06	3.56651660997813E-06	-5.39407496623065E-07	-2.79800433548611E-06	0.996481721964006	-0.0582346792772851
2.4	0.00273702833881921	0.00138604037631216	-1.56015620555202E-06	-1.45483580687231E-06	1.28395772530052E-06	-1.00145203771039E-06	0.996079537018684	-0.0610880685256719
2.5	0.00273854785420197	0.0022064781789448	7.80022672672487E-06	4.04889205083072E-06	-2.3615778055074E-06	-7.22902659656347E-06	0.995675629348357	-0.0629406706882609
2.6	0.00318775028200843	0.00217486053829153	4.89813969635453E-07	2.11704651319657E-06	-1.46091991973304E-06	4.68881670671644E-06	0.995623936405452	-0.0655562789518625
2.7	0.00335535652369622	0.00215989274630185	-7.86398965996342E-06	5.25125552634912E-06	2.54474034632233E-06	9.72192567364169E-06	0.995636849109524	-0.0683672965002637
2.8	0.00353660984789812	0.00212643203613457	-7.74067346522395E-06	7.96967420049738E-06	6.04201297358662E-06	1.99249285686486E-05	0.995979634340061	-0.0706005111042883
2.9	0.0036979931835859	0.00222108555695075	-1.18974347393162E-06	8.62479509112242E-07	-8.13103236861679E-06	-2.95315669798887E-06	0.995687268093989	-0.0728829112587796
3	0.00451887342803238	0.00237644652463943	-6.18316096392861E-07	-4.47398022392769E-06	-2.17463222719154E-06	6.44666311631549E-06	0.99556558105795	-0.075483151599025
3.1	0.0049025448702376	0.0016016763163182	-2.5900558990358E-06	9.30473662542168E-08	1.10182398215109E-05	-3.5455512686104E-06	0.995143625271185	-0.0777320837780358
3.2	0.00486046977606728	0.0012617831165626	-9.80190492040373E-06	2.56649179746134E-06	1.21789197408322E-05	4.24523520882081E-06	0.994795160015949	-0.0797069976761906
3.3	0.00478179780060688	0.000905862072081639	-3.46833995477028E-06	9.41391826909367E-07	-5.01370278732509E-06	-1.32788542310278E-07	0.994348372086367	-0.0832269417119752
3.4	0.00447441319678651	0.000802104098602548	5.34938683676526E-06	4.72897116650386E-07	1.35028777582981E-06	4.43347620883626E-07	0.993656729335265	-0.0854731684630048
3.5	0.00476678042567891	0.000901090731759976	2.76988917604072E-06	1.5504145891862E-06	1.31318477760648E-06	7.8867965569243E-07	0.992832535748781	-0.0874706922493673
3.6	0.00457388078096221	0.000111905139468906	-7.14483960348373E-06	-1.21111395433619E-07	1.8580162690655E-06	-3.49875776121287E-06	0.993000693155948	-0.0898525341890395
3.7	0.00384570850039261	2.654454183016E-05	5.77208639436264E-06	-1.52278982083018E-06	-3.28240165234863E-07	-1.73134567046356E-06	0.992537357821745	-0.0926497850526666
3.8	0.00334020892628806	0.000389723157071036	-1.99944979889908E-06	8.80284397383865E-07	-5.19010499456165E-06	3.08611498866672E-07	0.991740073998274	-0.0943847397116261
3.9	0.00315940536616269	0.00117811764853379	-8.3561913737323E-06	1.79177501644352E-06	-4.11644779880882E-06	-1.49206786098501E-06	0.991339486927768	-0.0964207930427636
4	0.00424450512394673	0.00197741399919169	-5.82640514810065E-06	3.72302918217406E-07	-9.5069995382962E-06	-8.44529159518807E-06	0.992977568692947	-0.0966067063987921
4.1	0.00504756996469171	0.00114601026781997	-3.98144369475746E-06	4.07489964450544E-06	-1.87125841462721E-06	5.58740258969516E-06	0.993518613522416	-0.100284617944566
4.2	0.00505271166189896	0.000580035817933139	4.61205051037989E-06	-4.39403311064814E-06	6.75556180308518E-06	7.41860776422418E-07	0.992449815115835	-0.103291513492146
4.3	0.00489489454021913	0.000237030945623437	-3.79394056446204E-06	1.1337801674876E-06	3.54675634079723E-06	-1.21257976738148E-06	0.992126532485254	-0.105316169679363
4.4	0.00453714526571664	0.000232726480048236	-3.15851033205531E-06	-4.93021072598148E-06	9.2825453579223E-07	-1.03823512232977E-06	0.991700398570717	-0.107541122617371
4.5	0.00499529301217151	0.000650809665293235	-1.38525322516868E-06	2.03383763936898E-06	2.1189161568609E-06	-8.47821644293806E-06	0.991879950930294	-0.11021358904676
4.6	0.00518249332612664	-0.000278693312890816	5.40863984910363E-06	9.56910503145505E-06	-1.41582081522373E-05	9.83082892292283E-06	0.990719896853659	-0.113315392549978
4.7	0.00472923896129811	-0.000683621024893127	-7.59265533863306E-06	-9.53662729124971E-06	-1.1434786858172E-06	-1.33158857921823E-07	0.990245910942113	-0.114952637253489
4.8	0.00429296591618779	-0.000845785091282853	-8.73259301058257E-06	-2.67661142589024E-06	-4.36918431099493E-06	4.54009453886026E-06	0.989707241795453	-0.117256004108577
4.9	0.00386056266407958	-0.00070073545406287	5.77082861370932E-06	8.30111202714182E-06	-7.24405339733536E-06	3.2807274321841E-06	0.989173673620833	-0.118936659505486
5	0.00439922009946334	-0.000437210237052823	4.26554255710633E-06	-8.53041645110231E-06	-4.28908667439067E-06	-6.16587049586458E-06	0.988887669503418	-0.120393007222446
5.1	0.00435441355708093	-0.00133557024417075	1.51980463722684E-05	-1.02244705652584E-05	3.4858707712508E-06	-8.70961130844685E-06	0.988645968060164	-0.121565143742254
5.2	0.00387307181768076	-0.00138935400219341	-4.22561534995107E-06	-4.71333099265566E-06	-3.16062769958882E-06	5.21622490625033E-07	0.988332076168763	-0.123401455254812
5.3	0.00377967627727324	-0.00117629985421107	4.771765723662E-06	3.37376467785199E-06	-9.28638690394843E-06	-4.74654320368991E-06	0.988380962065129	-0.125446722321401
5.4	0.0038719664270647	-0.000874903884598675	5.17534906801333E-06	1.19819809332385E-06	-4.72975706226782E-07	1.04460964000552E-05	0.988421152539964	-0.128443752249743
5.5	0.00498491749297427	-0.000828237575498067	-1.80761789793578E-06	-1.97664706227555E-06	8.86095139722556E-06	5.09703857999158E-07	0.988060668264008	-0.130629177000206
5.6	0.00467434759735159	-0.00246232090617957	4.22756405818239E-06	7.22235650806273E-06	-4.51744813222089E-07	-8.598419709718E-06	0.988442456658899	-0.133442169879196
5.7	0.00338480481631961	-0.00272206724218382	2.05397915278256E-06	-7.18115925232658E-07	5.46118272673222E-06	2.45912737826506E-06	0.987836158807286	-0.13616228186008
5.8	0.00225578961924255	-0.00237618177159701	3.90491170084148E-06	1.96467893055809E-06	2.71720423544303E-06	7.82960938934408E-06	0.987232013299372	-0.137972761960517
5.9	0.00108462750684589	-0.00125522475406897	-3.77222703889154E-06	-3.06415022978999E-06	-4.69103058212817E-06	-1.79003405076557E-06	0.986692117594369	-0.138639014796001
6	0.00157712521626801	0.000932512924332074	-2.08578438746804E-06	1.7012297814187E-06	1.04591751376142E-05	-2.63462207359236E-06	0.989786117714361	-0.138786809670238
6.1	0.0028533659267065	0.000752762116159822	-7.34455708040218E-06	-1.11052179474977E-06	-7.25839178758622E-07	-2.48989312116258E-06	0.991017809395204	-0.143138684692583
6.2	0.00317233762903068	0.000333752442489675	-1.06279306078758E-06	1.99256726607245E-06	-3.49040809745481E-06	-5.37024275785797E-06	0.990235644817006	-0.145615476553249
6.3	0.00316443311572487	-0.000379945996188238	1.58055975021322E-06	2.83302442997393E-06	1.15101772373505E-06	5.97862889920945E-06	0.989525845801353	-0.148219125243061
6.4	0.00253600801657437	-0.000707608531827827	2.0734760963478E-06	5.04278028360637E-06	-3.33671278912147E-07	2.27676845460531E-07	0.988975801239116	-0.150339988413622
6.5	0.00306671583330836	-0.000903240501718362	4.67135072666039E-06	-1.89007515765918E-06	-4.69973153319261E-06	-1.5418291395416E-06	0.989310704132584	-0.154746338431595
6.6	0.00210723883905852	-0.00205966581001128	3.23835955589585E-07	-1.06859484617452E-06	9.29418039066825E-06	3.31974154686742E-06	0.986197772785369	-0.1577350367756
6.7	0.00123219581550022	-0.00171741909669667	5.30173213327687E-07	5.60468880635367E-06	-1.78602389215772E-06	4.96760741307022E-06	0.985187145349883	-0.158617417951919
6.8	0.000723629107499913	-0.00137108059787189	1.76436239351678E-07	-1.58445181839911E-06	-3.46991878379551E-06	-5.11537511512883E-06	0.984762813627447	-0.160140880908728
6.9	5.09362303746223E-05	-0.000546703063780601	-6.64480946034202E-06	6.7054652955466E-06	2.28397255286098E-06	1.35508054190443E-06	0.984411709359411	-0.161503982215518
7	0.00126052037224848	0.000555371872155155	8.07087063354362E-06	3.17116095884656E-06	4.55879055694558E-06	5.86397469409438E-06	0.985280692111322	-0.162855850200437
7.1	0.00112537959384983	-0.000830816552010999	1.3942490410991E-06	7.84722256020897E-07	-2.26643595172223E-06	-4.47614058106612E-06	0.984736143726945	-0.166160689714346
7.2	-9.62798810691661E-05	-0.000777277965758722	-1.39932722148472E-07	4.39506976613299E-06	-5.00770533114021E-06	-6.62703415230821E-07	0.98316952149842	-0.168343061043113
7.3	-0.00126117654408839	-0.000262880004264822	1.35247743914198E-06	-5.25908611196311E-06	-2.34536431532461E-06	-2.78784621069478E-06	0.981203968946019	-0.170473599689623
7.4	-0.00286589806170195	0.000889657599463539	1.83661431377991E-06	4.41032594000412E-06	-7.27280201761144E-07	-1.06637681617248E-06	0.977898133645591	-0.172780613587682
7.5	-0.00278009479155101	0.00367233453303131	-5.71303950609129E-06	-1.48940889909092E-06	-1.56282691925133E-06	-8.86016790850041E-06	0.975633504790672	-0.170872462627742
7.6	-0.00188580927953241	0.00392072373889241	5.61461854976364E-06	-3.36237276853584E-06	1.01160276123563E-06	3.18280675294199E-06	0.977780622778696	-0.173106860971643
7.7	-0.00199533057057994	0.00463907632490678	-6.47955160811593E-06	-2.86860294583553E-06	4.35258298405129E-06	5.66448212875342E-06	0.977682942121433	-0.176326151156811
7.8	-0.00148798522465511	0.00527849086440869	-1.06713918505931E-06	-5.34381165127125E-06	-2.15531451611432E-07	1.1397674665926E-06	0.977689688396674	-0.178918276549257
7.9	-0.000659717103963428	0.00607831367973404	-3.36530765110643E-06	7.17558495390773E-06	4.96687833568958E-07	-6.85794127155036E-06	0.978070560863608	-0.180181598301481
8	0.00202391396130038	0.00592190871823897	-2.79233801613875E-07	7.38516199394465E-06	1.80016799410533E-06	-4.44757219563946E-06	0.982915304815217	-0.181951054935696
8.1	0.00223582386424039	0.00387360098470551	-7.15216621520059E-07	-6.48790205499813E-06	-1.74906325593824E-06	-1.0732365138075E-06	0.983828583649052	-0.189274897891506
8.2	0.00179317726613894	0.00345483337887692	-3.84287678048482E-06	1.64663444637204E-06	-1.09952300820578E-05	-2.65258765097901E-06	0.982531602232224	-0.193132796322254
8.3	0.0014905466318169	0.00340136887735137	-5.54366776213247E-06	-9.90374940963731E-06	-7.81858363786074E-06	3.01265316389737E-06	0.981511708074355	-0.196336916842346
8.4	0.0010068312020185	0.00410560882053902	6.80683189795797E-07	-6.11527713188203E-07	-1.42251327730005E-06	4.40193274905069E-07	0.980803552994589	-0.199226500604582
8.5	0.00259141418461712	0.00524236487020888	-1.75853230099804E-06	-2.56919994437074E-07	-6.83453207078615E-09	1.80972704823371E-06	0.980457431398913	-0.203103017020959
8.6	0.00301891104478403	0.00367278618835628	2.43294447541196E-06	-3.97873576374248E-06	-4.57032099507469E-06	-5.93453704279197E-06	0.978771608318874	-0.206350202730102
8.7	0.00224988719664967	0.00350899562163503	-1.4996904520799E-06	-2.10066505071866E-06	-3.56988666910041E-06	3.64183867035982E-06	0.97784299816184	-0.208670621663893
8.8	0.00168692800974795	0.0039333290740525	-5.51045068877158E-06	-2.13469317592124E-06	-7.25313419297981E-06	-1.28308486698789E-06	0.977213800072936	-0.210790743775658
8.9	0.00115056178776651	0.00501852862910017	8.5871759031268E-06	4.12195960840929E-06	-1.42653941417545E-06	3.21152231548401E-06	0.977021842357455	-0.212619249986758
9	0.00269639814223857	0.00683282473782079	-5.00473396167641E-07	4.17758136009614E-06	-7.8483072074152E-06	1.2371263927056E-06	0.97687016739777	-0.214415054110995
9.1	0.00408280073241943	0.00621771704906729	-2.56637801157736E-06	6.66169438309928E-06	4.1210058877484E-06	-3.09380320098996E-06	0.977248253115543	-0.216391646933484
9.2	0.00503526484979396	0.00622307684594661	-1.17867203099401E-06	3.44106655076693E-06	-2.25794233736099E-06	-2.06502780745856E-06	0.97746951651172	-0.219419644715983
9.3	0.00634967317294442	0.00578661483960524	2.32555487176873E-06	-4.06324907881797E-06	-8.00548406899035E-07	-1.78645775684444E-06	0.977201222688335	-0.223059056751421
9.4	0.0072127126732998	0.00512893158028115	-1.78959187776306E-06	3.91360421249672E-06	-2.08740023955111E-06	-3.58172976633846E-06	0.975373526753117	-0.227067192343702
9.5	0.00907204749631874	0.0043107559207018	3.51028979415956E-06	6.28507274039866E-06	3.61179168396715E-07	-2.15045467245624E-06	0.973822021759066	-0.228340804794254
9.6	0.0086175116140527	0.00173845960824362	4.62977768057595E-06	7.07956459403491E-06	-8.22728895109911E-06	1.28183774047184E-05	0.974012628493038	-0.232076416977628
9.7	0.0074305082861887	0.00114247116421204	-2.8867838219028E-06	-1.53326506971635E-06	-1.39154930274325E-06	-3.97468328552195E-06	0.972639777135392	-0.235271392221321
9.8	0.0065137580469906	0.00111038083454486	1.27596962208477E-07	-3.60009209387749E-06	3.05045123902167E-06	2.40061444467213E-06	0.97121212444705	-0.237256707512437
9.9	0.00555463342326972	0.00205250413854215	5.8053114576538E-06	-6.11115513570444E-07	-2.57490668775528E-06	6.73191506365504E-06	0.969690695934416	-0.237059026215371
10	0.00701705256501443	0.00353161693721096	-1.14559141648075E-06	-5.82767445556546E-07	1.3714705041778E-06	-1.18978269103096E-06	0.973609679930429	-0.237246686877214
10.1	0.00768608713882337	0.0022592834994373	7.00093774074116E-07	-8.45488844794992E-06	6.18808467074967E-06	3.61045475989794E-06	0.972728667998819	-0.242933810576664
10.2	0.00748535339890091	0.00207094790214722	7.53487768384755E-06	8.3241043908144E-06	5.24733040871052E-06	3.52760936166541E-06	0.970388463603997	-0.244533535968483
10.3	0.00742061609948253	0.00207894858099303	1.7456494863964E-06	-6.97295110568598E-06	1.43446105596504E-06	2.87018674005813E-06	0.968792555701894	-0.245765085617388
10.4	0.00727298565479308	0.00281402843798329	-4.0408830284721E-06	-3.64001828717122E-06	1.94861653754856E-06	-5.61080527555262E-06	0.967754468593765	-0.246817222699695
10.5	0.00941652800910069	0.00390999959465917	3.50677059518213E-07	-7.07919026658832E-06	-5.72514879699219E-06	4.09876554440303E-06	0.967568207606067	-0.249684115715387
10.6	0.0109824035667758	0.00259359823347647	5.50417164269761E-06	6.71877292505372E-06	2.43594989869758E-06	1.187283677015E-06	0.965846692238709	-0.251391676315875
10.7	0.0122255309629106	0.00152117842784219	-7.07880562468056E-06	-1.67913916981511E-06	-7.7075688834661E-07	1.56056227584095E-06	0.966428360542686	-0.25343683083475
10.8	0.0128842267369614	-0.000302614402275024	1.4941642696212E-06	4.44260511717413E-06	9.41183865866381E-06	-4.48571126515316E-06	0.966560209646488	-0.256523427088295
10.9	0.0124450071298691	-0.00137796764967063	3.4162525151795E-07	7.42748313871307E-06	-5.16787984697448E-06	2.19158744179734E-07	0.965908381429957	-0.259422869297967
11	0.0139444214732917	-0.00187699443955195	-2.23856104710543E-06	-3.81927048405678E-06	1.20335887387567E-05	-3.59631950693655E-06	0.965280097809495	-0.261435586651223
11.1	0.0138588564435012	-0.00479906312745092	-6.13127077586246E-06	-4.91674847732783E-06	9.6595167785746E-07	5.57523846869187E-06	0.964171942968577	-0.264110339168591
11.2	0.0128200783934811	-0.00627083121028286	3.32901906791073E-06	4.29561929978533E-06	1.0392290857045E-06	-7.8831348031633E-06	0.962625731709387	-0.266475164383211
11.3	0.0119016978145742	-0.00738516590097366	7.02513581290082E-07	-2.66084987594479E-06	-4.80572740086789E-06	9.13501323086444E-06	0.960951505424661	-0.269053240844641
11.4	0.0106220171733758	-0.0078265319959932	1.46405105396568E-06	-2.20752117036362E-06	-3.04466011071035E-06	-7.41360248404106E-06	0.957523242079918	-0.271972047372658
11.5	0.0114553470737376	-0.00801760934214554	9.41594370628066E-07	-1.00899287023151E-06	-9.01212996841148E-07	-8.65692877011292E-07	0.955787129260871	-0.271148585640513
11.6	0.0105657580864837	-0.0108131086490194	1.12038595582678E-05	-3.29006959917294E-06	-5.42631545378188E-06	-6.81259082239949E-06	0.956392668264759	-0.275432672291654
11.7	0.00846530546192852	-0.0118329904909731	5.31339249880158E-06	-2.90737434819472E-06	-4.40094210487744E-06	1.66133823657707E-06	0.954051975405921	-0.279545277341058
11.8	0.00656637402858622	-0.0118308252032939	-4.56826796029425E-07	-2.54157905404914E-06	1.0964896374391E-06	1.32338871153282E-05	0.951226921441633	-0.28217239663588
11.9	0.00534017082476465	-0.0103861567495582	3.31605829173618E-06	1.98111748936444E-06	-5.75611952498312E-09	1.26965056076126E-05	0.949393092626923	-0.280560969526255
12	0.00774023047258166	-0.00937841039144638	2.00408235105336E-06	4.86561047371407E-07	-3.69955491899497E-06	-9.75005455103586E-07	0.9551495600613	-0.280074828162885
