# GHZ S RI R 50
0.2	0.000221002408869206	0.00355569369742197	6.31032033726557E-06	-1.00499337087587E-06	1.06704668344299E-05	1.05082853142123E-05	1.00005159348107	-0.00651292771714752
0.3	0.000906585229118649	0.00331746286474279	5.81916337877881E-06	5.04384230682346E-06	8.10147207179495E-06	2.9594851600961E-06	0.999978938025309	-0.00934196643861604
0.4	0.00147818918938181	0.00332594619496343	-2.7141391910839E-06	7.87685538880262E-06	-4.80109120826869E-07	-4.4355021493432E-06	1.00020770656256	-0.0119715186085027
0.5	0.00211170679211243	0.00319587158604071	2.30999276200725E-06	1.48044280409325E-06	7.51779661363847E-06	-1.05346779935911E-06	0.999903570039398	-0.0154231926066733
0.6	0.00236961511688327	0.00301909383345556	3.21366606765561E-07	3.54235861560512E-06	2.75839764784518E-07	-7.66625307921877E-06	0.999653002079366	-0.0180106331971967
0.7	0.00254971613549521	0.00305056611462593	4.17002352158096E-06	5.06198031282668E-07	-3.89873231532501E-06	-5.01465083621561E-09	0.999481155858717	-0.0206955650351657
0.8	0.00279614147188876	0.00311226912366774	-2.89195761064695E-06	2.96636073541081E-06	-6.8292940574433E-06	1.3189944809173E-06	0.999471168827375	-0.0227541994696464
0.9	0.00292671022180268	0.00326804561796447	6.04395493493988E-06	9.02039627650224E-07	-7.35012029847487E-06	-1.83691896155038E-06	0.999642526981339	-0.0250394473797703
1	0.0033466801674586	0.0035384516916615	2.36316877863025E-06	2.94860322996098E-06	-9.05620911594851E-06	-2.61497336510693E-07	0.999952515404782	-0.0269209296977759
1.1	0.003629125202581	0.00339144606566418	6.44812699887851E-07	3.57161499318535E-08	-5.30848070747935E-06	1.40433854248993E-06	0.99960396503686	-0.0293497181853362
1.2	0.0036868435549976	0.00315451065168115	-5.30173199987563E-06	-3.29516464586343E-06	-1.12003791583524E-05	-1.26777133510788E-05	0.999075373777044	-0.0302735336460222
1.3	0.00348911062072026	0.00259577624101128	3.0548538564426E-06	3.10909621896177E-06	6.97017340037591E-06	-4.09100559833021E-06	0.999303605877395	-0.0309544222649715
1.4	0.00314010683114659	0.001906340438988	-2.8036443631847E-06	-1.11589202446094E-06	5.7225087828396E-06	6.33944038871693E-08	0.999082729045227	-0.032665920364298
1.5	0.00314611041979426	0.00133726444617734	1.24303903788547E-06	-2.53752545945602E-06	8.02676542826512E-07	2.51639363130812E-06	0.999561730091153	-0.0361067983531825
1.6	0.0029956382428732	0.00102790516941535	-9.3444628736704E-07	-6.42573989984481E-06	3.19064318246422E-06	-4.25028209082571E-06	0.998726144945497	-0.0396444109635844
1.7	0.00306530026760073	0.00103254411412402	3.41037246371641E-06	6.33701961162424E-07	2.23853187036313E-06	3.85759361978761E-06	0.998853129804631	-0.0422691218732741
1.8	0.00316649152461181	0.00116717845952486	-2.37995038009377E-06	2.9018731784172E-06	-1.01634775231672E-06	-4.00241292842066E-06	0.998628199732898	-0.0451566038479477
1.9	0.00334680179505092	0.00126023742458593	-3.7370008962614E-06	-1.76193884453599E-06	5.63671193782618E-06	3.0306141593375E-06	0.998565958202776	-0.0474660702388194
2	0.003712808245649	0.00118764051085542	-6.18851905872522E-06	-5.7595109966043E-06	-2.0808625960041E-06	9.17066237977032E-06	0.998473050128239	-0.0507165084071788
2.1	0.00364571871762128	0.000857012565431406	1.17739827136311E-06	4.61265956795001E-06	4.49304397022892E-06	3.99441899796937E-06	0.997629382776862	-0.053538971403504
2.2	0.00343757623663082	0.000814824019020133	6.58123103242471E-07	9.07637445659992E-07	-3.64474286720729E-06	-1.09522414275615E-05	0.997313970761343	-0.055845273405024
2.3	0.00319662685484321	0.000821431361390815	-2.28477351342649E-06	3.56811703047673E-06	-5.39038141763652E-07	-2.79984071246517E-06	0.99689262743449	-0.0576242369640112
2.4	0.00290744096020964	0.00102207485184548	-1.56098609508292E-06	-1.4557428723058E-06	1.28474110545849E-06	-1.00196874906334E-06	0.996845023561149	-0.0607270010641981
2.5	0.00288811056519235	0.00130593925589369	7.80378621574368E-06	4.05266505253477E-06	-2.36148818298904E-06	-7.23351425443132E-06	0.99641073419681	-0.0631980600033149
2.6	0.00283903797742575	0.00137582847473486	4.90572113997714E-07	2.11903463014104E-06	-1.46171024442505E-06	4.69356029255533E-06	0.996045628713321	-0.0661190436613837
2.7	0.0028144902700434	0.00159769466924999	-7.8669405607396E-06	5.26062181885572E-06	2.5531239743736E-06	9.728141122572E-06	0.995548454750298	-0.069138260098783
2.8	0.00299908465862248	0.00191770595706279	-7.73762373582589E-06	7.98040988298183E-06	6.06238335730079E-06	1.99296716369905E-05	0.995516358881787	-0.071132822100903
2.9	0.00346711100635074	0.00215452428038136	-1.18934750487711E-06	8.63693657848926E-07	-8.13564417724208E-06	-2.94721924079396E-06	0.995306428074482	-0.0731851242683088
3	0.00422317416329296	0.00210486892001614	-6.21422480654748E-07	-4.47597720708613E-06	-2.17178750692418E-06	6.45144365985029E-06	0.995296455367101	-0.075858841542113
3.1	0.00468680079798206	0.00168935358620058	-2.59156716171688E-06	9.56441482704429E-08	1.10215809222653E-05	-3.55854687458556E-06	0.994884169631017	-0.0779544004782052
3.2	0.00495897308477882	0.00133098124793271	-9.80413730220479E-06	2.57687367922813E-06	1.21886474104919E-05	4.23584957044264E-06	0.994744577901868	-0.079738335045729
3.3	0.00508868582916493	0.000897985660160252	-3.46925080754687E-06	9.44338081703774E-07	-5.0161020550749E-06	-1.29215638789275E-07	0.994606980886592	-0.083042484869231
3.4	0.0050725605989607	0.000612716260522601	5.35299622930016E-06	4.7154346060351E-07	1.35129937729032E-06	4.43215644444697E-07	0.994537332482603	-0.0850988675712966
3.5	0.00519387278596467	0.000233862026192924	2.77493087445297E-06	1.5514532547696E-06	1.31560130725832E-06	7.8925499350364E-07	0.994346989057048	-0.0879177246083773
3.6	0.00492751357356362	-0.000216139123524628	-7.15316727830578E-06	-1.12672614217231E-07	1.85594376476605E-06	-3.50499511687967E-06	0.993926330133659	-0.0904465729209677
3.7	0.00456097964107811	-0.000366104763588021	5.77537463976041E-06	-1.53028097497626E-06	-3.30377553507989E-07	-1.73246987139055E-06	0.993721245275091	-0.0930329821517447
3.8	0.00432844783334956	-0.000291476965017454	-2.00032681530868E-06	8.8310786266445E-07	-5.19439960680393E-06	3.14185161411298E-07	0.993472471426753	-0.0950483085796075
3.9	0.00433967583988768	-8.06737289003274E-05	-8.36345308921419E-06	1.80533391860189E-06	-4.12328593635569E-06	-1.4881513474492E-06	0.993709791279845	-0.0982722786152143
4	0.00473431602132247	-0.000116680790720486	-5.82758661557031E-06	3.86106088527866E-07	-9.53017000049004E-06	-8.42596192913933E-06	0.993669620884886	-0.100584735961478
4.1	0.00482807489716675	-0.00049413455011918	-3.97388907325297E-06	4.07977707155637E-06	-1.86202764676906E-06	5.58854053554031E-06	0.992598012064715	-0.102989691297146
4.2	0.00474949183226024	-0.000770503169809831	4.60515582972071E-06	-4.39982342893043E-06	6.75554578021968E-06	7.3225503791489E-07	0.991521193104732	-0.10547774691369
4.3	0.00459431328265483	-0.00093172015836926	-3.79116763072923E-06	1.13895195763393E-06	3.5439424078112E-06	-1.21736926191664E-06	0.991065009859739	-0.107306421268619
4.4	0.00441510027682503	-0.000916873939263277	-3.16290191976081E-06	-4.92226996590349E-06	9.2615483598066E-07	-1.03873491004696E-06	0.990419964524106	-0.109417136797485
4.5	0.00450719452121331	-0.000923521827864014	-1.38336671155443E-06	2.03215258451259E-06	2.11469864386126E-06	-8.47028502373963E-06	0.989964917837954	-0.111507067151743
4.6	0.00431637070765485	-0.001201536536362	5.41006212724531E-06	9.56925838329199E-06	-1.41582416452698E-05	9.83307190558382E-06	0.989278559187027	-0.113801985852232
4.7	0.00405898927584197	-0.00127120067886657	-7.59974900077497E-06	-9.53472747214636E-06	-1.14382727591139E-06	-1.32559305816864E-07	0.989076692634396	-0.115359274723792
4.8	0.00383426201446232	-0.00119527615975084	-8.73565322270808E-06	-2.66982700921266E-06	-4.36596276578635E-06	4.5440925718641E-06	0.988657286621092	-0.117497864557958
4.9	0.00381788806086791	-0.00099495899979928	5.77619583266908E-06	8.29501872956193E-06	-7.24010498486198E-06	3.28574791420451E-06	0.988408592792694	-0.119018511659939
5	0.00420913695390387	-0.00107934467088032	4.26346545938672E-06	-8.53428473231632E-06	-4.29254434123254E-06	-6.16589319626469E-06	0.98846683064358	-0.120612156121336
5.1	0.00435010985513677	-0.00144329390643954	1.51935963045399E-05	-1.02466322893685E-05	3.47759795664687E-06	-8.7177096977461E-06	0.988444301216247	-0.121891731633054
5.2	0.00440119568124172	-0.00172128753464347	-4.23202997082467E-06	-4.70779034437614E-06	-3.16000750945578E-06	5.25866789727734E-07	0.988357324158854	-0.12401567458435
5.3	0.00442999200156735	-0.00194644155861087	4.77366224631729E-06	3.36688440638708E-06	-9.28798811011033E-06	-4.73390783305681E-06	0.988267428632096	-0.126361800050818
5.4	0.00448426095863156	-0.00204942606169763	5.17280458436996E-06	1.19536479134719E-06	-4.68398775220383E-07	1.04401598132349E-05	0.988207270945999	-0.129219942176367
5.5	0.00472719148351836	-0.00237191816105263	-1.80946968737877E-06	-1.9770209895696E-06	8.8662103549729E-06	5.06308291443669E-07	0.98786542173476	-0.132054810648867
5.6	0.00445885646433154	-0.00288797068953618	4.23736199039652E-06	7.21538946591932E-06	-4.63991525959541E-07	-8.59668094877341E-06	0.987322750451016	-0.134416432481313
5.7	0.00397059624846094	-0.00307954801938768	2.05160199992231E-06	-7.20102494235211E-07	5.46020227184382E-06	2.45065659272582E-06	0.98708452335666	-0.136604692376176
5.8	0.00344240178921305	-0.0030744952962178	3.9036132959768E-06	1.95856508053044E-06	2.72351230437051E-06	7.81957794291802E-06	0.987169464598909	-0.138624201789688
5.9	0.00294427523707068	-0.00273236787734946	-3.77384413387757E-06	-3.05474289362923E-06	-4.68958199108347E-06	-1.78027940280187E-06	0.987414479566836	-0.140905922774228
6	0.00288450144411486	-0.00244933878710404	-2.07503181390925E-06	1.70061188028052E-06	1.04190951241838E-05	-2.65063216746673E-06	0.987470736105431	-0.143859255655191
6.1	0.00254031090612519	-0.00257946437694829	-7.31559837636319E-06	-1.10651152951624E-06	-7.22860566983413E-07	-2.48012982653437E-06	0.986181899510068	-0.145798291042596
6.2	0.00196754092861265	-0.00247613842984411	-1.06132195506187E-06	1.98530957992528E-06	-3.47440474776584E-06	-5.35664118519634E-06	0.985110961127195	-0.146830291522727
6.3	0.00159212139094085	-0.0021870111338343	1.57354393721872E-06	2.82773348988627E-06	1.14162504004554E-06	5.96507344280957E-06	0.984569181734756	-0.148158642922876
6.4	0.00152376752569874	-0.00192090028125745	2.0647638520016E-06	5.03174975099896E-06	-3.33005511901618E-07	2.26876102524726E-07	0.984530620259873	-0.149888017039213
6.5	0.00180281765554015	-0.00219119484810726	4.66154700838681E-06	-1.87465081070069E-06	-4.68261061859035E-06	-1.54718408250879E-06	0.984252369140541	-0.152709727724216
6.6	0.0014394317564474	-0.00260765617200711	3.25892031897832E-07	-1.06692995899453E-06	9.27859564462701E-06	3.33717514223123E-06	0.983929391538226	-0.154740764079504
6.7	0.000945581652023856	-0.00260018844863048	5.2348959069258E-07	5.6028818436729E-06	-1.7909747023632E-06	4.96340768307929E-06	0.983972137207038	-0.15687205309158
6.8	0.000463701841399886	-0.00226655837166607	1.77167617874665E-07	-1.58354707391916E-06	-3.46548425101666E-06	-5.1145496740556E-06	0.983734352631442	-0.15903777378565
6.9	0.000226689354436485	-0.00160617144523016	-6.64129164745808E-06	6.69863387771109E-06	2.28186790321343E-06	1.35458740457683E-06	0.983774702921815	-0.161029039810525
7	0.000568387832185963	-0.0012488695432132	8.06325792375477E-06	3.17170145026723E-06	4.55294674263778E-06	5.86104501272812E-06	0.983547836740507	-0.163338100999296
7.1	0.000319673784820441	-0.00124988420413253	1.39305801240908E-06	7.84453356391618E-07	-2.26380002845502E-06	-4.47336332362872E-06	0.982648535217505	-0.165095998698235
7.2	-9.96028345212344E-05	-0.000945950355577419	-1.41354680470167E-07	4.39101683319134E-06	-5.00291003354861E-06	-6.638651431235E-07	0.981930787846435	-0.166503060877536
7.3	-0.000650503430607775	-0.000414213660125258	1.35612496101338E-06	-5.2527550318687E-06	-2.34048524734419E-06	-2.78737151216846E-06	0.981034455905954	-0.167816873200213
7.4	-0.00121412681118013	0.000500249982991557	1.82678948251992E-06	4.41372456862601E-06	-7.2486673548116E-07	-1.06781367535196E-06	0.9804011475098	-0.169323365446776
7.5	-0.00109467098354545	0.00152401135110254	-5.72502716394299E-06	-1.49813862416355E-06	-1.55834176809155E-06	-8.88231652740278E-06	0.980859560663043	-0.171355500124728
7.6	-0.00104011544338659	0.00202450263966573	5.61858239793835E-06	-3.36893611598471E-06	1.01439771818208E-06	3.18554502435466E-06	0.980660753341106	-0.174905387748519
7.7	-0.00106668437210995	0.00253498377724287	-6.4850937762665E-06	-2.86841032670981E-06	4.35758213754394E-06	5.66698454501217E-06	0.980327719539481	-0.178345840017478
7.8	-0.000757670259494083	0.002957989711833	-1.07147521198439E-06	-5.34789783117063E-06	-2.15001536825288E-07	1.14091970367147E-06	0.980150334567791	-0.18173114351844
7.9	-2.09680735533479E-05	0.00326178979478599	-3.35725586026171E-06	7.19193887298185E-06	4.85084860289712E-07	-6.86868685800053E-06	0.980331791658307	-0.185120692095177
8	0.00097436931705463	0.00278751311916603	-2.47631286993689E-07	7.37950942803664E-06	1.77962496461698E-06	-4.45109457364978E-06	0.980256831995401	-0.189236656965367
8.1	0.00120323136509574	0.00223205553303994	-7.27137492649488E-07	-6.46680426142535E-06	-1.7461222520055E-06	-1.06620855090053E-06	0.978961695203043	-0.192181798657526
8.2	0.00118312634771928	0.00198959676134821	-3.83046489249704E-06	1.64616951199661E-06	-1.09675749350657E-05	-2.63350052376707E-06	0.97852941846497	-0.194471496070433
8.3	0.00104724316514942	0.00205463314654056	-5.53633351643923E-06	-9.87312712618531E-06	-7.79543694784538E-06	3.01050446519965E-06	0.977927936607608	-0.197064527405787
8.4	0.00104918720897472	0.00261946317571602	6.78150765525784E-07	-6.09811481272903E-07	-1.41760160191624E-06	4.39381600379785E-07	0.977281757429664	-0.199584411789178
8.5	0.00167042182510378	0.0029718716449607	-1.75249449328134E-06	-2.59002324639208E-07	-9.79970713630511E-09	1.80393858308529E-06	0.976569495044517	-0.202251572059301
8.6	0.00187505134226239	0.00299763219885596	2.43437165373566E-06	-3.96975455697661E-06	-4.55603019382004E-06	-5.93151902000293E-06	0.976225162784154	-0.204519631850562
8.7	0.00199091043642052	0.00326823476647241	-1.49618672127435E-06	-2.09833780673984E-06	-3.56656682631403E-06	3.63421982959058E-06	0.976150040497222	-0.20694976024059
8.8	0.00219820246350613	0.00373674751562703	-5.49945882138421E-06	-2.13209659390713E-06	-7.23906641605474E-06	-1.28255742028295E-06	0.976067298009624	-0.209274272167732
8.9	0.00273674769573014	0.00437264369931823	8.5619866824595E-06	4.11446516699729E-06	-1.42404997758906E-06	3.2021518325446E-06	0.976288899128872	-0.211422604944932
9	0.00399450550701121	0.00460407899772903	-5.06568983210323E-07	4.16729554289708E-06	-7.83274874405756E-06	1.22076489397703E-06	0.976350428811193	-0.213821804676338
9.1	0.00500087864525451	0.00410925656126903	-2.5685025640911E-06	6.64523900888204E-06	4.1160055887811E-06	-3.08292043810287E-06	0.976278321420216	-0.216178855063233
9.2	0.00571712070224467	0.00350031805781156	-1.18202967771632E-06	3.42983354601247E-06	-2.24815098747964E-06	-2.06384378378973E-06	0.975883830787137	-0.218860611572493
9.3	0.00620498506360285	0.0029106009468584	2.33322147364038E-06	-4.04611547585299E-06	-7.92870232513079E-07	-1.78482976003225E-06	0.975387089791784	-0.221318696641559
9.4	0.00669854813085821	0.00249608712505303	-1.80629535900702E-06	3.90076616931635E-06	-2.06801952691201E-06	-3.58775184030638E-06	0.974800365896997	-0.223821341520781
9.5	0.00735402412539719	0.00186933957093576	3.4924587985321E-06	6.30909846448352E-06	3.69945242075804E-07	-2.15275450114998E-06	0.974529839258219	-0.226393289766699
9.6	0.00737556375527054	0.00108719584627166	4.61808333483808E-06	7.09434531635377E-06	-8.26018520775256E-06	1.2810036472681E-05	0.974061779795063	-0.229488016818364
9.7	0.00724096771420835	0.000696038277358452	-2.88365283413083E-06	-1.54071911437806E-06	-1.3820698457635E-06	-3.97900037790154E-06	0.9736833826594	-0.23197991214453
9.8	0.00710690523900264	0.000556178241943878	1.3736355212284E-07	-3.60190290847967E-06	3.04581495637794E-06	2.41026173920041E-06	0.973733984597917	-0.23406395114377
9.9	0.00716102657261769	0.000817651218140378	5.81445025236216E-06	-6.02337728377038E-07	-2.58968098445428E-06	6.73706393614331E-06	0.973818016359316	-0.236039974248625
10	0.00778280648134578	0.000692027447052261	-1.14389766587668E-06	-5.82459488653276E-07	1.37016746446178E-06	-1.18772941928554E-06	0.973653984982637	-0.238443659531437
10.1	0.00791042183158308	0.000198278619135166	7.27460391954512E-07	-8.44132639422809E-06	6.16779054198726E-06	3.62637330982197E-06	0.972997809726155	-0.240122881706386
10.2	0.00785285637571791	2.87001164329583E-05	7.50604000824515E-06	8.35482411062837E-06	5.23573564162255E-06	3.54831102730844E-06	0.972772674833526	-0.241723494517144
10.3	0.00791621147623615	0.00017336785247475	1.76980491928055E-06	-6.97594221808332E-06	1.42714439152072E-06	2.87821883544396E-06	0.972261097147839	-0.243836179505642
10.4	0.00851389007835262	0.000522495171274827	-4.03592607419097E-06	-3.65261413100452E-06	1.96339516758908E-06	-5.61116101595341E-06	0.971439768570916	-0.246418212550169
10.5	0.00973591848416137	0.000193150734888788	3.79012633765534E-07	-7.0812241910276E-06	-5.74422965477536E-06	4.07797254627597E-06	0.969966044812638	-0.249375137185928
10.6	0.0106374395952472	-0.000679306891385189	5.49658786724105E-06	6.75419833127797E-06	2.43841694870207E-06	1.19831437789286E-06	0.969044067532438	-0.251518621341548
10.7	0.011117591338782	-0.0015937358474251	-7.09170015581625E-06	-1.69687938288427E-06	-7.75584079906509E-07	1.56261839259699E-06	0.968157383355133	-0.254245481606177
10.8	0.0114271747905737	-0.00241819521945952	1.48916507608028E-06	4.45212063044074E-06	9.43418678444283E-06	-4.47721185114215E-06	0.967301305977092	-0.256157366002511
10.9	0.0117529216851404	-0.0030440480082888	3.26921592166218E-07	7.43516067509155E-06	-5.17318421059962E-06	2.08910823586113E-07	0.966915075581142	-0.257996409360972
11	0.0125466596034756	-0.00410118744701355	-2.23110830524856E-06	-3.83344266153581E-06	1.20676251637094E-05	-3.5662330876243E-06	0.966564942484279	-0.259342484232881
11.1	0.012686453581261	-0.00554210012459115	-6.13675555026559E-06	-4.94260684923172E-06	9.56589354469867E-07	5.59180747262337E-06	0.966644875275577	-0.260861842280712
11.2	0.0125200073934488	-0.0068408567132478	3.3284655267152E-06	4.3123408810393E-06	1.05718433356965E-06	-7.89977265129502E-06	0.96652000495777	-0.263000253119864
11.3	0.01225053852675	-0.00797018275080155	7.10721391287096E-07	-2.66534763775118E-06	-4.83951122411441E-06	9.14455011266058E-06	0.966366236074147	-0.265421958039834
11.4	0.0118861696443594	-0.00884773822615481	1.4770021607475E-06	-2.20938806311254E-06	-3.0273564256497E-06	-7.44921056737355E-06	0.96553401874781	-0.268516746069431
11.5	0.0118007538107552	-0.0100976405662873	9.48778901038499E-07	-1.01335068146717E-06	-9.05064548860786E-07	-8.72254587037775E-07	0.964520533142393	-0.271828238557289
11.6	0.0111172512500109	-0.0116180865710987	1.12473632583381E-05	-3.30075931014947E-06	-5.44594500302905E-06	-6.8396305889998E-06	0.96315391212809	-0.275717208353031
11.7	0.0101211090128151	-0.0127713997309258	5.33367449058789E-06	-2.91320896997619E-06	-4.41717186816682E-06	1.66363189064663E-06	0.96192618680085	-0.279691395765
11.8	0.00915364135136036	-0.0134972869697695	-4.56562889139929E-07	-2.55239550594463E-06	1.08985271131481E-06	1.32891288159325E-05	0.960650873980274	-0.283834633196152
11.9	0.00870441580040037	-0.013941356800916	3.33649450053299E-06	1.98897879431228E-06	6.48015717412438E-09	1.27674276679338E-05	0.959724236244232	-0.28696827988707
12	0.00853335419054035	-0.0150694769954591	2.01089935067691E-06	4.80433144820713E-07	-3.71242085312798E-06	-9.63886170139767E-07	0.957920245306048	-0.29000946542943
