# GHZ S RI R 50
0.2	-3.8667052388159E-05	0.0024568164227706	6.32446028807581E-06	-9.95059666103951E-07	1.06713861262956E-05	1.0548775776377E-05	1.0016990044544	-0.00579354851919126
0.3	0.000735346979377742	0.00258406022709811	5.82483029958338E-06	5.06407195624905E-06	8.11546793440594E-06	2.97839993815285E-06	1.0020484984718	-0.00864432971242898
0.4	0.00130195077097788	0.00312964184076381	-2.7305680918548E-06	7.89868507939803E-06	-4.7712360445044E-07	-4.44982466842594E-06	1.00312230635235	-0.0112343882879201
0.5	0.00304894565805927	0.00286979269671489	2.31748410616457E-06	1.48343301822495E-06	7.53891418724395E-06	-1.06068662194007E-06	1.00374296814005	-0.0163833121282478
0.6	0.00244956259777835	0.00152563842054784	3.20766120448873E-07	3.54960151186113E-06	2.79094323378899E-07	-7.68158589489773E-06	1.0018271436004	-0.0193180908658022
0.7	0.00179004481421347	0.00193396226358906	4.18149876323293E-06	5.11288015085884E-07	-3.90987011489212E-06	-8.43527814860891E-09	1.00164103041074	-0.021214789365032
0.8	0.00159801990274723	0.00240836926429653	-2.90504983755429E-06	2.97466737517682E-06	-6.85530325027339E-06	1.31790332151382E-06	1.00191485966743	-0.0229492272253965
0.9	0.00114057352212685	0.00330924016507113	6.07066745123897E-06	9.10669986751022E-07	-7.38204957241411E-06	-1.85076774692353E-06	1.00228743012666	-0.0246368963948445
1	0.00262804582062427	0.00521047195506062	2.37718162458982E-06	2.96364441157485E-06	-9.10544640536613E-06	-2.59254237401633E-07	1.00445091907345	-0.0259484087365541
1.1	0.00398579842178266	0.00350325932236058	6.47820123295712E-07	3.5141463220266E-08	-5.33129314507619E-06	1.41688315646171E-06	1.00440837794651	-0.0305667478612202
1.2	0.00332365790351035	0.00262216196985807	-5.32866298315954E-06	-3.30222152297914E-06	-1.12648031258974E-05	-1.2716978899139E-05	1.00291896287829	-0.0322883705790683
1.3	0.00262740790732798	0.0016205235678541	3.07248400162409E-06	3.11413534395647E-06	6.98719207860631E-06	-4.12043880919505E-06	1.00211576355766	-0.0341696899851247
1.4	0.00169236643022582	0.000968675476215651	-2.81442441799136E-06	-1.1111379541946E-06	5.73834549912713E-06	4.76313917007912E-08	1.00041693204896	-0.0365909592066449
1.5	0.00245051443500742	0.00034795701940359	1.23961632633403E-06	-2.54692105802982E-06	8.11063959964802E-07	2.52051962230442E-06	1.00143299011918	-0.0399443856186037
1.6	0.00120186384129843	-0.000257037833298115	-9.52856872058E-07	-6.44385410512489E-06	3.19053410371519E-06	-4.27142113770852E-06	1.00019411754597	-0.0437966157133945
1.7	0.00112509912324738	0.000878129068620428	3.42497362050496E-06	6.27453593038627E-07	2.25685773459778E-06	3.86660290594128E-06	1.00070930709248	-0.0455458573702967
1.8	0.00150930941417334	0.00173959852834532	-2.38206301295349E-06	2.91978218259423E-06	-1.03083016569752E-06	-4.01597622772368E-06	1.00090680603521	-0.0477720632344473
1.9	0.00214792962681166	0.00277314162840484	-3.75578466437234E-06	-1.76290621096124E-06	5.6656886575584E-06	3.03364437308626E-06	1.00146162831101	-0.0482319379684441
2	0.00456333869728883	0.00274376805135883	-6.24047698147158E-06	-5.7931368668608E-06	-2.08416616810985E-06	9.23942595799722E-06	1.0064937729537	-0.051067192620156
2.1	0.00418465050784574	0.000677468568927187	1.20680328311739E-06	4.64114935556974E-06	4.54395534665262E-06	4.00344309851874E-06	1.00537651683194	-0.0589313197312692
2.2	0.00326344022598167	0.000616299204600273	6.66718586366478E-07	9.09863805732062E-07	-3.72221748717318E-06	-1.10007664684367E-05	1.00308423998543	-0.061832102623262
2.3	0.00259595717080194	0.0007985724348196	-2.27956584660303E-06	3.60026662832634E-06	-5.5647986902245E-07	-2.81311276182154E-06	1.00177485817529	-0.0635596913041175
2.4	0.00182374239761374	0.00170036278432753	-1.57809745143049E-06	-1.45552515231531E-06	1.28663091080429E-06	-1.01489380248181E-06	1.00116714623888	-0.0663826306330799
2.5	0.00314448809892891	0.00314216975197498	7.86982032561344E-06	4.02050573304759E-06	-2.42175838665364E-06	-7.25369162359595E-06	1.00117359306883	-0.0686654665342534
2.6	0.00385399154600373	0.00178735527427784	5.05017625893434E-07	2.12458197565622E-06	-1.43986301671859E-06	4.72086970671127E-06	1.00074125258862	-0.0721106062859104
2.7	0.00351600219569737	0.00141686977294532	-7.87255361864419E-06	5.32817461537427E-06	2.61902907708316E-06	9.75722940380138E-06	1.00048696921554	-0.0755172176808854
2.8	0.00322795492549401	0.00139655702713099	-7.72640715393252E-06	8.06560513346404E-06	6.21225170400693E-06	1.9988602103617E-05	1.00030916379082	-0.0783951893050664
2.9	0.00322827317499032	0.00201446346125929	-1.18883170933575E-06	8.75985414878534E-07	-8.19386110672298E-06	-2.90413685225884E-06	0.999364880566666	-0.0809761857767355
3	0.00495095178484577	0.001984680558896	-6.56398596725456E-07	-4.48555898669541E-06	-2.13108204843952E-06	6.48787643929935E-06	0.998878813319247	-0.0838838035773948
3.1	0.00456754303587279	0.00046963658512694	-2.59922848202724E-06	1.13744610588127E-07	1.10325235812112E-05	-3.64564177199538E-06	0.997761015214939	-0.0867221435579575
3.2	0.00405406166236909	0.000493120594445201	-9.81383350829902E-06	2.65973115775563E-06	1.22577031716956E-05	4.15517944901425E-06	0.996542980501406	-0.0889613712518357
3.3	0.003766945704477	0.000510424281162474	-3.4687861689226E-06	9.76136083077895E-07	-5.02823507256868E-06	-8.6525041788203E-08	0.995026829966867	-0.092703683934945
3.4	0.00348864840287845	0.00111180963963869	5.36009454597967E-06	4.20995533561184E-07	1.35616647479574E-06	4.30614412825424E-07	0.992839714066046	-0.0946218654819276
3.5	0.00499376008988377	0.00119192685028832	2.78211753789089E-06	1.52742102131447E-06	1.31942213026513E-06	7.77769101590216E-07	0.992034522612589	-0.0949672404770396
3.6	0.0042765036229178	-0.000520161076573803	-7.15172148270505E-06	-6.26763776605477E-08	1.83088393383445E-06	-3.51686386495414E-06	0.992624361179342	-0.0982911598116517
3.7	0.0030557434110957	-0.000257628359466645	5.76030056638991E-06	-1.5747849094992E-06	-3.43795958656232E-07	-1.72895762325374E-06	0.991136350849297	-0.101377192603807
3.8	0.00247050408366523	0.000579150832512428	-1.99048871871635E-06	8.97766478775658E-07	-5.18458557865255E-06	3.55037771400286E-07	0.989488531492161	-0.10262318370951
3.9	0.00262587818023956	0.00206093824920645	-8.33397715186536E-06	1.85834537772657E-06	-4.12488569482398E-06	-1.45711656327893E-06	0.989177457528893	-0.103205409005001
4	0.00521982056884359	0.00253011215009693	-5.82783682386462E-06	4.2298973753905E-07	-9.58762848325301E-06	-8.36981276289349E-06	0.993920614104554	-0.104519451734386
4.1	0.00545484266866868	0.000395297064160862	-3.93515590514393E-06	4.11461845210028E-06	-1.81027064108213E-06	5.60353108452574E-06	0.992075985934415	-0.111374545751646
4.2	0.0048133897985376	-8.18328795802796E-05	4.55589735105486E-06	-4.43320542540234E-06	6.74891562245387E-06	6.69118217231819E-07	0.988894343791933	-0.113938886212292
4.3	0.0043684540990136	-9.74351497217249E-05	-3.77128921889319E-06	1.1698945129264E-06	3.52399662789759E-06	-1.24590309683926E-06	0.98756901671877	-0.115402257930921
4.4	0.00404314278339212	0.000585914497975166	-3.20085968921603E-06	-4.87980210610564E-06	9.14002391115184E-07	-1.04472379619303E-06	0.986647499500072	-0.11725419811171
4.5	0.00591527923739287	0.000976809505068596	-1.35388635599626E-06	2.03900475217876E-06	2.00804772030092E-06	-8.45692212130014E-06	0.985980798870754	-0.120715254184702
4.6	0.00568986793535873	-0.00126889144448798	5.46409016882556E-06	9.44625729575079E-06	-1.39583614936779E-05	9.89962121804584E-06	0.982717845249326	-0.123040991514672
4.7	0.00462228125342223	-0.00169885314995486	-7.62173063269069E-06	-9.39827660439533E-06	-1.13621418916813E-06	-1.219571600281E-07	0.981572774976844	-0.1236575838831
4.8	0.00380665433616362	-0.00167116094429664	-8.68910354433424E-06	-2.58152878464005E-06	-4.29711136742065E-06	4.54296608374303E-06	0.9805186766359	-0.125301718744909
4.9	0.00323499077818318	-0.000909921359289751	5.79553721595681E-06	8.18341956515103E-06	-7.15653358711927E-06	3.31661845127146E-06	0.979325232651005	-0.126358721327967
5	0.00485221369112272	-0.00081134957887623	4.15550011479472E-06	-8.48027031800718E-06	-4.29591451173339E-06	-6.07088092871916E-06	0.978518911423289	-0.127136026404104
5.1	0.00391044727989201	-0.00247572303732877	1.49836829536332E-05	-1.02254659890942E-05	3.39484133557845E-06	-8.6482333965592E-06	0.977692031177014	-0.127671226689719
5.2	0.0029945556775254	-0.00199715824398823	-4.21490205467533E-06	-4.64003496745466E-06	-3.12643372776086E-06	5.3698253626466E-07	0.976935955371566	-0.128812969880503
5.3	0.00290728107626806	-0.00135034292931461	4.74407575389077E-06	3.30774131591733E-06	-9.22069364268087E-06	-4.6369576650191E-06	0.976397734562654	-0.13038233280051
5.4	0.00331778684610743	-0.000373751152417702	5.12114502735384E-06	1.15092474958197E-06	-4.00802269458444E-07	1.03242998686365E-05	0.975225237143494	-0.132422375505553
5.5	0.00599875993197006	-0.00102685527116779	-1.79044580570902E-06	-1.94343345209666E-06	8.74338633373464E-06	4.70606972543118E-07	0.975196285736609	-0.132441943310456
5.6	0.00438494209912697	-0.00383516105127297	4.19506001189125E-06	7.12521883166301E-06	-4.67929047887267E-07	-8.49428097214298E-06	0.975825417049501	-0.13541673067074
5.7	0.00232331025580831	-0.00348829375560261	2.02754162281821E-06	-7.14184669455283E-07	5.40095677161411E-06	2.41687126989719E-06	0.974431932175645	-0.13722739324171
5.8	0.000969586885701861	-0.00248974862340968	3.85947217690838E-06	1.93501842872694E-06	2.69456396693518E-06	7.72925206115828E-06	0.973536958873537	-0.137422992734108
5.9	-9.24941261658802E-05	-0.000210726260347168	-3.72775415641749E-06	-3.02963423555198E-06	-4.63624462056443E-06	-1.77050947246823E-06	0.97415816322676	-0.135486763816329
6	0.00270852059012512	0.00242601762736118	-2.06520697390398E-06	1.68805909830943E-06	1.03621226629409E-05	-2.62174460360106E-06	0.98183544567335	-0.137010968013769
6.1	0.004140172169926	0.000239177692888616	-7.26392009549622E-06	-1.0798282395148E-06	-7.23731665338267E-07	-2.45984153107207E-06	0.980506413740729	-0.144453056763159
6.2	0.00373666983949421	-0.000673403609631749	-1.04729193952906E-06	1.96870473144207E-06	-3.45240953146733E-06	-5.29904404171229E-06	0.977901769161798	-0.145805276316366
6.3	0.00310774867003656	-0.00134866161593412	1.55988970592052E-06	2.79779984981585E-06	1.13489202991103E-06	5.90369458911913E-06	0.976703840637789	-0.146907904520894
6.4	0.00244897421181528	-0.000924143694519593	2.04529681110477E-06	4.98497853656698E-06	-3.29914367349206E-07	2.24747336221192E-07	0.976999578692673	-0.147850143248972
6.5	0.00417043885468009	-0.00200374366331235	4.60848573833301E-06	-1.86771452010428E-06	-4.63843251139784E-06	-1.51877417264733E-06	0.976858727347724	-0.15409669018166
6.6	0.00171496016729222	-0.00379804498784778	3.21553245802674E-07	-1.05180709805479E-06	9.14695817688675E-06	3.29234944808606E-06	0.971060971679524	-0.154336090313847
6.7	0.000349354071734526	-0.0028435456190068	4.98073699928959E-07	5.5277945947818E-06	-1.7825872719939E-06	4.88954977879389E-06	0.970840795894397	-0.152697415895059
6.8	-0.000418704174100332	-0.00198073854027916	1.82760141102823E-07	-1.56235586651331E-06	-3.39563214621844E-06	-5.06616011140319E-06	0.971243953427872	-0.152740958729623
6.9	-0.000850878109082488	-1.69888936616129E-06	-6.6018222438461E-06	6.57880768180175E-06	2.2464708732064E-06	1.35200523337825E-06	0.971949307564709	-0.152378405255094
7	0.00255353548829868	0.000492678489102726	7.94840575590391E-06	3.18720908769884E-06	4.4615673129618E-06	5.8222616817499E-06	0.97532603451588	-0.153828695049645
7.1	0.00106953416391052	-0.00254044325695016	1.3714192836075E-06	7.86020952478544E-07	-2.20466088187309E-06	-4.4397270584073E-06	0.973883443544585	-0.157901064184952
7.2	-0.0011086030184784	-0.00201285737351009	-1.74676830401353E-07	4.3422490470319E-06	-4.94335506817601E-06	-6.96374892366763E-07	0.971826594130909	-0.158928792980002
7.3	-0.00278878387269303	-0.000884934145029551	1.38253446495561E-06	-5.18451873248561E-06	-2.29292644954494E-06	-2.77520776371746E-06	0.969444427404634	-0.159820322859034
7.4	-0.00461976034616001	0.00177483165912897	1.76743886736644E-06	4.37006731246034E-06	-7.06774677709725E-07	-1.05951073110593E-06	0.965001872296866	-0.159011622690814
7.5	-0.00202327586575439	0.00529551172016658	-5.62087344654179E-06	-1.5558215983815E-06	-1.41231873491461E-06	-8.77463603397045E-06	0.967302952014551	-0.152173548539784
7.6	-0.0011920672256173	0.00381031541461176	5.6148122159486E-06	-3.24959776428062E-06	9.5556938793107E-07	3.16967938191228E-06	0.972848100241543	-0.15682196045912
7.7	-0.00159414476565018	0.00443016149858042	-6.3846639370833E-06	-2.94131758594058E-06	4.23351323587561E-06	5.68309002417448E-06	0.97318854677373	-0.160369599064107
7.8	-0.00119986980791748	0.00511775349547357	-9.758614389446E-07	-5.32106006414135E-06	-2.3173191904576E-07	1.12799817125444E-06	0.973951988517703	-0.162328144721699
7.9	7.50030268586627E-05	0.00625011656694336	-3.47047430865966E-06	7.07575341753671E-06	6.12891103622179E-07	-6.80974811918872E-06	0.976672298558561	-0.162001546384999
8	0.00386928213428668	0.0044482159097752	-4.01826104390551E-07	7.37262952420814E-06	1.87225418279692E-06	-4.41286789215318E-06	0.98686345388848	-0.166925573550414
8.1	0.00214186216747623	0.00138477107537152	-6.24664581632583E-07	-6.48977611785913E-06	-1.73207046696543E-06	-1.09608504512406E-06	0.984995766866665	-0.177888065408173
8.2	0.000788553609436739	0.00168963839356228	-3.85962352463096E-06	1.59018680888823E-06	-1.09401393954592E-05	-2.80204931187544E-06	0.982478903183127	-0.180638574964084
8.3	3.77535044557528E-05	0.00233932316354891	-5.39717731011575E-06	-9.9740322487954E-06	-7.85458352238697E-06	2.89823372678026E-06	0.981875493605982	-0.1829194414041
8.4	-0.00033585775041797	0.00435327947056821	6.89093656048048E-07	-6.02378947412657E-07	-1.42871228865345E-06	4.20943677535538E-07	0.982276250309804	-0.185376463731226
8.5	0.00339471938662236	0.00516183991135089	-1.75294781999559E-06	-2.79170180738235E-07	-3.00671410916977E-08	1.80728777870651E-06	0.982590465621756	-0.190050692013913
8.6	0.00267933160348704	0.00204652233453533	2.49186670185636E-06	-3.93855081383761E-06	-4.47620292586099E-06	-5.9998337775862E-06	0.980808723909302	-0.192566453220427
8.7	0.000976142224066905	0.00239913391523076	-1.46849811516572E-06	-2.12687295370174E-06	-3.63162756783986E-06	3.59018817559549E-06	0.981088391594097	-0.194303877442814
8.8	-5.94321454206021E-06	0.00354710295807426	-5.49369445692885E-06	-2.22603849441796E-06	-7.25464798600134E-06	-1.39883015489513E-06	0.981749434516878	-0.196365915371388
8.9	-0.000451497465939087	0.00600727961973921	8.56456549076694E-06	4.26206244624241E-06	-1.47845052114373E-06	3.20470976415008E-06	0.982747612904035	-0.198312054198341
9	0.00334457269560845	0.00800974566039633	-5.60615005353832E-07	4.18514130902452E-06	-7.89294676430207E-06	1.1317265782402E-06	0.983991730275404	-0.200177901233342
9.1	0.00446613960571208	0.00608297658410694	-2.67810612837308E-06	6.65741257270587E-06	4.1877348370759E-06	-3.04840520145623E-06	0.985790496560752	-0.20294269674268
9.2	0.00530294540122573	0.00598574086061377	-1.2345825994422E-06	3.44556803771542E-06	-2.24263161789618E-06	-2.10966072877434E-06	0.986841974665044	-0.206967631363189
9.3	0.00647012438509674	0.00534834823446086	2.3958029379214E-06	-4.05810416333065E-06	-7.81511888580417E-07	-1.80893146448786E-06	0.98668052041688	-0.211449696378178
9.4	0.00737715656262743	0.00529841240593367	-1.85328599610113E-06	3.91278983903646E-06	-2.05139558216815E-06	-3.63142101857633E-06	0.984431020020128	-0.214836076016927
9.5	0.0105076614436779	0.00320658738142792	3.43251946458274E-06	6.38328275229674E-06	3.9816617847604E-07	-2.15893063167189E-06	0.985370523642674	-0.215038185386599
9.6	0.00830953899155111	-0.000224296789837899	4.56646394312044E-06	7.22134636645866E-06	-8.50688279122394E-06	1.28186676053099E-05	0.986941980574576	-0.220950052697132
9.7	0.00640295729031166	-0.000130413398422125	-2.8966179136011E-06	-1.591227690793E-06	-1.35018437603497E-06	-4.03813405128302E-06	0.985729939914502	-0.224867044194458
9.8	0.00520040462107962	0.000531996283148873	1.79376522184686E-07	-3.64068350935067E-06	3.05282910134606E-06	2.47147150900872E-06	0.984835511861653	-0.226695789732145
9.9	0.00447256421721305	0.0026304193142875	5.89449670577232E-06	-5.3434797137319E-07	-2.70929813194657E-06	6.78713855464345E-06	0.985726759715449	-0.225276017176244
10	0.00803895741307814	0.00366702128866608	-1.15948455454131E-06	-6.06163094673156E-07	1.40947444059938E-06	-1.1955359023061E-06	0.994803656677361	-0.230135503659693
10.1	0.00773659781384238	0.00100835995442297	7.82087894613724E-07	-8.58525852425593E-06	6.25759052867733E-06	3.72038183892147E-06	0.990563809533447	-0.23961213581655
10.2	0.00680912809184823	0.00116216532138965	7.58688675402938E-06	8.5181213474781E-06	5.30207258077155E-06	3.62659692734873E-06	0.987335016899403	-0.241059143399969
10.3	0.0064343748811782	0.00181261717913213	1.8275062223538E-06	-7.07711752469352E-06	1.43698764132395E-06	2.92927030975E-06	0.986195437396319	-0.242598107997194
10.4	0.00679496707919509	0.00374748596840845	-4.09362841899646E-06	-3.72861762944125E-06	2.01539806708428E-06	-5.70147455749604E-06	0.986416517645542	-0.244804160245401
10.5	0.0111193012188857	0.00406104027736839	3.76325811793655E-07	-7.19474888170418E-06	-5.83090843631748E-06	4.15016862994773E-06	0.98591707040077	-0.250932349663262
10.6	0.0119114859845546	0.0012260045036745	5.56602266447354E-06	6.84632385263129E-06	2.47010663939048E-06	1.21538072834334E-06	0.982907547338831	-0.252968055427795
10.7	0.0124258637281667	-8.10996245485753E-05	-7.19316244755221E-06	-1.72924414982029E-06	-7.88566148020561E-07	1.58454180286125E-06	0.983639039491136	-0.256049211857985
10.8	0.0123953460135946	-0.00168134066197562	1.51266985926304E-06	4.5227746997073E-06	9.58393917717703E-06	-4.5479816607516E-06	0.983334867396971	-0.260301158840217
10.9	0.0119478575903586	-0.00165864981054219	3.479930180973E-07	7.55799064721593E-06	-5.25868501799931E-06	2.23263549870086E-07	0.98232154228456	-0.263750934340522
11	0.0151809654665762	-0.00286807591928582	-2.27872738207506E-06	-3.88008611564896E-06	1.22282495546019E-05	-3.66604420212683E-06	0.982020383390681	-0.26685573745552
11.1	0.0137109463313257	-0.00692235540906782	-6.24226892395495E-06	-4.99271995974728E-06	9.89652607194414E-07	5.66913326643304E-06	0.980179525966768	-0.27094151193273
11.2	0.0118897804645328	-0.00791568365075066	3.39807810459522E-06	4.36016790300645E-06	1.0352501903964E-06	-8.02138246300847E-06	0.977839887454761	-0.274221810568011
11.3	0.0104276768413517	-0.00827942319095202	7.02563535046603E-07	-2.7072703464009E-06	-4.84495212387279E-06	9.30464604269109E-06	0.974546210189937	-0.277336386277095
11.4	0.00932979638418076	-0.00737299675947385	1.47399995941585E-06	-2.24645350391591E-06	-3.12529244634974E-06	-7.50459596129806E-06	0.969383824471047	-0.27930041624836
11.5	0.0121826294812882	-0.0082160468314197	9.53096315822488E-07	-1.02645098736668E-06	-9.1686887344413E-07	-8.76334760808347E-07	0.97084329872874	-0.277214242539036
11.6	0.0100523193583017	-0.0119818816758946	1.13771236316577E-05	-3.40006832700214E-06	-5.55106620274259E-06	-6.90130383070745E-06	0.971488252249978	-0.285163317365483
11.7	0.00751729156685632	-0.01224361777077	5.38023373492278E-06	-2.98978130115782E-06	-4.46126220844677E-06	1.71748711109064E-06	0.967691428381829	-0.290217688587398
11.8	0.00584508467224129	-0.0114769633703526	-4.82168593808512E-07	-2.57769342056456E-06	1.20856828832062E-06	1.34311451791729E-05	0.964250032890538	-0.292667034172185
11.9	0.00591044643925172	-0.00907663276945952	3.3842276468011E-06	1.991827641531E-06	7.88448051614906E-08	1.29069502138089E-05	0.964505491888256	-0.290177371920667
12	0.0105762698608601	-0.010044665119851	2.04878575711235E-06	4.75306569551503E-07	-3.78287797478896E-06	-9.55748637929377E-07	0.974097059092383	-0.296032957617309
