# GHZ S RI R 50
0.2	0.000403432866035387	0.00365573367837014	6.30724224710011E-06	-1.00646549503216E-06	1.06689642889621E-05	1.05004309189934E-05	0.999751202396484	-0.00674659245844002
0.3	0.0010870728821911	0.00336886816652812	5.81780558485009E-06	5.03940476641513E-06	8.09828190182482E-06	2.9553817753304E-06	0.999604391606932	-0.009635911538554
0.4	0.00160546393839188	0.00327169953408844	-2.71057801905705E-06	7.87247906231931E-06	-4.80837303185646E-07	-4.4325698440313E-06	0.999665521836013	-0.0122705302401575
0.5	0.00205235260420349	0.00327116005741626	2.30904457637145E-06	1.47956101265788E-06	7.51421689262876E-06	-1.05361094846697E-06	0.999403555630827	-0.015443745044857
0.6	0.00250565936942199	0.00318773690213448	3.2244124786654E-07	3.54058732258935E-06	2.73058845765676E-07	-7.66275567580367E-06	0.999375520262723	-0.0182722181382309
0.7	0.00273010568732875	0.00313121040507951	4.16750099812648E-06	5.04354852123481E-07	-3.89620382087384E-06	-3.59528405520904E-09	0.999043501592892	-0.0211205406847857
0.8	0.00298859492135022	0.00313825423506978	-2.88877646767852E-06	2.96499865654182E-06	-6.82360312634193E-06	1.32016441776735E-06	0.998877476113719	-0.0232259426964068
0.9	0.00312047973654834	0.00315771443034906	6.038641721534E-06	8.99746048584578E-07	-7.34383855096896E-06	-1.83345241693387E-06	0.998832060064285	-0.025566632458234
1	0.00322647401873055	0.00335260568406347	2.36093775003966E-06	2.94571080839622E-06	-9.04746073166899E-06	-2.6108167930293E-07	0.998733696795865	-0.0271962366635925
1.1	0.00351211708473001	0.00347827693558039	6.44239220603369E-07	3.56873949587714E-08	-5.30376738968875E-06	1.40306521870281E-06	0.998543698960802	-0.0292563605919973
1.2	0.00365507096695541	0.0032721645894777	-5.29687328466823E-06	-3.29224746271992E-06	-1.11900348658641E-05	-1.26663614365935E-05	0.998153914604211	-0.0301188096162918
1.3	0.00359004640149888	0.00271762467956792	3.05237574987356E-06	3.1063119955198E-06	6.96404776931811E-06	-4.0878052476396E-06	0.998644149371866	-0.0308787449124357
1.4	0.00332771482459499	0.00186372070838873	-2.80154179208127E-06	-1.11439807211455E-06	5.71776924144606E-06	6.21839684793326E-08	0.998569290567121	-0.0329844587610158
1.5	0.00322118161933102	0.00135596472867709	1.24117042943404E-06	-2.53542740161456E-06	8.02580276713991E-07	2.5137691197092E-06	0.998849204327624	-0.0364828239292163
1.6	0.00316863838711797	0.00102098306683815	-9.34214120793279E-07	-6.41882483498617E-06	3.18676326808707E-06	-4.24615709268137E-06	0.998009029459916	-0.0400230195782913
1.7	0.00316204629125565	0.00100387117784569	3.4066662164163E-06	6.33142193541184E-07	2.23597337691219E-06	3.8535093353202E-06	0.997961701910296	-0.0425584351211876
1.8	0.00321055977507075	0.00114878687854943	-2.37769364014679E-06	2.89840890844813E-06	-1.01475286009339E-06	-3.99815247102655E-06	0.997612662904993	-0.0453361964253812
1.9	0.00327241980155231	0.00123429571496485	-3.73206668992206E-06	-1.76021149695161E-06	5.62922050141412E-06	3.0275392915932E-06	0.99723712641617	-0.0475809328472895
2	0.00350329715026739	0.00143512580882151	-6.17542481716244E-06	-5.75401314570568E-06	-2.08289267421038E-06	9.15499621837418E-06	0.996770679530435	-0.0500222714301358
2.1	0.00368934944659015	0.0011844405733732	1.17192514708471E-06	4.60799328343236E-06	4.4840178645841E-06	3.99340538999051E-06	0.996621740287039	-0.0525419620936817
2.2	0.00354005566442079	0.00106494339655973	6.5655651644245E-07	9.07140904896701E-07	-3.63090420787209E-06	-1.09425062963469E-05	0.996413874125858	-0.0549999870591783
2.3	0.00331183772408516	0.00100289730125696	-2.28547602139066E-06	3.56159735467117E-06	-5.35673605407251E-07	-2.7969853768744E-06	0.995931089564165	-0.0567858747997905
2.4	0.0029413956629271	0.00109404843705967	-1.55743844073436E-06	-1.45580541624563E-06	1.28436241686745E-06	-9.99286941208603E-07	0.995752591482407	-0.0597850141821894
2.5	0.00266732430515291	0.0015453185873043	7.7907965134469E-06	4.05828269068407E-06	-2.35006184185529E-06	-7.22910766554062E-06	0.995251787808523	-0.0618928739384908
2.6	0.00282637197359239	0.00184812145447399	4.87317427580127E-07	2.11732279475746E-06	-1.46610529507254E-06	4.68650608961379E-06	0.995113969972449	-0.0645163471170842
2.7	0.0030070023843329	0.00203077068096901	-7.86659785261978E-06	5.24275969336507E-06	2.53530127450742E-06	9.72159624352381E-06	0.994929890805809	-0.0673361127650233
2.8	0.0032867972002441	0.00218012787535727	-7.74449665036149E-06	7.95949077395712E-06	6.02184611081386E-06	1.99219548943079E-05	0.995196012111547	-0.0693478545313491
2.9	0.00364004631132637	0.00225710499060379	-1.19011246954999E-06	8.60853903055249E-07	-8.12432578341953E-06	-2.96032064989932E-06	0.99508515642844	-0.0714748579420237
3	0.00426819953183034	0.00236193295117353	-6.13116646550709E-07	-4.47438683681295E-06	-2.18191448376556E-06	6.44371533138289E-06	0.995107583030897	-0.0740732590949626
3.1	0.00486917301318599	0.00192026042121309	-2.59002508956355E-06	9.06716823394419E-08	1.10209927168396E-05	-3.5353039062916E-06	0.994847542287345	-0.0761399297643018
3.2	0.00510239629068364	0.00149593214882733	-9.80427000161897E-06	2.55591286939998E-06	1.21739101714422E-05	4.25809222220498E-06	0.99481131935566	-0.0779765682200228
3.3	0.00519401895277078	0.00101913267104543	-3.47001222357521E-06	9.37019936542085E-07	-5.0141845466632E-06	-1.3930316937462E-07	0.994774606585224	-0.0813651099444711
3.4	0.00505098500916985	0.000671313641676212	5.35153810817933E-06	4.81618304467487E-07	1.35031813376634E-06	4.45724625682908E-07	0.994737475124071	-0.0836194427876342
3.5	0.00503811983317333	0.000511138534899595	2.77163441809526E-06	1.55555424918921E-06	1.313950803142E-06	7.9118448623775E-07	0.994257666740439	-0.0864191503337015
3.6	0.00493710945433865	4.8682364897546E-05	-7.15090367127781E-06	-1.26547980505961E-07	1.8622278916692E-06	-3.50038488188606E-06	0.994052368333768	-0.0887397893287356
3.7	0.00449638317174186	-0.000177906769034148	5.77818247282277E-06	-1.51877156581112E-06	-3.26930047902677E-07	-1.73305706868784E-06	0.993937556646589	-0.0914493288830507
3.8	0.00413894189980835	-9.06339039735259E-05	-2.00219987424287E-06	8.79394878079029E-07	-5.19550455465605E-06	3.0434975535166E-07	0.993577385864152	-0.0935283186961708
3.9	0.00397726086068207	0.000234846173291169	-8.36669681103187E-06	1.79005111485887E-06	-4.12054260352526E-06	-1.49567095522884E-06	0.993433022409065	-0.0965843058192392
4	0.00439371721228313	0.000641109810221092	-5.82827485937746E-06	3.72500608704872E-07	-9.51017139968684E-06	-8.44788182129965E-06	0.993483602546141	-0.0977498945333508
4.1	0.00491686089378578	0.000255930988079328	-3.98527974066574E-06	4.07264510374327E-06	-1.87584551907593E-06	5.58703154694126E-06	0.993529007004681	-0.100224862906162
4.2	0.00493603350241527	-0.000205879053180405	4.61759709038927E-06	-4.39239016307125E-06	6.75803462166088E-06	7.47515413263594E-07	0.992693800238532	-0.103074851983474
4.3	0.00476149921511502	-0.00049711498764292	-3.79646228043859E-06	1.1314119867981E-06	3.54922908214839E-06	-1.21043289052643E-06	0.992344582308872	-0.105054075959752
4.4	0.00443281356338575	-0.000573178830390673	-3.15481950787573E-06	-4.93436165927618E-06	9.29441121642946E-07	-1.03765416882552E-06	0.991803702096149	-0.107195850394228
4.5	0.00440085761479801	-0.00028765820031407	-1.38944816682143E-06	2.03255076535822E-06	2.13447505296847E-06	-8.47907879549861E-06	0.99178569428505	-0.109316064627807
4.6	0.00449933437902764	-0.000562926374067486	5.40269347226146E-06	9.59027789206738E-06	-1.41921289885667E-05	9.82461007011454E-06	0.991269789229683	-0.112083326583903
4.7	0.00429840966872816	-0.000748926729067443	-7.59454570373138E-06	-9.55859236009815E-06	-1.14506778311196E-06	-1.34504062973678E-07	0.991077785657099	-0.113824171000425
4.8	0.00408456101614981	-0.000795144207517702	-8.74317699920797E-06	-2.68744565236612E-06	-4.37915107697572E-06	4.54323137766749E-06	0.990724613816187	-0.116127127780754
4.9	0.00393349786361437	-0.000730414554334084	5.77205899227325E-06	8.31744496974227E-06	-7.25686329213466E-06	3.27935088809763E-06	0.990496533557551	-0.117836081379708
5	0.00422917868365242	-0.000608205675289438	4.2813431299312E-06	-8.54323611901771E-06	-4.29199132819343E-06	-6.18162875516213E-06	0.990511193454007	-0.119510624167777
5.1	0.00448711191867711	-0.0011084826156735	1.52304655083415E-05	-1.02414410836505E-05	3.49470169186875E-06	-8.72614130281279E-06	0.990495590580879	-0.12087530110326
5.2	0.00437021656454891	-0.00140087572653829	-4.23249534359222E-06	-4.7220078220492E-06	-3.1662016653015E-06	5.22199087679728E-07	0.990379504209718	-0.122997094319882
5.3	0.00434380512562368	-0.00150168756070383	4.7787673697996E-06	3.38026586418267E-06	-9.30040707468359E-06	-4.75624724066746E-06	0.990462369129852	-0.125289224614245
5.4	0.00436910459990507	-0.00153416832371412	5.18400002683875E-06	1.20332347358527E-06	-4.79810958097377E-07	1.04646718727358E-05	0.990669882849863	-0.128403938468426
5.5	0.00477582671911853	-0.00153020786358426	-1.81232693012774E-06	-1.98189291000735E-06	8.88425822943605E-06	5.11260620979138E-07	0.990218223698895	-0.131346765860082
5.6	0.00481189037420946	-0.00239788324512542	4.24053210967738E-06	7.23300587360996E-06	-4.58566143812951E-07	-8.61427977956104E-06	0.990040070616265	-0.133882818470361
5.7	0.00413713760568914	-0.002813503391009	2.05664548836589E-06	-7.20412053466072E-07	5.47085693070293E-06	2.45959694659907E-06	0.989759273140459	-0.136520208683268
5.8	0.00339746771764666	-0.0028798020856324	3.91154836032699E-06	1.96475877238551E-06	2.72612667163075E-06	7.83848274640925E-06	0.989515545744134	-0.13879805121557
5.9	0.00253131369445321	-0.00254605141001405	-3.77989762236694E-06	-3.06282542899797E-06	-4.69813136464904E-06	-1.78625857803042E-06	0.989032705474839	-0.140873995893501
6	0.00215748276947862	-0.00157633214338428	-2.08238628623054E-06	1.70232308343469E-06	1.04486962010902E-05	-2.64435913054476E-06	0.989449897391389	-0.142201681704591
6.1	0.00235537699403246	-0.00142517255802136	-7.33927630386057E-06	-1.11393231203566E-06	-7.23983780718376E-07	-2.48872046732196E-06	0.989649689902234	-0.144637347524998
6.2	0.00208770551861365	-0.00139394530189328	-1.06461305869715E-06	1.99172531656375E-06	-3.48582274424654E-06	-5.37360743371584E-06	0.988849919377647	-0.146363018071182
6.3	0.00188966316095534	-0.00134615073771959	1.57914517430171E-06	2.83565089772125E-06	1.14695209564718E-06	5.98247811067374E-06	0.988297223692381	-0.148278574761612
6.4	0.0016185592750539	-0.00128988537530716	2.07208667263899E-06	5.04594307407963E-06	-3.3392183791976E-07	2.27624682805897E-07	0.988008391458464	-0.150234462637646
6.5	0.00194759125016785	-0.00123190126924643	4.67658243989937E-06	-1.88492655615269E-06	-4.70039290286642E-06	-1.54900340113216E-06	0.988357552831422	-0.153442086777183
6.6	0.00172625670216685	-0.00190713669130361	3.25179001905671E-07	-1.07047642557987E-06	9.31021227548004E-06	3.33240974531106E-06	0.987314033144665	-0.156605521811277
6.7	0.00119587182477786	-0.0018941227583347	5.32985903251615E-07	5.61558069478644E-06	-1.7879822546059E-06	4.97797228558134E-06	0.986698378655024	-0.158691268318864
6.8	0.000775268257004219	-0.00167747803662814	1.75373498222486E-07	-1.5873306092789E-06	-3.48030135840401E-06	-5.12118570977636E-06	0.986197227778062	-0.160857412440385
6.9	0.000275359522926986	-0.00116252133027865	-6.64674419983035E-06	6.72256032652878E-06	2.28876988668163E-06	1.35444026805134E-06	0.985816693517613	-0.162871097493938
7	0.000651641957802221	-0.00027765853681397	8.08544927866583E-06	3.16611130827501E-06	4.57173662632892E-06	5.86662799333785E-06	0.985651699638428	-0.16463045629277
7.1	0.000790308473607655	-0.00065441448749171	1.39711566123883E-06	7.83819501592056E-07	-2.27548222526321E-06	-4.47878469060078E-06	0.985139224721647	-0.166963745657004
7.2	0.00020245642838524	-0.000590674785687529	-1.34084848831494E-07	4.40019339775295E-06	-5.01423075708038E-06	-6.56605196096437E-07	0.984144607918014	-0.168925313082059
7.3	-0.000509441293766155	-0.000211223495346068	1.34819293126611E-06	-5.26651249570291E-06	-2.35108980075777E-06	-2.78839978486743E-06	0.982880540689805	-0.170830929558319
7.4	-0.00150809592001823	0.000502240842153403	1.84302201410569E-06	4.41713924882642E-06	-7.29348398961012E-07	-1.0678288271125E-06	0.981252254777037	-0.173315314169837
7.5	-0.00184870537867773	0.00219910263919016	-5.73277017512008E-06	-1.48104228464461E-06	-1.58694161199704E-06	-8.88219205729764E-06	0.979561871386022	-0.174427698681193
7.6	-0.00133812184931034	0.00285558726568921	5.61347359087526E-06	-3.38340300605638E-06	1.02218186092439E-06	3.1847040229677E-06	0.979855207711805	-0.176819275903147
7.7	-0.00137409305302345	0.00340629016723583	-6.49498550903259E-06	-2.85458069334579E-06	4.373008783058E-06	5.65951242238904E-06	0.979542961922232	-0.180135402416786
7.8	-0.00100810627693123	0.0038946398450538	-1.084181685694E-06	-5.34654445978651E-06	-2.12385830336939E-07	1.14166588246633E-06	0.979205238397221	-0.183263586074533
7.9	-0.000361698405910196	0.00437412632086614	-3.34098726341753E-06	7.19592179951967E-06	4.7066945929084E-07	-6.86685883017998E-06	0.978895136335258	-0.185908545187046
8	0.00125737525164761	0.00439393693263485	-2.4295555040811E-07	7.37807326845675E-06	1.77645316420937E-06	-4.45124948074894E-06	0.980179412201716	-0.188123287061729
8.1	0.00184069674567206	0.00321812731013885	-7.34591290463459E-07	-6.47173091144358E-06	-1.74878278203866E-06	-1.06530735852185E-06	0.980487091459846	-0.192536759281937
8.2	0.00169352323027307	0.00269534237965119	-3.83100076192626E-06	1.65366361459563E-06	-1.09808693767721E-05	-2.61812484053601E-06	0.979765501586461	-0.195806910169238
8.3	0.00143477249799556	0.00257122880105453	-5.55721917259573E-06	-9.86957875214864E-06	-7.79503389214232E-06	3.02613901226257E-06	0.978763035776324	-0.198806392014839
8.4	0.00105722181032838	0.0030325292257441	6.77617116439131E-07	-6.11429740525722E-07	-1.41791508252303E-06	4.42136750625078E-07	0.977788161841443	-0.20144069241516
8.5	0.00170174713662961	0.00400065918452699	-1.75492433170148E-06	-2.54749291446835E-07	-5.16351473866655E-09	1.80577834529947E-06	0.977144817008637	-0.204357833014501
8.6	0.00230778684841282	0.00362498405170392	2.42337672728282E-06	-3.97673888078072E-06	-4.57282140956668E-06	-5.9190392492217E-06	0.976229182113002	-0.207102371516298
8.7	0.00221803270548267	0.00363137075416861	-1.50094983192621E-06	-2.09402216929662E-06	-3.55652868674075E-06	3.64199880034251E-06	0.975606958812472	-0.209470103503836
8.8	0.00218343870816957	0.00395693381339383	-5.50200602959079E-06	-2.11920414380465E-06	-7.23907562450282E-06	-1.26617726397894E-06	0.975139624937588	-0.211628110530904
8.9	0.0022123268769206	0.00454783256707133	8.56883831560866E-06	4.09671486137221E-06	-1.41742970015416E-06	3.2044852151819E-06	0.97505510314824	-0.21356327572417
9	0.00322084876150293	0.00553499285176562	-4.95902858722612E-07	4.1677530881346E-06	-7.82809963798336E-06	1.24038158172391E-06	0.974833195909835	-0.215628984992231
9.1	0.00450022870258478	0.0051908687397701	-2.55159347642692E-06	6.647437462998E-06	4.1065003614558E-06	-3.09073977428257E-06	0.974785121836814	-0.217623394204486
9.2	0.00534280011954465	0.0048839942828094	-1.17301389673877E-06	3.43125769847773E-06	-2.25227809718252E-06	-2.05736884133621E-06	0.974600265665802	-0.220215753545822
9.3	0.00625437816426504	0.00441464003167772	2.31992843024337E-06	-4.0506735666629E-06	-7.97683914182827E-07	-1.78145970603107E-06	0.974267562288536	-0.223011579432181
9.4	0.00693157056586683	0.00380564739105886	-1.79030262394719E-06	3.9031543841027E-06	-2.0787789653509E-06	-3.57648746594239E-06	0.973238792214201	-0.226255327812705
9.5	0.00799399346939436	0.00336630977126426	3.5058289716223E-06	6.28078797452581E-06	3.61421617851418E-07	-2.14859687104343E-06	0.971958786101803	-0.228290320864786
9.6	0.0082034207541989	0.00184567058481154	4.62329839259162E-06	7.0642674256075E-06	-8.20691812924487E-06	1.27964721845087E-05	0.97170850898643	-0.231171263426866
9.7	0.00775801026887152	0.00117132194128006	-2.87985435046183E-06	-1.53019707184967E-06	-1.3876735832433E-06	-3.96572202748821E-06	0.9709924060951	-0.233826800438122
9.8	0.00736141754497322	0.000871751318036562	1.28879305253276E-07	-3.59209164978639E-06	3.04267635985643E-06	2.3966417110283E-06	0.97039087013793	-0.235901057197972
9.9	0.00689391450630029	0.00111781511718835	5.79295066543383E-06	-6.10572207548666E-07	-2.56858990834027E-06	6.71800530390604E-06	0.969353729054846	-0.237113395141525
10	0.00750751701764513	0.0017395889686074	-1.14088591319322E-06	-5.80371992431348E-07	1.36583492420674E-06	-1.18489659849403E-06	0.970348149491449	-0.237564381249712
10.1	0.00800538945658645	0.000957771886154029	7.15514975178838E-07	-8.42331679226248E-06	6.15841396933211E-06	3.61071637658948E-06	0.970391222654689	-0.240653489792416
10.2	0.00779727147500589	0.00063225054375673	7.496827381313E-06	8.32117435852161E-06	5.22613619892838E-06	3.53116899004335E-06	0.96930848132977	-0.242442569658837
10.3	0.00764626310501908	0.000665581218149181	1.75673938419979E-06	-6.95570230892792E-06	1.4256912148559E-06	2.86756372235259E-06	0.968175152280543	-0.244137822721038
10.4	0.00767292229979144	0.00113812919956922	-4.02515659046319E-06	-3.63967719952934E-06	1.95494557193036E-06	-5.59483462368443E-06	0.96704822936248	-0.245790073880534
10.5	0.00898373837838896	0.00185348802702059	3.71917347234671E-07	-7.06476253607304E-06	-5.72703861967984E-06	4.07332803355439E-06	0.966407210357778	-0.248080740990721
10.6	0.0103851074649331	0.00107822665998153	5.48460720312651E-06	6.72731859075284E-06	2.43151753732622E-06	1.19225596103766E-06	0.965346524182632	-0.250135606727371
10.7	0.0113965130376954	0.000181832503674116	-7.06908038243501E-06	-1.68967785715693E-06	-7.7269310502303E-07	1.55773009820082E-06	0.96520363391098	-0.252388640466613
10.8	0.0120498163624236	-0.00112555639497391	1.48443443126642E-06	4.43905214257454E-06	9.40659020236546E-06	-4.46327595288252E-06	0.964989304615606	-0.25469823386512
10.9	0.0120285309743013	-0.00213726959593969	3.2472079017398E-07	7.41581456844614E-06	-5.15972034924197E-06	2.07427986376234E-07	0.96459431804869	-0.256944137811018
11	0.012906055610945	-0.00270661540047222	-2.22583082528692E-06	-3.82219831723197E-06	1.20330815687775E-05	-3.55926387007238E-06	0.964158005837604	-0.258402602018814
11.1	0.0132930618596807	-0.00466195804472098	-6.11622537473503E-06	-4.9281374044914E-06	9.52404729732748E-07	5.57421525332405E-06	0.963955318670331	-0.260274740144961
11.2	0.012905972660467	-0.00615304309937024	3.31621358423251E-06	4.3009627990184E-06	1.05796681599848E-06	-7.87532159494345E-06	0.963435036082586	-0.262430761692651
11.3	0.0124496258337934	-0.00742736880308957	7.09996445497248E-07	-2.65756635000321E-06	-4.83031693696193E-06	9.11671788240342E-06	0.962940054109706	-0.264954730212265
11.4	0.0116388585995094	-0.00835770968497448	1.47265912591146E-06	-2.20325020972219E-06	-3.01935317790066E-06	-7.42791541169166E-06	0.961254869700518	-0.268291277508474
11.5	0.0117083126839128	-0.00898076954488872	9.45230198235559E-07	-1.00876390421889E-06	-9.0095816198075E-07	-8.6898169304804E-07	0.959366148607515	-0.269926468055145
11.6	0.0112140384321257	-0.0110296212362293	1.1212730591868E-05	-3.27247314757262E-06	-5.41665837614537E-06	-6.82367148271927E-06	0.959039652395903	-0.27346364793666
11.7	0.0097516539210353	-0.0123335685077067	5.32117697138601E-06	-2.89654956236536E-06	-4.40575826192571E-06	1.65217102657651E-06	0.957579158960432	-0.277552063858497
11.8	0.00825977258072841	-0.0128849914808432	-4.5168257384539E-07	-2.54458088212832E-06	1.06868878731621E-06	1.32467398601576E-05	0.955616152000413	-0.281225983066684
11.9	0.0072399823337846	-0.0125850699859385	3.31889068151276E-06	1.98693561797462E-06	-1.7406319292461E-08	1.27143003416136E-05	0.953843446064822	-0.282471488520569
12	0.0079351231146479	-0.0123288944669319	2.00231645435043E-06	4.86316296827551E-07	-3.69628839799301E-06	-9.74487579670812E-07	0.954851499199895	-0.282739619311538
