# GHZ S RI R 50
0.2	0.000617304812471499	0.00359835154464675	6.30564727264217E-06	-1.00685361379138E-06	1.06674787819585E-05	1.04968820056989E-05	0.99956092596636	-0.00704468430098143
0.3	0.00129976961763823	0.00328684850496736	5.81702191332728E-06	5.03706730634933E-06	8.09652983688006E-06	2.95324762105208E-06	0.999371508436975	-0.0100098475984243
0.4	0.00176594736960184	0.00311136618416591	-2.70847097459874E-06	7.87020955188659E-06	-4.81341045806443E-07	-4.43098986615852E-06	0.99935701028304	-0.012665535802822
0.5	0.00200854563540712	0.00312963417670039	2.30848540459109E-06	1.47910819381646E-06	7.51222690500663E-06	-1.05355426764144E-06	0.999199937052996	-0.0156939331487331
0.6	0.00242969339990602	0.00321856217538166	3.22845015601924E-07	3.54008958900015E-06	2.72059620712772E-07	-7.66180058931841E-06	0.999420654533753	-0.0187565444411359
0.7	0.00268465458839109	0.00324874787231617	4.16708166306875E-06	5.03453716741707E-07	-3.89571768062428E-06	-2.81128238808024E-09	0.999024305541811	-0.0218561369262539
0.8	0.00301048800448313	0.00331755801971835	-2.8876022195868E-06	2.96532134397689E-06	-6.8222933309095E-06	1.32173436704104E-06	0.998714753179291	-0.0241180764488064
0.9	0.00328689361827617	0.00329127550004166	6.03751835697782E-06	8.97538901561365E-07	-7.34271666144142E-06	-1.83059429871621E-06	0.99840503723396	-0.0265826264445075
1	0.00335592872109546	0.0031774239960103	2.36062039517906E-06	2.94362446053788E-06	-9.0431565035994E-06	-2.58421721418427E-07	0.997814094233344	-0.0280543879337519
1.1	0.00338722947358018	0.0032186465920488	6.43829949076116E-07	3.55849598113361E-08	-5.3001885712599E-06	1.40281894202194E-06	0.997530984540485	-0.0297335505933018
1.2	0.0033334234393775	0.00288193247761796	-5.2924488955731E-06	-3.28917906948389E-06	-1.11809356853019E-05	-1.26549547856831E-05	0.997012040759471	-0.0305992535629448
1.3	0.002963945621251	0.00227189168062204	3.04903266448211E-06	3.10315419279628E-06	6.95685992821462E-06	-4.08321784725915E-06	0.997313746579691	-0.0314213133579465
1.4	0.0025577577471961	0.00156660169860532	-2.79877490795735E-06	-1.11348194313527E-06	5.71224798161262E-06	6.24490408037384E-08	0.997356843201956	-0.0336277314589415
1.5	0.00235647155922747	0.00134968051004758	1.24038376563837E-06	-2.5337093501242E-06	8.01999741569188E-07	2.51210091870764E-06	0.998048370991043	-0.0371298016368455
1.6	0.00256266259097055	0.00146289483282367	-9.33865254548078E-07	-6.41675314287619E-06	3.18576205247989E-06	-4.2447591523625E-06	0.997769609537042	-0.0407858710293483
1.7	0.00287100338186503	0.00158083543506985	3.406481926044E-06	6.33037034215827E-07	2.23592158763732E-06	3.8532414757321E-06	0.997961993157893	-0.0434185970097228
1.8	0.00314182657900242	0.00173943371375294	-2.37786884586409E-06	2.8989523729482E-06	-1.01511981096461E-06	-3.99866245699694E-06	0.997783339418656	-0.0461743081161553
1.9	0.00334814864026328	0.00170576520092432	-3.73354097134997E-06	-1.759947836507E-06	5.63152252683959E-06	3.02725183431388E-06	0.997563158950005	-0.048487746549879
2	0.00338331394686439	0.00179897913845018	-6.17810136902173E-06	-5.75144219533767E-06	-2.07892420783795E-06	9.15613366703036E-06	0.996844634093651	-0.0509640202379291
2.1	0.0035550604087397	0.001851408665337	1.17218594711664E-06	4.60710054510895E-06	4.48365963779435E-06	3.99228683083935E-06	0.996844179526394	-0.0530486620791046
2.2	0.00362720176220014	0.00183708376054211	6.56441086244481E-07	9.07135233608944E-07	-3.62978862061037E-06	-1.09420924817244E-05	0.996938247317605	-0.0555316750239348
2.3	0.003637391171145	0.00173775143018084	-2.28612071175282E-06	3.56136166495937E-06	-5.35249822990606E-07	-2.79716918977343E-06	0.996577284325513	-0.0574470759787371
2.4	0.00351826363807557	0.00158644823556915	-1.55733093362051E-06	-1.45634168268608E-06	1.28475376201031E-06	-9.9914153029751E-07	0.996431945521152	-0.0605326502900823
2.5	0.00311376945854273	0.00152310229344034	7.79239465952214E-06	4.06189530803612E-06	-2.34885841452996E-06	-7.23230719623666E-06	0.996032210699982	-0.0626352991936363
2.6	0.00287341756137419	0.0017978221698686	4.87405959858216E-07	2.11845747350871E-06	-1.46722772071781E-06	4.68882056849292E-06	0.996067033102562	-0.0654057829641873
2.7	0.00286816685301894	0.00209508196916984	-7.86974461045744E-06	5.24513427955131E-06	2.53659407165528E-06	9.72558132622517E-06	0.995833650331821	-0.068335429853988
2.8	0.00310058429957021	0.00238438360311675	-7.74689989593524E-06	7.96126807588749E-06	6.02257908541915E-06	1.99275083628467E-05	0.996015535520191	-0.0702984914908535
2.9	0.00348045229109783	0.00245997038676562	-1.19044985141027E-06	8.60737312496518E-07	-8.12487093648963E-06	-2.96235010140583E-06	0.995794644542315	-0.0723142472051554
3	0.00382904837362164	0.00253749139730762	-6.11798657185993E-07	-4.47505356938338E-06	-2.18413941958518E-06	6.44372792516172E-06	0.995723785751451	-0.0747181359583328
3.1	0.00433052997344021	0.00248305571562385	-2.58986388250645E-06	8.98490153847465E-08	1.10212990412236E-05	-3.53157255337614E-06	0.995456633154544	-0.0767030830397747
3.2	0.00468212384846481	0.00227788952512355	-9.80309046323619E-06	2.55097353371962E-06	1.21691579828553E-05	4.26247421761962E-06	0.995304101047094	-0.0785033513642583
3.3	0.00492736512508496	0.00192350256712501	-3.46941217808795E-06	9.34682734252006E-07	-5.01244502290333E-06	-1.42186619434967E-07	0.99513705558306	-0.081792267577528
3.4	0.00496062798089486	0.00154041600867471	5.34956322496511E-06	4.85706740232381E-07	1.34956345266684E-06	4.46659665852736E-07	0.995101407185425	-0.083839744097022
3.5	0.00477835489585885	0.00125513830228447	2.77061380609582E-06	1.55765403485806E-06	1.31342755271353E-06	7.9218226108655E-07	0.994919512121602	-0.0866841862843945
3.6	0.0046518786573165	0.00115463495060313	-7.15051516656268E-06	-1.29833704869486E-07	1.86375311826549E-06	-3.49936603593691E-06	0.994689669697631	-0.0892704880703071
3.7	0.00452140785609937	0.00104813411740032	5.77813447973041E-06	-1.51580352383898E-06	-3.26057079082912E-07	-1.73298114985198E-06	0.994437091914929	-0.0920904199747714
3.8	0.00445929506190062	0.00100092892499214	-2.00247841579566E-06	8.78247684842976E-07	-5.19517618992965E-06	3.01559468805006E-07	0.993927307123233	-0.0941765373813173
3.9	0.00443165933317449	0.000930795075730519	-8.36779536638879E-06	1.78642680795139E-06	-4.12003506383035E-06	-1.49754369745096E-06	0.993605346144063	-0.0972491179424542
4	0.00435734882413526	0.000955202999089327	-5.82691888602767E-06	3.71143244550579E-07	-9.50599249431206E-06	-8.44786415199284E-06	0.993052198521431	-0.0981544518918693
4.1	0.00450988542907257	0.00100260598126832	-3.98619620153959E-06	4.06897166453113E-06	-1.87835354936571E-06	5.58402427349409E-06	0.99331979350632	-0.0997607908793031
4.2	0.0046625992164483	0.000868698676159572	4.61939500987318E-06	-4.38886124446377E-06	6.75639162971277E-06	7.5140831787007E-07	0.992982887808012	-0.102490270405874
4.3	0.00474725791326563	0.000670196813247359	-3.79654376585766E-06	1.12937398235017E-06	3.54938144397891E-06	-1.20850817865045E-06	0.992906216301599	-0.104573419481831
4.4	0.00466358935676421	0.000393358732612273	-3.15192670790701E-06	-4.93500699463039E-06	9.29773518793574E-07	-1.03703246624914E-06	0.992496186007788	-0.106844023873235
4.5	0.00432918850311635	0.000295069127007504	-1.39092765604052E-06	2.03160933475939E-06	2.14056107531976E-06	-8.47775819649137E-06	0.992668983980547	-0.108876039329444
4.6	0.00410445821087912	0.000347977560114116	5.40116408585041E-06	9.59717974581792E-06	-1.42031271575929E-05	9.82322148007953E-06	0.992704920724486	-0.111923546856835
4.7	0.00396465844080769	0.000405088143323005	-7.59778891701884E-06	-9.56450133075363E-06	-1.1456784266342E-06	-1.34683863684066E-07	0.992672979909422	-0.114175749814177
4.8	0.00388843306987614	0.00049174162463113	-8.74810086015058E-06	-2.68779395724177E-06	-4.38090017337163E-06	4.54615314869562E-06	0.992267847230225	-0.116885821851591
4.9	0.00393660596401042	0.000500472436352265	5.77645842251645E-06	8.31993452757108E-06	-7.2594162660993E-06	3.28239921373593E-06	0.991834618841198	-0.118829136006748
5	0.00400679029903192	0.000471866974854699	4.28152399871516E-06	-8.54877637076456E-06	-4.2957534550501E-06	-6.18384303443137E-06	0.991701915863895	-0.120424591551413
5.1	0.00433832926347936	0.000398414532554675	1.52316673482843E-05	-1.02534975309983E-05	3.49173466543881E-06	-8.73159141450297E-06	0.991788059679119	-0.121888051825523
5.2	0.00463953715778667	7.64943788713341E-05	-4.2358532937214E-06	-4.72031739505436E-06	-3.16639340366708E-06	5.24091857966757E-07	0.991478745636034	-0.12423511967474
5.3	0.00481136447947856	-0.000353102545096782	4.7798789450389E-06	3.37770618925658E-06	-9.30171994928002E-06	-4.75144329104761E-06	0.991207400447665	-0.126499978334725
5.4	0.00474263796769371	-0.000838088120786042	5.18331235735303E-06	1.20270377367265E-06	-4.78856681234682E-07	1.0463119557845E-05	0.991286441999615	-0.129257783667574
5.5	0.00434395418625794	-0.00103891096710837	-1.81312530229305E-06	-1.98288915587795E-06	8.8884568361133E-06	5.11778128458742E-07	0.991171483418568	-0.132111520380582
5.6	0.00411783382947348	-0.00108622761863107	4.24613754513344E-06	7.23527787464799E-06	-4.62616022707533E-07	-8.61900462447187E-06	0.991073551667219	-0.134796826132144
5.7	0.00380209473484071	-0.00110972489956383	2.05730721908668E-06	-7.21975082754154E-07	5.4751401194985E-06	2.4577308697557E-06	0.99080022656224	-0.137541449574826
5.8	0.00347694257795564	-0.00108010768366206	3.91517698783683E-06	1.96292824168921E-06	2.73348021419035E-06	7.84078483742788E-06	0.990482579305746	-0.13990506257089
5.9	0.00308993760970382	-0.00103636887042556	-3.78517603922625E-06	-3.0596871966926E-06	-4.70229917516337E-06	-1.78147525105796E-06	0.98975850933509	-0.142147881335829
6	0.00242781892055272	-0.000866708610546683	-2.07884286960267E-06	1.70405290177006E-06	1.043877029903E-05	-2.65665337899284E-06	0.989114258304811	-0.14306689587796
6.1	0.00204274467363608	-0.000424106938395274	-7.3332266560119E-06	-1.1097336020949E-06	-7.24426363446221E-07	-2.48618769906808E-06	0.989701033288931	-0.144030593273837
6.2	0.00182037548881592	-0.000155677034641134	-1.06341139990113E-06	1.99033585154209E-06	-3.48402012800423E-06	-5.36871914969663E-06	0.989741384812091	-0.145577252759933
6.3	0.00174169909282341	-8.50445299342799E-05	1.57807558716766E-06	2.83304634519404E-06	1.1465774121944E-06	5.9772071542763E-06	0.989562704850116	-0.147841614976004
6.4	0.0015318001638649	-0.000281342388726115	2.0695454336662E-06	5.04018554042407E-06	-3.33543541273817E-07	2.27352133494711E-07	0.989062728893735	-0.150240349832006
6.5	0.00117274946530287	-0.000258194322209925	4.67279952892048E-06	-1.87814627547637E-06	-4.69326170372337E-06	-1.55169093048825E-06	0.989046491396543	-0.152955116404684
6.6	0.00104265666760515	-0.000115952640762168	3.26419360602753E-07	-1.06991897357666E-06	9.30475603728801E-06	3.34311955420258E-06	0.98884934461104	-0.156157213503823
6.7	0.000949434311644493	7.12719995522151E-05	5.27998405915224E-07	5.61802539961015E-06	-1.79318989733133E-06	4.97805714174347E-06	0.988344949016107	-0.158804974234793
6.8	0.000865261864562011	0.000269401435490102	1.76521079051955E-07	-1.58816818487999E-06	-3.47902745320236E-06	-5.12654484309631E-06	0.987693371640055	-0.161243965462938
6.9	0.000659356297476921	0.000420047366801486	-6.65345367504434E-06	6.72448712187996E-06	2.28975421224834E-06	1.35613956310499E-06	0.98707598443079	-0.163430454257817
7	0.000304591901364366	0.000892830352088312	8.08737824850379E-06	3.16914051093012E-06	4.57183333011221E-06	5.86970253977502E-06	0.986321158679311	-0.164952082261565
7.1	0.000230448373297899	0.00146561946732459	1.39689858011027E-06	7.84761097682159E-07	-2.27327487823557E-06	-4.48086074427806E-06	0.986071784493769	-0.166649092134221
7.2	0.000230929959431464	0.00195319100834742	-1.38140739951788E-07	4.4013663008803E-06	-5.01510746802415E-06	-6.6137538526353E-07	0.985431331383349	-0.168620582124961
7.3	0.000223307892193122	0.00236358719630904	1.35568085584794E-06	-5.26788093297688E-06	-2.34891958153674E-06	-2.79302265581149E-06	0.984381438208727	-0.170606660972659
7.4	8.24963633747587E-05	0.00257212464036192	1.83787429198198E-06	4.42629461849716E-06	-7.28487431114346E-07	-1.07053285504126E-06	0.983246527391359	-0.173261331133695
7.5	-0.000410286365007132	0.00290979026533349	-5.74669959004115E-06	-1.49057461388613E-06	-1.58257703274119E-06	-8.90754020670269E-06	0.981594606326693	-0.175700407038246
7.6	-0.000557612658107787	0.00348042340070634	5.62808887542007E-06	-3.39097399304151E-06	1.02422832474459E-06	3.19285057269749E-06	0.980901672490538	-0.178130477061442
7.7	-0.000658940706321016	0.00388926479222932	-6.51107564050379E-06	-2.86220644893318E-06	4.38357489122521E-06	5.67402330721815E-06	0.980532750960062	-0.18116516560951
7.8	-0.000521232039673083	0.00409031512041235	-1.08801981302833E-06	-5.36043991083742E-06	-2.12736427053829E-07	1.14471439647738E-06	0.98030075813901	-0.184327442893942
7.9	-0.000373259874176913	0.00417226111334005	-3.34327262961383E-06	7.21817710808356E-06	4.6560642037975E-07	-6.88559622966717E-06	0.97993131257214	-0.187489487118175
8	-0.000225049944905106	0.00450277282429037	-2.28010471814184E-07	7.38780888341052E-06	1.76947642942671E-06	-4.46049171027722E-06	0.979504415913073	-0.189974129609418
8.1	0.000231964554576196	0.00480564908597529	-7.4330305259396E-07	-6.47008171690573E-06	-1.75005283348241E-06	-1.062825965181E-06	0.979366159415773	-0.192805689216187
8.2	0.000654521140125195	0.00499211546500635	-3.82766128919569E-06	1.65591511898167E-06	-1.09772763515446E-05	-2.60783815839119E-06	0.978974386828571	-0.19546162575489
8.3	0.00102366916725867	0.00511618538605712	-5.5576607944714E-06	-9.85874327744857E-06	-7.78716202553875E-06	3.02759788838292E-06	0.978199213289329	-0.198259570239464
8.4	0.00122383060524106	0.00524263865455884	6.76799998342846E-07	-6.10800119242751E-07	-1.41627860354583E-06	4.41762740684708E-07	0.977289788788422	-0.200911652952204
8.5	0.00123734809644109	0.00566060948026906	-1.75356036312629E-06	-2.55671361800313E-07	-6.28870977292229E-09	1.80453547495813E-06	0.976521822332039	-0.203660625758603
8.6	0.00160429613511017	0.00624890176635378	2.4233015180799E-06	-3.97607400060555E-06	-4.57186734448185E-06	-5.91854454461252E-06	0.975849631917467	-0.206350720246805
8.7	0.00217397264078927	0.00672287386481811	-1.50117999834953E-06	-2.09263934541997E-06	-3.55375903467014E-06	3.64196988917315E-06	0.975248814584486	-0.208870596855811
8.8	0.00293087970170803	0.00704342952582569	-5.49880288693417E-06	-2.11437327192993E-06	-7.23399463949547E-06	-1.26104111025342E-06	0.97470987649454	-0.211071788567437
8.9	0.00376863495605985	0.00698071382680323	8.55879823944497E-06	4.0868259465031E-06	-1.41389233140763E-06	3.20067512751662E-06	0.974635950541472	-0.212981168277929
9	0.004414582201615	0.0068109843035547	-4.95372726793233E-07	4.1610378028114E-06	-7.81562478803107E-06	1.23789441315863E-06	0.974491145123855	-0.215228536648452
9.1	0.00524236222725963	0.00653125612586477	-2.54824040564161E-06	6.63602230242242E-06	4.10007798212741E-06	-3.08503844864957E-06	0.974249440069589	-0.217380772094925
9.2	0.00596331490007668	0.00600233485511201	-1.17247996427308E-06	3.42458130281581E-06	-2.24730833370325E-06	-2.05471419630943E-06	0.973893823837457	-0.220008701339234
9.3	0.0065102821109022	0.00536249368334004	2.31987367671935E-06	-4.04226634053172E-06	-7.94856144644826E-07	-1.77937101940692E-06	0.973488841892728	-0.222743839508357
9.4	0.00678924334380905	0.00462352566959314	-1.79406101513076E-06	3.89706014711065E-06	-2.07189456542376E-06	-3.57606269702018E-06	0.972737481677459	-0.225942122978054
9.5	0.00676072888843266	0.00436727574706526	3.501774328633E-06	6.28703815641724E-06	3.63564049476313E-07	-2.14930580866401E-06	0.971609692687925	-0.228819101417082
9.6	0.00691977618235628	0.00419902629481803	4.62684861721914E-06	7.06805216633908E-06	-8.21052523857995E-06	1.28050917610948E-05	0.970758000957761	-0.231841850714423
9.7	0.00712713509864333	0.00406467596638844	-2.88219202801922E-06	-1.52965270432192E-06	-1.39036176736881E-06	-3.96725048117978E-06	0.969910984066074	-0.234409552272371
9.8	0.0073862784508241	0.00386799685279262	1.25977146850089E-07	-3.59452144455707E-06	3.04663570182652E-06	2.39566254390576E-06	0.96940496002383	-0.236498329329425
9.9	0.0075473071454701	0.00361880573977032	5.79533684057723E-06	-6.20060850332313E-07	-2.55948038878237E-06	6.7259399113874E-06	0.968613815351069	-0.238304724966942
10	0.0075152405673571	0.00354735258125949	-1.14107214465626E-06	-5.77547203597304E-07	1.36223659043969E-06	-1.18664128482076E-06	0.968176216031254	-0.239505276046409
10.1	0.00779996903431667	0.00359218280577418	7.06814771299955E-07	-8.41385777353676E-06	6.15437216573552E-06	3.60064417838054E-06	0.967760173335075	-0.241352023827681
10.2	0.00825899632470693	0.00350888615669147	7.49589562778288E-06	8.30820500520003E-06	5.22386780219144E-06	3.52420683731002E-06	0.967058387662811	-0.242762351804604
10.3	0.00880075373789473	0.0032000245394199	1.74998704621313E-06	-6.95128433338047E-06	1.4266957708932E-06	2.86410464424489E-06	0.966247484458631	-0.244401863391436
10.4	0.00923911806317166	0.00262449024758483	-4.02387776077138E-06	-3.63318555732313E-06	1.94895542865122E-06	-5.59079348422208E-06	0.96537528346718	-0.246166372705887
10.5	0.00941960478041929	0.00222755753390839	3.71551398999192E-07	-7.0598858079279E-06	-5.72301786156104E-06	4.07060124651527E-06	0.964986198894595	-0.248405473918983
10.6	0.00984461317788617	0.00189373464215609	5.4877966189432E-06	6.72625741053853E-06	2.43228336671959E-06	1.19153947260599E-06	0.964343794174484	-0.251043921196949
10.7	0.0103452413702281	0.00149246505739334	-7.07089835664146E-06	-1.68476517027822E-06	-7.71645041113572E-07	1.55841717795075E-06	0.963762711354533	-0.253779637217552
10.8	0.0108829396363465	0.000865613322148728	1.48728109477658E-06	4.43764786474379E-06	9.40272907857132E-06	-4.46918741831921E-06	0.96310003033326	-0.255962363927522
10.9	0.0111584841620381	6.27931750235446E-05	3.28141497616953E-07	7.41332078847484E-06	-5.15799403631078E-06	2.09813858489028E-07	0.962719088266661	-0.258050572539342
11	0.0113117268534296	-0.000513860363933321	-2.2249467973711E-06	-3.8208413257563E-06	1.20287462889419E-05	-3.55774174291082E-06	0.962056963953067	-0.260002116515504
11.1	0.0117287966627936	-0.00110905749752266	-6.1128719462248E-06	-4.92860743539028E-06	9.50370955517955E-07	5.57287090223332E-06	0.960908139114881	-0.261765522265646
11.2	0.0122198017252312	-0.00197592583495467	3.31250141729736E-06	4.30196938699202E-06	1.06283470765599E-06	-7.8724982471829E-06	0.959721018167274	-0.263282603649521
11.3	0.0127214091093451	-0.00322736528589209	7.12750779927489E-07	-2.65644865320098E-06	-4.83944446076732E-06	9.11031596318823E-06	0.958946475892778	-0.264798997790952
11.4	0.0127756011798506	-0.00477214631672855	1.47697151942564E-06	-2.20164116127409E-06	-3.00800412486685E-06	-7.43598623806978E-06	0.957867501098008	-0.267032864819371
11.5	0.0123620010208125	-0.0061582874951122	9.47754424427997E-07	-1.00917370145273E-06	-9.01296183890762E-07	-8.71272437141722E-07	0.956737424547612	-0.269268193722042
11.6	0.0119823967528842	-0.00756114586947419	1.1225694344671E-05	-3.26942743858437E-06	-5.41820384453379E-06	-6.83348313906337E-06	0.95576201599195	-0.272580239101808
11.7	0.0113972236855044	-0.00904716879219349	5.32776631688265E-06	-2.89482403971198E-06	-4.41063943369753E-06	1.65013123993317E-06	0.954522172481639	-0.275821012942309
11.8	0.0105748017042607	-0.0104980458294349	-4.49893227321041E-07	-2.5475201660303E-06	1.05809249897975E-06	1.32609119486012E-05	0.953556212048248	-0.278985101021464
11.9	0.00946396890473284	-0.011850267698672	3.32208059970353E-06	1.99047040110306E-06	-2.20096759768811E-08	1.27292579371728E-05	0.953212105171214	-0.280984668925044
12	0.0080439375928791	-0.0127379780372048	2.0019601947562E-06	4.85672611203839E-07	-3.69565090572688E-06	-9.73280779637763E-07	0.953455906865084	-0.283124169331414
