# GHZ S RI R 50
0.2	0.000100908220324511	0.00201208903085052	6.32614374422317E-06	-9.92468866236028E-07	1.06688388587822E-05	1.05555544012639E-05	1.00210945931902	-0.00573822625034528
0.3	0.000915787999609749	0.00223416564599882	5.82506987694413E-06	5.06654353023478E-06	8.11670397347723E-06	2.98089136619367E-06	1.00253624298442	-0.00871939015566967
0.4	0.00146240029995814	0.00278941444590937	-2.73219335361513E-06	7.90077333708097E-06	-4.76812008306478E-07	-4.45120700808066E-06	1.00363834232583	-0.0114389364862109
0.5	0.00323515046251337	0.00253983256084103	2.31841823734636E-06	1.48380329211284E-06	7.54154277064864E-06	-1.06159220965476E-06	1.00424481684977	-0.0167542940395093
0.6	0.00255588311575635	0.00106245563219019	3.21155770748784E-07	3.55055503014757E-06	2.78519993866559E-07	-7.68373191229676E-06	1.00210183831498	-0.0197068699045555
0.7	0.00173738466996738	0.00150615401018928	4.18306188590945E-06	5.11336226105657E-07	-3.91131588236076E-06	-8.30673108913331E-09	1.00189198783923	-0.0214088456853363
0.8	0.00146854538900617	0.00207204490800523	-2.90629706718386E-06	2.97625211307944E-06	-6.85854117955615E-06	1.31889326089602E-06	1.00228182594739	-0.0230049022510173
0.9	0.00100535589473014	0.00307245928586616	6.07416324797859E-06	9.10577941204601E-07	-7.38637435468068E-06	-1.85107281598863E-06	1.00285812191143	-0.0246400278025677
1	0.0026349881849045	0.00499924665527494	2.37910004028276E-06	2.96484213135661E-06	-9.1106134005958E-06	-2.57609428259092E-07	1.00525169278832	-0.0261980098927281
1.1	0.00406705125687769	0.00297395776412523	6.48067028067901E-07	3.49711646648932E-08	-5.33284272176123E-06	1.41890871966044E-06	1.00494616491474	-0.0313430014145814
1.2	0.00313159078407051	0.00170518560199856	-5.32970546609853E-06	-3.3007841669673E-06	-1.12686273239942E-05	-1.2714058345007E-05	1.00271636643558	-0.0334548864904903
1.3	0.00193389313982541	0.000470945811836265	3.07213809906586E-06	3.11220189567573E-06	6.98355874134592E-06	-4.12068922482316E-06	1.00089677425216	-0.035482151969641
1.4	0.000676058893608211	5.70289843009573E-06	-2.81342989895434E-06	-1.10995925201381E-06	5.73578185208706E-06	4.62234289334961E-08	0.998732953586509	-0.0375923635909858
1.5	0.00153370979184054	-0.000362265535967406	1.23858782321353E-06	-2.5470333870806E-06	8.11830647901876E-07	2.51993010548656E-06	1.00007241571178	-0.0407112527877856
1.6	0.000422639072868691	-0.00070513771090157	-9.56017091363474E-07	-6.44514039189434E-06	3.18945717724258E-06	-4.27399773530108E-06	0.999379186117766	-0.0441915793721543
1.7	0.000562157918830739	0.000652982363402371	3.42721428501347E-06	6.26066767704569E-07	2.26008745789691E-06	3.86762696970751E-06	1.00054305808073	-0.0457085000342616
1.8	0.00117871456313045	0.00164221461079712	-2.38253566153856E-06	2.92330101282311E-06	-1.03363815361877E-06	-4.01869216849132E-06	1.00131431736442	-0.0478277419857084
1.9	0.00207188406764302	0.00271021526206567	-3.76075892960015E-06	-1.76309710212539E-06	5.67336752292843E-06	3.03434584097306E-06	1.00248157213332	-0.0483327139565295
2	0.0046798914588919	0.00250503691857478	-6.25332133220213E-06	-5.79684021589606E-06	-2.0805498413076E-06	9.25384891896563E-06	1.00789659120889	-0.0517226023981924
2.1	0.00424387475354179	0.000320932329441522	1.21264791422782E-06	4.64630641640121E-06	4.55371716770122E-06	4.00470762471981E-06	1.00651039879963	-0.0598177285525002
2.2	0.00328380174993439	0.000261922653883458	6.68495469867164E-07	9.10400955434821E-07	-3.73799464349158E-06	-1.10115527363989E-05	1.00415369357552	-0.0626693322685599
2.3	0.0026276778066132	0.000486364680220421	-2.27862530750026E-06	3.60739819209241E-06	-5.60244142418425E-07	-2.81615631221598E-06	1.00292297264791	-0.0643802621705489
2.4	0.00196790768421315	0.00143427539816424	-1.58183912578755E-06	-1.45542279128574E-06	1.28700287319626E-06	-1.01772664629357E-06	1.00250086986491	-0.0673372495651223
2.5	0.00350439214547575	0.0026901934343354	7.88373318110764E-06	4.01499337116062E-06	-2.43369090751054E-06	-7.25872289299117E-06	1.00257960300555	-0.0700542867694652
2.6	0.00413225752941407	0.00105204451065842	5.08329544924019E-07	2.12641920677966E-06	-1.43549944912016E-06	4.72823384573187E-06	1.00193297162914	-0.0738375995452699
2.7	0.00362272203485884	0.000555525177220722	-7.87435846259948E-06	5.34540902102318E-06	2.63571369694713E-06	9.76502502361124E-06	1.00139390800447	-0.0774327424860512
2.8	0.00320465662617791	0.000526659850065231	-7.72302206464184E-06	8.08578906988686E-06	6.24841806246793E-06	2.00013703500971E-05	1.00095269187242	-0.0803163614051195
2.9	0.00317214813168803	0.00114726625262625	-1.1886330922408E-06	8.78556219901002E-07	-8.20573762421846E-06	-2.89468389595155E-06	0.999813726706653	-0.082871590298094
3	0.00481910255422851	0.000992072801960579	-6.62886960826331E-07	-4.48800466000577E-06	-2.12398009524775E-06	6.49553572430355E-06	0.998991442518835	-0.0857955529972035
3.1	0.00421324070180153	-0.000450665585077046	-2.60070168125862E-06	1.17269763385473E-07	1.10345735765921E-05	-3.66258099542602E-06	0.997411157265702	-0.0884049259711724
3.2	0.00357988475697028	-0.000269429744794944	-9.81450101568107E-06	2.67315805276373E-06	1.22679385739844E-05	4.14146555606944E-06	0.995907135814871	-0.0902613629630834
3.3	0.00327485422320599	-3.40645729717814E-05	-3.46832721336124E-06	9.8044838599656E-07	-5.02935124269168E-06	-8.05767218307715E-08	0.994257176666517	-0.0936253439297179
3.4	0.00314361718004664	0.000774841413254952	5.36054598550798E-06	4.15413318651639E-07	1.35661828373446E-06	4.29202828418798E-07	0.992129216610889	-0.0951941668172534
3.5	0.00483632731869346	0.00079129025739188	2.78385585954342E-06	1.52512955005901E-06	1.32029439186693E-06	7.76689450637264E-07	0.991593454604317	-0.0955452270269176
3.6	0.00413637327967455	-0.000911018707346114	-7.15242961865074E-06	-5.46874019676232E-08	1.82711595032902E-06	-3.51922429522471E-06	0.992084512736755	-0.0989183708746407
3.7	0.00300673602127866	-0.000638739515220108	5.75825622661362E-06	-1.58145340622753E-06	-3.45802118053858E-07	-1.72849446868398E-06	0.990710283210929	-0.101924363504287
3.8	0.00252289191746879	0.000167547836545403	-1.98928007524382E-06	8.99990040613717E-07	-5.18372988156504E-06	3.60999798992943E-07	0.989318194166954	-0.103218927972627
3.9	0.00281328007988182	0.00155648796255942	-8.33197794751923E-06	1.86818552514398E-06	-4.12669084894419E-06	-1.45229918059072E-06	0.989423091809868	-0.104127591473413
4	0.00539231252410401	0.00171789763468461	-5.82689203000882E-06	4.32323723067351E-07	-9.60062398753477E-06	-8.35404334951934E-06	0.993956092124123	-0.106516415589538
4.1	0.00537717245046158	-0.00041195238064111	-3.92653518030252E-06	4.11884681407735E-06	-1.80033967431387E-06	5.60358447965172E-06	0.991121481407108	-0.113348590169493
4.2	0.00469240743679497	-0.000777615263414006	4.5455702263738E-06	-4.4367813810365E-06	6.74473326822388E-06	6.58234494302217E-07	0.987564238167863	-0.115606248284977
4.3	0.00429330732804372	-0.0007143241686172	-3.76565998966463E-06	1.17421008029544E-06	3.51851259170232E-06	-1.24977718695549E-06	0.986040519554246	-0.116854503529321
4.4	0.00411976979275446	3.79121131212904E-06	-3.20365421340589E-06	-4.86878862449573E-06	9.11300468670596E-07	-1.04466162772205E-06	0.985021518565773	-0.118640307462632
4.5	0.00609402431348269	0.000121507144601021	-1.34927609324297E-06	2.03709728386701E-06	1.99502691038928E-06	-8.44490528788741E-06	0.984010643987607	-0.122131448155499
4.6	0.00562909072512268	-0.00222146651287421	5.46423526381917E-06	9.42754150601234E-06	-1.39291172403375E-05	9.89713762051023E-06	0.980550698156545	-0.124192469748109
4.7	0.00440995584768265	-0.00258433078058644	-7.62083095681135E-06	-9.37786011922183E-06	-1.13479455038515E-06	-1.20649705792933E-07	0.979329424503938	-0.124708846344659
4.8	0.00351411345804069	-0.00238953193616995	-8.67997024770548E-06	-2.56780771594644E-06	-4.28582009790857E-06	4.54162186755774E-06	0.978210765927673	-0.126198398410193
4.9	0.00306322242773483	-0.00143605427409581	5.79639628177888E-06	8.16320444878227E-06	-7.14101845776136E-06	3.32016472122437E-06	0.977071834361177	-0.127067112383846
5	0.00484023565479861	-0.00146366895899188	4.14035812809178E-06	-8.47013796828272E-06	-4.29461942065257E-06	-6.05659138210412E-06	0.976391476573588	-0.127819148538011
5.1	0.00389439520683159	-0.00309911373850925	1.4949530569445E-05	-1.0225133267286E-05	3.38048016569013E-06	-8.63824668817305E-06	0.975573740218723	-0.128302237513023
5.2	0.00308489093343846	-0.00268721927985278	-4.21255309903611E-06	-4.62726417930852E-06	-3.12034475387438E-06	5.3945296683951E-07	0.974867032597421	-0.129457315194191
5.3	0.0029978263297686	-0.00213500026256222	4.7377545061343E-06	3.29615140454508E-06	-9.20658188687472E-06	-4.61809195813753E-06	0.974192429808147	-0.131097014239695
5.4	0.00345358941161067	-0.00114761277284951	5.11000568663664E-06	1.14461725326646E-06	-3.92566482019009E-07	1.03004855447444E-05	0.972841485177634	-0.132952920830383
5.5	0.00611254585273994	-0.00202481549752869	-1.78745536283183E-06	-1.93881476842037E-06	8.7256080795399E-06	4.66563619213777E-07	0.972905142851466	-0.133004810578361
5.6	0.00439503333756916	-0.00464950043495551	4.19048561198623E-06	7.10801234282852E-06	-4.71877275246215E-07	-8.4763933527157E-06	0.973242716680014	-0.13580642021219
5.7	0.00250416705435875	-0.00425601059637174	2.02274369435731E-06	-7.1361849075136E-07	5.39030596938584E-06	2.40890856841709E-06	0.972041732378437	-0.137314811733315
5.8	0.00133387299866345	-0.00330302217315066	3.8517168928827E-06	1.92937991920461E-06	2.69146095171035E-06	7.71133990344906E-06	0.971549329880186	-0.137427113796019
5.9	0.000569491637878878	-0.00118981502907838	-3.72143365960238E-06	-3.02195178431634E-06	-4.62756229710579E-06	-1.76500912116279E-06	0.97283673430183	-0.135948107072138
6	0.00349408799721242	0.000646987044059988	-2.0583709504623E-06	1.68546894358407E-06	1.0332911457131E-05	-2.62394701450579E-06	0.979888993290425	-0.139139241780463
6.1	0.00416955811449005	-0.00201751271060218	-7.23993122794707E-06	-1.07592364358655E-06	-7.21448808970125E-07	-2.45166831421329E-06	0.976761069371486	-0.146244740477214
6.2	0.00298411818190639	-0.0028185757554534	-1.04522580851196E-06	1.96159808052277E-06	-3.43759685996347E-06	-5.28417213565486E-06	0.973269625820433	-0.146656514603929
6.3	0.00191317512480001	-0.00289857429740473	1.55229232636506E-06	2.79111643644015E-06	1.1252816841972E-06	5.88731539622075E-06	0.971832536396529	-0.146648607217735
6.4	0.00146774676442531	-0.00189847016954498	2.03488730643776E-06	4.97282339838475E-06	-3.29193139124572E-07	2.23806318327763E-07	0.97247690124895	-0.147009997717358
6.5	0.00342361026225349	-0.00301650621030837	4.59586997307168E-06	-1.85637944252398E-06	-4.62179343921846E-06	-1.5192818137016E-06	0.972146915803947	-0.152840157179071
6.6	0.00110078779087307	-0.00463156380528735	3.22301949229768E-07	-1.04852287609047E-06	9.11764132679271E-06	3.29754287298185E-06	0.967194583685124	-0.152255502374145
6.7	-0.000142076945418972	-0.00366293617030715	4.89191675651599E-07	5.51570936039874E-06	-1.78530323418226E-06	4.87575095091334E-06	0.967723438366278	-0.150614103134437
6.8	-0.000826247686077624	-0.0026294435144153	1.84466105151391E-07	-1.55874681829691E-06	-3.38151433161699E-06	-5.05981647613278E-06	0.968641684769989	-0.150571480019004
6.9	-0.000863957174199891	-0.000476160789915181	-6.59751124553221E-06	6.55567229357467E-06	2.23986277710859E-06	1.35240983223931E-06	0.970056991206446	-0.150146410748462
7	0.00276835065213645	-0.000431450456088211	7.92782894541209E-06	3.19476621733896E-06	4.44310686166135E-06	5.81883336997716E-06	0.973693831192399	-0.152116432528259
7.1	0.00118073904775723	-0.00335258473349231	1.3676677681092E-06	7.87173631882757E-07	-2.19287223124381E-06	-4.4361918074107E-06	0.972095380870472	-0.155730812660968
7.2	-0.000829337779377064	-0.00282637932219912	-1.83238262208949E-07	4.33464535962383E-06	-4.93368444894576E-06	-7.05291104626287E-07	0.970433842309758	-0.156220327332881
7.3	-0.00236580268581186	-0.00169363704277518	1.39318678336575E-06	-5.17262330936504E-06	-2.28227894316866E-06	-2.77639075825045E-06	0.968648674316821	-0.156481530785591
7.4	-0.00378084093059915	0.00102497423485266	1.75039896336145E-06	4.37026368255133E-06	-7.02277009723965E-07	-1.06049517254945E-06	0.965621230444481	-0.154825039069619
7.5	-0.000694114225613929	0.00372711673323093	-5.6165484350847E-06	-1.57645805902083E-06	-1.38098394787617E-06	-8.78174279368973E-06	0.970329279772032	-0.149256952531121
7.6	-0.000305359111040693	0.00168320907287899	5.6281396715381E-06	-3.23524390322478E-06	9.46877695330746E-07	3.17461549835723E-06	0.975794065607682	-0.155471045285612
7.7	-0.00111765177549587	0.00199271108109052	-6.38266047884137E-06	-2.9614880966277E-06	4.22201161388761E-06	5.69997990510245E-06	0.97594960895776	-0.15982349518148
7.8	-0.00115132836328854	0.0027171114563517	-9.63325601035487E-07	-5.33001683284949E-06	-2.34920284812751E-07	1.12876622530813E-06	0.976438300792442	-0.162153439853607
7.9	2.49218420173353E-06	0.00395685401193844	-3.49285998437979E-06	7.07931183638226E-06	6.29918565636634E-07	-6.81958527997473E-06	0.979150508935837	-0.162329364770821
8	0.00341780321031437	0.00186899792062416	-4.12121041124681E-07	7.38275502241285E-06	1.88077438872809E-06	-4.4167784899347E-06	0.988145538467147	-0.168597458726128
8.1	0.00134589990978531	-0.000627575936440596	-6.14026963016789E-07	-6.49398801787065E-06	-1.73106552448476E-06	-1.09953877808633E-06	0.984586252168574	-0.178108591267238
8.2	-1.95810793711538E-05	-3.60251536887429E-05	-3.8648575969221E-06	1.58290214673656E-06	-1.09396902242792E-05	-2.82631258039675E-06	0.982129467457409	-0.179874135528616
8.3	-0.000778371288890979	0.000936284974728488	-5.37912278963344E-06	-9.99150045242793E-06	-7.86545554500975E-06	2.8832085060657E-06	0.981709091047966	-0.181636690297402
8.4	-0.000845687120358508	0.00328289994320932	6.90550080308406E-07	-6.01275859870346E-07	-1.43011349115285E-06	4.18321425831371E-07	0.982331111781895	-0.183830312685007
8.5	0.0030420437672245	0.00379147477289904	-1.75235816842889E-06	-2.83666486199142E-07	-3.46846989627687E-08	1.80733810704017E-06	0.982641238335206	-0.188216627661019
8.6	0.00220998980178787	0.000976887282854462	2.50444350988546E-06	-3.93504998661196E-06	-4.46372805102995E-06	-6.01668710503448E-06	0.981453040806492	-0.190360047637548
8.7	0.000725153354091309	0.00145953528950482	-1.46519602695889E-06	-2.13267910233705E-06	-3.64406186011139E-06	3.58576547454503E-06	0.98231923188319	-0.192264679496042
8.8	-7.08333359979723E-05	0.00267147462809599	-5.49624167752748E-06	-2.23940925274337E-06	-7.26098411799516E-06	-1.41456797966145E-06	0.983395260406899	-0.194691371534536
8.9	-9.09216299434018E-05	0.00515303242835839	8.56613024206167E-06	4.27957975819729E-06	-1.48489324587515E-06	3.20547750754671E-06	0.984585155556405	-0.197116289206598
9	0.00395925353288591	0.00642393874537301	-5.69233337295091E-07	4.18717089627214E-06	-7.90106307164699E-06	1.117108917384E-06	0.985726685958558	-0.199472729524217
9.1	0.00475283535374894	0.00419764715727992	-2.69230010059534E-06	6.65700993912473E-06	4.19626621336415E-06	-3.04272430893695E-06	0.986981711829797	-0.202470755465129
9.2	0.00522149830147485	0.00387396774051587	-1.24280174695323E-06	3.44384816881585E-06	-2.23854405792086E-06	-2.11542192939572E-06	0.987402922180042	-0.206161260179272
9.3	0.00591699443936861	0.00341558055237388	2.40824155482785E-06	-4.05254650767383E-06	-7.76570792888788E-07	-1.81176663015239E-06	0.986942008315688	-0.209816774135976
9.4	0.00690014542033397	0.00383708576461454	-1.86831242998151E-06	3.90919275450064E-06	-2.04022095499912E-06	-3.64125349323915E-06	0.985334463588767	-0.212195491846175
9.5	0.0100010438212427	0.00165964026988035	3.41743909580009E-06	6.4067752412171E-06	4.06181154078443E-07	-2.1616255780999E-06	0.987333914249704	-0.212722718185313
9.6	0.00792738797779381	-0.0013189195583064	4.5567178107826E-06	7.24594212519911E-06	-8.55447513150874E-06	1.28207512954332E-05	0.988992872700374	-0.218809482973675
9.7	0.00636277841756679	-0.00117727201593651	-2.89783620015046E-06	-1.60099383905505E-06	-1.342799647185E-06	-4.04844141552676E-06	0.988312391788903	-0.222712272587213
9.8	0.00541873294824829	-0.000507424428929956	1.88531241067114E-07	-3.64758907234691E-06	3.0530137157898E-06	2.4838267648848E-06	0.98818621776083	-0.224696616438466
9.9	0.00518251700678594	0.00151623490503778	5.91167693510099E-06	-5.24034080781053E-07	-2.7302617554992E-06	6.80027951062475E-06	0.990256873981072	-0.224180449200118
10	0.00886983688368741	0.00173292260975731	-1.16153496018149E-06	-6.08415762386426E-07	1.41351236385572E-06	-1.19702268012514E-06	0.998362144294096	-0.230953357232062
10.1	0.00823754689231069	-0.00106306870822943	7.95861428956801E-07	-8.59981626603576E-06	6.26367138440722E-06	3.73617562592241E-06	0.993652668063898	-0.239574712695763
10.2	0.00713037648666774	-0.00105595638915462	7.59212214164149E-06	8.5485915442667E-06	5.30906695459792E-06	3.64254061042786E-06	0.990957301976733	-0.241285629609233
10.3	0.00659623674955905	-0.000353550338496606	1.83938134100179E-06	-7.09390327721418E-06	1.43784060293038E-06	2.93840900365394E-06	0.990064073091424	-0.243479002853137
10.4	0.00722395054553394	0.00156076182392212	-4.10290871122555E-06	-3.73911081123329E-06	2.02202027416864E-06	-5.71526552246893E-06	0.990276833847802	-0.24677379099614
10.5	0.011408984984779	0.00104060188787596	3.80847770694705E-07	-7.20903530279227E-06	-5.84481772051916E-06	4.15547226885941E-06	0.98878811137886	-0.253629803808715
10.6	0.0114270585935683	-0.00192289280452224	5.57965234476485E-06	6.86753542207615E-06	2.47673479594654E-06	1.21961743101809E-06	0.985441042462916	-0.255964997790419
10.7	0.0111666088689913	-0.00294454303690001	-7.21521711145984E-06	-1.73129788836602E-06	-7.90226569864307E-07	1.58957412395287E-06	0.98511510348583	-0.259235720384151
10.8	0.0107263966005227	-0.00363840399990849	1.52088303939089E-06	4.53389930737127E-06	9.60631324705643E-06	-4.56908917916713E-06	0.984182454511897	-0.262672717147473
10.9	0.0108514904188848	-0.00289097644983002	3.56297637802292E-07	7.57638747482947E-06	-5.27150370175071E-06	2.28994955172944E-07	0.983651774900886	-0.265402652864558
11	0.014399164081572	-0.00431248276309928	-2.28713320330755E-06	-3.88922534641971E-06	1.22590991403477E-05	-3.6830529734747E-06	0.983758955165442	-0.268010879280866
11.1	0.0130253047265465	-0.00800012470163876	-6.26605194380675E-06	-5.00132551822849E-06	9.9838707278616E-07	5.68511093282445E-06	0.982628646819909	-0.271551838383052
11.2	0.0115056001685539	-0.00893662714956353	3.41273135200161E-06	4.36819285313488E-06	1.02850952884953E-06	-8.04487840840099E-06	0.981013512854167	-0.27474501246841
11.3	0.0101513217108704	-0.00918856426990229	7.01132624361433E-07	-2.71458188094617E-06	-4.84587129553192E-06	9.3325744363896E-06	0.978208362955515	-0.277827395952497
11.4	0.0095301812888997	-0.00815979447866875	1.47612817211192E-06	-2.25246596994561E-06	-3.13674048995143E-06	-7.52013066869086E-06	0.974009718791908	-0.279656198951192
11.5	0.01254216424166	-0.00958957610949499	9.55450201629329E-07	-1.03086757483667E-06	-9.20836794308936E-07	-8.78523665119206E-07	0.97634955530564	-0.279224521733925
11.6	0.0104164127497901	-0.0130869050728826	1.14031640476669E-05	-3.42954340660649E-06	-5.57875538413936E-06	-6.91099343389841E-06	0.976264701002064	-0.28753648159412
11.7	0.00831297805681348	-0.0134038706027183	5.3889532324497E-06	-3.00651944457061E-06	-4.46977868951068E-06	1.72941716082047E-06	0.972898276021594	-0.292865551788826
11.8	0.00709447295417195	-0.0129311869941738	-4.87790592399277E-07	-2.58403679930861E-06	1.23424796715295E-06	1.34663651182426E-05	0.970077514186846	-0.296217921489303
11.9	0.00803812534576997	-0.011312440129033	3.40245393568479E-06	1.99106375039642E-06	1.11702583558256E-07	1.29571059827019E-05	0.97137225478325	-0.296315019619624
12	0.0116644600628652	-0.0138379594020568	2.05640147453317E-06	4.68341205331807E-07	-3.79725567836992E-06	-9.43104939969976E-07	0.977210194825593	-0.304612384860658
