# GHZ S RI R 50
0.2	0.000311697342929832	0.00362986419121073	6.30960700677563E-06	-1.00561844885796E-06	1.06706543030685E-05	1.05060703158114E-05	0.999861954797609	-0.00671143339905447
0.3	0.00102907592109429	0.00339763003236433	5.81913341000471E-06	5.04214680201806E-06	8.10076480051071E-06	2.95772246475978E-06	0.999765976229988	-0.00957084721939905
0.4	0.00156863128700174	0.00337882852065045	-2.7125374951084E-06	7.87577624263939E-06	-4.80639295501645E-07	-4.43461416658049E-06	0.999970207685628	-0.0121546288330018
0.5	0.00213723950092207	0.00332853882304708	2.30999070299696E-06	1.47994709946763E-06	7.51689915456661E-06	-1.05450494575446E-06	0.999940161759063	-0.0155338025662526
0.6	0.00241856869857781	0.00319238258658215	3.22187524825238E-07	3.54176719455706E-06	2.73922569655662E-07	-7.66521099978295E-06	0.999832746630669	-0.0185137329529164
0.7	0.00259592963199506	0.00327167689635901	4.16940184417942E-06	5.0505665849249E-07	-3.89803313015641E-06	-4.03165916211174E-09	0.999515182318081	-0.021448699899681
0.8	0.00287703405246248	0.00336807057778715	-2.89055397942157E-06	2.9665335375539E-06	-6.82752440026322E-06	1.32057755272176E-06	0.999299295416363	-0.0236721168277624
0.9	0.00303593451473223	0.00348103606439491	6.04260440180989E-06	9.00050947583163E-07	-7.348691923075E-06	-1.83430322286919E-06	0.9990906920636	-0.0260253116267229
1	0.00335453708844922	0.00373735952154657	2.36316273729813E-06	2.9469722845336E-06	-9.05322025040286E-06	-2.5897581366214E-07	0.998995706008886	-0.0274439464910093
1.1	0.00360577145244311	0.00361457077516452	6.44547124973847E-07	3.55576642224165E-08	-5.30591680450634E-06	1.40492288045586E-06	0.99887866113291	-0.0294619746580537
1.2	0.00359127471230193	0.00344429651755345	-5.29999316157338E-06	-3.29289802691156E-06	-1.11976280482468E-05	-1.26704768244989E-05	0.998595287232016	-0.0302059651302958
1.3	0.00346266982541721	0.00298665306642221	3.05445463961546E-06	3.10728892067621E-06	6.96674287995493E-06	-4.09110320246324E-06	0.999299070053634	-0.0309588147330549
1.4	0.00321540035572919	0.00225177008111658	-2.80310867500379E-06	-1.11437616201781E-06	5.72052728104153E-06	6.10769366966991E-08	0.999372109248423	-0.0331852321970489
1.5	0.00320372691940952	0.00171003903180465	1.24142023031598E-06	-2.53685310148647E-06	8.03333966492815E-07	2.51489275986097E-06	0.999951244615259	-0.0368808170061581
1.6	0.00302388417530947	0.00143397031877494	-9.35827069702465E-07	-6.42255506953248E-06	3.18799777236866E-06	-4.24924581325473E-06	0.999055780444469	-0.0408502854701283
1.7	0.00309164062565105	0.00152636953737052	3.4091208805953E-06	6.32624714268432E-07	2.23853432129143E-06	3.85547036088249E-06	0.998848530822659	-0.0435664381980824
1.8	0.00320205378785863	0.00169627742625617	-2.37817800997839E-06	2.90124197653597E-06	-1.01694582833383E-06	-4.00043108224927E-06	0.998336133920972	-0.0463800932198414
1.9	0.00332798338305795	0.00181882526923096	-3.73527008457133E-06	-1.75991637202559E-06	5.63419977862037E-06	3.02734435916448E-06	0.997911488700998	-0.0484221353444443
2	0.00367524621362131	0.00191697794419072	-6.18430977104527E-06	-5.75550815972602E-06	-2.07936515368964E-06	9.16437700874759E-06	0.997964877814984	-0.0509214388137029
2.1	0.0036992785770407	0.00163892768086858	1.17677796205822E-06	4.6097129897385E-06	4.49031173775993E-06	3.99177416448537E-06	0.997640148889659	-0.0539524626671985
2.2	0.0035767770563445	0.00163761488129171	6.57580480514801E-07	9.06991623621833E-07	-3.64141967522628E-06	-1.09442177966688E-05	0.997259913244201	-0.056465821244737
2.3	0.00343851330674945	0.00159779570841816	-2.28371056555125E-06	3.56485733277786E-06	-5.38045925252198E-07	-2.79775764914741E-06	0.996672652031833	-0.0583196233560247
2.4	0.00315314491021346	0.00165829769599704	-1.55935513875312E-06	-1.45527091471887E-06	1.28418956479012E-06	-1.00079594849943E-06	0.996359850344917	-0.0612970316271335
2.5	0.00299651106713438	0.00193780307001225	7.79816520192535E-06	4.05280749659007E-06	-2.35793110224927E-06	-7.2301943727964E-06	0.995946609041181	-0.0633087692562582
2.6	0.0029106973934023	0.00204262366973161	4.89535066834505E-07	2.11768548687453E-06	-1.46219330464238E-06	4.68974481762731E-06	0.995860491963862	-0.0660603070465865
2.7	0.0028815139582152	0.00233083748547995	-7.8637879097892E-06	5.2526826859954E-06	2.54624389671278E-06	9.72221844802135E-06	0.995614991065194	-0.0689647377727923
2.8	0.00308321654032304	0.00265522761707492	-7.73733423942665E-06	7.96963305967086E-06	6.04497613140089E-06	1.99194161459965E-05	0.995761694362425	-0.0710012796263679
2.9	0.00348623983210807	0.00288701808344004	-1.18919860997341E-06	8.62264356442372E-07	-8.128185270322E-06	-2.95121071600829E-06	0.995526685149805	-0.073048600422593
3	0.00419566112759605	0.00296892646787704	-6.18005900149776E-07	-4.4729844240473E-06	-2.17438083658157E-06	6.44511221309932E-06	0.995592299926288	-0.0755280293081347
3.1	0.00467116717030197	0.00260861938149784	-2.58944034126581E-06	9.33995027958716E-08	1.10151666721196E-05	-3.54631703660073E-06	0.995413220083304	-0.0777436595487034
3.2	0.0049707013338679	0.00232635013536822	-9.79854404664228E-06	2.56627146043897E-06	1.21752120477768E-05	4.24308256633418E-06	0.995266558402401	-0.0797734714074945
3.3	0.00514874627254193	0.0018959690919489	-3.46734325698774E-06	9.40659486844333E-07	-5.01207676658003E-06	-1.33367684707831E-07	0.994971814101647	-0.0832882868891135
3.4	0.00508551282127225	0.00155912304170142	5.34837873679969E-06	4.75277164092582E-07	1.34988492956384E-06	4.43900453418998E-07	0.994584195700916	-0.0854273267100572
3.5	0.00512530065312208	0.00128366321385789	2.77075026053316E-06	1.55219774175777E-06	1.31357382553987E-06	7.8955244983317E-07	0.994232287046263	-0.0878573191171474
3.6	0.00483636660414317	0.000868819068152836	-7.14693662254468E-06	-1.20441724228171E-07	1.85821325241922E-06	-3.49996213794985E-06	0.994117690824132	-0.0905208919791185
3.7	0.0044603779853992	0.000822376518856359	5.77270063681518E-06	-1.52288687217997E-06	-3.28255956006119E-07	-1.73152856029352E-06	0.993602622876951	-0.0933132879246878
3.8	0.00426379828322841	0.000943745401062264	-1.99981288731876E-06	8.80213876607255E-07	-5.19085674050789E-06	3.08153519280273E-07	0.992852434922627	-0.0951591437762493
3.9	0.00423423681653928	0.00117218818537372	-8.35870716275358E-06	1.79323786564559E-06	-4.11793801830036E-06	-1.49211598381464E-06	0.992496524300509	-0.0976738149562938
4	0.00462984186334807	0.00132207026344799	-5.82481547546767E-06	3.75874191940004E-07	-9.51008914609085E-06	-8.43735753025964E-06	0.992961702949624	-0.0984527758173582
4.1	0.00481947552449422	0.000977017558794155	-3.97930705609146E-06	4.07273079238334E-06	-1.87024612400918E-06	5.5844208168892E-06	0.993061524814294	-0.10094337398719
4.2	0.00482167800746536	0.000757071027719206	4.61128147779849E-06	-4.39238682117877E-06	6.75368999134024E-06	7.42365170799522E-07	0.992386763194068	-0.103663448010658
4.3	0.00477628208823113	0.000568644871613419	-3.79318786683876E-06	1.13340540521402E-06	3.54605821793481E-06	-1.21219747923172E-06	0.992205778621079	-0.10566665742875
4.4	0.00458671399025905	0.000471490499842092	-3.15694699071226E-06	-4.92874341877943E-06	9.28018032460282E-07	-1.03778329775855E-06	0.991768453658916	-0.107857403023663
4.5	0.00461480779068087	0.000539740267053813	-1.3864226133591E-06	2.03226361942426E-06	2.12474552947211E-06	-8.47440711229915E-06	0.991854710147025	-0.110073194607808
4.6	0.00443981985945888	0.000242831289091409	5.40513549146594E-06	9.57760961725705E-06	-1.41719948491465E-05	9.82658865448978E-06	0.991374508900281	-0.112897518256684
4.7	0.00419878348716333	0.000210886908213703	-7.59430741053231E-06	-9.54504721787471E-06	-1.14414995175827E-06	-1.33612767832707E-07	0.991225238978946	-0.11476076969666
4.8	0.00402860824124955	0.000238343338816673	-8.73712089601272E-06	-2.67959956741664E-06	-4.3724346424613E-06	4.54194979094386E-06	0.99079170807472	-0.117222913817341
4.9	0.00394426395233104	0.000326457721616819	5.77188552262529E-06	8.30591391775408E-06	-7.24791861049088E-06	3.28086048855251E-06	0.990293211454944	-0.118989209551449
5	0.0042363453322761	0.00032579899827942	4.27176991853087E-06	-8.53541753416829E-06	-4.29019590236393E-06	-6.17206178378142E-06	0.990088197676118	-0.120421163432998
5.1	0.00431280592708994	-1.43181908567747E-05	1.52091602378652E-05	-1.02350982461173E-05	3.48751151972991E-06	-8.71731416605201E-06	0.99007924131546	-0.121699034604224
5.2	0.00436510881640879	-0.000157809435069604	-4.22902033148444E-06	-4.71475829340508E-06	-3.16216278239446E-06	5.22687495729109E-07	0.989778874205541	-0.123799062726042
5.3	0.0044859844223409	-0.000354120284901902	4.7732157237562E-06	3.37427070088965E-06	-9.28907680500387E-06	-4.7470684853559E-06	0.989597723978693	-0.125908913429537
5.4	0.0045035209916873	-0.000563959029833829	5.17591831770338E-06	1.2011532074818E-06	-4.78493195696696E-07	1.04482527347748E-05	0.98959924890866	-0.128571617133632
5.5	0.00465847677645416	-0.00081119794691582	-1.80862949298351E-06	-1.9800881305963E-06	8.87131040642477E-06	5.1552956300963E-07	0.989562874904888	-0.130946750946745
5.6	0.0042029782522627	-0.00137294414076109	4.23294417155405E-06	7.22888880247888E-06	-4.53575986819655E-07	-8.60693194222611E-06	0.989694165704245	-0.133703807646475
5.7	0.00354225983794645	-0.00134085796693711	2.05533988516779E-06	-7.18979505729291E-07	5.46553570684271E-06	2.45998229910061E-06	0.989262037767662	-0.136333261942878
5.8	0.00297344427636577	-0.00111937398050198	3.90798818647338E-06	1.9650439095189E-06	2.72090718076209E-06	7.8341688535279E-06	0.988847520255539	-0.138340101035475
5.9	0.00238628284061788	-0.000577801242587197	-3.77672173771857E-06	-3.06280324300645E-06	-4.6950072362057E-06	-1.78726164195641E-06	0.988356948099851	-0.139782556897572
6	0.00236937608389139	0.000295239442505474	-2.08161175809942E-06	1.70172747657307E-06	1.0444873646079E-05	-2.64351191849344E-06	0.989463403610983	-0.140592359230583
6.1	0.00259286578332007	0.000459537007988773	-7.33376594171732E-06	-1.11210980283146E-06	-7.23752652123996E-07	-2.48670722313167E-06	0.990238388053132	-0.142852993926256
6.2	0.00270425862140659	0.000483709850623916	-1.0635316753833E-06	1.98995463416117E-06	-3.48290873360137E-06	-5.36849519867278E-06	0.990256410599881	-0.144746950235594
6.3	0.00275623484969141	0.000163492657728253	1.57737389184488E-06	2.83275010465386E-06	1.14550101143916E-06	5.97626654687673E-06	0.990110372201361	-0.147309062229351
6.4	0.00243193488830516	-0.000191745794557564	2.06847795335223E-06	5.04074850717476E-06	-3.33600727511364E-07	2.27283404048664E-07	0.989712946795928	-0.149773631358344
6.5	0.00231959204194164	-0.000482875287263135	4.67117518189496E-06	-1.87954583199617E-06	-4.69293031715167E-06	-1.54961265593642E-06	0.989610592234926	-0.153306577302173
6.6	0.00163908404680888	-0.000775698124029079	3.26290079591761E-07	-1.06878906073921E-06	9.29483662319161E-06	3.34149095160979E-06	0.988198460364163	-0.156137956611463
6.7	0.00119735829341267	-0.000497189971537349	5.23401718697281E-07	5.61286796854814E-06	-1.79503311817565E-06	4.9718467856915E-06	0.987548866380263	-0.158109655163127
6.8	0.000868763034879086	-0.000233450505273839	1.77933513476605E-07	-1.58660235119105E-06	-3.47092032994702E-06	-5.12548554704467E-06	0.98689844249048	-0.160247030324699
6.9	0.000452279013170471	0.000217376617795819	-6.65600561253228E-06	6.71228644486065E-06	2.28659912720029E-06	1.35766974686468E-06	0.98630804731907	-0.162112918979534
7	0.000636310227061095	0.000776726601137576	8.07900374358899E-06	3.17579711726467E-06	4.56275478632557E-06	5.87094499716763E-06	0.986131764327845	-0.163692571139975
7.1	0.00024300446206183	0.000754912766518302	1.39537874251898E-06	7.85749456471684E-07	-2.26759007302851E-06	-4.48078761406937E-06	0.985571136359537	-0.165970150582396
7.2	-0.000221691161717305	0.00130594232322166	-1.41686687478437E-07	4.39912614864618E-06	-5.01214127490765E-06	-6.65172269453871E-07	0.984534295955757	-0.167966459147334
7.3	-0.000612821804770735	0.00190567308148655	1.35763259024065E-06	-5.26391459032028E-06	-2.34599281039579E-06	-2.79254317450092E-06	0.983034297210062	-0.169975233902715
7.4	-0.00121300419442901	0.00261357750858742	1.83445554538534E-06	4.42121511907748E-06	-7.27304931062833E-07	-1.06937600851476E-06	0.980921021421893	-0.172277669024897
7.5	-0.00130874132358472	0.00384569112205818	-5.73361998955313E-06	-1.49499379820857E-06	-1.56815271137652E-06	-8.89222483500725E-06	0.979302869459975	-0.172820333759103
7.6	-0.00109424188783256	0.0043970539751774	5.62579846016223E-06	-3.3773488690249E-06	1.01772985620961E-06	3.19011538960742E-06	0.979600699611267	-0.175183549768008
7.7	-0.00101968791112177	0.00504886213534676	-6.49780837953093E-06	-2.86867967510293E-06	4.36870795247836E-06	5.67335511834162E-06	0.9794368317989	-0.1780519049618
7.8	-0.000565241729214559	0.00533659362568394	-1.07707467585297E-06	-5.35545979533249E-06	-2.14499444982096E-07	1.14285868353413E-06	0.979575007188604	-0.181014435985644
7.9	-7.5565926518479E-05	0.00549761551451036	-3.35603509982411E-06	7.20301928440574E-06	4.80653566741436E-07	-6.87728301871852E-06	0.979869782100341	-0.183735364627549
8	0.000904395140392007	0.00540430887174096	-2.47227225892355E-07	7.39072856128562E-06	1.78185396819559E-06	-4.45803385218141E-06	0.981561182321149	-0.186665620336187
8.1	0.00102748427627141	0.00494276805052745	-7.34691400392646E-07	-6.4777755440778E-06	-1.75030317522513E-06	-1.06644788627031E-06	0.981341570760356	-0.191379944801409
8.2	0.00119542636213888	0.00501104559830117	-3.83348662291814E-06	1.65331496545229E-06	-1.09856929471751E-05	-2.62290513922674E-06	0.980633236517882	-0.194380181039409
8.3	0.0014003339412226	0.00506298849864782	-5.55467680622234E-06	-9.87645935761961E-06	-7.79979540961198E-06	3.02355967629574E-06	0.979887866497447	-0.19736567523951
8.4	0.00144603069958645	0.00535373348983984	6.78292890764711E-07	-6.11299928752689E-07	-1.41882542156713E-06	4.4148463343297E-07	0.979141032162542	-0.200211226037377
8.5	0.00205224179022201	0.00577237740374539	-1.75559410511684E-06	-2.56105097161733E-07	-6.43433622085716E-09	1.80664801383844E-06	0.978445419504569	-0.203492662593713
8.6	0.0021555763240848	0.0056126116273097	2.42803224864968E-06	-3.97799601337504E-06	-4.57203294102098E-06	-5.92674421606422E-06	0.977342870801991	-0.206277321499184
8.7	0.00223105592397069	0.00603163822535347	-1.50113131290346E-06	-2.09646850132606E-06	-3.56122550315976E-06	3.64319520352709E-06	0.976641147443891	-0.208667169907512
8.8	0.00259955641313991	0.00650056242433651	-5.50526654171578E-06	-2.12259401664621E-06	-7.24387962593323E-06	-1.26953736070729E-06	0.976093046836122	-0.210777562519088
8.9	0.00310824108145555	0.00692030991346163	8.5726286670564E-06	4.1005242181888E-06	-1.41879318800058E-06	3.20592443601816E-06	0.976067905245635	-0.212586704739967
9	0.00425076339388459	0.0072990222110142	-4.97536323164995E-07	4.1685092822957E-06	-7.83031304529237E-06	1.23780193797437E-06	0.976163390464248	-0.214674567283548
9.1	0.0052320197358908	0.00684323350613768	-2.55637424220885E-06	6.6496812471643E-06	4.11028488239779E-06	-3.09028234922662E-06	0.97641569599836	-0.21697698326382
9.2	0.00611095009177249	0.00639586115190484	-1.17494555981236E-06	3.43341925912585E-06	-2.25329626995694E-06	-2.05958477491774E-06	0.976414954628507	-0.220089237470571
9.3	0.0068463469304222	0.00564092611189027	2.32273591076632E-06	-4.05376987869979E-06	-7.98039014162012E-07	-1.78317093520074E-06	0.975993276618956	-0.223438965209693
9.4	0.00719247484717317	0.00486037153415344	-1.79315648170887E-06	3.90663556648704E-06	-2.07993505040779E-06	-3.58066695798435E-06	0.974725628714171	-0.226965921048239
9.5	0.00759776447646488	0.00428329477098482	3.50893991663872E-06	6.29369505104567E-06	3.63131797645317E-07	-2.15223667997115E-06	0.973566149504634	-0.229297153396661
9.6	0.0072383946538071	0.00349257322244089	4.63657418360663E-06	7.08085555986403E-06	-8.22440889067667E-06	1.2830496647762E-05	0.972902805837126	-0.232748049511286
9.7	0.0069509502630332	0.0034239416145422	-2.88853122585008E-06	-1.53174293788167E-06	-1.39453364628584E-06	-3.9747703960777E-06	0.971709340708794	-0.235474355835769
9.8	0.00684480799771782	0.0034274280760664	1.24848605971114E-07	-3.60149884131039E-06	3.05342284958648E-06	2.39911841689787E-06	0.970819023638987	-0.237413399438327
9.9	0.00671044985663901	0.00371118146534526	5.80713028973772E-06	-6.21240569316097E-07	-2.56477927244411E-06	6.7395812006039E-06	0.969943109783843	-0.238415229235961
10	0.00728276858286479	0.00408919530905627	-1.14495807702574E-06	-5.79071785860378E-07	1.36629683822484E-06	-1.19091739550829E-06	0.971104069978901	-0.239778013404605
10.1	0.00755998355326697	0.00382366607459755	6.96611713508088E-07	-8.43838670409438E-06	6.17677708382169E-06	3.6017958983498E-06	0.969988986364819	-0.24282702850881
10.2	0.00792141690839326	0.0039107885661845	7.52536118339622E-06	8.31614434970831E-06	5.24104938275621E-06	3.5245495186087E-06	0.968775679366028	-0.243977979702034
10.3	0.00845725069932287	0.00380101467997234	1.74427213837618E-06	-6.96848593814353E-06	1.43363043380439E-06	2.86827339787617E-06	0.967889969700467	-0.245329153534193
10.4	0.00895035681980049	0.00368067780671488	-4.03816508158042E-06	-3.63576679833489E-06	1.94549129784404E-06	-5.60626634640455E-06	0.967190690767603	-0.246844123546229
10.5	0.0100049398307164	0.0035250630971158	3.57209997622849E-07	-7.07304312438477E-06	-5.72439977880943E-06	4.08988594109778E-06	0.966866001332152	-0.249467251443369
10.6	0.010759328126836	0.00274061265247558	5.50348586077757E-06	6.7241584537789E-06	2.43645737417638E-06	1.18889973293241E-06	0.965835740724076	-0.251746925570054
10.7	0.0115479976389548	0.00198467626080142	-7.07971795272253E-06	-1.67783605732422E-06	-7.70501927137077E-07	1.56084481112193E-06	0.965599173013164	-0.25442007814362
10.8	0.0120823619218787	0.000816054647723527	1.49415275634645E-06	4.4402641156224E-06	9.40667202002563E-06	-4.48506083322165E-06	0.964986479752712	-0.257069185242261
10.9	0.0120494474514932	-0.000176370700800493	3.39501285442232E-07	7.42022674116645E-06	-5.16282654631086E-06	2.17699249740726E-07	0.964262438376841	-0.259575475947287
11	0.0125587912072548	-0.000978237785557172	-2.23298960077313E-06	-3.81890951861954E-06	1.20288406276742E-05	-3.58120832122044E-06	0.963386206851407	-0.261790918686983
11.1	0.0124718344045549	-0.00229197800583403	-6.12386547122665E-06	-4.92030189000329E-06	9.6026184138316E-07	5.57362731465885E-06	0.961800998513103	-0.263963685080172
11.2	0.012377542201575	-0.00319985922637716	3.32219555061634E-06	4.29724685400784E-06	1.04794545171845E-06	-7.87771581346092E-06	0.960157789663874	-0.265709267623899
11.3	0.012467269247055	-0.00432517715124983	7.06905317715501E-07	-2.65868719883518E-06	-4.81996102651277E-06	9.12341458441318E-06	0.958908421141979	-0.267394185567448
11.4	0.0121423844858747	-0.0054452682732897	1.47064366610899E-06	-2.20462089412965E-06	-3.02620696224447E-06	-7.42519336730917E-06	0.956887921815171	-0.269533834652529
11.5	0.0121264425942052	-0.00658044645137648	9.4511215554366E-07	-1.00984958942794E-06	-9.01942664045205E-07	-8.68889013241626E-07	0.955824696413708	-0.270704827296975
11.6	0.0113528701246761	-0.00834306446090415	1.12169019832815E-05	-3.28737494689425E-06	-5.42812554941111E-06	-6.82235799939558E-06	0.955098229694881	-0.274509045128625
11.7	0.0102861735365151	-0.00951302021810397	5.31982868173619E-06	-2.90403229327316E-06	-4.40553063679163E-06	1.6580717561124E-06	0.953248140504486	-0.277763055897746
11.8	0.00917634848170406	-0.0104028069099193	-4.54348313439395E-07	-2.54468543290024E-06	1.08228392371171E-06	1.32485778043998E-05	0.951660555176805	-0.280383519558816
11.9	0.00810745190651467	-0.0107896143441792	3.3211946689741E-06	1.98479816622905E-06	-7.49248770721354E-09	1.27172027118625E-05	0.951196981772337	-0.280844944591601
12	0.00794980243366598	-0.0112714682012666	2.00325385083601E-06	4.83793030909033E-07	-3.69811840219163E-06	-9.69841361901952E-07	0.953631667353892	-0.282774903052314
