# GHZ S RI R 50
0.2	0.000521071979114732	0.00324476972423976	6.31014257613443E-06	-1.0036383226179E-06	1.06676630877542E-05	1.05098340923166E-05	1.00005569637373	-0.00682334713302066
0.3	0.00121351728892172	0.00303948466756304	5.81869982102182E-06	5.04377808881891E-06	8.10096127740651E-06	2.95960273948535E-06	0.999995519430517	-0.00977565768088409
0.4	0.00168347985843182	0.00303535545716818	-2.71404279858597E-06	7.87714255678606E-06	-4.80221281444804E-07	-4.43561933263895E-06	1.00025985527489	-0.012412691368871
0.5	0.00225585630693622	0.00297673982041576	2.31069071670359E-06	1.48024312666153E-06	7.51890237586993E-06	-1.05514461194463E-06	1.0003620255087	-0.0159642225005703
0.6	0.00237768317828932	0.00275157395055471	3.22238124931297E-07	3.54264396965377E-06	2.74052764105452E-07	-7.66710061574149E-06	1.00011804044561	-0.0190761690898315
0.7	0.00240073162485412	0.00292085309799627	4.17103454206708E-06	5.05496473343399E-07	-3.89958634660929E-06	-4.25627959155008E-09	0.999767784911789	-0.0219602453681985
0.8	0.00261248270879327	0.0031246287851922	-2.89224749379445E-06	2.9680218548271E-06	-6.83128525223734E-06	1.32100696755688E-06	0.999564800966711	-0.0241477541004825
0.9	0.00274969436503974	0.00334048058854194	6.04654763472966E-06	9.00632528879981E-07	-7.35348816257983E-06	-1.83549312139148E-06	0.999343139259382	-0.0264482590207046
1	0.00320296330209289	0.00364311510071917	2.36506997467956E-06	2.94859988553558E-06	-9.05915521548685E-06	-2.58018952452175E-07	0.999310649024158	-0.0278151066002855
1.1	0.00348175229337665	0.00318306766866579	6.44814603663985E-07	3.54661971312805E-08	-5.30783976555253E-06	1.4063649469482E-06	0.999071699194668	-0.0301068818635827
1.2	0.00318616053909812	0.00264741343295499	-5.30089920562966E-06	-3.29222084397774E-06	-1.1200506818765E-05	-1.26694235535465E-05	0.998259868775495	-0.0312000455423776
1.3	0.00258950504487928	0.00191854755526874	3.05411261739728E-06	3.10552486402645E-06	6.9634159384835E-06	-4.09128415561995E-06	0.998180739167768	-0.0322977963294036
1.4	0.0019749636563733	0.00131923853720836	-2.80209879359709E-06	-1.11301445030562E-06	5.71781167565146E-06	5.93555678529538E-08	0.997804638578081	-0.0345333470918207
1.5	0.00202281934654124	0.00112509309563562	1.24044717394432E-06	-2.53678253607059E-06	8.03944929198139E-07	2.51421569463414E-06	0.99881026352493	-0.037974559981329
1.6	0.00198040800048268	0.00122273803758711	-9.37983251271386E-07	-6.42451684167061E-06	3.18789229953711E-06	-4.25162939104353E-06	0.998559141948	-0.0417474483679355
1.7	0.00234844198673647	0.00163093144880395	3.4119873365601E-06	6.32136899723307E-07	2.24141126597134E-06	3.85785793242101E-06	0.998984546817124	-0.0442339171828835
1.8	0.00275962861102503	0.00193934077566915	-2.38007816820785E-06	2.90511018651361E-06	-1.01913128318587E-06	-4.00463944037142E-06	0.999024474957913	-0.0468813565674058
1.9	0.00314702161214261	0.0020914720162435	-3.74097962943671E-06	-1.76172101312726E-06	5.6428842376964E-06	3.03060210076842E-06	0.999138911172099	-0.0487774517778912
2	0.00371737186493872	0.00204348394143659	-6.19769587801038E-06	-5.76435352830915E-06	-2.08039151326694E-06	9.18219464845041E-06	0.999914816677763	-0.0514781350763307
2.1	0.00367531558955749	0.00162656341719583	1.18184617590438E-06	4.61783904942592E-06	4.50136007353395E-06	3.99669442142963E-06	0.999657772636107	-0.0550199211913363
2.2	0.00352092136504008	0.00164926979898296	6.5946203844313E-07	9.08269800801736E-07	-3.65592527670977E-06	-1.09626035315858E-05	0.999219559701833	-0.0576900574962515
2.3	0.00341191588669155	0.00163806758415457	-2.28544317979589E-06	3.57358430156922E-06	-5.41245420873053E-07	-2.80281856634164E-06	0.998631420164755	-0.0596502150614849
2.4	0.00321241735724969	0.00171144680512238	-1.56382657251525E-06	-1.45683457040408E-06	1.285905002734E-06	-1.00397892413867E-06	0.998367558800875	-0.0627221153834993
2.5	0.00323881378867798	0.00185107248531793	7.81842012611021E-06	4.05276253424575E-06	-2.37046486022313E-06	-7.24244650009055E-06	0.998136781193399	-0.0649005512911014
2.6	0.00308320649160597	0.00167604067087692	4.92954300795727E-07	2.12153423203543E-06	-1.45991634610341E-06	4.70115532447023E-06	0.998143224007755	-0.0679757009091112
2.7	0.00290110315595294	0.00184369077830326	-7.87419105231749E-06	5.27363689382779E-06	2.56368007631824E-06	9.73994194483503E-06	0.997876424904192	-0.0711501249600281
2.8	0.00296490641252167	0.00212868384208416	-7.74344182277338E-06	7.99703739831935E-06	6.0843658975333E-06	1.99543019217882E-05	0.997916156587549	-0.0733769167455262
2.9	0.00326962436494286	0.0023726089746482	-1.19042500384406E-06	8.65731348901755E-07	-8.14913362048123E-06	-2.94574653680528E-06	0.99747253602656	-0.0755161939315482
3	0.00389063407803091	0.00241058604338622	-6.25564755162075E-07	-4.48028549651975E-06	-2.16910043399978E-06	6.46003633853167E-06	0.99728188754064	-0.0780041968902228
3.1	0.00413190994875166	0.00214584249656094	-2.59368099143273E-06	9.72490922801887E-08	1.10287162695986E-05	-3.56801169885983E-06	0.996812081229904	-0.0802259490643959
3.2	0.00433421598132571	0.00208448771623398	-9.8094648662747E-06	2.5846123650463E-06	1.21997695634333E-05	4.23145377633425E-06	0.996343062613728	-0.08216195016763
3.3	0.00452262216368804	0.00187846735720712	-3.47035377728755E-06	9.47294385506769E-07	-5.01876215522804E-06	-1.25706360445631E-07	0.995773644014609	-0.0855750781564944
3.4	0.00458135300325404	0.00174093618720577	5.35468263644408E-06	4.6712343423501E-07	1.35199963565065E-06	4.42177807153308E-07	0.995173123903261	-0.0875326573569957
3.5	0.00481459823961346	0.00147208804632865	2.77572993005076E-06	1.54952256307562E-06	1.31601519741865E-06	7.88335513613517E-07	0.994991765836639	-0.0897847020933187
3.6	0.00454423099330678	0.00105387598936475	-7.15461993245372E-06	-1.08457806031195E-07	1.85422743337945E-06	-3.50677343529911E-06	0.994995866808973	-0.0927693268439139
3.7	0.00426028134289209	0.00104762272143695	5.77532407049149E-06	-1.53541076290096E-06	-3.31889120591664E-07	-1.73256176946721E-06	0.994345627084327	-0.0958167829805366
3.8	0.0041728321633175	0.00113896671110058	-1.99971130474128E-06	8.85071989835715E-07	-5.19465252165793E-06	3.19077225021577E-07	0.993425954611063	-0.0977937650898571
3.9	0.00424167793269335	0.00128410223112227	-8.36171134626674E-06	1.81250854770913E-06	-4.12447870966928E-06	-1.48456172125462E-06	0.992982027994083	-0.100312217713531
4	0.00466060172167169	0.00120751544907008	-5.82878270549177E-06	3.90513367748327E-07	-9.53882336941226E-06	-8.4210571897477E-06	0.993519830148604	-0.101381070798702
4.1	0.00461545144351045	0.000807736516819053	-3.96973796888886E-06	4.08534240687327E-06	-1.85565580058742E-06	5.59185212902792E-06	0.993134514329507	-0.104146252648476
4.2	0.0045289940969321	0.000707232308270601	4.59907727483774E-06	-4.4054134490709E-06	6.75592742194806E-06	7.23452831284135E-07	0.992038423808545	-0.106828057643073
4.3	0.00449457089747633	0.000629033596170779	-3.78888716046167E-06	1.14380214005573E-06	3.54160617014993E-06	-1.22187274392037E-06	0.991543811538414	-0.108740918780156
4.4	0.00440214309661225	0.000614460268064765	-3.16953153415988E-06	-4.91699062502809E-06	9.24522226516901E-07	-1.03991729082175E-06	0.990931683819736	-0.110858758513322
4.5	0.0045532597214446	0.000555890053531523	-1.37920393635833E-06	2.0346345564878E-06	2.0977795758141E-06	-8.47344460411959E-06	0.99089017280299	-0.113155370055294
4.6	0.0042192573369486	0.000192096453525947	5.42769084674887E-06	9.55240639600523E-06	-1.41293758459185E-05	9.85815751043226E-06	0.990266203350176	-0.116068039088338
4.7	0.00390334476401939	0.000249175913732134	-7.61530892526462E-06	-9.51201631237824E-06	-1.14335720338432E-06	-1.30002245344292E-07	0.989985264825291	-0.118085860852647
4.8	0.00372960882187064	0.000388015405548675	-8.7355243133942E-06	-2.64858169449474E-06	-4.35284739288274E-06	4.55063526520694E-06	0.989361718649766	-0.120677338907002
4.9	0.00374495792995944	0.000582158698243304	5.79176696588295E-06	8.27503167563014E-06	-7.22686352908743E-06	3.30064233024755E-06	0.988615498054939	-0.122498194193549
5	0.00417600661466753	0.000482785454888675	4.23606658823011E-06	-8.53479317178789E-06	-4.30322799285808E-06	-6.14714232601863E-06	0.988208804812199	-0.123857041841614
5.1	0.0042142000349346	0.000135579463503941	1.51470472639198E-05	-1.02649532368953E-05	3.45261143557084E-06	-8.71204544036188E-06	0.988055480367789	-0.125135194704159
5.2	0.00436197200822701	-2.11709733792817E-05	-4.23516438724415E-06	-4.69080129900651E-06	-3.15360945873062E-06	5.31824477972001E-07	0.987474746631987	-0.127269546346958
5.3	0.00452810047514858	-0.000309369171921903	4.7720095605822E-06	3.35039932193957E-06	-9.28087866116435E-06	-4.70520864342096E-06	0.986884664830982	-0.129321258146282
5.4	0.00456041431472772	-0.000572091900967728	5.16423206553828E-06	1.1818837463772E-06	-4.45360403822346E-07	1.04187549414248E-05	0.986474745926014	-0.13166362687368
5.5	0.00467901388663599	-0.000998690636186719	-1.80811327099484E-06	-1.96932279278792E-06	8.84518712725E-06	4.91178314224025E-07	0.986487141017249	-0.133647020936835
5.6	0.00401564921980958	-0.00144445521751395	4.23849450613465E-06	7.19638482034868E-06	-4.74005318555682E-07	-8.57984605841101E-06	0.986583426950633	-0.136416133909998
5.7	0.00344246640284754	-0.00125577628869151	2.04700363424102E-06	-7.217989152013E-07	5.45423787249542E-06	2.43855541651903E-06	0.985975402513268	-0.138931190063481
5.8	0.00305359008712631	-0.00101760412391401	3.89934702473642E-06	1.94935940720878E-06	2.72986640891464E-06	7.80142114210438E-06	0.985415813319104	-0.140723020520981
5.9	0.00269271495249677	-0.000621890929781665	-3.76994978749248E-06	-3.04426928054325E-06	-4.68238012115148E-06	-1.77125676451664E-06	0.984901161162684	-0.141887519041574
6	0.00277329737865614	-0.000322069262566106	-2.07025020461605E-06	1.69971558790665E-06	1.04002167152595E-05	-2.65549571232639E-06	0.985927541940591	-0.142859355389192
6.1	0.00236641221357209	-0.000579277850510238	-7.30362628690609E-06	-1.09583849207148E-06	-7.24485371972774E-07	-2.47477068648211E-06	0.985902786344963	-0.144835439359632
6.2	0.00182298036450851	-0.000424530872538244	-1.05699310745268E-06	1.98192879011939E-06	-3.47194472737149E-06	-5.34125871236174E-06	0.985418586577837	-0.145988971983333
6.3	0.0015144981598186	-0.000262912522753395	1.57156497341697E-06	2.81956946473215E-06	1.14289884118573E-06	5.94935930510036E-06	0.985155077579609	-0.147756310109445
6.4	0.00131746078262664	-0.000141625464956484	2.06124416245029E-06	5.01845031338276E-06	-3.32095604912752E-07	2.26416887063942E-07	0.985026762594882	-0.149782851528002
6.5	0.0014213623382167	-0.000384117811130654	4.64954001884089E-06	-1.87249233007709E-06	-4.6722407323216E-06	-1.54119688195578E-06	0.984998187022978	-0.153324010327296
6.6	0.000822407727765799	-0.000452331277118935	3.24932942676448E-07	-1.0640878684815E-06	9.25391853473221E-06	3.32748239547063E-06	0.983760873299778	-0.155866401750747
6.7	0.000611742880682236	-5.00981616651947E-05	5.20090097701306E-07	5.58976013344599E-06	-1.78862473540085E-06	4.95091650083769E-06	0.983359859382977	-0.157727097786159
6.8	0.000482275266496558	0.000306920139944654	1.77730466434965E-07	-1.58024487201842E-06	-3.45550913145512E-06	-5.10623197717503E-06	0.982872121633284	-0.159663581730646
6.9	0.000381496490671207	0.00082152426397678	-6.63287380047417E-06	6.68322646311971E-06	2.27708806169602E-06	1.35334315350292E-06	0.982512640018241	-0.161209484310442
7	0.000763637715958754	0.00106080876426052	8.04449730128063E-06	3.16829194676518E-06	4.54061803844417E-06	5.85033257234807E-06	0.9826096550181	-0.162632717683142
7.1	0.000223967597411248	0.00108655035148534	1.3888732159856E-06	7.8409908832745E-07	-2.25350897633016E-06	-4.4651445299266E-06	0.982138165674561	-0.164620354739707
7.2	-8.69552455748475E-05	0.00175199895715397	-1.47917127844565E-07	4.38139695346798E-06	-4.99116350420196E-06	-6.70265814967844E-07	0.981270735764792	-0.166295775472429
7.3	-0.000235130125331024	0.00237643437174462	1.36307209327034E-06	-5.24065591054362E-06	-2.33117018677032E-06	-2.78645148078036E-06	0.979927875310844	-0.167931828963317
7.4	-0.000425465580546662	0.00305835002233855	1.81533447419696E-06	4.40966157409348E-06	-7.21613629918344E-07	-1.06736554915363E-06	0.978099691280071	-0.169569695506991
7.5	-6.04460701204723E-05	0.00366582770585137	-5.71211427180849E-06	-1.5106456262232E-06	-1.53281847026738E-06	-8.87236569719278E-06	0.977668551892574	-0.169886361533866
7.6	-0.000148599104335991	0.00354739704736074	5.62528568908654E-06	-3.35170608165609E-06	1.00505427336748E-06	3.18685394430198E-06	0.978408556708861	-0.172923160704002
7.7	-0.000344859262375948	0.00386197446928414	-6.47658744011641E-06	-2.88538206119032E-06	4.34186652208908E-06	5.67790640483083E-06	0.978276802399888	-0.175985329721798
7.8	-0.000279891036426806	0.00399394749376199	-1.05678510948636E-06	-5.35091712048179E-06	-2.18141586612579E-07	1.14034412919936E-06	0.978373012451259	-0.178849503439604
7.9	-9.89093144851405E-05	0.0041545591251308	-3.37803231445993E-06	7.18161524292918E-06	5.05121664519712E-07	-6.86677924346092E-06	0.978843522206581	-0.181300077058659
8	0.000427301402151977	0.00390777266266186	-2.70722747148581E-07	7.38213333339379E-06	1.79430303168956E-06	-4.44760109758424E-06	0.980669351723987	-0.184688244869667
8.1	9.07904128509856E-05	0.00395171819048657	-7.12444145745799E-07	-6.46939056136872E-06	-1.7439316833049E-06	-1.07035605086416E-06	0.979681118512451	-0.189040689932219
8.2	0.000172289826045241	0.004424230712829	-3.83233908686769E-06	1.63650885724509E-06	-1.09559965886115E-05	-2.65747404355352E-06	0.978807528333746	-0.191485458155274
8.3	0.000354557181222929	0.00483137109815412	-5.50674994453973E-06	-9.87972276570055E-06	-7.79715481407124E-06	2.98819427463805E-06	0.978069145333424	-0.194012613991392
8.4	0.000560294657866244	0.00545932124732621	6.79491260943743E-07	-6.07565604725124E-07	-1.4180531260831E-06	4.35149335318827E-07	0.977478527933773	-0.196493598469167
8.5	0.00128753913920875	0.00582623824964438	-1.75139080941488E-06	-2.62964381572787E-07	-1.39523716020573E-08	1.80339407057502E-06	0.97692579881466	-0.199537004134398
8.6	0.00125607547114167	0.0059835241765573	2.44189567532547E-06	-3.96197435928157E-06	-4.54003886982094E-06	-5.93833558874048E-06	0.976148046966639	-0.202006759749692
8.7	0.00156296445471545	0.00671118701215964	-1.49057424022867E-06	-2.10062930110956E-06	-3.57295976783125E-06	3.62409060798036E-06	0.975894083036756	-0.204293912156756
8.8	0.00225140965988567	0.00731949271481695	-5.4919553232851E-06	-2.14373726447933E-06	-7.23269446885141E-06	-1.29860073110292E-06	0.975769590109975	-0.206417328220241
8.9	0.00319452571623128	0.00771681998269984	8.54970049342154E-06	4.1314924455961E-06	-1.43046279689897E-06	3.19780650730489E-06	0.976118968010669	-0.208280432601158
9	0.00461720420943301	0.00758191432027771	-5.14693029607341E-07	4.1623916420349E-06	-7.82801212173906E-06	1.20348281032173E-06	0.976541238823794	-0.210469787615486
9.1	0.00539750626052835	0.00686323357047281	-2.58449512592895E-06	6.63252971241714E-06	4.12092564107349E-06	-3.06902025234263E-06	0.976898618613395	-0.212857241394697
9.2	0.00613275088701376	0.0062824706387454	-1.1908283248526E-06	3.42517196632669E-06	-2.24159997430523E-06	-2.06906368928792E-06	0.976936106444616	-0.215859807478018
9.3	0.00667922307096919	0.00553841972008737	2.34267403400139E-06	-4.03957044802947E-06	-7.88330733209926E-07	-1.7864126487524E-06	0.976618787800425	-0.218971240400699
9.4	0.0070053811342984	0.00491144936999859	-1.81456473996886E-06	3.89571535437986E-06	-2.05945202306811E-06	-3.59145767950249E-06	0.975683494174284	-0.2221033119434
9.5	0.00736556150959767	0.00421002947145439	3.47390901064907E-06	6.31792508458618E-06	3.76001530474154E-07	-2.15132605618701E-06	0.975328919202456	-0.224554107898723
9.6	0.00692386591971881	0.00373706912290176	4.60313035135361E-06	7.11475666278273E-06	-8.30473274683563E-06	1.28004839931915E-05	0.974962494229176	-0.228361105293863
9.7	0.00689158502089713	0.00383429631188837	-2.88470310375327E-06	-1.54939667552178E-06	-1.37547776438944E-06	-3.98813065984219E-06	0.974085280390056	-0.23120941844783
9.8	0.00708087435399105	0.00384429051008613	1.44121406471281E-07	-3.60757470332482E-06	3.04645073699764E-06	2.41974737852095E-06	0.97367238682401	-0.233193989861468
9.9	0.00734815705539646	0.00392810231468755	5.82465538561529E-06	-5.92502720990489E-07	-2.60621551923164E-06	6.74279512825577E-06	0.973709127386777	-0.234424809546226
10	0.00800524141903464	0.00361244781161353	-1.1455054796769E-06	-5.85923260581414E-07	1.37555539974773E-06	-1.18799338888428E-06	0.975355118389258	-0.23716502462634
10.1	0.00785713367146504	0.00309790843241737	7.3751245206581E-07	-8.458943981699E-06	6.17755743241212E-06	3.64044478626122E-06	0.973800162745339	-0.240675726828854
10.2	0.00793564061283951	0.00311876608352008	7.51276220529015E-06	8.37791609382952E-06	5.24254187909141E-06	3.56002040418812E-06	0.972579893849967	-0.242116953719828
10.3	0.008256973715107	0.00307527329395703	1.77993639550269E-06	-6.98845303586689E-06	1.42734613278528E-06	2.88540222487816E-06	0.971787912921022	-0.243778450208939
10.4	0.0087844711891773	0.00299089559439987	-4.04321773029026E-06	-3.66558312197568E-06	1.97335256964115E-06	-5.62400117956931E-06	0.97138235248028	-0.245762637941905
10.5	0.00965359828427059	0.00243406863691867	3.79611454073537E-07	-7.10358303198445E-06	-5.76199773251521E-06	4.09131392742698E-06	0.971137813489145	-0.249141553194694
10.6	0.00982522271983584	0.00173274667920469	5.51403923161041E-06	6.77143036191127E-06	2.44560982864745E-06	1.20092489942171E-06	0.97012090367652	-0.252052049979173
10.7	0.0101755874369981	0.00134782429496399	-7.11400523272884E-06	-1.70004776277038E-06	-7.77517811232538E-07	1.56764938507178E-06	0.969645472217618	-0.255248259410672
10.8	0.0105508499415777	0.00081806963453048	1.49614664240552E-06	4.46667701762845E-06	9.46446818755626E-06	-4.49651578287946E-06	0.968867062248295	-0.257983861689068
10.9	0.0108698800626412	0.000360899242640995	3.3432264880009E-07	7.4620777858671E-06	-5.19192789435707E-06	2.13992435101237E-07	0.968479097570226	-0.260471555551538
11	0.0116253357212013	-0.000450745189377674	-2.24203158379311E-06	-3.84208566334899E-06	1.20988031293718E-05	-3.59051402444568E-06	0.967932180549903	-0.263067569450507
11.1	0.0115989413882336	-0.00139184155231009	-6.15539050054677E-06	-4.95361505711042E-06	9.61400551996558E-07	5.6066285831714E-06	0.966257750895894	-0.265506489168002
11.2	0.0118784471052292	-0.00206454757018549	3.33919746332515E-06	4.32465579151068E-06	1.05894058035567E-06	-7.92360773809248E-06	0.964536496486465	-0.267336490460155
11.3	0.012340351834823	-0.00304171032595218	7.12270465868569E-07	-2.67387665354014E-06	-4.85234672371856E-06	9.17442228065326E-06	0.962963752825818	-0.26881863722613
11.4	0.0125283573334826	-0.00420317148873664	1.48040677659526E-06	-2.21657769046905E-06	-3.03958676686705E-06	-7.46994019564055E-06	0.961130102673168	-0.270482033635806
11.5	0.0127521360622263	-0.00584902880613688	9.51816065427981E-07	-1.01589527562732E-06	-9.07328669518844E-07	-8.75037645148922E-07	0.96116729339879	-0.272063787287224
11.6	0.0120024497891709	-0.00760199116305245	1.12915125771368E-05	-3.31112555747639E-06	-5.46553286647981E-06	-6.86720734933863E-06	0.960408943184538	-0.276591168306591
11.7	0.0112985478089439	-0.00889300040658521	5.35398747470848E-06	-2.92647364015117E-06	-4.43422910096759E-06	1.67163657343075E-06	0.958659347477838	-0.280111870503849
11.8	0.0105577459804367	-0.0101496940311114	-4.59701952730157E-07	-2.5617822651157E-06	1.10133466921196E-06	1.33387147718002E-05	0.957530886536912	-0.283026954225534
11.9	0.00981896894999012	-0.0112631110689601	3.34842504648157E-06	1.99461296507532E-06	1.06747904573527E-08	1.28105914903648E-05	0.958129722220848	-0.28440085834877
12	0.00915199222073403	-0.0128070034236996	2.01919481625994E-06	4.81786515492373E-07	-3.72775827148017E-06	-9.66696635016399E-07	0.960587400276263	-0.288823822579497
