# GHZ S RI R 50
0.2	0.000390037872535493	0.00287071170087919	6.31533194566736E-06	-1.00036274150628E-06	1.06686987257544E-05	1.05241795074065E-05	1.00066809899614	-0.00655687806713684
0.3	0.00111048069072334	0.00279371303218883	5.8210906325217E-06	5.05092865467435E-06	8.10631421365183E-06	2.9661339729205E-06	1.00075673683587	-0.00952146308005905
0.4	0.00158819638317576	0.00299523023413527	-2.71953546124008E-06	7.8853659339157E-06	-4.79433979338428E-07	-4.4408560330512E-06	1.00132765419645	-0.0121603672827468
0.5	0.00259993312478921	0.00287916381176214	2.31350882802579E-06	1.48107811130501E-06	7.52632414079831E-06	-1.05846888350942E-06	1.00171739287058	-0.0163698880226555
0.6	0.00241573231593099	0.00220185267008565	3.22325589781441E-07	3.5450619608347E-06	2.74523245287512E-07	-7.67229767897628E-06	1.00080993345127	-0.0195653711848321
0.7	0.00213244203344568	0.00248675891411511	4.17493692936095E-06	5.06912038759988E-07	-3.90333907949266E-06	-5.12890147957995E-09	1.00044975859091	-0.0221321873697693
0.8	0.00217193305954313	0.00282255866720144	-2.89643364871332E-06	2.97101889346078E-06	-6.8399282795035E-06	1.32112828214524E-06	1.0003528402018	-0.0241849227422415
0.9	0.00206770869993729	0.00331243781474736	6.05565957036749E-06	9.03125410881154E-07	-7.36443360669463E-06	-1.83966053265955E-06	1.00023049648412	-0.0262572351376781
1	0.00291296371614851	0.00425559763216464	2.37023196008299E-06	2.95351975291453E-06	-9.07615866792994E-06	-2.56228457673491E-07	1.0009284483437	-0.0274691411356547
1.1	0.00363182409467135	0.00324574536044091	6.45847242402622E-07	3.51639497354115E-08	-5.31539721179182E-06	1.41152081884265E-06	1.00078498992748	-0.0306363782058615
1.2	0.00312435119980864	0.00247550802007888	-5.31071128736933E-06	-3.29352409903857E-06	-1.12249652564463E-05	-1.26804382810075E-05	0.999613380757443	-0.0320597173056702
1.3	0.00239910311384817	0.00155074840859977	3.06078731550828E-06	3.10634949311037E-06	6.96791110699596E-06	-4.10291624433518E-06	0.99912804463139	-0.0336422741435665
1.4	0.0015634740151455	0.000910465063995697	-2.80574312550933E-06	-1.11051271775141E-06	5.72255558936945E-06	5.24435457026325E-08	0.998109622974129	-0.0361335306397649
1.5	0.00186783962320944	0.000656625142611516	1.23840708874377E-06	-2.53980418666787E-06	8.07276198480201E-07	2.51493499226295E-06	0.999176434143521	-0.0395157932929758
1.6	0.00136360195392351	0.000596234637464016	-9.45472550683708E-07	-6.42887237372161E-06	3.18609889938537E-06	-4.25848988631164E-06	0.998656360540898	-0.043320012415123
1.7	0.00160271127896939	0.00141218213239752	3.41603006202726E-06	6.29065304440014E-07	2.24779395674207E-06	3.85922863438237E-06	0.999136887831172	-0.0454320765691344
1.8	0.00206060791049597	0.00201987967686273	-2.3792933760063E-06	2.91054250945095E-06	-1.02445495693318E-06	-4.00749094279813E-06	0.99924562828341	-0.0477861700559468
1.9	0.00259384571402803	0.00257992920469827	-3.7458367210706E-06	-1.76077254081992E-06	5.65047489062486E-06	3.0295315736928E-06	0.999514272771648	-0.0489270460572251
2	0.00397398204417916	0.00261010845260346	-6.21294694167397E-06	-5.77334426032202E-06	-2.08051544303375E-06	9.20188718749224E-06	1.00216643900089	-0.0513798427180267
2.1	0.00387439924132388	0.00152060346450425	1.19176150566872E-06	4.62558464552606E-06	4.51721157347042E-06	3.99778981378672E-06	1.00179843099634	-0.0567417740243095
2.2	0.00346092268153783	0.00150008609066978	6.621379264715E-07	9.08558665496286E-07	-3.68129834072443E-06	-1.09737416701406E-05	1.00061040170245	-0.0595673537813421
2.3	0.00317385481557409	0.00153394952300027	-2.28243599778372E-06	3.58274110232691E-06	-5.46956676508162E-07	-2.80589236465859E-06	0.999691314860783	-0.0614404242243382
2.4	0.0027583825621727	0.00188726700782702	-1.5687701879713E-06	-1.45601594968688E-06	1.28588130529799E-06	-1.00780379258609E-06	0.999227583399791	-0.064348613738695
2.5	0.00330222619183307	0.00253396157910805	7.83596913469103E-06	4.03982174206185E-06	-2.38914615224411E-06	-7.24509552927603E-06	0.999145425554034	-0.0664099700945266
2.6	0.00351734767646463	0.00183443962537059	4.97191222582186E-07	2.12213218142203E-06	-1.45233384693889E-06	4.70715778713686E-06	0.999118805755336	-0.0696046753517806
2.7	0.00327102589941087	0.00173054908932944	-7.87254922415147E-06	5.29146704269867E-06	2.5821595676059E-06	9.74448235019347E-06	0.998965517319265	-0.072881866005895
2.8	0.0031644492632298	0.00182346290171839	-7.73719865976175E-06	8.0194018364976E-06	6.12670139472892E-06	1.99643629736369E-05	0.99896047321884	-0.0754389645788153
2.9	0.00326471481549084	0.00217001280225093	-1.18977642639061E-06	8.69138830086408E-07	-8.16360366727221E-06	-2.93133874867079E-06	0.998234788340842	-0.0777991775513429
3	0.00424528377624775	0.00220886531450836	-6.36027196647491E-07	-4.4808827505411E-06	-2.15539861584907E-06	6.46787596031057E-06	0.997808989114193	-0.0803904738282586
3.1	0.00416343425526271	0.00147431211261563	-2.59463963542152E-06	1.02590319864697E-07	1.10263492171941E-05	-3.59213090645703E-06	0.997000481908712	-0.0828353947092056
3.2	0.00401994083465515	0.00151662748992892	-9.80728055707413E-06	2.60784116972146E-06	1.22139487128087E-05	4.20535844224747E-06	0.99610262768162	-0.0848399801865857
3.3	0.00399699178656404	0.00147348953538744	-3.46828454923483E-06	9.56222078638598E-07	-5.01957710335626E-06	-1.12942794939096E-07	0.995035934852836	-0.0883225109317098
3.4	0.00390428079892064	0.00169221982328608	5.35325458386393E-06	4.51627232525496E-07	1.35256281306465E-06	4.3809812828615E-07	0.993665272937516	-0.0901705453319628
3.5	0.00465840889760425	0.00165625381368086	2.77521368151793E-06	1.54145317217253E-06	1.31588517215862E-06	7.84435659763536E-07	0.993199335622332	-0.091416119401123
3.6	0.00423200931638336	0.000744968891180935	-7.14876480555499E-06	-9.58918129036705E-08	1.84654678020862E-06	-3.50704383104021E-06	0.993596955415837	-0.0945220038769624
3.7	0.0035850728985012	0.000894815340037136	5.76719773613273E-06	-1.54545921325508E-06	-3.35017150305909E-07	-1.73037807606186E-06	0.992554093620164	-0.0976114314217259
3.8	0.00332437399440318	0.00132108260561313	-1.99565874537935E-06	8.8789974362664E-07	-5.18795163783278E-06	3.28742061890484E-07	0.991222702522167	-0.0991882422615063
3.9	0.00344024528646187	0.00203944379751325	-8.34763139331489E-06	1.82165085242465E-06	-4.12084682049926E-06	-1.47676515571751E-06	0.990708140622194	-0.100621001061284
4	0.00479527125070421	0.00226241869446167	-5.82643880057708E-06	3.96552393364298E-07	-9.5445755470496E-06	-8.4081733583264E-06	0.993233621001343	-0.101245214340636
4.1	0.0049470589171396	0.00115390209909698	-3.95936450437724E-06	4.0915994953867E-06	-1.84317908863424E-06	5.59300479034721E-06	0.992725307304967	-0.105709743315411
4.2	0.004708264466511	0.0008931649926439	4.58566629025062E-06	-4.41043361861226E-06	6.75080320300834E-06	7.09060287984749E-07	0.990973564475242	-0.108428569280431
4.3	0.00457982366605233	0.000784321041134287	-3.78256737113995E-06	1.14973481550564E-06	3.53540920455075E-06	-1.22725092576459E-06	0.99028052552959	-0.110221760838548
4.4	0.00441009235397728	0.000959696548649281	-3.17628610031341E-06	-4.90569662425598E-06	9.21503426132929E-07	-1.0407446470544E-06	0.989677768061654	-0.112285997029161
4.5	0.00524470210584122	0.0010311272850422	-1.37133759582216E-06	2.03525719207351E-06	2.07080199849565E-06	-8.46586099935253E-06	0.98961872762821	-0.115171051215148
4.6	0.00489970724513241	-0.000184481937881893	5.43385536053727E-06	9.51612461569688E-06	-1.4071832024754E-05	9.86252911011215E-06	0.988015976692586	-0.118125169107056
4.7	0.0041890576618884	-0.000331910242545394	-7.61023117539387E-06	-9.4752591239422E-06	-1.14056973757209E-06	-1.27878589575405E-07	0.987373920586213	-0.119749612807715
4.8	0.00369179675955386	-0.000219407495164403	-8.71666347786849E-06	-2.63034283982885E-06	-4.33574369042223E-06	4.54471250845609E-06	0.986528217439565	-0.122089395934382
4.9	0.00341425514447588	0.000234275243028766	5.78808106026487E-06	8.24596544278802E-06	-7.20385363523048E-06	3.30193455101952E-06	0.985504040905405	-0.123673705947269
5	0.00431300397790037	0.000287757022301399	4.2113600127821E-06	-8.51198426552361E-06	-4.29677559585133E-06	-6.12145982471112E-06	0.984853752056894	-0.124717611984138
5.1	0.00395769748891027	-0.000570996276263285	1.5093577634754E-05	-1.02383261494458E-05	3.43765351568733E-06	-8.68535901953423E-06	0.984456282345148	-0.125672486967303
5.2	0.00369000164735166	-0.000421659070134069	-4.22400040277397E-06	-4.67546892318404E-06	-3.14403011013313E-06	5.31229512724842E-07	0.983756418046583	-0.127392699168001
5.3	0.0037952146301892	-0.000312467426133475	4.75942864256672E-06	3.33853627178989E-06	-9.25564039324107E-06	-4.68745153367445E-06	0.983172225950419	-0.129177569640181
5.4	0.00399386189563946	-8.93084252160518E-05	5.14784261542426E-06	1.17404406826644E-06	-4.36031779578483E-07	1.0384230634768E-05	0.982484755460899	-0.131335283090923
5.5	0.00516454584755943	-0.000592293918969221	-1.79986881697727E-06	-1.96103931947097E-06	8.80646556374334E-06	4.90590347171257E-07	0.982619136598381	-0.132367397559041
5.6	0.00406966772140224	-0.00203791471303332	4.21632521576453E-06	7.17549144396821E-06	-4.63613955021297E-07	-8.55027602645266E-06	0.98321624697293	-0.135373374477994
5.7	0.00283708996400496	-0.00172946490612547	2.04117888963811E-06	-7.17474755054946E-07	5.43441526040568E-06	2.43614853037182E-06	0.982273447892162	-0.137801771136255
5.8	0.00205094536083045	-0.00111196444919114	3.88476450646288E-06	1.9480269755724E-06	2.71178942335834E-06	7.78035013082408E-06	0.981462283671213	-0.138982387106668
5.9	0.00140542972722306	0.000106736618656794	-3.75359857327961E-06	-3.04351936822211E-06	-4.66609024439839E-06	-1.77579719583648E-06	0.981225500184469	-0.138663906450672
6	0.00265481597103517	0.00148022007625962	-2.0716202222857E-06	1.6950820682157E-06	1.03973241521999E-05	-2.63635068461997E-06	0.985331523004905	-0.13929020830304
6.1	0.00312778567196916	0.000403953039591192	-7.29466318862798E-06	-1.09413974931381E-06	-7.23708404733796E-07	-2.47168168724656E-06	0.985313872122905	-0.143708405398238
6.2	0.00271597873865203	4.66770203421274E-05	-1.05483287557411E-06	1.97793828903819E-06	-3.46499808005625E-06	-5.33042484897787E-06	0.984131634136021	-0.145196056921741
6.3	0.00227940580588506	-0.000279016597741604	1.56688758701827E-06	2.8136706400671E-06	1.13803130722787E-06	5.93609554460639E-06	0.983492219817968	-0.146971117488155
6.4	0.00175679022606594	-0.000111601364172824	2.05378312366213E-06	5.01003342199743E-06	-3.31600068199962E-07	2.25746942719644E-07	0.983424947150526	-0.148662561084287
6.5	0.00243840130347847	-0.0006145509299131	4.63807948093259E-06	-1.87041985394174E-06	-4.6623350438653E-06	-1.53549133621359E-06	0.983470162709778	-0.153504449779174
6.6	0.00103298212552702	-0.00130251792562818	3.24254835151013E-07	-1.05985882191445E-06	9.21687583934783E-06	3.31967210283632E-06	0.98010531157204	-0.155352982292203
6.7	0.000422341745695853	-0.00055712111207244	5.08894644934494E-07	5.56985482013834E-06	-1.79018412811905E-06	4.92955869135299E-06	0.979653641780615	-0.155733907166969
6.8	0.000139420291328075	8.10365401961251E-06	1.80746819917486E-07	-1.57448202513281E-06	-3.43210437909879E-06	-5.09683871259945E-06	0.979504744371023	-0.156891201991615
6.9	-7.09443966525E-05	0.00106851450821458	-6.63057591257915E-06	6.64533153797872E-06	2.26658976261406E-06	1.35530576293465E-06	0.979501290071891	-0.157630262948771
7	0.0015766223693737	0.00142338484498034	8.01297027516009E-06	3.1819618749634E-06	4.51141948653557E-06	5.84662020552562E-06	0.981052898530949	-0.15889100099807
7.1	0.000635802203963259	0.000141428270319972	1.3828672472203E-06	7.86239334789935E-07	-2.23412195450836E-06	-4.46025343737548E-06	0.980360805716869	-0.161937572453303
7.2	-0.000437564676037685	0.000777560023111733	-1.60870399477038E-07	4.37022505550676E-06	-4.9769119143775E-06	-6.83793876848515E-07	0.978951893971851	-0.163579701336564
7.3	-0.00114852580027984	0.00158574202243234	1.37467371711671E-06	-5.22361278749361E-06	-2.31734127830277E-06	-2.78614719122929E-06	0.977048513392412	-0.165153671676059
7.4	-0.00198062489749625	0.00295238221866934	1.79710748110906E-06	4.39963916774693E-06	-7.16242673271559E-07	-1.06571127089484E-06	0.973785696885023	-0.166069622087354
7.5	-0.00074422512410345	0.00469678588874582	-5.68131269524607E-06	-1.53261063744601E-06	-1.48283763492318E-06	-8.84363532898565E-06	0.974026003639429	-0.163079845325854
7.6	-0.000535078767756168	0.0038423666724513	5.63071809045552E-06	-3.31367884527921E-06	9.85530740904227E-07	3.18509306727066E-06	0.976981802001993	-0.166769491271682
7.7	-0.000992936678643058	0.00425731075891317	-6.44977513957979E-06	-2.91340956707444E-06	4.30461329226178E-06	5.68978669800818E-06	0.976945145682107	-0.170112720501774
7.8	-0.000926837529294253	0.00469113700683865	-1.02589124166759E-06	-5.34743000571436E-06	-2.23960795687881E-07	1.1371922579743E-06	0.97720167524641	-0.172467502428438
7.9	-0.000398713399388989	0.00536945979307157	-3.42023059376156E-06	7.14957553994767E-06	5.49257427347553E-07	-6.85393633885996E-06	0.978581622077086	-0.173407933752554
8	0.00151647813649701	0.00470011446515736	-3.25370370627765E-07	7.39030226783505E-06	1.82947209732533E-06	-4.4405298125915E-06	0.984434349782143	-0.176970444621746
8.1	0.000586089588812602	0.00358974596848245	-6.79440289441888E-07	-6.48836971823319E-06	-1.74228181467409E-06	-1.08221118406449E-06	0.983426392040028	-0.184556448946757
8.2	0.000190767854059002	0.00414963520443463	-3.84858766141089E-06	1.62158045086214E-06	-1.09670458111981E-05	-2.71613740292244E-06	0.981813054927598	-0.187344744938828
8.3	0.000155433772562579	0.00470072953441945	-5.47410251827875E-06	-9.92942297280627E-06	-7.83005067809097E-06	2.95912539622753E-06	0.981100317177135	-0.189909277743235
8.4	0.000218606425575835	0.00584721729225043	6.84073815448034E-07	-6.06634482532416E-07	-1.4241916794145E-06	4.3065206032828E-07	0.980915503684249	-0.192531847912858
8.5	0.00226488092526556	0.0063769228425545	-1.75477255521709E-06	-2.68541406293177E-07	-1.90899507027576E-08	1.80760318707514E-06	0.980740417625658	-0.196543872057304
8.6	0.00195149632211275	0.00508925742910221	2.46138042450668E-06	-3.95956237769598E-06	-4.52522935489512E-06	-5.96617566097985E-06	0.979308212870797	-0.199331114593234
8.7	0.00144133445305512	0.0056595694153809	-1.48537131846205E-06	-2.11206295516876E-06	-3.59699774143432E-06	3.61790978583452E-06	0.979039177853907	-0.201538045641904
8.8	0.0014977439499567	0.00644779459601852	-5.50056218058306E-06	-2.17317266273629E-06	-7.25031112720856E-06	-1.33252464625863E-06	0.979014719490332	-0.203745262036142
8.9	0.00188196838751919	0.00757950870268497	8.5687995982584E-06	4.17727654504623E-06	-1.4471384016314E-06	3.20534804935468E-06	0.979404754173481	-0.205721153586547
9	0.00422309738278727	0.008244652051294	-5.27312448777654E-07	4.17475370014675E-06	-7.85695959045542E-06	1.18690378869366E-06	0.979923385906439	-0.207835154889564
9.1	0.00502461855470635	0.00697928438044021	-2.61403623648582E-06	6.64807025436413E-06	4.14495243496185E-06	-3.06721922753345E-06	0.980620516926711	-0.210372918049045
9.2	0.00571463827988855	0.00666712066800357	-1.20403014030503E-06	3.43578134807059E-06	-2.24534741166696E-06	-2.08280960389149E-06	0.980890855740496	-0.213774899846743
9.3	0.00651921341320884	0.00603437722561532	2.35834833557698E-06	-4.05099653631086E-06	-7.8833260449731E-07	-1.79452337717691E-06	0.980504445423633	-0.217517192730954
9.4	0.00708439744727375	0.00563271731561108	-1.82358612049761E-06	3.90534208053209E-06	-2.06202194421774E-06	-3.60390463399979E-06	0.978786696570747	-0.220919917145256
9.5	0.00856865598972457	0.00442706778669664	3.46550992442209E-06	6.33671069313085E-06	3.81545701126009E-07	-2.15417445184341E-06	0.978696622267877	-0.222302699958944
9.6	0.00734649137976653	0.00273965293322477	4.59748445609336E-06	7.14981689078084E-06	-8.36650473106873E-06	1.28170067924587E-05	0.979063248912941	-0.227091577387352
9.7	0.00651848552789996	0.00292072597104328	-2.89140088504736E-06	-1.56144649389966E-06	-1.37128221636678E-06	-4.00538943777327E-06	0.977751068069946	-0.230474504005826
9.8	0.00615017547094846	0.0032484603826146	1.52200311833568E-07	-3.62000865469792E-06	3.05212851987899E-06	2.43468281985801E-06	0.976786838124726	-0.232339942150779
9.9	0.00598849169039832	0.00420926017731949	5.84857269796936E-06	-5.78427987737514E-07	-2.63508761770093E-06	6.76124788601273E-06	0.976857757866728	-0.232149045914099
10	0.00788845142313894	0.00458747450820155	-1.15151377053819E-06	-5.9208215746083E-07	1.38680907321114E-06	-1.19258498196796E-06	0.981958127585257	-0.23545473771747
10.1	0.00777418177032707	0.00322299089127145	7.39531060270003E-07	-8.50607429908063E-06	6.21273746131416E-06	3.65913502389516E-06	0.97911874333046	-0.241873690834851
10.2	0.00760317230058566	0.0033068796479021	7.55060867841931E-06	8.41254605390299E-06	5.26792439960124E-06	3.57381434595018E-06	0.976672360651028	-0.243210053472599
10.3	0.00778788843274121	0.00338238429196031	1.78540745387245E-06	-7.01842401044223E-06	1.43420031713989E-06	2.89714837222761E-06	0.975508644723173	-0.244573132748536
10.4	0.00818806113626668	0.00389174253331683	-4.06337832649586E-06	-3.68077935040173E-06	1.98009137528566E-06	-5.65073665645915E-06	0.975316907135354	-0.24627762155468
10.5	0.0103248988784292	0.00360980815303505	3.67687222751506E-07	-7.13253096513747E-06	-5.77715962825261E-06	4.11846897078686E-06	0.975259912689527	-0.250703879123765
10.6	0.0105462732739826	0.00204390039247692	5.53641224279778E-06	6.78513602743333E-06	2.45373830724955E-06	1.20189435022873E-06	0.973356924006618	-0.253290749732493
10.7	0.0108951872865344	0.00142022349203064	-7.13857306645591E-06	-1.70150710808803E-06	-7.79174283576776E-07	1.57329953058469E-06	0.973415547549508	-0.256405268265266
10.8	0.0110869235608352	0.000490025022009158	1.50586584505538E-06	4.48204377523062E-06	9.49580825847757E-06	-4.52208168143256E-06	0.972888624614303	-0.259916844471328
10.9	0.0110501230733104	0.000308841484351139	3.47761785184589E-07	7.49108542865552E-06	-5.2121409223203E-06	2.23269311047106E-07	0.97209874629085	-0.262788937303641
11	0.0128403520422661	-0.000528764343480883	-2.25788803088282E-06	-3.84872608022214E-06	1.21277855045574E-05	-3.62973937036434E-06	0.971530546034336	-0.26575033318534
11.1	0.0122281623574929	-0.00268594934726389	-6.18349107655336E-06	-4.95521702406321E-06	9.7580257101409E-07	5.62088398591388E-06	0.969277535198862	-0.268983475674972
11.2	0.0117206766716438	-0.00337327360888421	3.35958863310633E-06	4.32890925302766E-06	1.04237202708221E-06	-7.94918699208882E-06	0.966818930636667	-0.271199588477982
11.3	0.0115495653893219	-0.00408022173816355	7.05580891418161E-07	-2.68277830053475E-06	-4.83538194303006E-06	9.21258563078066E-06	0.964102526445651	-0.273034350753334
11.4	0.0112873713934885	-0.00447423533729451	1.4737135806989E-06	-2.22497256981201E-06	-3.07197340536649E-06	-7.46742248463246E-06	0.960515858423557	-0.274345348367104
11.5	0.0126481087252294	-0.00579166699183981	9.49977826159652E-07	-1.01793252344651E-06	-9.09197187508764E-07	-8.73399972310915E-07	0.961218870313005	-0.273625400141933
11.6	0.0113632552412619	-0.00846949952626194	1.13033530492971E-05	-3.33843020938423E-06	-5.48772571559336E-06	-6.86769973817336E-06	0.961311076741292	-0.279452465858354
11.7	0.00992987814726628	-0.00940710338070023	5.35428438924188E-06	-2.94507622259412E-06	-4.43646950952905E-06	1.68591153188542E-06	0.958582453570766	-0.283356714035889
11.8	0.00878871889248793	-0.00995762649647368	-4.67034231662685E-07	-2.56282693244E-06	1.13835892945192E-06	1.33476458006462E-05	0.956441312529756	-0.285592486674055
11.9	0.008219194540867	-0.0097300588686016	3.35348189890009E-06	1.99067352224188E-06	3.03117599509451E-08	1.28182282343725E-05	0.957068522289068	-0.284560868812515
12	0.00964218448421775	-0.0110065015450631	2.02611775108825E-06	4.80348834881033E-07	-3.74065094103736E-06	-9.64280591623996E-07	0.963767364588127	-0.289284722853642
