# GHZ S RI R 50
0.2	0.000752715230332924	0.00359401543903339	6.30266315909917E-06	-1.00865209043303E-06	1.06667226390034E-05	1.04887511315439E-05	0.999496193817442	-0.00720561662359168
0.3	0.00136861673371207	0.00316492773584574	5.81616602567659E-06	5.03301247309528E-06	8.09401756369489E-06	2.94934472403689E-06	0.999230459000137	-0.0102751824424659
0.4	0.00182400617514906	0.00286554013855381	-2.70434534990215E-06	7.86675117922584E-06	-4.82551966351903E-07	-4.42837372363898E-06	0.999025422173795	-0.0131167601271382
0.5	0.00184248212749171	0.00278955717819843	2.30720294194606E-06	1.47806944373661E-06	7.50766248535164E-06	-1.05342470728229E-06	0.998302322426757	-0.0159775345464975
0.6	0.00231909424074319	0.00306649180276133	3.23390677499864E-07	3.53876316267118E-06	2.70531437780535E-07	-7.65911111072084E-06	0.998614829555449	-0.0185671553819699
0.7	0.00267245014050884	0.00300421590826571	4.16531049325606E-06	5.01856094920849E-07	-3.89390873895455E-06	-1.53505483243457E-09	0.998334954751028	-0.0215466718708622
0.8	0.00300408071692259	0.00299421280441049	-2.88487167192664E-06	2.96459112980215E-06	-6.81782903858974E-06	1.32334375332714E-06	0.998162426649713	-0.0236894140366076
0.9	0.00335560884789871	0.00289066205297002	6.03342684546368E-06	8.94763128096288E-07	-7.3380002221509E-06	-1.82667904304281E-06	0.998198789727646	-0.0262162755840669
1	0.00332715761407612	0.00241289586769402	2.35894342820218E-06	2.9404883877665E-06	-9.0348233623508E-06	-2.56615533892436E-07	0.997596541300665	-0.0284089436180413
1.1	0.00309916213678425	0.00260169859023994	6.43292923685656E-07	3.54932234418937E-08	-5.29560468185637E-06	1.40215068039541E-06	0.996733197847501	-0.0302646244752016
1.2	0.00311874382067079	0.0021403411387095	-5.28754489551053E-06	-3.28478757172059E-06	-1.11716205033617E-05	-1.26397403447016E-05	0.995694792551858	-0.0313949292946181
1.3	0.00253332215311121	0.00132584264990719	3.04527423591112E-06	3.09880857700317E-06	6.94734841275144E-06	-4.07841949219417E-06	0.995098577467107	-0.0321834966610037
1.4	0.00194974205693117	0.00066768050799573	-2.79507473488442E-06	-1.11227281766608E-06	5.70487528510209E-06	6.28318753262496E-08	0.994773383481867	-0.033827201840572
1.5	0.00157094874845088	0.000606774811756457	1.23895850805793E-06	-2.53121606094128E-06	8.01348639956666E-07	2.5094965022605E-06	0.995285774220304	-0.0369932215764122
1.6	0.0020910695009868	0.0010364827548625	-9.34476829753988E-07	-6.40994564358656E-06	3.18145770636807E-06	-4.24118597736523E-06	0.995358529763324	-0.0397965351908392
1.7	0.00259584763801693	0.00107162180767727	3.40298914249827E-06	6.31739063432546E-07	2.2342620095857E-06	3.84874706621306E-06	0.996160561502839	-0.0421866310141882
1.8	0.00297223319994089	0.00118854135161909	-2.37534214987719E-06	2.89629985463247E-06	-1.01442011757666E-06	-3.99469286949992E-06	0.996510200252837	-0.0449434961492656
1.9	0.00331502088913782	0.00100701173355854	-3.73102597298901E-06	-1.75795440221947E-06	5.62779497574683E-06	3.02396291685545E-06	0.996815718038618	-0.0477970564118506
2	0.00307072018181416	0.000885961263669041	-6.17342621287681E-06	-5.74054621366456E-06	-2.07105748546726E-06	9.14554798243983E-06	0.994972561755424	-0.0512262272931228
2.1	0.0032785319729371	0.00125865592777917	1.1693055937474E-06	4.60042396587349E-06	4.47592546301261E-06	3.98733660538922E-06	0.994379790927259	-0.0518863407517264
2.2	0.00350596120398236	0.00117982551776488	6.55289406504052E-07	9.06341581897115E-07	-3.62094495303142E-06	-1.09307279102218E-05	0.995013973945972	-0.0538722420157205
2.3	0.00356235077675344	0.00103201302498431	-2.28500188436863E-06	3.5566011281225E-06	-5.33589250833364E-07	-2.79432797013689E-06	0.995076835493837	-0.0556550475026311
2.4	0.00359411545240248	0.000803660361392255	-1.55486369406125E-06	-1.45516732889437E-06	1.28357235791104E-06	-9.97422631627368E-07	0.99537771325641	-0.0589298129504385
2.5	0.00306813508343287	0.000343157683431987	7.77936197362095E-06	4.06307561806384E-06	-2.34009573825342E-06	-7.22513469841266E-06	0.994838851804059	-0.0616348024814749
2.6	0.00259674037645496	0.00078751402602837	4.85427583356091E-07	2.11698191440443E-06	-1.46940274889519E-06	4.68368405621648E-06	0.994471833296627	-0.064459524017434
2.7	0.00258559956362943	0.00113130026848677	-7.86529521906328E-06	5.23543156113624E-06	2.52839270413259E-06	9.71774392681992E-06	0.99380354743566	-0.0673075594534304
2.8	0.00287496007259762	0.00149978794137053	-7.74408102020858E-06	7.94672302764074E-06	6.00128898973499E-06	1.99096856700679E-05	0.99375480752137	-0.0688166046314968
2.9	0.00343180321639457	0.00148260683741976	-1.19000003018597E-06	8.58415414007382E-07	-8.11206765516639E-06	-2.96782058457892E-06	0.993709094791518	-0.0704854623450365
3	0.00358121476844089	0.00134634261204398	-6.04575796107525E-07	-4.47285596405931E-06	-2.19239826687567E-06	6.43590919017616E-06	0.993665640220599	-0.0728674137326098
3.1	0.00415691474605147	0.00149491776544636	-2.58862509828465E-06	8.64293482710257E-08	1.10201283740751E-05	-3.51537137488162E-06	0.993283229011691	-0.0744418458904494
3.2	0.0045909313116979	0.00117518017948906	-9.80129488614322E-06	2.53537070713889E-06	1.21561861719252E-05	4.27768665648544E-06	0.993297563518568	-0.0757905477739737
3.3	0.00483457205681878	0.00077262017585992	-3.469325714545E-06	9.28367576003245E-07	-5.00979645356466E-06	-1.50593380016772E-07	0.993500689325417	-0.0786624950492694
3.4	0.00496445816468692	0.000306361178471056	5.34770177650671E-06	4.96571970034114E-07	1.34843076132993E-06	4.49348116911411E-07	0.994208228083974	-0.0805220488038805
3.5	0.00453359730012048	-0.000203239870766796	2.76983465037222E-06	1.56324106466815E-06	1.31296934748979E-06	7.94865655916532E-07	0.994373743963478	-0.0842681878350852
3.6	0.00444833453339606	2.39545265488001E-05	-7.15133941433285E-06	-1.38098161582854E-07	1.8680428432372E-06	-3.49769320381874E-06	0.993494855148309	-0.0864931263564908
3.7	0.00452928421517786	-0.000195096898010285	5.7805012878907E-06	-1.50759520217112E-06	-3.23590790754245E-07	-1.73350720316327E-06	0.993861300388592	-0.0888039995890637
3.8	0.00453545253360858	-0.000418641229635963	-2.00438809740109E-06	8.75362747283922E-07	-5.19704846058864E-06	2.93541308116468E-07	0.994314174591513	-0.0910633135367753
3.9	0.00453834273651428	-0.00078204936352875	-8.37560211470549E-06	1.77686684509719E-06	-4.12082862268409E-06	-1.50381726908921E-06	0.99496091253659	-0.0953735322511802
4	0.00390415418496284	-0.00109441649670142	-5.82677150706087E-06	3.67179504636316E-07	-9.499632967616E-06	-8.45371183065727E-06	0.992825090866102	-0.098250572087448
4.1	0.00382840315982462	-0.000510843591909995	-3.99177073993585E-06	4.0613053890404E-06	-1.88699707488906E-06	5.57939783828445E-06	0.991890046568653	-0.0984521154229764
4.2	0.00411740772840203	-0.000460484752532085	4.62751282050529E-06	-4.38129781212877E-06	6.75580195865029E-06	7.63230930290523E-07	0.991831472138182	-0.100656811627977
4.3	0.00433608484256253	-0.000542902300899627	-3.79884289141623E-06	1.12334912847044E-06	3.5517787209425E-06	-1.20289427926466E-06	0.991928344029546	-0.10260886568
4.4	0.00452789532759014	-0.000835229944623227	-3.14326639186795E-06	-4.93891178602402E-06	9.31220691231016E-07	-1.03529708502377E-06	0.991533152993871	-0.104992753143382
4.5	0.00402659685864487	-0.00124112487407177	-1.39561675732803E-06	2.02729981001805E-06	2.16147792468112E-06	-8.46915487314997E-06	0.991153775659971	-0.106720371718074
4.6	0.00385747600798637	-0.000796449051601158	5.380414197012E-06	9.61631244749176E-06	-1.42360060772959E-05	9.79359267346296E-06	0.991589965317495	-0.109181568009467
4.7	0.00399251125547708	-0.000813007376184801	-7.58328710684523E-06	-9.58730371565182E-06	-1.14622543846442E-06	-1.37176581694625E-07	0.991828928502764	-0.11137456494696
4.8	0.00403680018127014	-0.000826433509271048	-8.74893385049384E-06	-2.70625758944073E-06	-4.39252304825834E-06	4.54091080689755E-06	0.991676148350773	-0.113932406720491
4.9	0.0042801669460985	-0.00098760002404985	5.76301414767855E-06	8.33655580172116E-06	-7.27035728213413E-06	3.26962985188722E-06	0.991790993906711	-0.115796952803098
5	0.00408571222577455	-0.0013411453245974	4.30744513903457E-06	-8.55039759659617E-06	-4.28709943151122E-06	-6.2023753526172E-06	0.992183997380383	-0.11784669936114
5.1	0.0045753401144745	-0.00116886294115677	1.52733012877327E-05	-1.02477885238456E-05	3.51100464532289E-06	-8.74117746413232E-06	0.992452987294451	-0.119554036419853
5.2	0.00505476399194459	-0.00183777071231354	-4.2362156092318E-06	-4.73293262963135E-06	-3.17187574373797E-06	5.20815889050431E-07	0.992553435438506	-0.122247543408614
5.3	0.00507876078617754	-0.00258134660174652	4.78218737996128E-06	3.38886576544575E-06	-9.3086340878166E-06	-4.77056882175198E-06	0.992460837513984	-0.125061927944542
5.4	0.00483224894334063	-0.00327326534724268	5.18989938735256E-06	1.21349026450128E-06	-4.9738726718897E-07	1.04797194652038E-05	0.992690091280617	-0.128261281733053
5.5	0.00370483314202138	-0.00354782651087549	-1.8161126551588E-06	-1.99035632975608E-06	8.91281581434512E-06	5.22587839590163E-07	0.992215519085861	-0.132314644990795
5.6	0.00368070613691355	-0.00279831702695373	4.25417035836759E-06	7.2502401184775E-06	-4.62889017374946E-07	-8.63647495751462E-06	0.991021796549031	-0.134419201657616
5.7	0.0037802448312286	-0.00290630443477939	2.06107261126598E-06	-7.2268492667492E-07	5.48400200837202E-06	2.46344994184597E-06	0.991279126277471	-0.136542858583272
5.8	0.00361102701430405	-0.00301641151592964	3.92230826821804E-06	1.96769979025137E-06	2.73687935313648E-06	7.85669357022851E-06	0.991972217394093	-0.139087058901676
5.9	0.00352289669990905	-0.00322222867406424	-3.79504560745927E-06	-3.06477880564861E-06	-4.71362868425138E-06	-1.78328755950747E-06	0.992455469346378	-0.14303320942769
6	0.00240844263895271	-0.00392328801029014	-2.0783346015322E-06	1.70728116891835E-06	1.04424054668293E-05	-2.66923457553941E-06	0.989297662276777	-0.146779010953083
6.1	0.00142753970062635	-0.00298800354530312	-7.33735305052493E-06	-1.11501198311488E-06	-7.23359510838747E-07	-2.48826955378373E-06	0.988083548993013	-0.145940210609493
6.2	0.00112427015871995	-0.00249623691928491	-1.06648946459591E-06	1.9924229617684E-06	-3.48498269776266E-06	-5.37922267394586E-06	0.987988261286447	-0.146834928585063
6.3	0.00105598607592461	-0.00209388371714916	1.57971588359983E-06	2.83889382707983E-06	1.14606225463003E-06	5.98859345810849E-06	0.987720409956074	-0.148555418403716
6.4	0.00125967589702967	-0.00228577229964541	2.07330895592694E-06	5.04725941683328E-06	-3.33998485704622E-07	2.27733474883498E-07	0.987205908769073	-0.150988854878383
6.5	0.000584263647260948	-0.00250021090765425	4.67918743595619E-06	-1.87534294392137E-06	-4.69627553399963E-06	-1.55783911613911E-06	0.986252663862659	-0.152209647730473
6.6	0.000915478202364644	-0.0021201311931731	3.27917518683616E-07	-1.07242988977731E-06	9.32627698079325E-06	3.35742852157673E-06	0.988422802663945	-0.154542346060678
6.7	0.000819593968766094	-0.00236338412798999	5.31474074748259E-07	5.6325258045017E-06	-1.79602523552918E-06	4.99174866510225E-06	0.988873584192898	-0.158126548994948
6.8	0.000572015376465012	-0.00212552772902142	1.75535700404722E-07	-1.59209757618482E-06	-3.49182764555299E-06	-5.1356474918915E-06	0.988662418253586	-0.161061972686976
6.9	0.000640016077307993	-0.00204580445709542	-6.66107597143692E-06	6.7450705118151E-06	2.29589217523499E-06	1.35681299455892E-06	0.988745413097873	-0.164013767888269
7	-0.00036912589435401	-0.00195845794875381	8.10955607972767E-06	3.17067724248984E-06	4.5874978211529E-06	5.88052928382917E-06	0.987053553843682	-0.166730066416439
7.1	-0.000208151741109313	-0.000545875535605495	1.40170172593646E-06	7.85004969873052E-07	-2.28537025371959E-06	-4.48986972745839E-06	0.986436681682995	-0.167300872074929
7.2	0.000197796864671293	-0.00025729481225522	-1.31440223284723E-07	4.41220123040939E-06	-5.02825863391572E-06	-6.54955886139995E-07	0.986432259713914	-0.168714068771409
7.3	0.000223182034946243	4.38163171815997E-05	1.35108792500194E-06	-5.28124718461878E-06	-2.35800941095449E-06	-2.79572220635684E-06	0.986307708235215	-0.170058431260241
7.4	0.000397260586344062	0.000201059413289787	1.84643376522785E-06	4.4366372365447E-06	-7.31318080619187E-07	-1.07280089695926E-06	0.987684041908909	-0.172300186699429
7.5	-0.000439623675615365	-0.000238124934984193	-5.77374193287342E-06	-1.48297454582941E-06	-1.61027070197094E-06	-8.9401804344289E-06	0.988120807659423	-0.178676248092501
7.6	-0.000843246229868133	0.00104313000427814	5.62970434988814E-06	-3.41733861020013E-06	1.03713311178729E-06	3.19674432395425E-06	0.985246330432562	-0.182058931422812
7.7	-0.000599943731959161	0.00136496347328185	-6.53233248444476E-06	-2.8486837868957E-06	4.40891455625874E-06	5.67230421700516E-06	0.984927083520783	-0.185468432700604
7.8	-0.000310974798732416	0.00133905875698099	-1.10662163614529E-06	-5.36897841419265E-06	-2.09746031800192E-07	1.14788298761739E-06	0.984709329325592	-0.189697335333149
7.9	-3.48607815200764E-06	0.000975201349722143	-3.32464354859747E-06	7.25015561420022E-06	4.40581340754213E-07	-6.90571200613941E-06	0.983902869917408	-0.195052792613269
8	-0.000982164717441107	0.000933535760182156	-1.87418359504186E-07	7.39348373330447E-06	1.74594418982088E-06	-4.47291404163239E-06	0.978328354862516	-0.199494377603331
8.1	-0.000127867012617477	0.00191231591922437	-7.6441045195058E-07	-6.46468809925126E-06	-1.75278285931727E-06	-1.05654439005451E-06	0.976748091569627	-0.198092454865039
8.2	0.000389168865302865	0.00186262468627813	-3.82359963411953E-06	1.66657617425275E-06	-1.09857330879636E-05	-2.5781547975155E-06	0.977066291481062	-0.199593932825102
8.3	0.000652956003577397	0.00200399219543283	-5.5870959227524E-06	-9.84515278165105E-06	-7.78031700631755E-06	3.05053304808458E-06	0.976499314447379	-0.201982184988553
8.4	0.00108869522956556	0.00205554392707179	6.74656211177931E-07	-6.12478902896776E-07	-1.4142536223828E-06	4.45703991880065E-07	0.975463388491862	-0.204441700598282
8.5	0.000341433623836288	0.0020318306819335	-1.752854025543E-06	-2.53217331033207E-07	-3.91594423912434E-09	1.80347145300505E-06	0.97427519249709	-0.206172470273406
8.6	0.000821303084905862	0.00358927894596531	2.4176786310837E-06	-3.98278236822237E-06	-4.58515903081003E-06	-5.91396387420737E-06	0.974701857446028	-0.208271627241462
8.7	0.00179200347511242	0.00395761327194259	-1.50673077743324E-06	-2.09005483427716E-06	-3.54681729491355E-06	3.65187805634019E-06	0.974618165230926	-0.211091509397546
8.8	0.00258937939052699	0.00421316228054883	-5.50475137576413E-06	-2.10055921561026E-06	-7.23794134705631E-06	-1.24271451526748E-06	0.974286948203367	-0.213560646537871
8.9	0.00370668900851194	0.00407922768447776	8.56372683533285E-06	4.06568474740316E-06	-1.40604255008134E-06	3.20226244437692E-06	0.974275678947743	-0.215716782855703
9	0.00391255036294732	0.00338300097724672	-4.90028479284959E-07	4.16305346588118E-06	-7.81654147506401E-06	1.248641230097E-06	0.974009025471661	-0.218281465878029
9.1	0.00480697362821445	0.0036061658626945	-2.53406054625195E-06	6.64429294305517E-06	4.09456770389669E-06	-3.09552850652918E-06	0.973280231676982	-0.220468153552834
9.2	0.00564067925211095	0.00277569865651274	-1.16534519224836E-06	3.42553706128765E-06	-2.2504422953516E-06	-2.04953262013892E-06	0.972380166229702	-0.22270062340007
9.3	0.00594380643192989	0.0020991978437837	2.31392640850475E-06	-4.04274690244978E-06	-7.96482998376015E-07	-1.77747945196103E-06	0.971801524467882	-0.224497360903514
9.4	0.00632653462034655	0.00141161716338158	-1.79270682347457E-06	3.89816112185474E-06	-2.07351317052641E-06	-3.57560787678906E-06	0.972003268738187	-0.226827595851434
9.5	0.00575585179519759	0.00121332213585298	3.51879238513057E-06	6.29040126565371E-06	3.60179260145277E-07	-2.15332491490373E-06	0.971413278576437	-0.231066645916214
9.6	0.006600457529726	0.00176023739442247	4.64712153224574E-06	7.05211421630088E-06	-8.16941418523104E-06	1.28266788975343E-05	0.969779382728371	-0.233473157523491
9.7	0.00730104279450091	0.00123713200466147	-2.88305792078164E-06	-1.52072814660212E-06	-1.39898316154064E-06	-3.95956158088658E-06	0.969636692409996	-0.235627486389165
9.8	0.00768522616499362	0.000787905919588143	1.17540800449038E-07	-3.59122790810717E-06	3.04913619433871E-06	2.38622938810922E-06	0.970100121468023	-0.238077497799417
9.9	0.00817570097652074	0.000194421855130857	5.78977425150816E-06	-6.38392569952378E-07	-2.53619042215437E-06	6.73007206817688E-06	0.969951372523471	-0.242003676517821
10	0.00738044680542294	-0.000651635380983326	-1.13973499583856E-06	-5.71092021754952E-07	1.35307709892194E-06	-1.18832104727976E-06	0.965108245409554	-0.244168005843623
10.1	0.00757560177020216	3.98083556977873E-05	6.91048575978847E-07	-8.38748978190013E-06	6.14001674535242E-06	3.57903385747018E-06	0.965379517437954	-0.242041760178954
10.2	0.00810467191108956	-0.000180829523456728	7.49035684141536E-06	8.27754268179571E-06	5.21668154443329E-06	3.50819929738575E-06	0.966456833605832	-0.243667964343905
10.3	0.00857688499149759	-0.000377388956427183	1.73233882950175E-06	-6.93917737616402E-06	1.42915863184151E-06	2.8548740905959E-06	0.966155576504828	-0.246321069896597
10.4	0.00943289502227017	-0.00104975354717611	-4.01992520562032E-06	-3.61128370636045E-06	1.92859196395445E-06	-5.57752359019569E-06	0.964614122910472	-0.249587579422385
10.5	0.00906713730497929	-0.00202123186933113	3.65093531394408E-07	-7.03225399986292E-06	-5.6975285206371E-06	4.0585627835487E-06	0.962195013849283	-0.251165230284136
10.6	0.00953672811526637	-0.00207871449167667	5.48076778520967E-06	6.70175972967569E-06	2.42709813674249E-06	1.18551096014584E-06	0.961823984653186	-0.253569188672565
10.7	0.00969549016481476	-0.00264012994104602	-7.05060824518691E-06	-1.66656204786592E-06	-7.66313702606858E-07	1.55466147884073E-06	0.959938805938831	-0.256062358600134
10.8	0.00994134486026866	-0.00274505876429037	1.48862562773971E-06	4.41677047455979E-06	9.35626586825926E-06	-4.46658269433597E-06	0.958367124499155	-0.256721105641499
10.9	0.0109309087453243	-0.00340295167249217	3.32292897078235E-07	7.37901370387888E-06	-5.13413818753974E-06	2.12787273767748E-07	0.958673743630612	-0.257207606425367
11	0.0106335139277909	-0.004475052382585	-2.21604449963448E-06	-3.80869536452122E-06	1.19892759905676E-05	-3.54139027534914E-06	0.958435962145629	-0.257572571296439
11.1	0.0114226263439499	-0.00451261941789572	-6.0979622522803E-06	-4.91117715823394E-06	9.50630543851772E-07	5.55635911576195E-06	0.959430991113545	-0.257753206095015
11.2	0.0121422400222375	-0.00580270033862965	3.30383936708981E-06	4.28598020579405E-06	1.05512755948486E-06	-7.84703288951157E-06	0.960266069553916	-0.259180379328747
11.3	0.012431417114163	-0.00720768809141892	7.1044169933555E-07	-2.6469327969967E-06	-4.82300102162248E-06	9.07747592945296E-06	0.961203094918117	-0.261033630688919
11.4	0.0125660155565559	-0.00885652399541281	1.47535256949582E-06	-2.19370812966819E-06	-2.9908811921276E-06	-7.41846765302666E-06	0.962393729346549	-0.26423133798469
11.5	0.0112024871766096	-0.0104977317199836	9.45904192779587E-07	-1.00847088057258E-06	-9.00684052379885E-07	-8.69588084060558E-07	0.960785204679877	-0.270080455815337
11.6	0.0110407853115251	-0.010801518646906	1.11838071143539E-05	-3.27178460785608E-06	-5.40804104937785E-06	-6.80388730140921E-06	0.958138690021731	-0.272303371156279
11.7	0.0110060614064727	-0.0121815607825581	5.30771030607939E-06	-2.88508021329556E-06	-4.39416065095157E-06	1.64480661104343E-06	0.95815814430571	-0.275438255648861
11.8	0.0107146716957739	-0.0136723271100985	-4.47622114180257E-07	-2.54016306641389E-06	1.05006179340065E-06	1.32221402192051E-05	0.958363599223029	-0.280129826466305
11.9	0.0101382188012479	-0.015813372473239	3.31646385458484E-06	1.98490165162374E-06	-1.57535111768104E-08	1.27040246116329E-05	0.957202799744369	-0.285935645695092
12	0.00762755389623273	-0.0175148058365826	1.99499403908699E-06	4.80141905015412E-07	-3.68293027726763E-06	-9.62770318982465E-07	0.950439717211398	-0.288822278466288
