# GHZ S RI R 50
0.2	0.000448265112195095	0.00322044842018859	6.31139986108374E-06	-1.00298167455622E-06	1.06681724107854E-05	1.05131192688995E-05	1.00017624995127	-0.00670487267039403
0.3	0.00116464022067069	0.00305617579834758	5.81922062112405E-06	5.04539026297801E-06	8.10214907018876E-06	2.96108254750083E-06	1.00015027791817	-0.00963628278580695
0.4	0.00165638719230041	0.00309177753744054	-2.71537294930378E-06	7.87863575140394E-06	-4.79917059990662E-07	-4.43664606023541E-06	1.00046616276463	-0.0122595498115138
0.5	0.00230990809086622	0.00303121096620141	2.31111995036578E-06	1.4805729924015E-06	7.5203979951093E-06	-1.05522534771565E-06	1.00060443047869	-0.0158894301734461
0.6	0.00240831875855116	0.00274162163937912	3.2202801927037E-07	3.54315902408983E-06	2.74642361083117E-07	-7.66814542959847E-06	1.00026799343836	-0.0189845422041741
0.7	0.00240449678861737	0.00292491989072175	4.17171156172994E-06	5.0601905487949E-07	-3.90026805522808E-06	-4.66292501110778E-09	0.999935894656234	-0.0218020144005178
0.8	0.00260779192152947	0.00314408685563812	-2.89316590644436E-06	2.96834163098037E-06	-6.83285786850977E-06	1.32056791528152E-06	0.99977557568976	-0.0239612385993229
0.9	0.00272709909218497	0.003395431246786	6.04800522391982E-06	9.01462827625E-07	-7.35518736973254E-06	-1.83669225617973E-06	0.999608037141693	-0.0262331169705654
1	0.00324765378441652	0.00378348441695862	2.36569824178725E-06	2.94962578112782E-06	-9.06200495140336E-06	-2.58464233643726E-07	0.999717980680925	-0.0276099747087722
1.1	0.00359304893963076	0.00326207964298333	6.45013379466101E-07	3.54781138588411E-08	-5.3094785863223E-06	1.40679052972641E-06	0.999510454015789	-0.0300273628100093
1.2	0.00328589610629277	0.00273771363910849	-5.30273705759322E-06	-3.29340618313989E-06	-1.12043559486586E-05	-1.26739300980825E-05	0.998706948090147	-0.0311090097388718
1.3	0.00271265104476817	0.00204439299295879	3.0553163289362E-06	3.10677626017293E-06	6.96620973302802E-06	-4.09288427099299E-06	0.998675214887083	-0.0321669354734508
1.4	0.00212467578017656	0.00145982847200333	-2.8032053333295E-06	-1.11348583176563E-06	5.72009133922272E-06	5.94353834599176E-08	0.998311945666984	-0.034361779184241
1.5	0.00222656563711771	0.00119988450318833	1.24095639344116E-06	-2.53768999421517E-06	8.04188326694407E-07	2.51515744196136E-06	0.999322193172278	-0.0378383185820786
1.6	0.00209912979340553	0.00120877513806897	-9.38311784263976E-07	-6.42672416276056E-06	3.18898397456423E-06	-4.25309379157633E-06	0.998964740237715	-0.0416760989104639
1.7	0.00241169770636706	0.00161752995687991	3.41308234809596E-06	6.32192320939616E-07	2.242274440081E-06	3.85897252519289E-06	0.999329544289618	-0.0441859597293871
1.8	0.00278927556882446	0.00193564183249296	-2.38052170473369E-06	2.90609220423753E-06	-1.01971146850669E-06	-4.00567339851674E-06	0.999317917558844	-0.0468595337592377
1.9	0.00316486257053261	0.0021271789915008	-3.74204472797409E-06	-1.76193845774495E-06	5.64451403160894E-06	3.03102542905373E-06	0.999410289720793	-0.0487209285642865
2	0.00381209742911056	0.00207843611812375	-6.2004826692968E-06	-5.76599924818924E-06	-2.08041691355658E-06	9.18579462089953E-06	1.00036075215493	-0.0514725728223775
2.1	0.00373249780062011	0.00158476845312517	1.18343684763784E-06	4.61910729467445E-06	4.50392119484833E-06	3.99689699537958E-06	0.9999948509092	-0.0552469119960527
2.2	0.00353375617606913	0.00162045578160029	6.59900099616326E-07	9.08316692077504E-07	-3.66008025518611E-06	-1.09644230153207E-05	0.999435239035267	-0.0579085541919332
2.3	0.00340175310181542	0.00163160166857927	-2.28487845116696E-06	3.57511078860504E-06	-5.42228457657981E-07	-2.80330159249745E-06	0.998809670574874	-0.0598457116262746
2.4	0.00318360103951412	0.00175315203716248	-1.56465388734928E-06	-1.45661868899031E-06	1.28584157162132E-06	-1.00462848529928E-06	0.998534687270805	-0.0629091200287933
2.5	0.00328455220523028	0.00195241011014698	7.82114096879456E-06	4.0502962463485E-06	-2.37364008606632E-06	-7.24257323574168E-06	0.998304703330746	-0.0651159322755058
2.6	0.00315840672718785	0.00171304807831411	4.93744778273308E-07	2.12155268524821E-06	-1.45839541726636E-06	4.70209357510627E-06	0.998252735756322	-0.0682206379346849
2.7	0.00295587322873171	0.0018700016262701	-7.87305402185473E-06	5.27700389580053E-06	2.56745677981806E-06	9.7399686696242E-06	0.997951081325784	-0.0714061194939818
2.8	0.00300321811350847	0.00216115318598942	-7.74085191042265E-06	8.00095775154689E-06	6.09314436503407E-06	1.99536134650569E-05	0.997954485423114	-0.0736623771353841
2.9	0.00330577215776136	0.00243739471450777	-1.19008153669687E-06	8.66351304630555E-07	-8.15102216393356E-06	-2.94202610250408E-06	0.997473525164912	-0.0758284680246487
3	0.00399500498153928	0.00246923591061012	-6.27793809484531E-07	-4.47989191674935E-06	-2.16583103812894E-06	6.46100451833201E-06	0.997254365763355	-0.0783481141136844
3.1	0.00420709862412047	0.00214216127426306	-2.59359098409985E-06	9.85067772349737E-08	1.10268019685233E-05	-3.57330751875729E-06	0.996735489314872	-0.0805891791264081
3.2	0.00438466031762521	0.00208736134902471	-9.80783643863079E-06	2.58959634169415E-06	1.22015863695239E-05	4.2250315867054E-06	0.996231828398632	-0.0825238791210281
3.3	0.00456102297444945	0.00188800424292661	-3.4696188402211E-06	9.49092874204439E-07	-5.01850113772792E-06	-1.23007548078845E-07	0.99562833974584	-0.0859330975360087
3.4	0.00461337570043295	0.00177842661434912	5.35421201648252E-06	4.6411827385603E-07	1.3520589346896E-06	4.41375000768173E-07	0.994967794351845	-0.0878727443424328
3.5	0.00491503299422256	0.00151145359050851	2.77581740553547E-06	1.54794114939175E-06	1.31608070927674E-06	7.87574014272774E-07	0.994769465761236	-0.0900288072117279
3.6	0.00461093376093557	0.00102529578943058	-7.15353185669115E-06	-1.05472861838614E-07	1.85247915755608E-06	-3.50698721549941E-06	0.994791512341053	-0.0930231536247554
3.7	0.00428520573102627	0.00104007770454191	5.77356608890144E-06	-1.53764029338246E-06	-3.32582223385763E-07	-1.73209052818616E-06	0.994096420286919	-0.0960454528787602
3.8	0.00418752116322202	0.001168043283765	-1.99885639726058E-06	8.85698231249918E-07	-5.19326353865394E-06	3.21182366387859E-07	0.993155523459441	-0.0979703892987098
3.9	0.00427591286613375	0.00136656727224423	-8.35879700233191E-06	1.81497373159858E-06	-4.12388260626563E-06	-1.48269911636571E-06	0.992742885729838	-0.100406179097524
4	0.0048052018150626	0.00128871361746163	-5.82768322243895E-06	3.92458236378884E-07	-9.54014760217909E-06	-8.41637466188719E-06	0.993480603450103	-0.101547928954433
4.1	0.00475298129360178	0.000790431693983357	-3.96697819510986E-06	4.08618672434753E-06	-1.85270600806329E-06	5.59139502788251E-06	0.992956110411774	-0.104515869575612
4.2	0.00463213894387871	0.000669685704212164	4.59586559460133E-06	-4.40600305587485E-06	6.75420045816557E-06	7.20427261461122E-07	0.991744050114731	-0.107156492327998
4.3	0.00457337260086551	0.000582950598294444	-3.78725008723211E-06	1.14485507651735E-06	3.54001878729723E-06	-1.2228082278417E-06	0.991212300048521	-0.109026164558346
4.4	0.004460026049623	0.00058641664506855	-3.17028162202938E-06	-4.91429558234961E-06	9.23856829049934E-07	-1.03991726025E-06	0.990586991046108	-0.111115470214845
4.5	0.00467259898945381	0.000523870588691924	-1.37786940117993E-06	2.03433328786123E-06	2.09370239167976E-06	-8.47080211937425E-06	0.990493716102046	-0.11344855308314
4.6	0.00428968875895174	7.11228507603914E-05	5.42729279795026E-06	9.54661459488672E-06	-1.41203900407628E-05	9.85669730283617E-06	0.989729653793025	-0.116265767708494
4.7	0.00390008254299225	0.00013848684237739	-7.61332573490072E-06	-9.50666711550072E-06	-1.14286821885319E-06	-1.2977603874275E-07	0.989409923793964	-0.118160321195272
4.8	0.00368138294160336	0.000314144920486697	-8.73204568529834E-06	-2.64646687176698E-06	-4.35046158255066E-06	4.54915355899235E-06	0.988771505653188	-0.120653204843982
4.9	0.00367766001141503	0.000576017159339585	5.79002114670904E-06	8.27084178943772E-06	-7.22337353121108E-06	3.29988911763519E-06	0.988028010840686	-0.122381664527307
5	0.00418234249168422	0.000503840462506712	4.23356477237517E-06	-8.53066070089168E-06	-4.30131438636365E-06	-6.14385430184646E-06	0.987636525653562	-0.123673280459238
5.1	0.00417942960580105	0.000120583398333494	1.51406183868703E-05	-1.02594829090047E-05	3.4514670715773E-06	-8.70787639396471E-06	0.987486251092082	-0.124878463340181
5.2	0.00430450667246431	1.67194467578015E-05	-4.23307256874132E-06	-4.68907299429299E-06	-3.152303018624E-06	5.31401747474462E-07	0.986946626529763	-0.126937533610452
5.3	0.00448865439524641	-0.000222140270777962	4.76977545917223E-06	3.34930726583659E-06	-9.27665476624238E-06	-4.70384749385246E-06	0.986405949462998	-0.128953270013881
5.4	0.00456781408277493	-0.000430845097273709	5.16174745336823E-06	1.18166404018379E-06	-4.45821583458039E-07	1.04138667691037E-05	0.986001648848538	-0.131272735025715
5.5	0.00482680040848983	-0.000894644512289025	-1.80673837035316E-06	-1.96860236676969E-06	8.84025839307573E-06	4.92648711176047E-07	0.98605205142791	-0.133174471678403
5.6	0.00411501443467676	-0.0014558296029185	4.23468251764788E-06	7.19431023967978E-06	-4.71501351233087E-07	-8.57614896153185E-06	0.986182919565953	-0.135961620751093
5.7	0.00349359810558993	-0.00125647546978191	2.04631664375484E-06	-7.20938918383703E-07	5.45123663100273E-06	2.43897020333371E-06	0.985564676981821	-0.138433491730949
5.8	0.00308609350828962	-0.00100028734750713	3.8970771700203E-06	1.94965401573054E-06	2.72638963772849E-06	7.79882420099165E-06	0.985026723377325	-0.140181032138923
5.9	0.00271894737879802	-0.000548317867964566	-3.76738698918241E-06	-3.04440157826059E-06	-4.6799075565202E-06	-1.77221360665153E-06	0.984600707614089	-0.141280843209044
6	0.00294217000614682	-0.00020812009335668	-2.07018376688603E-06	1.69881217770477E-06	1.03984419665755E-05	-2.65232917738337E-06	0.985888899982117	-0.142442473926198
6.1	0.00256177590853725	-0.000614210939922332	-7.30067302207208E-06	-1.09613955372719E-06	-7.23956649641985E-07	-2.47387919168979E-06	0.985623074443994	-0.144709225835104
6.2	0.00196034755843524	-0.000506126028636649	-1.05681474803751E-06	1.98080408758932E-06	-3.4693967234248E-06	-5.33927410066946E-06	0.984947021710761	-0.145807424323433
6.3	0.00159540588058523	-0.000354150807431247	1.57014107525057E-06	2.8185980441818E-06	1.14093232501323E-06	5.94679066243077E-06	0.984616274873865	-0.147472743351679
6.4	0.00136914824513268	-0.000173887801282542	2.05898820992999E-06	5.01695539208205E-06	-3.32021878254511E-07	2.26230435331458E-07	0.984529907108168	-0.149379451997138
6.5	0.00154935883310366	-0.00044146793116095	4.64771356284745E-06	-1.87068472275077E-06	-4.66972629270139E-06	-1.54139526282379E-06	0.984488725151253	-0.15298244200843
6.6	0.000850360777435183	-0.000555483572816983	3.25155912871196E-07	-1.06334193039818E-06	9.2472370417197E-06	3.32912914805957E-06	0.983098477296156	-0.155289427825741
6.7	0.000598641639002215	-0.00010352511685463	5.16943295845549E-07	5.58713518843003E-06	-1.79024789900458E-06	4.94743361027774E-06	0.982805011835362	-0.156952466869701
6.8	0.000450418035327531	0.000289708432354092	1.78558948861996E-07	-1.57941771074095E-06	-3.45098370534157E-06	-5.10587978958727E-06	0.982424509357832	-0.15880406610526
6.9	0.00035517775775096	0.000881921526556401	-6.63431821898173E-06	6.67640235296692E-06	2.27532451849797E-06	1.35420367573562E-06	0.982171580931178	-0.160277261706038
7	0.000886140161835431	0.00110741476733119	8.03966899395909E-06	3.17241186224879E-06	4.53526051939564E-06	5.8512566752986E-06	0.982444757411868	-0.161754753749131
7.1	0.000275705049849771	0.0010101248382733	1.38796849056863E-06	7.84779473945867E-07	-2.24996449023257E-06	-4.46534091479589E-06	0.98191458044418	-0.16381673190645
7.2	-0.00010244960424122	0.00169998789311629	-1.50705750632885E-07	4.38021457658848E-06	-4.98949301489949E-06	-6.73318051423165E-07	0.981049308234889	-0.165416613234096
7.3	-0.000282430196492836	0.00235845763875953	1.36613048945105E-06	-5.23857714123929E-06	-2.32884314597714E-06	-2.78731190296082E-06	0.979762661544502	-0.166987747307121
7.4	-0.000491459177764959	0.00312100395114973	1.81186893953423E-06	4.40968022316276E-06	-7.206977400588E-07	-1.06756013006689E-06	0.97797591271595	-0.168508378315465
7.5	1.07266207712007E-05	0.00378168424486362	-5.70957119378239E-06	-1.51543336216028E-06	-1.52457141374519E-06	-8.87188146172604E-06	0.977864599539895	-0.168655454753566
7.6	-0.000120810617556755	0.00354434701038272	5.6281153268715E-06	-3.34724491802234E-06	1.00250680623137E-06	3.18773620932653E-06	0.978789483245463	-0.171998067490942
7.7	-0.000394772041194477	0.00388179722887721	-6.47485576737698E-06	-2.89008741201019E-06	4.33806419772612E-06	5.68123669075085E-06	0.978577388798984	-0.175184815641373
7.8	-0.000358693360737006	0.00410246698551951	-1.05323319974577E-06	-5.35180829418604E-06	-2.18913667411925E-07	1.14023676479738E-06	0.978608703217142	-0.178035384939616
7.9	-0.000120930686843786	0.00436282775347407	-3.38339466039574E-06	7.17965846296566E-06	5.10073235236123E-07	-6.86686016575022E-06	0.979140012170125	-0.180403920833327
8	0.000575900781007317	0.00406009836638533	-2.7591570153998E-07	7.38435885272158E-06	1.79796481910754E-06	-4.44781401944566E-06	0.981264914787804	-0.183941279725491
8.1	0.00017496269683442	0.00400541989481582	-7.09628409252472E-07	-6.47189109383659E-06	-1.74400978614366E-06	-1.07153739182333E-06	0.980110279265825	-0.188544943234066
8.2	0.000238921133742919	0.00449555336013441	-3.83425873705733E-06	1.63528450246611E-06	-1.09581751447158E-05	-2.66323571368496E-06	0.979184057095874	-0.190929344374216
8.3	0.00042592629219582	0.00490900121184867	-5.5042965482052E-06	-9.88559295322249E-06	-7.80118728361466E-06	2.98578590223637E-06	0.978501889167537	-0.193433592012597
8.4	0.000649531786375453	0.00557773508303641	6.79992735455147E-07	-6.07552024030138E-07	-1.41878502467288E-06	4.34787714398627E-07	0.977992342031704	-0.195935112575251
8.5	0.00153373770947624	0.00590205427606226	-1.75180281317104E-06	-2.63584586094653E-07	-1.45185541756865E-08	1.80389837701431E-06	0.977474787458867	-0.199071999691445
8.6	0.00143759829300019	0.00589948980765229	2.44447231604989E-06	-3.96198226279382E-06	-4.53857074087038E-06	-5.94220487187075E-06	0.976670595304221	-0.201529253090537
8.7	0.0016668925212595	0.00662302172372916	-1.49016288053729E-06	-2.10219196898077E-06	-3.57614177243345E-06	3.62382900268626E-06	0.976475799114373	-0.203813029780923
8.8	0.00231285822892845	0.00724898879526611	-5.49363746663457E-06	-2.14713399396253E-06	-7.23556989244725E-06	-1.30234944812358E-06	0.976406348168167	-0.205986389891586
8.9	0.00323720858306972	0.00770343558876856	8.55271091290566E-06	4.13647445891417E-06	-1.43226721017887E-06	3.19897088425145E-06	0.976774376875139	-0.207936485737928
9	0.00477309557672654	0.00756640638489325	-5.16042692764137E-07	4.16403947394741E-06	-7.83169991448934E-06	1.20187701213713E-06	0.97717164348337	-0.210206361914947
9.1	0.00548496483579541	0.00673053441341548	-2.58769880188393E-06	6.63480244807144E-06	4.12375619854936E-06	-3.06918437122707E-06	0.977472041025284	-0.212663796257482
9.2	0.0061344893918756	0.00616875301914745	-1.19230350127187E-06	3.42653624917311E-06	-2.24215660224238E-06	-2.0706597245361E-06	0.977440665252772	-0.215682788562734
9.3	0.00663234304025031	0.00547447305942681	2.34475877996415E-06	-4.04104226056788E-06	-7.883147928323E-07	-1.78747961291824E-06	0.977076632859294	-0.218766922132664
9.4	0.00695171181916685	0.00494307430976899	-1.81622251911524E-06	3.89718273427695E-06	-2.05968680888773E-06	-3.59357747383389E-06	0.976112133759584	-0.221807823220484
9.5	0.00741871374502514	0.00420999972545184	3.47346800376704E-06	6.32196696464422E-06	3.76871540827757E-07	-2.15219774202044E-06	0.975881735555531	-0.224154888295881
9.6	0.00688537626642481	0.00368033645202452	4.60392097156777E-06	7.12055792215319E-06	-8.3136845705314E-06	1.2806052476955E-05	0.975612388391058	-0.228047441460626
9.7	0.00680547841974037	0.0038358610136436	-2.88627264548095E-06	-1.55103156160415E-06	-1.37553388591999E-06	-3.99104996634418E-06	0.974756245147894	-0.230916453399599
9.8	0.00697798998199526	0.0039081061607196	1.44856308772669E-07	-3.60995732049209E-06	3.0480559068318E-06	2.42190196625039E-06	0.974375842951361	-0.232896867986063
9.9	0.00726044543996367	0.00409679653605421	5.82901305794407E-06	-5.91760277679306E-07	-2.60947049063342E-06	6.74717639093656E-06	0.974504217435114	-0.234065109696598
10	0.00808841473419036	0.00381379824925531	-1.14656307150652E-06	-5.86479723305836E-07	1.37684568272683E-06	-1.18908196823663E-06	0.976411792347815	-0.237011798041459
10.1	0.0079389800078601	0.00321621228869787	7.36397194981559E-07	-8.46545837842419E-06	6.18292746199126E-06	3.64196569395865E-06	0.974649577734929	-0.240707333872137
10.2	0.00802705719919969	0.00325568701308307	7.51915985220988E-06	8.381992194623E-06	5.24659145339171E-06	3.56138047503492E-06	0.973393107426943	-0.242090649181133
10.3	0.00838289585555164	0.00321629612516442	1.77996768715423E-06	-6.99305054990036E-06	1.42867135780096E-06	2.88696931347396E-06	0.972650119342668	-0.243754784709102
10.4	0.00895742106676018	0.00315248875525935	-4.04634181436999E-06	-3.66724834733107E-06	1.97370287071788E-06	-5.62785153702398E-06	0.972301848276821	-0.24580243755005
10.5	0.00996987145469576	0.00250934840966047	3.78304651533141E-07	-7.10721827667251E-06	-5.76401946298378E-06	4.0945756887682E-06	0.971984266018691	-0.249336811506997
10.6	0.0100686904856554	0.00165824884938005	5.51681418596558E-06	6.77437774200524E-06	2.44678059078277E-06	1.20139876605227E-06	0.970843042999998	-0.252178745225223
10.7	0.0103401894257734	0.00123978355473211	-7.11793687908615E-06	-1.70087655860721E-06	-7.77921691824377E-07	1.56852170038349E-06	0.970357110453352	-0.255359919229476
10.8	0.0106405423088876	0.0007089581654476	1.49735078402367E-06	4.46914837606548E-06	9.46960428673968E-06	-4.49983473881999E-06	0.969529384963449	-0.258110059425691
10.9	0.0109183138575298	0.000319718357577034	3.35710168478735E-07	7.46629676438354E-06	-5.19486633925471E-06	2.14947174900232E-07	0.969078171122844	-0.260580444493867
11	0.0117751570636302	-0.000508573789697435	-2.24395826511198E-06	-3.84355644308605E-06	1.21041544041193E-05	-3.59483294581127E-06	0.968516605579417	-0.263138282567242
11.1	0.0116552545267187	-0.00153455700556512	-6.15978954451324E-06	-4.95469554623126E-06	9.63259753511375E-07	5.60930799387817E-06	0.966843720004476	-0.26556945784684
11.2	0.0118663182850069	-0.00216930355299478	3.34231803898073E-06	4.32570898172152E-06	1.05682323003151E-06	-7.92793636494883E-06	0.965148886635132	-0.267413010582138
11.3	0.0122963155283455	-0.00309834052191393	7.11479983058273E-07	-2.67536884519209E-06	-4.85071238686151E-06	9.18054133744951E-06	0.963601581935286	-0.268968293765676
11.4	0.0124843577345261	-0.00417151281831977	1.47985106533196E-06	-2.21799621075608E-06	-3.04408297151868E-06	-7.47095568783414E-06	0.961717571874192	-0.270670351248606
11.5	0.0128418221884169	-0.00582612670379439	9.51758407082094E-07	-1.01652200925629E-06	-9.07896856075574E-07	-8.74993636041426E-07	0.961861852659862	-0.272205776287165
11.6	0.012023710478956	-0.00766722767187287	1.12944521978578E-05	-3.31740926071288E-06	-5.47070062158599E-06	-6.86746898695884E-06	0.961106603567911	-0.276940990120408
11.7	0.0112667065376579	-0.00892125131250625	5.35409345268716E-06	-2.93025674140159E-06	-4.43471978769221E-06	1.67453465876787E-06	0.959252728202992	-0.280556677181685
11.8	0.0105082856310191	-0.010123482228415	-4.61233761608051E-07	-2.562090954257E-06	1.10902532119255E-06	1.33410435762521E-05	0.958006333634883	-0.283524312568317
11.9	0.00982964272680682	-0.0111767975846314	3.35013172465388E-06	1.99316490183487E-06	1.76367139719314E-08	1.28129692518957E-05	0.958518326919836	-0.284941782063252
12	0.00928340700858666	-0.0127634886358628	2.02012212467638E-06	4.80633632200397E-07	-3.72951996620584E-06	-9.64591833123257E-07	0.960923474576402	-0.289480833095625
