# GHZ S RI R 50
0.2	0.000577311124803777	0.00388141612853075	6.30283091281173E-06	-1.00980757410797E-06	1.06691359514267E-05	1.04874609619643E-05	0.999264216926163	-0.00718772582078471
0.3	0.0011497268550314	0.00342135565668618	5.81664636442822E-06	5.03337316841121E-06	8.09466411140379E-06	2.94953077033666E-06	0.998978828522377	-0.0101124336441589
0.4	0.00159021055623164	0.0032370499352783	-2.70532755469342E-06	7.86816063871291E-06	-4.82397264265714E-07	-4.42928057145401E-06	0.998907037609911	-0.0127508246687222
0.5	0.00186599922073284	0.00322927193700587	2.30787798739619E-06	1.47793388768726E-06	7.50883567453468E-06	-1.05492560414392E-06	0.998569126807427	-0.0157704829758316
0.6	0.00235376355520808	0.0033010652476349	3.23595173661592E-07	3.53849867682306E-06	2.70021988470154E-07	-7.65860086107396E-06	0.998745543161621	-0.0186527654496473
0.7	0.00265895994375297	0.00320745876366622	4.16495755405687E-06	5.02048604040848E-07	-3.89360480500582E-06	-1.75150984822707E-09	0.998347593420238	-0.0217168640795858
0.8	0.00293229502794055	0.00314606785311553	-2.88506674148257E-06	2.96400298910892E-06	-6.81753448540765E-06	1.32234597273669E-06	0.998002340292295	-0.0239411722602333
0.9	0.00304632751903911	0.00305748764339273	6.03337179227948E-06	8.96272819571169E-07	-7.33775148872803E-06	-1.82853538604715E-06	0.997696075221839	-0.0263484036740464
1	0.00295110175776661	0.00314556658531363	2.3593504063189E-06	2.94185467188904E-06	-9.03795131412179E-06	-2.57993636856991E-07	0.997209623688073	-0.027819368460163
1.1	0.00314409840363897	0.00345030318504694	6.43562413300314E-07	3.54730312357962E-08	-5.29773106249741E-06	1.40302161656586E-06	0.997028858001622	-0.0295607756599919
1.2	0.0034299851986559	0.0032454528062391	-5.29204312766873E-06	-3.28645949078766E-06	-1.11819975081794E-05	-1.26475791954532E-05	0.99679842254463	-0.0305064436739683
1.3	0.00348301012841432	0.00246977034763044	3.05023372503971E-06	3.10056218884539E-06	6.95274030058722E-06	-4.08654761169115E-06	0.997365941878885	-0.0317129076398026
1.4	0.00309523514399721	0.00135586110267479	-2.7983406389791E-06	-1.11078700636135E-06	5.70964210591871E-06	5.79757724311794E-08	0.997069924224734	-0.0343093599795122
1.5	0.00270419920600038	0.00100022538598006	1.23761426632246E-06	-2.53243043009483E-06	8.03041270398914E-07	2.5094463879438E-06	0.997045530522897	-0.0376682354163292
1.6	0.00268510303988474	0.000904156165414104	-9.35924807305646E-07	-6.4088935986564E-06	3.18001150779858E-06	-4.24141939574303E-06	0.996269437219772	-0.040974610994407
1.7	0.0026744612438755	0.0010127138194405	3.40194038307416E-06	6.31077414322267E-07	2.23402894560898E-06	3.84716978470572E-06	0.996133722085451	-0.0432988615806969
1.8	0.00270724207627398	0.00128213167756237	-2.37345128229511E-06	2.89465560605845E-06	-1.01419831938141E-06	-3.99194468851011E-06	0.995648290519395	-0.0458265964115784
1.9	0.00273989633182991	0.00148290060368444	-3.72607980493083E-06	-1.75666249310219E-06	5.6202494791048E-06	3.02156063151061E-06	0.995016038916712	-0.0477926347402682
2	0.00296299144117298	0.00196067637652387	-6.16164279173076E-06	-5.7441286277267E-06	-2.08108815016332E-06	9.13621706399108E-06	0.994326640395653	-0.0494282183743886
2.1	0.0034545893929031	0.00185013757997355	1.16660696493045E-06	4.60033005424348E-06	4.47303516083473E-06	3.98914616862961E-06	0.994773671457538	-0.0514558514339764
2.2	0.00350984694794228	0.00163962881759124	6.54606191326395E-07	9.06146580852078E-07	-3.61484281946556E-06	-1.09266937996372E-05	0.994869007152264	-0.0539044601663542
2.3	0.00337311295637965	0.00143041021196276	-2.28556312919233E-06	3.55306993173865E-06	-5.31678757377414E-07	-2.79286523498583E-06	0.994473690649214	-0.0556780176710584
2.4	0.0029649464211262	0.0013533675260636	-1.55297317781222E-06	-1.45562822946889E-06	1.28369287064053E-06	-9.95942195258623E-07	0.99426624975052	-0.0585542998027073
2.5	0.00250391933739607	0.00186894548214035	7.77393419197717E-06	4.06490683380323E-06	-2.33563412307451E-06	-7.22297470724728E-06	0.993826626572419	-0.0602675954146195
2.6	0.00283081017191706	0.00232772617007829	4.83174077492788E-07	2.11540532174118E-06	-1.47199915424633E-06	4.67803642370649E-06	0.99407231893276	-0.0625970641954025
2.7	0.00321798345604068	0.00240151383933403	-7.86722516860621E-06	5.22174616854144E-06	2.5139764084301E-06	9.71493173376504E-06	0.994307838535511	-0.0653450895676994
2.8	0.00354775954080599	0.00230564663923923	-7.75296719436138E-06	7.93558644487055E-06	5.97496424196327E-06	1.99141483426154E-05	0.994843059366622	-0.0675062915520436
2.9	0.00373083813428073	0.00217255484334558	-1.19093410131298E-06	8.57607494684121E-07	-8.11121207948838E-06	-2.97504042639423E-06	0.994738714645513	-0.0698045873981996
3	0.00412869421480913	0.00234954272493021	-6.03667718675038E-07	-4.47210812562601E-06	-2.19311954025471E-06	6.43429054828608E-06	0.994654979191256	-0.0724125486629911
3.1	0.00472169799308455	0.00192839404866415	-2.58787057801485E-06	8.52250547959997E-08	1.10183483157616E-05	-3.50927932309746E-06	0.994367501417983	-0.0744812632891314
3.2	0.00484466275272271	0.00149449352739346	-9.80148104722462E-06	2.5323762374E-06	1.21542574814983E-05	4.28098292756115E-06	0.994252225026877	-0.0763393018804882
3.3	0.00482634641905105	0.00102697705338219	-3.46955712631143E-06	9.28602341535901E-07	-5.01019994439252E-06	-1.50372388756534E-07	0.994167671145715	-0.0797346979639499
3.4	0.0045009080223614	0.00069415818152289	5.3475421207317E-06	4.92826727898783E-07	1.34861468028881E-06	4.48373255196335E-07	0.994047556391139	-0.0820570823923723
3.5	0.00430096050283568	0.000803055250144694	2.76673401511938E-06	1.559918912663E-06	1.31152275328241E-06	7.93217508163242E-07	0.993295065106944	-0.0847083776819951
3.6	0.0042975393765252	0.000491529137010662	-7.1456997805624E-06	-1.42171948391764E-07	1.86863574931929E-06	-3.49388219217674E-06	0.993237379637632	-0.0867562979303438
3.7	0.00384934951434865	0.000328853990846812	5.77877728183415E-06	-1.50473432187589E-06	-3.22784266875348E-07	-1.73293999735036E-06	0.993196448552865	-0.0894036757027084
3.8	0.0034539497863968	0.00051164110924171	-2.00354274611417E-06	8.74406488932198E-07	-5.19437051657618E-06	2.9210760668099E-07	0.992789370045707	-0.0913377182167621
3.9	0.00321893346816372	0.000999167919866634	-8.36796197763771E-06	1.76921435831561E-06	-4.11543086651863E-06	-1.50506543279207E-06	0.992433147510454	-0.093995761151673
4	0.00372273990144461	0.00183205101979224	-5.82794189963088E-06	3.55095322131706E-07	-9.4827275235548E-06	-8.47404592594359E-06	0.99280659838835	-0.0939185042399389
4.1	0.00472055972022642	0.00153961375790358	-3.99948731112624E-06	4.06196465948168E-06	-1.8938845132839E-06	5.58348772028471E-06	0.994205102890753	-0.0962194032359519
4.2	0.00503606564545211	0.000932686411578168	4.63447625049132E-06	-4.3818702427683E-06	6.7610562415498E-06	7.68518447863362E-07	0.994099016437344	-0.0993996511293778
4.3	0.00504366896639986	0.000407470110811623	-3.80400362933264E-06	1.12142705478894E-06	3.55673119935008E-06	-1.20126685722876E-06	0.994242952826632	-0.101736380324937
4.4	0.00469499731421528	3.37941026492177E-05	-3.14493577414729E-06	-4.95095922675628E-06	9.33874800085145E-07	-1.03644808197018E-06	0.994034368311253	-0.104200662527076
4.5	0.00451807893910416	0.000320130118252346	-1.39767571010331E-06	2.03314141558052E-06	2.16116657833074E-06	-8.49114893672006E-06	0.994530573410802	-0.106625922976554
4.6	0.00471828057475061	-8.92498034930096E-05	5.39330084649739E-06	9.62225136160766E-06	-1.42434131678898E-05	9.81457415777706E-06	0.99425172587664	-0.110077409100067
4.7	0.00442400431191923	-0.00044539134307365	-7.59149374167632E-06	-9.59498756881222E-06	-1.14728667460646E-06	-1.3714477396009E-07	0.994046655002743	-0.112254640975316
4.8	0.00406884832264696	-0.000612701110323311	-8.75824587012024E-06	-2.71081636797255E-06	-4.3982311949992E-06	4.54522084356297E-06	0.993637973687896	-0.11490153546747
4.9	0.00366900435878609	-0.000624259273543957	5.77158770671095E-06	8.34947736982451E-06	-7.28157507104327E-06	3.27441999631525E-06	0.993289706092711	-0.116865518996329
5	0.00377306418834074	-0.000234683785449758	4.30497669952481E-06	-8.55990630603458E-06	-4.29460426480022E-06	-6.20425450286125E-06	0.993162235682763	-0.118606601701459
5.1	0.00411642581926486	-0.000691408273163495	1.52829722092394E-05	-1.02461272444221E-05	3.51557738970648E-06	-8.74326227627125E-06	0.993133681551288	-0.120048054703347
5.2	0.00394226700592239	-0.000923285749212567	-4.23738316820398E-06	-4.74031858993723E-06	-3.17534536146884E-06	5.19305626420556E-07	0.992993090690797	-0.122217363322827
5.3	0.00393803333762573	-0.000937214985830273	4.78876992679977E-06	3.39586478791266E-06	-9.32204050019568E-06	-4.78125876254729E-06	0.993242785964436	-0.124551648617896
5.4	0.00392637725309234	-0.000982573372166886	5.20001929644137E-06	1.21115439520833E-06	-4.89254709053981E-07	1.04984764492144E-05	0.993678293785363	-0.128019695034772
5.5	0.00434354363998096	-0.000723921055442025	-1.81749306460081E-06	-1.98823407776541E-06	8.91118300667243E-06	5.14359282406769E-07	0.993110169955812	-0.131170891242732
5.6	0.00452474650468962	-0.00177070918857603	4.25154418239597E-06	7.25620522022094E-06	-4.57670538962908E-07	-8.64068623626954E-06	0.99320253978168	-0.133966818267805
5.7	0.0036428337600086	-0.00225120931416492	2.06344919759879E-06	-7.22715228093953E-07	5.48880365965866E-06	2.46789350672776E-06	0.992833743314226	-0.137060207081208
5.8	0.00269896529156464	-0.00220026801618914	3.92546619829827E-06	1.97021424309203E-06	2.73785437105921E-06	7.86428453306177E-06	0.992279116926926	-0.13958945110126
5.9	0.0015856816786924	-0.00163806242863679	-3.7937324266874E-06	-3.07070268485756E-06	-4.71425146127098E-06	-1.78952530133066E-06	0.991169375273407	-0.141460908150492
6	0.00116088183306258	0.00013604603491225	-2.08954094867752E-06	1.70884792271972E-06	1.04857433709859E-05	-2.6558984445558E-06	0.992038298037246	-0.141307854214059
6.1	0.00221764531703713	0.000626397171829339	-7.37060134008387E-06	-1.11069986139573E-06	-7.29604286816227E-07	-2.49817073904348E-06	0.993850878405886	-0.144261977540729
6.2	0.00263362671449357	0.000333057716107095	-1.06512526358127E-06	2.00102012918251E-06	-3.5081985178288E-06	-5.38762070650702E-06	0.993483155413056	-0.147037218839837
6.3	0.00266347338363495	-0.000330044265841514	1.58979007048094E-06	2.84161557719492E-06	1.16241655808413E-06	5.99936841627608E-06	0.992692470534539	-0.149965531345866
6.4	0.00192976393085734	-0.000778831465024242	2.0865900355065E-06	5.05695893400099E-06	-3.34497662303277E-07	2.28844933054233E-07	0.991655704560093	-0.152229296954133
6.5	0.00194570210494454	-0.000418842246547596	4.68863085298587E-06	-1.89979392590632E-06	-4.71884404562327E-06	-1.54548792843546E-06	0.992173483439326	-0.155494424343418
6.6	0.00173379323619074	-0.00109678125272396	3.23652575370204E-07	-1.07422593978667E-06	9.34397224245096E-06	3.3205510351826E-06	0.990461119385243	-0.159329694552143
6.7	0.00123977675290628	-0.000987022305049704	5.46339441441126E-07	5.62842602834153E-06	-1.78177502862922E-06	4.99419998740082E-06	0.989324561651265	-0.161262865909727
6.8	0.000926730782792609	-0.000894537195142979	1.72564040281823E-07	-1.59147430957674E-06	-3.4990187357847E-06	-5.12632664686974E-06	0.988608136368051	-0.163420014930564
6.9	0.000195875983070774	-0.000568762531243406	-6.64879927095867E-06	6.75207214315275E-06	2.29696389944206E-06	1.35298428583774E-06	0.987802296905726	-0.165468911958866
7	0.000516549387288106	0.000738013007818239	8.11089944103466E-06	3.1553873019023E-06	4.59517116686593E-06	5.86985390438482E-06	0.987610004638652	-0.166732675371811
7.1	0.000951334991577737	0.000103152081601794	1.4018417517682E-06	7.82326065837508E-07	-2.29040536902749E-06	-4.48313064752884E-06	0.987415497449861	-0.169561304467222
7.2	0.000256057055073302	-4.25746690361868E-05	-1.23948039866514E-07	4.40981236220186E-06	-5.02638511443464E-06	-6.46118804246083E-07	0.986148231480073	-0.172092578020167
7.3	-0.000582988783327878	0.000136863582570789	1.33708185225586E-06	-5.28156064669791E-06	-2.3636379809008E-06	-2.78819466789711E-06	0.984480635383355	-0.174645672799899
7.4	-0.00198971078779111	0.000568539723152261	1.86202724953239E-06	4.42018044063921E-06	-7.34543225175022E-07	-1.06759342888713E-06	0.981846739453884	-0.178141209945216
7.5	-0.0029042204907171	0.00273127995474729	-5.74374753966697E-06	-1.46077883742261E-06	-1.62198208193285E-06	-8.88453817177718E-06	0.978024559036169	-0.178579941844375
7.6	-0.00224101097535301	0.00356007162041996	5.60757108388713E-06	-3.40468519071734E-06	1.03344394383006E-06	3.18426795861808E-06	0.978500342531432	-0.180014822563135
7.7	-0.00242728883461099	0.00426319385133926	-6.51051270743506E-06	-2.83512705214765E-06	4.39613668077187E-06	5.64977952587052E-06	0.978014217169213	-0.183144255956111
7.8	-0.00207133704676382	0.00499784296224418	-1.10318619101727E-06	-5.34607643444933E-06	-2.08597730979956E-07	1.14308903476335E-06	0.977434105910027	-0.185840452436192
7.9	-0.00152345009851127	0.00584160582595436	-3.3177436987544E-06	7.20599672392472E-06	4.4871149817683E-07	-6.86779850842067E-06	0.976675265218077	-0.187468356997751
8	0.000642439796630973	0.00651780203856436	-2.29028345097541E-07	7.37819307297183E-06	1.76797600717786E-06	-4.45439593029875E-06	0.979077374663247	-0.187746921867129
8.1	0.00177305304365011	0.00505403988900598	-7.48633802617912E-07	-6.47582753342606E-06	-1.75250747325275E-06	-1.0626099323681E-06	0.981176715382166	-0.193079260250268
8.2	0.00183532196350518	0.0043980084662922	-3.83015167451122E-06	1.66444519412221E-06	-1.09964843920179E-05	-2.59338139705788E-06	0.980557790174069	-0.197092353368528
8.3	0.00181033336481843	0.00404761812042083	-5.58593742365154E-06	-9.8620824506594E-06	-7.79256712142131E-06	3.0479112966629E-06	0.979536827227117	-0.200500556427366
8.4	0.00134132802195929	0.00418226922723217	6.76681204714657E-07	-6.13562968356298E-07	-1.41798478403307E-06	4.45926969771511E-07	0.978518887542926	-0.203433574234606
8.5	0.00205219742141216	0.00541056755112947	-1.75769421915727E-06	-2.49478288580598E-07	5.47719559970748E-10	1.8078149498025E-06	0.978054154764797	-0.206845532244644
8.6	0.00296752993820383	0.00452053010378096	2.41048257880621E-06	-3.98642699844724E-06	-4.59475897222629E-06	-5.90526382417792E-06	0.976635457121824	-0.210289625779813
8.7	0.00268043350413548	0.00414248467104724	-1.50777751040929E-06	-2.08914865634494E-06	-3.544693468637E-06	3.6536021037929E-06	0.975425540746532	-0.212857836623439
8.8	0.0023661509776241	0.0041908653470197	-5.5077527711263E-06	-2.1019400271539E-06	-7.24194447697325E-06	-1.24368009914996E-06	0.974424138500331	-0.215076158740798
8.9	0.00183326789645953	0.00459812181326792	8.58087144749697E-06	4.07083081253448E-06	-1.40775357454497E-06	3.2086407942616E-06	0.973817729696451	-0.216989479142856
9	0.00242924086312882	0.00616332024710243	-4.80722255525718E-07	4.16862086677293E-06	-7.8218763227223E-06	1.26841239082209E-06	0.973025639869307	-0.218893603009387
9.1	0.00375794786111496	0.00600522228919315	-2.5263147532429E-06	6.65113865025198E-06	4.09244896963669E-06	-3.1026831815443E-06	0.972596032385913	-0.220564226586853
9.2	0.00459931448519887	0.00605272778759755	-1.15951843961608E-06	3.43256238812374E-06	-2.25781796373875E-06	-2.04739884254504E-06	0.972294979307237	-0.222966782903556
9.3	0.00583179863531058	0.00578834941165076	2.3011091847412E-06	-4.055722707782E-06	-8.04024311532799E-07	-1.77634296790384E-06	0.971977161642914	-0.225936459927202
9.4	0.00659491848786081	0.0050271097952794	-1.76964221872249E-06	3.90580389297177E-06	-2.09233564034162E-06	-3.56169352616556E-06	0.970509556140203	-0.229861616888315
9.5	0.00792003312975697	0.00481332000682428	3.52581584241591E-06	6.24728091192429E-06	3.50349676735314E-07	-2.14446472209497E-06	0.968246684653132	-0.23150413939113
9.6	0.00824029785165544	0.00279019842055418	4.6379198753252E-06	7.02652541949307E-06	-8.13413375824838E-06	1.27927260941283E-05	0.968069583245581	-0.234250652593488
9.7	0.00749272693753967	0.00196531340191185	-2.87797130138841E-06	-1.51483158841365E-06	-1.39932420556077E-06	-3.94953451566902E-06	0.966899842965195	-0.237092971297103
9.8	0.00679220544050117	0.001644081868544	1.14076838460354E-07	-3.58179445496427E-06	3.04313338669172E-06	2.37721662113222E-06	0.9654948208356	-0.239152020635039
9.9	0.00582475373639832	0.00208117437399879	5.76867092061773E-06	-6.29848645879384E-07	-2.53378941801729E-06	6.70206351856977E-06	0.963212251185556	-0.239498543185379
10	0.00645144393382176	0.00370220490751769	-1.13843280255422E-06	-5.7546483885471E-07	1.35810864450115E-06	-1.18429317524918E-06	0.965073661578177	-0.237879033893569
10.1	0.00760412283482702	0.0030391747460281	6.85707126457887E-07	-8.39862334328583E-06	6.15044473676212E-06	3.57901532440433E-06	0.965768247740842	-0.241824747004807
10.2	0.00784206565587408	0.00262681945896046	7.49413470280563E-06	8.26292206170535E-06	5.21676326104744E-06	3.49969582482535E-06	0.964140466197024	-0.243535301154789
10.3	0.00797076755446038	0.00220824397878676	1.72964099788585E-06	-6.92757928925745E-06	1.42670298939316E-06	2.8501598859528E-06	0.962615659013121	-0.244773537411332
10.4	0.0075958287569181	0.00225994822685	-4.01168280486626E-06	-3.61565657242024E-06	1.93648951331337E-06	-5.57108432380322E-06	0.961269830426104	-0.24548721980147
10.5	0.00869656989635189	0.00348761160651143	3.59860270170461E-07	-7.03604080659073E-06	-5.69724346631605E-06	4.06497346995666E-06	0.961407962173675	-0.247116159757602
10.6	0.0103516166814078	0.00275981880442446	5.46712642723781E-06	6.69015190866851E-06	2.42171829777058E-06	1.18399823318115E-06	0.960493120774454	-0.248846875422618
10.7	0.0116711877722893	0.00184262812768172	-7.03917472061434E-06	-1.67928914657656E-06	-7.68668657330161E-07	1.55131374954695E-06	0.961148464954135	-0.250725184156239
10.8	0.0124820771614743	9.95392079119125E-05	1.47909440575068E-06	4.42147221199585E-06	9.36919354331153E-06	-4.44678986069838E-06	0.961497255087409	-0.253466504234144
10.9	0.0120264412996086	-0.00121641171563498	3.23783390103682E-07	7.38977680765952E-06	-5.14160449444774E-06	2.06840716297456E-07	0.96103880768004	-0.256121847964142
11	0.0128437614371094	-0.00127640048494095	-2.21927932119493E-06	-3.8072198754348E-06	1.19873888946467E-05	-3.5512991220167E-06	0.960429122899163	-0.257721967292232
11.1	0.0134335584059987	-0.00354710498117951	-6.09140524703255E-06	-4.90826790743391E-06	9.48478191834274E-07	5.55166441354652E-06	0.959819105068959	-0.259900909263211
11.2	0.012908645110136	-0.00516849171075615	3.30187829664548E-06	4.28511697287499E-06	1.05624880203474E-06	-7.84410534406199E-06	0.958808366806271	-0.262037800108344
11.3	0.0123111857067191	-0.00661802580168597	7.08170157459856E-07	-2.64748110913673E-06	-4.81515930447003E-06	9.08139059487296E-06	0.95789903038915	-0.264595774748745
11.4	0.0110608277566513	-0.00765586304549318	1.46672322223445E-06	-2.19533441616515E-06	-3.00959989898347E-06	-7.39961305211365E-06	0.95531425370459	-0.268093116579806
11.5	0.0111295488817752	-0.00769056258021639	9.40698525054475E-07	-1.00360836541884E-06	-8.96349680131252E-07	-8.6481140053843E-07	0.952490179866778	-0.268123547316217
11.6	0.0107856606086159	-0.010082501186335	1.11665645266227E-05	-3.2447018804622E-06	-5.38448083327973E-06	-6.79960109779987E-06	0.952987482398383	-0.271172259749899
11.7	0.00898116916961311	-0.0114913333092107	5.30255824209807E-06	-2.87793549821355E-06	-4.38942547446157E-06	1.63986892415745E-06	0.951296162541187	-0.275114743810483
11.8	0.00705433071526198	-0.0119592822923377	-4.46418887969141E-07	-2.53400331192813E-06	1.04691258539981E-06	1.31900197095605E-05	0.948758921524405	-0.278129963514825
11.9	0.00540882444036511	-0.0111456205969916	3.29712188810186E-06	1.98288846429522E-06	-4.26524992125744E-08	1.26460419924609E-05	0.946139468625442	-0.277434001117904
12	0.00657143747952159	-0.00955826640148581	1.99089735304703E-06	4.92332209231915E-07	-3.67489055495562E-06	-9.85232581930949E-07	0.949764090321147	-0.274703282358371
