# GHZ S RI R 50
0.2	0.000434766815628207	0.00376026963679609	6.30572897091027E-06	-1.00779862879212E-06	1.06693753444556E-05	1.0495722126433E-05	0.999618269794443	-0.00684944420970394
0.3	0.00108658783626901	0.0033916153767794	5.81737316857618E-06	5.03731397297889E-06	8.09699581921773E-06	2.95336577483545E-06	0.99942128446516	-0.00974739240392865
0.4	0.00162608307448689	0.0032099164124646	-2.70853999017371E-06	7.87030907534958E-06	-4.81330286365611E-07	-4.43105382241401E-06	0.999388289900973	-0.0124525292629664
0.5	0.00187302298128251	0.00308556330494544	2.30786412567689E-06	1.47929596514422E-06	7.5112606910489E-06	-1.05204060549163E-06	0.998789561416901	-0.0154514300518403
0.6	0.00229679829461201	0.00326399065058119	3.21869168364199E-07	3.54025897306149E-06	2.74193506055851E-07	-7.6618975880141E-06	0.999003842874049	-0.0179498025142254
0.7	0.00267193653133179	0.00323053052449279	4.16701024409429E-06	5.04289051760326E-07	-3.89574430490605E-06	-3.58895486944464E-09	0.998830767249281	-0.0208652434633973
0.8	0.00302559752401289	0.0032147020649901	-2.88803409686229E-06	2.96463502441987E-06	-6.82223120454845E-06	1.3203743383144E-06	0.998733478206225	-0.0230182807036409
0.9	0.00334276938377421	0.00317532092417337	6.03695494752408E-06	8.98597131102041E-07	-7.34189469063868E-06	-1.83183266466371E-06	0.998831904936657	-0.025490191571429
1	0.00348581529866026	0.00289349366205052	2.35972435415835E-06	2.94385028723613E-06	-9.04217766646066E-06	-2.6040931720225E-07	0.998538398427731	-0.0275967302044861
1.1	0.00337123806946093	0.00305333061152397	6.43880757904019E-07	3.57638935896102E-08	-5.30106932275755E-06	1.40150529430582E-06	0.997922438481756	-0.0294878588810548
1.2	0.00349471645877089	0.00284117583724502	-5.29298305384366E-06	-3.29106858034623E-06	-1.11808527597341E-05	-1.26602753860998E-05	0.997355250284804	-0.0303521758967471
1.3	0.00320547954892712	0.00225269911898608	3.04892242697586E-06	3.10516001354115E-06	6.96041758243799E-06	-4.08211441908333E-06	0.997436094583885	-0.0309063727633193
1.4	0.00284803332548754	0.00158854452864411	-2.79926162134804E-06	-1.11561414007071E-06	5.71456301018082E-06	6.58906502431774E-08	0.997426344977135	-0.0324895291864457
1.5	0.00258513911155222	0.00120117690242728	1.24242955884698E-06	-2.53427825257897E-06	8.00987268695855E-07	2.51380818671661E-06	0.997896107762112	-0.0358925422592426
1.6	0.00281674286491076	0.00126505410990562	-9.31915225622792E-07	-6.41882995038623E-06	3.18809278083971E-06	-4.24482563973339E-06	0.997459374072501	-0.0391417534791321
1.7	0.00308839041038887	0.00114620939349261	3.40640150893115E-06	6.33960498274478E-07	2.23495339923685E-06	3.85393656993297E-06	0.997782882158872	-0.0418357231528134
1.8	0.00325862433912013	0.00119063872386291	-2.37838056914035E-06	2.89810702611036E-06	-1.01403701587109E-06	-3.99856378282919E-06	0.997700720579821	-0.0447833759729366
1.9	0.00346083940811449	0.00106998846248615	-3.73326388418191E-06	-1.76044711143081E-06	5.63105314417099E-06	3.02800151252418E-06	0.997716797714384	-0.0475587951117164
2	0.00330913597260686	0.000950548158994679	-6.17806835770445E-06	-5.74772603412974E-06	-2.07536855767802E-06	9.15402512978496E-06	0.996216392601538	-0.0510422016097838
2.1	0.0033841045627929	0.0011931987235812	1.17102756157102E-06	4.60435550548868E-06	4.48050682995353E-06	3.99023329290447E-06	0.995408774704731	-0.0522409308487532
2.2	0.00350979514453882	0.00115840886859742	6.55998422988315E-07	9.0688679302573E-07	-3.62621379992398E-06	-1.09382801009594E-05	0.995809367994568	-0.0542841967215129
2.3	0.00349571621413415	0.00105862792809313	-2.28570843155062E-06	3.55992969785806E-06	-5.34787275895435E-07	-2.79627944899704E-06	0.995765333170714	-0.0560903658429518
2.4	0.00344454190716628	0.000951788864265756	-1.55663767206038E-06	-1.45570711727081E-06	1.28419219826277E-06	-9.98695103158659E-07	0.995975788191389	-0.0593403519959836
2.5	0.00304559922874544	0.000673395059768198	7.78699447167969E-06	4.06147370204701E-06	-2.34577964891761E-06	-7.22877291856685E-06	0.995458365723599	-0.0619953730057886
2.6	0.00262181566556049	0.00106089284208703	4.86895125917222E-07	2.11795355220281E-06	-1.46764903133772E-06	4.68725449697626E-06	0.9950764948239	-0.0648567932626665
2.7	0.00259193526682355	0.00145480924042777	-7.86653540248716E-06	5.24391740456252E-06	2.53648581981718E-06	9.72193540204043E-06	0.994421701424536	-0.0677842553250095
2.8	0.0028761171899249	0.0018979563229633	-7.74165471721473E-06	7.95835259007405E-06	6.02255919427271E-06	1.99162621921414E-05	0.994351916841676	-0.0694457358576612
2.9	0.00348280723315143	0.0020049697734649	-1.18968615888886E-06	8.60265723507554E-07	-8.12005154754793E-06	-2.960183733087E-06	0.994299535382321	-0.0712488605512523
3	0.00386087674045316	0.00187852374334734	-6.10797310261895E-07	-4.47398278838559E-06	-2.18476928695552E-06	6.44161124555562E-06	0.994356924814714	-0.0737851612166986
3.1	0.00445525679095878	0.0018754349717988	-2.58976271497169E-06	9.00976419112701E-08	1.10205622941641E-05	-3.53251820267431E-06	0.994062258600378	-0.0756162382411858
3.2	0.00492076887751259	0.00149540321212969	-9.80231285103989E-06	2.5519788119515E-06	1.21690498318889E-05	4.26086004990886E-06	0.994108400470837	-0.0772123018970845
3.3	0.0051629746864572	0.00100614494463806	-3.4694108998626E-06	9.34689016849036E-07	-5.01244583424546E-06	-1.42177708823233E-07	0.994247355225121	-0.0803144819836327
3.4	0.00524998020520251	0.000511618759544913	5.35038912315765E-06	4.87104299516788E-07	1.34969232755151E-06	4.47069492759401E-07	0.994740089194477	-0.0822943249857363
3.5	0.00491199169482081	-3.69937195712971E-05	2.77266916730783E-06	1.55900503950704E-06	1.31439902785568E-06	7.92864220170677E-07	0.994810884616341	-0.0858482088112668
3.6	0.0047070337451714	3.84518182701487E-05	-7.1533912729868E-06	-1.27221880092782E-07	1.86318684102491E-06	-3.5014440433955E-06	0.993957635503648	-0.0881963591736261
3.7	0.00467224425103889	-0.000125142623348312	5.77909623407396E-06	-1.51707060938824E-06	-3.26410163162858E-07	-1.73329072486023E-06	0.994083777846463	-0.0905353050220417
3.8	0.00464089532295515	-0.000254326444008153	-2.0030424880994E-06	8.78548865765046E-07	-5.19668414108207E-06	3.01764432158871E-07	0.99430269016381	-0.0926677647173217
3.9	0.0046809658851843	-0.000481879761963104	-8.37229397199066E-06	1.78870730494347E-06	-4.122608699628E-06	-1.4977753884511E-06	0.994847373666055	-0.0966444354014461
4	0.00430422920919999	-0.000777710849860014	-5.82740045664322E-06	3.75266135413888E-07	-9.51311055515833E-06	-8.44228966109816E-06	0.993269882123862	-0.0994002671174307
4.1	0.00423394871219215	-0.000421682912640754	-3.98559432268873E-06	4.0685756362428E-06	-1.87797157590357E-06	5.58338442841598E-06	0.992324272348978	-0.100107337909515
4.2	0.00445509772919063	-0.000448931370433512	4.62057743716104E-06	-4.38940460229207E-06	6.75764782749587E-06	7.51999439693443E-07	0.992144905198451	-0.10240468140231
4.3	0.00460110006749228	-0.000590712842777035	-3.79739518336977E-06	1.1298075048495E-06	3.55017077404327E-06	-1.20894969414603E-06	0.992193718513876	-0.104424140268247
4.4	0.0046928012207574	-0.000865119562411649	-3.15225241654738E-06	-4.93438065590939E-06	9.29609221361856E-07	-1.03706714809328E-06	0.991741382443111	-0.106832128616848
4.5	0.00428406687810131	-0.00124645206817282	-1.39174721836395E-06	2.02994074092022E-06	2.14534083860156E-06	-8.47320419433362E-06	0.991278211202236	-0.108683318710087
4.6	0.0040094647046712	-0.000969161604554562	5.39482422622332E-06	9.60454827124946E-06	-1.42155505817156E-05	9.81438928886483E-06	0.991382179131611	-0.111066929879307
4.7	0.00400716610200982	-0.000960495018037558	-7.59481616481584E-06	-9.57277349293984E-06	-1.14603011481128E-06	-1.35435810603225E-07	0.991454324285462	-0.113080679709705
4.8	0.00396040972809049	-0.000915001092372326	-8.74911243345787E-06	-2.69316163395554E-06	-4.38451895126086E-06	4.54510263963595E-06	0.99115293314434	-0.115497046513629
4.9	0.00412709759356569	-0.000952964107801239	5.77160954126507E-06	8.3246483544834E-06	-7.26237146687044E-06	3.27797634476719E-06	0.991082159667776	-0.117229113357159
5	0.00404607700990265	-0.00122188187455491	4.29281571767287E-06	-8.54954104984609E-06	-4.2920240112252E-06	-6.19193808761228E-06	0.991313411353666	-0.119097125841928
5.1	0.00442359765704299	-0.00108911160345248	1.52497403502541E-05	-1.02563457727787E-05	3.49856404621761E-06	-8.73800741171069E-06	0.991471604108978	-0.120640545807662
5.2	0.00484570795985651	-0.00160052077821431	-4.23784536439512E-06	-4.72468353629317E-06	-3.16879846948193E-06	5.23754684132367E-07	0.99149722711563	-0.123147630583107
5.3	0.00491781567204596	-0.00220606666214357	4.78173976044575E-06	3.38095974021296E-06	-9.30583387557116E-06	-4.75671738794358E-06	0.991378068274794	-0.125797386743384
5.4	0.00477131424765056	-0.00277259620606531	5.18586606853297E-06	1.20656775557862E-06	-4.85425540022103E-07	1.04694417472478E-05	0.991508368229611	-0.128843657790215
5.5	0.0039472301245603	-0.00309930759784607	-1.81511424737977E-06	-1.98625740154345E-06	8.90096658303888E-06	5.15170593407739E-07	0.99108417703526	-0.13254285447705
5.6	0.00381822661528061	-0.00259452968037107	4.25267419883073E-06	7.23936411259038E-06	-4.6665988828693E-07	-8.62582760451252E-06	0.990010732211122	-0.134704863792768
5.7	0.00379571935299328	-0.00267992821632146	2.05815582106322E-06	-7.22805415604497E-07	5.47840775677108E-06	2.45768158220338E-06	0.990089103024601	-0.136823304211074
5.8	0.00356102865048545	-0.00272197723676335	3.91787209338414E-06	1.96341735331993E-06	2.73650043015988E-06	7.84500948718204E-06	0.9905840366837	-0.139210837878392
5.9	0.00342156593650281	-0.00272462675624488	-3.79067383006361E-06	-3.05980456405497E-06	-4.70773285045819E-06	-1.77981633950028E-06	0.990996206663973	-0.142719057588846
6	0.00266681761471522	-0.00314457518333542	-2.07579802922304E-06	1.70658772863106E-06	1.04320207353658E-05	-2.67102339174847E-06	0.988638525739074	-0.146303905068339
6.1	0.00197273271628064	-0.00241333945145465	-7.32989277363057E-06	-1.10703589175865E-06	-7.24791879986875E-07	-2.48473559936831E-06	0.987477021090024	-0.146117466875561
6.2	0.00182125245643376	-0.00207828844431616	-1.06309974709591E-06	1.99057951301595E-06	-3.48505233025379E-06	-5.36827936938092E-06	0.987313440851312	-0.147183200817963
6.3	0.00179071448684213	-0.00189705230581029	1.57954788960682E-06	2.83323945477684E-06	1.14908788006007E-06	5.97841710834073E-06	0.987012407579445	-0.149001769828261
6.4	0.00187370210029525	-0.00214885767362074	2.07323263609599E-06	5.03855984688114E-06	-3.33369123847639E-07	2.2759442664216E-07	0.986470753694053	-0.151327752624008
6.5	0.00126394268262991	-0.00247361159105344	4.6702483503407E-06	-1.87575588967743E-06	-4.68983472961226E-06	-1.55186720743614E-06	0.985449938697973	-0.152813077687759
6.6	0.00130209763111302	-0.00223520621281776	3.26939851825537E-07	-1.07032368195799E-06	9.30810444609095E-06	3.34788911800499E-06	0.986933599709887	-0.154853334428038
6.7	0.00106239324480835	-0.002415713477887	5.29785952483478E-07	5.62086734497793E-06	-1.7928067582762E-06	4.9811819180999E-06	0.987201942132597	-0.158013527167415
6.8	0.000691613513761514	-0.00217378615770444	1.75677132032324E-07	-1.58873258101581E-06	-3.48293675844103E-06	-5.12608343853296E-06	0.986841306901493	-0.160722492559967
6.9	0.000615848120769513	-0.00196382812710722	-6.65008233905291E-06	6.72834124074048E-06	2.29057558221934E-06	1.35495616336435E-06	0.986759194761973	-0.16339803528474
7	-0.000181135630166101	-0.00184812388918603	8.09081477346759E-06	3.16755172242338E-06	4.57505920472686E-06	5.87003447042683E-06	0.985267507263353	-0.165975910498745
7.1	-0.000238546932929338	-0.000665985681622051	1.39821869867145E-06	7.8407275364004E-07	-2.27791605675461E-06	-4.48136776440563E-06	0.984458500127823	-0.166722846741742
7.2	-3.39650065644947E-05	-0.000280786093513031	-1.33775876347903E-07	4.40252563072073E-06	-5.01693192125532E-06	-6.56518816282712E-07	0.984225118036765	-0.168059104512429
7.3	-0.000139823185832862	0.000127785236516218	1.35111617053562E-06	-5.26869322466773E-06	-2.35114182693728E-06	-2.79084607186339E-06	0.98384050461736	-0.169337759147005
7.4	-0.000140106179429487	0.000500627041035765	1.83926772623883E-06	4.4264592558287E-06	-7.28865115207268E-07	-1.07050016093405E-06	0.984638650095237	-0.171314282909853
7.5	-0.000794743155023954	0.000413864056338579	-5.75580226956525E-06	-1.48572213328992E-06	-1.59507736563555E-06	-8.91707096095214E-06	0.985006510762523	-0.176562145060956
7.6	-0.00117985382368757	0.00166090089601269	5.62066451110807E-06	-3.4014988922125E-06	1.03032615740993E-06	3.19039730763769E-06	0.982566774074032	-0.179811228388371
7.7	-0.000960500913736093	0.00219231471479576	-6.51249628081539E-06	-2.85044323887194E-06	4.39050580854051E-06	5.66429497877615E-06	0.982194779046912	-0.182964730871289
7.8	-0.000569194739429195	0.00238153622579318	-1.0960951023809E-06	-5.35714244079206E-06	-2.10879709599475E-07	1.14470756721456E-06	0.982078972357164	-0.186808116788155
7.9	-5.95418538140717E-05	0.00218832639788314	-3.32899647599388E-06	7.22675461778362E-06	4.51377512647367E-07	-6.88810894433772E-06	0.981694220322884	-0.191649218517197
8	-0.000509061421425626	0.00203218204514385	-2.01960212249369E-07	7.38109525592735E-06	1.75208932119458E-06	-4.46214102173781E-06	0.977596787576054	-0.196071014540748
8.1	0.000259038519119229	0.00273888466084108	-7.53758897837391E-07	-6.456919895331E-06	-1.74880015413112E-06	-1.0576918526412E-06	0.976161138612888	-0.19559415322896
8.2	0.000829119151858511	0.00264368187154929	-3.82099593494016E-06	1.65866950506898E-06	-1.09672887377857E-05	-2.59107688871723E-06	0.976585875167497	-0.197204827693518
8.3	0.00116953084085472	0.00266691721774126	-5.56494297903077E-06	-9.84287154483897E-06	-7.77632711177283E-06	3.03458367759953E-06	0.97629337719518	-0.199670736290246
8.4	0.00161991765697501	0.0026585210839129	6.75095867330072E-07	-6.10865954672315E-07	-1.41380484332935E-06	4.43020708715922E-07	0.975559989829628	-0.202235634463237
8.5	0.0011709725120818	0.00248879843828203	-1.75093187551686E-06	-2.55517403207363E-07	-6.51043275818177E-09	1.80186345816601E-06	0.974573095799625	-0.204280351464452
8.6	0.00147435106343317	0.00362469324651025	2.42267710334187E-06	-3.97462785407551E-06	-4.57005690123654E-06	-5.9167773304926E-06	0.974864159876895	-0.20643546510799
8.7	0.00221841653986158	0.00395407756576803	-1.50141111839536E-06	-2.09162512308455E-06	-3.55170617415689E-06	3.64206990206166E-06	0.974797296965208	-0.20916126477122
8.8	0.00287716732172887	0.00423285455126213	-5.4975887086982E-06	-2.1110998273644E-06	-7.23172120285742E-06	-1.25733042706632E-06	0.974522776659355	-0.211577773975888
8.9	0.00387591482057444	0.00423283248152281	8.55333762505429E-06	4.08175213197504E-06	-1.41208074148374E-06	3.19860620647318E-06	0.974585096829493	-0.213713084930198
9	0.00429245689920432	0.00365094038728224	-4.97561843406762E-07	4.16067964746372E-06	-7.81609880033129E-06	1.23373250425727E-06	0.974455013111136	-0.216259382204647
9.1	0.00512726165172043	0.00369419218303881	-2.54706622440621E-06	6.63828087226232E-06	4.10022423018158E-06	-3.08687007057911E-06	0.973938655757008	-0.218545230750178
9.2	0.00588220632453652	0.00288605775000814	-1.1719986551545E-06	3.42383249960483E-06	-2.24689251336831E-06	-2.05409143834191E-06	0.973210705027876	-0.220949571326682
9.3	0.00612514863053949	0.00219447586004189	2.32175880127982E-06	-4.0398653530769E-06	-7.93580532164006E-07	-1.77941688859368E-06	0.97268804577684	-0.222929016479088
9.4	0.00640056831463874	0.00157949282471352	-1.79989835711989E-06	3.89618248341101E-06	-2.06796267771197E-06	-3.58017087709326E-06	0.972761151689576	-0.225256384970781
9.5	0.00594284134053515	0.00130262916558201	3.50580877454825E-06	6.29941926619074E-06	3.64956322415142E-07	-2.15299628206923E-06	0.972330383865486	-0.229115585036448
9.6	0.00647528224206795	0.00171621777360005	4.63409793081194E-06	7.06885976292011E-06	-8.20651759008964E-06	1.28175994249942E-05	0.970972661247661	-0.231657891709865
9.7	0.00696612126768512	0.00136554377918789	-2.88269710410826E-06	-1.52893153007715E-06	-1.39147021153844E-06	-3.96700953173365E-06	0.970801742706962	-0.233815501003288
9.8	0.00722278212339184	0.00110893610960311	1.25785705713854E-07	-3.59527819229368E-06	3.04741572697492E-06	2.39597729931086E-06	0.971206957257721	-0.236104843500043
9.9	0.00763159735935424	0.000846464887316578	5.79932441957907E-06	-6.25006454547139E-07	-2.55626735017069E-06	6.73309578114864E-06	0.97118914039528	-0.239493863465178
10	0.00718249159729427	0.000302496247411668	-1.14086590072968E-06	-5.74942962968467E-07	1.35871838654854E-06	-1.18775508403912E-06	0.967450500469458	-0.241705224177121
10.1	0.00746849376745299	0.000968678209735746	7.06879200379192E-07	-8.40334198370413E-06	6.14633538455772E-06	3.59686629407842E-06	0.967544463900497	-0.240198180034651
10.2	0.00816250033897902	0.00089060780939288	7.48992084275813E-06	8.3064373025991E-06	5.22036245412621E-06	3.52405108903145E-06	0.9686157336294	-0.241610098184396
10.3	0.00884071762417279	0.00070798050087623	1.74929107175482E-06	-6.94934638776785E-06	1.42636854241185E-06	2.86324569826773E-06	0.968588095916305	-0.244051237901906
10.4	0.00983328269631788	8.16190012129408E-05	-4.02131388928621E-06	-3.62785298177665E-06	1.94467689171249E-06	-5.58595093145223E-06	0.967492900568327	-0.247129651542958
10.5	0.00987984943386013	-0.000965427749372218	3.78951453440732E-07	-7.04743237429525E-06	-5.7178971433512E-06	4.05715255643813E-06	0.965516428001189	-0.248995486136033
10.6	0.0104084577067957	-0.00133092963563048	5.47782996747146E-06	6.72799063044286E-06	2.42968392261935E-06	1.19332972580731E-06	0.965220875731344	-0.251418541773323
10.7	0.0105010081971906	-0.00214993919012246	-7.06297736909387E-06	-1.6856758616238E-06	-7.71433019962538E-07	1.55652150000854E-06	0.963383333871015	-0.254419244924246
10.8	0.0109344907115838	-0.00252896088408397	1.48282729169926E-06	4.43195653888418E-06	9.3913498206036E-06	-4.45783244679251E-06	0.9625136482635	-0.255199364938851
10.9	0.011598321025056	-0.00326727273442214	3.2009273482735E-07	7.39958977968904E-06	-5.14842182970021E-06	2.04248822315424E-07	0.962318684799019	-0.256331481992067
11	0.011399564889994	-0.00444893771283347	-2.2161400350206E-06	-3.82141693550615E-06	1.20243997490463E-05	-3.53308339821116E-06	0.961940845009948	-0.257174396919264
11.1	0.0118822495557152	-0.00475229444320574	-6.10681350560013E-06	-4.93200292806915E-06	9.45483253183915E-07	5.57181634710452E-06	0.962544844497512	-0.257836991086937
11.2	0.0123515466241755	-0.00598532157186954	3.30809212351122E-06	4.30103501338248E-06	1.06640221107874E-06	-7.86695205136652E-06	0.963029572517934	-0.25954078176485
11.3	0.012518199134258	-0.00732244475582751	7.14300056036337E-07	-2.65372027313091E-06	-4.84281261649618E-06	9.09904023821105E-06	0.963680808059358	-0.261619197615303
11.4	0.0125288008486707	-0.00881266635781839	1.47990982270181E-06	-2.1987776173176E-06	-2.99584485743208E-06	-7.43848621250504E-06	0.964389599496018	-0.264832585902181
11.5	0.0113703602665926	-0.010395678750746	9.48831610141949E-07	-1.01025505398053E-06	-9.02261137282503E-07	-8.72261837849426E-07	0.962945395595468	-0.270232322504739
11.6	0.0109955799627383	-0.0108912000299794	1.12171979079909E-05	-3.27568950196974E-06	-5.42013748931553E-06	-6.82585176421204E-06	0.960446019719065	-0.272935215220475
11.7	0.0107403361029467	-0.0121630852789937	5.32299877161694E-06	-2.89254006127109E-06	-4.40672572406747E-06	1.6488903108997E-06	0.960074903626023	-0.276221589745248
11.8	0.0102853599167736	-0.0134689659915072	-4.48952526028393E-07	-2.54679275187908E-06	1.05363242466018E-06	1.32567285142819E-05	0.959909447134459	-0.280732852757411
11.9	0.00977189806988371	-0.0151955054872117	3.32565282429838E-06	1.9905150916355E-06	-1.61184856182923E-08	1.27394155912189E-05	0.959138499936571	-0.285939939582386
12	0.00751406743771737	-0.0168052238723945	2.00111802022145E-06	4.81652349412157E-07	-3.69423434876321E-06	-9.65793531103361E-07	0.953106259767315	-0.288918381230105
