# GHZ S RI R 50
0.2	0.000376996240135882	0.00322482370392549	6.31239440379644E-06	-1.00279559926807E-06	1.06692042286145E-05	1.05152544091351E-05	1.0002636824384	-0.00664101260646211
0.3	0.0010644718271551	0.00303866831514851	5.81978276606714E-06	5.04706891664245E-06	8.10340663926728E-06	2.96261545604734E-06	1.00025841967898	-0.00953238682607496
0.4	0.00156285522037883	0.00312978916115581	-2.71684757319466E-06	7.88070626668751E-06	-4.79674414619067E-07	-4.43798546894175E-06	1.00067291028517	-0.0121349859422891
0.5	0.00233240428739839	0.00298514338574995	2.311583525393E-06	1.48082464176027E-06	7.52182479631838E-06	-1.05553219294094E-06	1.00081200999765	-0.0159483565886896
0.6	0.00229465541447103	0.00262204078533037	3.21519495789755E-07	3.54387003566615E-06	2.75923714665676E-07	-7.66952833290561E-06	1.00032897488505	-0.0189262112172367
0.7	0.00224790088049787	0.00284853365461624	4.17284219715989E-06	5.0693001171334E-07	-3.90141075246975E-06	-5.37726522404468E-09	1.00006713004111	-0.0216665179396126
0.8	0.00241610454943619	0.00308481903039857	-2.89474224306693E-06	2.96890208483221E-06	-6.83556817457077E-06	1.31983033116791E-06	0.999951614686138	-0.0238067163166063
0.9	0.00247201643311389	0.00341178874722532	6.05060858198359E-06	9.02882898961925E-07	-7.35822980767647E-06	-1.83875637702431E-06	0.999831247694138	-0.0260169605765877
1	0.00312853669800076	0.00392968191917492	2.36682312066487E-06	2.95128335124092E-06	-9.06677980585384E-06	-2.58983156884601E-07	1.00015684644158	-0.027414384744775
1.1	0.00350633602401841	0.00328253695889408	6.45326435828265E-07	3.54994288030525E-08	-5.31206628916752E-06	1.40744019114876E-06	0.999919459934834	-0.0300101703222136
1.2	0.00318956476583787	0.00277392753938399	-5.30560995151428E-06	-3.29487999502585E-06	-1.12106676729828E-05	-1.26799905339502E-05	0.999116328508126	-0.0311296357868231
1.3	0.00264549540047363	0.00202974682336343	3.05723306886961E-06	3.10781721510054E-06	6.96894682548696E-06	-4.09586171010635E-06	0.999051216445246	-0.0323336136982788
1.4	0.00201469029042725	0.00140832788846426	-2.80445760649608E-06	-1.11333625218099E-06	5.7222055595202E-06	5.83169017330247E-08	0.998521346315426	-0.0345949289710321
1.5	0.00214282529439027	0.00109111529707557	1.24095928685038E-06	-2.53868283545685E-06	8.04828620945025E-07	2.51582927406475E-06	0.999505219280673	-0.0380717824447508
1.6	0.00186395665036482	0.00109687539281485	-9.39541091938586E-07	-6.42865189990169E-06	3.18939358501053E-06	-4.25491972131959E-06	0.998999565322363	-0.0418664296907794
1.7	0.00215842447756705	0.00159666185393092	3.41429230000068E-06	6.31881686360138E-07	2.24359097659672E-06	3.85989261399269E-06	0.99937406265065	-0.0442865104589262
1.8	0.00253985364447089	0.00197915647130562	-2.3808291000266E-06	2.90734783322768E-06	-1.0206228683297E-06	-4.00676541032541E-06	0.999364867977875	-0.0469008353656762
1.9	0.00295933112103761	0.00227469901436224	-3.74331631846528E-06	-1.76228502905001E-06	5.64645269386209E-06	3.03166535891606E-06	0.99951694633309	-0.0485780650707191
2	0.00379617715149427	0.00220271032814683	-6.204356798039E-06	-5.76873876972729E-06	-2.08088663959028E-06	9.19105163808059E-06	1.00088485105075	-0.0514023354138026
2.1	0.00367556761239067	0.00158938507616145	1.18528358970371E-06	4.62091819843712E-06	4.50713391457168E-06	3.99748638761777E-06	1.00035577459879	-0.0554868916914592
2.2	0.00345150054713976	0.00161587403231333	6.6038771963011E-07	9.08508138029289E-07	-3.66427325256115E-06	-1.09678153623356E-05	0.999702724508825	-0.0581081107582915
2.3	0.00328435446828999	0.00161564664211065	-2.2849487418042E-06	3.57707113347232E-06	-5.4310275701356E-07	-2.80429062022958E-06	0.999059480597906	-0.0600320807477083
2.4	0.00301357622984937	0.00179528213834856	-1.56569306460761E-06	-1.45681705655128E-06	1.28611584105643E-06	-1.00538802950622E-06	0.998769067802572	-0.0630732990857088
2.5	0.00323303827307411	0.00206844123053217	7.82511021563123E-06	4.04916938402608E-06	-2.37677409561758E-06	-7.24428387213799E-06	0.998575185053866	-0.0652851887583698
2.6	0.00312268210512602	0.00172647560868921	4.94395427086795E-07	2.12211932039043E-06	-1.45777295023075E-06	4.70394156814336E-06	0.998501472495141	-0.0684088378881207
2.7	0.00289132137701017	0.00186756064537114	-7.87469272648792E-06	5.28087425701484E-06	2.57077551744009E-06	9.74295822589404E-06	0.998206021593507	-0.0716202050061215
2.8	0.00291005027869455	0.00216859101149956	-7.74153385937345E-06	8.00620839317216E-06	6.1011345342286E-06	1.99594969821E-05	0.998181034246903	-0.0739015714584851
2.9	0.00322664732488637	0.00250363496072146	-1.19024724054684E-06	8.6707078380411E-07	-8.15507633986936E-06	-2.94045928123328E-06	0.997699794609519	-0.0760514852296957
3	0.00404191543981309	0.00249483391018659	-6.29448761341339E-07	-4.48123253136213E-06	-2.16450153544276E-06	6.46392439162718E-06	0.9975579114579	-0.0786048335710437
3.1	0.00419499042049948	0.00206062388914308	-2.59471945128526E-06	9.94615815172121E-08	1.10304921417377E-05	-3.57878150870475E-06	0.997070621801449	-0.0809772746857023
3.2	0.00433391661207726	0.00198861606233613	-9.8110201336963E-06	2.59562313810569E-06	1.22092281241332E-05	4.22092301441984E-06	0.996525443649934	-0.0830480447121352
3.3	0.00445823485816821	0.0017695744389593	-3.47040173726309E-06	9.51608981519957E-07	-5.02055683660325E-06	-1.19958297854415E-07	0.995809483907899	-0.0865841025186662
3.4	0.00445672055460473	0.00169959809610439	5.35586899370865E-06	4.60432537157068E-07	1.35270748148674E-06	4.40524644578252E-07	0.994953922387686	-0.0885647959641996
3.5	0.00481988699461313	0.00142618374512335	2.77703265542295E-06	1.54652618253432E-06	1.3166877447495E-06	7.86909429297834E-07	0.994691606396741	-0.0905904163610071
3.6	0.00440655303952903	0.00087670633760473	-7.15499315274773E-06	-1.01238476872657E-07	1.85075533107057E-06	-3.50877472967216E-06	0.994673403207222	-0.0936571781237136
3.7	0.00399954477311979	0.00096059369021774	5.77330435679277E-06	-1.54153920875751E-06	-3.33735744308947E-07	-1.73209462385265E-06	0.993841682677386	-0.0966363687183143
3.8	0.00386626397357178	0.00117730920827952	-1.99841197772967E-06	8.86946877818197E-07	-5.19330579211274E-06	3.24336363430906E-07	0.992815535096419	-0.0984317659156901
3.9	0.00397336218043668	0.00150158055328754	-8.35823159792801E-06	1.81893510159047E-06	-4.12471330646776E-06	-1.48082482149191E-06	0.99244653639283	-0.100630411099979
4	0.00466595024655807	0.00145056464774181	-5.82907008118507E-06	3.95253134897575E-07	-9.5465983369464E-06	-8.41423662913539E-06	0.993570559824618	-0.101810513216759
4.1	0.00458873532476137	0.000880979811685823	-3.96530612370215E-06	4.08954371834675E-06	-1.84963702458742E-06	5.59376729973985E-06	0.992917372437286	-0.105007177660242
4.2	0.00446468620243546	0.000804571799330363	4.59403612342571E-06	-4.40983069708589E-06	6.75606546907141E-06	7.16303247652267E-07	0.991680165572795	-0.107601802518086
4.3	0.00444133364882895	0.00075795262828401	-3.78729640544685E-06	1.14780375435583E-06	3.53995367212085E-06	-1.2255990550726E-06	0.991192836101148	-0.109506229424388
4.4	0.00438232694224332	0.000824825408656287	-3.17515578409384E-06	-4.91251491726071E-06	9.23137893471619E-07	-1.04092056005281E-06	0.990576100124625	-0.111688081336061
4.5	0.00480021091116327	0.000752026541604025	-1.37561526020225E-06	2.03561888405273E-06	2.08461241645614E-06	-8.47231845524927E-06	0.990376258531168	-0.114199841068944
4.6	0.00445298636536745	0.000134456856233678	5.43399044499506E-06	9.53849196504238E-06	-1.41067373318556E-05	9.86597895260894E-06	0.989380577495825	-0.116982495165879
4.7	0.00407184443971029	0.000108397905064177	-7.61741970143941E-06	-9.49662097008436E-06	-1.14247350538772E-06	-1.28830629036767E-07	0.988986502967532	-0.118820872611257
4.8	0.00382242563691747	0.000183642560810731	-8.72955519953787E-06	-2.63910568474207E-06	-4.34515495332106E-06	4.54991525229094E-06	0.988273784572121	-0.121302466324389
4.9	0.00374914227572543	0.000407695581108083	5.79233195300039E-06	8.26233841790981E-06	-7.21712508182829E-06	3.30288884710818E-06	0.987417148380033	-0.123032713496987
5	0.00427996125127981	0.000268865079094602	4.22541143731354E-06	-8.52707657303282E-06	-4.30191107679609E-06	-6.13686579926024E-06	0.9869027741243	-0.124315142900235
5.1	0.00411562827646712	-0.000197372218511731	1.51250376966813E-05	-1.02598674080434E-05	3.44476074092374E-06	-8.7035473664272E-06	0.986618239369078	-0.125487911558511
5.2	0.00414338806377211	-0.000245437000322113	-4.23251555034605E-06	-4.68358807711316E-06	-3.14981074107199E-06	5.3265560007834E-07	0.9859865574164	-0.127499983928707
5.3	0.00427871307738261	-0.000437496004012428	4.76802146886628E-06	3.34414563861152E-06	-9.27224454500012E-06	-4.69517581716634E-06	0.985358316025526	-0.129507955505452
5.4	0.00432900555458491	-0.000577548448155545	5.15782762881259E-06	1.17758837524774E-06	-4.39330363186517E-07	1.0404824491588E-05	0.984785289291808	-0.131795177452937
5.5	0.00466679590409611	-0.00109320733623728	-1.80556045195128E-06	-1.96590206674526E-06	8.83121798007442E-06	4.88965459863525E-07	0.984768471696091	-0.133520463100339
5.6	0.00373857858589126	-0.00172536267937615	4.23282794566988E-06	7.18670860289816E-06	-4.73397673310083E-07	-8.56832499892697E-06	0.984817999594631	-0.136282371789082
5.7	0.00294134681031355	-0.00139097385687474	2.04431125421893E-06	-7.20813905104452E-07	5.44699647943877E-06	2.43541918965476E-06	0.984047267564912	-0.13858253606878
5.8	0.00240906528395109	-0.000922925037233061	3.89407202112038E-06	1.94736111475141E-06	2.72532985354975E-06	7.79173638722186E-06	0.983461270162771	-0.140030759341667
5.9	0.0020015157217963	-9.43544861001493E-05	-3.76496503431561E-06	-3.04228417521958E-06	-4.67684725859724E-06	-1.77091703274984E-06	0.983229077928295	-0.140673968319387
6	0.0025955987131038	0.000649373397350813	-2.06923001568086E-06	1.69894256508584E-06	1.03952012552168E-05	-2.65442151483332E-06	0.985250824769637	-0.141789846057831
6.1	0.00265005962534635	0.000286504028560561	-7.29869718750366E-06	-1.09113492961889E-06	-7.25252324906346E-07	-2.47251885850187E-06	0.985185966645588	-0.144370164410905
6.2	0.00249640952948651	0.000234498961979201	-1.05476985234204E-06	1.98056579616207E-06	-3.47160826098126E-06	-5.33387021286387E-06	0.984747389913938	-0.145708776038112
6.3	0.00235140724069958	-2.16397408449316E-05	1.57117646701921E-06	2.81539645700409E-06	1.1446603450336E-06	5.94169346057002E-06	0.984430278646642	-0.147732589134974
6.4	0.00205651745482417	-0.000169167410995954	2.06061216588151E-06	5.01130750899576E-06	-3.31587603591875E-07	2.2626145659223E-07	0.984151286569035	-0.149833930147733
6.5	0.00214156932194452	-0.000730299472502333	4.64108187207077E-06	-1.87160238259961E-06	-4.66533523597074E-06	-1.53650650199487E-06	0.983699377293762	-0.153649121111441
6.6	0.00110100175938528	-0.000969698730602848	3.24458193505743E-07	-1.06189547394367E-06	9.23476823794594E-06	3.3223457124491E-06	0.981791312135126	-0.155550202140007
6.7	0.000671046115702948	-0.000476892703984635	5.15779881218113E-07	5.57929009282845E-06	-1.78810545522814E-06	4.9403121845951E-06	0.981425478792034	-0.156860106393851
6.8	0.000389134462591915	-4.85556537353805E-05	1.78721469987727E-07	-1.57718173803272E-06	-3.44487381938441E-06	-5.09969727354201E-06	0.981004898991453	-0.15850253563618
6.9	0.00020799712751625	0.000658716690288701	-6.62783979130772E-06	6.66476029913925E-06	2.2717047551957E-06	1.35323135928757E-06	0.980739727980647	-0.159770671710828
7	0.000868913463975131	0.000846715228880485	8.02731770542957E-06	3.17182869285735E-06	4.52641744984628E-06	5.84542788735719E-06	0.981138978605108	-0.1612485682599
7.1	4.777134514809E-05	0.000606469217388157	1.38570391499157E-06	7.84427899885365E-07	-2.24467424337444E-06	-4.46047664441534E-06	0.980383771274839	-0.163371888460101
7.2	-0.000515985781405185	0.0013565220606978	-1.52682356757903E-07	4.37409366002658E-06	-4.98227049605567E-06	-6.7487720189872E-07	0.979321821439274	-0.164871534410868
7.3	-0.000881882793579827	0.00211316962079104	1.3664375452923E-06	-5.23006495413421E-06	-2.3240744147595E-06	-2.78416289394417E-06	0.97776721068458	-0.166346142323016
7.4	-0.00129315012938575	0.00313109841867216	1.80648594044444E-06	4.40245861924418E-06	-7.18878314711109E-07	-1.06594401710439E-06	0.975523642079967	-0.167529420465808
7.5	-0.000672419783298108	0.00415796037405714	-5.69645340165184E-06	-1.5174910312739E-06	-1.51339447332713E-06	-8.85501425372521E-06	0.975444357889901	-0.166896496945431
7.6	-0.000654385141406103	0.00407416429397945	5.6204469000075E-06	-3.33438163354197E-06	9.97017316434949E-07	3.1824193213764E-06	0.976603153713073	-0.16996066710106
7.7	-0.000663527583286306	0.00456841118919985	-6.45777478159534E-06	-2.89299064337294E-06	4.32154289811261E-06	5.67556880865897E-06	0.976677633789949	-0.172750291646822
7.8	-0.000362439350519872	0.00470688449055751	-1.04240739300817E-06	-5.34339728973263E-06	-2.20379536184296E-07	1.13771343913271E-06	0.977148301671767	-0.17544515826029
7.9	5.61567708193308E-05	0.00480942842769943	-3.39188253968808E-06	7.16163236795197E-06	5.22548960714206E-07	-6.85489555610481E-06	0.978189199595288	-0.177756098555147
8	0.00087739816005986	0.00426591501922472	-2.90278160329818E-07	7.37595533634966E-06	1.80487977380745E-06	-4.43951370113733E-06	0.980880444296623	-0.181617284602265
8.1	0.000286133609379831	0.00399491625006222	-6.97550909451013E-07	-6.46728813726834E-06	-1.74053820343185E-06	-1.07364921723335E-06	0.979624403714209	-0.186622505006327
8.2	0.000278444363710689	0.00451132658390992	-3.83401321673527E-06	1.62693828151502E-06	-1.09441304460509E-05	-2.6809284149497E-06	0.978703726845215	-0.188900685238899
8.3	0.000461333187323245	0.00492365609355302	-5.48190558605662E-06	-9.88903348005633E-06	-7.801353689477E-06	2.96906264035048E-06	0.978185259333137	-0.191352010423834
8.4	0.000703863267522959	0.00561386468890041	6.80748105681734E-07	-6.05967934103896E-07	-1.41882250658359E-06	4.31932052153797E-07	0.977866051400328	-0.193881955284806
8.5	0.00176976107742717	0.00580020439925461	-1.75018675135779E-06	-2.66599338801724E-07	-1.7789661088001E-08	1.80270145704044E-06	0.977430525336078	-0.197168516874438
8.6	0.00147502195197106	0.00554817036235564	2.45149652232999E-06	-3.95456962792578E-06	-4.52341781648898E-06	-5.94848288238743E-06	0.976577537340227	-0.199585264150616
8.7	0.00149440506502806	0.00626565876083026	-1.48491397774189E-06	-2.1047991229501E-06	-3.58302349776096E-06	3.61451594646497E-06	0.976426338487821	-0.201783907773865
8.8	0.00194826985183362	0.00696991812982186	-5.48780052977341E-06	-2.15971020572422E-06	-7.23146140331288E-06	-1.31913537637771E-06	0.976415178795196	-0.203830286980911
8.9	0.00272899313219231	0.00766213873129496	8.54378475776681E-06	4.15730237624606E-06	-1.44004498747313E-06	3.19590599914323E-06	0.976911664611365	-0.205587227912008
9	0.00443236013276599	0.00776369573053757	-5.26226260047745E-07	4.1639584324837E-06	-7.836785221907E-06	1.18333064396778E-06	0.977624630075274	-0.207648909509771
9.1	0.00525351234291567	0.00699739365291944	-2.60523126495044E-06	6.6330075123438E-06	4.13379737701029E-06	-3.06137328010417E-06	0.97839271329601	-0.210131305680944
9.2	0.00612516255601143	0.0064543007667951	-1.20058877253699E-06	3.42703470377227E-06	-2.23975769787389E-06	-2.07721714172223E-06	0.978745170774266	-0.213441054954487
9.3	0.00677066742362863	0.00560333255284791	2.35447234516938E-06	-4.04032874767607E-06	-7.85681805257886E-07	-1.79058665251542E-06	0.978512086851507	-0.216917123898393
9.4	0.00711366488785598	0.0049434102348124	-1.82448835750884E-06	3.89720046598446E-06	-2.05511150160168E-06	-3.60009462648932E-06	0.977451355184881	-0.220194980068592
9.5	0.00762181740107995	0.00397328891823963	3.46424631624448E-06	6.33391347929042E-06	3.81314370132263E-07	-2.15327396459137E-06	0.977322792256538	-0.222597343924345
9.6	0.00680287147129204	0.00327414239017474	4.59600735271794E-06	7.13696690274387E-06	-8.34647438857413E-06	1.28051229418955E-05	0.977050492597593	-0.226780925448316
9.7	0.00649941916471258	0.00347140848932743	-2.88714554902316E-06	-1.55781993668719E-06	-1.37042549889877E-06	-3.99823733652628E-06	0.976072420986549	-0.229760416646473
9.8	0.00647234677917429	0.00365704784323942	1.50932002404669E-07	-3.61438401709108E-06	3.04804246475089E-06	2.43000234624178E-06	0.97558421387236	-0.231726148687562
9.9	0.00661401027047544	0.00410369477635685	5.83849805705643E-06	-5.82953919615069E-07	-2.62446991180017E-06	6.75269035493621E-06	0.975750414436284	-0.232687645530798
10	0.00759774126633353	0.00403529493884338	-1.14787577271429E-06	-5.89070121818167E-07	1.38093367776232E-06	-1.18942373447403E-06	0.978050845957793	-0.235832931832873
10.1	0.00746168458878325	0.00353185496897024	7.46058025995014E-07	-8.47825196426956E-06	6.18916070311987E-06	3.65398345739284E-06	0.976016310603018	-0.239658820550404
10.2	0.00768518984517145	0.00372334478332382	7.5219667460807E-06	8.40181833941327E-06	5.25081476933365E-06	3.57183593797375E-06	0.974807658441782	-0.240873249477844
10.3	0.00819178925742996	0.00372628311271016	1.78952640347705E-06	-7.00140442939096E-06	1.42785937702717E-06	2.892577589494E-06	0.974214181703824	-0.242507360680301
10.4	0.00888883531694694	0.00373859379270755	-4.04895334394607E-06	-3.67644406341593E-06	1.98184876920885E-06	-5.63438107004602E-06	0.974007542499377	-0.244606287589737
10.5	0.0102029769685769	0.00306171823927471	3.84097941098234E-07	-7.11580874492383E-06	-5.7742815946165E-06	4.09537261112934E-06	0.973669265605536	-0.248319564714554
10.6	0.0104248764920378	0.00205951377054476	5.51630328059784E-06	6.78708627654486E-06	2.44829202493983E-06	1.20506794325528E-06	0.972517434684216	-0.251040235968831
10.7	0.0108440864075184	0.00145379348237635	-7.12418098086778E-06	-1.71028774530614E-06	-7.80450563430531E-07	1.56947340050736E-06	0.97223009964486	-0.254300266188419
10.8	0.0111493404108384	0.00066357622196851	1.49435757352258E-06	4.47605387902178E-06	9.48565307650276E-06	-4.49506838009264E-06	0.971479670554943	-0.257279214461667
10.9	0.0113467140373404	0.000130933142091757	3.28571328105629E-07	7.47605907644155E-06	-5.20163984505551E-06	2.09956631908007E-07	0.971020049410518	-0.259937608137691
11	0.0122387997345341	-0.000913396058332559	-2.24304893256451E-06	-3.85041177772612E-06	1.21224344402472E-05	-3.58770866984892E-06	0.970423674124203	-0.262711063939992
11.1	0.0118387409822372	-0.00216503783472304	-6.16353648446277E-06	-4.96680321442041E-06	9.59512212467561E-07	5.6176278390317E-06	0.968617317260204	-0.265368683516907
11.2	0.0118034558679628	-0.00282381635651265	3.34378445218117E-06	4.33406593616332E-06	1.06400241420889E-06	-7.93806372814401E-06	0.966767105050127	-0.267401249694379
11.3	0.0119803561597948	-0.00370564561593111	7.13795004852731E-07	-2.67856380209722E-06	-4.86186132289841E-06	9.19027239712682E-06	0.964933201945062	-0.269165018463439
11.4	0.01198438078075	-0.00461533603296203	1.48240450017111E-06	-2.22003600820346E-06	-3.04485868307162E-06	-7.48081330896846E-06	0.962718338082676	-0.270863869765471
11.5	0.0123777860263647	-0.00621268627248693	9.53454513242486E-07	-1.01718409114523E-06	-9.08474118254154E-07	-8.76537914220768E-07	0.962955612348341	-0.27219920898976
11.6	0.01132619333387	-0.0080117492032042	1.13110255910277E-05	-3.31768811639781E-06	-5.47555851682994E-06	-6.87883805135014E-06	0.96209765740529	-0.277126937482869
11.7	0.0104350312106456	-0.0090289024723567	5.3618146123352E-06	-2.93265363489241E-06	-4.44091730748736E-06	1.67554296695928E-06	0.960054465987325	-0.280646398098039
11.8	0.0096451240616829	-0.00995309070466188	-4.61002908479484E-07	-2.5654507867755E-06	1.10620162037667E-06	1.33581301312234E-05	0.958745702906964	-0.283356797237241
11.9	0.00899685456684679	-0.0106212616775606	3.35331762414974E-06	1.99797678523264E-06	9.42205410932068E-09	1.28300667497236E-05	0.959351719158518	-0.284193019288653
12	0.00891280464430068	-0.0121263327541115	2.02367529145744E-06	4.82547104923224E-07	-3.73604111338586E-06	-9.68269535386812E-07	0.962592776318199	-0.288908090886238
