# GHZ S RI R 50
0.2	0.000274741677058433	0.00364867265232802	6.30961867102446E-06	-1.00563643619925E-06	1.06707044586929E-05	1.05060673118438E-05	0.999779516791924	-0.00673636538867764
0.3	0.000940291691116064	0.00338206054336788	5.81888378414553E-06	5.0428642160453E-06	8.10078951658471E-06	2.95857287595932E-06	0.999666644235341	-0.00953335848542658
0.4	0.00148088595793574	0.00338612009975336	-2.71352769952401E-06	7.8760559462675E-06	-4.80223221881571E-07	-4.43497539117904E-06	0.999917989781209	-0.012072730252025
0.5	0.00204124819717551	0.00325420613009276	2.30971812801048E-06	1.48031050405178E-06	7.51698157912027E-06	-1.05325077476243E-06	0.999864123028111	-0.0154672640276448
0.6	0.002224619950309	0.00320226384720129	3.21213191270533E-07	3.54227407207969E-06	2.76145003210587E-07	-7.66603047511781E-06	0.999834430043799	-0.0183338980507637
0.7	0.00245258428731452	0.00334394456979071	4.17008066443236E-06	5.06174531811002E-07	-3.89878237258614E-06	-4.98667244921373E-09	0.999614680497354	-0.0213252056038924
0.8	0.00277624843094643	0.00345687362227369	-2.89183134986798E-06	2.96655830158375E-06	-6.82930926774981E-06	1.31938784113886E-06	0.999413173328205	-0.0236082079853036
0.9	0.00300072033670336	0.00359624874959993	6.04390788285578E-06	9.01295719277205E-07	-7.35015132642123E-06	-1.83599535513762E-06	0.999200902329821	-0.0259853975536071
1	0.00345005160453319	0.00372698470988213	2.36319284193503E-06	2.9476976249003E-06	-9.05459208178396E-06	-2.60047137838152E-07	0.999088477443064	-0.0274664661409107
1.1	0.00356563716659217	0.00351075619802259	6.44616214130042E-07	3.56956455008099E-08	-5.30683785661601E-06	1.4039884230962E-06	0.9988940827749	-0.0293971157860721
1.2	0.00351991211748155	0.00333122847516519	-5.29977968963435E-06	-3.29450545022663E-06	-1.11958236801814E-05	-1.2674483648006E-05	0.998651808302422	-0.030107743195914
1.3	0.00326924964658207	0.0028381101811174	3.0535223298477E-06	3.10846712133784E-06	6.96844110947109E-06	-4.08889478632622E-06	0.999260907672467	-0.0308152905241372
1.4	0.00290965933027026	0.00222844048420227	-2.80272493722648E-06	-1.11598490357143E-06	5.72094495914957E-06	6.41856145883304E-08	0.999314696824976	-0.0327939394118173
1.5	0.00287216268776813	0.00177496135014334	1.24339946801507E-06	-2.53672271996542E-06	8.01914053627589E-07	2.51608510399093E-06	1.00012167296183	-0.0363777749270281
1.6	0.0027880930191439	0.00169521247965392	-9.32365728671072E-07	-6.42602153319757E-06	3.19200721355887E-06	-4.24923693286624E-06	0.999495386291651	-0.040360318281095
1.7	0.00303084367773013	0.00176610185096103	3.41066685477048E-06	6.34740786117686E-07	2.23776510718983E-06	3.85875096643829E-06	0.99945962220296	-0.0432441508831535
1.8	0.00323256189973065	0.00186726417771505	-2.38101811330116E-06	2.90195444329848E-06	-1.01572264047268E-06	-4.00341165537739E-06	0.999040348843675	-0.0461701246659989
1.9	0.00343898256627248	0.00188433283789279	-3.73749747718115E-06	-1.76275419404739E-06	5.63741349544673E-06	3.03191593423811E-06	0.998807799071732	-0.048338621254006
2	0.00369088536745441	0.00176942528115512	-6.18886256531637E-06	-5.76055065393997E-06	-2.08167053940456E-06	9.17157377026402E-06	0.99883463741341	-0.0512921842357473
2.1	0.00355418616800416	0.00161173193014141	1.17680660013083E-06	4.61269966078409E-06	4.49245317543846E-06	3.99487924261629E-06	0.998259761296992	-0.0541768226660866
2.2	0.00347694895151128	0.00169018021995148	6.5787598815641E-07	9.07786513695509E-07	-3.64185442177505E-06	-1.09529381236636E-05	0.998037574964331	-0.0566526990200458
2.3	0.00340582461824196	0.00168280277484827	-2.28615488917484E-06	3.56752544101701E-06	-5.38089976936996E-07	-2.80019232645481E-06	0.997563145107921	-0.0585855563186293
2.4	0.0032542459328639	0.00172291537402188	-1.56070125431879E-06	-1.45669005291191E-06	1.28542092091784E-06	-1.00164033684668E-06	0.997360230889068	-0.061649864333551
2.5	0.00315302411681314	0.00173248177320604	7.80565670215987E-06	4.05702560401923E-06	-2.35999946577726E-06	-7.23734071154895E-06	0.997067105541778	-0.0638241081767514
2.6	0.00283627878021215	0.0017721634584804	4.9038716574682E-07	2.12008837996684E-06	-1.46327377837292E-06	4.69540475106184E-06	0.997046850952737	-0.0667947171986957
2.7	0.00268057756923518	0.00210906306049097	-7.87081022570027E-06	5.26170926410646E-06	2.55287294953581E-06	9.73240551442681E-06	0.996709126694108	-0.0699378455837327
2.8	0.00282194170819565	0.00254437856696442	-7.74115571699288E-06	7.98209559873046E-06	6.06194174775002E-06	1.99369926886759E-05	0.996710683243488	-0.0720601878008878
2.9	0.00327822752327083	0.00283318356993922	-1.1897630990604E-06	8.63795788766014E-07	-8.1375136772693E-06	-2.94890808418928E-06	0.996390927500596	-0.0741377878687084
3	0.00390001063140114	0.0028408931411965	-6.21339367826431E-07	-4.47649975721817E-06	-2.1722508846965E-06	6.45209217652059E-06	0.996378636900385	-0.0766626109218228
3.1	0.00429742633870404	0.00268814184958865	-2.59140311312229E-06	9.54098419508048E-08	1.10211604614981E-05	-3.55734066001172E-06	0.996105949964594	-0.0788873627781812
3.2	0.00469069446242136	0.00251521303741843	-9.8029013879999E-06	2.57512712404716E-06	1.21861018073563E-05	4.23681786582232E-06	0.995876853666779	-0.0808764373973393
3.3	0.00496398294767355	0.00214779687648714	-3.46861085960046E-06	9.43519823979251E-07	-5.01491843870727E-06	-1.30052718356219E-07	0.995532593672719	-0.0843114370658562
3.4	0.0050502308950298	0.00181529782056045	5.35137823436242E-06	4.7264360954261E-07	1.35081625626824E-06	4.43401955516127E-07	0.995203538930895	-0.0862950512418337
3.5	0.00508310703081066	0.00138325375801019	2.77371734374575E-06	1.55201157333177E-06	1.31500773253678E-06	7.89506402610305E-07	0.995157216225237	-0.0888309249052253
3.6	0.00476245458008763	0.00113568922074352	-7.15216904297241E-06	-1.14763377946632E-07	1.85672527776189E-06	-3.50397583486366E-06	0.994944930894733	-0.0917221920359729
3.7	0.00458939447688455	0.00112295267225066	5.77479333135986E-06	-1.52861778806873E-06	-3.29899913770452E-07	-1.7322640764866E-06	0.994389192908045	-0.094574894617493
3.8	0.004579956905861	0.00113613174556616	-2.00015792584567E-06	8.82402566284618E-07	-5.19343880104378E-06	3.12751316374989E-07	0.993646708592447	-0.0965173257720975
3.9	0.00468926775174583	0.00110722373627097	-8.36216881516078E-06	1.80242710813347E-06	-4.1219383229478E-06	-1.48906502799095E-06	0.993364312971077	-0.0992708297471445
4	0.00485482359364889	0.000854485075961187	-5.82663166524027E-06	3.84016026912418E-07	-9.52547199521182E-06	-8.42768791617429E-06	0.993394904464812	-0.100592648497637
4.1	0.00470852888152572	0.000653776707663577	-3.97469099399976E-06	4.07778136657423E-06	-1.86367326856751E-06	5.58704369926665E-06	0.993033870652432	-0.102713483658964
4.2	0.0046838400846367	0.000570501531967357	4.60637407794655E-06	-4.39795246313176E-06	6.75485689860825E-06	7.34535200948445E-07	0.992363866484509	-0.105322015197036
4.3	0.00467127710538197	0.000435472717876313	-3.7916421294447E-06	1.13785918872747E-06	3.54443159792977E-06	-1.21635315438166E-06	0.992106927691263	-0.107312497122081
4.4	0.00456642976958678	0.000295153158435263	-3.16202801551132E-06	-4.92405134581115E-06	9.26618771362129E-07	-1.03864828918304E-06	0.991583145139687	-0.109476142645514
4.5	0.00443090953188189	0.000103802360048279	-1.38431378849776E-06	2.03283272788168E-06	2.11701950801572E-06	-8.47371430952814E-06	0.991533386635621	-0.111545408735698
4.6	0.00396013430595631	2.18324167050259E-05	5.41355012543164E-06	9.57401872235557E-06	-1.41651694608518E-05	9.83920746607328E-06	0.991267525281189	-0.114268104259192
4.7	0.00369841932061302	0.000193290242119169	-7.60580113974171E-06	-9.53851009961431E-06	-1.14448446447668E-06	-1.32409672704022E-07	0.991162636546016	-0.116296640762043
4.8	0.00356963825220322	0.000400948235260712	-8.74141978219889E-06	-2.66882230451024E-06	-4.36714183127068E-06	4.54795469680401E-06	0.990639760976933	-0.118853989820643
4.9	0.00365142617898818	0.000593743144296436	5.78294549401086E-06	8.29738375387863E-06	-7.24289665800174E-06	3.29063203572814E-06	0.990029693208224	-0.120633436631433
5	0.00392008991382154	0.000498501748383513	4.26017624263595E-06	-8.54011592273322E-06	-4.29781618456643E-06	-6.16581809524144E-06	0.989776584377577	-0.122005813796098
5.1	0.00406900734781676	0.000438340274185627	1.51909646568181E-05	-1.02567649920273E-05	3.47356277193009E-06	-8.72124030220057E-06	0.989800586291782	-0.123301561982893
5.2	0.00442409382379617	0.000263610423194178	-4.23469392742152E-06	-4.70588332976497E-06	-3.15991808956897E-06	5.27522282912367E-07	0.989417775081988	-0.125511727363651
5.3	0.00468180725657232	-0.000132746974597811	4.77479177715114E-06	3.36443343844161E-06	-9.28936033240087E-06	-4.72929133964501E-06	0.988987862305474	-0.127648133319622
5.4	0.00471449788992011	-0.000561819498586038	5.17217775417656E-06	1.19365678180837E-06	-4.65316010787246E-07	1.04383369711353E-05	0.988782390022866	-0.130064732393551
5.5	0.00450574593738294	-0.00102080794468561	-1.80934196734234E-06	-1.97692575681183E-06	8.86568703020151E-06	5.06377706620674E-07	0.988863190983164	-0.132395186074799
5.6	0.00396263114057054	-0.00109435700435318	4.23892766295267E-06	7.21719283313495E-06	-4.64570530083151E-07	-8.59906889529689E-06	0.988798199448738	-0.135108331791177
5.7	0.0036567835229308	-0.00093470120300087	2.05211511693453E-06	-7.20819564472637E-07	5.46258554961309E-06	2.45019760002145E-06	0.988368326026982	-0.137643357803749
5.8	0.00343190014049562	-0.000823179032947723	3.90540147265087E-06	1.95764589654213E-06	2.72715869580415E-06	7.82068913995891E-06	0.987991602252133	-0.139696265691439
5.9	0.00321988452826845	-0.00065687660623881	-3.77554717591808E-06	-3.05307150359383E-06	-4.69071409340808E-06	-1.77808945809066E-06	0.987537490735618	-0.141487762976141
6	0.00304675307447025	-0.000726051621434918	-2.07390697471895E-06	1.7009996716897E-06	1.04156703322947E-05	-2.65394929374477E-06	0.987607032947459	-0.142958580040501
6.1	0.00244823085885485	-0.00073101142392272	-7.31302459910701E-06	-1.10435318098602E-06	-7.23166731804643E-07	-2.47899768946143E-06	0.987492834683728	-0.144255526517491
6.2	0.00199722966953471	-0.000508445919981221	-1.06047024062546E-06	1.98443173080196E-06	-3.47339270135063E-06	-5.35332310561201E-06	0.987343548335143	-0.145483625296754
6.3	0.00174678823280189	-0.000344850439532174	1.57255440192196E-06	2.82577506742874E-06	1.14101307488967E-06	5.96100113223892E-06	0.987221325429226	-0.14742624811537
6.4	0.00157325944919498	-0.000311806396372192	2.06186124555105E-06	5.02850267300302E-06	-3.32814715799769E-07	2.2661589097621E-07	0.987039265329337	-0.149593445229141
6.5	0.00136407885343981	-0.000509986513765594	4.66017185747045E-06	-1.87070744682509E-06	-4.67908170683964E-06	-1.54926968808848E-06	0.986847358073177	-0.15258242455264
6.6	0.000947225539147587	-0.00031476165639918	3.26741591940759E-07	-1.06644157078385E-06	9.27391765182451E-06	3.34446466264069E-06	0.986422512488729	-0.155124247642529
6.7	0.000832823445978309	-5.83296162911498E-05	5.18596292818156E-07	5.60424100209517E-06	-1.79566934224579E-06	4.96260893158675E-06	0.986119324545632	-0.157556539623235
6.8	0.000661152592385648	0.000191950633743217	1.78471939606531E-07	-1.58407209566336E-06	-3.46296117139285E-06	-5.11938209386845E-06	0.985462894026461	-0.159893847191655
6.9	0.000508044180499695	0.000538070808031637	-6.64790607209225E-06	6.69904664609324E-06	2.28243256556641E-06	1.35636422757235E-06	0.984902126388551	-0.161845857824425
7	0.000385050129762245	0.000715775120720821	8.06331398311114E-06	3.17361039861004E-06	4.55215356130117E-06	5.86247565537277E-06	0.984387990415448	-0.163518800162008
7.1	-0.000126561153079791	0.00127174931298888	1.39229022542776E-06	7.85173759688608E-07	-2.26054274177463E-06	-4.47390274716227E-06	0.983830223616744	-0.165190304221701
7.2	-0.000183195127195863	0.00201397566822864	-1.45455667031169E-07	4.39076307348689E-06	-5.00215086244471E-06	-6.68523680738563E-07	0.983118870957251	-0.166919945589691
7.3	-0.00015872561977969	0.00261097469409196	1.36221871349433E-06	-5.25264101603345E-06	-2.33804858809015E-06	-2.79065530278018E-06	0.981942098877344	-0.168645962005467
7.4	-0.000157914824107826	0.00311189295461925	1.82296701644412E-06	4.41872922098349E-06	-7.24129261137938E-07	-1.0693469845227E-06	0.980601082051082	-0.170559280776156
7.5	-0.000110931556458694	0.00334328362445022	-5.72987773372383E-06	-1.50547239785218E-06	-1.55126042767541E-06	-8.89369143439161E-06	0.980037228187209	-0.172185240600941
7.6	-0.000442463030617215	0.00365195794088681	5.62889725391554E-06	-3.36970668914129E-06	1.01357095012938E-06	3.19075833967808E-06	0.979659490162875	-0.175138470493319
7.7	-0.000570282014311042	0.0041130871251608	-6.49307821377779E-06	-2.87612820390395E-06	4.36092817649035E-06	5.67766768351928E-06	0.979298165632849	-0.178074750680758
7.8	-0.000436471917055082	0.00434768956178604	-1.07112276088415E-06	-5.35603479754261E-06	-2.15719983542485E-07	1.14249752922852E-06	0.979243730224369	-0.181080233520956
7.9	-0.000172686652713473	0.00444605654853825	-3.36141466512502E-06	7.2008865905815E-06	4.85673738223235E-07	-6.87722679583699E-06	0.979515517666963	-0.18410698494513
8	-8.55818750791656E-06	0.00435899368087661	-2.45233631438582E-07	7.38524045682931E-06	1.77942567701998E-06	-4.45512288058518E-06	0.97989159561631	-0.187710237966499
8.1	3.86797352102298E-05	0.0047858086256287	-7.30466478040264E-07	-6.46676926676103E-06	-1.74675538083113E-06	-1.06537510130131E-06	0.978962281843239	-0.190908987344085
8.2	0.000481194829458012	0.0051505216203244	-3.8281312929717E-06	1.64651996346847E-06	-1.09630843051014E-05	-2.62896283002468E-06	0.978587880611113	-0.19327392939102
8.3	0.000891023456898223	0.00535314363394784	-5.53214585162412E-06	-9.86543900864835E-06	-7.7893796516668E-06	3.00825040963145E-06	0.978056428772506	-0.195956929006421
8.4	0.00124334927334912	0.00561390074736862	6.77867164199452E-07	-6.09083504659529E-07	-1.41668663881058E-06	4.3849885418221E-07	0.97744019349006	-0.198611281386075
8.5	0.00152609854963198	0.00567738180101798	-1.75184158265028E-06	-2.59577566083739E-07	-1.04732736429658E-08	1.80336283657653E-06	0.976724134975672	-0.20150732902516
8.6	0.00149189626093465	0.00622015020126304	2.43352558986468E-06	-3.96843655466012E-06	-4.55453926797998E-06	-5.9294929550215E-06	0.976130694484405	-0.203964766738747
8.7	0.00204121566647039	0.00693307414495458	-1.49570447607718E-06	-2.09684763904894E-06	-3.56383392622303E-06	3.63276790519522E-06	0.975797843556851	-0.20640768274851
8.8	0.0029090707225462	0.00742188187446473	-5.49518033861708E-06	-2.12898086038777E-06	-7.23308355216514E-06	-1.27977780896229E-06	0.975501528757489	-0.208627811815416
8.9	0.00402137260747574	0.00753130152196121	8.55296655244455E-06	4.10754428614309E-06	-1.42159600946757E-06	3.1987501790369E-06	0.975671403228006	-0.210600471781011
9	0.00510754199494479	0.00703200260907037	-5.0508774690864E-07	4.16060703755182E-06	-7.81983385545017E-06	1.22001975298067E-06	0.975861092240872	-0.21299225104183
9.1	0.00576892297226196	0.00646065202984795	-2.56552804684826E-06	6.63328084008935E-06	4.10960694866576E-06	-3.07674189783876E-06	0.975856730313704	-0.215474774600401
9.2	0.00641400910914579	0.00575392273393831	-1.18132617369333E-06	3.42408470131907E-06	-2.24395355782509E-06	-2.06136995696899E-06	0.975563282560171	-0.218392966373105
9.3	0.00672245087213764	0.00496676429377724	2.3316346222649E-06	-4.03971012376619E-06	-7.91096264898223E-07	-1.78271623386987E-06	0.975058192701611	-0.221226869720127
9.4	0.0068167958417902	0.00432813534098788	-1.80623294555566E-06	3.8954431210145E-06	-2.06386359255027E-06	-3.58474730128117E-06	0.974242555150105	-0.224103715047279
9.5	0.00666183668933674	0.00386293540643961	3.48600482000146E-06	6.30796325030574E-06	3.71255466341525E-07	-2.15126342259205E-06	0.973737528632929	-0.226807735278743
9.6	0.00639334824049126	0.00397066282119221	4.61580754448426E-06	7.09690056255096E-06	-8.26605921090913E-06	1.28081769215287E-05	0.972956611065099	-0.230146745880687
9.7	0.0066232281960287	0.00415974073001674	-2.88453408081133E-06	-1.54109740053144E-06	-1.38257312305858E-06	-3.98012876924551E-06	0.97212265103912	-0.232642350641099
9.8	0.00697873999703642	0.00417712647741204	1.36204932926352E-07	-3.60296048938704E-06	3.04747178091691E-06	2.40992650544582E-06	0.971790385301381	-0.234528803814211
9.9	0.00738779983549847	0.00412933440802938	5.81411691601511E-06	-6.05581671725824E-07	-2.58592382420033E-06	6.73851173394232E-06	0.971717073194774	-0.236117961125593
10	0.00768082457163295	0.00374260015540568	-1.14381866944349E-06	-5.81740136076565E-07	1.36918394993937E-06	-1.18800824630892E-06	0.971947627386911	-0.238568140322797
10.1	0.00767265104514902	0.00375898907716392	7.24298100656868E-07	-8.4373212095581E-06	6.16588931949816E-06	3.62250595825209E-06	0.970744906179149	-0.240573931012891
10.2	0.00815260756736217	0.00385847388350155	7.50303882819503E-06	8.34900285212867E-06	5.23330573147755E-06	3.54553643295798E-06	0.970185495667334	-0.241726667037647
10.3	0.00881059195356016	0.00369901562570096	1.76927156304534E-06	-6.97218062118266E-06	1.42623218466643E-06	2.8767891438922E-06	0.969735490084455	-0.243309835609262
10.4	0.00958289417881123	0.00324479341039851	-4.03357621915863E-06	-3.65308053111279E-06	1.96486149554339E-06	-5.60899417445676E-06	0.969385370973973	-0.245260443912816
10.5	0.0101074629943178	0.00236077540926455	3.81606706950642E-07	-7.08367944533795E-06	-5.74774211298327E-06	4.07747020071529E-06	0.96907641304382	-0.248091739716266
10.6	0.0102714773129398	0.00177728645300489	5.49812102620087E-06	6.75821747785422E-06	2.43937536937769E-06	1.19925390631061E-06	0.968476988259185	-0.250954248058585
10.7	0.0105279538458125	0.00121126214963795	-7.0950802548965E-06	-1.69835248645496E-06	-7.76108640801283E-07	1.56332758892884E-06	0.967708538116737	-0.254362029656375
10.8	0.0109045003873598	0.000713408882729599	1.48927698012154E-06	4.4551777938433E-06	9.4409081445086E-06	-4.47827518335588E-06	0.96674436000735	-0.256726311627282
10.9	0.0112261360142982	9.90090931706487E-05	3.26517734502651E-07	7.43977469120081E-06	-5.17639300738378E-06	2.08618384345434E-07	0.966170791235756	-0.259013445749585
11	0.0114975680676509	-0.00079334716412935	-2.23102508425041E-06	-3.83397190183431E-06	1.20690276334568E-05	-3.56564720523615E-06	0.96540418635477	-0.261421676930784
11.1	0.0115349912809839	-0.00129282264458118	-6.13273638257223E-06	-4.94645189479625E-06	9.52587986666174E-07	5.59196731343375E-06	0.96380222998222	-0.263486562826581
11.2	0.0120165400609097	-0.00194469747686606	3.32427420708283E-06	4.3161621144454E-06	1.06547185653712E-06	-7.89934855285665E-06	0.962270055776089	-0.265127806032477
11.3	0.0126231945311101	-0.00301785089521806	7.14194257473757E-07	-2.66535015099403E-06	-4.85220726291694E-06	9.1416384301277E-06	0.961133498240073	-0.266540741674536
11.4	0.0129121437958035	-0.0044131691239485	1.48078813112718E-06	-2.20854747383211E-06	-3.01882560946287E-06	-7.45726700144691E-06	0.959877187451334	-0.268268857519991
11.5	0.0126950367688542	-0.00616420519129451	9.51098346082151E-07	-1.01262517410686E-06	-9.0437736473889E-07	-8.74345083643138E-07	0.959598670116096	-0.270576523186447
11.6	0.012038219484573	-0.00752562698944288	1.12647347501274E-05	-3.28823901759693E-06	-5.44218694008603E-06	-6.85515377844525E-06	0.958317185885507	-0.274531331079318
11.7	0.0115544584020979	-0.00887563674347018	5.34339701243472E-06	-2.90934591972341E-06	-4.42423154180713E-06	1.65960926720449E-06	0.956790191925678	-0.277703975655578
11.8	0.0109125580327211	-0.010321481519264	-4.53732671001047E-07	-2.55549364290982E-06	1.07385044931454E-06	1.33036054217228E-05	0.955901912667663	-0.280676216885345
11.9	0.0100843654110824	-0.0118398579002358	3.3360057970167E-06	1.99444811853116E-06	-9.77986746462385E-09	1.27752612787937E-05	0.956344406046951	-0.282734145912232
12	0.0086068549349048	-0.0134571852010191	2.01086733655955E-06	4.8337908826692E-07	-3.71225485097425E-06	-9.69349137173823E-07	0.956995950550623	-0.286851643787655
