# GHZ S RI R 50
0.2	0.000399830384596941	0.00299251565906097	6.31350980899621E-06	-1.00163357532791E-06	1.06685627769736E-05	1.05189746131965E-05	1.00036573600836	-0.00672507587633546
0.3	0.00106734268149078	0.00285815263982094	5.82023748907807E-06	5.04866152330547E-06	8.10451747034492E-06	2.96410112452921E-06	1.00037537261159	-0.00965058567144367
0.4	0.00155044055649435	0.00300582101812627	-2.71770994687013E-06	7.8825802279945E-06	-4.79683648919907E-07	-4.43909008864928E-06	1.00085610994071	-0.0122738191009098
0.5	0.00236351937169501	0.00283641086339999	2.31221058999368E-06	1.48088069083518E-06	7.52324246214243E-06	-1.05654431731003E-06	1.00108463292717	-0.016240398630057
0.6	0.00220350623638099	0.00245240724956748	3.21727389698029E-07	3.54451794318719E-06	2.75655135944414E-07	-7.67097106676165E-06	1.0005246363872	-0.0192985616277994
0.7	0.00210872833617034	0.00277610982350881	4.17402989213961E-06	5.06822733701177E-07	-3.90249335352909E-06	-5.14697806475044E-09	1.00026599221052	-0.0220677614490286
0.8	0.00228873196960924	0.00309414371649172	-2.89535266748477E-06	2.97025969587599E-06	-6.83771051442468E-06	1.32111725137078E-06	1.00014318358243	-0.0242574996652449
0.9	0.00240391842692852	0.00350256804128336	6.05304485048693E-06	9.01889954941044E-07	-7.36135503917017E-06	-1.83782286367077E-06	0.999986021660982	-0.0264877587316191
1	0.00327183905176891	0.00398293872429267	2.36858397413829E-06	2.95120374467406E-06	-9.06936865974678E-06	-2.55642736165656E-07	1.00033721831294	-0.027912770128291
1.1	0.00364285007817769	0.00304135907243388	6.45371823443752E-07	3.52575659911719E-08	-5.31179825052216E-06	1.40951535238014E-06	0.999994244351008	-0.0306744551371076
1.2	0.00314498504247606	0.00229298045227458	-5.30574112332705E-06	-3.29244672011577E-06	-1.12129007089571E-05	-1.26737757982517E-05	0.998897567062259	-0.0319665352892039
1.3	0.00223301759047069	0.00139495170693205	3.05650256149404E-06	3.10562755841773E-06	6.96467914445779E-06	-4.0955360467455E-06	0.998311148893482	-0.0332440509871141
1.4	0.00130725998459921	0.000987306135704656	-2.80298545733125E-06	-1.11266665360427E-06	5.71914372302996E-06	5.81355553173436E-08	0.997502316592634	-0.0351969291770058
1.5	0.00147020947980719	0.000913636066784869	1.2408947711668E-06	-2.5378920780721E-06	8.04360632391832E-07	2.51525394429017E-06	0.998864677063694	-0.0384161180867364
1.6	0.00132168449965533	0.00120971752689625	-9.39243112550192E-07	-6.42960098571675E-06	3.19011643099952E-06	-4.25529441379865E-06	0.998885077166099	-0.0421970507602965
1.7	0.00186395675467906	0.00183200526300842	3.41561253130478E-06	6.3192673160917E-07	2.24465292787178E-06	3.86121821422237E-06	0.999595538808377	-0.044701298417735
1.8	0.00243723668854408	0.00222957642321585	-2.38171587820237E-06	2.90910987189855E-06	-1.02160452675128E-06	-4.00870118868126E-06	0.999806072952339	-0.0473375963220704
1.9	0.00303191273091396	0.00246966830073904	-3.7461977431936E-06	-1.76303806809478E-06	5.65084834056729E-06	3.03306548970737E-06	1.00027306562464	-0.0490135536347301
2	0.00392942966921757	0.00217308556074535	-6.21254670409892E-06	-5.77159070627362E-06	-2.07905259815865E-06	9.20052227145334E-06	1.00200683613036	-0.0522417956686706
2.1	0.00363287890016047	0.00154873491907451	1.18889799876611E-06	4.62378184351406E-06	4.51294061423727E-06	3.99792771588601E-06	1.00125782113141	-0.0565901674906474
2.2	0.00339986098689717	0.00167788877394289	6.61415547553445E-07	9.08798770248934E-07	-3.67346175458474E-06	-1.09738575006651E-05	1.0005582883055	-0.0592343716045549
2.3	0.00331100898154678	0.00175485885042937	-2.28446399475142E-06	3.58130333194512E-06	-5.45300832573655E-07	-2.8061308287994E-06	0.999932231182218	-0.0611948580683628
2.4	0.00321968603253047	0.00195398673544856	-1.56803806646973E-06	-1.4568804523144E-06	1.28644510779713E-06	-1.00714813432037E-06	0.999728333941937	-0.0642767288826181
2.5	0.0036487747934998	0.00196380300007034	7.83477596317946E-06	4.0461319886156E-06	-2.38458372940096E-06	-7.24826844046451E-06	0.999733187056238	-0.0666485855087375
2.6	0.00337755861693117	0.00135260347565153	4.96766727413057E-07	2.12359645105753E-06	-1.45483323589107E-06	4.70952963051429E-06	0.999748451158279	-0.070108104156308
2.7	0.00296041809535509	0.00140554801885715	-7.87600619318816E-06	5.29436695306246E-06	2.58387234186707E-06	9.74896138595475E-06	0.999345610903027	-0.0736605053751972
2.8	0.00282372972737336	0.00171595180857861	-7.73745772751874E-06	8.02264309554771E-06	6.13178072469829E-06	1.99677294482469E-05	0.999088018883964	-0.076176549547242
2.9	0.00305271871508013	0.002074563491806	-1.18965213608977E-06	8.69314076546207E-07	-8.16404773952504E-06	-2.93015447658316E-06	0.998266448590848	-0.0784769231300922
3	0.00370000630179736	0.00199936560735947	-6.3624851132158E-07	-4.48118969286574E-06	-2.15530665893284E-06	6.46843852204004E-06	0.997671176025092	-0.0810427517904952
3.1	0.00359477517578743	0.00179607123880678	-2.59425544038324E-06	1.0317411985142E-07	1.10239890333907E-05	-3.59417328472431E-06	0.996706815992679	-0.0832487316435046
3.2	0.00370578253430961	0.00199962725089711	-9.80358334265353E-06	2.60665792937912E-06	1.22092021771071E-05	4.20398453577955E-06	0.995808493213116	-0.0849461770288764
3.3	0.00391555944058436	0.00203449213517914	-3.46719284495074E-06	9.54565839250714E-07	-5.01745351420709E-06	-1.14718802144374E-07	0.994896342566865	-0.0880667952657094
3.4	0.0041328581354526	0.00214683925102197	5.35186460417651E-06	4.55950973368921E-07	1.35194473963261E-06	4.39128963320597E-07	0.994017715514108	-0.0895692084393896
3.5	0.00468227988108154	0.00180563920154971	2.77592269861251E-06	1.54420710813591E-06	1.3161865564616E-06	7.85774465504496E-07	0.99418202499644	-0.0913137017913802
3.6	0.00430927601211076	0.00135630090836071	-7.15099582724238E-06	-9.68092809364762E-08	1.84756146641671E-06	-3.50791495264113E-06	0.994320837133257	-0.0945736364707302
3.7	0.00414253427793076	0.00149513337294546	5.76849406886635E-06	-1.54424077028936E-06	-3.3463138206849E-07	-1.73073442866845E-06	0.993484975135993	-0.0976219040314063
3.8	0.0042649326570086	0.00161636324662142	-1.99643528764979E-06	8.87551126614534E-07	-5.1893956378827E-06	3.27321251154956E-07	0.99246742544372	-0.0994481722369664
3.9	0.00459580580558725	0.0016922236570343	-8.35170686598853E-06	1.8229210475724E-06	-4.12296216684396E-06	-1.47732072156172E-06	0.992215564586438	-0.101705128123101
4	0.00523125613068246	0.00116898063181945	-5.82463537153718E-06	4.00691032878591E-07	-9.54821546290362E-06	-8.39903884477949E-06	0.993272267658093	-0.103377169555214
4.1	0.00481609564681271	0.00054659406048521	-3.95681189726624E-06	4.08866846074629E-06	-1.84212285531472E-06	5.58912601591344E-06	0.992094534894993	-0.106528316743205
4.2	0.00461273891656719	0.00052674256439909	4.58421744730515E-06	-4.40742243927266E-06	6.74735049620642E-06	7.09948409290009E-07	0.990647050772144	-0.108958058729055
4.3	0.00457520926166823	0.00046464450900039	-3.78079803046628E-06	1.14824577428481E-06	3.53379061473966E-06	-1.22577709982826E-06	0.989997685170756	-0.110681612644571
4.4	0.00455035106309105	0.00043520542033459	-3.1716804721281E-06	-4.90363925619528E-06	9.21325772163919E-07	-1.03955806388575E-06	0.989362532144701	-0.112657943578505
4.5	0.00479711314849256	-2.27159853554369E-07	-1.37363420797344E-06	2.03234250939936E-06	2.08203371965387E-06	-8.45896818710299E-06	0.989186080047522	-0.115031086646898
4.6	0.00389834860315736	-0.000564098711586401	5.42578357574495E-06	9.53046369602754E-06	-1.409539021828E-05	9.85200202900969E-06	0.98839332137134	-0.117730922003834
4.7	0.00320722045834958	-0.000263978875391836	-7.61208354755565E-06	-9.49097946596281E-06	-1.1417404996071E-06	-1.28808095037837E-07	0.988052636601528	-0.119684559505372
4.8	0.00285363465053465	0.000233560051126271	-8.72585273478067E-06	-2.63569007245941E-06	-4.34189881805506E-06	4.54870123613071E-06	0.987274193498983	-0.12217557274037
4.9	0.00295622982479478	0.000843363953401263	5.79286041912628E-06	8.25493547671818E-06	-7.21147380212085E-06	3.30435296073205E-06	0.986363356679875	-0.12376529700933
5	0.00367018400731853	0.000761324680548828	4.21924362840726E-06	-8.52291828653706E-06	-4.30136207102343E-06	-6.13103350305498E-06	0.985937661708586	-0.124788071867685
5.1	0.00364392056771937	0.000580618111798458	1.51105898669203E-05	-1.02598818363255E-05	3.43864065139651E-06	-8.69938827851567E-06	0.985879633796298	-0.125846373152436
5.2	0.00406270341583192	0.00057951407509042	-4.231180745813E-06	-4.6777347130794E-06	-3.1469497095847E-06	5.33677712063238E-07	0.985328696108424	-0.12787473712402
5.3	0.00445859594252583	0.000234115163793038	4.76409185522826E-06	3.33871050494025E-06	-9.26392178180753E-06	-4.68657401375354E-06	0.984592890351567	-0.129828108307071
5.4	0.0046807028678937	-7.66371500315431E-05	5.15078567802415E-06	1.1757159763842E-06	-4.38218241520833E-07	1.03905244243707E-05	0.98393721817698	-0.13175446110167
5.5	0.00493124904989847	-0.000896603902003546	-1.80274803293879E-06	-1.96449387440707E-06	8.82128746168094E-06	4.92128575912054E-07	0.984369171157441	-0.133252931235774
5.6	0.0039406291954548	-0.00123591021057316	4.22746785782127E-06	7.18065808760878E-06	-4.71357186943188E-07	-8.56026256597984E-06	0.98459640975911	-0.136164796555363
5.7	0.00357328436793461	-0.000837114799534902	2.04220250948315E-06	-7.19770155891936E-07	5.44080883901243E-06	2.43350631214586E-06	0.984006928534901	-0.13858062635313
5.8	0.00352312118000059	-0.000623011864636159	3.88908784752754E-06	1.94538927402123E-06	2.7211539830765E-06	7.78247170132774E-06	0.98356005233559	-0.140286325378237
5.9	0.00360201047200614	-0.000446829351706164	-3.75971194581495E-06	-3.0379399747948E-06	-4.67028977409964E-06	-1.76834855871635E-06	0.983402997971524	-0.141459860622447
6	0.00409328676276535	-0.00114551370576284	-2.0640001901262E-06	1.6956474643028E-06	1.03706237536311E-05	-2.65133842064571E-06	0.984526526865352	-0.143675898984356
6.1	0.00274898640828955	-0.00232343087193389	-7.274508714962E-06	-1.09305445509891E-06	-7.21094949203994E-07	-2.46513698542854E-06	0.982764969705601	-0.145817417899783
6.2	0.00113133700069444	-0.0021530685571326	-1.05490801404231E-06	1.97239689968218E-06	-3.45113646754082E-06	-5.32301515307726E-06	0.981300717566782	-0.146049625611033
6.3	9.85661976001373E-05	-0.00136815344447066	1.56015107316848E-06	2.81146193986677E-06	1.12732390694861E-06	5.92819768177887E-06	0.980760482361195	-0.146666892578078
6.4	-9.15855685036328E-05	-0.000411405901862067	2.04408049147439E-06	5.00523817126406E-06	-3.31401426025689E-07	2.24970113813237E-07	0.981114699382159	-0.147881920344959
6.5	0.000283010032885971	-0.000516300478493191	4.63614979285705E-06	-1.85602495685149E-06	-4.65177003002027E-06	-1.54506206531559E-06	0.98118191877812	-0.151290125353667
6.6	-0.000311619422160735	-0.000126801325690869	3.26889736545111E-07	-1.05973588888286E-06	9.21465424946924E-06	3.34288068720903E-06	0.980466489252012	-0.15292010062167
6.7	-0.000180052501835203	0.00050523554342925	5.02531825119597E-07	5.57697171179659E-06	-1.79842277491519E-06	4.93305966454342E-06	0.980883735183482	-0.154671445187257
6.8	-7.38990123876392E-05	0.00100274277826338	1.81829115490784E-07	-1.57637536921336E-06	-3.43368163958064E-06	-5.10514591171081E-06	0.980868336856573	-0.156590022373972
6.9	0.000256362306836531	0.00168928628901288	-6.63861520490783E-06	6.65254593086936E-06	2.26910791498976E-06	1.35700660879283E-06	0.981023470303624	-0.15798288353001
7	0.00099697954091818	0.0013845962589527	8.0206320400408E-06	3.18467619202554E-06	4.51587663254283E-06	5.85196883138709E-06	0.981619409836437	-0.159705504407612
7.1	8.96960451336954E-05	0.00150129436989756	1.3840344180776E-06	7.86963456258634E-07	-2.23590210284631E-06	-4.46417574475213E-06	0.981103714702972	-0.161516559369161
7.2	1.48068979017924E-05	0.00242606495793323	-1.62473052123252E-07	4.37396978376778E-06	-4.98100893577551E-06	-6.86054125355223E-07	0.980601281484048	-0.162839984147443
7.3	0.000261621422352977	0.00312082130405822	1.38128489227438E-06	-5.22826185140645E-06	-2.31730445348759E-06	-2.79156948211865E-06	0.979726136183102	-0.164103598710407
7.4	0.000747061677469429	0.00375307735483458	1.79270730452208E-06	4.41380935501163E-06	-7.15853920062313E-07	-1.06970120971292E-06	0.978781073589411	-0.165009297996055
7.5	0.00186755562396516	0.0032337157282111	-5.70843235236575E-06	-1.54329507602194E-06	-1.48524918366045E-06	-8.88798840262721E-06	0.98075894711423	-0.165754858977678
7.6	0.000991853507140709	0.00209007926576741	5.65159944544347E-06	-3.33346174125757E-06	9.92907618184351E-07	3.19778363496536E-06	0.981751567042705	-0.170797790543458
7.7	-4.74988991836386E-05	0.0021314452332714	-6.48109021759616E-06	-2.91638798087227E-06	4.33089879191926E-06	5.70752632542991E-06	0.980975614725116	-0.174777714286041
7.8	-0.000680407582958314	0.00254509497422935	-1.04166097632206E-06	-5.3673808599182E-06	-2.22439431571407E-07	1.1423873728896E-06	0.980440461699402	-0.17765146277341
7.9	-0.000692848910422126	0.00314859771768052	-3.4092323652967E-06	7.1902524640087E-06	5.27711127625299E-07	-6.88346880437322E-06	0.981048843745119	-0.17980865909481
8	-0.000501213559985012	0.00278483809147653	-2.8524643726739E-07	7.4028937823707E-06	1.80775200796892E-06	-4.45707196935778E-06	0.982928613955594	-0.184409619590551
8.1	-0.00125769009544645	0.00361146937590984	-7.03443381925699E-07	-6.48148665465866E-06	-1.74520024099391E-06	-1.0749233466584E-06	0.980516443245723	-0.188307725148197
8.2	-0.000951667007862297	0.00463595806884549	-3.84072009258376E-06	1.63131821597787E-06	-1.09657585289726E-05	-2.68229346919967E-06	0.979628360944506	-0.189975442664325
8.3	-0.000508951361285319	0.00538092498864041	-5.49391120054044E-06	-9.904851310426E-06	-7.81417163761171E-06	2.9761773288134E-06	0.979162997954119	-0.19214769967687
8.4	0.000160811786982736	0.00627595296041801	6.81597091725133E-07	-6.07098648801427E-07	-1.42084737434406E-06	4.33024942174092E-07	0.978926240423893	-0.194555349532653
8.5	0.00125186062437188	0.00615749162561528	-1.75262736965617E-06	-2.67072788028452E-07	-1.79169774427322E-08	1.80522988784215E-06	0.978439528302622	-0.197722189459542
8.6	0.000875872253967304	0.00650817402278511	2.45535207976941E-06	-3.96267683402055E-06	-4.53336336684336E-06	-5.95892254977425E-06	0.977976190244417	-0.200005339524396
8.7	0.00148380800777791	0.00755317073689056	-1.48946368078776E-06	-2.10770568051444E-06	-3.5871098243596E-06	3.62436945115675E-06	0.978201932863095	-0.202546001157818
8.8	0.00263021804276889	0.00823285486321785	-5.50045798272953E-06	-2.15560555825533E-06	-7.24595171753946E-06	-1.31106646328922E-06	0.978390167073174	-0.205185400758177
8.9	0.00422648853086754	0.00845879009544322	8.56151902388709E-06	4.1436662901332E-06	-1.43482340348824E-06	3.20229730264212E-06	0.978792464238187	-0.20773618420714
9	0.00605385507392651	0.00723550383176668	-5.17900401179285E-07	4.16536210949187E-06	-7.83505783392698E-06	1.1991809427709E-06	0.978922014861694	-0.210672924033684
9.1	0.00615045810531842	0.00587756915087694	-2.59170542410422E-06	6.63367768270316E-06	4.12577727452593E-06	-3.06696207303592E-06	0.978441499718197	-0.213526343240906
9.2	0.00623082828045417	0.00509738846758531	-1.19556031199394E-06	3.42422942390044E-06	-2.23928339092571E-06	-2.07239657148506E-06	0.977587542251506	-0.216280250135534
9.3	0.00611045501288745	0.00457688634722875	2.3508937093144E-06	-4.03598560728701E-06	-7.85095223016526E-07	-1.78830779165042E-06	0.976759993126336	-0.218641426760657
9.4	0.00624237150906631	0.00450124733709284	-1.8251932518454E-06	3.89305653100253E-06	-2.05145781109313E-06	-3.59834880793606E-06	0.976012133848147	-0.220725315442603
9.5	0.0064574487152615	0.00382805823232035	3.46015873974087E-06	6.33871064283539E-06	3.83189293346805E-07	-2.15363326299538E-06	0.976719133692832	-0.222953991845672
9.6	0.00580154602634297	0.004095606446043	4.59782551513571E-06	7.14140934106622E-06	-8.35243698544779E-06	1.28113800992501E-05	0.976513734648326	-0.22711135708913
9.7	0.00620113260975491	0.00467159459767828	-2.88862506109617E-06	-1.558386898129E-06	-1.37133001148146E-06	-4.00006729451097E-06	0.975866924567828	-0.229896149887618
9.8	0.00687592187989835	0.00489131706833165	1.50717268387391E-07	-3.61639801579958E-06	3.04993094534562E-06	2.43109643910659E-06	0.975921018936357	-0.231771627724002
9.9	0.00783494225663169	0.00498260104847672	5.84348179157734E-06	-5.8560088783584E-07	-2.62434430327822E-06	6.75965682661579E-06	0.977104831626049	-0.233194699311205
10	0.0088998393726714	0.0038169718044131	-1.14887965550055E-06	-5.8794481904123E-07	1.37999420728034E-06	-1.19133561080655E-06	0.979014496693333	-0.238019591929526
10.1	0.00837424649113637	0.00313502660497793	7.42577793016153E-07	-8.47777040430992E-06	6.19006029229234E-06	3.65115616740549E-06	0.976318938842229	-0.241515505382461
10.2	0.00851579403572334	0.00312374645356381	7.52600191902643E-06	8.40301400403213E-06	5.25318241276828E-06	3.57194211780007E-06	0.975229942369786	-0.242838240461664
10.3	0.00896987192586127	0.00296548822809887	1.78836968265038E-06	-7.00680097170224E-06	1.42981935493787E-06	2.89407026861233E-06	0.974721093768883	-0.244678356574001
10.4	0.00985009183078336	0.00255955791906979	-4.05480165894889E-06	-3.67679961144709E-06	1.97972529297719E-06	-5.64041723529626E-06	0.974748717985313	-0.24720318885717
10.5	0.0105271658938511	0.000827445643914222	3.81750439025886E-07	-7.1222241903162E-06	-5.77782404012262E-06	4.10116104991715E-06	0.974268439086688	-0.251478966046258
10.6	0.00952761922483152	-0.000147014119783777	5.53097863107132E-06	6.79613626022494E-06	2.45363162380787E-06	1.20572082239542E-06	0.973043328462697	-0.254888681529816
10.7	0.00887797843135167	-0.00017047933498147	-7.14184945135936E-06	-1.70376097686845E-06	-7.79875334099654E-07	1.57394271535172E-06	0.971825003416951	-0.25865557164444
10.8	0.00869059781564862	0.000256119553649377	1.50632237331982E-06	4.48215413814817E-06	9.49593008971499E-06	-4.52311931359881E-06	0.970251637024075	-0.261188409561243
10.9	0.00934302264646339	0.000718184130373082	3.47100739867825E-07	7.48775036599372E-06	-5.20981919411634E-06	2.22817752031464E-07	0.96975008513967	-0.263270047706902
11	0.0104092972397178	-0.00013128046483179	-2.254536456899E-06	-3.85077542771972E-06	1.21311754426889E-05	-3.6191221773942E-06	0.969280957718039	-0.265940499313177
11.1	0.0102858764160595	-0.000426925946546362	-6.1825466997876E-06	-4.96009225350841E-06	9.72969699874614E-07	5.62306503742312E-06	0.967283347114208	-0.268241053719049
11.2	0.0110804588384956	-0.000629217818370688	3.35652742357651E-06	4.33207467292385E-06	1.04881435427184E-06	-7.94926276728564E-06	0.96542609427303	-0.26979986452595
11.3	0.0121548753257203	-0.00134072703625504	7.09793997530662E-07	-2.68222962556847E-06	-4.85032010753216E-06	9.20703667826031E-06	0.963690113844017	-0.270726844284758
11.4	0.0131573628208648	-0.00248448696927127	1.4813119160892E-06	-2.22345388036087E-06	-3.05527397759932E-06	-7.48387723222684E-06	0.962202646348759	-0.271445331982719
11.5	0.0137916365717784	-0.00493937874762945	9.54010146223498E-07	-1.01999775341234E-06	-9.11014290637292E-07	-8.77077758501766E-07	0.963725434181091	-0.273565518962501
11.6	0.012972336026922	-0.00667250643236055	1.13212372029955E-05	-3.34160307710855E-06	-5.4949515294983E-06	-6.87915952757068E-06	0.962546111150961	-0.278933448858636
11.7	0.0128019640592357	-0.0081283365038091	5.36292425559798E-06	-2.94507592977657E-06	-4.44311431857616E-06	1.684976819194E-06	0.96074130373356	-0.28250071676501
11.8	0.012560974224499	-0.00995938770268956	-4.66045346138173E-07	-2.5675235909884E-06	1.13100147187043E-06	1.33712052755507E-05	0.959994818383995	-0.285634168183656
11.9	0.0125929236598395	-0.0122786541749671	3.3647794769695E-06	1.99192175686206E-06	4.58191968651952E-08	1.28522175413246E-05	0.962195287094153	-0.288636687973358
12	0.0106115115398863	-0.0154490802586995	2.0262832461216E-06	4.74789927532887E-07	-3.74115909404187E-06	-9.53975939224899E-07	0.962965809801662	-0.295951289661021
