# GHZ S RI R 50
0.2	-7.59523049503432E-06	0.0030143902904391	6.31866894095495E-06	-9.99508455561059E-07	1.06717269498216E-05	1.05316632912748E-05	1.00099593872093	-0.00600655267454571
0.3	0.000752573366973332	0.00298799136081726	5.82251107505814E-06	5.05557742955194E-06	8.10965416382268E-06	2.97043347696689E-06	1.00116872847069	-0.00881653042530718
0.4	0.00137355664036247	0.00327526720933286	-2.72361051481477E-06	7.88889373651544E-06	-4.78263388629855E-07	-4.4434942930615E-06	1.00185196019853	-0.0114415739680588
0.5	0.00257452975748817	0.00301375401705093	2.31374518427471E-06	1.48243949609347E-06	7.52927330467465E-06	-1.05603616953417E-06	1.00190063615555	-0.0157550498751713
0.6	0.00236540464164953	0.00229836242965186	3.20315548134749E-07	3.54668782523082E-06	2.79265895685876E-07	-7.67522954161194E-06	1.00082836844188	-0.0183356978549584
0.7	0.00216957618771546	0.00254498886444581	4.17659243846114E-06	5.09686146456272E-07	-3.90517162772365E-06	-7.50207096701914E-09	1.00075684345737	-0.0205773725448677
0.8	0.00223760906111265	0.00282296763265881	-2.89970393120883E-06	2.97074171174134E-06	-6.84417152644169E-06	1.31761285298014E-06	1.00098578774552	-0.022461840602501
0.9	0.00215745566230825	0.00337185776115388	6.05874169245336E-06	9.07296583895478E-07	-7.36773736372951E-06	-1.84517680661219E-06	1.00141560179048	-0.0244777085271487
1	0.00322854956724941	0.00430732683063106	2.37038416965935E-06	2.9568765384602E-06	-9.08252734842211E-06	-2.61162866806254E-07	1.0027470327338	-0.0263425456520753
1.1	0.00391908762477852	0.00332527200874097	6.46446316775978E-07	3.55317590207717E-08	-5.32120782580744E-06	1.41011936949167E-06	1.00238068898828	-0.0299166740196299
1.2	0.00359453938476718	0.0027775065310882	-5.31588903046207E-06	-3.30040816849668E-06	-1.12330524380629E-05	-1.27023363192207E-05	1.00131654552902	-0.0312137054780482
1.3	0.00305581945386026	0.00205495424422645	3.06350293449333E-06	3.11341039163255E-06	6.98183537666842E-06	-4.10461381159677E-06	1.00090745966815	-0.0322760715488396
1.4	0.00242097662595637	0.00152676685742255	-2.80958230208679E-06	-1.11534718317453E-06	5.73264594059307E-06	5.83818563063468E-08	1.00005423558424	-0.0339694680684913
1.5	0.00281252324632061	0.000894239387315058	1.24321403261444E-06	-2.54310638347339E-06	8.06168632357999E-07	2.52027278925629E-06	1.00095568421973	-0.0373989368084094
1.6	0.00216111088936248	0.000502103353442679	-9.42263719062628E-07	-6.43888828364983E-06	3.1937642914452E-06	-4.2624068370928E-06	0.999988636675454	-0.0410789346751712
1.7	0.00222475558239377	0.000980176738898038	3.4194562538669E-06	6.31521112752346E-07	2.24826829897186E-06	3.86462794763623E-06	1.00040216599128	-0.0434474571968595
1.8	0.00247696935940168	0.00142263267287737	-2.382601457094E-06	2.9122038751739E-06	-1.02376666467439E-06	-4.01150549910875E-06	1.00044231303568	-0.0461500505809524
1.9	0.0029442832372108	0.00191118463845109	-3.748977558605E-06	-1.7634491237624E-06	5.65511473801514E-06	3.03392832576922E-06	1.00088545303578	-0.0477964167125633
2	0.00421628507549453	0.00166182261551925	-6.22061915894234E-06	-5.77646003155401E-06	-2.07922446229295E-06	9.21100736685921E-06	1.0030371468114	-0.0515273446242577
2.1	0.00386389394556671	0.000624991217673051	1.1938860239419E-06	4.62754683829037E-06	4.52082192062909E-06	3.99834114048931E-06	1.00155052429694	-0.0564976204735651
2.2	0.00337521549909571	0.000637204356489898	6.62848057252672E-07	9.08856987271933E-07	-3.6873441376759E-06	-1.09788735944468E-05	1.00041040246482	-0.0589042246413177
2.3	0.00299665511877216	0.000749199084299136	-2.28189471539994E-06	3.58617115566523E-06	-5.48810551814332E-07	-2.80731500460728E-06	0.999719921207085	-0.0606649247203906
2.4	0.00261615010999695	0.00127138861741102	-1.57064451533595E-06	-1.45550196855257E-06	1.28571883605618E-06	-1.00927839682117E-06	0.999577034973782	-0.0637658946490343
2.5	0.00331173272847454	0.00180453108347816	7.84033023261924E-06	4.03517735608883E-06	-2.39465467014549E-06	-7.24487182031952E-06	0.999357250879393	-0.0664944732311229
2.6	0.00334433501139468	0.00111547742638932	4.98987072572025E-07	2.12257863145233E-06	-1.44934024611249E-06	4.71007847067772E-06	0.998751933489148	-0.0698849003834427
2.7	0.00300283236652417	0.0011473986684881	-7.86891465407156E-06	5.30191021114421E-06	2.59391094257541E-06	9.74445682867866E-06	0.998045292447497	-0.0732140411866596
2.8	0.00292431750061417	0.00149064601201419	-7.72685322188838E-06	8.03059945774198E-06	6.15445062216065E-06	1.99575630503194E-05	0.997681778061163	-0.0755070165710257
2.9	0.00331841192959655	0.00199401233946998	-1.18841877076256E-06	8.70743490909129E-07	-8.16694515213497E-06	-2.91942445184409E-06	0.997097079196903	-0.0776802498378785
3	0.0045213054154346	0.00180201147653334	-6.41669452290972E-07	-4.48065709000978E-06	-2.14764112126921E-06	6.47136539403034E-06	0.996848400536062	-0.0804945402789992
3.1	0.00451989702164176	0.00100065719536661	-2.59553907285251E-06	1.06662581991489E-07	1.10252688917358E-05	-3.61072459162995E-06	0.995996308999492	-0.0828794051468082
3.2	0.00451288107138085	0.000859993298523952	-9.8066162174829E-06	2.62544968558954E-06	1.22257448143645E-05	4.18628068304934E-06	0.995323122748075	-0.0847739824067993
3.3	0.00450512927659502	0.000652293973716512	-3.46798075309479E-06	9.62319970182512E-07	-5.02161686938432E-06	-1.04669921520763E-07	0.994537098311711	-0.0881500658009006
3.4	0.00449280845950232	0.000764818616522633	5.35605646207051E-06	4.4409466156736E-07	1.35373760944534E-06	4.36325123162725E-07	0.993610117767934	-0.0899560063193512
3.5	0.0052266114976304	0.0003841378992533	2.77993243618588E-06	1.53877024854136E-06	1.31820080690003E-06	7.83211140543653E-07	0.993408967059778	-0.0918453571343832
3.6	0.00463323118629827	-0.000500494038364431	-7.15327777369961E-06	-8.23917492402954E-08	1.84101414906413E-06	-3.51267069713769E-06	0.993160826628995	-0.0948207870924628
3.7	0.00400832665879791	-0.000395204413989899	5.76631002311175E-06	-1.556105035517E-06	-3.38170392775666E-07	-1.73033829858016E-06	0.992367593866677	-0.097443072438135
3.8	0.0037642115138297	-1.74343472504113E-05	-1.99473769011719E-06	8.91376386057223E-07	-5.18877514750595E-06	3.37261889827223E-07	0.991679756018558	-0.0990420148515536
3.9	0.00399138839007124	0.00058519068427575	-8.34844073376568E-06	1.83657782250923E-06	-4.12525397860939E-06	-1.47050131324262E-06	0.99205765900125	-0.101334841237464
4	0.00518963625663406	0.000381587682306614	-5.82639242572947E-06	4.10273773049439E-07	-9.56573737075415E-06	-8.38706906028719E-06	0.993786301958175	-0.104148788708492
4.1	0.00498893331268409	-0.000597296007002587	-3.9502485042458E-06	4.09774973141866E-06	-1.83192125726789E-06	5.59462441672775E-06	0.991582393045605	-0.10810251241388
4.2	0.00468561192450467	-0.000755184177433528	4.57688377423139E-06	-4.41760507244958E-06	6.75061610514506E-06	6.96964861460003E-07	0.989637504992656	-0.110299114749022
4.3	0.00452485965952775	-0.000774932266901454	-3.77943609756437E-06	1.15627692624029E-06	3.53220570160291E-06	-1.23332335139513E-06	0.988881325533491	-0.111917872744969
4.4	0.00447319148920298	-0.000498801788607697	-3.18335975400145E-06	-4.89660655527448E-06	9.18969288939321E-07	-1.04178570210666E-06	0.988104510479205	-0.114009951330996
4.5	0.00534288774819817	-0.000691669775818293	-1.36736871464004E-06	2.0342324000109E-06	2.05883470722846E-06	-8.45757301671197E-06	0.987195528689774	-0.116693304566617
4.6	0.00484690907150443	-0.00176571756285998	5.43558262413364E-06	9.50580584026391E-06	-1.40554699457504E-05	9.863731880617E-06	0.985360983119068	-0.118669834056079
4.7	0.00419232796976395	-0.00189334191846007	-7.61143590222196E-06	-9.46378662528603E-06	-1.13988655207991E-06	-1.27030025803866E-07	0.984740513987252	-0.119770348726576
4.8	0.00369888173820403	-0.0017318525547893	-8.71122663267717E-06	-2.62240042537105E-06	-4.32916098976208E-06	4.54384206252188E-06	0.983965962832022	-0.121598563547003
4.9	0.00356559384270789	-0.00120308402018905	5.78580768917947E-06	8.23410382987165E-06	-7.19435389724727E-06	3.30186687566626E-06	0.98328345087823	-0.122778045802642
5	0.00446451196587722	-0.0014032315303706	4.20845320916799E-06	-8.50513476947944E-06	-4.29313625617924E-06	-6.11686721422243E-06	0.98300276275562	-0.123965184498409
5.1	0.00407544602813193	-0.00210818399768221	1.50833551201741E-05	-1.02400546899101E-05	3.43282788489912E-06	-8.68314365972083E-06	0.982641541511089	-0.124864221859597
5.2	0.00390883929459761	-0.00207260019295635	-4.22402599966483E-06	-4.67029802839783E-06	-3.14183028485819E-06	5.32646612960727E-07	0.982293110585731	-0.126601120336792
5.3	0.00393918152759941	-0.00207149774302367	4.75700480230248E-06	3.33359167329578E-06	-9.25010211221722E-06	-4.67933347782335E-06	0.981854340263536	-0.128666872530644
5.4	0.00414893034837812	-0.00183191335665768	5.14293720047095E-06	1.17276972535133E-06	-4.35315090306712E-07	1.03742799162935E-05	0.981151977294109	-0.130946448321069
5.5	0.00512269653196024	-0.00257687967985748	-1.79931807647544E-06	-1.96050502454541E-06	8.80392297565171E-06	4.90596279568828E-07	0.981057797056585	-0.132627993913578
5.6	0.00403403115351834	-0.00361220109673634	4.21715547298288E-06	7.16729512680432E-06	-4.68245122637049E-07	-8.54317697469036E-06	0.980659044298557	-0.135063542940902
5.7	0.00306451867678663	-0.00334781544228435	2.03847889200873E-06	-7.17268656818094E-07	5.4286348365825E-06	2.43144297604494E-06	0.980018325792547	-0.136718607580898
5.8	0.00238444348830942	-0.00281205860947469	3.88042858979202E-06	1.94523133920758E-06	2.70958332874397E-06	7.77082095623292E-06	0.98003954790729	-0.137785747372353
5.9	0.00201813072658307	-0.0016070756736763	-3.75190825031862E-06	-3.03925540137899E-06	-4.6630553228698E-06	-1.77215778616809E-06	0.981119278437052	-0.138600010140234
6	0.00340964391013866	-0.000911505405284795	-2.06540758132803E-06	1.69496145187112E-06	1.03745679434685E-05	-2.64645912429883E-06	0.983858746059499	-0.142372355123509
6.1	0.00344062637661542	-0.00199057154691612	-7.27745502345399E-06	-1.08897467878083E-06	-7.22819843878268E-07	-2.46547181764575E-06	0.981439612856238	-0.145991067059326
6.2	0.0028907939382661	-0.0022703616278066	-1.05280075855081E-06	1.97404284643579E-06	-3.45811182700252E-06	-5.32003938705992E-06	0.979705274074679	-0.146695240176793
6.3	0.00239493557355735	-0.00235396769962484	1.56437315783846E-06	2.80914942249012E-06	1.13620862649534E-06	5.92655895708948E-06	0.978938995268744	-0.147671288819905
6.4	0.0022260228660477	-0.00205325180496832	2.05189361276357E-06	5.00070756728615E-06	-3.3095314204804E-07	2.25466864877612E-07	0.97906165595901	-0.149038959979927
6.5	0.00285130547820699	-0.00301493163786218	4.62727214359723E-06	-1.86307736603251E-06	-4.64958092813021E-06	-1.53415091406392E-06	0.978068824336773	-0.152791945889146
6.6	0.00144287533619169	-0.00369338570174548	3.24889237073134E-07	-1.05786069639415E-06	9.19896227683627E-06	3.32441107491058E-06	0.97616615049893	-0.153006188911104
6.7	0.000609912114322409	-0.003279882569677	5.04469463386665E-07	5.56247597064996E-06	-1.79099560115708E-06	4.92153167470716E-06	0.976649757572416	-0.15361972571466
6.8	-3.57366198291097E-05	-0.00261438853174529	1.81212814097319E-07	-1.57194540058421E-06	-3.42434271546677E-06	-5.09053408038522E-06	0.97688670527658	-0.154889621103227
6.9	-0.000107248073262854	-0.00133050386628978	-6.62272251784712E-06	6.62969764827416E-06	2.26178669124008E-06	1.35423102394638E-06	0.977570713242443	-0.155910857286226
7	0.00132768776903101	-0.00144170368427372	7.99849840341138E-06	3.18460355734793E-06	4.4996046822278E-06	5.84223986383811E-06	0.97865080434979	-0.158380727252817
7.1	0.000208269747990993	-0.00222503887450641	1.3808804926401E-06	7.8600590686324E-07	-2.22934994944802E-06	-4.45618146451611E-06	0.977169461744932	-0.160461586521789
7.2	-0.00074553806553068	-0.00159852241906008	-1.62021711971125E-07	4.36404256599782E-06	-4.96971342156043E-06	-6.84402645729811E-07	0.976169905750771	-0.161215559764887
7.3	-0.00159029914760369	-0.000689610997111678	1.37514161987809E-06	-5.21391889226976E-06	-2.31186446244949E-06	-2.78262558763167E-06	0.975006230521643	-0.161828572625409
7.4	-0.0022715033092446	0.00105398488646068	1.78823771636287E-06	4.39482938357166E-06	-7.13632703854588E-07	-1.06492408523148E-06	0.973787838942445	-0.161614710248228
7.5	-0.000879638813746921	0.00240602530190409	-5.6782193072347E-06	-1.53694955774626E-06	-1.47486306509483E-06	-8.84210382192683E-06	0.976711474078651	-0.16112397400161
7.6	-0.000946022359313562	0.00204612516728348	5.62325784679798E-06	-3.30934299460547E-06	9.84252062860938E-07	3.18087946889291E-06	0.978321359453529	-0.166048696943151
7.7	-0.00113691485430933	0.00264000725397586	-6.43825912265853E-06	-2.91051578312013E-06	4.29581427675379E-06	5.68167088565582E-06	0.978236969602415	-0.169585294168663
7.8	-0.000814464414602814	0.00315171976400866	-1.02258601791573E-06	-5.34016718861994E-06	-2.24033946214267E-07	1.1354952737469E-06	0.978650395165172	-0.172588513700198
7.9	0.00019414357555444	0.00359552158076995	-3.4169632730262E-06	7.14506412127069E-06	5.48012412349191E-07	-6.84926688481216E-06	0.980279119297878	-0.175269853914124
8	0.00175886854804757	0.00223563088651977	-3.12385844235325E-07	7.37976838857398E-06	1.81921958000725E-06	-4.43696337641343E-06	0.98304695975693	-0.181276452990785
8.1	0.000880827020470309	0.0014003128595289	-6.80263189571217E-07	-6.47241603097374E-06	-1.73847861280144E-06	-1.0789310024194E-06	0.980032469073398	-0.185911921612584
8.2	0.000589131822265907	0.00170291336272844	-3.84216326204427E-06	1.6174773671888E-06	-1.09464782098007E-05	-2.71462961210408E-06	0.979203825713234	-0.18740625559128
8.3	0.000485381480178511	0.00216495671743922	-5.46302570523433E-06	-9.91797941649601E-06	-7.82052668075801E-06	2.95223077728408E-06	0.979120966037687	-0.189519363869934
8.4	0.000824164688052058	0.00328143930273406	6.8309002177602E-07	-6.05452322873997E-07	-1.42193253565443E-06	4.29574954029303E-07	0.979298843193467	-0.192000255733675
8.5	0.0026391267226624	0.00308248069606019	-1.75072631899399E-06	-2.71089014205306E-07	-2.22385995341741E-08	1.80388926951566E-06	0.978949317770969	-0.195346356299198
8.6	0.00206192377273191	0.00220858878688868	2.46791640846044E-06	-3.95183481342937E-06	-4.50988449089099E-06	-5.97154048848408E-06	0.978556584682526	-0.197382893426553
8.7	0.00165628677634382	0.00270801328183264	-1.48117564230171E-06	-2.11393764051502E-06	-3.60209135613661E-06	3.6103932937904E-06	0.979053283987437	-0.199695629833519
8.8	0.0016029563397114	0.00353290785793961	-5.49561712539253E-06	-2.18111077455701E-06	-7.24617600796624E-06	-1.3434236595875E-06	0.979522789140227	-0.202120658625186
8.9	0.00221895581911722	0.00486597380240921	8.55719399054905E-06	4.1889201524287E-06	-1.45155850491517E-06	3.20119508379572E-06	0.980235440258336	-0.204407250115656
9	0.00459655222728978	0.00500876913855465	-5.37830232397567E-07	4.17401610162865E-06	-7.86102358589433E-06	1.16741275515933E-06	0.980933884544805	-0.206916840803893
9.1	0.00532437741054611	0.00385901707695185	-2.62719207690096E-06	6.64793640225192E-06	4.15295147011796E-06	-3.06210028068202E-06	0.981467687834198	-0.209754853278458
9.2	0.00593432970154746	0.00318586370957978	-1.21098077165747E-06	3.43452974402192E-06	-2.24204714032192E-06	-2.0877497770596E-06	0.981373387569966	-0.213024197798697
9.3	0.00626272243579858	0.00250626462856363	2.3700463213917E-06	-4.0464019109339E-06	-7.83899340152708E-07	-1.79734537953172E-06	0.980826906169556	-0.215923771958938
9.4	0.00677321199387338	0.00239913487710761	-1.83953515625921E-06	3.9034730048365E-06	-2.05169546124276E-06	-3.61542283684353E-06	0.98009052006023	-0.218172951375158
9.5	0.00789856837549149	0.00105405474430229	3.45784859629025E-06	6.36481372344057E-06	3.88680817208899E-07	-2.15936466427164E-06	0.981173847334503	-0.220419476679056
9.6	0.00686437392767739	1.13320620693929E-06	4.59525489430202E-06	7.1717274743454E-06	-8.40415280522048E-06	1.28294669843642E-05	0.981224039148126	-0.224863651979961
9.7	0.00630257528241394	0.000102872259533653	-2.89310130618626E-06	-1.56953269445845E-06	-1.36582238991373E-06	-4.0145284479877E-06	0.980759242370557	-0.227806741589673
9.8	0.0059633544803382	0.000483528347884233	1.6019517790303E-07	-3.62671803743776E-06	3.05288013789757E-06	2.44590438944834E-06	0.980963434762271	-0.229825517026531
9.9	0.00617755048007205	0.00155176541356446	5.86593850215671E-06	-5.71512875889888E-07	-2.65241393530601E-06	6.77649443536019E-06	0.982310598545868	-0.23121790846795
10	0.00792410793135234	0.00131326824159757	-1.15303248426932E-06	-5.928710054067E-07	1.38864853258105E-06	-1.19415363455773E-06	0.984474242341996	-0.236277753519695
10.1	0.00765235462776714	0.00043495499224147	7.54469887781329E-07	-8.51303230114437E-06	6.21260301376381E-06	3.67305104491431E-06	0.981778369531669	-0.239512108241076
10.2	0.00763771774349901	0.000600989453752964	7.54870890615978E-06	8.44228909267611E-06	5.27092034656714E-06	3.59032839231061E-06	0.981241686212939	-0.240772474106926
10.3	0.00796074897543764	0.000932110332098036	1.79982362684377E-06	-7.03156738312999E-06	1.43313386045511E-06	2.90579105873729E-06	0.981122354330095	-0.24301615892204
10.4	0.0090909772860094	0.00155217694148867	-4.0671671839832E-06	-3.69044007671235E-06	1.98820571924639E-06	-5.65864825610896E-06	0.980996247210891	-0.246305059119797
10.5	0.0114086503406724	0.000376627779968224	3.83535464252773E-07	-7.13680842379705E-06	-5.79027491390061E-06	4.10877831263781E-06	0.979194881672778	-0.250858094999577
10.6	0.0115949214223564	-0.00149940621067669	5.53224717561388E-06	6.81008361303209E-06	2.45580894412595E-06	1.2095092671907E-06	0.977557984082891	-0.253412615654659
10.7	0.0115509732311987	-0.00247721915941142	-7.14787638517511E-06	-1.71527336644763E-06	-7.82882495711927E-07	1.57473120874142E-06	0.976460918216911	-0.256438253336614
10.8	0.011408859924621	-0.00315111403233948	1.50138298524224E-06	4.48912873040922E-06	9.51265104816281E-06	-4.51407358827339E-06	0.975222061536445	-0.2588316240992
10.9	0.0117747303654931	-0.00326087587542357	3.35805841571626E-07	7.49671118288354E-06	-5.21602477877793E-06	2.14937986262798E-07	0.974732907232493	-0.261004782290512
11	0.0133384371997185	-0.00488390880782598	-2.25252250823999E-06	-3.86037667606948E-06	1.2156278797895E-05	-3.60710384180715E-06	0.974427515477532	-0.263010098886979
11.1	0.01256596962468	-0.00680410106732529	-6.1920288889319E-06	-4.97399053038889E-06	9.71464091763019E-07	5.63508427889167E-06	0.973853832986889	-0.265179681392072
11.2	0.0119469707464811	-0.00778091957760798	3.36363037171039E-06	4.33980045722856E-06	1.04953500539567E-06	-7.96460070275358E-06	0.973117484671179	-0.267675932166545
11.3	0.0114022062933755	-0.00844570968604902	7.08745679235423E-07	-2.68701461159253E-06	-4.85051275634444E-06	9.22540832039052E-06	0.972055825321316	-0.270135447272166
11.4	0.0111781530759653	-0.00862294558621848	1.4799899191978E-06	-2.22765240491226E-06	-3.06803398240139E-06	-7.48769140288825E-06	0.970361412123557	-0.272489895835707
11.5	0.0119550473433675	-0.0103231938052759	9.53560896541064E-07	-1.02192080861086E-06	-9.12761261692375E-07	-8.76696157610229E-07	0.970983999328004	-0.275364803173075
11.6	0.0105281262263943	-0.0121148016327242	1.13245269834031E-05	-3.3599177054285E-06	-5.50852784234148E-06	-6.87627641317483E-06	0.96936927191552	-0.280982145374892
11.7	0.00940311766433593	-0.0127640533590297	5.36144211161461E-06	-2.95458713263918E-06	-4.44300314667961E-06	1.69245210530182E-06	0.9673827004602	-0.285139761117846
11.8	0.00866645080717625	-0.0130960010005318	-4.69581067111481E-07	-2.56824045211225E-06	1.14875091007163E-06	1.33766028635388E-05	0.965966401156434	-0.288948415239149
11.9	0.00889763589387104	-0.0131912717506654	3.36829308057854E-06	1.99247497791787E-06	5.0176346797778E-08	1.28630663486568E-05	0.966274888335019	-0.291561026737446
12	0.00956100354755196	-0.0155666672801245	2.03169405611258E-06	4.74078454840595E-07	-3.75122079602736E-06	-9.52852135483493E-07	0.966111003109591	-0.298087401643683
