# GHZ S RI R 50
0.2	0.000335063698715367	0.00386191436134591	6.30622980276027E-06	-1.00798233165673E-06	1.06704183314294E-05	1.04964116134085E-05	0.999578573998654	-0.00678353847566017
0.3	0.000978011660175664	0.00349111626180928	5.8176673596742E-06	5.03808814658127E-06	8.09761236171314E-06	2.95405880520458E-06	0.999385927734029	-0.00961563171503197
0.4	0.00152721103047409	0.00335826658143741	-2.70947291144867E-06	7.87122248958455E-06	-4.81086406455434E-07	-4.43170906852095E-06	0.99941367613384	-0.0122480165910972
0.5	0.00188169830430687	0.0032415177040381	2.30813091430911E-06	1.47944788893554E-06	7.51209460935732E-06	-1.05220228968566E-06	0.998922581494609	-0.0153143714404085
0.6	0.00230271111353097	0.00334470261601431	3.21673332259063E-07	3.54038913253424E-06	2.74647895110286E-07	-7.66212280254464E-06	0.999075087977368	-0.0178628611565798
0.7	0.00266695102979523	0.00329974934487509	4.16711452622133E-06	5.04732503276674E-07	-3.89588947390791E-06	-3.98605998140594E-09	0.998885562493882	-0.0207807207333293
0.8	0.00300232211349843	0.00326432416876699	-2.8885506551952E-06	2.96439860626653E-06	-6.82271688253031E-06	1.31955346602341E-06	0.998754831598583	-0.0229476471370089
0.9	0.0032414954441744	0.00324050303420395	6.03735236513185E-06	8.99677432988656E-07	-7.34225572232562E-06	-1.83321333494047E-06	0.99878012467891	-0.025370301038268
1	0.00338810828032149	0.00315131327020767	2.35985879149089E-06	2.94475014685833E-06	-9.04403032711267E-06	-2.61561038325902E-07	0.998579426789003	-0.0272783646166209
1.1	0.0034075502461227	0.00335175610552231	6.44039806176679E-07	3.58135369246532E-08	-5.30248592555661E-06	1.40152145786402E-06	0.998177068069302	-0.0291499384202821
1.2	0.00362777070704633	0.00326061037898792	-5.29496427941968E-06	-3.29261709353863E-06	-1.1184791621997E-05	-1.26658362379156E-05	0.997897246821307	-0.0299085640927111
1.3	0.00357018674324627	0.00272938806919888	3.05075113602063E-06	3.10671139160513E-06	6.9640329280004E-06	-4.08470319812632E-06	0.998393318519369	-0.0305172046581811
1.4	0.00331710735089691	0.00193995727630525	-2.80073450225618E-06	-1.11580201910824E-06	5.71729771888978E-06	6.52189788913366E-08	0.998434161931261	-0.0323305787946731
1.5	0.00308110290707587	0.00140525110444569	1.2426312325805E-06	-2.53495234881284E-06	8.01287238725854E-07	2.51439351907252E-06	0.998727988835169	-0.0358261949120583
1.6	0.00312436051242901	0.00124719604789574	-9.3161682102869E-07	-6.41948827117624E-06	3.18864709634739E-06	-4.24503230355892E-06	0.997950640820539	-0.0392595988673727
1.7	0.00321640331546486	0.00110651961974518	3.40629110238894E-06	6.34247212628272E-07	2.23458123102616E-06	3.8540690362479E-06	0.997943860545388	-0.0419705945386486
1.8	0.0032589065264387	0.00116678567779561	-2.37830409267118E-06	2.89747704736015E-06	-1.0135289839305E-06	-3.9980847573673E-06	0.997575463307496	-0.0448872547796524
1.9	0.00335051949978631	0.00114664989692882	-3.73173793751624E-06	-1.76063795168797E-06	5.62867714660089E-06	3.0281721089146E-06	0.997298358624574	-0.0474182163103373
2	0.00333412084425365	0.00117629711839256	-6.17444722100564E-06	-5.749881586967E-06	-2.07946539055956E-06	9.15174706007956E-06	0.996151968884869	-0.0504456696151875
2.1	0.00345378364550013	0.00125346160178142	1.16999012434092E-06	4.60467525448527E-06	4.47964728189276E-06	3.99130131717404E-06	0.995570838220584	-0.0520959898781463
2.2	0.0034953657373097	0.00118248677735536	6.55782072675036E-07	9.06908029792057E-07	-3.62402398917601E-06	-1.0937817324173E-05	0.995771171164987	-0.0542687362865125
2.3	0.00339561075902521	0.00107910687451237	-2.28609521797492E-06	3.55896003559761E-06	-5.34149137754366E-07	-2.79598562283623E-06	0.995569390004326	-0.0560640343902934
2.4	0.00319474137923798	0.00104985098744546	-1.55610336464358E-06	-1.45590591659846E-06	1.28427792307914E-06	-9.98268467894078E-07	0.995615994411133	-0.0591881163259539
2.5	0.0028308544310415	0.00108847569924515	7.78534384798048E-06	4.06200830276398E-06	-2.34443635271332E-06	-7.22810229186953E-06	0.995109251535821	-0.0615613582602036
2.6	0.00264154271078061	0.00148594888764038	4.86204770590828E-07	2.11745434441457E-06	-1.4684259160564E-06	4.68549271401439E-06	0.994868411235252	-0.0642709338721594
2.7	0.00272504343412928	0.00181991073503925	-7.86686863179207E-06	5.23978928663515E-06	2.53222364219041E-06	9.72083708356639E-06	0.994451191087728	-0.0671550250643522
2.8	0.00302579319000159	0.00215580057460107	-7.74385139463858E-06	7.9549154909544E-06	6.01492997564197E-06	1.99167444820051E-05	0.994539214195944	-0.0689801284526711
2.9	0.00355179469515863	0.00226112872789737	-1.18990064405255E-06	8.60021100841572E-07	-8.11956696470703E-06	-2.96203665363503E-06	0.994497440351654	-0.070935609064443
3	0.0040603334622359	0.00222273529507057	-6.10546460964555E-07	-4.47368006803143E-06	-2.18490389522888E-06	6.44103451716771E-06	0.994606295598902	-0.0735361435541526
3.1	0.00468773938210927	0.00202350566777554	-2.58960704700082E-06	8.97897623914245E-08	1.10202672065387E-05	-3.53100597205701E-06	0.994394648857468	-0.0755329940729439
3.2	0.00508089473490379	0.00157948154379023	-9.80275974139169E-06	2.55163027965106E-06	1.21692746639427E-05	4.26154552186675E-06	0.994448962458693	-0.0773152220417017
3.3	0.0052514264513841	0.00104037399998381	-3.46962483117337E-06	9.35011614801836E-07	-5.01286118840671E-06	-1.41832301037038E-07	0.994526592550314	-0.0806077207910897
3.4	0.00520614988793023	0.000566267530068408	5.35061491441177E-06	4.85702704872168E-07	1.34983474879745E-06	4.46721826244188E-07	0.994779935152777	-0.0827461447126942
3.5	0.00495089808739137	0.000166873061922926	2.77193163137907E-06	1.55801327962592E-06	1.31405790382884E-06	7.92374973202445E-07	0.994589814592295	-0.0859926150654875
3.6	0.00474948619681139	4.9553210290681E-05	-7.15211240542199E-06	-1.28187761244047E-07	1.86334208245341E-06	-3.50056924850489E-06	0.993957133463337	-0.0883031636911325
3.7	0.00453648822675005	-0.000112135177138794	5.77878335536029E-06	-1.51646115332469E-06	-3.26237216395972E-07	-1.73318590750915E-06	0.993952935271203	-0.0907340973197802
3.8	0.00436669009823276	-0.000123416617175161	-2.00283330594695E-06	8.78339621262189E-07	-5.19604415542316E-06	3.01470757590578E-07	0.993918819891895	-0.0927695613620002
3.9	0.00433115331645186	-9.21838790070016E-05	-8.37027119564838E-06	1.78660965316169E-06	-4.1211601532698E-06	-1.49813695093456E-06	0.99419124619579	-0.0962708769111287
4	0.00430157301451487	-7.14633427353144E-05	-5.82798683648662E-06	3.7195243003519E-07	-9.50888164024055E-06	-8.44827638981929E-06	0.993364753283612	-0.0982583820512014
4.1	0.00451453987390222	4.92298862090085E-07	-3.98769744859075E-06	4.06903249955003E-06	-1.87972386279246E-06	5.58475717851173E-06	0.99299899297899	-0.0996256271747739
4.2	0.00470325533830257	-0.000218602669346187	4.6224020077198E-06	-4.38979937126146E-06	6.75922426568753E-06	7.53216601716733E-07	0.992740876159936	-0.102189670775607
4.3	0.00475199790405172	-0.000463769090874761	-3.79880602141968E-06	1.12941057294657E-06	3.55151993053448E-06	-1.20862635910037E-06	0.992756997979079	-0.104287359289034
4.4	0.00467155841165134	-0.000710693674068994	-3.152925955891E-06	-4.93756842985335E-06	9.30296716280388E-07	-1.03742482347709E-06	0.992329567408258	-0.106681742512277
4.5	0.00439458174866345	-0.000850987404078956	-1.39210022014013E-06	2.03152270386035E-06	2.14457479069377E-06	-8.47890920856411E-06	0.992076023806681	-0.108704409508521
4.6	0.00425938294093546	-0.000813948314752385	5.39779401306873E-06	9.60492703586584E-06	-1.4215711951161E-05	9.81908122618649E-06	0.991939426554184	-0.111290833167177
4.7	0.00416649371019147	-0.00091133086424722	-7.59545385959492E-06	-9.57376562555722E-06	-1.14613888212739E-06	-1.35459797450032E-07	0.991889735352357	-0.113233182612253
4.8	0.00402311084335195	-0.000932341338369802	-8.74995783925084E-06	-2.69479001286303E-06	-4.38578462655867E-06	4.54511537989903E-06	0.991529403611798	-0.115633569447645
4.9	0.0040118136447059	-0.000940984594349913	5.77197126517288E-06	8.32747214412693E-06	-7.26460740068114E-06	3.27785361912203E-06	0.991344321291142	-0.117372224182394
5	0.00403535021190292	-0.00102482219888331	4.29260309438367E-06	-8.54985924842003E-06	-4.29232418281468E-06	-6.19191108037415E-06	0.991438336206745	-0.119154731904081
5.1	0.00434541799963515	-0.00110764578753185	1.52517145569458E-05	-1.02511639915702E-05	3.50089361701776E-06	-8.73638305328207E-06	0.991502115980814	-0.12061588920218
5.2	0.00454865853255183	-0.00149872527338314	-4.23653628728589E-06	-4.72687027365958E-06	-3.16937571358058E-06	5.22601345756124E-07	0.991462432707947	-0.122958028846319
5.3	0.00458733746574951	-0.00188303259924315	4.78215645681065E-06	3.38342212254949E-06	-9.30719581146626E-06	-4.7609610270312E-06	0.991439876974181	-0.125463505284677
5.4	0.00450298017452853	-0.00223318329277429	5.18757226246868E-06	1.20682791118368E-06	-4.85320398080782E-07	1.04728374675876E-05	0.991608053771997	-0.128565467955957
5.5	0.00415871855349887	-0.00241020583370547	-1.81460923469545E-06	-1.9857527469752E-06	8.89860105617066E-06	5.15141099075146E-07	0.991153093913839	-0.131969975562103
5.6	0.0040831379921712	-0.00244487882697095	4.2488754523447E-06	7.24094840724157E-06	-4.62439398488164E-07	-8.62548091764444E-06	0.99042996408108	-0.13429323732277
5.7	0.00376657807302576	-0.00264567777326576	2.05866473543548E-06	-7.21954098685354E-07	5.47781027228616E-06	2.46034549454022E-06	0.990330241106991	-0.136634055899086
5.8	0.00328804703332648	-0.00264381766499735	3.91719486589474E-06	1.96530321583824E-06	2.7330886166665E-06	7.84668045031572E-06	0.990484649268331	-0.138964424894066
5.9	0.00283224057756847	-0.00239668041953704	-3.78828793546703E-06	-3.06277788467539E-06	-4.70635068749448E-06	-1.78350441605847E-06	0.990507162489379	-0.141822556721923
6	0.00230722720927664	-0.0020697610884316	-2.07963865546629E-06	1.70599654539944E-06	1.04449583790172E-05	-2.66235778065961E-06	0.989409955693546	-0.144351024958452
6.1	0.00221868219939925	-0.00146472144328574	-7.33872795547061E-06	-1.10887899468319E-06	-7.25504340668119E-07	-2.48780525379044E-06	0.989103709891601	-0.145294191915924
6.2	0.00229464289479854	-0.00134402523993324	-1.06355208506222E-06	1.99265731064164E-06	-3.48959117971946E-06	-5.3722507605969E-06	0.988897090858766	-0.146893133911737
6.3	0.00231909710733386	-0.00146189789383651	1.58147748364876E-06	2.83484128326587E-06	1.15158496797414E-06	5.98240667448368E-06	0.988502957431243	-0.149061330937989
6.4	0.00217411851935088	-0.00178911187498399	2.07557575643776E-06	5.04264045353938E-06	-3.33628919711555E-07	2.2782687995895E-07	0.98788618034317	-0.151365737106937
6.5	0.00181163613929325	-0.00200973582066302	4.67388904709063E-06	-1.8816102072414E-06	-4.69627276577595E-06	-1.54978386682368E-06	0.987283958953933	-0.153524208875582
6.6	0.00166266314622647	-0.00215101920606456	3.26042205772654E-07	-1.07078888243929E-06	9.31259846859576E-06	3.34016508246201E-06	0.987600893449547	-0.156002241827358
6.7	0.00125386544570893	-0.00226816678174793	5.32421348315897E-07	5.61993555854662E-06	-1.79019865416485E-06	4.98144257081385E-06	0.987380025395784	-0.158700910311426
6.8	0.0008056359296302	-0.00207138946002664	1.7528518975513E-07	-1.58849223520533E-06	-3.48348697489592E-06	-5.12438787129915E-06	0.986835531148336	-0.161190421608146
6.9	0.000467484291616337	-0.00175813350281783	-6.64840995004935E-06	6.72825843196722E-06	2.29043869551134E-06	1.35450543906349E-06	0.986484958745617	-0.163597856637365
7	7.55767789136836E-05	-0.00129131680932125	8.09017665920287E-06	3.16548214204892E-06	4.57549386130145E-06	5.86823106740424E-06	0.985429631861178	-0.165804654087098
7.1	6.45843654305466E-05	-0.00072178973783754	1.39804445215267E-06	7.83655071341943E-07	-2.27818998397422E-06	-4.47997521635178E-06	0.984672175455981	-0.167222164070099
7.2	-9.10358474415596E-05	-0.000460482143917603	-1.3258326163219E-07	4.40166858737878E-06	-5.01608871611734E-06	-6.55057579679617E-07	0.984028003784048	-0.168869012701216
7.3	-0.000503302527612098	-5.90515775547989E-05	1.34793895116617E-06	-5.26809606169602E-06	-2.35205365626249E-06	-2.78887809417866E-06	0.983135224598718	-0.170471240163707
7.4	-0.0010137514326038	0.00048081905326432	1.84260576182996E-06	4.42122780203648E-06	-7.29462007633387E-07	-1.06893335449261E-06	0.9826909500204	-0.172702927865057
7.5	-0.00164444126810696	0.00125665598922323	-5.74526867943644E-06	-1.48033750487929E-06	-1.59585119061117E-06	-8.89906002968342E-06	0.981866461419241	-0.176111282336377
7.6	-0.00165943812228226	0.00244216300117617	5.61347860578813E-06	-3.39507857008206E-06	1.0279800410444E-06	3.18607554474353E-06	0.980414246316045	-0.178719002250843
7.7	-0.00145637914751692	0.00310921634996037	-6.50281593366448E-06	-2.8480647107161E-06	4.38308333363701E-06	5.65752062711854E-06	0.980085962730375	-0.181698486170171
7.8	-0.000966058008375747	0.00348278964625876	-1.09234476465862E-06	-5.34927702605485E-06	-2.10992654500479E-07	1.14285615699855E-06	0.979966638815292	-0.185111109124612
7.9	-0.000303543469122575	0.0035485041765302	-3.32969492188268E-06	7.21093019805943E-06	4.56859578997755E-07	-6.87550774020183E-06	0.979761582775419	-0.189007229748519
8	0.000186234810393458	0.00353401279554236	-2.1739199286083E-07	7.37553773956127E-06	1.76028519981989E-06	-4.45534243201731E-06	0.978003171177676	-0.192320347818261
8.1	0.000974865707202188	0.0034062490389475	-7.46590570262977E-07	-6.45994145879807E-06	-1.74816847949402E-06	-1.06005454651033E-06	0.977555966931308	-0.193953216512046
8.2	0.00134838388772631	0.00309083315939483	-3.82335847544909E-06	1.65652048365132E-06	-1.09689302099442E-05	-2.59955978765235E-06	0.977673327285586	-0.196309943929327
8.3	0.00153515805780334	0.00296008371521196	-5.5609614651249E-06	-9.8497463803982E-06	-7.78093351083266E-06	3.03095326966251E-06	0.977225111246113	-0.199079641115167
8.4	0.00167688564639414	0.003010532531208	6.75893544710524E-07	-6.1095982772272E-07	-1.41504769713284E-06	4.42616156827063E-07	0.976479506545473	-0.201771364546602
8.5	0.00166365759710597	0.00321777133719749	-1.75218364125263E-06	-2.5501904900992E-07	-5.82850221034547E-09	1.80305397297885E-06	0.97567824460667	-0.204281171230509
8.6	0.00206618318894213	0.0036330354708901	2.42208761737761E-06	-3.97463992592354E-06	-4.57041359983506E-06	-5.91590008522113E-06	0.975428794550515	-0.206776262758336
8.7	0.00241101072992194	0.00375616634854067	-1.50084944851325E-06	-2.09197038943163E-06	-3.55257152104299E-06	3.64109618854445E-06	0.975043237592768	-0.209391247659636
8.8	0.00270791685064598	0.00400983133458034	-5.49767978026242E-06	-2.11393469165269E-06	-7.23251550647072E-06	-1.26077531936575E-06	0.974594175065198	-0.211687394450501
8.9	0.00320950339714333	0.00424804956684111	8.55708261170963E-06	4.08733998260549E-06	-1.41410056843113E-06	3.20004806165623E-06	0.974527491695293	-0.213697006305571
9	0.00379780413592544	0.00439291899243417	-4.96893620518855E-07	4.16260563154246E-06	-7.81925518818838E-06	1.23593636148287E-06	0.974339651422901	-0.21599602249804
9.1	0.00483426614720767	0.00434777515381991	-2.54829599224292E-06	6.64066812080486E-06	4.10189076355163E-06	-3.08786002170515E-06	0.974053297010338	-0.218148528778043
9.2	0.00567347700749472	0.00376125146358691	-1.17191072271333E-06	3.42631458595944E-06	-2.24883634794931E-06	-2.05485744713934E-06	0.973598651462708	-0.220688755069178
9.3	0.0062110256773187	0.00311695405259824	2.31999416300868E-06	-4.04382196596516E-06	-7.95352205397661E-07	-1.77979479301994E-06	0.973154338854731	-0.223103147775954
9.4	0.00660272097861288	0.00245634572336631	-1.79496004348953E-06	3.89850843095775E-06	-2.07253558293567E-06	-3.57757456021786E-06	0.972712426091874	-0.225881036942982
9.5	0.00670013088550131	0.00211036896873961	3.50596128929114E-06	6.28958118373669E-06	3.63056330058727E-07	-2.15070008868573E-06	0.971814509838209	-0.22899294707516
9.6	0.00704252159519241	0.00173445615003009	4.62923983494829E-06	7.06464382027E-06	-8.20316432830726E-06	1.28065131989091E-05	0.970849892419894	-0.231629649779416
9.7	0.00707354681147163	0.00127190923635683	-2.88095837118568E-06	-1.52880380486006E-06	-1.3899363971947E-06	-3.96536863789326E-06	0.970371419880738	-0.233960009258323
9.8	0.00697393490183946	0.00105077777062815	1.2665824670716E-07	-3.59303654907922E-06	3.04491086768562E-06	2.39531063149068E-06	0.970238602483708	-0.236102706066064
9.9	0.00693701962477096	0.00110441223216486	5.79469315252957E-06	-6.19370479730101E-07	-2.55988020710212E-06	6.72484518428245E-06	0.969643886223557	-0.238432384797439
10	0.00691278128576766	0.00126096605250302	-1.14046429471764E-06	-5.76957681543669E-07	1.36114200438386E-06	-1.18615892562921E-06	0.967860317836556	-0.239612349385086
10.1	0.00742843100675854	0.00150908464500168	7.10045700922687E-07	-8.40842081400447E-06	6.14905322334691E-06	3.60112758250797E-06	0.968060287128259	-0.239846331894066
10.2	0.00796203834537096	0.00139456268413892	7.48896451031152E-06	8.30883971659716E-06	5.22016561916354E-06	3.52549386832739E-06	0.968357215838468	-0.241280184602833
10.3	0.00847774842234209	0.0012331809738173	1.75259772348069E-06	-6.94768127061009E-06	1.42476418297118E-06	2.863642189579E-06	0.967979171126445	-0.243302097952195
10.4	0.00912932833768024	0.000954447957907092	-4.01900143344455E-06	-3.63216521330387E-06	1.94999751574465E-06	-5.58545340166572E-06	0.966956239685768	-0.245642644714138
10.5	0.00973285733726251	0.000611681278986841	3.79821492735192E-07	-7.05052355926401E-06	-5.72083979520747E-06	4.0583844559634E-06	0.965696780662361	-0.247553631613351
10.6	0.0106994790592191	3.07080468413191E-05	5.47300805947589E-06	6.72783077508214E-06	2.428296184002E-06	1.19391283547989E-06	0.965215710765822	-0.249771817436072
10.7	0.0113359310603197	-0.000896993568517898	-7.06081381646994E-06	-1.69259000944806E-06	-7.72929237740366E-07	1.55564661755824E-06	0.964386512186583	-0.252335051203616
10.8	0.0117339359281901	-0.00184467639239578	1.4789772704813E-06	4.43357454870065E-06	9.39595081494839E-06	-4.44976229765473E-06	0.963487468568584	-0.254117188221715
10.9	0.012104944869749	-0.00284756328319207	3.15181199813123E-07	7.40320545903177E-06	-5.15092489441794E-06	2.00823042661283E-07	0.963366746744659	-0.25573642090517
11	0.0122515557163413	-0.00382279443244477	-2.21583286197652E-06	-3.82193922127512E-06	1.20256321819912E-05	-3.53188501194229E-06	0.962879198551563	-0.256951802805629
11.1	0.0126241596901428	-0.00485272519844861	-6.10363993284734E-06	-4.93335224139404E-06	9.43127537019345E-07	5.57103223698905E-06	0.963026361671618	-0.258216062429642
11.2	0.0126625308217784	-0.00622409775506647	3.30634451867163E-06	4.30189368013174E-06	1.06909396902437E-06	-7.86601898698512E-06	0.962980366993218	-0.260167480146092
11.3	0.0124770484700542	-0.00756813269245259	7.14350169670407E-07	-2.65367912980004E-06	-4.84296118674651E-06	9.09884770396928E-06	0.963039890788459	-0.262513616710523
11.4	0.0120373459104388	-0.00883136264198226	1.47796350811867E-06	-2.19870916145378E-06	-2.99897655932863E-06	-7.43349493879862E-06	0.962621090763842	-0.265800115964555
11.5	0.0112985214271405	-0.00994803582050323	9.47660780614857E-07	-1.00850838756839E-06	-9.00695045565707E-07	-8.71178955760441E-07	0.960863390966305	-0.269524814872656
11.6	0.0108252168017431	-0.0110272228640637	1.12130001994575E-05	-3.26399417673357E-06	-5.41087768107695E-06	-6.82624447175103E-06	0.959225434170045	-0.272445666895144
11.7	0.0100144337392716	-0.0122588993364004	5.32235149953957E-06	-2.88845918611118E-06	-4.40578652590555E-06	1.64582175676073E-06	0.958346504274098	-0.275938326630711
11.8	0.00906206845430455	-0.0131778191691774	-4.47601900235213E-07	-2.54511773465002E-06	1.04753698898029E-06	1.32474938614828E-05	0.957375334247338	-0.279925038400638
11.9	0.00824283270008713	-0.0139248090833014	3.31898469038613E-06	1.99136937863927E-06	-2.97619666854643E-08	1.2722034238591E-05	0.956108695133254	-0.283151117128865
12	0.00725122219121783	-0.0145713354070967	2.00001056045278E-06	4.85942713609892E-07	-3.6920249549682E-06	-9.73711201499082E-07	0.953246104604312	-0.284616385312704
