# GHZ S RI R 50
0.2	0.000668466666611371	0.00347870929681045	6.30589556617721E-06	-1.00666349677486E-06	1.0667465333459E-05	1.04976148149256E-05	0.999801134155641	-0.00699503528529279
0.3	0.00136948464432484	0.00316392792345339	5.81751126438583E-06	5.03702430674821E-06	8.09702488676497E-06	2.9530075373241E-06	0.999641700649374	-0.0100552942768509
0.4	0.00184147698836133	0.00296207239962208	-2.70772737369423E-06	7.87091666423373E-06	-4.81862538752462E-07	-4.43116302971836E-06	0.999600456839039	-0.0128440139558855
0.5	0.00209835998881725	0.00294256593004189	2.30882603200179E-06	1.47876200547888E-06	7.51231839295527E-06	-1.05489490223727E-06	0.999228626376356	-0.0159758017799323
0.6	0.00250021632362947	0.00294729777889093	3.23511155263793E-07	3.54004753636898E-06	2.70622982517951E-07	-7.66189178540733E-06	0.999256501102155	-0.0188489229793576
0.7	0.00268272568606931	0.00292947410125293	4.16721559477341E-06	5.02707911356326E-07	-3.89575856971391E-06	-2.10919475497063E-09	0.998882822313975	-0.0217434937601527
0.8	0.00293268143811477	0.00298924842139239	-2.88715315653611E-06	2.96590744091772E-06	-6.82223573912559E-06	1.32297268213804E-06	0.998691226115975	-0.0238591588395315
0.9	0.00314390566606699	0.00299326905096318	6.03795158201097E-06	8.96585488654352E-07	-7.34336543394394E-06	-1.82946968429865E-06	0.998629483638695	-0.0262747482301346
1	0.00321026437216959	0.00292605119792761	2.36134906055901E-06	2.94350397694665E-06	-9.04406788257447E-06	-2.56903473740838E-07	0.998278194591748	-0.0280884070758218
1.1	0.00327974711087207	0.00293018880596858	6.43896084868084E-07	3.54193638035345E-08	-5.30028859119357E-06	1.40433180396024E-06	0.997729539117678	-0.0301776841120253
1.2	0.00320693696348743	0.00246923573902033	-5.29345091983288E-06	-3.28716144040482E-06	-1.11851061706357E-05	-1.26504963804008E-05	0.996792071155714	-0.0313078931555107
1.3	0.00274833045131685	0.00172506814237895	3.04988429214228E-06	3.10110196766971E-06	6.95355338556422E-06	-4.08567558163044E-06	0.996547243513051	-0.0322771916732602
1.4	0.00226779471085049	0.000962828425810496	-2.79862071634562E-06	-1.11146079633795E-06	5.71059714143963E-06	5.89772574408007E-08	0.996255814043078	-0.0344199672841185
1.5	0.00206276582948685	0.00073609979426933	1.23809264147929E-06	-2.53394555865078E-06	8.03698569777001E-07	2.51077823336243E-06	0.996763158939075	-0.0378548115780205
1.6	0.00222888640689693	0.000866194212650738	-9.39001394375582E-07	-6.41374041754878E-06	3.18104956796082E-06	-4.24600200082495E-06	0.996408083319726	-0.0410674631811724
1.7	0.00249712700240576	0.00108300677642416	3.40570919051372E-06	6.30086218036107E-07	2.23815278740691E-06	3.85001593028004E-06	0.996851428168524	-0.0433659046774323
1.8	0.00278131592758528	0.00136992577048944	-2.3749288382022E-06	2.8996016457215E-06	-1.01761429096213E-06	-3.99648243376789E-06	0.996934894702404	-0.0459631997795333
1.9	0.00307592430483336	0.00146132629692104	-3.73347751135762E-06	-1.75698474963899E-06	5.63166632277727E-06	3.02266319491029E-06	0.996973881541278	-0.0482772607328371
2	0.00326679738415124	0.00157967679298686	-6.17993849732678E-06	-5.74556888468422E-06	-2.07224873912359E-06	9.15461824806313E-06	0.996203120481539	-0.0510095888907335
2.1	0.00354682016289475	0.00156208867541429	1.17447168210147E-06	4.60471483758193E-06	4.48436487544038E-06	3.98817443594132E-06	0.995946095813724	-0.0528919537762442
2.2	0.00363754921634816	0.00144797982014918	6.56684591558614E-07	9.06421048737577E-07	-3.6343949878946E-06	-1.09358368091943E-05	0.996068831627895	-0.0551507261655855
2.3	0.00360066272418532	0.00129392668417835	-2.28322503897094E-06	3.56100436437493E-06	-5.36497012727353E-07	-2.79565275721635E-06	0.995815313882811	-0.0569449084873271
2.4	0.00343538108297404	0.00116994030603103	-1.55723341836978E-06	-1.45473405475313E-06	1.28353019138277E-06	-9.99260989548678E-07	0.995813528242438	-0.060078035288888
2.5	0.00307938249752149	0.00113955140180764	7.78843790995008E-06	4.05603254644629E-06	-2.34996969891184E-06	-7.22628836020133E-06	0.995300862973142	-0.0624403584326038
2.6	0.00289283001224939	0.00138293746832824	4.8755300682037E-07	2.11688319983177E-06	-1.46514399341042E-06	4.68591745887534E-06	0.995025351954627	-0.0651769915431545
2.7	0.00290615515442199	0.00162980416119449	-7.86354256575962E-06	5.24265684038968E-06	2.53625857335232E-06	9.71849164696249E-06	0.994586856169251	-0.0679542149255855
2.8	0.00315790995835416	0.00188833346206609	-7.74126340692463E-06	7.95583874737606E-06	6.01879257599741E-06	1.99133390775158E-05	0.994682590352507	-0.0696666099851904
2.9	0.00358913782827085	0.00193047068879771	-1.18976671172513E-06	8.59950236784051E-07	-8.11877948647991E-06	-2.96161764836775E-06	0.994559062792071	-0.0714862224391628
3	0.00400421895118149	0.00189883417049928	-6.09747522818699E-07	-4.47299338842333E-06	-2.18551916965799E-06	6.43957169826105E-06	0.994551629092812	-0.073888290025605
3.1	0.00449782003852677	0.00169627409705058	-2.5890917361414E-06	8.88875053702629E-08	1.10191483673273E-05	-3.52650250144034E-06	0.994227607740078	-0.0757587831313911
3.2	0.0047524384945932	0.00137534848915564	-9.80129874040953E-06	2.54736305463783E-06	1.21647021121553E-05	4.26501754922996E-06	0.994101632345499	-0.077439625318375
3.3	0.00487213003046898	0.000981809251961273	-3.4687409675787E-06	9.3350611600138E-07	-5.01107588053248E-06	-1.43490178416339E-07	0.993991885447823	-0.0806391226293133
3.4	0.00481786239659859	0.000634348503776806	5.34794606563722E-06	4.87047257037476E-07	1.34906610229594E-06	4.46907977539951E-07	0.994069348768527	-0.0826791583653541
3.5	0.00461269371641653	0.000348182574085677	2.76968086659666E-06	1.5579308132998E-06	1.31297347153542E-06	7.92302007724691E-07	0.99379929817167	-0.0857383471973754
3.6	0.00442572049977283	0.000221855826132517	-7.14805623683383E-06	-1.30943297879329E-07	1.8636823524436E-06	-3.49787217288634E-06	0.993275766009767	-0.0880557241924438
3.7	0.00417943365496499	0.00011523398700874	5.77631814054555E-06	-1.51368630918811E-06	-3.2547145668895E-07	-1.73240223684041E-06	0.993214315730324	-0.0905281844429507
3.8	0.00399962329233522	0.000156522529095046	-2.00214229505003E-06	8.77175827401245E-07	-5.19353874533067E-06	2.99446204216338E-07	0.993101515969811	-0.0924819644436269
3.9	0.00393338031092765	0.000249061999860895	-8.36704932805479E-06	1.78202366313997E-06	-4.1185146913826E-06	-1.49925356860385E-06	0.99330076676375	-0.0957553278230385
4	0.00392384023983759	0.000392620700078466	-5.8262698105263E-06	3.68522399196872E-07	-9.5009419910124E-06	-8.4508770606615E-06	0.992687603817275	-0.0973695506450019
4.1	0.00416318624699614	0.000531781046432042	-3.98828162585272E-06	4.06616747652807E-06	-1.88155835803344E-06	5.58235288758489E-06	0.99249153543855	-0.0988013422569365
4.2	0.00441825486224597	0.000452139258789883	4.62237135649426E-06	-4.38628274601486E-06	6.75633418391166E-06	7.55609230600367E-07	0.992235168748814	-0.101282151383802
4.3	0.00461573879104803	0.000301543024660924	-3.79756757406353E-06	1.12758905522494E-06	3.55041578781888E-06	-1.20685765964164E-06	0.992343163794932	-0.103340640858258
4.4	0.00469785667452559	7.96504151153623E-05	-3.1503262078839E-06	-4.93597279784325E-06	9.30096917302709E-07	-1.03672732754237E-06	0.992016567861935	-0.105812826075143
4.5	0.0046135705995394	-7.57321718229816E-05	-1.39124577991342E-06	2.03037722285479E-06	2.14313397004544E-06	-8.47404301372703E-06	0.991864813708501	-0.108040069412101
4.6	0.004594552614119	-0.000198144218213072	5.3939265672365E-06	9.59633497125884E-06	-1.42028561416842E-05	9.81179833216561E-06	0.991648312935439	-0.110849059898786
4.7	0.00454365173838459	-0.000409222104486214	-7.58851308029267E-06	-9.56466696803306E-06	-1.14506822286021E-06	-1.35312567161235E-07	0.991576930869904	-0.112907961211115
4.8	0.00442566614999162	-0.000562325124027749	-8.74171163798649E-06	-2.69249547112657E-06	-4.38180218797734E-06	4.54075554105093E-06	0.99122276120587	-0.115458827273065
4.9	0.00438697679052626	-0.000699885029376741	5.76625107951853E-06	8.32023947303768E-06	-7.25819706904512E-06	3.27445975726171E-06	0.990985314035791	-0.117310323912476
5	0.00439188890904526	-0.000891517038817159	4.28915784085879E-06	-8.54123337836219E-06	-4.28765977135168E-06	-6.18627633280174E-06	0.991007280143587	-0.119120733065831
5.1	0.00458556302256678	-0.00111690041116307	1.52394857033912E-05	-1.02378260923239E-05	3.49956221610095E-06	-8.72721148726026E-06	0.991009704522592	-0.120624661796142
5.2	0.00467187939268931	-0.00152737572641001	-4.23148950234445E-06	-4.72367888847062E-06	-3.16664129829876E-06	5.21315393356014E-07	0.990849783458171	-0.122992291885543
5.3	0.00462626521853516	-0.00192027358073623	4.77708589659023E-06	3.38164481251384E-06	-9.29778741727569E-06	-4.75911040925256E-06	0.990712670515154	-0.125472455638281
5.4	0.00444731429745757	-0.00226736430042397	5.182879600544E-06	1.20704097714598E-06	-4.87407167294551E-07	1.04638293002831E-05	0.990813747366228	-0.128512898719346
5.5	0.00403929464310671	-0.00243824380013073	-1.81244097231481E-06	-1.98471677234724E-06	8.89105993769068E-06	5.17697632772969E-07	0.990418189754257	-0.13177151641201
5.6	0.00373567131671272	-0.00249746492932425	4.24363813431316E-06	7.23906505161984E-06	-4.58542360029548E-07	-8.62128520464502E-06	0.989847791150985	-0.134156589571543
5.7	0.00320279832693026	-0.00249201146982551	2.05837932132996E-06	-7.21015747965654E-07	5.47546217778281E-06	2.46167775189584E-06	0.989715220480273	-0.136449004598574
5.8	0.00260476357852243	-0.00221676676795825	3.91632309309611E-06	1.9665812276599E-06	2.73021492709712E-06	7.84726762339733E-06	0.989880142545116	-0.138550159630938
5.9	0.0021150443796696	-0.00163452870232617	-3.78784450625033E-06	-3.06493362268372E-06	-4.70661112799176E-06	-1.78576325398738E-06	0.990033781091896	-0.140964247934065
6	0.00178310300579052	-0.000904588573295222	-2.08162488269345E-06	1.70635356613014E-06	1.04527743063972E-05	-2.66028202394507E-06	0.989617568940786	-0.142981479619873
6.1	0.0020627377797994	-0.000138607703631023	-7.3443706430586E-06	-1.10988543254624E-06	-7.26013438353514E-07	-2.48974067853449E-06	0.989939118753333	-0.144080888043651
6.2	0.00257756856186827	-6.71391456035274E-05	-1.06396625176146E-06	1.99412067739914E-06	-3.49265679797607E-06	-5.37528510150291E-06	0.990146723966369	-0.145928817038899
6.3	0.00289589161045216	-0.000559884470053377	1.58290120334099E-06	2.83574732576251E-06	1.15358961207269E-06	5.98485869151935E-06	0.98988656489671	-0.148624641488916
6.4	0.0027288643261392	-0.00132428136163895	2.077266164264E-06	5.04339445821996E-06	-3.33657625420182E-07	2.27960970581845E-07	0.989037699579571	-0.151384033683439
6.5	0.00218816193690937	-0.00181772699803451	4.6737577385275E-06	-1.88312126310959E-06	-4.69713146205701E-06	-1.54856772731852E-06	0.988132346744116	-0.153914753088537
6.6	0.00172175958345679	-0.00200777294392232	3.25955994283192E-07	-1.0706846626274E-06	9.31171556847426E-06	3.33935903921395E-06	0.987918398633811	-0.156332977923311
6.7	0.00120991926854537	-0.00194357002251754	5.31261949376785E-07	5.62024325006245E-06	-1.79130526186865E-06	4.98124114749859E-06	0.987644654104042	-0.158684636470893
6.8	0.000816096241107499	-0.00163218405129691	1.7588173782341E-07	-1.58880305450553E-06	-3.48251103888484E-06	-5.1268064499128E-06	0.987254144494958	-0.160945539132743
6.9	0.000557396863575978	-0.00129545300872458	-6.65400651480635E-06	6.72807487026569E-06	2.29077106453588E-06	1.35604524741102E-06	0.987072691030879	-0.163188115973434
7	0.000269938882613161	-0.000873738306724176	8.09256247380039E-06	3.1708636201774E-06	4.57489880855942E-06	5.87323801142347E-06	0.986288412513113	-0.165289828257551
7.1	0.0001424413441588	-0.000440098351075045	1.39836719217E-06	7.8492360191037E-07	-2.27681986490129E-06	-4.48384456526747E-06	0.985612230995223	-0.166859058970777
7.2	-0.000130740489780856	-0.000117486652201859	-1.35444031948813E-07	4.40458136419565E-06	-5.01909087200104E-06	-6.58660731124628E-07	0.984904127701602	-0.168556524298395
7.3	-0.000588374872801995	0.000353619088367692	1.35205767427511E-06	-5.27129903788003E-06	-2.3521981899628E-06	-2.79237562819847E-06	0.983894748678653	-0.170219255257979
7.4	-0.00112462198129145	0.000958789535478313	1.84171274201676E-06	4.42552279733444E-06	-7.29460770507209E-07	-1.07011859272482E-06	0.983189145215233	-0.172444731651972
7.5	-0.00168425330921659	0.00185298161528513	-5.74825044589819E-06	-1.48509996768994E-06	-1.59114593491819E-06	-8.90621382338684E-06	0.982221387741167	-0.175407846181289
7.6	-0.00155649952540104	0.00295600982793104	5.62164312201114E-06	-3.39427977451419E-06	1.02662597311876E-06	3.19003685750117E-06	0.981244241159093	-0.177941283182131
7.7	-0.00119494245438819	0.00357820175883089	-6.50825215085956E-06	-2.85660368147843E-06	4.38377753171376E-06	5.66770166423414E-06	0.981269267191778	-0.180856153507146
7.8	-0.000586571906835502	0.00369174370330118	-1.08895654576273E-06	-5.35789456307981E-06	-2.12348571233726E-07	1.14428674049157E-06	0.981572487583741	-0.184362647944034
7.9	-4.56971559109297E-05	0.00349572026911828	-3.34226258451471E-06	7.21921495347838E-06	4.64465821052227E-07	-6.88612311247429E-06	0.981574076545978	-0.188384854449945
8	0.00026697744802608	0.00339687300448823	-2.25329907540561E-07	7.38935008696399E-06	1.76817984126116E-06	-4.46202424658922E-06	0.980123274081118	-0.191774683515794
8.1	0.000703781255506348	0.00332214949672583	-7.43864354429032E-07	-6.4726365683023E-06	-1.75079550928842E-06	-1.0631791427538E-06	0.979407296580637	-0.193880946505403
8.2	0.000962162350785323	0.00330110679663047	-3.83066919284753E-06	1.65734185335341E-06	-1.09861057824503E-05	-2.60961555091123E-06	0.979196658450586	-0.196150394153038
8.3	0.00120954908018789	0.00338842442277011	-5.56550829311169E-06	-9.86757613697103E-06	-7.79443961001664E-06	3.03240638608167E-06	0.978645615577158	-0.19884349054875
8.4	0.00145434509487207	0.00353939143666319	6.77107555445166E-07	-6.11691769929731E-07	-1.41734044865178E-06	4.4287107097659E-07	0.977883689313094	-0.201581508945133
8.5	0.00157180155985037	0.00372888018115485	-1.75464877279568E-06	-2.55471922848854E-07	-5.93155994443121E-09	1.80560416647659E-06	0.977039394249266	-0.204308469023958
8.6	0.00185868695507071	0.00403305372289932	2.42546106534446E-06	-3.97964972271098E-06	-4.5759902142549E-06	-5.92383752396535E-06	0.976570581436887	-0.206929440624889
8.7	0.00209640283228131	0.00423509195840993	-1.50283472317153E-06	-2.09481043156696E-06	-3.55741248141663E-06	3.64593762613582E-06	0.976064380500791	-0.209561440551844
8.8	0.00234621209268995	0.00458505847554645	-5.5053649821531E-06	-2.11677639530903E-06	-7.24259852395165E-06	-1.26239912040826E-06	0.975532702444287	-0.211800887686616
8.9	0.00282221062165287	0.00492660403725956	8.56961771354395E-06	4.09312434610226E-06	-1.41609716032609E-06	3.20473353780537E-06	0.975462851864452	-0.213647950484477
9	0.00348401229157954	0.00519526426689376	-4.97576751381336E-07	4.16864577489623E-06	-7.83058184124794E-06	1.23779860849701E-06	0.975429310765954	-0.215749767070291
9.1	0.00458150241161915	0.00523018360094593	-2.55272507456348E-06	6.6513391098041E-06	4.10868664816421E-06	-3.0926939982633E-06	0.975433184344502	-0.217864389466842
9.2	0.00563037683416138	0.00472510856641219	-1.17310657591888E-06	3.43258393226428E-06	-2.25326981287852E-06	-2.05788585147507E-06	0.975237280328525	-0.220662977090199
9.3	0.0063966370199231	0.00399140831941783	2.32133039925234E-06	-4.05204762845489E-06	-7.97803064543379E-07	-1.78227185328925E-06	0.974858501790106	-0.223545616468687
9.4	0.00692218630855734	0.00315426628707178	-1.79376455881366E-06	3.90604300230242E-06	-2.0791309422988E-06	-3.5808166717236E-06	0.974265407479127	-0.226830105065738
9.5	0.00705404784414564	0.00259118944409605	3.5174509105624E-06	6.29403726960799E-06	3.61185184659089E-07	-2.15393007264136E-06	0.973218501384157	-0.230267077052284
9.6	0.00718193638614513	0.00205800667164398	4.64566981364108E-06	7.06896743947757E-06	-8.19817869099422E-06	1.28366956129985E-05	0.972072520188851	-0.233432683033735
9.7	0.0070657512842328	0.00164116519781049	-2.88787907148339E-06	-1.52612945162514E-06	-1.39882384226565E-06	-3.96888787887262E-06	0.971240702403786	-0.236095291989482
9.8	0.00688510700504298	0.00147925691494884	1.19635023744012E-07	-3.59840197885265E-06	3.05404477707019E-06	2.39261371984027E-06	0.970792876721521	-0.23839971721742
9.9	0.006788206510816	0.00160187740314252	5.80107907704492E-06	-6.32872946118803E-07	-2.54859009260549E-06	6.73942780577778E-06	0.969976170599759	-0.240715995464768
10	0.00679083150039333	0.00182271046986746	-1.14349535638405E-06	-5.7491828624355E-07	1.36008323217864E-06	-1.19120981670988E-06	0.968319852697765	-0.242129077823259
10.1	0.00723476488417638	0.00210317330977411	6.8589333109134E-07	-8.41893206950625E-06	6.16585280456855E-06	3.58654811393763E-06	0.967923938870008	-0.242803635170509
10.2	0.00783770064916119	0.00210116336688547	7.51906503678622E-06	8.29042412314498E-06	5.23411951855183E-06	3.51134585924587E-06	0.967740191174912	-0.244162743784056
10.3	0.00847976831157899	0.00189666201428714	1.73067651633605E-06	-6.9551271180945E-06	1.43435622489858E-06	2.85979611534209E-06	0.967068724010475	-0.246181542886879
10.4	0.00914471879180821	0.00149737893507033	-4.0313913497656E-06	-3.61869767161448E-06	1.93118807795605E-06	-5.59220781304188E-06	0.965788592642992	-0.248580143379089
10.5	0.00970022322500321	0.00106016301518333	3.53796167607187E-07	-7.04977506430472E-06	-5.70418583781952E-06	4.07817355515004E-06	0.96424475720196	-0.250686396520404
10.6	0.0104860152287995	0.000500744920095948	5.49309153972994E-06	6.70343227905518E-06	2.43080963124619E-06	1.18437897463034E-06	0.96332322292274	-0.25275655460304
10.7	0.0111202403382555	-0.000280254143265756	-7.0604423061742E-06	-1.66726629591016E-06	-7.6700476130406E-07	1.55691669662573E-06	0.962440159627005	-0.255060101112171
10.8	0.0116576813064351	-0.00119125402028229	1.49177973238799E-06	4.4251757406631E-06	9.373985409691E-06	-4.47579207178406E-06	0.961763754755046	-0.256635832563306
10.9	0.0119998999038617	-0.00219096052097348	3.37507059698906E-07	7.39540570089675E-06	-5.14555448768068E-06	2.16373754265548E-07	0.961507555002262	-0.25827182959988
11	0.0121848954669883	-0.00322899436701405	-2.22444519385111E-06	-3.8112547518748E-06	1.20019887191428E-05	-3.56281757646291E-06	0.96098332040047	-0.259519435650486
11.1	0.0123977017935378	-0.00429928210166303	-6.10910494937041E-06	-4.91160661239179E-06	9.5643942123508E-07	5.56190074605892E-06	0.960771984341943	-0.26076537620059
11.2	0.0123747711333778	-0.00555489316871242	3.31264114401448E-06	4.28842605936852E-06	1.04860987499316E-06	-7.85870188260981E-06	0.960361422023216	-0.262482888788163
11.3	0.0121846208322479	-0.00682706391319418	7.0715942245675E-07	-2.65158449707174E-06	-4.81491606557661E-06	9.09723926849534E-06	0.960050550416338	-0.264479974906527
11.4	0.011751708007185	-0.00804588031015008	1.47067136368508E-06	-2.1984890402332E-06	-3.0108009958616E-06	-7.41485612715149E-06	0.959318659571921	-0.26737787949635
11.5	0.011060714989318	-0.00917376768120747	9.44129712346947E-07	-1.00861403312801E-06	-9.00836858842841E-07	-8.67983374611557E-07	0.957657169708311	-0.270622119653934
11.6	0.0104688840716849	-0.0102308295265648	1.11900643453786E-05	-3.28006671614785E-06	-5.41552302323237E-06	-6.80587794017643E-06	0.956061285973937	-0.273523505733261
11.7	0.00968049065104172	-0.0113112663618156	5.30881536391269E-06	-2.8937648820617E-06	-4.3959498739777E-06	1.65136638582691E-06	0.955072465786473	-0.276681225081483
11.8	0.00883081819721032	-0.0121725149840349	-4.51032003382023E-07	-2.54032862602745E-06	1.067436502974E-06	1.3224654137433E-05	0.954228529786036	-0.280162507807983
11.9	0.00803081335285326	-0.0128973758504846	3.31624746448831E-06	1.98414626201164E-06	-1.39859764536576E-08	1.27021414288341E-05	0.953396035926791	-0.282744530725429
12	0.00717075204896686	-0.0135697410371483	1.99799186295884E-06	4.83235295089732E-07	-3.68837867140914E-06	-9.68616428317943E-07	0.951467596638313	-0.284235362661899
