# GHZ S RI R 50
0.2	0.00063627977542474	0.00394856812397869	6.30165381445507E-06	-1.01036803295323E-06	1.06685566453171E-05	1.04844608224055E-05	0.999011665447833	-0.00735781792421143
0.3	0.00119311788507469	0.00345040037081398	5.81579875909505E-06	5.031985583204E-06	8.09322379097321E-06	2.94841631304856E-06	0.998676541441183	-0.010258664109166
0.4	0.00164073140795859	0.00319119654945213	-2.70437175471279E-06	7.86574467698498E-06	-4.82309768295475E-07	-4.42789202045254E-06	0.99853734106084	-0.0128827346025677
0.5	0.00167123185058494	0.00311132906831498	2.30664127483705E-06	1.47813664628501E-06	7.50660420657599E-06	-1.05227161511023E-06	0.998127272006572	-0.015649840752446
0.6	0.00212613671093673	0.00351163848186507	3.22585061702576E-07	3.53852711636892E-06	2.72190850757411E-07	-7.65838699109707E-06	0.998721950014345	-0.0184948789779455
0.7	0.00260266895260127	0.00351522922036883	4.16485829408586E-06	5.02590621494695E-07	-3.89357331524278E-06	-2.26196818716033E-09	0.998419338531729	-0.0218391159127652
0.8	0.00303248977174679	0.00348580484687681	-2.88503650755183E-06	2.96370254782605E-06	-6.81720494704809E-06	1.32196071446608E-06	0.998015664005487	-0.0242546428186427
0.9	0.00342203284549565	0.0033336696523109	6.03234867318366E-06	8.95653144870558E-07	-7.33656318692421E-06	-1.82764818964545E-06	0.997590194794852	-0.0268497316702146
1	0.00338672465343679	0.00285301828058446	2.35803390901483E-06	2.94023089631528E-06	-9.03294064878668E-06	-2.5787724755299E-07	0.996615859840173	-0.0284507462537475
1.1	0.00309918024279103	0.00314097883938274	6.43171688064114E-07	3.56565120372021E-08	-5.29505300258369E-06	1.40051179503692E-06	0.996199410628525	-0.0296349296893389
1.2	0.00324468285478974	0.00296371986798167	-5.28692950997687E-06	-3.28680948005118E-06	-1.11684503999388E-05	-1.26445105728831E-05	0.995991529444179	-0.0303547973066515
1.3	0.00297864886280765	0.00230488417935327	3.04539674505109E-06	3.1009338119765E-06	6.95122586131018E-06	-4.07768076284765E-06	0.99645916236719	-0.0311500934583436
1.4	0.00254107700627144	0.00155631196046908	-2.79579351695339E-06	-1.11379434266045E-06	5.70718467621632E-06	6.50345355326473E-08	0.996578356364314	-0.033229845540318
1.5	0.00207219155847349	0.00140784564697435	1.24084942720654E-06	-2.53099988098404E-06	7.99932822538179E-07	2.51057381906561E-06	0.997136460298765	-0.0366017109166021
1.6	0.00247612288277625	0.00178079727593551	-9.29412151852358E-07	-6.41199054864931E-06	3.18556717892373E-06	-4.23942614286659E-06	0.997018804413047	-0.0400985696475289
1.7	0.00290842035427207	0.00173801924753246	3.40299195299602E-06	6.34468453847207E-07	2.23160187964435E-06	3.85103608264336E-06	0.997182587542671	-0.0429035528969195
1.8	0.00316650429396786	0.00177191553506996	-2.37731061333812E-06	2.8947166685657E-06	-1.0117327755924E-06	-3.99540269346041E-06	0.996892466113638	-0.0457568290215254
1.9	0.00334092215093479	0.00157799935753235	-3.72902226028666E-06	-1.7599887515971E-06	5.62452940768191E-06	3.02694613597358E-06	0.996592029285928	-0.0483125681965652
2	0.00300545086068767	0.00159151096618403	-6.16674881554415E-06	-5.74441424468548E-06	-2.07850933191613E-06	9.14128751098652E-06	0.994974954516816	-0.0509499390714508
2.1	0.0032055295633615	0.00205370782954749	1.16528961277207E-06	4.60042912868586E-06	4.47172669398407E-06	3.99018116359677E-06	0.994943397201942	-0.0519041063282178
2.2	0.00350402285107611	0.00205550643152756	6.54341786869327E-07	9.06725711929101E-07	-3.61045030889429E-06	-1.09315588004739E-05	0.995594717806972	-0.0541991843801246
2.3	0.00364608156005094	0.00188604520617094	-2.28823203637779E-06	3.55386840399554E-06	-5.30746683454157E-07	-2.7944918115948E-06	0.995504829395638	-0.0561526706201739
2.4	0.00366481998568934	0.00156703690472506	-1.55339476945436E-06	-1.4569927418605E-06	1.28477207525315E-06	-9.96096213880813E-07	0.995526959959844	-0.0592793495701654
2.5	0.00303889861043473	0.00117058472495408	7.7782984693795E-06	4.07184595695983E-06	-2.33412190653598E-06	-7.22990521829837E-06	0.995167106978803	-0.0613786665177197
2.6	0.00257806323512461	0.00169032700846281	4.83802395996196E-07	2.1180338001751E-06	-1.47377364229717E-06	4.68388098456755E-06	0.995388450401945	-0.0640795523402583
2.7	0.00262246739801381	0.00208152322581231	-7.87252415960396E-06	5.23079890674074E-06	2.5212299713486E-06	9.7233968821952E-06	0.995210970645462	-0.0670815811089129
2.8	0.00290983112554139	0.0024181997319448	-7.75323659145392E-06	7.94485356244599E-06	5.98991435540998E-06	1.99230006998732E-05	0.9954068856918	-0.0690071211067418
2.9	0.00335500231589096	0.00241321710598565	-1.1909993851901E-06	8.58333710526823E-07	-8.11496766631733E-06	-2.97296184881685E-06	0.995265513778162	-0.0710061098609568
3	0.00344609673968875	0.00243945689778455	-6.04478979014609E-07	-4.47418415338886E-06	-2.19342179712926E-06	6.4376344955428E-06	0.995230814756895	-0.0734250262468701
3.1	0.00403298109841128	0.00267868069625978	-2.58879023219705E-06	8.6146744460622E-08	1.10211812943974E-05	-3.51435739013747E-06	0.995040314123225	-0.0753246041908218
3.2	0.00453481864320898	0.00245351483096938	-9.8022222002878E-06	2.53448463538497E-06	1.21565371168516E-05	4.279281118029E-06	0.995003058804082	-0.0770780591765434
3.3	0.00485464356893818	0.00203960934233693	-3.46974161694131E-06	9.28257293563162E-07	-5.01030815423843E-06	-1.50907611405065E-07	0.99500854036898	-0.0802735116645584
3.4	0.00494114087361876	0.0015144466273148	5.34823032271445E-06	4.96209560682152E-07	1.34858876309856E-06	4.49286475118656E-07	0.995309114006963	-0.0822650107235088
3.5	0.0044528959867994	0.00112084005522632	2.76925089386617E-06	1.56302729309279E-06	1.31269092676305E-06	7.94753936320112E-07	0.995342866848315	-0.0855168579899315
3.6	0.00437050136637913	0.00140265774870407	-7.15156135446114E-06	-1.40112561056129E-07	1.86909372584999E-06	-3.49729585432665E-06	0.994882088124574	-0.0880096947905203
3.7	0.00449941106251356	0.00129636598561591	5.78155537710477E-06	-1.5066820084692E-06	-3.23299948907258E-07	-1.73379857937075E-06	0.994837115852943	-0.090692231822876
3.8	0.00459929698799822	0.00111231125836744	-2.00464959301516E-06	8.75164776413411E-07	-5.19746800246935E-06	2.92883074422865E-07	0.994581755226819	-0.0928522134521908
3.9	0.004631567733405	0.000753182154994004	-8.37496281369111E-06	1.77477606060358E-06	-4.11998287394698E-06	-1.50455173447292E-06	0.994414182483029	-0.096325855081925
4	0.00410671417367589	0.000564167430834822	-5.82787059637395E-06	3.63326437016216E-07	-9.49535532225407E-06	-8.46131869296747E-06	0.992978916505301	-0.0974014772434046
4.1	0.00417664619292796	0.0010338345464116	-3.99540688972591E-06	4.06192482412117E-06	-1.8901034313984E-06	5.58161252860336E-06	0.993525243620078	-0.0979210624552994
4.2	0.00452664565277366	0.000974705357957562	4.63164196607934E-06	-4.38265114584754E-06	6.7597448001042E-06	7.65669259511618E-07	0.993894586081397	-0.100657090146671
4.3	0.00476161970347423	0.000707230291473207	-3.80228585583973E-06	1.1231372144978E-06	3.55504320470937E-06	-1.20282101896562E-06	0.994172875396328	-0.102958240791624
4.4	0.00477584907983533	0.000184014781794808	-3.14535498108391E-06	-4.94612550663658E-06	9.32740444303138E-07	-1.03623581258518E-06	0.993911619358887	-0.10542174118935
4.5	0.00401938321590502	-0.000184568218822028	-1.39781904776927E-06	2.03114768011115E-06	2.1640921647354E-06	-8.48468118185654E-06	0.994192279285341	-0.10728125102125
4.6	0.00364450331790278	0.000259870330625746	5.39355219505723E-06	9.62894469164106E-06	-1.42538278830245E-05	9.81593585098404E-06	0.994867368350549	-0.110470325641419
4.7	0.00360201618840263	0.000413030390482885	-7.60007709198799E-06	-9.59868564903446E-06	-1.14810775708962E-06	-1.36820943564718E-07	0.995034610033255	-0.113141913929079
4.8	0.00358554445135246	0.000546469829212429	-8.76493725637947E-06	-2.70583346900498E-06	-4.39725018764759E-06	4.55089212070184E-06	0.994663815169537	-0.116126931926348
4.9	0.00371880343355826	0.00048934690964033	5.77968803785297E-06	8.34678597537699E-06	-7.28064784659988E-06	3.28106975026968E-06	0.994268371720585	-0.118253838587397
5	0.00348836639295428	0.000447721670590648	4.30279056666178E-06	-8.56741741751619E-06	-4.30062157189188E-06	-6.20557553427047E-06	0.99419911139324	-0.119996623916131
5.1	0.00403744548262864	0.000793433919819631	1.52785175311161E-05	-1.0272532978398E-05	3.506079108773E-06	-8.75315587387588E-06	0.994421810539607	-0.121637033562249
5.2	0.00466482850975145	0.000355227872806279	-4.24450183525292E-06	-4.73398828557808E-06	-3.17457962803711E-06	5.24065131335601E-07	0.994178321413777	-0.124252286753885
5.3	0.00493768307821226	-0.000321553976508926	4.79018627292727E-06	3.38800306138938E-06	-9.32254405809035E-06	-4.76701179907111E-06	0.993886586037322	-0.126724582829139
5.4	0.00478236470040058	-0.00112679389464856	5.19626772609905E-06	1.20874525458862E-06	-4.85929561805999E-07	1.04903544877326E-05	0.994064891919979	-0.129617399563692
5.5	0.00372760320392415	-0.00132894347977048	-1.81885516697858E-06	-1.98939601346906E-06	8.91710250580021E-06	5.13966148566424E-07	0.993916474653744	-0.132997843226463
5.6	0.00367263076929726	-0.000706109802328819	4.26177641625435E-06	7.25308147411339E-06	-4.68498442927203E-07	-8.64266537160074E-06	0.99352178363679	-0.135636688160363
5.7	0.00375998907091971	-0.000722901654872599	2.06221860471417E-06	-7.25043530004678E-07	5.49075965308642E-06	2.46091347648054E-06	0.993412902755893	-0.138473905733505
5.8	0.00369898278466612	-0.000836041408425038	3.92684422773224E-06	1.96480032488113E-06	2.74687883795841E-06	7.8587398577546E-06	0.993214400709828	-0.141213085505717
5.9	0.00356942126728796	-0.00117297777432488	-3.79836755917977E-06	-3.0616318364415E-06	-4.7158735034265E-06	-1.77912699712773E-06	0.99235024323486	-0.144283531416382
6	0.00240365465773979	-0.00163304965305497	-2.07873913387663E-06	1.70895556737619E-06	1.04467162663225E-05	-2.67462580966242E-06	0.990032403606154	-0.145473941880525
6.1	0.00163874707820957	-0.000779753917479257	-7.34293965414467E-06	-1.10725891019699E-06	-7.26635616066628E-07	-2.48890190983754E-06	0.990696310489615	-0.145102179088275
6.2	0.00143421012865532	-0.000399107295800062	-1.06391677831605E-06	1.99400902494583E-06	-3.49244739708811E-06	-5.37500920925196E-06	0.991164566648668	-0.14668141309921
6.3	0.00134633094167967	-0.000247190631957674	1.58257003923462E-06	2.83634678836406E-06	1.15264687932748E-06	5.9857323496372E-06	0.991034354314533	-0.149102620593082
6.4	0.00114670570339552	-0.000509726567458183	2.07611225669801E-06	5.04519502600792E-06	-3.33805837753015E-07	2.27904971110745E-07	0.990281139703356	-0.151652623017746
6.5	0.000308238409120087	-0.000265209654855434	4.67972937780874E-06	-1.88071924694505E-06	-4.70008738652442E-06	-1.55415133693343E-06	0.990102831855938	-0.153456962785441
6.6	0.00064749844955414	0.000396740586954641	3.26750464525134E-07	-1.07268440697741E-06	9.32902721825979E-06	3.34723522326304E-06	0.991209078942504	-0.156943730917055
6.7	0.000870172126855948	0.000404787658545619	5.35462650663188E-07	5.63116372128549E-06	-1.79209717012563E-06	4.99218400601066E-06	0.990759315108604	-0.160497215397495
6.8	0.000902819561942617	0.000445824236170948	1.74550321804788E-07	-1.59204001730359E-06	-3.49458765412416E-06	-5.13299636411226E-06	0.989859940636693	-0.163450955876766
6.9	0.000763171450876156	0.00025689117662688	-6.65517596937107E-06	6.75009673940654E-06	2.29686060005089E-06	1.35485943925679E-06	0.988944551866878	-0.166129738562632
7	-0.000338341770643646	0.000620596186648492	8.10840160490242E-06	3.15951883029671E-06	4.59152520304657E-06	5.87180529967918E-06	0.987307155243792	-0.167737074229908
7.1	-0.00020997484276955	0.00197744344571522	1.40082935455142E-06	7.83239250327833E-07	-2.28617437542336E-06	-4.48374617345522E-06	0.987166892491114	-0.168865790116542
7.2	0.000271331764892286	0.00246768715492169	-1.29427543681596E-07	4.40840965324286E-06	-5.02415496595746E-06	-6.52221604152592E-07	0.986787608055099	-0.170949411174694
7.3	0.000601126379167287	0.00271487822034949	1.34771020803056E-06	-5.27861474595136E-06	-2.35788775912143E-06	-2.79285169247946E-06	0.985938564627742	-0.173062948475438
7.4	0.000830664694384156	0.00247352582555409	1.84948015327408E-06	4.43209061892693E-06	-7.31875285743043E-07	-1.07143124434855E-06	0.985473422483527	-0.176128089007972
7.5	-0.000198748811229915	0.0019968707578845	-5.76639711333727E-06	-1.47735948287567E-06	-1.61338777912518E-06	-8.92644093397259E-06	0.983467930474899	-0.180504707871152
7.6	-0.000749362086431277	0.00296709362651073	5.62550920500518E-06	-3.41585879969086E-06	1.03689005763938E-06	3.1944872527707E-06	0.981248505238731	-0.182632811531976
7.7	-0.000880465727721714	0.00336810141546191	-6.52984195835157E-06	-2.84411387693001E-06	4.40891381859146E-06	5.66705750564262E-06	0.98063331577036	-0.185485983962971
7.8	-0.000859464727682562	0.00358008300296244	-1.10874328612084E-06	-5.36324981022714E-06	-2.08870467540449E-07	1.146921568021E-06	0.980144080034229	-0.188731736485341
7.9	-0.000898961803800983	0.00354337078877176	-3.31614209226939E-06	7.23965397252553E-06	4.36957571623322E-07	-6.89456418046718E-06	0.97933611826501	-0.19244001834663
8	-0.00152716393595091	0.00431952155048351	-1.93041668075345E-07	7.38424204521705E-06	1.74733828526294E-06	-4.46603041514156E-06	0.976656710333396	-0.19461759658658
8.1	-0.000552964332747624	0.00541044816273728	-7.64809722468185E-07	-6.45975289519338E-06	-1.75163425495497E-06	-1.05549374355735E-06	0.976883486039709	-0.195455032691444
8.2	0.000348863224742889	0.0056040850877631	-3.81838914767014E-06	1.66595142560757E-06	-1.09734280365677E-05	-2.5710731397074E-06	0.977159397165477	-0.197892290257832
8.3	0.00103914261404014	0.0056079013552495	-5.58012709566403E-06	-9.83048162476806E-06	-7.768865138559E-06	3.04697882706448E-06	0.976579573073185	-0.200724419662681
8.4	0.00147303805761409	0.0053214989531806	6.74169139065124E-07	-6.11650321381749E-07	-1.41296942101468E-06	4.44811139892226E-07	0.975601858180874	-0.203422529310669
8.5	0.00078176710650262	0.00547984788828535	-1.75220163000603E-06	-2.52059290846548E-07	-2.84201015475712E-09	1.80264766470403E-06	0.974715673075381	-0.20579951595143
8.6	0.00131431698551594	0.0068051033572608	2.41147896034895E-06	-3.9795736417222E-06	-4.58390720943211E-06	-5.90282184761125E-06	0.974436438093516	-0.208512976541516
8.7	0.00236453816543274	0.00726523865529466	-1.50552763546627E-06	-2.08603458145559E-06	-3.53941058927164E-06	3.64815141418352E-06	0.973776824049349	-0.211288994567209
8.8	0.00345571719930047	0.0073791876307422	-5.49643702340315E-06	-2.09508251309889E-06	-7.22645414309181E-06	-1.23801986803271E-06	0.973043239407306	-0.213628657543588
8.9	0.00456679125374433	0.00681531088405263	8.55229277949047E-06	4.05526453606847E-06	-1.40232443511781E-06	3.19793252208818E-06	0.972755234603631	-0.2156407567451
9	0.00463089686139406	0.00609746642089954	-4.84497412799492E-07	4.15412530351026E-06	-7.79747596648811E-06	1.25410431106935E-06	0.972293422005014	-0.218072688193838
9.1	0.00531393222775023	0.0060881353308	-2.5247335819886E-06	6.62733586062346E-06	4.08236793430467E-06	-3.08872323790299E-06	0.971524239220611	-0.220173505277468
9.2	0.00594914044426302	0.00541507453223087	-1.16157410197314E-06	3.41776519939112E-06	-2.24571514319299E-06	-2.04401332736304E-06	0.970753733132635	-0.222473063043823
9.3	0.00624897198224521	0.00475314122923652	2.30665206230106E-06	-4.03503836279787E-06	-7.95669093894599E-07	-1.77312292167985E-06	0.970220637434911	-0.22471153039206
9.4	0.00630135944714349	0.00396888497074724	-1.78532044987514E-06	3.89019151227317E-06	-2.07134004978256E-06	-3.56536813199897E-06	0.969788594284301	-0.227592758017912
9.5	0.00556919329806389	0.00405016114386671	3.50784004542581E-06	6.27058686705706E-06	3.59013602420704E-07	-2.14656700941316E-06	0.968495989417155	-0.230985973802907
9.6	0.00614470767659179	0.00469849405854413	4.63147301537713E-06	7.04137011642237E-06	-8.16327347598054E-06	1.27930558287094E-05	0.967169209117075	-0.233424910503993
9.7	0.00681646667940869	0.00457636905432151	-2.87758089546161E-06	-1.52017943432348E-06	-1.39427959580855E-06	-3.95425422482354E-06	0.966472550837769	-0.235651524611238
9.8	0.00736164143524218	0.00426808903030848	1.19116685693951E-07	-3.58525277251165E-06	3.04293637289504E-06	2.38380007314286E-06	0.966131942959446	-0.237708390521502
9.9	0.00774822271823895	0.0036408323840518	5.77741493509002E-06	-6.31058566493043E-07	-2.53734915676388E-06	6.71236511590592E-06	0.965245454591223	-0.240087851326273
10	0.00704577322216329	0.00334081467467117	-1.13716934139722E-06	-5.72887539791879E-07	1.35406395838776E-06	-1.18400889741249E-06	0.962898834711931	-0.240823863534018
10.1	0.00751163650994312	0.00407744965923461	7.00269784463325E-07	-8.37987281083049E-06	6.13085654666108E-06	3.58328866106962E-06	0.963257855488755	-0.24079743108472
10.2	0.00844323232607101	0.00395054346871713	7.4703504345807E-06	8.27634138222611E-06	5.20558389383704E-06	3.51025634439466E-06	0.963386406227361	-0.242136567738152
10.3	0.00929761846225437	0.00336539534325426	1.74313548243658E-06	-6.92634688155314E-06	1.42177192298613E-06	2.85366313514684E-06	0.962878838414533	-0.243837513163669
10.4	0.00986683850917166	0.00217396171312169	-4.00720382782447E-06	-3.62042284911874E-06	1.9431862475526E-06	-5.56859920380067E-06	0.961995866507776	-0.245610015975166
10.5	0.00921474920493571	0.00139460932201729	3.80568572380169E-07	-7.03552671900846E-06	-5.70963151674876E-06	4.04854206557835E-06	0.961707567221929	-0.247153792530913
10.6	0.00946490684543642	0.00145261060798243	5.46674160871905E-06	6.71544994193178E-06	2.42490622576521E-06	1.1912198263753E-06	0.96176940890473	-0.25005116316158
10.7	0.00971881055262612	0.00114186614837671	-7.050419245523E-06	-1.68605611857332E-06	-7.70848888338561E-07	1.55357302919693E-06	0.960764358641704	-0.253095944316364
10.8	0.010292789428393	0.000795450060570356	1.47887009206066E-06	4.42688021180928E-06	9.38119609883867E-06	-4.4477383421405E-06	0.960070340657262	-0.254884895540566
10.9	0.0107414500430876	-2.46352668443422E-05	3.17404264117209E-07	7.39228937469674E-06	-5.14333650868687E-06	2.02396733549814E-07	0.959767263887409	-0.256690874810087
11	0.0102971851297704	-0.000518221520333408	-2.21300305289607E-06	-3.81508638733974E-06	1.20048400826092E-05	-3.52870289724261E-06	0.959067208038997	-0.258509942045073
11.1	0.0110881940424552	-0.000345357410579933	-6.09047317060202E-06	-4.92620034158659E-06	9.39429771816927E-07	5.56089808185107E-06	0.958110998422633	-0.259916698849994
11.2	0.0120949517906653	-0.00121298421994649	3.29664142154086E-06	4.29739074678796E-06	1.07440073601211E-06	-7.8512953124526E-06	0.957163026368247	-0.261237044876395
11.3	0.0129254739753508	-0.00265739587597967	7.16909593635459E-07	-2.64886185817678E-06	-4.84826473606378E-06	9.07908713080945E-06	0.956770969159403	-0.262557097160679
11.4	0.0132248860506523	-0.00464476707755804	1.48027550907793E-06	-2.19420027225555E-06	-2.98375898298066E-06	-7.43163378047698E-06	0.956476078905594	-0.264771090792878
11.5	0.0121876102765024	-0.00623396688201307	9.4847512732682E-07	-1.00650322143611E-06	-8.98868959687126E-07	-8.71890035092025E-07	0.955069169790468	-0.268000867484159
11.6	0.012101648148482	-0.00708086686976972	1.1209955357129E-05	-3.24385864694147E-06	-5.39611258488472E-06	-6.82980933951616E-06	0.953567153992694	-0.270501170450659
11.7	0.01198142623087	-0.00878242279824252	5.32422329168738E-06	-2.87749521351986E-06	-4.40604024107077E-06	1.63718701467776E-06	0.952854576395238	-0.273329637659167
11.8	0.0114018014587299	-0.0107041621630079	-4.43094761046509E-07	-2.5446109735424E-06	1.02471207334411E-06	1.32426970715277E-05	0.952498276534505	-0.276634402676464
11.9	0.0101944760563735	-0.0129244225429039	3.31367573664816E-06	1.99386003709204E-06	-4.57344945071035E-08	1.27112455128851E-05	0.952350705902132	-0.279778797939994
12	0.00739578953868083	-0.0140539326865337	1.9953612902902E-06	4.88414935350002E-07	-3.68331202763629E-06	-9.78128398906691E-07	0.950475406277299	-0.281681958654565
