# GHZ S RI R 50
0.2	0.000205855908847397	0.00257913521936254	6.32051051036382E-06	-9.97235684301898E-07	1.066999956048E-05	1.05382980181968E-05	1.00136026026464	-0.00611824883759151
0.3	0.000974245495041275	0.00261719519957052	5.82336914459431E-06	5.05818330338173E-06	8.11159110096774E-06	2.97281891480242E-06	1.00161558950322	-0.00907386938065787
0.4	0.00149085182530073	0.00299735825111642	-2.72539073743157E-06	7.8931739376233E-06	-4.78376293018047E-07	-4.44597410295927E-06	1.00246180957289	-0.0117375801041677
0.5	0.00293572818665572	0.00281195284865988	2.31605089387422E-06	1.4822031496562E-06	7.53368888317225E-06	-1.06068674968837E-06	1.00296095153496	-0.0165352735737394
0.6	0.00251727027488426	0.00167760625607593	3.21961660864136E-07	3.5475403955758E-06	2.75975918995567E-07	-7.67750129697548E-06	1.00137490829572	-0.0195930475473515
0.7	0.00195341340389093	0.00200310667899733	4.17866267565489E-06	5.08900182843521E-07	-3.90699239710955E-06	-6.54870709359829E-09	1.00107686939127	-0.0216969789139388
0.8	0.00180337833846869	0.00241650563374245	-2.90104588618503E-06	2.97339190989863E-06	-6.84856087842172E-06	1.31998101089805E-06	1.00121040112934	-0.0235025871307318
0.9	0.00142715764353614	0.0031510836450469	6.06442144700825E-06	9.07000664979839E-07	-7.37478153231499E-06	-1.84549184721781E-06	1.00141809310541	-0.0253160253597848
1	0.0025865692191559	0.00474025575431265	2.37461336144413E-06	2.95939913075825E-06	-9.09370289313732E-06	-2.57353912861905E-07	1.00303209286257	-0.0266062224878716
1.1	0.00374691147163917	0.00333231411282189	6.47033221422151E-07	3.50625132059611E-08	-5.32472204239651E-06	1.41545535180554E-06	1.00291930830179	-0.0307668095219047
1.2	0.00313579403261124	0.00244573074291719	-5.32181861323682E-06	-3.29755851837429E-06	-1.12506619314356E-05	-1.26995504781109E-05	1.00141345727247	-0.0324869380895398
1.3	0.00244231786170436	0.00141295493524456	3.06846430288601E-06	3.10972690363962E-06	6.97744967171422E-06	-4.11519891921128E-06	1.00061083915209	-0.0344082585729878
1.4	0.00154710548713083	0.000664405657193047	-2.81103534610447E-06	-1.10928269686999E-06	5.73108285682598E-06	4.66586400585474E-08	0.999066717768372	-0.037069294709287
1.5	0.00211359613440562	0.0001822679121875	1.23728631719039E-06	-2.54421013986201E-06	8.1088259734529E-07	2.51718308831175E-06	0.999961764056982	-0.0404695128059501
1.6	0.00110175894495676	-0.000237789676285758	-9.53434866485493E-07	-6.4353641737405E-06	3.18527255912844E-06	-4.26685764803516E-06	0.998895803434807	-0.044167210676762
1.7	0.0010817280137963	0.000870301403327087	3.42069309279037E-06	6.26148565778382E-07	2.25454518584615E-06	3.86133415161189E-06	0.99942689045795	-0.0458322148469156
1.8	0.00148590763750298	0.00173375127381829	-2.37892107802934E-06	2.91632501045997E-06	-1.02981947356414E-06	-4.01093640319091E-06	0.999657259556785	-0.047965114817687
1.9	0.00209295563947245	0.00269254343918518	-3.75121739043455E-06	-1.76000264407715E-06	5.6588608587951E-06	3.02878003083112E-06	1.00010146442103	-0.04856663695578
2	0.00421915347841265	0.00282112817517659	-6.22862862154996E-06	-5.78208519606896E-06	-2.08015847469551E-06	9.22185428154624E-06	1.00426831229491	-0.0510089407733033
2.1	0.00409533575101402	0.0010682018169835	1.20150979283224E-06	4.63362926151134E-06	4.53309967240445E-06	3.99931620093565E-06	1.00359990898624	-0.0579051454463789
2.2	0.00339042589350443	0.000943962917621371	6.64897286747428E-07	9.08955026463703E-07	-3.70715733220055E-06	-1.09861940894113E-05	1.00172429890421	-0.0607648418137781
2.3	0.00284470255747974	0.00100969990120657	-2.27941331664716E-06	3.59249559835051E-06	-5.5295251802609E-07	-2.80925059385151E-06	1.00056079465599	-0.0625115801401008
2.4	0.00213379230979276	0.0016824696183022	-1.57398032229629E-06	-1.45505312178263E-06	1.28578089234797E-06	-1.01184687849874E-06	0.999989001921932	-0.0653490085060973
2.5	0.00311818428974624	0.00293660385814898	7.85359617953957E-06	4.02614728818534E-06	-2.40832042289834E-06	-7.24733886628331E-06	0.999899258486689	-0.0675030137141066
2.6	0.00375117061777956	0.00185905597324647	5.01569569625991E-07	2.12266620431881E-06	-1.44440250234904E-06	4.71319697107709E-06	0.999571580498597	-0.0707376368342312
2.7	0.00351626436962501	0.00155139599089686	-7.87025684634596E-06	5.30970499396376E-06	2.60127450850931E-06	9.74851087311741E-06	0.999397317742891	-0.073949343146885
2.8	0.0033324185251089	0.00149943821867785	-7.7305251055184E-06	8.04183314784698E-06	6.1695371531168E-06	1.99737790372653E-05	0.999370725298267	-0.0766141485403234
2.9	0.00334349312761713	0.00196380849355091	-1.18924510839595E-06	8.72529955510067E-07	-8.17838098974642E-06	-2.91755655234913E-06	0.998584974802706	-0.0790555821246999
3	0.00481734769905468	0.00197404866347438	-6.46091186135406E-07	-4.48316841542106E-06	-2.14336913076164E-06	6.47772365957928E-06	0.998205403123876	-0.0818133311765814
3.1	0.00458115046391908	0.000630066415435854	-2.59725914213431E-06	1.08007020616303E-07	1.10310283681301E-05	-3.61859161747232E-06	0.997274792089283	-0.0845219766727874
3.2	0.00412712450084281	0.000586510898443103	-9.81256411971717E-06	2.63498790553367E-06	1.22387997185398E-05	4.18042369229753E-06	0.996215706777548	-0.0867372608900715
3.3	0.00385410837555666	0.000540261740669468	-3.46909360869079E-06	9.67131096503023E-07	-5.02503414852565E-06	-9.86852762482619E-08	0.994867552481646	-0.0904696772563277
3.4	0.00353143603670528	0.00100097501511381	5.3575412383489E-06	4.3428188302676E-07	1.35470997424209E-06	4.33885286264135E-07	0.992931130210766	-0.0924845554097876
3.5	0.00471133209585792	0.00113154628760759	2.77886445057782E-06	1.5332241050573E-06	1.3177674472932E-06	7.80520230462491E-07	0.992038331759064	-0.0931838458100108
3.6	0.00409566297652998	-0.000330552181139341	-7.14970840978726E-06	-7.76329469781664E-08	1.83776518148484E-06	-3.51210526875691E-06	0.992509578270951	-0.0962839211908048
3.7	0.00296479806496508	-0.000103227645829769	5.76305978864023E-06	-1.5615455546583E-06	-3.39840066190987E-07	-1.72949449372575E-06	0.991209540575188	-0.0992866624254265
3.8	0.00238223972894255	0.000669292293445429	-1.99269836597051E-06	8.93247361805301E-07	-5.18577407046452E-06	3.43125004286689E-07	0.989716163034431	-0.100567704326781
3.9	0.00243676668739197	0.0020426736641121	-8.33961333579518E-06	1.84063341272337E-06	-4.12252156597867E-06	-1.46634133540399E-06	0.989357938156725	-0.101340206069785
4	0.00467208400575137	0.00268893860351805	-5.82810208827341E-06	4.09176831092081E-07	-9.5666605484349E-06	-8.39139607266071E-06	0.993478706280684	-0.102137956342736
4.1	0.00508966732018986	0.000952275422249054	-3.94809190072573E-06	4.10482114406952E-06	-1.8267279255236E-06	5.60023668597354E-06	0.992414247192107	-0.108175464239439
4.2	0.00469295498228531	0.000533302108553305	4.5714717957694E-06	-4.42394905349785E-06	6.75207112245033E-06	6.88188137057623E-07	0.989904818402367	-0.110844331369666
4.3	0.00443570129222444	0.000475197892837971	-3.77798655587578E-06	1.16118342466096E-06	3.5306533481428E-06	-1.23791079725781E-06	0.988972424511893	-0.11252746875222
4.4	0.00421716579958616	0.000977609201214119	-3.19187045919905E-06	-4.89319057151456E-06	9.17643666841142E-07	-1.04351798048039E-06	0.98825489268735	-0.114627546563447
4.5	0.005859302972592	0.00133578012939686	-1.36123803630664E-06	2.03851241342993E-06	2.03315030891091E-06	-8.46430800742131E-06	0.987822059972701	-0.118086411333105
4.6	0.0058181319407147	-0.000691391740037084	5.45410786834121E-06	9.4743253059245E-06	-1.40036329913551E-05	9.8880990421358E-06	0.985005200170296	-0.120797161211952
4.7	0.00494935135235639	-0.00122540627489092	-7.61715387206323E-06	-9.42842100931448E-06	-1.13791476466303E-06	-1.2428075996211E-07	0.983971447704007	-0.121778385598697
4.8	0.00423150009094516	-0.00137050147717743	-8.69922335136325E-06	-2.60162881805905E-06	-4.31263598880357E-06	4.54292915408684E-06	0.982991115271497	-0.12369703537229
4.9	0.00363843779761955	-0.000878204340556696	5.7909062956312E-06	8.20905229520529E-06	-7.17570187184904E-06	3.30938212930001E-06	0.98185556314812	-0.12500880174022
5	0.00491571098103741	-0.000809318897301577	4.17893788590371E-06	-8.49191306021267E-06	-4.29512548789342E-06	-6.09147545516161E-06	0.981054497457745	-0.125994565714799
5.1	0.00410129988529106	-0.0023379040298721	1.50295473239784E-05	-1.02266354684192E-05	3.41391909129113E-06	-8.6619507873256E-06	0.980266321643465	-0.126724666321921
5.2	0.00321110512800074	-0.00199425985673727	-4.21768796905098E-06	-4.65554990919011E-06	-3.13381265266798E-06	5.33952340071566E-07	0.979493657463608	-0.128063490722137
5.3	0.00305565348066432	-0.00145552223853387	4.75051391184907E-06	3.32152575099891E-06	-9.23556970816997E-06	-4.65967006423162E-06	0.978986870674871	-0.129752034369841
5.4	0.00330690957262295	-0.000645664141294492	5.13331507495064E-06	1.16046666435258E-06	-4.14931586303326E-07	1.03512634831436E-05	0.978016993372777	-0.132014648259078
5.5	0.00551039753917353	-0.00110897444532016	-1.79471199259724E-06	-1.95044216265595E-06	8.76971952521598E-06	4.77371073517015E-07	0.977856763620794	-0.132494010034895
5.6	0.00405943702563761	-0.00359460828508447	4.20428784554617E-06	7.14662293894812E-06	-4.66250832210082E-07	-8.51820365008544E-06	0.978423698663838	-0.135429671583337
5.7	0.00202902296324531	-0.00325595980345773	2.03365250701202E-06	-7.15725638491884E-07	5.41607594389357E-06	2.42537634525204E-06	0.977132233049293	-0.137399821963027
5.8	0.000616835154700786	-0.00218910498784861	3.87143426226428E-06	1.94115706054802E-06	2.7027290255544E-06	7.75340027804702E-06	0.976273125279041	-0.137789745793085
5.9	-0.000503885569861887	0.000131945298009065	-3.74045943924351E-06	-3.03755191810574E-06	-4.65126919483267E-06	-1.77418036167439E-06	0.976692574013892	-0.13614625938426
6	0.00190801319255939	0.00306658947745585	-2.07059040958405E-06	1.69295124960688E-06	1.03899688323354E-05	-2.63036411994232E-06	0.983704921424765	-0.136934971179897
6.1	0.00375468246534697	0.00162574818879038	-7.28897030701513E-06	-1.08296302751505E-06	-7.2641414952654E-07	-2.46823805445488E-06	0.983638957198196	-0.143652005256697
6.2	0.00409533706397102	0.000731918942753924	-1.04976429955231E-06	1.9765960715034E-06	-3.46861362634674E-06	-5.31600023680342E-06	0.981974306908705	-0.145648935425649
6.3	0.00394711688606856	-0.000408835786184599	1.56842056180247E-06	2.80550361718739E-06	1.14556605770738E-06	5.92244124762756E-06	0.980979173807948	-0.147701995288265
6.4	0.00324126080182715	-0.000648796988322667	2.05732810751671E-06	4.9970299687623E-06	-3.30603188682729E-07	2.25804307885564E-07	0.980750952869353	-0.149348913562331
6.5	0.00442315317129986	-0.00178077349027531	4.62122536572258E-06	-1.87699119275896E-06	-4.65386059722364E-06	-1.51988834693734E-06	0.980308935137561	-0.155297573674531
6.6	0.00206074876565473	-0.00347155899329587	3.21278252018517E-07	-1.05575458615613E-06	9.18192622715202E-06	3.29162409048576E-06	0.97475510332142	-0.156097604020591
6.7	0.00068467953664655	-0.00260065185299998	5.08399336802999E-07	5.5443916717374E-06	-1.78044621687775E-06	4.90775323864698E-06	0.974176631458108	-0.154848276029688
6.8	-6.56475171287153E-05	-0.00182582087177101	1.80613050482816E-07	-1.56732658444198E-06	-3.4144794699786E-06	-5.07540716189589E-06	0.974327069702371	-0.155089669155122
6.9	-0.000592645402708826	-0.00013227642986208	-6.60869992227338E-06	6.60964283456137E-06	2.25535558561608E-06	1.35177487255534E-06	0.974731935687595	-0.155035591013496
7	0.00223519170462766	0.000494628416162713	7.97671421535316E-06	3.1805931974577E-06	4.48531146774675E-06	5.82976311476218E-06	0.977493074274292	-0.156365412307957
7.1	0.000976166647873404	-0.0021640954587985	1.37670882578995E-06	7.85252906849569E-07	-2.21978822819877E-06	-4.446946172558E-06	0.976224584562606	-0.160272288319998
7.2	-0.00107515756974632	-0.00171447770027513	-1.65504318744954E-07	4.35388269415059E-06	-4.95770196870754E-06	-6.87221185887402E-07	0.974148519919711	-0.161601841456426
7.3	-0.00273219668463277	-0.000681911255981917	1.37374588199854E-06	-5.20123472679022E-06	-2.30548060916804E-06	-2.77692098435737E-06	0.97164656430004	-0.162817126998302
7.4	-0.00462450929603728	0.0016815643572276	1.78467099399251E-06	4.37754752245634E-06	-7.11743294494894E-07	-1.06054683837985E-06	0.967138124670205	-0.162734203789276
7.5	-0.00272109440670259	0.00523751720472096	-5.64017737778145E-06	-1.53758473216375E-06	-1.44983672364008E-06	-8.78980403304706E-06	0.967995589586401	-0.156697091089557
7.6	-0.00175079739283311	0.00436340942602471	5.61069741098557E-06	-3.27515814507036E-06	9.68746654408982E-07	3.17063283958339E-06	0.972777912623237	-0.160359901578807
7.7	-0.00185626755057462	0.0051230231271549	-6.40302348383596E-06	-2.92256306638545E-06	4.25881131638145E-06	5.67534204567362E-06	0.97328960470902	-0.16346027906544
7.8	-0.00120537947862945	0.00566271433765296	-9.95641791890563E-07	-5.32412517823068E-06	-2.28072448276699E-07	1.13018050305653E-06	0.974292206916928	-0.16547873913103
7.9	5.23037850903383E-05	0.00647526450137576	-3.44728144192893E-06	7.09618282540474E-06	5.8775729388087E-07	-6.81909095214859E-06	0.976848766720279	-0.165616832435785
8	0.00343591672759018	0.00505974734520798	-3.76040059198565E-07	7.37378624110094E-06	1.85676513670675E-06	-4.41926433000484E-06	0.985764603341954	-0.169714167625896
8.1	0.00208065247628804	0.0021829265952386	-6.43290232151232E-07	-6.48927087259E-06	-1.73553597113456E-06	-1.09136223917613E-06	0.984748873799163	-0.179992625579434
8.2	0.000943398237934691	0.00242336347044714	-3.85615912394451E-06	1.60184470076752E-06	-1.09515045434281E-05	-2.77117229119398E-06	0.982531977591189	-0.182971085131675
8.3	0.00039141892931601	0.00295305837817114	-5.42738665413235E-06	-9.95930784648669E-06	-7.84699106579838E-06	2.92185355122915E-06	0.981914351872865	-0.18546021700334
8.4	7.98326336057812E-05	0.00459925977525334	6.8735363387702E-07	-6.04240200711792E-07	-1.42740832547317E-06	4.24879607104252E-07	0.98214176097777	-0.188093679421179
8.5	0.00332171556031394	0.00537246966890106	-1.75419286614219E-06	-2.74582471285018E-07	-2.52634461669941E-08	1.80788508560681E-06	0.982332910463826	-0.192732813291367
8.6	0.00278208248847549	0.00251938120504755	2.47947910741995E-06	-3.94708885465005E-06	-4.49612451296349E-06	-5.98615755357057E-06	0.980473167203788	-0.195532766421297
8.7	0.00117673883185864	0.00271896293832823	-1.47498022619849E-06	-2.12138027073132E-06	-3.61870687268124E-06	3.60090572412959E-06	0.98035271213852	-0.197418523199475
8.8	0.000178776135857807	0.00372641684532915	-5.4968732116429E-06	-2.2074193072727E-06	-7.25404993668958E-06	-1.3752944758103E-06	0.980608596040742	-0.199394239970939
8.9	-0.000398923746108547	0.00594320427388777	8.56866847088057E-06	4.23501980819416E-06	-1.4684334883285E-06	3.20592837153514E-06	0.9813145272337	-0.201098241497087
9	0.00282008544427294	0.00807728336702071	-5.49450768338811E-07	4.18433160505654E-06	-7.8857389762537E-06	1.15159724997855E-06	0.982402594591461	-0.202707407336509
9.1	0.00411939239722994	0.0066375644376231	-2.65752842425245E-06	6.66018953414993E-06	4.17620621633246E-06	-3.05798315720379E-06	0.984210333253143	-0.205208627643055
9.2	0.0052187845609277	0.00662194753478668	-1.2236863629613E-06	3.44631492188929E-06	-2.24686810398663E-06	-2.10150797596522E-06	0.985398528032753	-0.209218269955249
9.3	0.0066197603209548	0.00590614235294805	2.38149992271119E-06	-4.06169832289464E-06	-7.86248499984622E-07	-1.80498273016581E-06	0.98535379542372	-0.213906402657335
9.4	0.00757181866305299	0.00549981136611676	-1.83907311211401E-06	3.91549489424448E-06	-2.06141626533306E-06	-3.6217337511035E-06	0.983122577112132	-0.217878102817846
9.5	0.0103227844319879	0.00356409437761285	3.45402983460935E-06	6.36304186757224E-06	3.89247623300423E-07	-2.15822239948985E-06	0.983323723797299	-0.218607210473375
9.6	0.00837755621911191	0.000240985632407758	4.58646270719757E-06	7.19088822074007E-06	-8.44211134513399E-06	1.28291186668636E-05	0.984394470982234	-0.224275671501581
9.7	0.00648027685625512	0.000181471010418433	-2.89690378047728E-06	-1.57718041087396E-06	-1.36273519359609E-06	-4.02509012817783E-06	0.982909200783932	-0.228191720918299
9.8	0.00519814485424427	0.000743188683052317	1.64962355745305E-07	-3.63354642280369E-06	3.05578804763034E-06	2.45439398515297E-06	0.981655051540511	-0.230126917770266
9.9	0.00428495436552856	0.00269206663570336	5.87653923918864E-06	-5.57266965396228E-07	-2.67402496542045E-06	6.78019355433194E-06	0.981755297085866	-0.228930608025794
10	0.00729205067874366	0.00404335421588644	-1.15738476553437E-06	-5.99979484145766E-07	1.4002651772957E-06	-1.19607316891486E-06	0.989563802885711	-0.232574463868817
10.1	0.0072768795514169	0.0019387892101523	7.54041860879642E-07	-8.55888447861908E-06	6.2476994608324E-06	3.68941172603119E-06	0.985962617022224	-0.241140849504759
10.2	0.00673517229324879	0.00216013503003219	7.5856415946494E-06	8.46546885118552E-06	5.29425034557017E-06	3.59798805213063E-06	0.982864343620961	-0.242492735638921
10.3	0.00665777725401924	0.00261555919900652	1.80019769749603E-06	-7.05447441395685E-06	1.43966284028999E-06	2.91366243729837E-06	0.981589462897674	-0.243910960950207
10.4	0.00697990417116737	0.00414099731927972	-4.08452226164637E-06	-3.70264005610946E-06	1.99311962055402E-06	-5.68128924183212E-06	0.981444236959527	-0.245810098836764
10.5	0.0107862838213282	0.00459941979704184	3.62272692018267E-07	-7.16572446729581E-06	-5.79964512864621E-06	4.1431803456583E-06	0.980964417424408	-0.251122760469158
10.6	0.0117494430903422	0.00208766648994544	5.55529300425901E-06	6.80690359258542E-06	2.46192749205281E-06	1.2056043080904E-06	0.978197190772346	-0.252978125013547
10.7	0.0126520995043237	0.000837171902429231	-7.16364067961448E-06	-1.71060664183179E-06	-7.82638946505117E-07	1.57865688834271E-06	0.978973089970945	-0.255732031768172
10.8	0.0128323552674799	-0.000966706421102788	1.51049643965152E-06	4.5003752293616E-06	9.53505393791586E-06	-4.53720175751452E-06	0.978841659079078	-0.259740689742339
10.9	0.0123744696887523	-0.0013957873154757	3.50361684078354E-07	7.52299733237938E-06	-5.23434734442944E-06	2.24998492096653E-07	0.978047488431239	-0.26318212747182
11	0.0150878141169114	-0.00256324036789778	-2.26981575621895E-06	-3.86253099671794E-06	1.21738658644377E-05	-3.65331102710035E-06	0.977600830928274	-0.266163009480617
11.1	0.013797374103979	-0.00641349036822674	-6.21445050766634E-06	-4.96997997716343E-06	9.85475822770664E-07	5.64360448990855E-06	0.975736144047386	-0.270007304389878
11.2	0.0120377971993666	-0.00751980946666006	3.38135529407795E-06	4.34171664531131E-06	1.03328105083888E-06	-7.98500184733142E-06	0.973350034395182	-0.273063285832467
11.3	0.0105912976713928	-0.00807907567129982	7.01338215969679E-07	-2.69519361972618E-06	-4.83031618915278E-06	9.26153408425574E-06	0.970169185294529	-0.276023633940395
11.4	0.00932751024213943	-0.00747889013716164	1.47014849697889E-06	-2.23663786795186E-06	-3.10724288607254E-06	-7.47829037366216E-06	0.965192896171653	-0.278096264336499
11.5	0.0115770304840065	-0.00809046142266476	9.49560742867522E-07	-1.02202692228619E-06	-9.1290963142402E-07	-8.73075881555912E-07	0.965792536662609	-0.276079466260424
11.6	0.00962434768759238	-0.0115036695729752	1.13300401843054E-05	-3.37531741367432E-06	-5.52071664000654E-06	-6.87574958575851E-06	0.966383981927029	-0.283035714026975
11.7	0.0071598512692155	-0.0117848349251972	5.36144319494903E-06	-2.97006839515135E-06	-4.4446784323806E-06	1.70435848275257E-06	0.96288102839654	-0.287593241521551
11.8	0.00545298816945816	-0.0110603638832859	-4.76156264239025E-07	-2.56807537867762E-06	1.18249077582915E-06	1.33789711064309E-05	0.959689518816037	-0.289708374676996
11.9	0.005081406447293	-0.00876118950739757	3.36588748880914E-06	1.98915573928972E-06	5.54925221692301E-08	1.28506855444191E-05	0.959456337242527	-0.286816588835864
12	0.00946128885840675	-0.00899770589703579	2.03775096884152E-06	4.79003726497734E-07	-3.76227687657111E-06	-9.62206730003468E-07	0.969121520220258	-0.290827936760317
