# GHZ S RI R 50
0.2	0.000205751841068228	0.00329844964244133	6.31331336006299E-06	-1.00289674812867E-06	1.06706728521882E-05	1.05168475621755E-05	1.00042012470259	-0.0064034864997897
0.3	0.000906340202377261	0.00312582722577386	5.8204600319526E-06	5.04810883085741E-06	8.1045300725472E-06	2.96343391974655E-06	1.00044087197955	-0.00925652575128306
0.4	0.00146425642269765	0.00324772833186437	-2.7175128531744E-06	7.88181592935848E-06	-4.79604954981423E-07	-4.43867481018005E-06	1.00086676068555	-0.011888484030709
0.5	0.00234321125455042	0.00307174430735792	2.31173798301405E-06	1.48096287685362E-06	7.52239818385665E-06	-1.05552022766724E-06	1.00078702656564	-0.0157580066023545
0.6	0.00236572242891936	0.00262554891103055	3.21357032082303E-07	3.54395695724431E-06	2.76294944387577E-07	-7.66967011637662E-06	1.00014340147424	-0.0184436303499244
0.7	0.00233520194325006	0.00276047856859648	4.17270816009501E-06	5.07205310416064E-07	-3.90131770034667E-06	-5.64578807146664E-09	0.99996115109384	-0.0209633856659736
0.8	0.00247197376469717	0.0029279798176066	-2.89488525034513E-06	2.96845259427277E-06	-6.83533468312236E-06	1.31907359193521E-06	0.99999661690237	-0.0229606269995357
0.9	0.00246179026906119	0.00326056490169025	6.05027161841328E-06	9.03736305605784E-07	-7.35771179689835E-06	-1.83976911336713E-06	1.00017628897422	-0.0251099798546079
1	0.0031340271170247	0.00389655163188562	2.36659837904284E-06	2.9519110931484E-06	-9.06757761036259E-06	-2.6036849308609E-07	1.00087652298995	-0.0268394074106888
1.1	0.00364654401736863	0.00334362245485079	6.45476374081679E-07	3.55371900742215E-08	-5.313378017221E-06	1.40752852526267E-06	1.00056684610001	-0.0297843406676603
1.2	0.0035117786388211	0.00289419070689659	-5.30766322019429E-06	-3.29588561941312E-06	-1.12152157980075E-05	-1.26841980841523E-05	0.99975849845546	-0.0309762654691949
1.3	0.00315225789920525	0.00214398493946676	3.05884550570778E-06	3.10912516517838E-06	6.97202677639495E-06	-4.0981713829094E-06	0.999653498681891	-0.0321013068849843
1.4	0.00259166146534313	0.00142025222150182	-2.80572991823859E-06	-1.11386226425795E-06	5.72481584223098E-06	5.83803807812415E-08	0.998992038590951	-0.0341173947972274
1.5	0.00271618935219734	0.000893315830591132	1.24134464386755E-06	-2.53951880588564E-06	8.05109355902792E-07	2.51664265825472E-06	0.999602299594324	-0.0375386473329421
1.6	0.00228301152315338	0.000626905623812774	-9.40128698572818E-07	-6.42896971788381E-06	3.189238994309E-06	-4.25544419245652E-06	0.998725597046032	-0.0410794651834118
1.7	0.00233062102734825	0.000998430195396474	3.41371498327295E-06	6.31417859762342E-07	2.24355984358401E-06	3.85894092469086E-06	0.998973956652002	-0.0434198411483856
1.8	0.00251879313214219	0.0013979088136069	-2.37968298654948E-06	2.90646412298311E-06	-1.02058844058147E-06	-4.0051733741182E-06	0.998856758329543	-0.046048487314623
1.9	0.00285113839370385	0.00179921463312933	-3.74153762765313E-06	-1.76128774062056E-06	5.64378275837831E-06	3.02997745726311E-06	0.998955374876598	-0.0477942033231193
2	0.00377498676820006	0.00180322440670394	-6.20114797505413E-06	-5.76587875663304E-06	-2.07992922017313E-06	9.18636715598673E-06	1.00014671737591	-0.050808336309902
2.1	0.00372326966200833	0.00109099150899335	1.18468746007087E-06	4.61864704414855E-06	4.50490448487216E-06	3.99553123971793E-06	0.99933122434044	-0.054759072438906
2.2	0.00343789561808018	0.00102588204949122	6.60085381901804E-07	9.08018103363362E-07	-3.66282559532991E-06	-1.09620666227601E-05	0.998633549720957	-0.0571764487686482
2.3	0.00315546335718128	0.00101906142843497	-2.28341915071162E-06	3.57518077006478E-06	-5.42972883353861E-07	-2.80265936978316E-06	0.998060131545638	-0.0589480560332329
2.4	0.00277518386085412	0.00132220106000923	-1.56474810455374E-06	-1.45572125021413E-06	1.28517637154796E-06	-1.00480723058587E-06	0.997906354365569	-0.0619828107455902
2.5	0.00307366234859442	0.00182410496594036	7.81845012347663E-06	4.04593930726181E-06	-2.37462007872633E-06	-7.23825165272527E-06	0.997618329981056	-0.0643771912106725
2.6	0.00318833875753572	0.00151769687496012	4.93619556006985E-07	2.12039464887183E-06	-1.45731790263558E-06	4.69969165421829E-06	0.997304266168951	-0.0674212898215607
2.7	0.00308467351932525	0.00156588697324248	-7.86934204384044E-06	5.27509911519606E-06	2.56683209042252E-06	9.73557893776139E-06	0.996912175095974	-0.070557554089628
2.8	0.00314258468275146	0.00176270725428579	-7.73678515007608E-06	7.99898795532564E-06	6.09360554368643E-06	1.99451577495505E-05	0.996850613190452	-0.0728027018322035
2.9	0.00346386558440377	0.00204596130679477	-1.18943316348544E-06	8.66332229586171E-07	-8.14878927126145E-06	-2.93892839922872E-06	0.996424574209998	-0.0750144416052205
3	0.00438190418252503	0.00197609182476638	-6.28645447028606E-07	-4.47829278740533E-06	-2.16360783946471E-06	6.45942149615509E-06	0.996231726407501	-0.0777538645317113
3.1	0.00457330798049696	0.00131342936953687	-2.59323405123919E-06	9.93035219687375E-08	1.10243003243867E-05	-3.57629817714529E-06	0.995569118580308	-0.0800414529391037
3.2	0.00460845660329333	0.00107839723908401	-9.8059886432232E-06	2.59384614416998E-06	1.22026502799307E-05	4.21922946836824E-06	0.995071575717569	-0.0819283451422819
3.3	0.00459519698676972	0.00078795385912886	-3.46887267000781E-06	9.50896266480718E-07	-5.018227071754E-06	-1.20297675535223E-07	0.994507324913896	-0.0853169977773957
3.4	0.00447583930477535	0.000750683300941711	5.35364728177592E-06	4.60766169532515E-07	1.35211482669882E-06	4.40477120207889E-07	0.993841797233595	-0.0872986955427403
3.5	0.00488234287014099	0.000536186633890146	2.77570653692983E-06	1.54610544307154E-06	1.31605430019225E-06	7.86686933157731E-07	0.993448946271097	-0.0894552687898442
3.6	0.00447846597870021	-0.00013551439231219	-7.15131133727141E-06	-1.02574027371554E-07	1.85048840602945E-06	-3.50661994614309E-06	0.993245087607998	-0.0921257771743769
3.7	0.00391891122256348	-0.000106354737066931	5.77092468127519E-06	-1.53889528345205E-06	-3.33006754180929E-07	-1.73133886642162E-06	0.992691219236662	-0.0947490830688546
3.8	0.00363243158525289	0.000212537587569102	-1.99784648123881E-06	8.85706530977258E-07	-5.19101704971248E-06	3.22037078476387E-07	0.992093257512161	-0.0964467044580826
3.9	0.00371041996640179	0.00077521471519767	-8.35565747476332E-06	1.81394279102446E-06	-4.12223880543754E-06	-1.48229392023815E-06	0.992228154739846	-0.0988510045042694
4	0.0046648102414067	0.000919965582441525	-5.82733468564783E-06	3.91681406833163E-07	-9.53841126342433E-06	-8.41702607200238E-06	0.993492198242098	-0.100677746369149
4.1	0.00486454966555851	0.000198250774084144	-3.96723318431474E-06	4.08594380740693E-06	-1.85305283920441E-06	5.59128372777151E-06	0.992522025847833	-0.104034892354573
4.2	0.00479241388615545	-9.0302692848842E-05	4.59679009035774E-06	-4.40596975147195E-06	6.75480886619645E-06	7.21204399985783E-07	0.991242160745988	-0.106559627287052
4.3	0.00471877143318823	-0.00027588973029746	-3.78809829786852E-06	1.1447342710158E-06	3.54082556142529E-06	-1.22272529319254E-06	0.990822577152238	-0.108443774486451
4.4	0.00459679967805461	-0.000236965083051321	-3.17095807826433E-06	-4.9152164561426E-06	9.24024692317792E-07	-1.04013100551772E-06	0.990249020181771	-0.110705992901608
4.5	0.00511623461931276	-0.000301947701597136	-1.37756329585905E-06	2.0340935963005E-06	2.09297665063721E-06	-8.46962755140744E-06	0.989801552177131	-0.113335743018864
4.6	0.00484723450879541	-0.00116235588883313	5.42248237312022E-06	9.54522540699705E-06	-1.41189175090904E-05	9.84898503810715E-06	0.988483502990457	-0.11585218583415
4.7	0.00431334568548488	-0.00137679656822833	-7.60597757262123E-06	-9.50766691313237E-06	-1.14244265822754E-06	-1.30332258835971E-07	0.987979374740634	-0.117347266414219
4.8	0.00386140538580323	-0.00133551463864365	-8.7275147833735E-06	-2.65134927857775E-06	-4.35205415229177E-06	4.54484325070091E-06	0.987294642537671	-0.119467213708658
4.9	0.00363294945176479	-0.00100260481065667	5.78183335321862E-06	8.27236675502736E-06	-7.22338598559581E-06	3.29333798463783E-06	0.986688859013853	-0.120922079049874
5	0.00423919967129636	-0.00101418178012894	4.24009478809219E-06	-8.52389533627525E-06	-4.29417458057622E-06	-6.14581769798288E-06	0.986426967918271	-0.122292721355109
5.1	0.00408917575435722	-0.00161961145108863	1.51490054414905E-05	-1.02434078591345E-05	3.45965171713264E-06	-8.7034895650945E-06	0.986154437906432	-0.123373973291119
5.2	0.00392781503521861	-0.00167297619183633	-4.22880017274102E-06	-4.69312259271948E-06	-3.15286943038876E-06	5.2847716401726E-07	0.985848365888717	-0.125260945859777
5.3	0.00394738091220369	-0.00168959966284524	4.76764655259505E-06	3.35374949969252E-06	-9.27402338155047E-06	-4.71223538009694E-06	0.985608236638599	-0.127418635576617
5.4	0.00406815465595148	-0.00156521984137924	5.16172436592338E-06	1.18511048514729E-06	-4.52501546850077E-07	1.04150517443199E-05	0.985258462927768	-0.130087825230987
5.5	0.00480713836592218	-0.00197785732195518	-1.80543546711419E-06	-1.9695286632777E-06	8.83930908140148E-06	4.97860115511544E-07	0.984986418188959	-0.132255252446038
5.6	0.00411390064822172	-0.00297591836236882	4.22906815145986E-06	7.19622206287374E-06	-4.65466673895196E-07	-8.57524384602876E-06	0.984727818871628	-0.134798650291225
5.7	0.00316445693076408	-0.00292931181429264	2.04663281143997E-06	-7.19245255828576E-07	5.44865798385935E-06	2.44295034631532E-06	0.984157377782049	-0.136915943119981
5.8	0.00239365942323742	-0.0025139446300227	3.89549650970952E-06	1.95308350935256E-06	2.71971027357284E-06	7.8014018481154E-06	0.983983149723602	-0.138437773453218
5.9	0.00179634558376283	-0.00147799488560965	-3.76615603445224E-06	-3.04916349273937E-06	-4.68023607581453E-06	-1.77728440514789E-06	0.984346565567208	-0.139577119310023
6	0.00260558151588467	-0.000389390225563845	-2.07305609805819E-06	1.69983632863816E-06	1.04106068757657E-05	-2.65117084638224E-06	0.986456105266878	-0.142007438795945
6.1	0.00304107869172101	-0.000890120711937572	-7.30817678251082E-06	-1.09493113889127E-06	-7.25440547269959E-07	-2.4760792623E-06	0.985523065325024	-0.145342091236924
6.2	0.00291695798208488	-0.00119309222467516	-1.05642733818162E-06	1.98304328790486E-06	-3.47548746044505E-06	-5.34138175183392E-06	0.984331418820968	-0.146783935158021
6.3	0.00265440802748604	-0.00155586326632749	1.57314677937352E-06	2.81920921097763E-06	1.14592987591924E-06	5.94964741464468E-06	0.983557539965145	-0.148500696283957
6.4	0.00228284431687361	-0.00160054174231169	2.06377346042773E-06	5.01791133292835E-06	-3.32017721937151E-07	2.26591935147693E-07	0.983204939653337	-0.150222979302847
6.5	0.00262140675401337	-0.00216582070114363	4.64624507044462E-06	-1.87501218430467E-06	-4.67136638755849E-06	-1.53722041713828E-06	0.982600170349727	-0.153748854834121
6.6	0.00157274169123891	-0.00281729246632994	3.24404157171366E-07	-1.0630270080179E-06	9.24478101992326E-06	3.32235664149357E-06	0.980757777825022	-0.155103170515493
6.7	0.000843176674251271	-0.00249120929968689	5.1803401452654E-07	5.58305129350164E-06	-1.78769310034186E-06	4.94440317412377E-06	0.980691016313826	-0.156122007228641
6.8	0.000309863965838093	-0.00201068916157451	1.78401434378024E-07	-1.57804265295797E-06	-3.44798531286665E-06	-5.10142937110722E-06	0.980603159877092	-0.157655604903688
6.9	2.26228356169657E-05	-0.00106689017928012	-6.63038142809501E-06	6.66815964239015E-06	2.27280610454548E-06	1.35369264811596E-06	0.980782245216848	-0.159008830548938
7	0.00103262325500216	-0.000721253347350282	8.03345745454565E-06	3.17502154514976E-06	4.52954428837648E-06	5.85046367252736E-06	0.981389884310708	-0.161042004091307
7.1	0.00041334202041851	-0.00141227353322989	1.38737433594187E-06	7.8478446141518E-07	-2.24840699362471E-06	-4.46431813231784E-06	0.980338591457804	-0.163313821752465
7.2	-0.000446275645862951	-0.00102470135583051	-1.50092928664668E-07	4.37809825087303E-06	-4.98714408480269E-06	-6.72375487063148E-07	0.979254428877198	-0.164632872654352
7.3	-0.00127998911366615	-0.00035172453080243	1.36320872013574E-06	-5.234800871233E-06	-2.32791911268847E-06	-2.78424472760412E-06	0.977924077141638	-0.165869874682743
7.4	-0.00219616823696221	0.000946205108902735	1.81134392388863E-06	4.40264486412049E-06	-7.20173830928079E-07	-1.06572744707623E-06	0.976231717410955	-0.166880868366972
7.5	-0.00158960254780041	0.00255327795043134	-5.69859984504609E-06	-1.5125368102462E-06	-1.52162042068693E-06	-8.85484332189218E-06	0.976911485885725	-0.166717479772596
7.6	-0.00145835367103423	0.00261263719797909	5.61738909401177E-06	-3.33932685890557E-06	9.9983195105884E-07	3.18148049385948E-06	0.978062728985209	-0.170464204707635
7.7	-0.00161844690286509	0.00327369452435465	-6.4601154606666E-06	-2.886167973932E-06	4.32690551320374E-06	5.67065786489564E-06	0.97786288167058	-0.173776286246946
7.8	-0.00126612482325261	0.00385599867573303	-1.04784462524803E-06	-5.34121089668979E-06	-2.19132075590589E-07	1.13771552172727E-06	0.977992326631992	-0.176640968481876
7.9	-0.00036035619187148	0.00438578629288123	-3.38525666784138E-06	7.16339340998866E-06	5.16634712344976E-07	-6.85426353064615E-06	0.978948549576871	-0.179005838745116
8	0.00130533971572534	0.00373766098367261	-2.86292814967025E-07	7.37737706812865E-06	1.80276015608708E-06	-4.44126121555914E-06	0.981449281655832	-0.183066807261968
8.1	0.00110695841061565	0.00273260997833385	-7.00915954887638E-07	-6.47214939901279E-06	-1.74239419509374E-06	-1.07375079743204E-06	0.980178652610991	-0.187855060110407
8.2	0.000970387528217615	0.00275594272610336	-3.83779343400247E-06	1.63139713884121E-06	-1.09595428551553E-05	-2.67738414286952E-06	0.979473615962932	-0.190122836009733
8.3	0.000948923866326367	0.00295546468689315	-5.49894117809896E-06	-9.89909086866018E-06	-7.81048953400687E-06	2.98045706618479E-06	0.979143574841403	-0.19264088345584
8.4	0.00106997428382828	0.00370137084454191	6.81044625870723E-07	-6.0772666477291E-07	-1.42045859970229E-06	4.34329390097424E-07	0.978972966884287	-0.195281990129885
8.5	0.00248271814832574	0.00392238897293435	-1.75258317261402E-06	-2.64674025785124E-07	-1.55049772777969E-08	1.80484133587091E-06	0.978607575054019	-0.198648954444455
8.6	0.00238854620656331	0.00305894715051092	2.45024092252768E-06	-3.96163498318648E-06	-4.53473645027477E-06	-5.95065782221164E-06	0.977901999799233	-0.201168299169102
8.7	0.00202491136026883	0.00325865019446196	-1.48885086532176E-06	-2.10606608831352E-06	-3.58413122822291E-06	3.62261198878531E-06	0.977834090282837	-0.203581158469082
8.8	0.00189070072244193	0.003817688265811	-5.49783348058706E-06	-2.15704176222968E-06	-7.24308813039611E-06	-1.31345508847416E-06	0.977810265281681	-0.205929626099715
8.9	0.00213069894363246	0.00481540048081646	8.56169635331317E-06	4.15337000496598E-06	-1.43839985728268E-06	3.20246834419148E-06	0.978090886327708	-0.208068315018627
9	0.00386654085425487	0.00541059013491377	-5.21049969604217E-07	4.1715003619273E-06	-7.84783007924737E-06	1.19661179639094E-06	0.978312769596162	-0.210359150453759
9.1	0.00478693517666615	0.004632492782497	-2.59705906417397E-06	6.64718358291842E-06	4.13422432840639E-06	-3.07317679048566E-06	0.978568409575272	-0.212792652941486
9.2	0.00549956295977733	0.00420446339339352	-1.19562725179086E-06	3.43311580259888E-06	-2.24611447174488E-06	-2.07543346761083E-06	0.978453905116696	-0.21579186669097
9.3	0.00613998349857748	0.00363436681682882	2.34917614492078E-06	-4.04827000987909E-06	-7.89669711191849E-07	-1.79075222699816E-06	0.978019435362542	-0.218769240659449
9.4	0.006714248146073	0.00328571433892502	-1.81832135116456E-06	3.90339406633687E-06	-2.06341140976107E-06	-3.59867837284502E-06	0.977046539668876	-0.221603223647726
9.5	0.00784802866592257	0.00232059480403535	3.4778961906925E-06	6.32793516457716E-06	3.76955752807966E-07	-2.15444721543005E-06	0.977022174792263	-0.223731601315369
9.6	0.00724418281001034	0.000990223385673548	4.60704657116571E-06	7.12602417001832E-06	-8.32036751240197E-06	1.28152116708009E-05	0.976957810284411	-0.227633390838951
9.7	0.00662027931979372	0.000807930115631906	-2.8878258722999E-06	-1.55260024920184E-06	-1.37563243908491E-06	-3.99389236216505E-06	0.976248956057517	-0.230553282724244
9.8	0.00615886240247482	0.000976631107680894	1.46084086268614E-07	-3.61223024619867E-06	3.04925219589506E-06	2.42441552702908E-06	0.975914490924634	-0.23260220171387
9.9	0.00597734433248155	0.00184189744933618	5.83453499000025E-06	-5.89448432101047E-07	-2.61510424524884E-06	6.75196123575544E-06	0.976028266097001	-0.233688592487109
10	0.00730971327885668	0.00225305691635525	-1.14810181596439E-06	-5.87382955070061E-07	1.37884549920558E-06	-1.190616061251E-06	0.977983222895326	-0.236502880891043
10.1	0.00754094490652945	0.00154621835115682	7.33917396630464E-07	-8.47508506039181E-06	6.19116573572312E-06	3.64357942680249E-06	0.976433735150704	-0.239854769151927
10.2	0.00770587968313793	0.00155613903894056	7.52839735473139E-06	8.3848593371851E-06	5.25202919932179E-06	3.56169458464515E-06	0.975598947915947	-0.241223945769811
10.3	0.00805646396907331	0.00160346585285285	1.77851469311784E-06	-6.9963512817593E-06	1.43012278854933E-06	2.88766568481024E-06	0.975063605935234	-0.243129783021613
10.4	0.00872878651590421	0.0019488847237972	-4.0472449330016E-06	-3.66679136648369E-06	1.97285983113525E-06	-5.62856648537464E-06	0.974553541600933	-0.245565500161093
10.5	0.01060230390233	0.00151275489083869	3.78721958347619E-07	-7.10299587244457E-06	-5.76099154690263E-06	4.09164348744501E-06	0.973437392017642	-0.249116520328124
10.6	0.0112442003725018	4.93207169244074E-05	5.50742562718464E-06	6.77319476929531E-06	2.44396496574657E-06	1.20228700148248E-06	0.972015221151545	-0.251294610852672
10.7	0.0116434857076036	-0.000962854938297914	-7.11133848476343E-06	-1.70665568040609E-06	-7.78915669049444E-07	1.56667358104111E-06	0.971578770546125	-0.254097745496359
10.8	0.0118136145940887	-0.00198805501200282	1.49197133299086E-06	4.46767399294259E-06	9.46778457660454E-06	-4.48756148092916E-06	0.970878968444394	-0.256608556521158
10.9	0.0119105721382648	-0.00252211892921662	3.28057320372953E-07	7.46182803663757E-06	-5.19173854972126E-06	2.09634496382331E-07	0.970405506207524	-0.258925492133971
11	0.0131704513063557	-0.00364220708372062	-2.23967989539009E-06	-3.84428028071772E-06	1.21032670129286E-05	-3.58255455066644E-06	0.970002449705762	-0.260826525453476
11.1	0.0128336862930374	-0.00564195831987354	-6.15679786218389E-06	-4.9560481305038E-06	9.61000641855759E-07	5.60861232607483E-06	0.969401364573322	-0.26301476075813
11.2	0.0122538628799119	-0.00681500252700145	3.34135158667187E-06	4.32403820000777E-06	1.05608099428437E-06	-7.92521162504246E-06	0.968559851976602	-0.265390816579155
11.3	0.0116962561911834	-0.00775185207677544	7.10039748023575E-07	-2.67401328556703E-06	-4.84430798023014E-06	9.17679784901334E-06	0.967514255126658	-0.267913709088702
11.4	0.0111287459955033	-0.00824159537387601	1.47703558292024E-06	-2.21670182689023E-06	-3.04561909032544E-06	-7.46170676602303E-06	0.965538236451861	-0.270651009875086
11.5	0.011631005188093	-0.00938718356276817	9.50007479321762E-07	-1.0156730082273E-06	-9.07151077565148E-07	-8.73397279714573E-07	0.965024350522263	-0.272604559258376
11.6	0.0105568833566182	-0.0113335420165096	1.12764258415062E-05	-3.31774244711258E-06	-5.46585647745181E-06	-6.85492404786054E-06	0.964085748145935	-0.277353393337271
11.7	0.00922767118028208	-0.0122176891289833	5.34457386880667E-06	-2.92764929014468E-06	-4.42711634266083E-06	1.6735589300524E-06	0.962214745255449	-0.281401550941485
11.8	0.00811808728703679	-0.0126044142966931	-4.60941468693145E-07	-2.55782129615617E-06	1.10961560502646E-06	1.33190438592495E-05	0.960479547679691	-0.28492796333184
11.9	0.00767279438555128	-0.0123988925759737	3.34471431285222E-06	1.99140458880463E-06	1.34795843693265E-08	1.2794713751095E-05	0.959812971740714	-0.286351753396802
12	0.00848606146117418	-0.0134832104879582	2.01846562599659E-06	4.81194576522386E-07	-3.72642719594197E-06	-9.65572317072698E-07	0.960950564998963	-0.289864333812869
