# GHZ S RI R 50
0.2	0.000371181595512754	0.00357115359716379	6.30905771593812E-06	-1.00577288296333E-06	1.0670181899288E-05	1.05048192301151E-05	0.999799255578521	-0.00684196144668012
0.3	0.00102600242493094	0.00328736972605078	5.81882730410744E-06	5.04199689062785E-06	8.10038464581689E-06	2.95768758372048E-06	0.999679090750849	-0.00970180183201425
0.4	0.00153753126510454	0.00327288418546996	-2.71248729389316E-06	7.87582704507054E-06	-4.80675200484717E-07	-4.43462734203604E-06	0.99991153187178	-0.0122902935550338
0.5	0.0020794599309863	0.00314375259327576	2.30985368977486E-06	1.47988143460807E-06	7.51649314931478E-06	-1.05439596208506E-06	0.999852118185951	-0.0157314398565735
0.6	0.00223777113381577	0.0030604628660355	3.21852072941428E-07	3.54197688510463E-06	2.74697295368127E-07	-7.66556839978551E-06	0.999765678620074	-0.0186436016497671
0.7	0.00241588315657847	0.00320097823355641	4.16991022723904E-06	5.05374986233159E-07	-3.89853683597517E-06	-4.26874391291438E-09	0.999503438322684	-0.0216221807090876
0.8	0.00270303748058535	0.00332563833202616	-2.89111532620173E-06	2.96693165976886E-06	-6.82867978510029E-06	1.32058862451618E-06	0.999280101344809	-0.023888846826296
0.9	0.00289401699983306	0.00347388023726919	6.04372132258035E-06	9.00125454404033E-07	-7.35006126336182E-06	-1.83452892396554E-06	0.999044992275287	-0.0262545292023351
1	0.00332495609280165	0.00363429709350737	2.36361977463795E-06	2.94704768140633E-06	-9.05406768410297E-06	-2.58257954651127E-07	0.998917487668566	-0.0277335785358517
1.1	0.00347162636939878	0.00335963711821016	6.44533888941387E-07	3.55355872132472E-08	-5.30575179189185E-06	1.40506666477897E-06	0.99866138637167	-0.029777122970229
1.2	0.00338145055859959	0.00304994477218064	-5.29925966196896E-06	-3.2920353132879E-06	-1.11963948792302E-05	-1.2667666738588E-05	0.998223078317329	-0.030667453942974
1.3	0.00303537763118726	0.00240788621426403	3.05339139705472E-06	3.10587319066244E-06	6.9637169260458E-06	-4.0898298750926E-06	0.998554530892933	-0.0316175427630508
1.4	0.00254867718598924	0.00173945804894218	-2.80176614393096E-06	-1.11395614425447E-06	5.71786499216744E-06	6.12489137279001E-08	0.998370224730824	-0.0337512513214109
1.5	0.00246320626736063	0.00138704400883987	1.24138783004854E-06	-2.53608687594306E-06	8.02860175850754E-07	2.51435475866346E-06	0.999142655410504	-0.0372536037381058
1.6	0.00237287360011769	0.00142606342069094	-9.35233132839501E-07	-6.42290913756876E-06	3.18854601525115E-06	-4.24910536952725E-06	0.998619318049618	-0.0410644926989587
1.7	0.00263649502761479	0.00164596111632916	3.40986809311477E-06	6.32963538808205E-07	2.23882970535852E-06	3.8564830731713E-06	0.998710631158121	-0.0437491646213726
1.8	0.00288871790037069	0.00187122791005186	-2.3791594385575E-06	2.90214589934407E-06	-1.01710567509743E-06	-4.00189045605773E-06	0.998399509076971	-0.0465064365735973
1.9	0.00316223779885022	0.00199493987205685	-3.73707872577301E-06	-1.76097808843879E-06	5.63691078179105E-06	3.02913436704521E-06	0.998242449722881	-0.0485075883031111
2	0.00354695209544084	0.00196593506862241	-6.18869717441782E-06	-5.75785496433281E-06	-2.07917033052378E-06	9.1699082078971E-06	0.998441641966253	-0.0512642192435436
2.1	0.00352720344404867	0.00176459209949237	1.17758650162728E-06	4.6115945494353E-06	4.49248800872004E-06	3.99317146496827E-06	0.998015908508378	-0.0541815966337588
2.2	0.00349929728980759	0.00179484709301896	6.57892686116786E-07	9.07476147397809E-07	-3.64298130409193E-06	-1.09499430521023E-05	0.997815485813989	-0.0566491455267352
2.3	0.00344884227828561	0.00173765913525742	-2.28524039703356E-06	3.56695934951086E-06	-5.38273780147535E-07	-2.79949227630643E-06	0.997361140464334	-0.0585589648479415
2.4	0.00328500904022069	0.00174541319872842	-1.560431262905E-06	-1.45629674607889E-06	1.2850920296309E-06	-1.0014840211322E-06	0.997172508268004	-0.061601882645415
2.5	0.00320707001505459	0.00178132264586808	7.80407449027114E-06	4.05605074419406E-06	-2.35961354675092E-06	-7.23577953712197E-06	0.99691068418651	-0.063737105432905
2.6	0.00296539343060308	0.00176270267124216	4.90129493365795E-07	2.11964488105836E-06	-1.46327021098439E-06	4.69424550567571E-06	0.996938035656476	-0.0666832019148711
2.7	0.00283659324210519	0.00200987253126524	-7.87026599733194E-06	5.25947709835201E-06	2.55081976669314E-06	9.73108399029506E-06	0.996669409870228	-0.0698181369890062
2.8	0.00295725898162812	0.00234003077321476	-7.74193933600409E-06	7.97935071894338E-06	6.05672997281084E-06	1.99357863345868E-05	0.996700786831252	-0.0719828225352377
2.9	0.00333378688094375	0.00256146525789371	-1.18984590498561E-06	8.63405766325931E-07	-8.13588570910295E-06	-2.95059898220528E-06	0.996324924585469	-0.0741026396146058
3	0.00389840507249244	0.00255971528593538	-6.2008187527955E-07	-4.47595017325067E-06	-2.17357646866811E-06	6.45050584935208E-06	0.996198759750818	-0.0766261880803715
3.1	0.00421366793467466	0.00236531287113461	-2.59091719930401E-06	9.45744953652958E-08	1.10200866977829E-05	-3.55316045268179E-06	0.995795706412179	-0.0788229986557964
3.2	0.00450121322018377	0.00222177268281201	-9.80155835176041E-06	2.57123533873119E-06	1.21819203820082E-05	4.23997690919723E-06	0.99544158304184	-0.0807390846106959
3.3	0.00469904697576048	0.00191402892197931	-3.46803720518965E-06	9.42111871915088E-07	-5.01358691167862E-06	-1.31704629612926E-07	0.99500098176467	-0.0841052986896152
3.4	0.00472554632350207	0.00166355736405441	5.34963118596719E-06	4.74141077609891E-07	1.35027599751715E-06	4.43682912927431E-07	0.994578042038389	-0.0860338925775827
3.5	0.00477197984854193	0.00133678784388834	2.77209398962238E-06	1.55229384957227E-06	1.31422055128734E-06	7.89618620739988E-07	0.994441136418873	-0.0884380053972274
3.6	0.00446129641529996	0.0010979853768573	-7.1494224436532E-06	-1.17633636039179E-07	1.85745180374245E-06	-3.50189675651447E-06	0.994267525183164	-0.0912294403316962
3.7	0.00425244424797874	0.00113122466507497	5.7734482922257E-06	-1.52564508263278E-06	-3.29052572833836E-07	-1.73180613314621E-06	0.993727216424488	-0.0940119895862295
3.8	0.00422042626654641	0.00121944748650708	-1.99991302990141E-06	8.8118728126141E-07	-5.1918861448783E-06	3.10242498407233E-07	0.993006064027883	-0.09584503181521
3.9	0.00432992310784938	0.00130433104350535	-8.36059392201176E-06	1.79720240839881E-06	-4.11983471201248E-06	-1.49090655579663E-06	0.992771000354752	-0.0984128500715557
4	0.00461484457457618	0.00119042371601501	-5.82594432447944E-06	3.79824787529276E-07	-9.51793275907508E-06	-8.43304875828997E-06	0.99307024936958	-0.0994970094797744
4.1	0.00461531833152489	0.00097923712306131	-3.97734055423196E-06	4.0750290587709E-06	-1.86737993866194E-06	5.5856747415416E-06	0.992966723378721	-0.101683095831451
4.2	0.0046940229799546	0.000872466507108851	4.60944009446138E-06	-4.39509175432873E-06	6.75463086075773E-06	7.39003286162504E-07	0.992450782106374	-0.104324914163188
4.3	0.00477659841155752	0.000681478648180483	-3.79274860484778E-06	1.13556653582176E-06	3.54556289147701E-06	-1.214225437938E-06	0.992354048603276	-0.106395405466318
4.4	0.0047256012467907	0.000460481642361298	-3.15967654381596E-06	-4.92673720877939E-06	9.27384212647058E-07	-1.03828078740575E-06	0.991950008276617	-0.108700524167787
4.5	0.00465963852475641	0.000207538571507352	-1.38550968118781E-06	2.03262919033747E-06	2.12125450141957E-06	-8.47450439547351E-06	0.991979843453652	-0.110983529642599
4.6	0.00420318672724369	-5.19870830008826E-05	5.4104009798109E-06	9.57747083210331E-06	-1.41710156745303E-05	9.83479020619332E-06	0.991632404697702	-0.113911542460793
4.7	0.00385318354454642	1.412783893358E-05	-7.60311444474074E-06	-9.54296573252603E-06	-1.14460119599959E-06	-1.32886968040534E-07	0.99145223044363	-0.116034560862177
4.8	0.00362365799797686	0.000174068454026377	-8.74197029232874E-06	-2.67261904818966E-06	-4.36965008544064E-06	4.54711008132211E-06	0.990863375895045	-0.118648852090437
4.9	0.00360154556634591	0.000372119869933721	5.78129631029395E-06	8.30115994453763E-06	-7.24558266895559E-06	3.28881798581311E-06	0.990193257576483	-0.120456596429348
5	0.00385761417753235	0.000332298621631861	4.2634495303781E-06	-8.54038841325289E-06	-4.29677021557123E-06	-6.16818388610679E-06	0.989886379271697	-0.121833972660619
5.1	0.00397327430708252	0.000226428329345355	1.51969556843353E-05	-1.02533059936775E-05	3.47709604369415E-06	-8.72150323510205E-06	0.989862229787616	-0.123117704515983
5.2	0.00426075877885803	7.98629143887177E-05	-4.23401044738036E-06	-4.70824048985839E-06	-3.16073819031677E-06	5.26589586163451E-07	0.989463303694391	-0.125308221131239
5.3	0.00449153692940849	-0.00026591871657966	4.77504436824022E-06	3.36660384241885E-06	-9.29035817820476E-06	-4.73306093971238E-06	0.989057089700422	-0.127459125361471
5.4	0.00451326869538493	-0.000642541760115882	5.17343050045965E-06	1.19486751321823E-06	-4.67212807205835E-07	1.04411940537694E-05	0.988858961634071	-0.129953284413817
5.5	0.00437948924137698	-0.0010603268474709	-1.8094605733479E-06	-1.97753542805824E-06	8.86737853383937E-06	5.07550086584033E-07	0.988904720603179	-0.132289476639477
5.6	0.00379374179246239	-0.00124193285814012	4.23889938710101E-06	7.22008795335525E-06	-4.63176895596641E-07	-8.60170163029755E-06	0.988890041889829	-0.135047045222104
5.7	0.00334435946317438	-0.00105873962417073	2.05304753533439E-06	-7.20885568250477E-07	5.46457196496983E-06	2.45183293921002E-06	0.988437915484506	-0.137627938438122
5.8	0.00300720770919268	-0.000816918435856957	3.90733539880133E-06	1.95882167125956E-06	2.7282366308112E-06	7.82484260390172E-06	0.988059074925531	-0.139633964086402
5.9	0.00273523508876336	-0.000423359299573973	-3.77783992385743E-06	-3.05495642338148E-06	-4.69357256050396E-06	-1.7791995556206E-06	0.987656313970543	-0.141270340419672
6	0.00274002898883681	-0.00016088438472	-2.07558992198579E-06	1.7026429559109E-06	1.04245688713245E-05	-2.65705741437615E-06	0.988139490958481	-0.142576694125012
6.1	0.0025071293271987	-0.000143805782057504	-7.32006461252826E-06	-1.10213237983033E-06	-7.24903333477157E-07	-2.48090228396098E-06	0.988315228530029	-0.144223282049764
6.2	0.00231745603854634	-9.40267769584461E-05	-1.06001081024227E-06	1.98647313044597E-06	-3.47909105147095E-06	-5.35498078897426E-06	0.988185940714212	-0.145750919484416
6.3	0.00214523099344089	-0.000233595672630302	1.57510886924919E-06	2.82618863945047E-06	1.14532260044138E-06	5.96324037119802E-06	0.987918541110937	-0.147965908514153
6.4	0.0018238790708854	-0.000400556171108161	2.06530532053912E-06	5.02921090226912E-06	-3.32813189354609E-07	2.26876382483808E-07	0.987468164746246	-0.15020924630406
6.5	0.00153466060616263	-0.000630595934900281	4.66055416053147E-06	-1.87402327634183E-06	-4.68146869874788E-06	-1.54702569701862E-06	0.987134597338524	-0.153255296389475
6.6	0.000986687955436783	-0.000495422812060738	3.26237331422339E-07	-1.06670699536959E-06	9.2764783528795E-06	3.34012738321858E-06	0.98638499349812	-0.155704020506089
6.7	0.000803911830197261	-0.00016825472889915	5.20495280076948E-07	5.60440882652666E-06	-1.79412482601569E-06	4.96350892527878E-06	0.986037237662522	-0.157878706356207
6.8	0.000634031123042139	0.000115786115962231	1.78144512887254E-07	-1.58425171133879E-06	-3.46437876516888E-06	-5.11908706607182E-06	0.985457415357205	-0.160074448553553
6.9	0.000463544618708756	0.000494136998008242	-6.64792080649979E-06	6.70084656365996E-06	2.28292475771995E-06	1.35624524459854E-06	0.984963136913767	-0.161940434908546
7	0.000468323783332556	0.000726089193446157	8.06515147921158E-06	3.17338843645755E-06	4.55360409472675E-06	5.86311539780507E-06	0.98461235198907	-0.16356778143792
7.1	-2.52415040694525E-05	0.00108764215294439	1.39265687705822E-06	7.85213030346698E-07	-2.26143004438733E-06	-4.47464429527332E-06	0.984073645507209	-0.165399823084111
7.2	-0.000198182809759629	0.00175201212609961	-1.45033548477474E-07	4.39176806740034E-06	-5.00334789078553E-06	-6.68156147117804E-07	0.983274807189057	-0.167191634488557
7.3	-0.00029542270899246	0.00231801960164794	1.36173452780108E-06	-5.25403516892609E-06	-2.33899869011038E-06	-2.79093407755289E-06	0.982004510485909	-0.168978832870369
7.4	-0.000458420457155425	0.00284412818196472	1.82438188074952E-06	4.41895857754836E-06	-7.24516156859069E-07	-1.06933024107756E-06	0.980464460177066	-0.17096138602745
7.5	-0.000451075139789981	0.00325216076609811	-5.7299523831143E-06	-1.5046113405396E-06	-1.55250071112716E-06	-8.89324831359419E-06	0.979739684654937	-0.17231064372801
7.6	-0.000772992032745742	0.00352282465699125	5.62964550340974E-06	-3.37058826981926E-06	1.01392105785178E-06	3.19123333486185E-06	0.979573370606585	-0.175285347742042
7.7	-0.000983626503988009	0.0040351891763467	-6.49497711849912E-06	-2.87604759446618E-06	4.3626480764458E-06	5.67851214666054E-06	0.979191542939418	-0.178270390384351
7.8	-0.000859719974705341	0.00437625896361385	-1.0718589834147E-06	-5.35727963620127E-06	-2.15673951059068E-07	1.14280192408435E-06	0.979128781510122	-0.181167711961297
7.9	-0.000536179534823565	0.00459825566369671	-3.36275546217033E-06	7.20235439416389E-06	4.86303804109145E-07	-6.87883231214167E-06	0.979472914667232	-0.183905828145405
8	-0.000160652908775798	0.00461439707413876	-2.4806837485512E-07	7.38864820457852E-06	1.78190848228582E-06	-4.45657802440732E-06	0.980255950105983	-0.187210985906955
8.1	-5.90311454669216E-05	0.00490913875368285	-7.29630435946138E-07	-6.47167756160113E-06	-1.74781309433113E-06	-1.06652902532053E-06	0.979593410137512	-0.190696605562664
8.2	0.000406489704509004	0.00530143715876287	-3.83117397010529E-06	1.64732902370044E-06	-1.09709890914496E-05	-2.63213531214532E-06	0.979230158593651	-0.193108802916644
8.3	0.000899338935520672	0.00550970839166255	-5.53579476090403E-06	-9.87320896356612E-06	-7.79544026038043E-06	3.01010218108821E-06	0.978786971404078	-0.19582689755626
8.4	0.00130904070430747	0.00575009698865923	6.78406895810814E-07	-6.09594418864923E-07	-1.41783230748638E-06	4.38886347696E-07	0.978281373696469	-0.198582977655081
8.5	0.0017735098060569	0.00579599317309446	-1.753258926062E-06	-2.5934690818295E-07	-1.00374793791818E-08	1.80475866927683E-06	0.977660332367037	-0.201714831258396
8.6	0.00177080892122558	0.00604366386741471	2.43418254792086E-06	-3.97144501583233E-06	-4.55867435885541E-06	-5.93220635134494E-06	0.976956721454563	-0.20439929610672
8.7	0.00216783167296596	0.00659822897034272	-1.49707584806253E-06	-2.09792846557666E-06	-3.5654639359527E-06	3.63580852719999E-06	0.976517381344091	-0.206969905027186
8.8	0.00285684480644295	0.00702543993181379	-5.49948221274573E-06	-2.12929030737587E-06	-7.23841897671837E-06	-1.27911990193345E-06	0.976100499557521	-0.209290926749072
8.9	0.00376612130178803	0.00718229579425158	8.56068145012753E-06	4.10812892775396E-06	-1.42172760886921E-06	3.20160152381651E-06	0.976117603078576	-0.211330831457621
9	0.00482690651585615	0.00685977396624369	-5.03439196841221E-07	4.16359060816858E-06	-7.82440828465984E-06	1.22454839283713E-06	0.976123089538398	-0.213717538805489
9.1	0.00547292167833136	0.00630542613088717	-2.56384962317988E-06	6.63813281453687E-06	4.11043759150076E-06	-3.08035353025814E-06	0.975983900679476	-0.216137351404439
9.2	0.00610196731652743	0.0057100922576463	-1.18001654455887E-06	3.42647814348146E-06	-2.2462394399759E-06	-2.0611639604218E-06	0.97560904016551	-0.219017053393087
9.3	0.00649334509230182	0.00500562617602339	2.32971732090551E-06	-4.04306146539795E-06	-7.92700976065555E-07	-1.78289350426635E-06	0.975063844127311	-0.221895542589913
9.4	0.00667210223696835	0.00438814011748546	-1.80315801225943E-06	3.89809903039708E-06	-2.06766169602202E-06	-3.58380113450375E-06	0.974134971469129	-0.224897413351784
9.5	0.00669975690594379	0.00389688799298084	3.49152140114606E-06	6.30453117353316E-06	3.69301451982377E-07	-2.15149748585446E-06	0.973515871341518	-0.227536597968359
9.6	0.00638650464090797	0.0037771830977835	4.62162536066353E-06	7.09314200519995E-06	-8.25560110722087E-06	1.28149718219259E-05	0.972770799493534	-0.231013269789097
9.7	0.00645185498008342	0.00392010662073375	-2.88602961735006E-06	-1.5384900161524E-06	-1.38626784728805E-06	-3.97896865049293E-06	0.971797085677883	-0.233652522382304
9.8	0.00664242556633739	0.00398703603999882	1.32535942918558E-07	-3.60302178091799E-06	3.04985853669306E-06	2.40677395263909E-06	0.97125103093679	-0.235582562426424
9.9	0.00689431224075663	0.00413278966610953	5.81288110238721E-06	-6.11375731654636E-07	-2.57885482885453E-06	6.74039272593142E-06	0.970943724729236	-0.236970242280284
10	0.00731715199301054	0.00405750568135	-1.1444853759357E-06	-5.80633826223591E-07	1.36809018229228E-06	-1.18946871031577E-06	0.971445856072356	-0.239148632416877
10.1	0.00750539188319949	0.00409817569450372	7.12773782679638E-07	-8.43772130716936E-06	6.17038821742407E-06	3.61386970333925E-06	0.970222389086757	-0.241405150558142
10.2	0.00815809926573575	0.00418926290531709	7.51167023041852E-06	8.33490706341575E-06	5.23611138875718E-06	3.53666148744372E-06	0.969509674503209	-0.242525857576348
10.3	0.00894612225235769	0.00389308347227052	1.75907550332848E-06	-6.96949504842522E-06	1.42890710005106E-06	2.87291654961491E-06	0.968959633971176	-0.244064555480974
10.4	0.00968123487008019	0.00331620284996205	-4.03410728543391E-06	-3.64577499563955E-06	1.95728442254268E-06	-5.60642907004005E-06	0.96851472062176	-0.245927422817427
10.5	0.0102575705821495	0.00242743449247095	3.73953278153473E-07	-7.07793671477288E-06	-5.73854721763101E-06	4.0798793003904E-06	0.968187906908947	-0.248748271385751
10.6	0.0103917107223719	0.00171126202524621	5.49813265854467E-06	6.74693993569834E-06	2.43790889918729E-06	1.19605545291232E-06	0.967452128798163	-0.251476826164789
10.7	0.0106228627641935	0.00113018410659613	-7.08971854963676E-06	-1.692347633911E-06	-7.74421276709811E-07	1.56239913964939E-06	0.966793329439727	-0.254717029351015
10.8	0.0109648425406998	0.000572519313686435	1.49075797182074E-06	4.4507746634923E-06	9.43078916454579E-06	-4.48037014890415E-06	0.965918836973447	-0.257106259075257
10.9	0.0112067264909695	-4.46254749784574E-05	3.30777865388256E-07	7.43420601237221E-06	-5.17252969024519E-06	2.11595870570816E-07	0.96534363396505	-0.25941697312348
11	0.0115832960396649	-0.000881650282303833	-2.23185995626743E-06	-3.8294526542034E-06	1.20571354616823E-05	-3.5709925202583E-06	0.964584206059261	-0.261779617716557
11.1	0.0115966849920661	-0.00157858799042735	-6.13043076300121E-06	-4.93850341996455E-06	9.5513139216027E-07	5.58657895164016E-06	0.962956601944662	-0.263891120259066
11.2	0.0119410814777446	-0.0022904826905714	3.3238191662749E-06	4.31039471222903E-06	1.05994391233312E-06	-7.89293842471747E-06	0.961335731205242	-0.265556999435668
11.3	0.0123999720268501	-0.00336949039207965	7.11888050169317E-07	-2.66327124243864E-06	-4.84202920242674E-06	9.1359793061515E-06	0.960054989674035	-0.266993119236298
11.4	0.0125299471566734	-0.00467642200847292	1.47761594068853E-06	-2.20717858798586E-06	-3.02078050052996E-06	-7.4469981632668E-06	0.958516161158292	-0.26873604033818
11.5	0.0123827214830493	-0.00627784039411788	9.4929158094727E-07	-1.0117077909756E-06	-9.03570404361662E-07	-8.72697279214813E-07	0.958078280040204	-0.270674971194473
11.6	0.0116902031243523	-0.00772695860758911	1.12498104395591E-05	-3.28779750605378E-06	-5.43768089954279E-06	-6.84496955335298E-06	0.956947774053781	-0.27458928228357
11.7	0.0110885725792168	-0.00902266431572378	5.33605671719165E-06	-2.90746362021064E-06	-4.4183825997183E-06	1.65895553416285E-06	0.955352721361745	-0.27773528205275
11.8	0.0103635294472561	-0.0103588635655871	-4.53715964707601E-07	-2.55214394440365E-06	1.07540191229218E-06	1.32864497625977E-05	0.954340255058103	-0.280562836424124
11.9	0.00946030014481121	-0.0116266443261607	3.33107810981412E-06	1.99200678037377E-06	-1.1189918292359E-08	1.27572408237542E-05	0.954585639956078	-0.28207229288983
12	0.00826371002641271	-0.0130896359190295	2.00845127570614E-06	4.83845696633564E-07	-3.70775666171072E-06	-9.701271563236E-07	0.955850878103921	-0.285752334453283
