# GHZ S RI R 50
0.2	0.000494402646054339	0.00383872254351576	6.30458494966538E-06	-1.00827944386361E-06	1.06686917670542E-05	1.04928951362457E-05	0.999478137879394	-0.00690098329213552
0.3	0.00114798414204552	0.00344745045458555	5.81663780490071E-06	5.03592309575372E-06	8.09567166695937E-06	2.95220312734879E-06	0.999257326720997	-0.00978993515118454
0.4	0.00166886442376654	0.00322644505169757	-2.70783004991152E-06	7.86852152480862E-06	-4.81266882145416E-07	-4.43002581761408E-06	0.999174781393981	-0.0124613135831438
0.5	0.0018480773662212	0.0031532881100474	2.30740495107526E-06	1.47922698194186E-06	7.5101722483433E-06	-1.0513581353269E-06	0.998632217219185	-0.0153289817811516
0.6	0.00234665341758511	0.0033714825876651	3.21847844264514E-07	3.53975002161516E-06	2.74100711279098E-07	-7.66080289042327E-06	0.998962185180094	-0.0179258922359899
0.7	0.00274575778434254	0.0033087761160916	4.16619112566291E-06	5.04203479459449E-07	-3.89498001002795E-06	-3.60074220448377E-09	0.998740862341941	-0.0209121775554339
0.8	0.00311137051318355	0.00327016207259255	-2.88747770376616E-06	2.96386029347782E-06	-6.82072181902656E-06	1.31983928109115E-06	0.998585936364216	-0.0230889011795616
0.9	0.00343015075450297	0.00317184358576585	6.03528057134516E-06	8.98827334653926E-07	-7.33980096736538E-06	-1.83191621125547E-06	0.998586003461526	-0.0255768014909049
1	0.00344964305872848	0.00286557351516479	2.35859908091752E-06	2.94348178118719E-06	-9.0397571199625E-06	-2.61892794633108E-07	0.998133117102533	-0.0275308122784175
1.1	0.00334058432439146	0.00313037446774154	6.43738499514647E-07	3.58770994805451E-08	-5.30021611966183E-06	1.40021623262749E-06	0.997639296968873	-0.0292412029242053
1.2	0.00350991988591567	0.00294098606487646	-5.29143373351972E-06	-3.29151087762597E-06	-1.11764867369606E-05	-1.26602185786796E-05	0.997215808053794	-0.0300658535604229
1.3	0.00330318765178773	0.00234689539663179	3.048144347203E-06	3.10529048162269E-06	6.96030109969632E-06	-4.08065619226063E-06	0.99751182312001	-0.030691658336932
1.4	0.00298238090220735	0.00158748354767616	-2.79901019742774E-06	-1.11572744121228E-06	5.71419530042058E-06	6.62625776822813E-08	0.997610423727222	-0.0325108762448621
1.5	0.00264583084533611	0.0012113679626988	1.24242681546378E-06	-2.53397088648176E-06	8.00790291680068E-07	2.51359900417179E-06	0.998008248247599	-0.035970930840105
1.6	0.00287592722762198	0.00126922628861551	-9.31123547659152E-07	-6.41826768854709E-06	3.18822323931909E-06	-4.24404166155356E-06	0.997561370208459	-0.0392759648432437
1.7	0.00308508147568924	0.00116444029964055	3.40600449214623E-06	6.34404453620829E-07	2.23418776543514E-06	3.85392116469164E-06	0.997768579612551	-0.0419563678291788
1.8	0.00320882984404653	0.00124557542786988	-2.37859289448638E-06	2.89748029992118E-06	-1.01334331587027E-06	-3.99834266733789E-06	0.997585199931729	-0.0448531215633009
1.9	0.00335290661883685	0.00116840136742626	-3.73236460364116E-06	-1.76064856168639E-06	5.62964564008599E-06	3.02823969307991E-06	0.997432856265765	-0.0475506093618732
2	0.00317605045910607	0.00121151666519184	-6.17431467733908E-06	-5.74809668402129E-06	-2.07782279377165E-06	9.15062208499833E-06	0.995845184332809	-0.050609668790847
2.1	0.00339386451773171	0.00149937369290946	1.1688689786567E-06	4.60419305048003E-06	4.47813318709129E-06	3.99158933743245E-06	0.995404527304525	-0.0517189683118505
2.2	0.00358377807289932	0.00143214112788454	6.55523109147813E-07	9.07069720453742E-07	-3.62098006357516E-06	-1.09386011755753E-05	0.99589229942846	-0.0538494175226826
2.3	0.00360394795834746	0.00128232002225329	-2.28722174510998E-06	3.55846149306055E-06	-5.33368439169436E-07	-2.79626451528472E-06	0.995858579034697	-0.0556911373036148
2.4	0.00352394136645273	0.0011032281208796	-1.55574016508121E-06	-1.45651512170158E-06	1.28469355946784E-06	-9.97921555297768E-07	0.996032347220399	-0.0589213505008343
2.5	0.00302131312925965	0.000892499587632796	7.78521158680425E-06	4.06618797662179E-06	-2.34182068967272E-06	-7.23060286568467E-06	0.995530092261339	-0.0614154581307974
2.6	0.00269300962146815	0.00136205570208947	4.85724927306319E-07	2.11832599261714E-06	-1.47035685294966E-06	4.68664535099375E-06	0.995307787885948	-0.0641796816695477
2.7	0.00275594785561299	0.00172591051930948	-7.87061120018202E-06	5.23929985436789E-06	2.53043283788333E-06	9.72442641682716E-06	0.994844697295952	-0.0670837819121712
2.8	0.00307489624575076	0.00207274172159116	-7.74837313293112E-06	7.95453085164168E-06	6.01019547293506E-06	1.99238093540416E-05	0.994922066326155	-0.0688545702716828
2.9	0.00360855234638145	0.00209701488464018	-1.19055123396796E-06	8.59726069824532E-07	-8.12027598422028E-06	-2.96618184609612E-06	0.994877416948703	-0.0707885708116365
3	0.00391348239835033	0.00203455164591119	-6.08644402501751E-07	-4.47549785054939E-06	-2.1886900765112E-06	6.44220602367703E-06	0.994903008909949	-0.0733646137900229
3.1	0.0045313161884318	0.00201290994133869	-2.59033943722146E-06	8.87409090715405E-08	1.10246886383745E-05	-3.52738782886648E-06	0.994626825913869	-0.0752625310054616
3.2	0.00495690679111358	0.00162452106530153	-9.80606204806254E-06	2.54741772052526E-06	1.21697741128945E-05	4.26834066224896E-06	0.994654399722124	-0.0769381886659386
3.3	0.00516493453003018	0.001127792397162	-3.4709167546459E-06	9.33268270517228E-07	-5.01388884516039E-06	-1.44680807972299E-07	0.994772666143193	-0.0801263019954278
3.4	0.00517157963341682	0.000621177894467992	5.35218348740502E-06	4.89326284708321E-07	1.35002126355453E-06	4.47749999476825E-07	0.995198669820291	-0.0822239058272162
3.5	0.00476212675782641	0.00019775297037873	2.77295279163793E-06	1.5600751037765E-06	1.31452005464235E-06	7.93384543932003E-07	0.995088496855524	-0.0857387743007001
3.6	0.00460865973418087	0.000294861067069988	-7.15503779035883E-06	-1.29875135599828E-07	1.86491182409033E-06	-3.50158958741045E-06	0.994314160657497	-0.088024473969751
3.7	0.00453992992383401	0.000147516180817269	5.78142206878298E-06	-1.51554581126205E-06	-3.25912754241452E-07	-1.7339438465121E-06	0.994406359241382	-0.0904272381486918
3.8	0.00447297140491266	6.56091809687204E-05	-2.00396545240719E-06	8.78246495419092E-07	-5.19849313471412E-06	3.00325573671883E-07	0.994506202840355	-0.0925481659349604
3.9	0.00446361571187647	-7.6079926681981E-05	-8.37490971651268E-06	1.78680215347898E-06	-4.12322726122139E-06	-1.49931360694316E-06	0.994835780167603	-0.0963506573924268
4	0.0041488363183259	-0.000145601137583078	-5.82924450094152E-06	3.72226462262577E-07	-9.51123347180369E-06	-8.44980249592816E-06	0.993412250747173	-0.0984604121561656
4.1	0.00431549446307906	0.000207926125742664	-3.98975964659437E-06	4.0689252295311E-06	-1.88169216886743E-06	5.58558626239766E-06	0.993100134409058	-0.0992418051411696
4.2	0.00464443052302831	9.35507702227646E-05	4.62520527220785E-06	-4.39034820054762E-06	6.76159923241081E-06	7.5512630851848E-07	0.993129010644882	-0.101763739324331
4.3	0.00484826882124774	-0.000157646172010147	-3.8004568937943E-06	1.12928434440217E-06	3.55308613234413E-06	-1.20856794595576E-06	0.993302462084524	-0.103963122410724
4.4	0.00489558753905116	-0.000561879528502289	-3.15325279930645E-06	-4.93951337106506E-06	9.30721538726146E-07	-1.03762377928864E-06	0.99291711282692	-0.106517347561842
4.5	0.00441287199520365	-0.000895574141056956	-1.39342370353667E-06	2.03197100453945E-06	2.14843461851542E-06	-8.48202808031247E-06	0.992642498978104	-0.108524632837353
4.6	0.00419130552284028	-0.000692716730358457	5.40111482206781E-06	9.61270653390419E-06	-1.42273781575229E-05	9.82539292515929E-06	0.992726994959304	-0.111255973373535
4.7	0.00412818033543533	-0.000743340522644191	-7.60291820430193E-06	-9.57979379135984E-06	-1.14704016461207E-06	-1.35366526728164E-07	0.99268739091326	-0.113434493693527
4.8	0.00402037806870364	-0.000728509566431222	-8.75703868842749E-06	-2.69384554370904E-06	-4.38741041905313E-06	4.54976759478742E-06	0.992279562523638	-0.115967512327525
4.9	0.00407561754553437	-0.000788049711745665	5.77865183272953E-06	8.33073989268689E-06	-7.26808753502314E-06	3.28255560619121E-06	0.99206668548453	-0.117790180062135
5	0.00393460076765261	-0.000909169482232653	4.29264560499179E-06	-8.55835862836289E-06	-4.29818432042038E-06	-6.19514559317998E-06	0.992144214829222	-0.119646099419769
5.1	0.00435103538773899	-0.000791561804331503	1.52557888371404E-05	-1.02686871246302E-05	3.49756652462082E-06	-8.7449753768648E-06	0.992215123169229	-0.121187888752594
5.2	0.00472020698991552	-0.00125625326607716	-4.24229904411612E-06	-4.7263386711575E-06	-3.17071596881847E-06	5.25205285514598E-07	0.99213714412863	-0.123659629402962
5.3	0.00480458437129489	-0.0017882514939287	4.78654300929646E-06	3.381513561599E-06	-9.31445910714513E-06	-4.75647477885128E-06	0.992021314501841	-0.126249697875021
5.4	0.00466010643529099	-0.00233012205814225	5.1907256723356E-06	1.20449594859588E-06	-4.79681003020588E-07	1.04781098989799E-05	0.992197248657192	-0.129385121290098
5.5	0.00391773173835492	-0.00251922133780115	-1.81769107939798E-06	-1.98590312329443E-06	8.90626179055712E-06	5.08370164128635E-07	0.991679674205478	-0.133071425992227
5.6	0.00387830761595281	-0.0021788911543193	4.25950654705421E-06	7.24039561562623E-06	-4.72417215505676E-07	-8.62999830513727E-06	0.990744495230481	-0.135339631505335
5.7	0.00373135066220809	-0.0023209128349162	2.05882769949447E-06	-7.24707571479061E-07	5.48335390753246E-06	2.45515776086024E-06	0.99069200691666	-0.137677948155392
5.8	0.00338997553350709	-0.00232428381141101	3.92162391833712E-06	1.9611885156835E-06	2.74454758449632E-06	7.8469324606364E-06	0.990921537840878	-0.140141192437133
5.9	0.00310322536278701	-0.00223494603264597	-3.79462832645655E-06	-3.05768030810299E-06	-4.7109285035571E-06	-1.77645539997885E-06	0.990894958637881	-0.143437690342138
6	0.00231848286338059	-0.0022326949033936	-2.07595747043421E-06	1.70874247491311E-06	1.04362572865931E-05	-2.67857431079734E-06	0.988793487672249	-0.146119474516957
6.1	0.00203781173753037	-0.00137591204000914	-7.33650322398052E-06	-1.10020928553369E-06	-7.2792468804904E-07	-2.48582827874384E-06	0.988392665331113	-0.146241288634597
6.2	0.00217890111264259	-0.00117331221623995	-1.06098872056472E-06	1.9929026402385E-06	-3.49371421949154E-06	-5.36622253436356E-06	0.98833882803497	-0.147726600002825
6.3	0.00227566855420234	-0.00130190336703167	1.58358689352797E-06	2.83156135586159E-06	1.15727323553445E-06	5.97780142282395E-06	0.98791162494525	-0.14992400998946
6.4	0.00215201520746456	-0.00177914308164406	2.07881757656987E-06	5.03609023263447E-06	-3.33104414638313E-07	2.27961313234888E-07	0.987009456440941	-0.152303900535072
6.5	0.00144272902513746	-0.00195885884066397	4.66875092767774E-06	-1.88165087281505E-06	-4.69244604903948E-06	-1.5464987349986E-06	0.986110321348735	-0.153829460489664
6.6	0.00144951758143778	-0.00177984709642806	3.25447755082826E-07	-1.07047407579673E-06	9.3100756310838E-06	3.33478135506775E-06	0.987066016966666	-0.156171162520688
6.7	0.0011942561620568	-0.00188927376788586	5.35636467600664E-07	5.61757188168569E-06	-1.786527364231E-06	4.9807194051625E-06	0.986972306753873	-0.159076997906753
6.8	0.000871951210777187	-0.00169479307056939	1.74145197853473E-07	-1.58797755254463E-06	-3.48555163669066E-06	-5.11999975723384E-06	0.986455357284957	-0.161625234421337
6.9	0.000663659425689631	-0.00155959212620298	-6.64071462686544E-06	6.72949201943767E-06	2.29024944528602E-06	1.35232113655459E-06	0.986113449256426	-0.16415941066469
7	-0.000113220573483797	-0.00120409196259303	8.08764470982156E-06	3.15915384869158E-06	4.57639516054804E-06	5.86246281538934E-06	0.984661973429532	-0.16631403254377
7.1	-3.9178483116854E-05	-0.000210411853787434	1.39761353118903E-06	7.82541552739737E-07	-2.27900787366034E-06	-4.47632135150283E-06	0.984013952588375	-0.16725142390136
7.2	7.65189481595981E-05	9.17089039885843E-05	-1.31134212394138E-07	4.39910985739112E-06	-5.01332975976636E-06	-6.53108572565007E-07	0.983621780285785	-0.16874704741316
7.3	-9.12242915610311E-05	0.000426368364042862	1.34689135835933E-06	-5.26556544303878E-06	-2.35107969897912E-06	-2.78731989435586E-06	0.983041981023588	-0.170223030535671
7.4	-0.000303717052464642	0.00068235786789507	1.84174720774898E-06	4.42126529697172E-06	-7.29236903438201E-07	-1.06899025812332E-06	0.983287814282987	-0.172585585627128
7.5	-0.00119988819780547	0.000872151832771214	-5.74892292665452E-06	-1.47848089015625E-06	-1.60074279074675E-06	-8.90294414147235E-06	0.982588738924813	-0.177232534755162
7.6	-0.001486197688793	0.00214062175393479	5.61172778468976E-06	-3.39962421416821E-06	1.03044296828336E-06	3.18573898904159E-06	0.980426519177986	-0.179877195189916
7.7	-0.00136798970837657	0.00277258529340086	-6.50535714939946E-06	-2.84374338886556E-06	4.38741709988659E-06	5.65492074111218E-06	0.979972604699784	-0.182827561640903
7.8	-0.000988604823294248	0.00311358796291052	-1.09654697019682E-06	-5.34899770096947E-06	-2.10141021852617E-07	1.14313613549888E-06	0.97976518853874	-0.186297945041743
7.9	-0.000480328539939619	0.00309233812338408	-3.32228188042479E-06	7.21479439702523E-06	4.49654296916827E-07	-6.87633477048131E-06	0.979308028990553	-0.190504195544008
8	-0.000585770958555662	0.00329989852356033	-2.06954995285462E-07	7.369241018185E-06	1.75252314684978E-06	-4.45380093548801E-06	0.976087000131136	-0.193721803491797
8.1	0.000399229602092954	0.00376388096920304	-7.49401874128507E-07	-6.45086019199426E-06	-1.74645529711549E-06	-1.05760555887081E-06	0.975614155642411	-0.193943310363506
8.2	0.00104321000122695	0.00361744590171464	-3.81786171892171E-06	1.65530819101994E-06	-1.09550534419178E-05	-2.59328814332549E-06	0.976087462078209	-0.195859306393824
8.3	0.00149194772354977	0.00353310790066341	-5.55411159652923E-06	-9.83549196918761E-06	-7.76979865911979E-06	3.02744228129543E-06	0.975855635293594	-0.198435596878565
8.4	0.00187990120043205	0.00337354725615854	6.74922200809871E-07	-6.09877154853734E-07	-1.41287471286576E-06	4.41677606424503E-07	0.975201306632241	-0.201054135481495
8.5	0.00150905869596004	0.00336641732284627	-1.74971156121588E-06	-2.55930975539335E-07	-7.10237925226194E-09	1.80069249334515E-06	0.974424123170732	-0.203294582367821
8.6	0.00195814427944862	0.00418413961358036	2.42157887112283E-06	-3.96971495311845E-06	-4.56331877275903E-06	-5.91230817870909E-06	0.974512205609301	-0.205721235701833
8.7	0.00257199494772538	0.00433980084434799	-1.49859480732974E-06	-2.09024108440058E-06	-3.54998437702491E-06	3.63611360064791E-06	0.974254615005456	-0.208431666564508
8.8	0.00309894305979793	0.00449980608370229	-5.49031108294651E-06	-2.11311128027799E-06	-7.2233057653399E-06	-1.26154349506865E-06	0.973848671088627	-0.210782502681041
8.9	0.00382455847994893	0.00441696554612619	8.54251113113738E-06	4.08576831038115E-06	-1.41367963802751E-06	3.19465750703432E-06	0.973797524719721	-0.212835203620113
9	0.00407925564064577	0.00413260670756647	-4.9977231304015E-07	4.15673476054716E-06	-7.81006627576895E-06	1.22768884307793E-06	0.973535601143131	-0.215234941698728
9.1	0.00492826168109456	0.00421016028809017	-2.55005514300287E-06	6.62955971762064E-06	4.09871408978951E-06	-3.08038906506395E-06	0.973017415007308	-0.217328062181932
9.2	0.00565516157626713	0.0035831968388	-1.17381897939505E-06	3.42003385771674E-06	-2.24335131736297E-06	-2.05421924597157E-06	0.972417771334249	-0.219635064811906
9.3	0.00603868576210463	0.0029944713770137	2.32253564667531E-06	-4.0353300814696E-06	-7.91856531786381E-07	-1.77856266787786E-06	0.97205194791152	-0.221732171024233
9.4	0.00634233488011465	0.00234975595701021	-1.79983572778903E-06	3.8922856519007E-06	-2.06492965684857E-06	-3.57795801635479E-06	0.972028934695457	-0.224360159986111
9.5	0.00605112967426441	0.00218167019430502	3.49823446957303E-06	6.29244488196615E-06	3.65425016021797E-07	-2.14991293999183E-06	0.971272177146061	-0.22795436969663
9.6	0.00659572085556061	0.00231556639281619	4.62227682253585E-06	7.06514370340978E-06	-8.20910996649487E-06	1.27954382234562E-05	0.970169877903056	-0.230458982370288
9.7	0.00691422837011828	0.00192948450264196	-2.87870220609613E-06	-1.53021456057363E-06	-1.38656794764577E-06	-3.96473136154022E-06	0.969925371082384	-0.232735225035798
9.8	0.00703320135806647	0.00168977497782366	1.28753386108342E-07	-3.59202352464437E-06	3.04269718384567E-06	2.3964888510666E-06	0.970085831610659	-0.235025665930515
9.9	0.00720307245884345	0.00152693250052905	5.79348178307744E-06	-6.18350570718325E-07	-2.56032518769488E-06	6.7229412485279E-06	0.969614781225827	-0.237962095857432
10	0.00681622155815959	0.00149045499744838	-1.13920525322925E-06	-5.76396017975793E-07	1.35973787526174E-06	-1.18480943788375E-06	0.966678674476353	-0.23922216929298
10.1	0.0074073165616864	0.00215531255492587	7.15642258414657E-07	-8.39945457676547E-06	6.14018395434247E-06	3.60212926318415E-06	0.967181475552028	-0.238439426624152
10.2	0.00828315066689908	0.0020555740402454	7.47660142024405E-06	8.30848505231016E-06	5.21336033870772E-06	3.52697692806998E-06	0.968019528957167	-0.239871356738839
10.3	0.00909626727907131	0.00168380881956561	1.75660551561765E-06	-6.94122949465787E-06	1.42153143673274E-06	2.86262030693884E-06	0.967923821525143	-0.24211479186834
10.4	0.00989861179886211	0.000887694497894089	-4.01219332396865E-06	-3.63234127955597E-06	1.95306318277882E-06	-5.57867691841036E-06	0.966906966448725	-0.244769201486816
10.5	0.00992639644783862	0.000107701086662907	3.90252657315863E-07	-7.04528649723454E-06	-5.72320623190237E-06	4.04703349669898E-06	0.965535508770712	-0.246512710438161
10.6	0.0105600339178088	-0.000292080013663035	5.46390903149924E-06	6.73485681057834E-06	2.42663248966382E-06	1.19709041178625E-06	0.965331555497981	-0.248916908573124
10.7	0.010938872102555	-0.00105191147855195	-7.05926260889922E-06	-1.70073415576749E-06	-7.74745052679852E-07	1.55484861463768E-06	0.964304106909445	-0.251560459896181
10.8	0.0113426935611433	-0.00169317594873397	1.47393321294722E-06	4.43600951205639E-06	9.40267470134719E-06	-4.4392734283163E-06	0.963544755172626	-0.252988329190068
10.9	0.0118047253665945	-0.00262097894433872	3.05435203075509E-07	7.40435671394394E-06	-5.15170150881068E-06	1.94040241201497E-07	0.963447053333124	-0.25450107356969
11	0.0116142288922562	-0.00355695775616351	-2.2110130307983E-06	-3.82713000944292E-06	1.20366904997543E-05	-3.51510514456213E-06	0.963059388253907	-0.25563389021369
11.1	0.0121489656254845	-0.00407124427748794	-6.10077924011321E-06	-4.94505233785288E-06	9.36008189055513E-07	5.57598336841139E-06	0.963430115852767	-0.256677966676163
11.2	0.0125173683287718	-0.00533653231897031	3.30252999362416E-06	4.3096448989619E-06	1.08107962114752E-06	-7.87003220870276E-06	0.96365360956614	-0.258523103822206
11.3	0.0126084199759383	-0.00671974777422568	7.19121852251768E-07	-2.654792148151E-06	-4.86133861841002E-06	9.09890273410709E-06	0.964056035833981	-0.260762624566906
11.4	0.0124186865254837	-0.00824477343325378	1.48372896960836E-06	-2.1989995735395E-06	-2.98991918129226E-06	-7.44842903531267E-06	0.964301565669303	-0.264178528277054
11.5	0.0113520038073768	-0.00956886327482866	9.50431522587117E-07	-1.00935734663817E-06	-9.01427453439868E-07	-8.73698631997243E-07	0.962544763469281	-0.268847041106567
11.6	0.011023462996102	-0.0103145821521273	1.12309382223782E-05	-3.2599549816852E-06	-5.4131371488631E-06	-6.8397716105075E-06	0.960552853874038	-0.271589967110066
11.7	0.0105564899919298	-0.0116473035616029	5.33221442954255E-06	-2.88784805799069E-06	-4.4133059138273E-06	1.64428496980568E-06	0.960010042781975	-0.27503344379518
11.8	0.00985107445316389	-0.0129063649909994	-4.46255641519431E-07	-2.54956032206001E-06	1.03847425973729E-06	1.32695780698714E-05	0.959491866519413	-0.279374788156921
11.9	0.00901042672294853	-0.0143132064883651	3.32418183146052E-06	1.99586000162146E-06	-3.36820016582378E-08	1.27442671808574E-05	0.958287150128133	-0.283671609174818
12	0.0070485556946537	-0.015291291360529	2.00160047861197E-06	4.8656991590864E-07	-3.69495122942442E-06	-9.7493207797431E-07	0.953754653719622	-0.285427276357831
