# GHZ S RI R 50
0.2	0.000270771156550077	0.00294823012909582	6.31582374654624E-06	-1.00016343169219E-06	1.06690065240322E-05	1.0525384525146E-05	1.00058142401439	-0.0064707128388394
0.3	0.000963931892054502	0.00287302749360213	5.82087202437756E-06	5.05222754375125E-06	8.10660319704161E-06	2.96758063438064E-06	1.00066169584577	-0.00932830765575424
0.4	0.00146883608057474	0.0031112771919385	-2.72123939828398E-06	7.88560799529223E-06	-4.78663472401557E-07	-4.44136169202003E-06	1.00127549672047	-0.0118829143586265
0.5	0.00248629728519215	0.00295179144643663	2.31315008699676E-06	1.48176610741658E-06	7.5268104708318E-06	-1.05637790157299E-06	1.00165803808481	-0.0160363339973505
0.6	0.00227596255438999	0.00237256143296888	3.21033853282237E-07	3.54566227025836E-06	2.77450170562622E-07	-7.67323072839168E-06	1.00087279552564	-0.019113497348795
0.7	0.00208510239640956	0.00270150258132058	4.17549281730218E-06	5.08443612881419E-07	-3.90402081843873E-06	-6.47874761176601E-09	1.00062270070289	-0.0217306166200035
0.8	0.00219989497653143	0.00303799588664478	-2.89793819610577E-06	2.97060872413749E-06	-6.84160964964616E-06	1.31912125844101E-06	1.00056385705009	-0.0238386796919692
0.9	0.00218760686589473	0.00353106456835534	6.05656255551395E-06	9.05086748348432E-07	-7.36531298934077E-06	-1.84218893314683E-06	1.00047060121307	-0.0259445970216304
1	0.00313921750703936	0.00434556977518973	2.36974354887872E-06	2.95457934319763E-06	-9.07733596215815E-06	-2.58766058677691E-07	1.00116932000498	-0.0272076825512511
1.1	0.00373961643554938	0.00333166169879534	6.45957763301958E-07	3.54185248117576E-08	-5.31695948613094E-06	1.40975224385732E-06	1.00104153253014	-0.0302024816012848
1.2	0.00325836344201047	0.00266796598604767	-5.31086478523708E-06	-3.2970088446743E-06	-1.12226534234506E-05	-1.26896040297732E-05	1.00008957765739	-0.0314375845477549
1.3	0.00252793666938754	0.00186465957410978	3.06007091130906E-06	3.10974026796329E-06	6.97368600870465E-06	-4.10009765553827E-06	0.999803037819039	-0.0327242212912473
1.4	0.00172700195540303	0.00138647402790047	-2.80631888877967E-06	-1.11382090831098E-06	5.7258299724118E-06	5.79056478345947E-08	0.999013294890553	-0.0348368603087334
1.5	0.00205558983380246	0.00111894513156922	1.24202379708307E-06	-2.54028119646389E-06	8.05144242762968E-07	2.51759644160827E-06	1.00029292457959	-0.0381726086770762
1.6	0.00165725424986881	0.00108596453890456	-9.39707471910783E-07	-6.43478259045993E-06	3.19285616666657E-06	-4.25855392179612E-06	0.999927513120154	-0.0421515598403188
1.7	0.00201152571581702	0.001719509650537	3.41808797961763E-06	6.32599992411503E-07	2.24606973101734E-06	3.8641969382491E-06	1.00043474247087	-0.0446070416956619
1.8	0.00248876427520682	0.00213747926527285	-2.38350531643415E-06	2.91093070569493E-06	-1.02204894280933E-06	-4.0114748219385E-06	1.00052221728072	-0.0472308173620877
1.9	0.00300542965843987	0.00248829556650517	-3.74809276113907E-06	-1.76485662588614E-06	5.65363115375861E-06	3.03603327279799E-06	1.00086041206357	-0.0486791135461934
2	0.00415640128343714	0.00226963686069868	-6.21673532030865E-06	-5.78028724989046E-06	-2.08507586736999E-06	9.20941085321026E-06	1.00329123352889	-0.0516787431778318
2.1	0.00380690891704103	0.0013132644164969	1.19108038648978E-06	4.62934107094078E-06	4.51915449311937E-06	4.00220215443556E-06	1.00259734218837	-0.0569142582185321
2.2	0.00335924744739188	0.00141213229336215	6.6242807316262E-07	9.09530995450108E-07	-3.68112992500505E-06	-1.09841872989693E-05	1.00149016417808	-0.0597350806040199
2.3	0.00309896640096876	0.00153942824854006	-2.28520471000497E-06	3.5857319837145E-06	-5.46992060659401E-07	-2.80863487226295E-06	1.00063068774656	-0.0616898923717107
2.4	0.00280228490413819	0.00191984382857398	-1.570274551641E-06	-1.45749504946421E-06	1.28717685678373E-06	-1.00876027448575E-06	1.00024284370465	-0.0646941891582258
2.5	0.00336793981931012	0.00235077009255048	7.84415672125054E-06	4.04370446626876E-06	-2.39184764924594E-06	-7.25245679815761E-06	1.00022310665285	-0.066927332525085
2.6	0.00335839834939622	0.00166288856055754	4.9832333657315E-07	2.12451202174885E-06	-1.45284178029414E-06	4.71309236155214E-06	1.00020897303433	-0.070324534976669
2.7	0.0030020236196493	0.00166916929137466	-7.8785318242397E-06	5.30177366933971E-06	2.59043529534657E-06	9.75406942592959E-06	0.999928569676074	-0.0738150175164854
2.8	0.00286765615793311	0.00193084115658063	-7.73900038580353E-06	8.03330364105294E-06	6.14785995460299E-06	1.99799341257952E-05	0.999783952146871	-0.0764363935938809
2.9	0.00306721070971672	0.00237503850164388	-1.1900752251723E-06	8.70953255065841E-07	-8.17343470263149E-06	-2.92680694649179E-06	0.999019890612399	-0.0788229168238743
3	0.00401540326895986	0.00237827978710049	-6.40715905821972E-07	-4.48418585326528E-06	-2.15129910110638E-06	6.47548104629756E-06	0.998585109478923	-0.0814707063886564
3.1	0.00394586392139881	0.00185922190709077	-2.59661514907676E-06	1.05442206077184E-07	1.10313756949059E-05	-3.6067867100998E-06	0.997776019978436	-0.0839234281000912
3.2	0.0039808788844569	0.00197242195129284	-9.81136817541852E-06	2.61994553218424E-06	1.22268593116565E-05	4.19546952652662E-06	0.996923452315355	-0.0859057245676217
3.3	0.00411630680757274	0.00193877799268258	-3.46965647183888E-06	9.60241961110888E-07	-5.02302331019352E-06	-1.08119712537138E-07	0.995936204601464	-0.0893445437477106
3.4	0.00421426276284641	0.00209033359049174	5.35737453302723E-06	4.47482234831022E-07	1.35387374453257E-06	4.37277416323816E-07	0.994745056842533	-0.0911109964678157
3.5	0.00497238555171757	0.00184459689641722	2.77932079968674E-06	1.54064670163069E-06	1.31787811742725E-06	7.84107222180204E-07	0.994621105271756	-0.0925756511354084
3.6	0.00455133446905717	0.00103935983320079	-7.15560368854414E-06	-8.77869989835626E-08	1.8442645463485E-06	-3.5124617366677E-06	0.994950827404726	-0.0959469823751107
3.7	0.00411031993210196	0.00114489714550879	5.77007606154005E-06	-1.553686093278E-06	-3.37379713452319E-07	-1.73139688806166E-06	0.99389980440721	-0.099189737254056
3.8	0.00402202710211746	0.00139114653467149	-1.99605597089655E-06	8.91177743496852E-07	-5.19155207034005E-06	3.3572715714634E-07	0.992567918800516	-0.101012486418642
3.9	0.00424327027165212	0.00177799462817937	-8.35137212743135E-06	1.8358201849858E-06	-4.12632142265038E-06	-1.47162685390021E-06	0.992036493791311	-0.102890866081989
4	0.00530927950892625	0.00154220774638787	-5.82806350786093E-06	4.08352164135846E-07	-9.56532529478366E-06	-8.3926004459462E-06	0.993907758989786	-0.104207768258074
4.1	0.00506184923593858	0.000509560421817687	-3.95167885816322E-06	4.09881973937248E-06	-1.83277096536056E-06	5.59626496468884E-06	0.992727479577739	-0.108388109725579
4.2	0.00466363375839223	0.000339775959011917	4.57692825170081E-06	-4.41788897823059E-06	6.75087830501868E-06	6.96805966422205E-07	0.990714055215976	-0.110994853293747
4.3	0.00441695969237668	0.000310907164090812	-3.77920119434596E-06	1.15586591755875E-06	3.53199869276546E-06	-1.23292590604602E-06	0.989716369862573	-0.112641731182269
4.4	0.00420647826063411	0.000537525730809767	-3.1823268306653E-06	-4.89799194612905E-06	9.19352629316913E-07	-1.04163738414184E-06	0.988892737435771	-0.114465646974035
4.5	0.00480447751132343	0.000505121960590628	-1.36818592161648E-06	2.03564319789054E-06	2.05982569481599E-06	-8.46327761439022E-06	0.988664863230358	-0.116961167231838
4.6	0.00418948984286735	-0.000345382641826581	5.4432756828223E-06	9.50868163178179E-06	-1.4058846271295E-05	9.87616042146746E-06	0.987325740209213	-0.119595732934346
4.7	0.00351654824673124	-0.00018369384108708	-7.62190463892658E-06	-9.46485747392437E-06	-1.14065897673877E-06	-1.26404707233092E-07	0.986807491935749	-0.121218233639505
4.8	0.0031478948045102	0.000175462519390429	-8.71951259784754E-06	-2.61744335017298E-06	-4.32869289547897E-06	4.55048665641207E-06	0.985986561839456	-0.123538966581504
4.9	0.00312161397366964	0.000760471947609569	5.79919808181723E-06	8.23505688315058E-06	-7.19699998518073E-06	3.31208927805294E-06	0.984985341008018	-0.125071206174315
5	0.00406056846855132	0.000730335595501893	4.19814083352342E-06	-8.51605070461716E-06	-4.30457194924547E-06	-6.1138540124575E-06	0.984405080498258	-0.126046864953164
5.1	0.00384430487424479	0.000136129600922687	1.50726425433852E-05	-1.02605836266441E-05	3.42237479896813E-06	-8.68874543965238E-06	0.984130461142685	-0.127011491371893
5.2	0.00390591811926234	0.00023533414717332	-4.22975451100302E-06	-4.66595967941576E-06	-3.14153661973785E-06	5.36271146710099E-07	0.983436236414643	-0.128823472535828
5.3	0.00417629590616923	0.000147982370870242	4.76102786895587E-06	3.32843202494951E-06	-9.2558969919473E-06	-4.66919689648056E-06	0.982695565802728	-0.130612003544144
5.4	0.00444137069564658	0.000154912646369482	5.14423007853931E-06	1.16646889278981E-06	-4.22656469499838E-07	1.03745346113545E-05	0.981898493830558	-0.132529519153849
5.5	0.00532694851170218	-0.000553702650979128	-1.80070599932339E-06	-1.95776321798094E-06	8.80087507624524E-06	4.80880197508101E-07	0.982176113350059	-0.133563160305008
5.6	0.00428252875115654	-0.00157595197995844	4.22208383090486E-06	7.16296789628587E-06	-4.74793951953384E-07	-8.54155034381767E-06	0.982606064532812	-0.136515338142848
5.7	0.00351660738873205	-0.00127274940052705	2.03760670557325E-06	-7.19159418895493E-07	5.43047707840637E-06	2.42601562141889E-06	0.981723305453608	-0.138907225226703
5.8	0.00314397734572339	-0.000976914729640591	3.88089513132456E-06	1.94030582618663E-06	2.71672287993283E-06	7.76473689840134E-06	0.980935995149966	-0.140277938401118
5.9	0.00283592597608262	-0.000431452869084607	-3.75022155622495E-06	-3.03299275782961E-06	-4.65937900419749E-06	-1.76655560498993E-06	0.980583834244451	-0.140523543435539
6	0.00369398380864288	-0.000277820619899351	-2.06334048706211E-06	1.69256135088419E-06	1.03629902450626E-05	-2.64125592250488E-06	0.983301780393654	-0.141915639661304
6.1	0.00294477306855959	-0.00165753897206718	-7.26922149499548E-06	-1.09023631505129E-06	-7.21212004400819E-07	-2.46304834737428E-06	0.98200636724114	-0.145298286993434
6.2	0.00152622278576378	-0.00163051388241111	-1.05291317058855E-06	1.97082251408226E-06	-3.44996202963212E-06	-5.31590399212413E-06	0.980364339310606	-0.145773819093885
6.3	0.000605604892440109	-0.00104135310056818	1.55955146056962E-06	2.80760495177302E-06	1.12852333065899E-06	5.92097092583122E-06	0.979804719054654	-0.146479734239294
6.4	0.00035452978753848	-0.000122905724191653	2.04381392570807E-06	4.99982220561271E-06	-3.31012975194392E-07	2.24867671926965E-07	0.980299937246257	-0.147627787148627
6.5	0.00119320615958687	-0.000355855907359707	4.62952398279827E-06	-1.85980448564484E-06	-4.64919617733034E-06	-1.53803124826375E-06	0.980672237332848	-0.15195465485945
6.6	0.00025146223201	-0.000584574399047248	3.2511098791078E-07	-1.05781076715458E-06	9.19842585829496E-06	3.32634721720141E-06	0.978519627136017	-0.15373565933736
6.7	4.40587413549174E-05	8.49041065864411E-05	5.03627076534041E-07	5.56318073396252E-06	-1.79199160207817E-06	4.92179367174339E-06	0.978485461865817	-0.154760325428085
6.8	-5.40206195202584E-05	0.000603534488143436	1.81357664248418E-07	-1.57243225260357E-06	-3.42514170886469E-06	-5.09233412111155E-06	0.978346757952924	-0.156250525395254
6.9	-2.35317934814174E-06	0.0015520672918344	-6.62405242551067E-06	6.63435235586899E-06	2.26314781303298E-06	1.3542758503329E-06	0.978373046642194	-0.157168349792595
7	0.00135377506244717	0.00157833981496371	8.00008399610168E-06	3.1799314707394E-06	4.50281498325017E-06	5.83949151491322E-06	0.979586038638118	-0.15855829158024
7.1	0.000373365873511279	0.000900259542484913	1.38035085798077E-06	7.85687181478705E-07	-2.22852496429149E-06	-4.45442732631292E-06	0.978949719342516	-0.160997664189439
7.2	-0.000220855633614232	0.00173407105458317	-1.63809722525231E-07	4.36336483078432E-06	-4.96873421545667E-06	-6.86368875196707E-07	0.977971391818932	-0.162367571984315
7.3	-0.000425633047522724	0.00253379284258899	1.37861075504108E-06	-5.21459137028615E-06	-2.31088002490106E-06	-2.78478234651209E-06	0.976559978202221	-0.163669006143147
7.4	-0.000559253273355583	0.00363285031061581	1.78758161108027E-06	4.39862999656813E-06	-7.13667095117949E-07	-1.06596555508326E-06	0.974290774413201	-0.16432008715819
7.5	0.000869526561941214	0.00431339857714083	-5.68033483925274E-06	-1.54167611248203E-06	-1.46965773071929E-06	-8.84803475014445E-06	0.975622757988699	-0.162604870579804
7.6	0.000610366568334006	0.00313793219766021	5.63482194960915E-06	-3.30904891243118E-06	9.8275004287347E-07	3.18658839595637E-06	0.977960573194995	-0.16697068049346
7.7	-0.000105733426246513	0.00326818855606178	-6.44836171523521E-06	-2.91908258742912E-06	4.30062600254885E-06	5.69412711038393E-06	0.977614220933248	-0.170595381690658
7.8	-0.000431943139489016	0.00361774122445738	-1.02304363054192E-06	-5.34863622525626E-06	-2.24618997832931E-07	1.13720323641872E-06	0.977473629095745	-0.173149505014259
7.9	-0.000204092757850841	0.00427599302066938	-3.42125793032708E-06	7.1499876300636E-06	5.49961569443664E-07	-6.85458931406937E-06	0.97851409235828	-0.174484211395672
8	0.000940125849592518	0.00354613101466706	-3.18522037880046E-07	7.3848462977741E-06	1.82408671860005E-06	-4.43870975081762E-06	0.982989319689476	-0.178756049217794
8.1	-8.67806764176535E-05	0.00327023397455359	-6.79877921114001E-07	-6.47615366555177E-06	-1.73933251860449E-06	-1.07974728360386E-06	0.981074131269449	-0.18491172989637
8.2	-0.000315732102570492	0.00401375247196121	-3.84134851550026E-06	1.61752090038095E-06	-1.0944782749857E-05	-2.71321617963878E-06	0.979623398882752	-0.18717774915225
8.3	-0.000326042343315536	0.00468300223721982	-5.45828493601789E-06	-9.91193431606369E-06	-7.81561204620436E-06	2.94940025427695E-06	0.978898175843039	-0.189456217539496
8.4	-0.000140394101051673	0.00588525475918318	6.83005120434664E-07	-6.04794367346914E-07	-1.4213589295103E-06	4.28660361999054E-07	0.978636658043607	-0.19176886843317
8.5	0.00150432886002692	0.00627065183267745	-1.75075136029992E-06	-2.70584106084438E-07	-2.17259798637625E-08	1.80384210882375E-06	0.978342031940488	-0.195182170468593
8.6	0.00111716198883044	0.00584471577927649	2.46305294598095E-06	-3.95061086636938E-06	-4.51084217304496E-06	-5.96354268897006E-06	0.977432928185947	-0.197448796049684
8.7	0.00117482879209395	0.00681189658986983	-1.48097102668661E-06	-2.11058525615651E-06	-3.59563977547526E-06	3.60883953653276E-06	0.977608944638907	-0.199562411854661
8.8	0.00186042003503852	0.00765832544781692	-5.48983838245107E-06	-2.17475568323688E-06	-7.23757806176214E-06	-1.33704396895364E-06	0.977953443601623	-0.20181173555524
8.9	0.00295435007405942	0.00844222419196339	8.54834929282473E-06	4.17671765027498E-06	-1.44715495294199E-06	3.19780062005064E-06	0.978637796183161	-0.203969806619165
9	0.00527641388211035	0.00817688574423662	-5.31942652261201E-07	4.16549317508559E-06	-7.84251125174685E-06	1.17373188274236E-06	0.979284205754508	-0.206431347858186
9.1	0.00577887940683979	0.00672381036681016	-2.61793558152942E-06	6.6304639933187E-06	4.14059751627681E-06	-3.05495269398447E-06	0.979716034662726	-0.209177030559551
9.2	0.00617508125608276	0.00611423437047756	-1.20811566657322E-06	3.42567227670364E-06	-2.23617836674373E-06	-2.08256452454643E-06	0.97966882999639	-0.212322124084043
9.3	0.00649663812143271	0.00548043754311599	2.36465862351245E-06	-4.03640579574795E-06	-7.81847776075882E-07	-1.79306315975047E-06	0.979198313835912	-0.215415492360326
9.4	0.00681303356435452	0.00527486553824601	-1.83475395470385E-06	3.89353367553002E-06	-2.04652525794694E-06	-3.6061404163826E-06	0.978013100395592	-0.2180266489847
9.5	0.00777773076284087	0.0042688468932288	3.44287191778425E-06	6.34769932098072E-06	3.88977801687161E-07	-2.15248240257543E-06	0.978579287977951	-0.219595480921588
9.6	0.00676861199550555	0.0035000263413163	4.57543005332443E-06	7.16234556277742E-06	-8.40332407763665E-06	1.2789983092219E-05	0.978957601533696	-0.224062037835675
9.7	0.00658443606975138	0.00391083820504437	-2.88604119108236E-06	-1.57023491873779E-06	-1.35852706391927E-06	-4.00902097878197E-06	0.978181476776842	-0.227094269612315
9.8	0.00682230725556498	0.00415006024822765	1.64132454604428E-07	-3.61976455860521E-06	3.04432746758649E-06	2.44490695528622E-06	0.977963508139274	-0.228888161481545
9.9	0.00730223471897653	0.00459668306039908	5.85299791747147E-06	-5.60698926317644E-07	-2.65707796101196E-06	6.75620093593487E-06	0.978961902415274	-0.229371822678431
10	0.0089233236812603	0.00396837052245298	-1.14959103549493E-06	-5.95126235129497E-07	1.38977174807504E-06	-1.18845091718154E-06	0.983211717628099	-0.233794200261179
10.1	0.00836005511143161	0.00259922295596738	7.72620245112662E-07	-8.50306261663647E-06	6.19840042106641E-06	3.68325390016475E-06	0.98039346129693	-0.239362325964487
10.2	0.00795490620842682	0.00259410815958035	7.52331133783702E-06	8.45119568926322E-06	5.25824711630376E-06	3.59864126118646E-06	0.978540919129896	-0.240851053931495
10.3	0.00795454949707466	0.00276529833794707	1.81504772263298E-06	-7.02352596849009E-06	1.42563827793065E-06	2.90748943177058E-06	0.977754866454427	-0.242487391307678
10.4	0.00850471671472231	0.00319129163312961	-4.0594298375278E-06	-3.70167077606473E-06	2.00279020966221E-06	-5.65562682297536E-06	0.977911086831541	-0.244630946982129
10.5	0.0101521215772104	0.00239365657029318	3.93783645590004E-07	-7.14759742742995E-06	-5.80499885930533E-06	4.10746638085992E-06	0.977914190092448	-0.249296540917707
10.6	0.00985036145879706	0.00112929051125774	5.53419934514928E-06	6.82361935457124E-06	2.45812641402894E-06	1.21309193460895E-06	0.976422361545206	-0.252499466074283
10.7	0.00977597520115815	0.000821037429220666	-7.15842411089626E-06	-1.72306104445348E-06	-7.85263387709857E-07	1.57677333686971E-06	0.975983229195846	-0.25619842486304
10.8	0.0097957123946457	0.000584380244857212	1.50225954315344E-06	4.49912322084744E-06	9.53448819210229E-06	-4.51867767751412E-06	0.974923233944849	-0.259485167952039
10.9	0.010132572223803	0.000766912324876198	3.36161801754588E-07	7.51453767827819E-06	-5.22842690790143E-06	2.15141220211518E-07	0.9743988824755	-0.26219239929986
11	0.0117296330589067	-7.95541402871417E-05	-2.25802495914423E-06	-3.86547288159191E-06	1.21740302856168E-05	-3.61883488678635E-06	0.973986104331807	-0.265271236607131
11.1	0.011325591794524	-0.00137926539349753	-6.19705999030529E-06	-4.98240021131595E-06	9.70171804757417E-07	5.64202032743971E-06	0.971830128141039	-0.268325699971644
11.2	0.0114804800834012	-0.00177802332429734	3.36479166901305E-06	4.34933052769733E-06	1.0582479667189E-06	-7.9756184539449E-06	0.969671267899541	-0.270411024652604
11.3	0.0119872450923086	-0.00241002027002062	7.12671128964907E-07	-2.69129424286707E-06	-4.86846035405759E-06	9.23774959414799E-06	0.967350062718084	-0.271947060692258
11.4	0.0124462352929484	-0.00312482676762434	1.48425533541735E-06	-2.23086574753574E-06	-3.06884369640695E-06	-7.50382883595269E-06	0.964728435323747	-0.273011509842678
11.5	0.0136586352505161	-0.00511295065287517	9.56206345960886E-07	-1.02181415139076E-06	-9.12630110709892E-07	-8.7908990300178E-07	0.96623326179029	-0.273666324836523
11.6	0.0125759540126438	-0.00750055888596484	1.13575590192102E-05	-3.34628039257194E-06	-5.50840655623654E-06	-6.90293107305016E-06	0.965855147011392	-0.279756087533166
11.7	0.0117253533956546	-0.00873816462148225	5.38010278674042E-06	-2.9552046592364E-06	-4.45742168960752E-06	1.69090870147552E-06	0.963460210350099	-0.283836920660596
11.8	0.011007163463444	-0.00992733312832865	-4.6850231542143E-07	-2.57502273480704E-06	1.13991418002199E-06	1.34107949729146E-05	0.961880437076787	-0.286733820878813
11.9	0.0108035130058509	-0.0108876426704255	3.37279843348427E-06	1.99818324545521E-06	4.16542877415534E-08	1.28853978564662E-05	0.963427477520524	-0.287768721934849
12	0.0108097930271457	-0.0132822510592379	2.03507513718675E-06	4.77808643890533E-07	-3.75735700684043E-06	-9.59893248626759E-07	0.967706244003825	-0.294651201139216
