# GHZ S RI R 50
0.2	0.000568111529436114	0.00376546700080348	6.3045263607246E-06	-1.00796672780251E-06	1.0668020298114E-05	1.049321942013E-05	0.999320007090655	-0.00711393106143861
0.3	0.00119766693216575	0.00338500530886299	5.81644104343532E-06	5.0360069236731E-06	8.09549913922317E-06	2.95236930579904E-06	0.999077203011242	-0.00999969451099828
0.4	0.00168076458455667	0.00318295050915462	-2.7079564365386E-06	7.86860776448671E-06	-4.8122529474483E-07	-4.43009641299684E-06	0.999036594006848	-0.0126104701492053
0.5	0.00180907363654791	0.00311354522441037	2.3074686094998E-06	1.47924721711709E-06	7.51034237387991E-06	-1.05143034306743E-06	0.998747412035052	-0.0154850832185894
0.6	0.00220699196094259	0.00342128224127475	3.21790432959424E-07	3.54003443106211E-06	2.74300892070795E-07	-7.66139576856992E-06	0.999228615099243	-0.0183635958374107
0.7	0.00261571959826704	0.00348687570102824	4.16682312308292E-06	5.04211494811201E-07	-3.89556328870121E-06	-3.53819203705763E-09	0.998961644305641	-0.0216043308301922
0.8	0.0030448341862668	0.00353098078947171	-2.8877786445088E-06	2.96463461338138E-06	-6.82187861250206E-06	1.32061852171589E-06	0.998654757673842	-0.0239729195368142
0.9	0.00346730855494877	0.0034568808566245	6.0364901781545E-06	8.97962099204358E-07	-7.34139722299535E-06	-1.83099338483253E-06	0.998339954200606	-0.0265384071902866
1	0.00358941363215518	0.00302097217505976	2.35938728506791E-06	2.94293045807482E-06	-9.03997387463745E-06	-2.59596763934733E-07	0.997557926144153	-0.0281724118814372
1.1	0.00334481452323093	0.00311209260016126	6.43632410942248E-07	3.57814525674928E-08	-5.29910701138837E-06	1.40071117087861E-06	0.997148398897082	-0.0295431247631045
1.2	0.00333314619018768	0.00286028217585802	-5.28997970494932E-06	-3.29037434110553E-06	-1.11735960517255E-05	-1.26561372493944E-05	0.996799689494875	-0.0302613230201211
1.3	0.00289764279790379	0.00228382115247218	3.04663337352039E-06	3.10426755732575E-06	6.95777954539851E-06	-4.07840037344207E-06	0.997153740058844	-0.0308739984235636
1.4	0.00245526718309103	0.0017217234296377	-2.79770594639464E-06	-1.11587978632292E-06	5.71199097818628E-06	6.74213906834134E-08	0.997386909160622	-0.032717732347358
1.5	0.00214232390687767	0.0015655093708295	1.2430414315814E-06	-2.53305002952613E-06	7.9977987253424E-07	2.51337519945185E-06	0.998266625766609	-0.0361598285400859
1.6	0.00253652785855946	0.00191117824400648	-9.28767950923743E-07	-6.41951931985087E-06	3.1903090169748E-06	-4.24339657950363E-06	0.998272126768799	-0.0398414506566425
1.7	0.00303194600364247	0.00188292319290394	3.40710990674446E-06	6.35717058756935E-07	2.23383328758846E-06	3.85609898606183E-06	0.998567456901253	-0.0427832724315862
1.8	0.0033537086864918	0.00189212587151765	-2.38057047460356E-06	2.89846583687161E-06	-1.01292509339198E-06	-4.00073759759028E-06	0.998406293967655	-0.0457646614266477
1.9	0.00359566031821091	0.00165909145516873	-3.73461468833065E-06	-1.76243705823301E-06	5.63298014389476E-06	3.03118996969439E-06	0.998312569660728	-0.0484329418738757
2	0.00330609680232146	0.00151162745654831	-6.17926050459773E-06	-5.75217929629376E-06	-2.07898534438172E-06	9.15766042172743E-06	0.996974442332089	-0.0515197287138656
2.1	0.00333123407175331	0.00191167388141044	1.17012859542045E-06	4.60695318247201E-06	4.48140259539813E-06	3.99358710149282E-06	0.996645511796107	-0.0528586083211146
2.2	0.00355982181362458	0.00199853146705336	6.5601224429374E-07	9.07601036716259E-07	-3.62413343685117E-06	-1.09453347451183E-05	0.997144442568992	-0.0551931492357242
2.3	0.00371430572962731	0.00190826586718583	-2.28857178332214E-06	3.56119689792096E-06	-5.33977581958252E-07	-2.79822483961713E-06	0.997034430896493	-0.057198927718708
2.4	0.00381710203357867	0.00164169401107723	-1.55722468701501E-06	-1.45755474131952E-06	1.28565543940889E-06	-9.98915832186737E-07	0.997095786656948	-0.0604338059156638
2.5	0.00333195945587881	0.00111084437744405	7.79404700672772E-06	4.06824379263496E-06	-2.34602978838826E-06	-7.23722886137147E-06	0.996775122850895	-0.0627849276746763
2.6	0.00271046179063932	0.00145767160430583	4.87224211611391E-07	2.12033024688801E-06	-1.46971984868855E-06	4.69226635584392E-06	0.99684155446782	-0.0657612522413172
2.7	0.00257667966986102	0.00189879312909124	-7.87520500164648E-06	5.24940895745104E-06	2.53899226888611E-06	9.73254994130601E-06	0.996431450107035	-0.0689080129127801
2.8	0.00279806432190968	0.00237601419069157	-7.74965746719154E-06	7.96712224976025E-06	6.02967502939425E-06	1.99373428787555E-05	0.996438701851382	-0.0708493656824564
2.9	0.00330659715435113	0.00248310034712012	-1.19076665091491E-06	8.61312521601339E-07	-8.12872051119398E-06	-2.96199598650498E-06	0.996191000153667	-0.0728306699325053
3	0.00346086246408626	0.00245793009293896	-6.12742286456147E-07	-4.47721750503391E-06	-2.18432234860643E-06	6.44727937194421E-06	0.996088491766293	-0.0752667626025542
3.1	0.00395942776743871	0.00275470141020155	-2.59091660733112E-06	9.08003921246457E-08	1.10246678603171E-05	-3.53693982255305E-06	0.99579214048457	-0.077191027135809
3.2	0.00450696102749601	0.00263158737546948	-9.80500878191498E-06	2.55436654207009E-06	1.21735932671673E-05	4.26025053335836E-06	0.995664380952399	-0.0789104720653856
3.3	0.00490580667588098	0.00228648286689854	-3.47014434258372E-06	9.35285665039679E-07	-5.01366553758363E-06	-1.41674354144247E-07	0.995582338957764	-0.0820675949697959
3.4	0.00513036485873158	0.0017996017754465	5.35150883124762E-06	4.86769266323527E-07	1.35000104528275E-06	4.47050432063176E-07	0.995838544934992	-0.0839492922992438
3.5	0.00476300588161824	0.00126489922683746	2.77323201399043E-06	1.55920721700014E-06	1.31466753376312E-06	7.9297003908031E-07	0.996069160277195	-0.0871967187630385
3.6	0.00461152306043798	0.00151901416223672	-7.15563655284664E-06	-1.26876706347144E-07	1.86358142579736E-06	-3.50263998591441E-06	0.995554320214696	-0.0899441784492716
3.7	0.00480597762076777	0.00144298930805596	5.78074475476042E-06	-1.5186509626367E-06	-3.26841195200263E-07	-1.73380904609354E-06	0.995373362575577	-0.0927119233188502
3.8	0.0050127091915655	0.00121086382250446	-2.00338165322E-06	8.79391061948474E-07	-5.19813822274857E-06	3.03362747591156E-07	0.995050038202069	-0.0949302177923204
3.9	0.00514832623320949	0.000711068364747452	-8.37328756203561E-06	1.79224752427501E-06	-4.12400214553572E-06	-1.49650760002183E-06	0.994934204779611	-0.0985406595561858
4	0.00456149878814384	0.000206258293135582	-5.8280466096304E-06	3.77395966549066E-07	-9.51739676740333E-06	-8.4400248711285E-06	0.993364575564293	-0.100224202628975
4.1	0.0043043217473373	0.000652601985648545	-3.98410147035973E-06	4.07087481972291E-06	-1.87554596303355E-06	5.58485257135527E-06	0.993174295139446	-0.100831186148847
4.2	0.00453077949280874	0.000726057051438955	4.61839536019521E-06	-4.39177590026099E-06	6.75808228086057E-06	7.48588972965693E-07	0.993181979530852	-0.103376466948843
4.3	0.00473788083187373	0.000567955314855411	-3.79676694038227E-06	1.13161581107486E-06	3.54950972657655E-06	-1.21063693969723E-06	0.993224910753051	-0.105531662905043
4.4	0.00481460973770355	0.000124533485357139	-3.15444383055465E-06	-4.93370545353745E-06	9.29314719603503E-07	-1.03752622745996E-06	0.992793023315745	-0.107882101830625
4.5	0.0040919534093718	-0.000391098287538068	-1.39140060497103E-06	2.03167063118422E-06	2.14206182761076E-06	-8.47854314962229E-06	0.992801420016991	-0.109653273638898
4.6	0.00348745554529832	9.94803012158742E-05	5.40613444331638E-06	9.60587854291716E-06	-1.42159899136559E-05	9.83224193986156E-06	0.9933334745737	-0.11257550547901
4.7	0.00339110349470697	0.000423727125696021	-7.60988663686333E-06	-9.57111656141264E-06	-1.14692910938378E-06	-1.34321407953314E-07	0.993442481042278	-0.115115126081048
4.8	0.00341334553238731	0.000722292180963697	-8.7585312378284E-06	-2.6840823541348E-06	-4.3818669907348E-06	4.55372929168351E-06	0.992991132435959	-0.1179743115404
4.9	0.00369997404521566	0.00078566459672398	5.78782257677229E-06	8.32174454476553E-06	-7.26243641949072E-06	3.29093203744955E-06	0.992516201163351	-0.1199617233855
5	0.00357777136972685	0.000623672619893307	4.27950006236588E-06	-8.5605152629235E-06	-4.30463253461753E-06	-6.18687050193912E-06	0.992418763288577	-0.121567776023249
5.1	0.0040840384448973	0.00105101044286212	1.52335167420722E-05	-1.02826830976737E-05	3.48410356566558E-06	-8.74447916107822E-06	0.992625559424707	-0.123120499958084
5.2	0.00485364105862644	0.000633602230041731	-4.24501401069456E-06	-4.71724556417361E-06	-3.16757360735509E-06	5.28836738588602E-07	0.992312862041028	-0.12569651791635
5.3	0.00520797840572699	-0.000128111709717029	4.78553573796046E-06	3.37244068836928E-06	-9.31037373869149E-06	-4.74070447474051E-06	0.991821119575336	-0.128090651318243
5.4	0.00510848318460527	-0.00100691963720716	5.18509031072524E-06	1.19853075296122E-06	-4.7014406772963E-07	1.04650724642832E-05	0.991795623562334	-0.130668436821625
5.5	0.00397065857169599	-0.0014334280106746	-1.81645397097605E-06	-1.98304575012271E-06	8.89671764248602E-06	5.04451088146611E-07	0.991790105524402	-0.133812326520303
5.6	0.00373106780215898	-0.000614407894707168	4.25955259989438E-06	7.23226651148739E-06	-4.76299879400058E-07	-8.62259019054243E-06	0.991289905722227	-0.136386058453611
5.7	0.00397869524464502	-0.000488821903908034	2.05648812082436E-06	-7.25243974006475E-07	5.47970013672434E-06	2.44965305746606E-06	0.991150924340228	-0.139009024146134
5.8	0.00413459247824353	-0.000623388623457994	3.91838759644873E-06	1.95659923489605E-06	2.74620606456047E-06	7.83641557005002E-06	0.991036746864907	-0.141600844173273
5.9	0.00427732485922627	-0.00112876688185176	-3.79097666250739E-06	-3.05094976811469E-06	-4.70517267934517E-06	-1.77102808543499E-06	0.99041565567972	-0.144736356568689
6	0.00319639366673729	-0.00223308764737417	-2.07080456126308E-06	1.70603442159855E-06	1.04129555277059E-05	-2.67749158906341E-06	0.987759752233964	-0.146693323555882
6.1	0.0018107297843902	-0.00167155571051755	-7.31726157830333E-06	-1.10006082520115E-06	-7.25148360610779E-07	-2.47971024765902E-06	0.987379743088848	-0.145924386756248
6.2	0.0011357758985909	-0.00111870531983476	-1.06038173870609E-06	1.98682407540459E-06	-3.47945392957037E-06	-5.35638284319325E-06	0.987529115885021	-0.146798408797486
6.3	0.000850423749060693	-0.000575192933867633	1.57603591847502E-06	2.82747830331837E-06	1.14621646069339E-06	5.96608403585975E-06	0.987445622425394	-0.148573458980095
6.4	0.000844615396700439	-0.000531385446559163	2.06715304655323E-06	5.02967229772236E-06	-3.32818272705216E-07	2.27017384471275E-07	0.986996882223015	-0.150842882513554
6.5	5.75715138609992E-05	-0.000415761515849564	4.66438935753035E-06	-1.87053781693475E-06	-4.68213646902097E-06	-1.55206836641735E-06	0.986618262202966	-0.152448174122535
6.6	0.000349600992249838	0.000479337677432413	3.2707572711863E-07	-1.06887636753211E-06	9.29526857909661E-06	3.34846450449008E-06	0.988143115086122	-0.155299775596715
6.7	0.000681337127783294	0.000563553923412292	5.26586323762311E-07	5.61600813483581E-06	-1.79358341638348E-06	4.9757819707056E-06	0.9881006605407	-0.158810141165563
6.8	0.000780229364415254	0.000705758359631417	1.7616882052603E-07	-1.58759862090853E-06	-3.47863162221786E-06	-5.12397865386588E-06	0.987388531662682	-0.161681277540459
6.9	0.000883187675209498	0.00058677887201828	-6.64688039894268E-06	6.72379588605177E-06	2.28911636998632E-06	1.35439299927889E-06	0.986737412386551	-0.164242012845253
7	-0.000225212360666883	0.000591838430495373	8.08256186458263E-06	3.163268395735E-06	4.57085249474773E-06	5.86327169543378E-06	0.985140736839581	-0.165989694111874
7.1	-0.000350225843538968	0.0022116078752856	1.3959314083214E-06	7.83635858239935E-07	-2.27271533824535E-06	-4.47624148583073E-06	0.984900270504592	-0.1666912725843
7.2	0.000307698040080891	0.00293628017976977	-1.37765412823209E-07	4.39725103549499E-06	-5.01044651544442E-06	-6.6047562525152E-07	0.984784677497326	-0.168347314493847
7.3	0.000902699139034659	0.00330356972456561	1.3568149405294E-06	-5.26288252778272E-06	-2.34574772167595E-06	-2.79169446417074E-06	0.984294554357674	-0.170017785351197
7.4	0.00159596787619883	0.00308525943754648	1.83236554685403E-06	4.42816475516589E-06	-7.27132269255956E-07	-1.07132911410858E-06	0.984577556547314	-0.172482728306942
7.5	0.0009460107632747	0.00195650232449503	-5.7556739751072E-06	-1.49469343308625E-06	-1.5825671736216E-06	-8.92258758120302E-06	0.984034649329749	-0.177347061209085
7.6	5.58302512345741E-05	0.00257223803741082	5.63100829402092E-06	-3.39809712352991E-06	1.02742376845089E-06	3.19513575724878E-06	0.981726561121016	-0.180319522106135
7.7	-0.000243383757906976	0.00285417780645964	-6.51835929694239E-06	-2.85971298332241E-06	4.39122538920574E-06	5.67532878095303E-06	0.981011340145345	-0.183366274235797
7.8	-0.000405617249211624	0.0029991742154298	-1.09436802049612E-06	-5.36377002145542E-06	-2.11749090212893E-07	1.14587787608932E-06	0.980523235604149	-0.186721414315878
7.9	-0.000525875252141544	0.00290281461604541	-3.33335128312939E-06	7.23074885810285E-06	4.53664096398108E-07	-6.89269732892537E-06	0.979923785908198	-0.190726670512979
8	-0.00169776814016162	0.00339610206892792	-2.03754270135059E-07	7.38214042074832E-06	1.75341536215365E-06	-4.46238327988799E-06	0.976584219097694	-0.19402271048999
8.1	-0.00103783243325894	0.00504866758823326	-7.531981318551E-07	-6.45404195493589E-06	-1.74797734740913E-06	-1.05727625132356E-06	0.975734542763175	-0.194016900778822
8.2	-5.98904615542694E-05	0.00555014496712308	-3.81731447839488E-06	1.65608081842985E-06	-1.09551181980175E-05	-2.59072751219406E-06	0.976079355106775	-0.195784173558337
8.3	0.000728365491395688	0.00576183606899226	-5.55165405457953E-06	-9.83216666091675E-06	-7.76711095831768E-06	3.02599507408183E-06	0.975700470189089	-0.198260949345058
8.4	0.00142581892296281	0.00559254844277077	6.74805650128316E-07	-6.093647317561E-07	-1.41235345170653E-06	4.4099965837659E-07	0.974930494165076	-0.200777469327538
8.5	0.000703697758804125	0.00540455789498308	-1.74926938775193E-06	-2.56796065023362E-07	-8.03793846496902E-09	1.80037076942991E-06	0.974047058716262	-0.202925849521709
8.6	0.00096504715549256	0.00710327290940953	2.42208586033466E-06	-3.9696234895848E-06	-4.56289037823124E-06	-5.91301608443205E-06	0.974145528572976	-0.205246632216138
8.7	0.00225052823831898	0.00787038613199339	-1.49891307087733E-06	-2.0895868895421E-06	-3.54860191465116E-06	3.6365072656351E-06	0.97392859735664	-0.207955988350937
8.8	0.00368819059865277	0.00811689925322023	-5.48910306704815E-06	-2.10943801460372E-06	-7.22094354631655E-06	-1.25734237535006E-06	0.973568248414753	-0.210344755963861
8.9	0.00531102249184154	0.00746940432387052	8.53782534993127E-06	4.07578633243639E-06	-1.41004965626735E-06	3.1928208794423E-06	0.973605573659304	-0.212479001445616
9	0.00557277626067123	0.00606781597540109	-4.96821462504955E-07	4.15050760183547E-06	-7.79723458346198E-06	1.22985121344937E-06	0.973418520534221	-0.215155534760677
9.1	0.00596855513701957	0.005822708178887	-2.54474108072514E-06	6.61779235960287E-06	4.0909568986921E-06	-3.07522303810546E-06	0.9726667347637	-0.217496916512602
9.2	0.00639168035916459	0.00495339063672766	-1.17282258047127E-06	3.41326611815025E-06	-2.23846646532572E-06	-2.05117724054146E-06	0.971814898517526	-0.219799850865278
9.3	0.00635004130684245	0.00427266798699366	2.32192397481445E-06	-4.02677759539772E-06	-7.8911680585253E-07	-1.77625000017647E-06	0.971283021945055	-0.221762328657518
9.4	0.00624879359488385	0.00365956799066823	-1.80252519310414E-06	3.88489025241632E-06	-2.05761438975253E-06	-3.57596931526619E-06	0.971247602350736	-0.224165198961087
9.5	0.00520975186743621	0.00370099640171751	3.48705127061493E-06	6.29587668780215E-06	3.68718202537548E-07	-2.14860520109174E-06	0.970742248440703	-0.227817543663938
9.6	0.00565822616977327	0.00494099456978905	4.61584148011911E-06	7.07216408297621E-06	-8.22538291244141E-06	1.27900288986584E-05	0.969459730569158	-0.230461871472976
9.7	0.00664720602032857	0.00511814388770968	-2.87863779888648E-06	-1.53310597100089E-06	-1.38397929270155E-06	-3.96741138093322E-06	0.969093308123297	-0.232618804209182
9.8	0.0075448421142112	0.00491463673853758	1.31160003600052E-07	-3.59359099731037E-06	3.04253009245108E-06	2.39957918549153E-06	0.969327100640142	-0.234706850326182
9.9	0.00841205945571318	0.00415153738195178	5.79650417938091E-06	-6.15911851863362E-07	-2.56470031861033E-06	6.72490381934769E-06	0.969356381272704	-0.237635108592528
10	0.00772028355035661	0.00316007336093619	-1.13911962327268E-06	-5.76771191062492E-07	1.36018342988788E-06	-1.18449801353142E-06	0.966617939676048	-0.239879619910748
10.1	0.00780416143407596	0.00395549163072444	7.22523366767343E-07	-8.39868848357569E-06	6.13709594748446E-06	3.60709406340963E-06	0.966406449348007	-0.239383601020999
10.2	0.00872161036207976	0.00393164103549947	7.47134076139124E-06	8.31936500639662E-06	5.21196080678952E-06	3.53363702499844E-06	0.966943647111513	-0.240675998143725
10.3	0.00967557494550637	0.0034365926343962	1.76433784392315E-06	-6.94580292114548E-06	1.42023995060929E-06	2.86641680488115E-06	0.96684555920816	-0.242657398304482
10.4	0.0105960446798	0.00211523076907067	-4.01521005515796E-06	-3.63973090918337E-06	1.95921965259665E-06	-5.58484794573838E-06	0.96629578092611	-0.245058279479303
10.5	0.00978713690414429	0.000631439265648235	3.93888583946219E-07	-7.05782991284245E-06	-5.73521206110405E-06	4.0519502275133E-06	0.965718559280422	-0.247157879954873
10.6	0.00949505003662373	0.000658709207445234	5.47720608181182E-06	6.74974232908065E-06	2.43234189805275E-06	1.19957716720423E-06	0.965793006640473	-0.250425296139562
10.7	0.00938762254924815	0.000508087167030749	-7.07708398013718E-06	-1.70058610715451E-06	-7.75665301290801E-07	1.5590118444357E-06	0.964480554344752	-0.253783090819796
10.8	0.00965376279058741	0.000630754663414167	1.48125008536174E-06	4.44508543509071E-06	9.42076388893255E-06	-4.45785463691392E-06	0.963241615688754	-0.255512133372213
10.9	0.0103680687184123	0.000169363689924525	3.14782520469803E-07	7.41982994618205E-06	-5.16248894993515E-06	2.00504294420251E-07	0.963005649505919	-0.257172818789201
11	0.00987143176045252	-0.000537459183915288	-2.21867108541307E-06	-3.83095262156097E-06	1.20523842553734E-05	-3.53363480257919E-06	0.962390823933141	-0.259133763077337
11.1	0.0105297914503575	0.000138575152066618	-6.11284227375572E-06	-4.94899480786359E-06	9.40639688846492E-07	5.58385948485713E-06	0.961428897410883	-0.260453870251248
11.2	0.011837665028581	-0.000431616365714303	3.30899235988652E-06	4.31563808554349E-06	1.08065831168339E-06	-7.88292057716644E-06	0.960605618517849	-0.261719728997217
11.3	0.0130577430745905	-0.00171418486657958	7.20354894562823E-07	-2.65933478453843E-06	-4.86966620444551E-06	9.11446979817537E-06	0.96037403101144	-0.262818336005015
11.4	0.0138765130073799	-0.0037627445562852	1.48745955534683E-06	-2.20251167811907E-06	-2.99238491157787E-06	-7.46373387509724E-06	0.960702317740348	-0.264746342863546
11.5	0.012859191712854	-0.0058908795418913	9.53415031443957E-07	-1.01140577939263E-06	-9.03243060432864E-07	-8.76426624789619E-07	0.960144189717987	-0.269030681103368
11.6	0.012707561779853	-0.00651702950262436	1.12617901208232E-05	-3.2674511460866E-06	-5.4269994682246E-06	-6.85897149447347E-06	0.958139626478646	-0.272089600034171
11.7	0.0129844540346292	-0.00824240256934393	5.34616134382189E-06	-2.89564827359651E-06	-4.42487602654495E-06	1.648775545339E-06	0.957527639421238	-0.275022847136845
11.8	0.0128126791010848	-0.0104877755746595	-4.47948008790783E-07	-2.55613154074545E-06	1.04392635520863E-06	1.3304043952972E-05	0.957644135458448	-0.278738465848562
11.9	0.0119546630746825	-0.0135131756149551	3.33447999111231E-06	1.99843091346522E-06	-2.35912327440042E-08	1.27776637121238E-05	0.958256015077422	-0.283329055244096
12	0.00830933823591034	-0.0156620447615955	2.00619690157646E-06	4.84317454235295E-07	-3.70355818214445E-06	-9.70920578100164E-07	0.954817790261098	-0.287524173898997
