# GHZ S RI R 50
0.2	0.000624914820766034	0.00381122454400023	6.30235537950738E-06	-1.00881677355282E-06	1.06666053874172E-05	1.04879414549731E-05	0.999339924256101	-0.00700757985938441
0.3	0.00126793784631742	0.00339539318814699	5.81531251607105E-06	5.03309266945231E-06	8.09315618651688E-06	2.94976891049944E-06	0.999069498502953	-0.00995085526874285
0.4	0.00176859788916622	0.00307842067664678	-2.70558935054686E-06	7.86494448078126E-06	-4.81537375560693E-07	-4.42778178462E-06	0.998829045338237	-0.0126814212526548
0.5	0.00175422034458214	0.00306599214675294	2.30638035603023E-06	1.47886659235233E-06	7.50737152222389E-06	-1.05026879985592E-06	0.998117005033496	-0.0152859420821085
0.6	0.00241956585378536	0.00341548159557771	3.2218594081857E-07	3.53867175992863E-06	2.73084105348519E-07	-7.6585879076699E-06	0.998643128743547	-0.017846590727869
0.7	0.00289187285810931	0.00326587069391385	4.16446758729662E-06	5.03264544409382E-07	-3.89328785098929E-06	-2.92622997855274E-09	0.998390219391064	-0.0208646639228476
0.8	0.00328622498469317	0.00317642463386201	-2.88548143046977E-06	2.96271896268482E-06	-6.81687599554172E-06	1.32017833961974E-06	0.998238795596051	-0.0230063406073621
0.9	0.00368064499269082	0.00297445530535406	6.03140741903258E-06	8.97508686471938E-07	-7.33517947660809E-06	-1.82982517613131E-06	0.998310589581139	-0.0255571268458738
1	0.00352191047682435	0.00243637723939606	2.35653777064933E-06	2.94140264973371E-06	-9.03275803202898E-06	-2.62429978854024E-07	0.997655012564273	-0.0276942253669238
1.1	0.00332372820578381	0.00288251761819131	6.43293778339037E-07	3.59428177194572E-08	-5.29679215997525E-06	1.3985169892378E-06	0.997045572707174	-0.029282572921676
1.2	0.00354122906755946	0.00260743366065524	-5.28676329893429E-06	-3.28981135393595E-06	-1.11656841663474E-05	-1.26521741336204E-05	0.996464478012224	-0.0301796257903046
1.3	0.00322016709775825	0.00195697352500649	3.04460901736649E-06	3.10360823001474E-06	6.95568023326505E-06	-4.07505717255774E-06	0.996473250182217	-0.0306799488005075
1.4	0.00284417373605038	0.00123904350724957	-2.79648377928244E-06	-1.11614341523731E-06	5.71000779343738E-06	6.87211847347667E-08	0.996573731278447	-0.0322366524238685
1.5	0.00241170160137811	0.00100939258318247	1.24271404060111E-06	-2.53206057008504E-06	7.99360733975886E-07	2.51249573916692E-06	0.996946473549629	-0.0355045662754857
1.6	0.00291693186940505	0.0011732980015776	-9.28478203101789E-07	-6.41521547524618E-06	3.18797802438996E-06	-4.24074492409666E-06	0.996834185040452	-0.0385637544813102
1.7	0.00321939964203518	0.000954273609598858	3.40410177439698E-06	6.35379035417637E-07	2.23164326175698E-06	3.85288144762828E-06	0.997297142608441	-0.0412332117158274
1.8	0.00338536483505694	0.000950198654487407	-2.37884308478373E-06	2.89532981171413E-06	-1.01127532694493E-06	-3.99716027583282E-06	0.997343366331967	-0.0441929588886231
1.9	0.00353082675418115	0.00071416964529754	-3.73071984859821E-06	-1.76126082811657E-06	5.62705145092906E-06	3.02905247154723E-06	0.997343188534308	-0.047245225250878
2	0.00308233935390688	0.000714651304778801	-6.16897404920886E-06	-5.7458397191937E-06	-2.07863673452931E-06	9.14422430835543E-06	0.995048056687978	-0.0505073646270278
2.1	0.0033634727999631	0.00119618566828471	1.16514136330205E-06	4.60257899174595E-06	4.47309143885039E-06	3.99253563898487E-06	0.994687326929719	-0.0509076041328643
2.2	0.00360249555647952	0.00110020588064282	6.54741015037066E-07	9.07225217565729E-07	-3.61281975861948E-06	-1.09377011339673E-05	0.995460178560199	-0.0529904088304137
2.3	0.0036477196224702	0.00095368131660525	-2.2887258050144E-06	3.55625587702032E-06	-5.31612336893567E-07	-2.79588551090664E-06	0.995583061346795	-0.0548341394180023
2.4	0.0036524330419947	0.000714926522536334	-1.55445895040193E-06	-1.45700993056273E-06	1.28491276931236E-06	-9.96896353874051E-07	0.995932814204706	-0.0581585828181409
2.5	0.00300656217763304	0.000351251135715149	7.78087965675165E-06	4.07114654593857E-06	-2.33613970276852E-06	-7.23103825196222E-06	0.99539801956309	-0.0608450278778328
2.6	0.00265625306207963	0.000976269554857738	4.84485597192075E-07	2.1185703445728E-06	-1.47305332936425E-06	4.68570743462615E-06	0.995142708409638	-0.0636492828912149
2.7	0.00278078807190113	0.00131829555613434	-7.8729013105798E-06	5.23490236431237E-06	2.52522077796439E-06	9.72520018384908E-06	0.994605507905244	-0.0665821683081527
2.8	0.00313464366418327	0.00161858780298962	-7.75226568329092E-06	7.94978630537568E-06	5.99888338857577E-06	1.99258856300322E-05	0.994674080527751	-0.0683057992228585
2.9	0.00366163128415434	0.001534561842346	-1.1910122928142E-06	8.58932854729283E-07	-8.11793094670829E-06	-2.97104734030018E-06	0.994640827930025	-0.0702578142948777
3	0.0037557604896147	0.00146077921851726	-6.05736001351178E-07	-4.47631530857698E-06	-2.19316023158853E-06	6.44135246709275E-06	0.99453174371544	-0.0728580912252021
3.1	0.00444285123109947	0.00159861168719464	-2.59037285705034E-06	8.71895847527779E-08	1.10267163736598E-05	-3.52076131273122E-06	0.994121474815776	-0.0745270882003138
3.2	0.00490512916638647	0.00120980745347085	-9.8076811957504E-06	2.53971092836821E-06	1.21660149148434E-05	4.27763335747622E-06	0.994197090248521	-0.0759034827131217
3.3	0.00515573191607968	0.000740408759728149	-3.47198491680776E-06	9.29995595559238E-07	-5.01400399063046E-06	-1.49483813582849E-07	0.994540624645848	-0.0788260092803502
3.4	0.00524848378181473	0.000199042324542942	5.35321222105756E-06	4.95432300633169E-07	1.34991946465356E-06	4.49385533781864E-07	0.995395437003627	-0.0808382144998508
3.5	0.0047350481248827	-0.000254196030238826	2.77344363206835E-06	1.56334377294004E-06	1.31470861234304E-06	7.94968412296354E-07	0.99544998986177	-0.0847681543335325
3.6	0.00475781943638554	-1.65617969398289E-05	-7.15775622089309E-06	-1.34812332338125E-07	1.86803475037477E-06	-3.50168979400073E-06	0.994556796257638	-0.0868899250395239
3.7	0.00483722252432452	-0.000304145067461221	5.78519853036613E-06	-1.51180294097957E-06	-3.24732014853794E-07	-1.73497794448658E-06	0.995004026748538	-0.0892584900617589
3.8	0.00481188592127913	-0.000540086185444512	-2.00577306233386E-06	8.77387137487732E-07	-5.20181480515608E-06	2.96911472776929E-07	0.995472972634888	-0.0916504843701987
3.9	0.00478835343325219	-0.000882192345888527	-8.38137738201432E-06	1.78470951434545E-06	-4.1254680186258E-06	-1.50197981786699E-06	0.996018673175864	-0.0961389666716114
4	0.00418182412120729	-0.00105915947414723	-5.83038988198969E-06	3.71273320883098E-07	-9.51151422379879E-06	-8.45303589899171E-06	0.993715250392525	-0.098850182005838
4.1	0.00436427675135111	-0.000532900783277533	-3.99264947811964E-06	4.06728520850413E-06	-1.88512148987377E-06	5.58536112044698E-06	0.993169537063335	-0.0991050261575329
4.2	0.00471711909874649	-0.000714796960892208	4.62851346349429E-06	-4.38859269185496E-06	6.76244135496424E-06	7.59032158893968E-07	0.99318453076318	-0.101625614785198
4.3	0.00487354897473851	-0.0010014506109904	-3.80150173043295E-06	1.12711134124319E-06	3.55415470260391E-06	-1.20655112766987E-06	0.993232100872832	-0.103762742715793
4.4	0.00489921374825979	-0.00147442338623648	-3.14937048660982E-06	-4.94190862883707E-06	9.31518037279125E-07	-1.03688695834596E-06	0.992765702233402	-0.10622903097541
4.5	0.00413939045286939	-0.00186156733749197	-1.39626855193511E-06	2.0307533622375E-06	2.15940957982828E-06	-8.48146346810271E-06	0.992416839597928	-0.107969402726528
4.6	0.00389584210199291	-0.00139369957878838	5.39579931634931E-06	9.62540309383689E-06	-1.42479725589783E-05	9.81893171199478E-06	0.99279974656566	-0.110638753716786
4.7	0.00386153807385857	-0.00137320721433558	-7.60291454393919E-06	-9.59342465086382E-06	-1.14794749885024E-06	-1.36279672547301E-07	0.99283347670957	-0.112886696883526
4.8	0.00378589212818595	-0.00124976356672383	-8.76348516595957E-06	-2.70051072491208E-06	-4.39352175666586E-06	4.55165751321868E-06	0.992504981662037	-0.115383281672365
4.9	0.00395710082660268	-0.00126718527424453	5.78003175321476E-06	8.34055157545133E-06	-7.27587416607448E-06	3.2822243687973E-06	0.992513864691015	-0.117180555159551
5	0.00375411525301493	-0.0013578555732117	4.30110713951406E-06	-8.56675347683836E-06	-4.30079736855853E-06	-6.20416130025343E-06	0.992823138623521	-0.119188114902882
5.1	0.00443372459532539	-0.00110849450078479	1.52738265078088E-05	-1.02797712167221E-05	3.50200661836523E-06	-8.7548675170533E-06	0.993026406173584	-0.120835562369022
5.2	0.00494553211590902	-0.00175033663565075	-4.2466485174871E-06	-4.73129710657979E-06	-3.17401488191649E-06	5.25713113138006E-07	0.993104603006129	-0.123446465707853
5.3	0.00503122491077941	-0.00240072732999846	4.79115319582099E-06	3.38512884852302E-06	-9.32352147007704E-06	-4.7616890169212E-06	0.993076265284897	-0.126197124750052
5.4	0.00489097235415807	-0.00302958626835891	5.19635119691419E-06	1.20664674822511E-06	-4.81837431975125E-07	1.04897673397793E-05	0.993403219361903	-0.129498117623578
5.5	0.00395407198552809	-0.00315146920218006	-1.82088160569839E-06	-1.98825765860737E-06	8.91927824827984E-06	5.06578138925096E-07	0.992761287975348	-0.133696603682063
5.6	0.00430673721845175	-0.00258784977955079	4.26777257576754E-06	7.2445792701569E-06	-4.77995679384064E-07	-8.63772736052161E-06	0.991546238328023	-0.135797850020202
5.7	0.00449544511720847	-0.00299838569945722	2.05997596034352E-06	-7.26295513245101E-07	5.48865553838003E-06	2.45416401367546E-06	0.991755266143342	-0.138157413759895
5.8	0.00434121368032808	-0.00336281691373842	3.92523451411012E-06	1.96019879551614E-06	2.75076617679364E-06	7.85035449609224E-06	0.992248527736991	-0.141023722318377
5.9	0.00416162879096956	-0.00386202676999802	-3.79858929091639E-06	-3.0557042526595E-06	-4.71417832849491E-06	-1.77323782339314E-06	0.992243851537064	-0.145329621216214
6	0.00278027255664091	-0.0046525834465325	-2.07367433335318E-06	1.70890810952537E-06	1.04282508294829E-05	-2.68305129416924E-06	0.988486137251993	-0.148888687102338
6.1	0.00171758907547345	-0.00383680915692243	-7.33228909248368E-06	-1.1024877604911E-06	-7.2658446128306E-07	-2.48482745851075E-06	0.987111865691962	-0.148193012321122
6.2	0.00106982761474075	-0.00339069631496803	-1.0622074528756E-06	1.99182436967364E-06	-3.48936633751974E-06	-5.36777038489982E-06	0.986414482198951	-0.149055420571734
6.3	0.000747099821807695	-0.00276476511873358	1.58172592796443E-06	2.83321654758368E-06	1.15298318118168E-06	5.97965706996948E-06	0.985787816822506	-0.150333852124426
6.4	0.000832927727825757	-0.00262726090058254	2.07689504901832E-06	5.03857377881606E-06	-3.33313924727705E-07	2.27860087245734E-07	0.985186243195682	-0.152226912548215
6.5	0.000327204668669594	-0.00241016886867907	4.67252742535459E-06	-1.87935350038125E-06	-4.69382237795268E-06	-1.55061341483056E-06	0.984668049522015	-0.153038630211599
6.6	0.000987949441412515	-0.0020825793050766	3.25815934399381E-07	-1.07169808155973E-06	9.32072269658784E-06	3.3385595925431E-06	0.986898166908281	-0.155669310440336
6.7	0.000965722112646248	-0.00240850362043479	5.39565364187819E-07	5.6229565947776E-06	-1.7853414976921E-06	4.98685622374413E-06	0.987117328771044	-0.159221523908292
6.8	0.000759065797423924	-0.00225488069689104	1.72880903101476E-07	-1.58944935695241E-06	-3.49298524442552E-06	-5.12115490354435E-06	0.986751512870597	-0.162081200572032
6.9	0.000740452769515226	-0.00223395213323766	-6.63864275416824E-06	6.7402828693726E-06	2.29305260510834E-06	1.35101830486541E-06	0.98661635791348	-0.164963174616264
7	-0.000249064957879414	-0.00190626735751019	8.09621036229564E-06	3.15413851669893E-06	4.58489703988506E-06	5.86251288355043E-06	0.984824397302055	-0.167364390059148
7.1	0.000228431904433643	-0.000635514978578975	1.39943331987921E-06	7.81679386463778E-07	-2.28525458103833E-06	-4.47724633339419E-06	0.984361786483644	-0.167898596562553
7.2	0.000652148947498479	-0.000564135138015682	-1.26897737891644E-07	4.40206872980907E-06	-5.01719646410285E-06	-6.4860460778564E-07	0.984354025496779	-0.169286170957329
7.3	0.000657500516805671	-0.000429166437050408	1.34379828660551E-06	-5.27014988266135E-06	-2.35478876923825E-06	-2.78741685012298E-06	0.984332248318818	-0.170584353622264
7.4	0.000743896921699192	-0.000502232340274638	1.84584427355876E-06	4.42557904696635E-06	-7.30556968404389E-07	-1.06990738271167E-06	0.985877401140363	-0.17306878350529
7.5	-0.000391105257334394	-0.000963906946039229	-5.76126950421876E-06	-1.47429776342513E-06	-1.61437480771225E-06	-8.91739382299089E-06	0.985862261583806	-0.179647041531287
7.6	-0.000908025408908856	0.00023988991999329	5.61399437767445E-06	-3.41244613354063E-06	1.03654531174552E-06	3.18836815997827E-06	0.982896389396258	-0.182849492764395
7.7	-0.00116043615373274	0.00063922864171712	-6.51863025884594E-06	-2.83665749320029E-06	4.40258470067476E-06	5.65504937930727E-06	0.982017557646228	-0.186413224167477
7.8	-0.00114943736498466	0.00110249037212739	-1.10813958075328E-06	-5.35321869885659E-06	-2.08189680780355E-07	1.14489366015136E-06	0.981163396124024	-0.190193801770224
7.9	-0.000760386084510873	0.00126326296600821	-3.30926377523249E-06	7.22949795628796E-06	4.34541209690867E-07	-6.88420059498678E-06	0.98004945014548	-0.194785991507671
8	-0.0011987870252428	0.00174353695886067	-1.88093253936381E-07	7.36871110908794E-06	1.74088971722882E-06	-4.45763958483035E-06	0.974861847475577	-0.197868876516741
8.1	0.000189940274655283	0.00245050280430615	-7.59341663560595E-07	-6.44726768047737E-06	-1.74747951573241E-06	-1.0544445375368E-06	0.974404297393465	-0.196512123894784
8.2	0.000864682743138232	0.00212497498412946	-3.81474246655286E-06	1.66048116254952E-06	-1.09566675964462E-05	-2.57702580039929E-06	0.97508749654898	-0.198232806783375
8.3	0.00118178419337559	0.00204823362034382	-5.56726084184434E-06	-9.82485572785699E-06	-7.76340484424164E-06	3.03816653826103E-06	0.974723391165892	-0.200671172366231
8.4	0.00153713955465845	0.0019452615141104	6.73681395955368E-07	-6.1050959591137E-07	-1.41147162969474E-06	4.43457415464533E-07	0.973862636652309	-0.20306554161114
8.5	0.000835813322784743	0.00210085736162006	-1.74924094567539E-06	-2.54165283359331E-07	-5.38976605841677E-09	1.79996482825331E-06	0.973011520417299	-0.204744858510035
8.6	0.00164459856598375	0.00340883974237215	2.41581499263659E-06	-3.97225012141035E-06	-4.57043199594959E-06	-5.90511901022279E-06	0.97357335396472	-0.207014957128419
8.7	0.00258459617916724	0.00347128358843223	-1.50123850516668E-06	-2.0871337981534E-06	-3.54302773381269E-06	3.64018577667142E-06	0.973514282683619	-0.209877175947428
8.8	0.00328344824313671	0.00349861047829545	-5.49057577867371E-06	-2.10273015823023E-06	-7.22112861651417E-06	-1.24878437546224E-06	0.973202641273419	-0.212450782423742
8.9	0.00418276676309684	0.0031696957768954	8.54113648535114E-06	4.0680067559689E-06	-1.40714477560247E-06	3.1939572085372E-06	0.973073981261325	-0.214809887991973
9	0.00416790869284302	0.00254346372757006	-4.93362085732277E-07	4.15363344175804E-06	-7.80113708456317E-06	1.23774343726955E-06	0.972418620236339	-0.2174975161312
9.1	0.004935411725431	0.00262095338242742	-2.53619027823796E-06	6.62427629437884E-06	4.08820705207676E-06	-3.08246455576935E-06	0.971221369217344	-0.219492114564967
9.2	0.00538204340579963	0.00190564596972483	-1.16830361415569E-06	3.41496235460599E-06	-2.2412927688378E-06	-2.04826184389149E-06	0.970059482910686	-0.22118166147259
9.3	0.00551981209384366	0.00156216360393785	2.31673761548499E-06	-4.02877949943332E-06	-7.91070437674723E-07	-1.77499019754307E-06	0.969580934600281	-0.222391960096007
9.4	0.00587536011882696	0.00118517379795109	-1.797402345458E-06	3.88624022740534E-06	-2.06152141273195E-06	-3.57268585528504E-06	0.97003892850675	-0.224321168462746
9.5	0.0055634445661448	0.0013078835831962	3.49660194531441E-06	6.28373437703559E-06	3.64160525465077E-07	-2.14754503567304E-06	0.969493224856263	-0.22805108026107
9.6	0.00672623465947652	0.00169391389628278	4.61635086436831E-06	7.04962009913879E-06	-8.18795982023157E-06	1.27742756922116E-05	0.96844272454664	-0.229967618733839
9.7	0.00742445989387874	0.00104670823989315	-2.87258477526255E-06	-1.52702770048508E-06	-1.38356462337007E-06	-3.95636751051969E-06	0.968744264689811	-0.231996788146778
9.8	0.00777324530305414	0.000552690243840494	1.29514914216227E-07	-3.58459757980213E-06	3.03575327504038E-06	2.39242845398568E-06	0.969473701961119	-0.234387353357161
9.9	0.00817251883224597	-1.45797699195017E-05	5.78210394930872E-06	-6.16156185161447E-07	-2.55637567409096E-06	6.70918981862274E-06	0.969329388097489	-0.238091108026961
10	0.00746314987870263	-0.000532232301048247	-1.13576489919743E-06	-5.75290989876256E-07	1.35646352523329E-06	-1.18089360484225E-06	0.965088890160583	-0.239390689015974
10.1	0.00801853921524665	1.85010149065546E-05	7.26065066663699E-07	-8.37951797343944E-06	6.121198547775E-06	3.6028162716018E-06	0.966380041567175	-0.237625599396975
10.2	0.00857861081683562	-0.000411215918048193	7.45246870437613E-06	8.30532224140124E-06	5.19974135611426E-06	3.52852157507846E-06	0.967705418883124	-0.23953918511792
10.3	0.00899112920669324	-0.000757322194876358	1.76256427281593E-06	-6.92953111330896E-06	1.41611312566377E-06	2.86038732682208E-06	0.967598536420415	-0.242197231785033
10.4	0.00965097203996409	-0.00149073933704561	-4.00248571300868E-06	-3.63117572030624E-06	1.95600891194452E-06	-5.56841337560827E-06	0.966323310901416	-0.245259466626418
10.5	0.00926466009104569	-0.00222246168192203	4.00766790647438E-07	-7.03617193662908E-06	-5.72260667141132E-06	4.03322348970997E-06	0.964558066889147	-0.246728241846539
10.6	0.0098440704929767	-0.00239461223735324	5.45386932133853E-06	6.73665084291097E-06	2.4240202611144E-06	1.1989074248991E-06	0.964532384704096	-0.249375678021772
10.7	0.00994255400342325	-0.00297126255109356	-7.05391316637909E-06	-1.70399383554228E-06	-7.75218498712395E-07	1.55342668248205E-06	0.963006088915745	-0.251987526305616
10.8	0.0102874261766578	-0.00312032660218723	1.47083553695674E-06	4.4335126140676E-06	9.3979877412598E-06	-4.43176609509189E-06	0.96211660905856	-0.25280163832525
10.9	0.0110636687898043	-0.00375004141845601	3.00866353626758E-07	7.39846950132868E-06	-5.14759461068388E-06	1.90876519973899E-07	0.96228852184139	-0.253755181792601
11	0.0108771034342903	-0.00450881246826883	-2.20726866932826E-06	-3.82747256916174E-06	1.20351120917084E-05	-3.50455527814587E-06	0.962232069747586	-0.254257908105068
11.1	0.0119564719338966	-0.0047411677265463	-6.09694164138142E-06	-4.94654203287991E-06	9.33227212857825E-07	5.57495859001844E-06	0.963600468348085	-0.254769640035548
11.2	0.0126520887770295	-0.00620800792238845	3.29906898141655E-06	4.30989639205733E-06	1.08490389951685E-06	-7.86669268414817E-06	0.964725605432689	-0.256604175012036
11.3	0.0128816667976737	-0.00769809227126806	7.20979889238965E-07	-2.65334338462455E-06	-4.86691157537995E-06	9.09204454362069E-06	0.965914752470404	-0.258956331490422
11.4	0.0128877010206673	-0.00938218379376661	1.48624849350285E-06	-2.19748292377975E-06	-2.9818443180946E-06	-7.4521659269717E-06	0.967169203237683	-0.262813479605993
11.5	0.0116385587223464	-0.0108120835396095	9.51248948266546E-07	-1.00944625523282E-06	-9.01497262901348E-07	-8.74439876069248E-07	0.965289544068179	-0.268747677458979
11.6	0.0116962142610872	-0.0114204352287484	1.12298091028946E-05	-3.25465340213559E-06	-5.40915740773091E-06	-6.84048406041347E-06	0.963116768477387	-0.271168384912262
11.7	0.0114795907572993	-0.0130681088270373	5.33357504516294E-06	-2.88398678321184E-06	-4.41393471532071E-06	1.64116813524974E-06	0.963204759855593	-0.275016167194343
11.8	0.0108931411057648	-0.0146440010357824	-4.44914268322338E-07	-2.55034386919173E-06	1.03122469854643E-06	1.32729336146442E-05	0.963020031828079	-0.280377209368568
11.9	0.0103200026181302	-0.0166097301334392	3.32674492575937E-06	1.9961515335108E-06	-3.01873610079124E-08	1.27519924279196E-05	0.961624377035962	-0.286729737343709
12	0.00758141562740074	-0.0178843860373907	2.00077667782599E-06	4.85159361558889E-07	-3.69347429878205E-06	-9.72285970826075E-07	0.954121803634049	-0.288485896909921
