# GHZ S RI R 50
0.2	0.000670488471784865	0.0036977378281619	6.30404459135471E-06	-1.0079821033727E-06	1.0667379419017E-05	1.04922890848272E-05	0.999427635221158	-0.00712622327468621
0.3	0.00134006667248834	0.00334363359300468	5.81658452082457E-06	5.03472079470939E-06	8.09513660511178E-06	2.95096595048739E-06	0.999203028602288	-0.010114519735032
0.4	0.00177715987908685	0.00313573869321533	-2.70655358124649E-06	7.86849068690658E-06	-4.81878392758781E-07	-4.42971994037403E-06	0.999123414892793	-0.0127681444892322
0.5	0.00201222853210911	0.00323140171994539	2.30829528027247E-06	1.47844961503376E-06	7.51064109718076E-06	-1.05459456254895E-06	0.998991466208007	-0.0157350590268691
0.6	0.00255441998793922	0.00326048424492673	3.23770656317875E-07	3.53897572633246E-06	2.69776285792696E-07	-7.65966923058406E-06	0.999197570588668	-0.018911384907035
0.7	0.00278955461934058	0.00318968836199316	4.16553391800239E-06	5.02199178484957E-07	-3.89415259237759E-06	-1.82648562961319E-09	0.998689173341077	-0.0220166719955518
0.8	0.00306051624960798	0.00319325370636582	-2.88568562142293E-06	2.96449607163792E-06	-6.81886017442316E-06	1.3224328457206E-06	0.998303293277316	-0.0242466555881118
0.9	0.00321515540934391	0.00310791348628036	6.03457860410091E-06	8.96517390468498E-07	-7.33921138644995E-06	-1.82898170889581E-06	0.99790667416693	-0.02666864074717
1	0.00307037320449044	0.00317830783999702	2.35970691350143E-06	2.94253018575213E-06	-9.03973896355325E-06	-2.58391302675391E-07	0.997273562307705	-0.0279445963880874
1.1	0.00327245066248966	0.00343439363066507	6.43652976231605E-07	3.55150039725236E-08	-5.2985736723229E-06	1.4029199813814E-06	0.997187584580815	-0.0295765215630606
1.2	0.00337673654421023	0.0031749832627354	-5.29193074058622E-06	-3.28763344653257E-06	-1.11807926912082E-05	-1.26505393617631E-05	0.996844589071503	-0.030448237563428
1.3	0.00328926715619511	0.00254820339340698	3.04982341480025E-06	3.10172579831077E-06	6.95464785179473E-06	-4.08528457879828E-06	0.997450829297848	-0.0314650754354415
1.4	0.00299891718817198	0.00157418651517018	-2.79881616652532E-06	-1.11153954225768E-06	5.71099672441122E-06	5.89833649312534E-08	0.997442886773716	-0.0341229037505313
1.5	0.00275384707539185	0.00125618806989048	1.23810326712144E-06	-2.53311315319217E-06	8.03152935270216E-07	2.51022340705091E-06	0.997721032153654	-0.0376829904604293
1.6	0.00283123669375134	0.00112355937889045	-9.36118368077219E-07	-6.41122420070936E-06	3.18125262555946E-06	-4.24287658855111E-06	0.997078986583891	-0.0412939026031428
1.7	0.00289231866404332	0.00124449871722759	3.40352209587522E-06	6.31435771539862E-07	2.23500429526162E-06	3.84901290255353E-06	0.996974448749153	-0.0437071419715222
1.8	0.00301108837410219	0.00147584365042762	-2.37484388049104E-06	2.8963746141014E-06	-1.01481163367644E-06	-3.99430036923197E-06	0.996584806878536	-0.0462825635591395
1.9	0.00306676979471216	0.00158387605823751	-3.7287723259131E-06	-1.75758948889322E-06	5.62433871469789E-06	3.02321442220261E-06	0.996006293471279	-0.0483225779476552
2	0.00322372944759701	0.00201244205316128	-6.16690417459147E-06	-5.74756020818251E-06	-2.08144820771564E-06	9.14319506215795E-06	0.995397361548691	-0.0499334345995004
2.1	0.00365094292938665	0.00188953717311872	1.16878846267616E-06	4.60365361145725E-06	4.47766756913694E-06	3.99108177736408E-06	0.995982111430708	-0.0522205368222374
2.2	0.00365326404315331	0.00173095752197576	6.55425324063731E-07	9.06558596024507E-07	-3.62160594292485E-06	-1.09332800519267E-05	0.995939956863646	-0.0548572385427302
2.3	0.00353406873433331	0.00156752143952972	-2.2855735760548E-06	3.55649325396703E-06	-5.33260325165226E-07	-2.79454031009668E-06	0.995413528793946	-0.0567156494864396
2.4	0.00316704604016113	0.00145975876443319	-1.55472477534825E-06	-1.45582456180439E-06	1.28405111982076E-06	-9.97239021966624E-07	0.995078982196587	-0.0596336894521753
2.5	0.00265580457828978	0.00188756756925003	7.78160362627333E-06	4.0628533710499E-06	-2.3416145980222E-06	-7.22635651089999E-06	0.99458924013986	-0.0613397800507475
2.6	0.00285338802672768	0.00232212652204779	4.84951717913422E-07	2.11622592808152E-06	-1.46946813836131E-06	4.68166619279098E-06	0.994772728930144	-0.0637457308330978
2.7	0.00312532286049561	0.00249690842153181	-7.86710017062086E-06	5.22958383374871E-06	2.52189236719214E-06	9.717526940426E-06	0.994900834427601	-0.0664300329658728
2.8	0.00345234967015087	0.00253601502789677	-7.75093675646307E-06	7.94348867925509E-06	5.98976374025548E-06	1.99179910893299E-05	0.995421028210382	-0.0684593591856108
2.9	0.00369281943383901	0.0024820421060692	-1.19090141758939E-06	8.58553339890253E-07	-8.11571497060033E-06	-2.97175941089749E-06	0.99534395393316	-0.0706103084884907
3	0.00413064253517286	0.00270955278951729	-6.05958687000843E-07	-4.4733643950426E-06	-2.19087597608943E-06	6.43752435583113E-06	0.995381868288974	-0.0730484710669487
3.1	0.00476921684510793	0.00234876935343742	-2.58877899607859E-06	8.62714155126705E-08	1.10209815901933E-05	-3.51487954076368E-06	0.995284578938909	-0.0751319876129136
3.2	0.00497216232481716	0.00196936149743394	-9.80425442487595E-06	2.53746964582391E-06	1.21608031743825E-05	4.27756939672268E-06	0.995240182083088	-0.0771074642377125
3.3	0.00505678102277444	0.00151328861080314	-3.47035870491936E-06	9.30571786652246E-07	-5.01206135000027E-06	-1.48061352328906E-07	0.995128314647456	-0.0806210901914441
3.4	0.00482904116988652	0.00113049318352037	5.34937539323247E-06	4.90339534048332E-07	1.34923663848829E-06	4.47842395720852E-07	0.99494147060641	-0.0829923379424219
3.5	0.00465214198524144	0.00115130017908157	2.76823371748145E-06	1.55902473321374E-06	1.31225931422989E-06	7.92808317446585E-07	0.994245760975769	-0.085639106557426
3.6	0.00463609513953782	0.000797764117265676	-7.14804864104467E-06	-1.38575169279658E-07	1.86745025192107E-06	-3.49594765361781E-06	0.994269048872727	-0.0879317393974548
3.7	0.00420527014121164	0.000607938211320002	5.77964897470192E-06	-1.50867044688426E-06	-3.23925149601951E-07	-1.73327861528139E-06	0.994059084277165	-0.0908139708520833
3.8	0.00383665052084058	0.000716334469040634	-2.00349253695738E-06	8.75975733963855E-07	-5.19555779653279E-06	2.95650535008183E-07	0.993407029195136	-0.0928493899326261
3.9	0.00357338924102347	0.00107109196274466	-8.36854367665374E-06	1.77579550040548E-06	-4.11747161074844E-06	-1.50236486767656E-06	0.992775137038742	-0.0954888245841055
4	0.00390810197809959	0.00179099027639177	-5.8285886008022E-06	3.60064313595566E-07	-9.49140798494481E-06	-8.46743003546615E-06	0.992991778880126	-0.0952398463389186
4.1	0.00469449838009024	0.00155200560571992	-3.99554129806436E-06	4.06592116681856E-06	-1.88842834202722E-06	5.58539382142651E-06	0.994312332065905	-0.0975702454891976
4.2	0.00488968760221543	0.00109151886938348	4.62911424660956E-06	-4.38580852115478E-06	6.76058294327105E-06	7.61436384983889E-07	0.993975998994908	-0.100729017808093
4.3	0.00485710140267098	0.000730263265179741	-3.80158291032289E-06	1.125044744415E-06	3.55430783167067E-06	-1.20459935933988E-06	0.993922353501136	-0.102958981750462
4.4	0.00453807809407264	0.000500381246489236	-3.14894893680453E-06	-4.94529135660126E-06	9.32320056940789E-07	-1.03700613658757E-06	0.993585074336873	-0.105273484431439
4.5	0.00439400336262939	0.000889901683637444	-1.39445183755545E-06	2.03360001450663E-06	2.14986055629815E-06	-8.48871880817479E-06	0.994087979861238	-0.107548359827612
4.6	0.00465846924164203	0.000629607688549741	5.40057984759313E-06	9.60790257198532E-06	-1.42199546137059E-05	9.82386196341342E-06	0.993851202604796	-0.110976032738043
4.7	0.00453408148001335	0.000366140561413007	-7.59491433497908E-06	-9.57691722426123E-06	-1.14631259037816E-06	-1.35706793068869E-07	0.993683589525127	-0.113152826458291
4.8	0.00436631144649452	0.000179506200824499	-8.75161758753349E-06	-2.69875019915759E-06	-4.38873921214606E-06	4.54490248867194E-06	0.993312615722269	-0.115866634907721
4.9	0.00411128273867257	5.2713255036527E-05	5.77305254530251E-06	8.33422834089877E-06	-7.26998785987599E-06	3.27772693532491E-06	0.992897670743457	-0.117907958497446
5	0.00422344066337748	0.000272542956800222	4.29188403918018E-06	-8.55298765272554E-06	-4.29475820639045E-06	-6.19259367476275E-06	0.992681283470336	-0.119608864836881
5.1	0.00451102683115448	-0.000234454297583451	1.52548997483255E-05	-1.02442702220632E-05	3.50422936400431E-06	-8.73438310817803E-06	0.992622085005907	-0.121085368257722
5.2	0.00433938025074114	-0.000507230496079877	-4.23480094246919E-06	-4.73092556214266E-06	-3.1706344809216E-06	5.20757953958203E-07	0.992289351239867	-0.123278611263372
5.3	0.00431320332666478	-0.000594305842560773	4.78374051673915E-06	3.38812429940903E-06	-9.31118908555676E-06	-4.76886432256952E-06	0.992295579873254	-0.125469608959325
5.4	0.00424225720507938	-0.000713909622133743	5.19244854972403E-06	1.20722732716288E-06	-4.84353771529092E-07	1.04824196315741E-05	0.992595532246554	-0.128619091340492
5.5	0.00449944880072745	-0.000503845584629392	-1.81504448585384E-06	-1.98502516084249E-06	8.89795108960965E-06	5.12407942494618E-07	0.992187717701576	-0.131442617056145
5.6	0.00454801162628537	-0.00141003144110185	4.24618108413743E-06	7.24633538863876E-06	-4.57431725996665E-07	-8.62913158658788E-06	0.992455725282846	-0.134251961673792
5.7	0.00370325757274864	-0.00174587396370097	2.06074747508794E-06	-7.21746747552724E-07	5.48157494362759E-06	2.4647065771524E-06	0.992021469371827	-0.137316043303053
5.8	0.00284516413297672	-0.00165904306034283	3.92002460362785E-06	1.96815089202663E-06	2.7331771220285E-06	7.85429126934532E-06	0.991340244111299	-0.139684499931065
5.9	0.00179752629527683	-0.00116832561179006	-3.78791126180143E-06	-3.06790282687251E-06	-4.70763478819255E-06	-1.78865583547569E-06	0.990102299853618	-0.141214390738546
6	0.00125986578617581	0.00046193005505013	-2.08777178054309E-06	1.70572627239915E-06	1.04740222555833E-05	-2.64757032356157E-06	0.991062077228295	-0.140485628010074
6.1	0.00208997687591895	0.0010713335643318	-7.36151796056968E-06	-1.1144038177081E-06	-7.27097956845573E-07	-2.49583637999041E-06	0.993293842665637	-0.143022961360047
6.2	0.00251490371019502	0.00101676156308697	-1.0656347760067E-06	1.99828238982824E-06	-3.50070258625196E-06	-5.38513281338398E-06	0.993424552892335	-0.145625058247525
6.3	0.00272570020529543	0.000491207425951593	1.58639106120712E-06	2.84042857941231E-06	1.15705665032313E-06	5.99525410160805E-06	0.993084472681088	-0.148681047995453
6.4	0.0022104596235165	-5.67038519740786E-05	2.08164278874625E-06	5.05434941203711E-06	-3.34384455519901E-07	2.28446313617786E-07	0.992296627690583	-0.151295646511089
6.5	0.00218764106241898	0.000100893303995842	4.68601417268305E-06	-1.89518278829691E-06	-4.713961267683E-06	-1.54728779683251E-06	0.992842491857314	-0.15494761763324
6.6	0.00187882364118641	-0.000543704162891918	3.242011397857E-07	-1.07316755205189E-06	9.33439194920755E-06	3.32493747398226E-06	0.990962128647637	-0.159091256617231
6.7	0.00139001675319119	-0.000385709288752475	5.41626579041417E-07	5.62525771535351E-06	-1.7845103700805E-06	4.98963123682195E-06	0.989605568672952	-0.161129665468668
6.8	0.00111163966113804	-0.000264967010604051	1.73682357077768E-07	-1.59049197607221E-06	-3.49324809577962E-06	-5.12624688043318E-06	0.988709662358811	-0.163265487690525
6.9	0.000435731444443573	7.31549100606363E-06	-6.65025438500838E-06	6.74411162647515E-06	2.29489096963279E-06	1.35392538720615E-06	0.987756744433269	-0.16521027821426
7	0.000614824251930742	0.00120512221510931	8.10378362329666E-06	3.15889879209154E-06	4.5883946270743E-06	5.86932988051402E-06	0.987506208893652	-0.166264806623023
7.1	0.000881398571915927	0.000760646138227932	1.40022536815526E-06	7.83012116394527E-07	-2.2849959049438E-06	-4.48210117304138E-06	0.987387639732607	-0.1690064146703
7.2	0.00024745687497678	0.000831808122452299	-1.28249269779555E-07	4.40707514109191E-06	-5.02276435752738E-06	-6.50722141471753E-07	0.986094590686178	-0.171543688196883
7.3	-0.000430838221005183	0.00114767965576743	1.34198323079659E-06	-5.27733191525137E-06	-2.35941859333572E-06	-2.78922395157878E-06	0.984283038621887	-0.1740887773321
7.4	-0.00160296955882659	0.00158771963566098	1.85593227416746E-06	4.42029265335116E-06	-7.3293675857768E-07	-1.06795665746932E-06	0.981412015410995	-0.177439141835766
7.5	-0.00241031704924131	0.00358931424932939	-5.74009639156842E-06	-1.46756628073048E-06	-1.61026132257858E-06	-8.88378810134711E-06	0.977431692095113	-0.177514343334453
7.6	-0.00160724349656636	0.00444345492627814	5.61057876288362E-06	-3.39612660688005E-06	1.02884058169304E-06	3.1847582018121E-06	0.978093969250892	-0.17849809249036
7.7	-0.00153915200821117	0.00507182386647488	-6.50471382860763E-06	-2.84433868108726E-06	4.38656049058989E-06	5.65513746162825E-06	0.977964798083023	-0.181309195105123
7.8	-0.00104421645497537	0.00543044382581658	-1.09441409723776E-06	-5.34764920833797E-06	-2.10454434805862E-07	1.14269990671422E-06	0.977856883870035	-0.184064895259077
7.9	-0.000675035911467359	0.00582731270695085	-3.32921391353006E-06	7.20219387402334E-06	4.59184137532315E-07	-6.86828164895481E-06	0.977352426134806	-0.186033664496716
8	0.00101870033029083	0.00630639444002675	-2.37870639530129E-07	7.3793948511846E-06	1.77364008021921E-06	-4.4531784865303E-06	0.979868900820018	-0.186690796361793
8.1	0.0017540674521599	0.00509847432039834	-7.41943287224777E-07	-6.47573031047852E-06	-1.75119341647532E-06	-1.06425267544497E-06	0.981609722145079	-0.192260219578688
8.2	0.00170718838203652	0.00467678123815249	-3.83063457069859E-06	1.65977865713735E-06	-1.09899759277386E-05	-2.60427779402159E-06	0.980729026101749	-0.196268599308782
8.3	0.00164548645418504	0.00449467781711527	-5.57228931109229E-06	-9.86417011824187E-06	-7.79266163910019E-06	3.03771884715181E-06	0.979519225411089	-0.199609619137826
8.4	0.0011876081560773	0.00471299333227607	6.77110740988121E-07	-6.12452540252474E-07	-1.41786331008058E-06	4.43993272756114E-07	0.978367466336803	-0.202446739223002
8.5	0.00172984628590025	0.00594940812966523	-1.75667371874969E-06	-2.51629362167717E-07	-1.76725342941747E-09	1.80709459572017E-06	0.977787581598504	-0.20575485856331
8.6	0.00248850958393508	0.00540152663745218	2.41456540195235E-06	-3.98207861480969E-06	-4.5858916519772E-06	-5.90889006807412E-06	0.976285139466547	-0.20902395020148
8.7	0.00233896686169643	0.00535761201071554	-1.5046830790898E-06	-2.09023579886624E-06	-3.54787527166791E-06	3.64795661020346E-06	0.975065665118419	-0.21137785692867
8.8	0.00229571530531809	0.00559241728294717	-5.50296895764185E-06	-2.10820521620721E-06	-7.2376035310146E-06	-1.25249440649983E-06	0.974143369897868	-0.213324099747081
8.9	0.0020831423789144	0.00599611876418214	8.57184426149056E-06	4.08141932046937E-06	-1.41175652227627E-06	3.2054271714505E-06	0.973779902819972	-0.214902565871559
9	0.00280046876915693	0.00737805521142912	-4.87612042620787E-07	4.166592897375E-06	-7.82173140955189E-06	1.25485082481442E-06	0.973490638379379	-0.216561934834438
9.1	0.00421337395022693	0.00724127463149235	-2.53878284856013E-06	6.64695842938649E-06	4.09847790911606E-06	-3.09535151269728E-06	0.97367933243938	-0.218277809274937
9.2	0.00527500073234861	0.00715806065704042	-1.1660258119823E-06	3.43181089511037E-06	-2.25505230768719E-06	-2.05216516099167E-06	0.973880125289378	-0.22102738213662
9.3	0.00655831255876712	0.00662911220030194	2.30910369407926E-06	-4.05410384660755E-06	-8.01508655886087E-07	-1.77864611489044E-06	0.973748274841719	-0.224466442076696
9.4	0.00725235126046663	0.00565464609539093	-1.77726873153379E-06	3.90531551956441E-06	-2.08771685934766E-06	-3.56742637396997E-06	0.972261104347811	-0.22871244281269
9.5	0.00825617412932894	0.00529728503411555	3.51836463481346E-06	6.25939333836422E-06	3.54405512782228E-07	-2.14591559539066E-06	0.970005688566521	-0.230620773053585
9.6	0.00839138921288224	0.00351723551145919	4.63313144959255E-06	7.04220468295403E-06	-8.16342451933853E-06	1.27963954221164E-05	0.969664878247121	-0.233633918419374
9.7	0.00774732189455027	0.00286055144436264	-2.87975829910364E-06	-1.52066382510028E-06	-1.39591675072047E-06	-3.9566161426936E-06	0.968345919504508	-0.236539389255286
9.8	0.00723822375761513	0.00254973614407024	1.18714034166006E-07	-3.58666956171769E-06	3.04442487231938E-06	2.38435088316088E-06	0.966933136537333	-0.238579688098121
9.9	0.00644241407294864	0.00275412632500553	5.77806421384684E-06	-6.24187192770873E-07	-2.54527586332983E-06	6.70923584553966E-06	0.964840030565344	-0.239018922735425
10	0.00687749373554244	0.00398960191366089	-1.13958250066732E-06	-5.77412673389114E-07	1.3612689949823E-06	-1.18476301351306E-06	0.966782647908135	-0.237951761331356
10.1	0.00766311714446445	0.00336019052412241	6.95030176011368E-07	-8.41049695550067E-06	6.15609985956797E-06	3.59044088526044E-06	0.96702738853151	-0.242171835233574
10.2	0.00772479916779438	0.00310847162815816	7.49937447698408E-06	8.28399141403328E-06	5.22248491908806E-06	3.51050078455956E-06	0.965133106817668	-0.243842322166511
10.3	0.00780661646124895	0.00288245518982765	1.73749935662981E-06	-6.94012387583734E-06	1.42768485192332E-06	2.85669425388599E-06	0.963534776324862	-0.245008644322048
10.4	0.00752274020153652	0.00301912022704246	-4.01952727314081E-06	-3.62400975467827E-06	1.94156736049495E-06	-5.58252244060539E-06	0.962288460517174	-0.245728515779641
10.5	0.00853380846501293	0.00419020988206952	3.58497063196368E-07	-7.05039853631541E-06	-5.70757394828086E-06	4.07490062165493E-06	0.962547380857755	-0.247595829278355
10.6	0.0101023317760087	0.00368495934176147	5.48120677988162E-06	6.69876655739659E-06	2.42683249166166E-06	1.18460524868516E-06	0.961563363050639	-0.249580712745111
10.7	0.0115280047411655	0.00293274163146829	-7.05115115502195E-06	-1.67664863430639E-06	-7.68694615270161E-07	1.55424768400689E-06	0.962134416690017	-0.251624871213319
10.8	0.012491768635831	0.00126356168977726	1.4841563069469E-06	4.42646464006297E-06	9.37886705098998E-06	-4.45930111868539E-06	0.962412015891235	-0.254499501384498
10.9	0.0121844917149195	-0.000131480242135267	3.29083594687625E-07	7.39888292718484E-06	-5.14795248927544E-06	2.10505197325008E-07	0.961966917502612	-0.257311716615473
11	0.0128496322602545	-0.000358831515221506	-2.22372288810364E-06	-3.81014605454535E-06	1.19984466614594E-05	-3.56157387101113E-06	0.961249973190262	-0.259349874181852
11.1	0.0132861302115627	-0.00236936382417703	-6.09954090768827E-06	-4.91172184000336E-06	9.51222958893913E-07	5.55740535245882E-06	0.960048298530177	-0.261740676388222
11.2	0.0129096993742431	-0.00375930173203999	3.30656654503276E-06	4.2893732576592E-06	1.05584793060633E-06	-7.85336117810436E-06	0.958523278445258	-0.263706378821843
11.3	0.0125685583869628	-0.00513488054615055	7.08628717292566E-07	-2.65070687501963E-06	-4.81954846385279E-06	9.09279565186482E-06	0.957230279551511	-0.265856543093504
11.4	0.0115867079196927	-0.00629377167527429	1.46855391816937E-06	-2.1980313000799E-06	-3.01324805847007E-06	-7.40877553753197E-06	0.954590375363467	-0.268775280253414
11.5	0.0116140240489211	-0.00659406891410983	9.42258937670883E-07	-1.00506065141616E-06	-8.97644152139228E-07	-8.66243155165538E-07	0.952232531396406	-0.268621125598886
11.6	0.0111945746890022	-0.00887107484118406	1.1185106584518E-05	-3.2514677753001E-06	-5.39437361489812E-06	-6.81050390438914E-06	0.952654540807931	-0.271808307854998
11.7	0.00957500312595011	-0.0102491615378656	5.31091902413203E-06	-2.88390375698096E-06	-4.39650120059495E-06	1.64355475456749E-06	0.950867622959777	-0.275460778674355
11.8	0.00783734923024964	-0.0108684163684653	-4.47806020117022E-07	-2.53831658555102E-06	1.05190559594681E-06	1.32127777433854E-05	0.948608719814282	-0.278066155746358
11.9	0.00620304611053466	-0.010349755318529	3.30419342512728E-06	1.98561383542601E-06	-3.84328491477706E-08	1.2670591772251E-05	0.946831399279688	-0.277189671301642
12	0.00706913030099714	-0.00911250268917395	1.9951069500308E-06	4.91608471945941E-07	-3.68272469500521E-06	-9.84042554339308E-07	0.951300740815506	-0.27546311590369
