# GHZ S RI R 50
0.2	0.000193964872191856	0.00285379712594828	6.31729927499752E-06	-9.99523240496082E-07	1.06698503584105E-05	1.05290585796466E-05	1.00095803296638	-0.00622507128689194
0.3	0.000903516197996458	0.00279132206560165	5.82182967142483E-06	5.05411052639841E-06	8.10835618285327E-06	2.96916974418048E-06	1.00109900155329	-0.00911888421475792
0.4	0.00144424284997915	0.00306026214162488	-2.72232643477446E-06	7.88802514753464E-06	-4.78687646356815E-07	-4.44278073148007E-06	1.00175107651241	-0.0117809823979535
0.5	0.00260194963301352	0.00283171610389309	2.31384532637394E-06	1.48187671730824E-06	7.52846959163337E-06	-1.05739829570707E-06	1.00186155415641	-0.0161416417773635
0.6	0.00234307725021245	0.00207978911597046	3.21103573274383E-07	3.54620888276278E-06	2.77449665185108E-07	-7.67441916362087E-06	1.00072982028001	-0.0188497380123618
0.7	0.00206111476327262	0.00234813827985588	4.17632098880243E-06	5.08740332560986E-07	-3.90481682123156E-06	-6.66053281248079E-09	1.00057857214943	-0.0210970702587845
0.8	0.00207392412401931	0.00266110010506559	-2.89889993255315E-06	2.97115982522275E-06	-6.84346363093402E-06	1.31895963060425E-06	1.00074779750153	-0.0229682495590632
0.9	0.0019346009852265	0.003227759424259	6.05859356124164E-06	9.06079857446352E-07	-7.36770028573628E-06	-1.84365764502596E-06	1.00107566359213	-0.0249521579623489
1	0.00296226726996147	0.00424145089209488	2.37086152065289E-06	2.95626223923989E-06	-9.08214635768035E-06	-2.59336926688306E-07	1.00233329357834	-0.0266767949207156
1.1	0.00371252878744347	0.00316525149966076	6.46340183825568E-07	3.53644761130278E-08	-5.31991025371861E-06	1.41119352193403E-06	1.00194651866747	-0.0303387426423634
1.2	0.00328257958808628	0.00243026476307958	-5.31476379742843E-06	-3.29757567628412E-06	-1.12323343574692E-05	-1.26941080327466E-05	1.0006133442088	-0.0318459065316068
1.3	0.00258245254369194	0.00150413898864333	3.06287107585093E-06	3.110065489248E-06	6.97553454259299E-06	-4.10498689428386E-06	0.999834461704123	-0.0332634430552735
1.4	0.00174441926491307	0.000916215020267085	-2.80796723456803E-06	-1.11274662282277E-06	5.72801470035267E-06	5.4880644779692E-08	0.99863444554653	-0.0352232808011715
1.5	0.00211235254872507	0.000505617216287068	1.24071942560437E-06	-2.54186439527549E-06	8.07048556789073E-07	2.51782100146204E-06	0.999574214442178	-0.0384705369407592
1.6	0.00151716989756698	0.000315771605547563	-9.44748685650903E-07	-6.43486738183496E-06	3.18999642631172E-06	-4.26152904615222E-06	0.998885784707568	-0.0419123987446696
1.7	0.00170327616215076	0.00102037096275852	3.41855706220563E-06	6.3009699906308E-07	2.2489042949175E-06	3.86255788879383E-06	0.999596023853761	-0.0439852953906779
1.8	0.00210609045988606	0.00157608057753117	-2.3814127341118E-06	2.91233432770654E-06	-1.02465828102543E-06	-4.01053783683239E-06	0.999902471406757	-0.0464841591295696
1.9	0.00266664091430554	0.00212569428018264	-3.74879424368496E-06	-1.76271355791148E-06	5.6548912417493E-06	3.03277554495498E-06	1.0004788273282	-0.0479119980824182
2	0.0040967638196502	0.00195332258321269	-6.22048939563758E-06	-5.77763100993809E-06	-2.0804231948047E-06	9.2115369691431E-06	1.00303755938248	-0.0512751961554764
2.1	0.00382677324163137	0.000786795641015806	1.19427589070901E-06	4.62885758708224E-06	4.52215653953969E-06	3.99943711756404E-06	1.00188608302969	-0.056545595124714
2.2	0.00330648476391301	0.00076364444124603	6.63051791477783E-07	9.09054422026941E-07	-3.68873163497481E-06	-1.09814439358781E-05	1.00066898200692	-0.0590693467851011
2.3	0.00291010527028602	0.000861716505464349	-2.28239801012476E-06	3.58701510622963E-06	-5.48956155176524E-07	-2.80796003713142E-06	0.999908014408804	-0.0608344638989446
2.4	0.00247849427477163	0.00138412558971509	-1.57099988681012E-06	-1.45594680061178E-06	1.28609681662786E-06	-1.00949288918507E-06	0.99969629737399	-0.0638754379862377
2.5	0.0031977464232603	0.00204599301252523	7.842762415159E-06	4.03632570754857E-06	-2.3954602253108E-06	-7.24705542707487E-06	0.999539597660314	-0.0664500858069846
2.6	0.00338488838474078	0.00128945025136226	4.98932386843776E-07	2.12311678539133E-06	-1.4500611728696E-06	4.71106583381142E-06	0.99909532981214	-0.0697960242476808
2.7	0.00309739458673073	0.00119797443591804	-7.87280208935857E-06	5.30181128954172E-06	2.59246209894587E-06	9.74832723550645E-06	0.998595406450131	-0.0731218683025357
2.8	0.00298566616309205	0.00138480012000606	-7.73299352696342E-06	8.03190018894929E-06	6.15101051967056E-06	1.99688113754859E-05	0.99835547164001	-0.075533171805795
2.9	0.0032319535999364	0.0018188096611065	-1.18935783589491E-06	8.70842946816681E-07	-8.17052928832839E-06	-2.92367391539377E-06	0.997706786663988	-0.077786471516749
3	0.0043844564581454	0.00169977773413588	-6.40756544987458E-07	-4.48292192585685E-06	-2.15039450581047E-06	6.47380459433906E-06	0.997351877036675	-0.0805546249560251
3.1	0.00430842504787759	0.000861336076336915	-2.59663655126663E-06	1.05744466865693E-07	1.10311005744517E-05	-3.60811172539965E-06	0.99642086981807	-0.0829310044707094
3.2	0.00418642885294304	0.000791753068709201	-9.81163743933726E-06	2.62293237310725E-06	1.22292638170924E-05	4.19250456573444E-06	0.99562385128493	-0.0848107849167595
3.3	0.0041299631848746	0.000680758055478142	-3.46963280080806E-06	9.61690662142305E-07	-5.02357273955229E-06	-1.06173746619912E-07	0.994730767889978	-0.0881946745368688
3.4	0.00407273034557948	0.000902793357534349	5.35779753346701E-06	4.44968323488054E-07	1.35413383659301E-06	4.36654921745322E-07	0.993647547358536	-0.0900333314710952
3.5	0.00490349115216208	0.00068698977893231	2.77998265953457E-06	1.53927170521522E-06	1.31821763783318E-06	7.83453756916921E-07	0.993323313054867	-0.0917121247702734
3.6	0.00439329465305044	-0.000287567953602167	-7.1547965717331E-06	-8.41995310211636E-08	1.84228936103295E-06	-3.5129659397573E-06	0.993310813857925	-0.0947333763349504
3.7	0.00371573390028693	-0.000194926517938845	5.76832828570454E-06	-1.55590445627554E-06	-3.38069315418934E-07	-1.73092841948335E-06	0.992492209686108	-0.0975500689325153
3.8	0.0034166767999807	0.000211575899825378	-1.99535195493424E-06	8.91669430541543E-07	-5.19038835317175E-06	3.3740714032719E-07	0.991648665324233	-0.0992335453006713
3.9	0.00358195855635824	0.000920141769533889	-8.34994180914791E-06	1.83722855596121E-06	-4.12608279381816E-06	-1.47062649544131E-06	0.99176716605329	-0.101357019086206
4	0.00493803069086207	0.000902761505750929	-5.82819217441013E-06	4.09645166115853E-07	-9.56752335191555E-06	-8.39081759711388E-06	0.993812027206405	-0.103693907268449
4.1	0.00487287392474186	-0.000230772369253838	-3.95085668080682E-06	4.09970758872897E-06	-1.83160553854974E-06	5.59672122054181E-06	0.991842355659995	-0.108078258721108
4.2	0.00451351479290639	-0.000454193665579481	4.57637921962622E-06	-4.41900512768943E-06	6.75141145365477E-06	6.9559070452849E-07	0.989644272820277	-0.11040089973086
4.3	0.00428954926604626	-0.000458237088513352	-3.77918446377748E-06	1.15691536546614E-06	3.53194409993081E-06	-1.23391794718796E-06	0.988717854665583	-0.111968627584114
4.4	0.0041664236970604	-0.000100129739209687	-3.18420577963078E-06	-4.89619280885759E-06	9.18820516278893E-07	-1.04195317184332E-06	0.987893659871825	-0.113954220164274
4.5	0.00515528094083331	-8.81914082717681E-05	-1.36650778691372E-06	2.03501428785256E-06	2.05500581357306E-06	-8.45912144939929E-06	0.987161116468802	-0.116699165175866
4.6	0.00480750465517358	-0.00128081344759457	5.43944155417537E-06	9.50055571233734E-06	-1.40467134865736E-05	9.86899705011235E-06	0.985241542480478	-0.118878607019661
4.7	0.00415692192390494	-0.00145906421639847	-7.61377015059007E-06	-9.45755536438258E-06	-1.13962798998579E-06	-1.26457277855695E-07	0.984606421871935	-0.120023671307006
4.8	0.0036693514044141	-0.00134818187875117	-8.710367399004E-06	-2.61780357065708E-06	-4.32606408899781E-06	4.54474606704255E-06	0.983855028089868	-0.1219451009891
4.9	0.00347910858428837	-0.00084313223862459	5.78918990948137E-06	8.22986524732831E-06	-7.19155724880729E-06	3.30508744771306E-06	0.983135781618276	-0.123232313459942
5	0.00447042080238438	-0.000967801023443476	4.20141847850903E-06	-8.50546021747364E-06	-4.2960140614814E-06	-6.1121263788277E-06	0.982785383239186	-0.124437290157532
5.1	0.00407084284366734	-0.00185960684761721	1.50724316239876E-05	-1.02433698800131E-05	3.42724810204819E-06	-8.68139785934363E-06	0.98237267208832	-0.125369498104088
5.2	0.0037870358264434	-0.00180666825619795	-4.22480333580607E-06	-4.66693581879401E-06	-3.14060678178258E-06	5.33892678548571E-07	0.981934655063679	-0.127089685532823
5.3	0.00379807891308689	-0.00173367637523441	4.75758024962666E-06	3.33029670326909E-06	-9.25028107452253E-06	-4.67336697423916E-06	0.981482597633265	-0.129127028990992
5.4	0.0040119110563181	-0.00142271295394525	5.14250451424754E-06	1.16860647234461E-06	-4.2741012643578E-07	1.03719568892794E-05	0.980736106010636	-0.13148796975941
5.5	0.00522166705010722	-0.00207780873754572	-1.79964229231827E-06	-1.95784558932651E-06	8.79854150554778E-06	4.83535824352553E-07	0.980570145484015	-0.13299666870563
5.6	0.00413834759039193	-0.00342928266429863	4.21840408942342E-06	7.16142289404711E-06	-4.72160658465975E-07	-8.5383997529321E-06	0.980380306113296	-0.13557454730552
5.7	0.00301458768090476	-0.00321400514416569	2.03717313017214E-06	-7.18032441201995E-07	5.42747573680491E-06	2.42744363150379E-06	0.979605924913365	-0.13739496599426
5.8	0.00223373135314874	-0.00269011443473682	3.87930762073423E-06	1.94220115669272E-06	2.71206030083848E-06	7.76521856944809E-06	0.979357368263269	-0.138436637265827
5.9	0.00168156877550227	-0.00148201312165884	-3.74991399632483E-06	-3.0363344704715E-06	-4.66015549903379E-06	-1.76993457361599E-06	0.980044877710643	-0.138841776905458
6	0.00305608800000916	-0.000515666219052508	-2.06531383976697E-06	1.69411321926413E-06	1.0372787752457E-05	-2.643539231351E-06	0.983339111689234	-0.141780173117778
6.1	0.00316215192267179	-0.00176308472585152	-7.27675301376827E-06	-1.08784588639576E-06	-7.23074467663264E-07	-2.46508377356503E-06	0.981241124432169	-0.145892132398464
6.2	0.00242428190222909	-0.00205509845609184	-1.0522797605007E-06	1.97353762472501E-06	-3.45757161856241E-06	-5.31805324230235E-06	0.979249319170565	-0.1465905659402
6.3	0.00180872763404415	-0.00203809633882912	1.56375835345446E-06	2.80808572555651E-06	1.13573838989358E-06	5.92430163931236E-06	0.978357990493283	-0.147429663354674
6.4	0.00155239453862907	-0.0015568785879135	2.05098663600154E-06	4.99965080568487E-06	-3.30890469184299E-07	2.25384909807448E-07	0.978538249175685	-0.148623425589974
6.5	0.00245968810510781	-0.00230009161128242	4.62646994352181E-06	-1.86522111612587E-06	-4.65033736869172E-06	-1.53203542811707E-06	0.978035226141708	-0.152790689466076
6.6	0.0010979613631038	-0.00311985883900565	3.24045359414624E-07	-1.05752140451857E-06	9.19633084319051E-06	3.31681478172683E-06	0.975588473820222	-0.153397805759652
6.7	0.000324088116683422	-0.00259926726005069	5.06549409831299E-07	5.55883284433617E-06	-1.78777718982657E-06	4.91926991302466E-06	0.975935922738932	-0.153749052047028
6.8	-0.000201299077507261	-0.0019409238432964	1.80671680065369E-07	-1.57109815868549E-06	-3.42380443596576E-06	-5.08667364177968E-06	0.97624309911484	-0.154878590747771
6.9	-0.000306887343000601	-0.000632036993531811	-6.61830798111723E-06	6.6277820222911E-06	2.26096224677926E-06	1.35315723848727E-06	0.976905223157984	-0.155721505457665
7	0.00144836586250378	-0.000528309200745915	7.99530139600484E-06	3.18171603427736E-06	4.4985120047415E-06	5.83871537114111E-06	0.978396003499784	-0.157839477989727
7.1	0.000452986750637192	-0.00170534225732397	1.38025442182371E-06	7.85570885261108E-07	-2.2284763191449E-06	-4.45395605706562E-06	0.97714866021674	-0.160296599301265
7.2	-0.000618332144317006	-0.00116412932511673	-1.62050723405967E-07	4.36228767639416E-06	-4.96770420518039E-06	-6.84235063491347E-07	0.976049511351132	-0.161208565697885
7.3	-0.001506209017039	-0.000310365406193672	1.3745090340349E-06	-5.21222191207226E-06	-2.31118410776122E-06	-2.78161887284155E-06	0.974761958617396	-0.162012395731444
7.4	-0.00234532436189369	0.00140454321787818	1.78855513039971E-06	4.39215219145612E-06	-7.13570179432316E-07	-1.06419838427245E-06	0.97298199970368	-0.162035525280301
7.5	-0.000834461716283498	0.00308211676949733	-5.67179757707452E-06	-1.53634840799525E-06	-1.47161982415914E-06	-8.83282564548174E-06	0.975365590741355	-0.160503434018231
7.6	-0.000657974412728399	0.00238882148596731	5.62216490956586E-06	-3.30371904969345E-06	9.81587036356287E-07	3.17967721049335E-06	0.977772861876138	-0.165246900710792
7.7	-0.000924641038163984	0.00281630116762588	-6.43361136427826E-06	-2.91340693010364E-06	4.29030543382229E-06	5.68198873110218E-06	0.977770025451248	-0.16889737584089
7.8	-0.000717466616895021	0.0032312134500977	-1.01807861966563E-06	-5.33834949607491E-06	-2.24778584829474E-07	1.13477708489387E-06	0.978078496813576	-0.171787499211907
7.9	0.000132541898621313	0.00378873182582919	-3.42271107368533E-06	7.13612654718589E-06	5.554449941066E-07	-6.84381293271022E-06	0.979504883647687	-0.173824984634363
8	0.00199683518070499	0.00248834679943746	-3.26017809284665E-07	7.37825005660972E-06	1.8272078595091E-06	-4.43302817220458E-06	0.983488887947452	-0.179119257016041
8.1	0.000966515607919683	0.00129193170990323	-6.72145571401633E-07	-6.47525167563012E-06	-1.73761774745154E-06	-1.0814935934832E-06	0.980808897894396	-0.184917053847241
8.2	0.000385065276585945	0.0015940482054249	-3.84422469508378E-06	1.61373125256975E-06	-1.09448813444613E-05	-2.72608667226176E-06	0.979453206808875	-0.18675338475015
8.3	4.68814981848942E-05	0.00213336744742706	-5.4531709183533E-06	-9.92327585993811E-06	-7.82336380530231E-06	2.94447389642684E-06	0.978986015198271	-0.188864083415767
8.4	9.22939616508617E-05	0.00348370146678188	6.83764652755567E-07	-6.04874971523163E-07	-1.4225363699748E-06	4.28262179779895E-07	0.97895989473957	-0.191187530993049
8.5	0.00212346461732019	0.0037808118481402	-1.75082907511012E-06	-2.71784962124662E-07	-2.29254912707901E-08	1.80409266648694E-06	0.97868557614043	-0.194585373650334
8.6	0.00169023421121586	0.00267928527016434	2.46902296690177E-06	-3.94910956143981E-06	-4.50516125251863E-06	-5.97163488926244E-06	0.978000961927965	-0.196662232827263
8.7	0.00116300299734825	0.00320691916072374	-1.47914745370716E-06	-2.11438966476331E-06	-3.6036699582639E-06	3.60660324717256E-06	0.978437954497606	-0.198772927994309
8.8	0.00104679270501829	0.00407336770580086	-5.49294170936462E-06	-2.18564167144491E-06	-7.24399568029765E-06	-1.34960913330504E-06	0.978969879715933	-0.201050984105712
8.9	0.00147545354663309	0.00550528337132696	8.55493603682206E-06	4.19727347954109E-06	-1.45466349784417E-06	3.2004533773513E-06	0.979764698601948	-0.203212616438355
9	0.00399165373019239	0.00605770024799912	-5.40331466427635E-07	4.1740423992826E-06	-7.86235656778991E-06	1.16288123415673E-06	0.980539351406702	-0.205527300762676
9.1	0.00485982623547598	0.00484024601381778	-2.63303585584096E-06	6.64599124544195E-06	4.15578262687185E-06	-3.05867257001481E-06	0.981287210725195	-0.208213661763408
9.2	0.00556010870270514	0.00434152497863614	-1.21383460353866E-06	3.43444032268381E-06	-2.24101946513025E-06	-2.08992073833336E-06	0.981444140236258	-0.211489268370957
9.3	0.00616884582520259	0.00371304418452778	2.37228400704372E-06	-4.04612857987699E-06	-7.83255962752445E-07	-1.79803430865365E-06	0.981056934088246	-0.214649195941846
9.4	0.00683958594412865	0.0035547472383617	-1.83957341848054E-06	3.90275021491776E-06	-2.05110519916915E-06	-3.61505165924744E-06	0.980068523298629	-0.217245989044068
9.5	0.00840020481544094	0.00217123375826111	3.4520414370186E-06	6.36048607577984E-06	3.89233328468465E-07	-2.15724164793642E-06	0.980921662303098	-0.219081382295251
9.6	0.00735014087546298	0.00060169002087779	4.58586746673645E-06	7.17200130203474E-06	-8.41151109753007E-06	1.28142414263687E-05	0.981332556047002	-0.223684150786518
9.7	0.00663970133062888	0.000587604712770688	-2.89059197929998E-06	-1.57152824467174E-06	-1.36170312347921E-06	-4.01422328273877E-06	0.980784044245627	-0.226849177908426
9.8	0.00623527388509051	0.00085669835338496	1.63397091549481E-07	-3.62500040775925E-06	3.04934964378689E-06	2.44759723377756E-06	0.980779562158166	-0.228921651604771
9.9	0.0062635703561286	0.00186788769401165	5.86309984921137E-06	-5.6369066844737E-07	-2.65943604610224E-06	6.76899400318082E-06	0.981838623780513	-0.229863375516288
10	0.00821637714857786	0.00176939441154656	-1.15231102326509E-06	-5.95070683104365E-07	1.39114428544501E-06	-1.19204054999208E-06	0.985315901884042	-0.234505413224748
10.1	0.00789123156875715	0.000360364080615068	7.63280543880762E-07	-8.51660662895254E-06	6.21212031810191E-06	3.68106581274558E-06	0.982574234294005	-0.239205789157257
10.2	0.00746926722572983	0.000368631327287474	7.54399842017289E-06	8.45138075160287E-06	5.26957895663651E-06	3.59593645355502E-06	0.981309979716237	-0.240720781509983
10.3	0.00739833567687222	0.000728892689619068	1.80630826425676E-06	-7.03253511004061E-06	1.43121753667961E-06	2.9080031417835E-06	0.980749850116774	-0.242874973981395
10.4	0.00808889155023289	0.00164540737356357	-4.06702756752001E-06	-3.69618740756072E-06	1.99404864802394E-06	-5.66094618535401E-06	0.980500755561149	-0.245841730313581
10.5	0.0105532162653679	0.00106648103343684	3.83914269736317E-07	-7.14372105322345E-06	-5.79588782575807E-06	4.11275233353758E-06	0.979089104407891	-0.250555392847805
10.6	0.0108621063622893	-0.000688323177051113	5.534914919588E-06	6.81378073626649E-06	2.4570470264751E-06	1.21020964220245E-06	0.977133133634911	-0.252882364755787
10.7	0.0110033393495976	-0.0015856137460041	-7.15275444511084E-06	-1.71734572313242E-06	-7.83627033140117E-07	1.57575757074298E-06	0.976571664321784	-0.255967592557673
10.8	0.0109751257156147	-0.00232702069560346	1.50259333304014E-06	4.49374833535371E-06	9.522529535767E-06	-4.51797979568707E-06	0.97567750082819	-0.258654077115996
10.9	0.0112048239569873	-0.00236156262067511	3.36871977837444E-07	7.50619303172981E-06	-5.2226236104292E-06	2.15656045123541E-07	0.97526170960188	-0.260991930095066
11	0.0130994918162474	-0.00364172610151406	-2.25652397732472E-06	-3.86357109362206E-06	1.21677779761029E-05	-3.61597950839711E-06	0.975088532294471	-0.26308366120809
11.1	0.0124397940868675	-0.00586094034053172	-6.19869294557352E-06	-4.97783434526181E-06	9.7322886788922E-07	5.64033436348784E-06	0.974402154477235	-0.265530675087832
11.2	0.0117778152782771	-0.00682251895420166	3.36778451432281E-06	4.34422069543959E-06	1.04985440957258E-06	-7.97347000249851E-06	0.973494933430645	-0.26806575481774
11.3	0.0112230554601497	-0.00750641682877669	7.0875737422168E-07	-2.6903580907203E-06	-4.85336755052864E-06	9.23761947699919E-06	0.972142907419953	-0.270650206356979
11.4	0.0108927423196489	-0.00762289616619396	1.47980558855766E-06	-2.23085506501615E-06	-3.07636878388668E-06	-7.49266505836702E-06	0.969872804356394	-0.273068044186964
11.5	0.0120879320849374	-0.00910334306445499	9.53644783023492E-07	-1.02238394269646E-06	-9.1317947782053E-07	-8.76778161674455E-07	0.970500914183047	-0.274874706532044
11.6	0.01070465638794	-0.0113685224472899	1.13354597555761E-05	-3.36168496878524E-06	-5.51282601731659E-06	-6.88333041712928E-06	0.969591951269247	-0.280844644962022
11.7	0.00935072326155538	-0.0120957759976143	5.36683429946052E-06	-2.95900170083132E-06	-4.44762770754794E-06	1.69526408976679E-06	0.967376974779057	-0.285314937411086
11.8	0.00841318844568926	-0.0123584157983915	-4.71155451672606E-07	-2.57050717253053E-06	1.1557026296711E-06	1.33889758634961E-05	0.965563118450022	-0.288999292293526
11.9	0.00854222080055691	-0.012094828852736	3.37078747383532E-06	1.99286091291083E-06	5.32888154760917E-08	1.28707567111344E-05	0.965729320510261	-0.290712967534698
12	0.00991608462053977	-0.0140076101081968	2.03426318036236E-06	4.7531093524014E-07	-3.75594139164325E-06	-9.5523112010722E-07	0.967632881752041	-0.296576069842185
