# GHZ S RI R 50
0.2	0.000837599475509114	0.00362625721164806	6.30162973445876E-06	-1.00899466685741E-06	1.06659320280681E-05	1.04863250217291E-05	0.999388642102562	-0.00728511729969821
0.3	0.00146853707354988	0.00319422107207686	5.81562786095271E-06	5.03149518214065E-06	8.09284942047043E-06	2.94797115019436E-06	0.999106566095524	-0.0103787985232262
0.4	0.00189418454957314	0.00286278331938733	-2.70329586611092E-06	7.86526396895131E-06	-4.82721548819653E-07	-4.42741386578172E-06	0.99885420348589	-0.0131989308611273
0.5	0.00187838602668142	0.00287903078585116	2.30707844239315E-06	1.47776330733584E-06	7.50684948613762E-06	-1.05384320041067E-06	0.998263046686978	-0.0159760122763565
0.6	0.00244961607553244	0.00312433172325102	3.23990595551813E-07	3.53805631617487E-06	2.6905567888868E-07	-7.65776197480101E-06	0.998620283276562	-0.0187860032029553
0.7	0.00277814586976501	0.00301682928358078	4.16431715401821E-06	5.01118851027919E-07	-3.89291178442315E-06	-9.65599669544798E-10	0.998219559723148	-0.0218320747954198
0.8	0.00308910037622406	0.00298873684513759	-2.88373209587252E-06	2.96404216450368E-06	-6.81573191193315E-06	1.32367871474021E-06	0.997949799027908	-0.0239898131314665
0.9	0.00339112321417447	0.00283366429318637	6.03153993623274E-06	8.94203091772841E-07	-7.33573887440924E-06	-1.82576199311832E-06	0.997830328692209	-0.026509409902338
1	0.00320687751127821	0.00244603501198004	2.35822476450864E-06	2.93978402202418E-06	-9.03242064231068E-06	-2.56834670162649E-07	0.997079059707335	-0.0284367799999507
1.1	0.00309501507643303	0.00273004333472479	6.43131040096259E-07	3.54702879879378E-08	-5.29423528034511E-06	1.4019110810551E-06	0.996417194099453	-0.0301773636784001
1.2	0.00315904794784425	0.00224865896729703	-5.28633965360435E-06	-3.28375514724463E-06	-1.11692946910436E-05	-1.26361227868141E-05	0.995498437630291	-0.0313254332569559
1.3	0.00268494408846415	0.00139254767352678	3.04512723504478E-06	3.09766203007421E-06	6.94522004934374E-06	-4.07867251998607E-06	0.995128229707388	-0.0323040051804378
1.4	0.00212894162229234	0.00056749496400661	-2.79475503461308E-06	-1.11102605086661E-06	5.70345948787693E-06	6.08433833369744E-08	0.994824528821866	-0.0343666721194292
1.5	0.0016889348629448	0.000518115286508478	1.23756420607271E-06	-2.53069228018954E-06	8.01950680530726E-07	2.5082411170299E-06	0.995179809342537	-0.0375930512950739
1.6	0.00213965322328209	0.000871124713805485	-9.35612702134075E-07	-6.40708096168697E-06	3.17913944960108E-06	-4.2401922775909E-06	0.995155715604392	-0.0404798309582207
1.7	0.00250414177484874	0.000984576413739518	3.40173093672317E-06	6.30951196722415E-07	2.23397662656442E-06	3.84685974637995E-06	0.995750360521018	-0.0427575413532524
1.8	0.00280653342950488	0.00120729341697657	-2.3739524711629E-06	2.89533319801523E-06	-1.01447124128843E-06	-3.99283095913594E-06	0.995930517016964	-0.0453571084202701
1.9	0.00307098828341967	0.00116062260199174	-3.7288613348093E-06	-1.75671014733368E-06	5.62454820351007E-06	3.02186147892055E-06	0.995961001198393	-0.0479420257993161
2	0.00292846540382637	0.00132750752880691	-6.16740984031644E-06	-5.73931503713434E-06	-2.07323564244787E-06	9.13907355881739E-06	0.99427902363507	-0.0505858429109307
2.1	0.00336783491509244	0.00162503220724347	1.16737632979773E-06	4.59926931622031E-06	4.47309033869977E-06	3.98749227327692E-06	0.994282219684527	-0.0514335447967313
2.2	0.00362227774909099	0.00147027049647787	6.5475009803085E-07	9.06175828053339E-07	-3.616164814145E-06	-1.09274274126716E-05	0.99486779768073	-0.053594189125983
2.3	0.00367476087126824	0.00125765437998247	-2.28539862341546E-06	3.55410508922658E-06	-5.32238801345254E-07	-2.79329404031807E-06	0.994835712834574	-0.0553846757495801
2.4	0.00360002826578849	0.000983570543440394	-1.55346291169832E-06	-1.45540328184995E-06	1.28358208437376E-06	-9.96338368673814E-07	0.995003343950407	-0.0585542884912283
2.5	0.00299770066378825	0.000772128244584582	7.77491529773911E-06	4.06573377873037E-06	-2.33573856228804E-06	-7.22408012009006E-06	0.994483129824123	-0.0609289962488354
2.6	0.00279585385030471	0.00126692863745805	4.83925218861082E-07	2.11631502619438E-06	-1.47157223607447E-06	4.68066834751162E-06	0.994349923629494	-0.063565189467102
2.7	0.00294574081023421	0.00149190075293208	-7.86677744794698E-06	5.22698031636929E-06	2.51938928555184E-06	9.71629899756987E-06	0.994008624290018	-0.0663418094550021
2.8	0.0032634488370757	0.00164621731120985	-7.7497843577194E-06	7.93821727496739E-06	5.98216649826239E-06	1.99113173667501E-05	0.994194922861872	-0.0680469156118216
2.9	0.00365241385713541	0.0015048664587959	-1.19065668210856E-06	8.57375067796888E-07	-8.10916345484257E-06	-2.97445518398199E-06	0.994112241625267	-0.0699286402407215
3	0.00375301152685941	0.00148392014746326	-6.01583986993099E-07	-4.47260147760329E-06	-2.19626012385933E-06	6.43355457064201E-06	0.993967948658208	-0.0723486745273556
3.1	0.00432622323593994	0.00149567737068911	-2.58802687799415E-06	8.43943445235126E-08	1.1020028954519E-05	-3.50589901975821E-06	0.993546291518992	-0.0739996234992917
3.2	0.00462077787176245	0.00116491751186594	-9.80150337365777E-06	2.52705008896289E-06	1.2150500706334E-05	4.28662670634053E-06	0.993473272364066	-0.0754212800806163
3.3	0.00476200263116182	0.000780571519937702	-3.46959361294792E-06	9.25675888784858E-07	-5.00907492312545E-06	-1.54298798417856E-07	0.993586142022585	-0.0783782803827937
3.4	0.00473056769400682	0.000366668355043032	5.34687701016393E-06	4.99482177109241E-07	1.34804330641974E-06	4.50048605634162E-07	0.994082648623154	-0.0803634781540249
3.5	0.00429964131129055	0.000122435951248225	2.76771240971152E-06	1.56390100027735E-06	1.31193596142659E-06	7.95152680465421E-07	0.993905609007432	-0.0838156641894299
3.6	0.00430229426035008	0.000255955803350652	-7.14858932240954E-06	-1.44248684140319E-07	1.87038879760108E-06	-3.49478683281799E-06	0.99328444577222	-0.0858774386727442
3.7	0.00424066607445294	5.565533786051E-05	5.78063827532875E-06	-1.50242203777006E-06	-3.22064652061339E-07	-1.73343984874492E-06	0.993591308789011	-0.088268828086141
3.8	0.00412577774673893	-3.57786418834683E-05	-2.00473707333245E-06	8.73602472332127E-07	-5.1963696302574E-06	2.89324773102284E-07	0.993824490175183	-0.0904204972932786
3.9	0.00403481052055043	-0.000133939523514772	-8.37453544991587E-06	1.76869155331521E-06	-4.11814410145818E-06	-1.50707851172351E-06	0.994144113153513	-0.0942307009231159
4	0.00369798409640439	1.23489122578552E-05	-5.82704597779053E-06	3.58672867895128E-07	-9.48689023857536E-06	-8.46717577961307E-06	0.992677950082216	-0.0959342099585278
4.1	0.00408342987256406	0.000421400792939336	-3.99830247788575E-06	4.05833396703092E-06	-1.89441690327324E-06	5.57957367777299E-06	0.992805477186423	-0.0966104967151847
4.2	0.00449429537879618	0.000257791642264412	4.63439667088124E-06	-4.37831796514502E-06	6.7581034354403E-06	7.70895669490116E-07	0.992933711971799	-0.0991849829090205
4.3	0.00474617168011617	-1.66401449908586E-05	-3.80229892705123E-06	1.11982102520272E-06	3.55517807180138E-06	-1.1996847613052E-06	0.993183491703582	-0.101341406625027
4.4	0.00481256692725012	-0.000455371743344695	-3.14048834995381E-06	-4.94670745714839E-06	9.33184221773333E-07	-1.03515777617403E-06	0.992931601857289	-0.103869134774367
4.5	0.00432937824218893	-0.000700091994229333	-1.39856239535355E-06	2.02890142955769E-06	2.16932721310557E-06	-8.47810867000803E-06	0.992927257528788	-0.10590255506745
4.6	0.00428975559354566	-0.00053595146655017	5.38111867031396E-06	9.62648325834178E-06	-1.42517849919011E-05	9.79616544420301E-06	0.99320689580081	-0.108894154727841
4.7	0.0042571559127794	-0.000702626280163404	-7.58450229828245E-06	-9.59864607580051E-06	-1.14706202862376E-06	-1.37855304982477E-07	0.993261649449531	-0.111232549468611
4.8	0.00414105343613631	-0.000778363336324894	-8.75498001333553E-06	-2.7132814478329E-06	-4.39873035420802E-06	4.5424425586728E-06	0.992984125301551	-0.113902237226056
4.9	0.0041454107165413	-0.000919990210732305	5.76487247716287E-06	8.3477041590886E-06	-7.27924610908257E-06	3.26947814484365E-06	0.992925781708803	-0.115849057909689
5	0.00396684786348162	-0.000990540281576307	4.31248660352963E-06	-8.55675659215792E-06	-4.28959467445623E-06	-6.20825882344235E-06	0.993129941483783	-0.117830005787459
5.1	0.00446837866019673	-0.000985957976276748	1.52876646239205E-05	-1.02475026950453E-05	3.51716721038369E-06	-8.74519730630671E-06	0.993295077822672	-0.119479689224855
5.2	0.00474487282597713	-0.00154282003276944	-4.23712646043721E-06	-4.73907220070592E-06	-3.17474362986132E-06	5.19535014924223E-07	0.993298245154782	-0.122034782043789
5.3	0.00474934160444019	-0.0020659048161867	4.78566147182116E-06	3.394460866812E-06	-9.31619287727741E-06	-4.77956897572335E-06	0.993316822782077	-0.124708060237385
5.4	0.00454825133188996	-0.0025786486243183	5.19598159584249E-06	1.21507764019964E-06	-4.98290062480881E-07	1.04920599417338E-05	0.993674758733917	-0.128048972562458
5.5	0.00382979287625948	-0.00260984277659366	-1.81758589285864E-06	-1.99123274483927E-06	8.91833866875583E-06	5.21260154314877E-07	0.99314057907829	-0.131939911337839
5.6	0.00394596585158073	-0.00239443617247308	4.25550189794302E-06	7.25696025868641E-06	-4.60931112518702E-07	-8.64324614098367E-06	0.992376153216015	-0.134272661932125
5.7	0.00371928347310969	-0.00263988515892681	2.06327906373176E-06	-7.23143210911102E-07	5.48927513642316E-06	2.46671671835038E-06	0.992476113062342	-0.136786582242184
5.8	0.00328024802628479	-0.00267371189975711	3.92643354267777E-06	1.96966919257442E-06	2.73989007992266E-06	7.86482062828526E-06	0.992778874082094	-0.139417112074653
5.9	0.00285190303528817	-0.0026247103430262	-3.79806063054152E-06	-3.06799572441748E-06	-4.71762585499414E-06	-1.78547187297041E-06	0.992667292702397	-0.142820578762344
6	0.00186331117476556	-0.00244363297670284	-2.08287898997252E-06	1.70912087842592E-06	1.04620242799879E-05	-2.66819826531031E-06	0.990594771534845	-0.145101745250338
6.1	0.00166602094034228	-0.00151433056714211	-7.35348201761803E-06	-1.11304042828987E-06	-7.26350784300375E-07	-2.49309033437094E-06	0.990638084022793	-0.145384132545507
6.2	0.00173132420344053	-0.0013104098626541	-1.06611995990978E-06	1.99681006785824E-06	-3.49638188548365E-06	-5.38431917692388E-06	0.990526832696208	-0.147043833532996
6.3	0.00177359562338851	-0.00137928623696544	1.58479608289706E-06	2.84062785613521E-06	1.15409680032097E-06	5.99467134302029E-06	0.990031984321034	-0.149325383569017
6.4	0.0016133551970348	-0.00180455636464635	2.0798550875479E-06	5.05140265925121E-06	-3.34198315597259E-07	2.28271518147788E-07	0.989119086277964	-0.151786873579272
6.5	0.0010194431289089	-0.00177770610579639	4.68377115342486E-06	-1.88480161582809E-06	-4.70570373908688E-06	-1.55365062891505E-06	0.98859606023998	-0.153495297297492
6.6	0.00121871833533418	-0.00169905218295567	3.26345176335609E-07	-1.07355202190218E-06	9.33686153156139E-06	3.34403139286931E-06	0.989543377904295	-0.156437348002347
6.7	0.00100957193183604	-0.00180233480611985	5.38214289728575E-07	5.63296137042506E-06	-1.79047929890395E-06	4.99480721352713E-06	0.989403812892883	-0.159469618610281
6.8	0.000799438055660158	-0.00160708905699277	1.74183744857932E-07	-1.5924372169159E-06	-3.49666859851932E-06	-5.1332441968292E-06	0.98903880368643	-0.162113395861959
6.9	0.000627553412321764	-0.00152408185778862	-6.65743587197107E-06	6.75087588247248E-06	2.29722766161295E-06	1.35542290557817E-06	0.98882394975302	-0.164792781450802
7	-3.89827656499738E-05	-0.000989576152941447	8.11298064097699E-06	3.16502484971837E-06	4.59249124175536E-06	5.87786272279282E-06	0.987552255960862	-0.16692902833875
7.1	0.000323140848539993	-0.000214828126326252	1.40226051121434E-06	7.84119537325139E-07	-2.28837042274048E-06	-4.48853576646614E-06	0.98718719790225	-0.16819181205578
7.2	0.000404785611460378	-0.000135522515441776	-1.28527544795213E-07	4.41267547670538E-06	-5.02913389709914E-06	-6.51680846215872E-07	0.986806483915839	-0.170011360099583
7.3	0.000168298438269929	6.03245411796596E-05	1.34660407138405E-06	-5.28321978761008E-06	-2.36083388643223E-06	-2.79404187718656E-06	0.986236439890469	-0.171792943703715
7.4	-0.000174785917826988	0.000177290445946849	1.85288805857888E-06	4.43325465867392E-06	-7.32840649103112E-07	-1.07155273267439E-06	0.986426246480084	-0.174639023066752
7.5	-0.00122814084104175	0.000489033148005166	-5.76739032263583E-06	-1.4741538888677E-06	-1.61845920106254E-06	-8.92578222883442E-06	0.985195742762153	-0.179447326707032
7.6	-0.00135606935371058	0.00164410676941968	5.62358555090914E-06	-3.41677848431276E-06	1.03757238699675E-06	3.19363969224894E-06	0.983273214090755	-0.182109149346819
7.7	-0.00135075078858375	0.00210341784171342	-6.52940612613642E-06	-2.84286612560728E-06	4.4091297725354E-06	5.66574272472407E-06	0.982825360012811	-0.185445944490197
7.8	-0.00110291741603203	0.00240112018709226	-1.10836785771441E-06	-5.36335131203823E-06	-2.08952657338392E-07	1.14691166196912E-06	0.982398416196298	-0.189108224785191
7.9	-0.000757962340669456	0.00245142232470372	-3.31981701382765E-06	7.24006354530171E-06	4.39807109341965E-07	-6.89603766431782E-06	0.981497776877145	-0.193256279403333
8	-0.000713495491564812	0.00290480657844263	-1.99113294787466E-07	7.38909904864318E-06	1.75211725398054E-06	-4.46765615810209E-06	0.978335215049331	-0.195766369387279
8.1	0.00034099428869697	0.00316013174426126	-7.60231863554017E-07	-6.46931264984492E-06	-1.75312567554631E-06	-1.0584736793294E-06	0.978204491307432	-0.196411637194141
8.2	0.000813007103142712	0.00296437612364559	-3.8261655848897E-06	1.66664185397192E-06	-1.09914010495514E-05	-2.58216671550818E-06	0.978319967457313	-0.198696781003068
8.3	0.00111408998436988	0.00294994779531416	-5.5885550502551E-06	-9.85108635464034E-06	-7.78480604377757E-06	3.05097716028204E-06	0.977677859909122	-0.201410155420755
8.4	0.00134066816923345	0.00292466101852813	6.75321877211103E-07	-6.12908597723372E-07	-1.41553009658589E-06	4.45885675467921E-07	0.976688604109227	-0.204057535444911
8.5	0.00101580550756121	0.00330356659246136	-1.75477028718939E-06	-2.51931199822408E-07	-2.34451576235152E-09	1.80521891549197E-06	0.975801077427024	-0.206370275382022
8.6	0.00174602758852964	0.00403341632838859	2.41477692783908E-06	-3.98493091363906E-06	-4.59004836205885E-06	-5.91084565649155E-06	0.975637546529674	-0.209073613470288
8.7	0.00232804620890019	0.00405250135485919	-1.50759228934385E-06	-2.08944306328681E-06	-3.54533009375847E-06	3.65334324473016E-06	0.975096809520234	-0.211928365472258
8.8	0.00274253912196951	0.00414807538703631	-5.50590285629408E-06	-2.09960359088934E-06	-7.23911930989112E-06	-1.24126845995814E-06	0.974440274657048	-0.214386889691134
8.9	0.00325917137792907	0.00406910927647372	8.56894260355784E-06	4.065187719169E-06	-1.40580247735828E-06	3.20418042250989E-06	0.974102509202998	-0.216511732304282
9	0.00340725408969942	0.00409431566853404	-4.86110428974296E-07	4.16430303009442E-06	-7.81679888777978E-06	1.25640284094356E-06	0.973470085771499	-0.218867043858349
9.1	0.00439210963887097	0.00425038986619579	-2.52954541028139E-06	6.64484740893746E-06	4.09201710585459E-06	-3.09759652587352E-06	0.972641374684959	-0.22078302565874
9.2	0.00516936097397038	0.00376410408496209	-1.16265030840952E-06	3.42659405130824E-06	-2.25216280578681E-06	-2.04780928917544E-06	0.971825060987766	-0.222924132319883
9.3	0.00577016086328612	0.00330433878916412	2.30849391544819E-06	-4.04556186834897E-06	-7.98772014871635E-07	-1.77633667437538E-06	0.971321945004836	-0.225007508170725
9.4	0.00630755867900013	0.00262924776263546	-1.78411945918221E-06	3.89948631187514E-06	-2.07932421136852E-06	-3.56958320349334E-06	0.971054108983648	-0.227863981381953
9.5	0.00633558151399118	0.00251433125688564	3.52172584739188E-06	6.27276482309243E-06	3.56144534156356E-07	-2.1497125767217E-06	0.96981148302418	-0.231364854594963
9.6	0.00711807363237018	0.00223956657766991	4.6438925750066E-06	7.0387654552666E-06	-8.14985337576899E-06	1.28115490364468E-05	0.968635947752702	-0.233832766556145
9.7	0.00735265750284344	0.0015804276297465	-2.88044906691646E-06	-1.51714567886059E-06	-1.39964606993847E-06	-3.95389057655317E-06	0.968157219788959	-0.23626382971232
9.8	0.00736452431395195	0.00116703079301736	1.14963880242851E-07	-3.58642943647526E-06	3.04660105662147E-06	2.38093603055307E-06	0.967961070985871	-0.238655010786162
9.9	0.00733982511185846	0.000899910220709529	5.77903404792567E-06	-6.38149826880216E-07	-2.53044938816614E-06	6.71811426871908E-06	0.96693022487212	-0.241486005859461
10	0.00691884817816343	0.00100466229851845	-1.13857257376585E-06	-5.71626918711344E-07	1.35315956520067E-06	-1.18651537177673E-06	0.964030542191809	-0.242075937385657
10.1	0.00759888688416142	0.00138407698448553	6.85997840938135E-07	-8.38495308985578E-06	6.13992181260245E-06	3.57426188129776E-06	0.964684049204193	-0.241807443008268
10.2	0.00821095513301126	0.00106839921063994	7.48792388637912E-06	8.26261079490818E-06	5.2133264559425E-06	3.50036812142239E-06	0.964904375269582	-0.243496733582067
10.3	0.00870494179377995	0.000646457882207474	1.72761543416846E-06	-6.9284140333245E-06	1.42763194753673E-06	2.84985422529886E-06	0.964171987495365	-0.245702608192239
10.4	0.0091322559410828	-2.56079608316527E-05	-4.01263252091049E-06	-3.60811769499362E-06	1.92850000024838E-06	-5.56884151691987E-06	0.962606841749401	-0.248099471200132
10.5	0.00899013884345469	-0.000385130157583723	3.64033157786628E-07	-7.02543655135692E-06	-5.69156878221172E-06	4.055177893865E-06	0.96094627884764	-0.249721857507617
10.6	0.00979353111596156	-0.000612077600708627	5.4699998708643E-06	6.69236701376064E-06	2.42282154411277E-06	1.18425168007481E-06	0.960492249178605	-0.251794976831537
10.7	0.0102403590072085	-0.00119249519272465	-7.04014152864585E-06	-1.67069548546167E-06	-7.66716722996036E-07	1.55199957390285E-06	0.959416137163812	-0.253963694734227
10.8	0.010774962619551	-0.00175923601578859	1.48292592602558E-06	4.41538748265959E-06	9.35473348154835E-06	-4.45362661889914E-06	0.95878940864727	-0.255086352983854
10.9	0.011253106951089	-0.00263434327969095	3.26479914925734E-07	7.37688007214654E-06	-5.13263942137223E-06	2.08748708288976E-07	0.958749603058008	-0.256312098307867
11	0.011262534151272	-0.00328968525334916	-2.21403223066601E-06	-3.80642073918646E-06	1.19816517375343E-05	-3.53737701223715E-06	0.958430246337614	-0.257029870032312
11.1	0.0120845307733265	-0.00401164107085025	-6.08919544117994E-06	-4.90920585523387E-06	9.46838633804013E-07	5.55111756313232E-06	0.958933109738741	-0.257819808185176
11.2	0.0124398341404953	-0.00543526387176797	3.29852590643317E-06	4.28423290717821E-06	1.05878062343855E-06	-7.83970979806383E-06	0.959182705829521	-0.259427008771123
11.3	0.012441141284037	-0.00688142482069165	7.10728796110765E-07	-2.64481897179767E-06	-4.82227256819848E-06	9.06950806977877E-06	0.959521782428836	-0.261477922269765
11.4	0.0121113480973574	-0.00839668174933991	1.47291480702446E-06	-2.1920266832941E-06	-2.99080675980129E-06	-7.40950793806022E-06	0.959534046543001	-0.264815286265285
11.5	0.0111411245989437	-0.00947971505875972	9.4405466299196E-07	-1.00578033821796E-06	-8.98272266324694E-07	-8.67878379742011E-07	0.957384626309332	-0.2688045859108
11.6	0.0109978944681058	-0.0104286389805073	1.11720183018102E-05	-3.25380660768053E-06	-5.39230483908645E-06	-6.80080521323419E-06	0.955813064167913	-0.27110319309551
11.7	0.010415921098801	-0.0118698782464264	5.3045002097725E-06	-2.87724359795109E-06	-4.39084418787423E-06	1.63912674709391E-06	0.955375948350407	-0.27447334827467
11.8	0.00957656250534719	-0.013100470544658	-4.45177724457693E-07	-2.53691019004964E-06	1.03913834705915E-06	1.32042938045482E-05	0.954730155027877	-0.27863754265881
11.9	0.00869237984634828	-0.0143163687723148	3.30743646708104E-06	1.98535767333526E-06	-3.22470198141319E-08	1.26793135495122E-05	0.953322830598779	-0.282422076340152
12	0.00703707737807421	-0.0148903545442807	1.99127410474189E-06	4.85762844443031E-07	-3.67582711713486E-06	-9.73061382424351E-07	0.949333260119429	-0.282929511533153
