# GHZ S RI R 50
0.2	0.000680368445332574	0.00376020776093222	6.30204472457633E-06	-1.00892443649294E-06	1.0666376557562E-05	1.04872056386032E-05	0.999336410411818	-0.00709399379266305
0.3	0.00130174129955582	0.00332872692117752	5.81532142334094E-06	5.0326868932039E-06	8.09300374904413E-06	2.94934064386772E-06	0.999055680727359	-0.0100683381018266
0.4	0.00177555260874372	0.00301684932222836	-2.70506775525879E-06	7.8650830340622E-06	-4.81821704527317E-07	-4.42773004091172E-06	0.99882009033386	-0.0128146887322571
0.5	0.00177018468285937	0.00300267119361703	2.30655710211964E-06	1.47856970320968E-06	7.50720772502528E-06	-1.05121064530869E-06	0.998134653406849	-0.0154815412246306
0.6	0.00239300861022909	0.0033237298123423	3.22586369581247E-07	3.53852901797377E-06	2.72188569725017E-07	-7.65839141525811E-06	0.998604834450692	-0.0180847519574653
0.7	0.00282642821127479	0.0031909446063939	4.16448232138299E-06	5.0279509393203E-07	-3.89324947954227E-06	-2.49199636150669E-09	0.998324834505609	-0.0211032406423336
0.8	0.00319503289728003	0.0031177541718823	-2.8851482730597E-06	2.96306857062051E-06	-6.81675162441156E-06	1.32097955202392E-06	0.998146073457796	-0.0232472721339867
0.9	0.00355500944098803	0.00293656420095203	6.0316164360367E-06	8.96812770564368E-07	-7.33552074233524E-06	-1.82899145814324E-06	0.998170602153967	-0.0257795545318768
1	0.00340262210401073	0.00245623898391153	2.35704451700409E-06	2.94113186208484E-06	-9.03305022913785E-06	-2.61083748111865E-07	0.99751427471866	-0.0278580514484954
1.1	0.00323085019277347	0.0028525065700491	6.43276501288769E-07	3.58270985968362E-08	-5.29634857702666E-06	1.39940745997578E-06	0.996890245613959	-0.0294976482921085
1.2	0.00341353025995633	0.00252781985409896	-5.28686009074738E-06	-3.28838796492534E-06	-1.11670424985922E-05	-1.2648554311553E-05	0.996226585570391	-0.0304629907872607
1.3	0.00305637230481275	0.00181328249705735	3.04484587887504E-06	3.10213442766811E-06	6.95313653809434E-06	-4.07614824496605E-06	0.996125535033076	-0.031105468440203
1.4	0.00261826708661774	0.001066285669877	-2.79604301351171E-06	-1.114826181786E-06	5.70832969942214E-06	6.66905240401698E-08	0.996080981187743	-0.0327836905637699
1.5	0.00218987619927737	0.000894761323565164	1.24144515878954E-06	-2.53166179504407E-06	7.99959005528865E-07	2.51140583817112E-06	0.996448482602027	-0.0360016270775135
1.6	0.00268529911265218	0.00111405323123879	-9.30038549631284E-07	-6.41319662826853E-06	3.18590580003024E-06	-4.24048568895534E-06	0.99637377950873	-0.0389885915531181
1.7	0.00302261768370641	0.00098184077441652	3.40352289066042E-06	6.34438842592571E-07	2.23207550522048E-06	3.85152920139536E-06	0.996906370458302	-0.0415446747047066
1.8	0.00323818926533315	0.00102272290275031	-2.37785228645813E-06	2.8952701575894E-06	-1.01186935089415E-06	-3.99624379764634E-06	0.997016524841814	-0.0444159136600066
1.9	0.00341707553973859	0.000819852141552827	-3.73027753601319E-06	-1.76048858545301E-06	5.62643031844708E-06	3.02782180801266E-06	0.997044690222484	-0.0473472613896915
2	0.00305402451344243	0.000841391605878068	-6.16868264039906E-06	-5.74531008737733E-06	-2.07829020418546E-06	9.1436480533795E-06	0.994966126952876	-0.0504694488399542
2.1	0.00334718293032702	0.00124857293121893	1.16561696878041E-06	4.60235335184609E-06	4.47342960449206E-06	3.99196328779731E-06	0.994686494860943	-0.0510493481646871
2.2	0.00355952484361123	0.00114128048854913	6.54796368998906E-07	9.07093066410607E-07	-3.61377318958057E-06	-1.09365755442064E-05	0.995384840996777	-0.0531659206067811
2.3	0.00358494342188381	0.000992024569298576	-2.28823034821744E-06	3.55613129069625E-06	-5.31796325312607E-07	-2.79559508774429E-06	0.995450373015487	-0.0549979177838765
2.4	0.00355401072054439	0.000769330417079981	-1.55441128384704E-06	-1.45679301118E-06	1.28474352910919E-06	-9.96886459251755E-07	0.995741892432152	-0.0582746698408562
2.5	0.00293357928880887	0.000477854826885886	7.78042371202352E-06	4.07012479816142E-06	-2.33647762929788E-06	-7.23013094477687E-06	0.995218015401306	-0.0608699481577188
2.6	0.00264031648710003	0.00106756974855924	4.84436964646625E-07	2.11825080262975E-06	-1.47278347103832E-06	4.68502859200083E-06	0.995009488687463	-0.0636300213446714
2.7	0.00277848125191151	0.00137379677406211	-7.87234424361003E-06	5.23377676148286E-06	2.52428354249945E-06	9.72424989535255E-06	0.994544786025702	-0.0665337547513216
2.8	0.00311977109151634	0.00163241105090569	-7.7525999256505E-06	7.94832456538839E-06	5.99618332907372E-06	1.9925107017426E-05	0.994654751424869	-0.0682689861850484
2.9	0.00360692989702425	0.00154317396849922	-1.19108614987539E-06	8.58736698154031E-07	-8.11721849158857E-06	-2.972054775156E-06	0.994617557587836	-0.0702088632079809
3	0.00372165579609517	0.00149276616412567	-6.05042923391824E-07	-4.47609992877905E-06	-2.19394968913673E-06	6.44059613719713E-06	0.994517241926126	-0.0727673548594239
3.1	0.00438615631599125	0.00159037416250428	-2.59024832839099E-06	8.66557706415889E-08	1.10268295140603E-05	-3.51831590522657E-06	0.994122585639209	-0.0744443770914724
3.2	0.00480946074533992	0.00121494994721538	-9.80782228129584E-06	2.53777950639705E-06	1.2164793119501E-05	4.2797743542587E-06	0.994173684618645	-0.0758524848099204
3.3	0.0050368138697646	0.000766411650199656	-3.47197718029692E-06	9.29442836513683E-07	-5.01377193902209E-06	-1.50219580778998E-07	0.994466804161183	-0.0788075730890905
3.4	0.00510229001302546	0.000261594972617477	5.35270462059657E-06	4.95852059241604E-07	1.34976341490914E-06	4.494632150088E-07	0.995226481192916	-0.0808371122645969
3.5	0.00463699887016199	-0.000137061017528923	2.77266962691204E-06	1.56338870485983E-06	1.31433461121156E-06	7.94978672128389E-07	0.995226646403648	-0.0846443091247326
3.6	0.00466478185701498	4.2832412526445E-05	-7.15684271215668E-06	-1.36253849190778E-07	1.86851688751302E-06	-3.50087576379612E-06	0.994433569827285	-0.0867879989934359
3.7	0.00470165402829902	-0.000242508309675224	5.78495621327562E-06	-1.51072095898522E-06	-3.24418459469856E-07	-1.73488406792154E-06	0.994844459182902	-0.0892165143713903
3.8	0.00464123794203148	-0.00045540017488837	-2.00571225796075E-06	8.77022189062989E-07	-5.20137696510643E-06	2.96147531713068E-07	0.995229860529075	-0.0916015561250556
3.9	0.00458769175400676	-0.000736461642738499	-8.38057631851687E-06	1.78298225043091E-06	-4.12465077346796E-06	-1.50251243266548E-06	0.995673260315901	-0.0959505360991984
4	0.00406413374468316	-0.000836242394687837	-5.83034294261884E-06	3.69698788579711E-07	-9.50900579133469E-06	-8.4553767531232E-06	0.993583320767362	-0.0984376107948678
4.1	0.00428001072550935	-0.000383667814544748	-3.99315724904376E-06	4.0667281966579E-06	-1.88584516037039E-06	5.5850712564519E-06	0.993127964948193	-0.0988952127176913
4.2	0.00459548699900923	-0.000573330403054527	4.62868462065906E-06	-4.38765500744939E-06	6.76179402134019E-06	7.59816442224512E-07	0.993047540343188	-0.101438916806239
4.3	0.00472248864547034	-0.000834446991175913	-3.80127189618837E-06	1.1264433745673E-06	3.55396198069965E-06	-1.20591081634418E-06	0.993044894471774	-0.103538945394597
4.4	0.00472267780217548	-0.00124128818917399	-3.14849368345576E-06	-4.94196860175326E-06	9.31587708233114E-07	-1.03668987002982E-06	0.992577592434372	-0.105948748315391
4.5	0.0040568135346545	-0.00152240458668064	-1.39609407779918E-06	2.03059677935197E-06	2.15902043271066E-06	-8.48072746303297E-06	0.992307541945448	-0.107711532879636
4.6	0.00390154048493272	-0.00111202690334378	5.3943970559075E-06	9.62292667943425E-06	-1.42443088866625E-05	9.81638359310336E-06	0.992657402858941	-0.110417229682448
4.7	0.0038982869133383	-0.00112700526241889	-7.60002015403299E-06	-9.5913793977427E-06	-1.147617473867E-06	-1.36335411712853E-07	0.992717126513416	-0.112652295770309
4.8	0.00383989327437446	-0.00105685371257143	-8.76096282728903E-06	-2.70100314815043E-06	-4.39303861619285E-06	4.54995168275118E-06	0.99242891859344	-0.115183858701951
4.9	0.00398441956560269	-0.00110955438485806	5.77782760155042E-06	8.33973457021049E-06	-7.27492795495749E-06	3.28063579349336E-06	0.992441531345167	-0.117028294642844
5	0.00382112882067463	-0.00120063764325597	4.30088853653472E-06	-8.56424113550459E-06	-4.29914286067216E-06	-6.20306276014115E-06	0.992734336133603	-0.119042647507357
5.1	0.00445805630949095	-0.00105069840600848	1.52723231365512E-05	-1.02741640810284E-05	3.50298671735318E-06	-8.75206054291148E-06	0.99292736329613	-0.12070376761551
5.2	0.00489643812907563	-0.00167938495279932	-4.24488193375567E-06	-4.73147796630503E-06	-3.17361166168579E-06	5.24910003964811E-07	0.992980782186418	-0.123304398329523
5.3	0.00495694502215664	-0.00229319889771103	4.7900011617854E-06	3.38571275696167E-06	-9.32163493292613E-06	-4.76301325475911E-06	0.992959562587512	-0.126039528075064
5.4	0.00480658480390966	-0.0028793815053202	5.19575374006866E-06	1.20704817683296E-06	-4.82827697393254E-07	1.04887539929855E-05	0.99327260868725	-0.129359567591241
5.5	0.00397307985720049	-0.00297574343334165	-1.82017118629389E-06	-1.98803275717299E-06	8.91707232956676E-06	5.07687542888473E-07	0.992634721599112	-0.133453062234633
5.6	0.00428078406911085	-0.00254916805772831	4.26529946968514E-06	7.2448550616931E-06	-4.7560500296545E-07	-8.63681101776722E-06	0.991534293526037	-0.135615381626509
5.7	0.00436834826780359	-0.00294443542133664	2.0600580522709E-06	-7.25738939382073E-07	5.48776460689692E-06	2.45543064469439E-06	0.991687961981473	-0.1380161713409
5.8	0.0041452266897358	-0.00327077669567722	3.92453349242481E-06	1.96122750064442E-06	2.74845400772688E-06	7.85082803996586E-06	0.992088196807585	-0.140817894270067
5.9	0.00387369327638575	-0.00368996633667267	-3.79721136611307E-06	-3.05729306732858E-06	-4.71333866603624E-06	-1.77524181165459E-06	0.991991978069851	-0.144854559494018
6	0.00255182768349334	-0.00427294447850456	-2.07529969848762E-06	1.7083233127224E-06	1.04331580705443E-05	-2.67816938454897E-06	0.988676189004881	-0.148038997718856
6.1	0.00161274246124106	-0.00348915222911604	-7.33504435288227E-06	-1.10514852030375E-06	-7.26145749156452E-07	-2.48609081414372E-06	0.987571076733657	-0.147618886396234
6.2	0.00100895384741414	-0.00306122829101651	-1.06309586392301E-06	1.99231752119903E-06	-3.48937292159244E-06	-5.37065222652506E-06	0.986920768501115	-0.148572093554426
6.3	0.00070965668316078	-0.00248416569802987	1.58166645106557E-06	2.83459665121283E-06	1.15206561274134E-06	5.98208179819023E-06	0.986324065853843	-0.149957071329864
6.4	0.0007644839526053	-0.00236341126225509	2.07665668574021E-06	5.04121453272433E-06	-3.33508981309372E-07	2.27883339976126E-07	0.9857581241298	-0.151905426557621
6.5	0.000351244222953562	-0.0021417331759908	4.6747933367057E-06	-1.88050091736575E-06	-4.69624812919287E-06	-1.55118839798914E-06	0.985380937803578	-0.153021543171738
6.6	0.000948124530895871	-0.00190976512792903	3.25826759705932E-07	-1.07199462281611E-06	9.32333597211156E-06	3.33878304481599E-06	0.987275696783196	-0.155810480250227
6.7	0.000903447038745298	-0.00219293092275837	5.39538387077985E-07	5.62433231542631E-06	-1.78591321793493E-06	4.98801288883157E-06	0.987410325057423	-0.159253981313057
6.8	0.000705581782139618	-0.00204084938451686	1.73048371779015E-07	-1.58989074769131E-06	-3.49360307369126E-06	-5.12287788078791E-06	0.987047765994278	-0.162073758081942
6.9	0.000643015388773806	-0.00198966780529977	-6.64150935656569E-06	6.74209238431324E-06	2.29374230900414E-06	1.35167692116891E-06	0.986889653727664	-0.164888630135713
7	-0.000207187570552906	-0.00158471861579309	8.09903449050702E-06	3.15559107845822E-06	4.58634233047451E-06	5.86481737990466E-06	0.985284622170767	-0.167202739238375
7.1	0.000261309661155371	-0.000484354016210977	1.39991340395761E-06	7.82028853875858E-07	-2.28589680885986E-06	-4.47899422690463E-06	0.984861924870157	-0.167956698138853
7.2	0.000595619099511641	-0.00042031772381572	-1.26970201979488E-07	4.40383776937376E-06	-5.01921024650608E-06	-6.48889798541479E-07	0.9847593013874	-0.169456062917992
7.3	0.000541846259884533	-0.000273526542574531	1.34381191395679E-06	-5.2724106692774E-06	-2.35601823003253E-06	-2.78830519239371E-06	0.984596094151365	-0.170882053175747
7.4	0.000510055686363187	-0.000280547917011822	1.84751692344745E-06	4.4261388558978E-06	-7.31030152547629E-07	-1.06996396331178E-06	0.985732154035009	-0.173444045428377
7.5	-0.000542376820349429	-0.000493337549870896	-5.7606691014392E-06	-1.47378292464119E-06	-1.61470696700013E-06	-8.9162352461701E-06	0.985397858514157	-0.179405025613961
7.6	-0.000900475531653247	0.000640362722401623	5.61499292355217E-06	-3.41192669929908E-06	1.03617024469659E-06	3.18880318942472E-06	0.982828893428665	-0.182456447315772
7.7	-0.00105866912852707	0.000997689343759069	-6.51893186799211E-06	-2.83824832057386E-06	4.40208446222752E-06	5.65660313702846E-06	0.982099875206314	-0.18597947976854
7.8	-0.00100341364650091	0.00136508861157884	-1.10694583262111E-06	-5.35425101942925E-06	-2.0850760476466E-07	1.14500220552472E-06	0.981336178037479	-0.189753997436417
7.9	-0.000646995808997433	0.00147882139041634	-3.31245540645334E-06	7.22905732028037E-06	4.37263411083312E-07	-6.88483523942767E-06	0.98025091946674	-0.194207126306956
8	-0.000942405229234102	0.00192422007672527	-1.92919335499666E-07	7.37186417100912E-06	1.74453218124654E-06	-4.45849979780391E-06	0.975677819137079	-0.19711949973914
8.1	0.000303525085443653	0.00242003056943745	-7.58060162686955E-07	-6.45160692439208E-06	-1.74831003089771E-06	-1.05559937299647E-06	0.975267860205151	-0.196450736826983
8.2	0.000832882730203824	0.00209371158965123	-3.81702460235973E-06	1.66094682226595E-06	-1.09623679651109E-05	-2.57971127628873E-06	0.975684918464705	-0.198364111072918
8.3	0.00103689341582841	0.00204434445537413	-5.56945270610714E-06	-9.83008924850881E-06	-7.76745913995439E-06	3.03921951200948E-06	0.975133954053902	-0.200853181000179
8.4	0.00126049870900817	0.00204326541801731	6.740543207363E-07	-6.10854320624205E-07	-1.4122575781324E-06	4.43712901735714E-07	0.974161929928448	-0.203233551351148
8.5	0.000666435153951075	0.00237352233117457	-1.75017066481622E-06	-2.53770535369382E-07	-4.85847029407512E-09	1.8008455259179E-06	0.973284384098873	-0.204997610600983
8.6	0.00147094869341179	0.00356558484982338	2.41556375255007E-06	-3.97388184043488E-06	-4.57302374518979E-06	-5.90567940610871E-06	0.973650035700761	-0.207293242796878
8.7	0.00232435915168999	0.0036625343322253	-1.50198221211078E-06	-2.08750200768384E-06	-3.54348771183643E-06	3.64175960423718E-06	0.973509463314778	-0.210068000517059
8.8	0.00296756481918974	0.00374198400724935	-5.49269179733436E-06	-2.10290230886915E-06	-7.22375782440684E-06	-1.248485146037E-06	0.973179731264579	-0.212551286853287
8.9	0.00377504862297289	0.00351881167396935	8.54574914841773E-06	4.06904504861397E-06	-1.40747744079964E-06	3.19566949875016E-06	0.973076875358057	-0.214809411823846
9	0.00386240914937344	0.00311798784421716	-4.92561221931922E-07	4.15569531165731E-06	-7.80447223861458E-06	1.24025814006354E-06	0.972511742368027	-0.217375893039185
9.1	0.00474280138467773	0.00319962577473562	-2.53625304606088E-06	6.62817532519203E-06	4.08973830150188E-06	-3.08482640730663E-06	0.971507808809535	-0.219342408047539
9.2	0.0053119116037814	0.00253923453256703	-1.16781795067816E-06	3.4174170682628E-06	-2.24334910512957E-06	-2.04871190936872E-06	0.970510167444148	-0.221161960411982
9.3	0.00560775605345821	0.00214831115854385	2.31567606851881E-06	-4.03220833154457E-06	-7.92490617312968E-07	-1.77547575425798E-06	0.970063647068955	-0.222622372637967
9.4	0.00603144484557961	0.00168277405779239	-1.79495295710212E-06	3.88878480801746E-06	-2.06488456399766E-06	-3.57217034005556E-06	0.970323830313697	-0.22479461058618
9.5	0.00587597405181019	0.00172478167195065	3.50017192277624E-06	6.28118950349612E-06	3.6283465467803E-07	-2.14761996828663E-06	0.969615998232792	-0.228389606793961
9.6	0.00695637481347171	0.00187132443661514	4.61957267711547E-06	7.04806907654173E-06	-8.1830399472395E-06	1.27784289290648E-05	0.968607807019872	-0.230433002096994
9.7	0.00754326289434652	0.00118631459237852	-2.87352620757033E-06	-1.52578344204762E-06	-1.38554330446169E-06	-3.95601300028191E-06	0.968752792843716	-0.232563081977446
9.8	0.00782333202500076	0.000665214895042778	1.27780701849619E-07	-3.58463510972857E-06	3.03688886252326E-06	2.39094378835778E-06	0.969284838199899	-0.234951196219432
9.9	0.00811337318114287	0.00011511865994006	5.78123573052137E-06	-6.17916208550083E-07	-2.55395267922897E-06	6.7092187318236E-06	0.968955201375681	-0.238402172988767
10	0.00749820413628486	-0.000317711463620169	-1.13613602287267E-06	-5.75247086329184E-07	1.35660325526902E-06	-1.1814026861299E-06	0.965247528212617	-0.239549474759983
10.1	0.00800095469890325	4.28833661854738E-05	7.21807437617558E-07	-8.38190309404253E-06	6.12456554484227E-06	3.60043984606643E-06	0.966379554931869	-0.238382460275594
10.2	0.00839889839461859	-0.00039809065883797	7.4579337349016E-06	8.30172753811114E-06	5.20224074656893E-06	3.52581558686044E-06	0.967335451345579	-0.240320002846401
10.3	0.00867076567177079	-0.000690896279116898	1.75859758988674E-06	-6.93085086197395E-06	1.41784080657893E-06	2.85968202251056E-06	0.96700746075691	-0.242878130714172
10.4	0.0091849287947794	-0.00125306528634281	-4.00524724572556E-06	-3.62913775307493E-06	1.95278641112599E-06	-5.57032772855729E-06	0.965655731300321	-0.245754082162784
10.5	0.00893798486346208	-0.00172947270441507	3.93813224569106E-07	-7.037269498368E-06	-5.71916666363063E-06	4.03931211168131E-06	0.963994568423104	-0.247277201651638
10.6	0.00962529263375557	-0.00188376226221228	5.45904808849346E-06	6.72989632925173E-06	2.42460803371066E-06	1.19631773490116E-06	0.963819427773894	-0.249834021125991
10.7	0.0098721960757538	-0.00244308660109901	-7.05352208023785E-06	-1.69772122198108E-06	-7.73735000290377E-07	1.5536715469596E-06	0.962459516377844	-0.25234992703003
10.8	0.0102958914593314	-0.00270978641174941	1.47397194509152E-06	4.43138674243855E-06	9.39245574147517E-06	-4.43812476199445E-06	0.961676769371747	-0.253291996212014
10.9	0.010990142812572	-0.00338512408555532	3.06712326261628E-07	7.39704303475134E-06	-5.1466168290208E-06	1.94946903059496E-07	0.961814460732128	-0.254342435718978
11	0.0109194687250874	-0.00407866231445661	-2.20993739050317E-06	-3.82430515168905E-06	1.20281808413765E-05	-3.51404381176203E-06	0.961735683283481	-0.25490387496412
11.1	0.0119631154411862	-0.00447474519299811	-6.09794870156031E-06	-4.94011165640756E-06	9.36834991906156E-07	5.57196812098056E-06	0.962923878660393	-0.25551753273048
11.2	0.0125792754117898	-0.00593682922212974	3.30060243226163E-06	4.30598466466861E-06	1.07925832707284E-06	-7.86426024106119E-06	0.963864990657328	-0.257323090035028
11.3	0.0127645123274606	-0.00741787104941373	7.1883332001536E-07	-2.65272987814792E-06	-4.85854950237961E-06	9.09160745278237E-06	0.964863262887671	-0.259641214688859
11.4	0.0126872954735276	-0.00904785994060135	1.48360430953942E-06	-2.19741493116669E-06	-2.98616156259441E-06	-7.44542742851274E-06	0.96577545816558	-0.263412998048618
11.5	0.0115742122502914	-0.0103773393310995	9.49912608234915E-07	-1.00904170296487E-06	-9.01148459722959E-07	-8.73224690168447E-07	0.963855879067781	-0.268793687084793
11.6	0.011595692143961	-0.0111424858313994	1.12218737402083E-05	-3.25634337295695E-06	-5.40809095863476E-06	-6.8345272394358E-06	0.961928353722685	-0.271267836986329
11.7	0.0112574073969506	-0.0127576778225242	5.32937704636787E-06	-2.88444615839459E-06	-4.41075575957785E-06	1.6419754917633E-06	0.961870030895757	-0.275092727159628
11.8	0.010585001692127	-0.0142266099873299	-4.45612776387074E-07	-2.54847635971557E-06	1.03571308678488E-06	1.3263714975382E-05	0.961521068902477	-0.280204358593334
11.9	0.00993303570623961	-0.0159607294715398	3.32417014622427E-06	1.99401931092109E-06	-2.85064542188416E-08	1.27411336008982E-05	0.960076635065789	-0.285903080551794
12	0.00765710607005955	-0.0170236429153329	1.99993229924169E-06	4.85163451295717E-07	-3.69190800021818E-06	-9.72262995896405E-07	0.953744556550795	-0.287406766500191
