# GHZ S RI R 50
0.2	0.000868087787271663	0.00377422336619963	6.30031552898797E-06	-1.01013670596874E-06	1.06662593474691E-05	1.04822575289058E-05	0.999091496228666	-0.00747461228506038
0.3	0.00148930176200088	0.00332699547721638	5.81530993021577E-06	5.02932382351108E-06	8.0916510501178E-06	2.94582518509825E-06	0.998757096095608	-0.0105494620025264
0.4	0.00187936642756933	0.00299215057440044	-2.70157918915971E-06	7.86367236686823E-06	-4.83190640396349E-07	-4.42625135535237E-06	0.998474856616444	-0.0132793243439547
0.5	0.00183804167175848	0.00311204369075049	2.30690451790689E-06	1.47718489500679E-06	7.50544213380731E-06	-1.05474435378409E-06	0.998145114629212	-0.0159594782575329
0.6	0.00249388072436738	0.00338064320422985	3.24793084722026E-07	3.53710322002161E-06	2.67079548908061E-07	-7.65594108188778E-06	0.998642605220144	-0.0191287370762991
0.7	0.00284859872078776	0.00326941036060905	4.16305154520172E-06	4.99928055931619E-07	-3.89161374121536E-06	-8.32185928593156E-12	0.998093071207792	-0.022410485563944
0.8	0.00318690482508685	0.00322779539744468	-2.88188932304574E-06	2.96354265688014E-06	-6.81271265681181E-06	1.32475560058055E-06	0.997613288964242	-0.0247161107436871
0.9	0.00346486299539304	0.00301041491125426	6.02894449126808E-06	8.92553473241122E-07	-7.33273369137714E-06	-1.82341556223694E-06	0.997123863837182	-0.0272725358306846
1	0.00313071417539309	0.00271621839353556	2.3576223156818E-06	2.9380808765859E-06	-9.02837376694969E-06	-2.55290578071826E-07	0.996045046140413	-0.0286886915164941
1.1	0.00309681055167081	0.00314361443586064	6.42846707962074E-07	3.5353192220675E-08	-5.29162836867267E-06	1.40211143876743E-06	0.995745719363624	-0.0300104084742674
1.2	0.00323212389038306	0.00281050339061959	-5.28491207019022E-06	-3.28197371335153E-06	-1.11669742355007E-05	-1.26303878788068E-05	0.995271815646977	-0.0309386154254485
1.3	0.00300479398665376	0.00207085390750169	3.04518630746786E-06	3.09650242335677E-06	6.94316119333689E-06	-4.07930205716568E-06	0.995591496356416	-0.0319720522780229
1.4	0.00259767873825195	0.00111236254935383	-2.79450499629058E-06	-1.10988649384437E-06	5.70224006687171E-06	5.89971313666662E-08	0.995547993652552	-0.0345325874045892
1.5	0.00214072608910063	0.00103106132753949	1.23640994588152E-06	-2.52975578557746E-06	8.0212376769708E-07	2.50686251380393E-06	0.995809934483698	-0.0379012643982829
1.6	0.00252863881409548	0.0012326275790138	-9.35130910844648E-07	-6.40328311397934E-06	3.17721298120043E-06	-4.23772112759322E-06	0.995582267021416	-0.0412179795455506
1.7	0.00278060688401491	0.00132033342270668	3.39950067541137E-06	6.30786446326219E-07	2.23226915917069E-06	3.84454615292586E-06	0.995710180244507	-0.0436128464296249
1.8	0.00299542379813782	0.00150968143036653	-2.37242973416229E-06	2.89298578440715E-06	-1.0133863228355E-06	-3.98994975226541E-06	0.995476426134331	-0.0461764757240478
1.9	0.00309402192753511	0.00146863484830268	-3.72491784595574E-06	-1.75551208685762E-06	5.61854604009969E-06	3.01968623994881E-06	0.994976641081874	-0.0484886725194927
2	0.00292513591663909	0.00186966986982377	-6.15768426838484E-06	-5.73733955177023E-06	-2.07677084126674E-06	9.12861577299088E-06	0.993483750880357	-0.0501678551351593
2.1	0.00345600366687539	0.00210350080060871	1.16427226011227E-06	4.59653524641523E-06	4.46790927563524E-06	3.98682574383879E-06	0.99416253270413	-0.0514099705936044
2.2	0.00366373944484412	0.0019523831784484	6.53806963404418E-07	9.0571897142922E-07	-3.60832348603852E-06	-1.09200162155691E-05	0.99456551682045	-0.053881319263644
2.3	0.00369688851067472	0.00173486002223852	-2.28530436506739E-06	3.5497337115904E-06	-5.30258713841862E-07	-2.79111756505873E-06	0.994265054988536	-0.0557249734765203
2.4	0.00350185899976151	0.00143387053632738	-1.5512029663673E-06	-1.45528349298196E-06	1.28322051684194E-06	-9.94649150380032E-07	0.994098297740113	-0.0586936303401087
2.5	0.00277048909045562	0.00151236215764563	7.76734169423821E-06	4.06752821108437E-06	-2.32997429993928E-06	-7.22059647599618E-06	0.993594374191336	-0.0604626956269402
2.6	0.00278998273842426	0.00212107126552468	4.82138843397355E-07	2.1147353260653E-06	-1.47325385916199E-06	4.67554783734884E-06	0.993844370189457	-0.0628185707124969
2.7	0.00308512831064845	0.00232665245025259	-7.86476940006694E-06	5.21562157742081E-06	2.50867703744431E-06	9.71033894349298E-06	0.993941143056774	-0.0654847268619328
2.8	0.00344406768537349	0.00235663851560279	-7.75222617864695E-06	7.92530299765658E-06	5.95877575797558E-06	1.99036003064779E-05	0.994440272268976	-0.0673888843978938
2.9	0.00368937635282079	0.00217425294031804	-1.19081217506625E-06	8.55863013868695E-07	-8.10230575884553E-06	-2.98020359303816E-06	0.994363023767351	-0.0694438190613813
3	0.00379794160724187	0.00236909293952382	-5.98265642319044E-07	-4.4700932136663E-06	-2.19904680247957E-06	6.42794230615869E-06	0.994270205729252	-0.0717838283510511
3.1	0.00446144366011999	0.00231014583837176	-2.58610207469159E-06	8.2114031287717E-08	1.10145262296904E-05	-3.49376124586527E-06	0.994067600025198	-0.0735791892069132
3.2	0.00473897289291795	0.00198762140845214	-9.79755134588928E-06	2.51654689922042E-06	1.2138869852947E-05	4.29491996447351E-06	0.994047887278433	-0.0752516762438972
3.3	0.0048915085958129	0.00157664541785648	-3.46858057550958E-06	9.22219338347548E-07	-5.00633438736676E-06	-1.58512825597734E-07	0.994102178541279	-0.0784503844786588
3.4	0.00475339578855199	0.00112847778219432	5.34400652371956E-06	5.02767124640173E-07	1.34710608502475E-06	4.50722740925787E-07	0.994316881531206	-0.0806338741845617
3.5	0.00433783935397192	0.00110582051553503	2.7641055830368E-06	1.56442946400832E-06	1.3101884292388E-06	7.95354399404626E-07	0.993850575062361	-0.0836316143666324
3.6	0.00444181287696698	0.00109158035378885	-7.14379337171146E-06	-1.52465809423089E-07	1.87324066764751E-06	-3.49034978034573E-06	0.993730775653196	-0.0857373267649539
3.7	0.00426940287673377	0.000872074302562923	5.77993272788773E-06	-1.49550550301724E-06	-3.20042700907445E-07	-1.73308810961717E-06	0.993834562268016	-0.0884726439697065
3.8	0.00406060552423589	0.00082545505289658	-2.00481287371771E-06	8.71283301174659E-07	-5.194618524179E-06	2.84087393505965E-07	0.99353646250569	-0.0906156371338003
3.9	0.00383681283460416	0.000876162900418646	-8.3711177403722E-06	1.75873869720696E-06	-4.11395541263484E-06	-1.51047309291577E-06	0.993100405804893	-0.0937518462839972
4	0.00371448421647662	0.00141573086941298	-5.82566180850159E-06	3.48782242262769E-07	-9.46946346776082E-06	-8.4801945142304E-06	0.992362824076294	-0.0937178656137194
4.1	0.00443212283884107	0.00157057073741195	-4.00386184143785E-06	4.05371337976423E-06	-1.90167431222583E-06	5.57777605756043E-06	0.993820280792071	-0.0950229451005852
4.2	0.00479198402992346	0.00119645941030166	4.6397239500065E-06	-4.37289576624573E-06	6.75734221668516E-06	7.78969579066107E-07	0.993983957968978	-0.0980655979989233
4.3	0.00490749317345527	0.000799246789294714	-3.80427976332546E-06	1.11496727120444E-06	3.55723102148954E-06	-1.1951668322197E-06	0.994199585455691	-0.100327322841046
4.4	0.00469587084131751	0.000346583732854716	-3.13499553970949E-06	-4.95390809459917E-06	9.35184570796569E-07	-1.03435844028209E-06	0.994020374223921	-0.102698246815523
4.5	0.00415438071935616	0.000499061659868114	-1.40179252784064E-06	2.02986285965736E-06	2.17891056056282E-06	-8.48527846332599E-06	0.994668007438918	-0.104738918977204
4.6	0.00428320756750539	0.000592023442608094	5.3784967910402E-06	9.63565929035519E-06	-1.42664923117301E-05	9.7934003258234E-06	0.995059416434826	-0.108242734445271
4.7	0.00421434100975947	0.000445436880067472	-7.58103452467701E-06	-9.61055055201007E-06	-1.14762241289639E-06	-1.38883479412791E-07	0.995146849210586	-0.110724206804212
4.8	0.00410795881477184	0.000357715316075723	-8.75901907384368E-06	-2.72366708476071E-06	-4.40638102838742E-06	4.54169121670558E-06	0.994930742522221	-0.113605721573399
4.9	0.00397748056074045	0.00020091549104296	5.763519247241E-06	8.36159700632206E-06	-7.28980014344091E-06	3.26645086994258E-06	0.994735464137189	-0.115748210177697
5	0.00386429721865879	0.000417031910645386	4.32025248085559E-06	-8.561902112817E-06	-4.29022358600019E-06	-6.21556825391904E-06	0.994762902124386	-0.117582048848416
5.1	0.00440705453662467	0.000249654953751328	1.53068036281355E-05	-1.02402488213727E-05	3.52736020228557E-06	-8.74764428367829E-06	0.994968802515886	-0.11921069462932
5.2	0.00454171039242744	-0.000167166901791715	-4.23606862897162E-06	-4.74809128419696E-06	-3.17830504259073E-06	5.16630908476384E-07	0.994844601335583	-0.121650335125591
5.3	0.00461170439890447	-0.000494494326220265	4.78844521591718E-06	3.40355201118427E-06	-9.32342085270124E-06	-4.79492001382887E-06	0.994969874724514	-0.12405150545319
5.4	0.00448131442833655	-0.000909964433181391	5.20305094152661E-06	1.21975372591399E-06	-5.04819866141362E-07	1.0507413377583E-05	0.995525990912572	-0.127371211622121
5.5	0.00417135185751233	-0.000698411538182386	-1.81817444961637E-06	-1.99368492479969E-06	8.92540672155386E-06	5.25717728745424E-07	0.995189779127979	-0.130800153457747
5.6	0.00443244587875548	-0.00104387804237978	4.2528106343937E-06	7.27002845083484E-06	-4.52297310484542E-07	-8.65391878141029E-06	0.995285886917723	-0.133590127079842
5.7	0.00397545423667529	-0.00142084817857359	2.06697295785004E-06	-7.22395463093816E-07	5.49523190265417E-06	2.47520998484147E-06	0.995178582711442	-0.136791639289177
5.8	0.00339341298447716	-0.00153333436443976	3.93045229392605E-06	1.97536743303957E-06	2.73783138813121E-06	7.87787936239758E-06	0.994793363813117	-0.139633305660889
5.9	0.00259287410581081	-0.00154545833884603	-3.7986880692611E-06	-3.07549454146092E-06	-4.72066147431335E-06	-1.79262911005647E-06	0.993537612541975	-0.142205143040007
6	0.00145761712915743	-0.000684558210679348	-2.09065510972025E-06	1.70862260824307E-06	1.04894052152843E-05	-2.65318922550334E-06	0.992740084895255	-0.142009662623511
6.1	0.001672173618691	0.000173146852396421	-7.37256981611751E-06	-1.12217695994106E-06	-7.26256886003553E-07	-2.50047845953771E-06	0.994654838622015	-0.143353666396189
6.2	0.00177636194827045	0.000318847120673891	-1.06955745478972E-06	2.00123583036194E-06	-3.50265833585769E-06	-5.3989209981838E-06	0.99484733635257	-0.145717499676447
6.3	0.00182576656912545	0.000139970952020327	1.58746611789252E-06	2.84775312219555E-06	1.15466550770124E-06	6.0089405245524E-06	0.994504154041854	-0.148583833455107
6.4	0.00137872695123721	-0.000254041478728753	2.08250906826512E-06	5.0658867708491E-06	-3.3520737261202E-07	2.28686170035085E-07	0.993648765024091	-0.151198113601004
6.5	0.00104073796745292	0.000224735711717209	4.69915651613889E-06	-1.89354067514719E-06	-4.72277501192194E-06	-1.556843786112E-06	0.994258771953692	-0.153983013473219
6.6	0.0012626430499256	8.86090480569599E-05	3.26027068622574E-07	-1.07650758455789E-06	9.36309119661676E-06	3.34249764521073E-06	0.993825697006126	-0.158400694376656
6.7	0.00113856636200758	0.000158996728238916	5.4357525538792E-07	5.64475469740258E-06	-1.79063483028488E-06	5.00695364563921E-06	0.992830261829202	-0.16127264368795
6.8	0.00109163846628379	0.000207493576919073	1.73553888908907E-07	-1.59605705225659E-06	-3.50764114433486E-06	-5.14232955489105E-06	0.992046179196027	-0.163921425669144
6.9	0.000614912667907089	0.000178589893945935	-6.66768275122516E-06	6.7718056494585E-06	2.30363950881334E-06	1.35678889705238E-06	0.991149304639984	-0.166421650185421
7	0.000222781586486939	0.00125942855240864	8.13381039333094E-06	3.16236787616462E-06	4.60899596405927E-06	5.885011074948E-06	0.990308994326866	-0.167708638008135
7.1	0.000767440837834213	0.00147910233109812	1.40573903212277E-06	7.84160758004365E-07	-2.29736613602395E-06	-4.49470728678663E-06	0.990445072951695	-0.169986398721422
7.2	0.000636575623995231	0.00151941971214874	-1.23893698418709E-07	4.42194498652755E-06	-5.04025932762352E-06	-6.47444550959291E-07	0.989620495538075	-0.172620892753401
7.3	0.00037269531109625	0.00164758128460694	1.34154104411007E-06	-5.29717845373136E-06	-2.37043044376874E-06	-2.79671550589678E-06	0.988366860418096	-0.175297105573839
7.4	-0.000314761156815208	0.00157166422971297	1.86763330898382E-06	4.4373933146563E-06	-7.3696842666082E-07	-1.07184082325789E-06	0.986681234982791	-0.179210403994662
7.5	-0.00153470200054352	0.00258759846888818	-5.77257175072853E-06	-1.4623971237905E-06	-1.63803573038957E-06	-8.92549815533198E-06	0.98283299344265	-0.18170941209504
7.6	-0.00119688075842105	0.00352553565807266	5.62538453450522E-06	-3.42726608159778E-06	1.04257019957342E-06	3.19576290748739E-06	0.982191123121863	-0.183119094884635
7.7	-0.0013575999047612	0.00396545058996612	-6.5416095256203E-06	-2.8360809931726E-06	4.42320534753838E-06	5.6656217056001E-06	0.981695038965159	-0.18633943001809
7.8	-0.00118049216954473	0.00433496352901972	-1.11826255653666E-06	-5.36597491249225E-06	-2.07209035167346E-07	1.14821851955121E-06	0.9810541479056	-0.189498641978744
7.9	-0.00110774520669474	0.00470280798273708	-3.3104637467894E-06	7.24458254227289E-06	4.30826761827355E-07	-6.89679231185243E-06	0.979760965118064	-0.192193869671477
8	-0.000199909799541185	0.00565450164723883	-2.01335639775541E-07	7.3963339613375E-06	1.75507068045117E-06	-4.47158320786129E-06	0.979804901683353	-0.192662447630476
8.1	0.00090697709054701	0.0052506181231246	-7.68965562235841E-07	-6.48178935748987E-06	-1.75790790852444E-06	-1.05871027341639E-06	0.981368671927525	-0.196329656638486
8.2	0.0012310750766838	0.00494842537323845	-3.82939344731363E-06	1.67648418848125E-06	-1.10143321001279E-05	-2.56605964515525E-06	0.98081818902075	-0.200017000280303
8.3	0.00142789208987206	0.00478647479764673	-5.61573898246621E-06	-9.85329550788574E-06	-7.78927078710286E-06	3.07061055349066E-06	0.979580663202038	-0.203321847378688
8.4	0.00119732391647242	0.00475626751905321	6.75260312731134E-07	-6.15278919378556E-07	-1.41705351151567E-06	4.49430795055939E-07	0.978199228466423	-0.20616279178115
8.5	0.00114576669133586	0.00586164996861299	-1.75893100846665E-06	-2.46435505773293E-07	3.79269578406076E-09	1.80862548242113E-06	0.977392637238291	-0.209090652704637
8.6	0.0021177965552174	0.00604311608125252	2.40224859149177E-06	-3.9956806444151E-06	-4.61336813778946E-06	-5.89822869332004E-06	0.976217806458393	-0.212378244538268
8.7	0.00247955713787932	0.00603256995622587	-1.51453479771488E-06	-2.08532069964199E-06	-3.53491666327675E-06	3.66542889682174E-06	0.974963095647988	-0.215040224257824
8.8	0.00283727476434613	0.00608176194515044	-5.51324775365597E-06	-2.08415043188405E-06	-7.24437885672345E-06	-1.22060096205531E-06	0.973867727391192	-0.217263575987603
8.9	0.0029744740759321	0.00595497036944268	8.5855853044757E-06	4.04201124192385E-06	-1.39707462134302E-06	3.21006532503549E-06	0.973226689741103	-0.219148937122401
9	0.00317088427200227	0.00667310077344385	-4.70233410027465E-07	4.16623375227262E-06	-7.81214922917585E-06	1.28624528535837E-06	0.972397913401754	-0.221180827961236
9.1	0.00433375058645453	0.00668087140332557	-2.50679453918486E-06	6.65051355555328E-06	4.0802648835273E-06	-3.10977447449483E-06	0.971719016633589	-0.222892548703227
9.2	0.00515305725983077	0.00649509177196991	-1.15044901699252E-06	3.43044780833338E-06	-2.25923386688706E-06	-2.03969373587793E-06	0.971180450680471	-0.225191088961319
9.3	0.00613622882996509	0.00610284231814432	2.29096825988819E-06	-4.05443056511774E-06	-8.06084713107082E-07	-1.77259763105493E-06	0.970741286831022	-0.227939945407365
9.4	0.00671155194446517	0.00522944303686513	-1.76299479103566E-06	3.90474990231873E-06	-2.09519659351732E-06	-3.55587513229543E-06	0.969583029381917	-0.23173176178753
9.5	0.00720940484372865	0.0052595162329818	3.53874275943135E-06	6.24058451048498E-06	3.46025869409683E-07	-2.145331290076E-06	0.967219957860387	-0.234150717432348
9.6	0.00785253100513805	0.0042362470925605	4.65469766844979E-06	7.01020781017553E-06	-8.09497087447187E-06	1.28082900381348E-05	0.966420555603393	-0.236662726089671
9.7	0.00775206732200324	0.00357074369717401	-2.87969631049849E-06	-1.50568648862244E-06	-1.40895143623863E-06	-3.94238795138508E-06	0.965268922016127	-0.239318574265552
9.8	0.00763565296137641	0.00309595121034957	1.03864993197943E-07	-3.57882074699057E-06	3.04704128683391E-06	2.36644242475379E-06	0.964068841499133	-0.241474230913613
9.9	0.00716045841504252	0.00283217124508109	5.7599828436237E-06	-6.48872838678457E-07	-2.50798878551851E-06	6.70314275265174E-06	0.961870116321199	-0.242745995055431
10	0.00701294344363866	0.00364551192516189	-1.13720753709463E-06	-5.69979605152737E-07	1.35027813946535E-06	-1.18560400313335E-06	0.961719583896485	-0.241508485156699
10.1	0.00787591673106891	0.00344338852500288	6.66604264847751E-07	-8.37718806367107E-06	6.14106248783451E-06	3.5566575158444E-06	0.962416923562462	-0.244065629161293
10.2	0.00820379047143698	0.0030456083266384	7.4933335470141E-06	8.22967751293668E-06	5.21181615627724E-06	3.48163434007032E-06	0.961046527259459	-0.245765256394136
10.3	0.008440472235619	0.00254708599639576	1.71075782526138E-06	-6.91666604991386E-06	1.42993119004815E-06	2.84097503482128E-06	0.959483306450367	-0.247115439516624
10.4	0.00820280642077185	0.00209001345895698	-4.01057701859102E-06	-3.59725553108227E-06	1.91844120448329E-06	-5.5621645028671E-06	0.957923733394131	-0.248024003807557
10.5	0.00832915572477908	0.00281486686558524	3.4653343082641E-07	-7.02072232104353E-06	-5.67709377926745E-06	4.06588391610631E-06	0.957845484598233	-0.249329410965851
10.6	0.0094563609026613	0.00266079298088599	5.47380404044833E-06	6.66542722932337E-06	2.42038896327108E-06	1.17611905266263E-06	0.957105873596666	-0.25144583863918
10.7	0.0104803709799243	0.00221283205495951	-7.02860697155966E-06	-1.65625649902679E-06	-7.62732117819384E-07	1.55008369249324E-06	0.957080568331303	-0.253393245532793
10.8	0.0113296818865464	0.00111604203794988	1.48640396996242E-06	4.40604368779043E-06	9.3331706878348E-06	-4.4588126708117E-06	0.956984322737568	-0.255564500103322
10.9	0.0112872681582054	-8.37052742682291E-05	3.38274828263107E-07	7.36717128933351E-06	-5.12591474960179E-06	2.16978178213606E-07	0.956662964126756	-0.257684492515041
11	0.0115273733447237	-9.93633444367149E-05	-2.21854862828319E-06	-3.79324564533618E-06	1.19483850447467E-05	-3.5586994474782E-06	0.955971338431456	-0.259139316233113
11.1	0.0124160546661899	-0.00130514654022134	-6.08014280428164E-06	-4.88671130420772E-06	9.52672470211267E-07	5.53466375302049E-06	0.955139366325646	-0.26078054630875
11.2	0.0126391244590747	-0.00261364564106335	3.2953288676633E-06	4.26989050305069E-06	1.04715989120801E-06	-7.82162162119314E-06	0.954073300187813	-0.262259099434759
11.3	0.0127663758740993	-0.00411647376345862	7.05756009271842E-07	-2.63987543748766E-06	-4.79993839403462E-06	9.05562098266251E-06	0.953440288655688	-0.263956113106118
11.4	0.01218084125653	-0.00569243354650808	1.46462623332474E-06	-2.18929446193516E-06	-2.99803001241661E-06	-7.38410990151608E-06	0.95180845763138	-0.266818438083295
11.5	0.011737391925108	-0.00626860399727301	9.39192563690059E-07	-1.00219881135431E-06	-8.95093184913092E-07	-8.6342950369244E-07	0.9492329973141	-0.267812528207355
11.6	0.0116769548455542	-0.0080996490319109	1.11402647044393E-05	-3.23995927448139E-06	-5.37380182432296E-06	-6.78277031436047E-06	0.949155709067646	-0.270231540964912
11.7	0.0105807879372187	-0.00975978751742218	5.29071890889798E-06	-2.8698889850622E-06	-4.3794496432463E-06	1.6349609676647E-06	0.947951813153803	-0.273570359077754
11.8	0.00916018607801688	-0.0109467649759302	-4.44420736087653E-07	-2.52892763511296E-06	1.03916427852569E-06	1.31630602432855E-05	0.946288485272201	-0.276537198790202
11.9	0.0075412280150107	-0.0114468342570018	3.29166776446563E-06	1.97867288544071E-06	-3.99416379306934E-08	1.26235470378271E-05	0.944556242215604	-0.277136676205612
12	0.00699630940949844	-0.0107059526703222	1.98432365301941E-06	4.89409424240523E-07	-3.66280346293153E-06	-9.79573488749332E-07	0.946155526977272	-0.27541387534351
