# GHZ S RI R 50
0.2	0.000705637448689861	0.00365955129231082	6.30361295448001E-06	-1.00826489377789E-06	1.06673127804022E-05	1.04910815010546E-05	0.999527579089357	-0.00710968305682665
0.3	0.00139252103257304	0.00328810142150035	5.81658453869814E-06	5.03377045287247E-06	8.09475777524006E-06	2.94997124447145E-06	0.999300112540395	-0.0101619989886189
0.4	0.0018638852007104	0.00300451949016507	-2.70513113890911E-06	7.86741400657062E-06	-4.82322268397136E-07	-4.42887400815644E-06	0.99912663989655	-0.0129481610272953
0.5	0.0019539395251388	0.00301603637207891	2.30766080920267E-06	1.47827706196598E-06	7.50899796858785E-06	-1.05381372292835E-06	0.99863063807074	-0.0158108395154339
0.6	0.00250243722365358	0.00319181951504684	3.23655766821685E-07	3.53884134914512E-06	2.69985545048614E-07	-7.65935048545717E-06	0.998915943943975	-0.0186551651679144
0.7	0.00281329099971813	0.00310746969350541	4.16530280476877E-06	5.01863983798665E-07	-3.89390252691452E-06	-1.54317531563211E-09	0.998530216209107	-0.0216764315889686
0.8	0.00312865770619227	0.00309787023245532	-2.88500349232623E-06	2.96451044008612E-06	-6.81793347332176E-06	1.323106206778E-06	0.998283411844775	-0.0238433568640402
0.9	0.0034208608686792	0.00298064478024961	6.03354423572145E-06	8.95252579825485E-07	-7.33808646382501E-06	-1.82729707745028E-06	0.998172011851402	-0.026347756762028
1	0.00331169444409598	0.00268611946265023	2.35907119643693E-06	2.94111373800585E-06	-9.03616418095799E-06	-2.57353175460966E-07	0.997533945468048	-0.0282133479827865
1.1	0.00324733978567022	0.00293280019623108	6.43410238234826E-07	3.55035545397328E-08	-5.29658054983033E-06	1.4023751814834E-06	0.996974224170007	-0.0299753599270447
1.2	0.0032998304817014	0.00256489005354983	-5.28914667746133E-06	-3.2859248861566E-06	-1.11748941498436E-05	-1.26439386106808E-05	0.996207919380018	-0.0309839873854158
1.3	0.00293432571572195	0.00186814928358624	3.04714241236334E-06	3.10015686990849E-06	6.95061632692885E-06	-4.08117089863698E-06	0.99614798734207	-0.0318060228716938
1.4	0.0025319940140676	0.00107311565499588	-2.79687441924711E-06	-1.112048419058E-06	5.70790727206573E-06	6.12077737725818E-08	0.996063464965687	-0.0338850980893116
1.5	0.00219456206446916	0.000850116636309686	1.23849859112162E-06	-2.5323586913968E-06	8.02398129773266E-07	2.50997002917081E-06	0.996449527637703	-0.0373292622774523
1.6	0.00250490677164947	0.00101316582524103	-9.36129808653055E-07	-6.41057574663463E-06	3.18086962565281E-06	-4.2425090484889E-06	0.996141081766501	-0.0404990414804511
1.7	0.00276366555051041	0.00107147082012145	3.40325522701554E-06	6.31005432301994E-07	2.23520054270492E-06	3.84839210170708E-06	0.996480988135835	-0.0429181370910806
1.8	0.00298396679324713	0.001269157797308	-2.37440215787896E-06	2.89663117081621E-06	-1.01532724698091E-06	-3.9940766406796E-06	0.996455231984036	-0.0455968211242735
1.9	0.0031950158891273	0.00125177199290989	-3.73013972696601E-06	-1.7566712486089E-06	5.62652886347103E-06	3.02190569907745E-06	0.996348050712027	-0.0481387280184982
2	0.00310087291497516	0.00141428572859246	-6.17080973528958E-06	-5.74024807828081E-06	-2.07223297379367E-06	9.14286491440984E-06	0.994830890596095	-0.0508111560849333
2.1	0.00347106024191656	0.00164971582891653	1.16956544650618E-06	4.60007825565138E-06	4.47595297431565E-06	3.98679113933657E-06	0.994701245703597	-0.0519507316883363
2.2	0.00368127313118781	0.00152529713598799	6.55247295693164E-07	9.06042716441464E-07	-3.62145882386332E-06	-1.09276632799977E-05	0.995123223883464	-0.0541350221763733
2.3	0.00371295191806388	0.00133313808470089	-2.28411588024042E-06	3.55553698770483E-06	-5.33528315658636E-07	-2.79339812659182E-06	0.995001421746627	-0.0559300963940655
2.4	0.00360877910659653	0.00109663643343595	-1.55431472549878E-06	-1.45481634810879E-06	1.28324188647442E-06	-9.97050936223198E-07	0.995081470813043	-0.0590860512558525
2.5	0.00304944579041103	0.000931192947786567	7.77735013111705E-06	4.06151031942278E-06	-2.33980250515112E-06	-7.22294848402047E-06	0.994520173908721	-0.0614348558718674
2.6	0.00280532697630606	0.00138856077789564	4.85022692160953E-07	2.11589938509329E-06	-1.46895697094814E-06	4.68111021266693E-06	0.994297656413598	-0.0640709896938584
2.7	0.00289820445354608	0.00168934069531148	-7.86297599508557E-06	5.23068600496304E-06	2.52443110954591E-06	9.71376700638245E-06	0.993882997169519	-0.0667976398891463
2.8	0.00322062894067109	0.00194514930982339	-7.74390140161227E-06	7.94134030728771E-06	5.99262635659448E-06	1.99045059152635E-05	0.994034487714186	-0.0684442598623638
2.9	0.00367929448451897	0.00189738972934134	-1.18990793857411E-06	8.57918409783455E-07	-8.10934094122056E-06	-2.96901198540741E-06	0.993987438984027	-0.0702587907487336
3	0.00392674713258939	0.00187726133659497	-6.04093643930574E-07	-4.47121160580047E-06	-2.19194260874063E-06	6.43336841305062E-06	0.993981199486632	-0.072656857770671
3.1	0.00452788454376455	0.00181705934985535	-2.58760225651276E-06	8.58894900524969E-08	1.1016388187305E-05	-3.51180897661771E-06	0.993702111199497	-0.0744155907771601
3.2	0.00486286006072087	0.00144856160969952	-9.79875208608322E-06	2.53329379758205E-06	1.21520251565717E-05	4.2780764295546E-06	0.993691753199265	-0.0759967734403487
3.3	0.00502128819852606	0.00100370242599885	-3.46845227185514E-06	9.28093358070426E-07	-5.00851893891083E-06	-1.5060959012845E-07	0.99376608853055	-0.0790999229800665
3.4	0.00497910569877341	0.000547398809698494	5.34606453099362E-06	4.95303398601686E-07	1.34808502516363E-06	4.48922776992214E-07	0.994132624837304	-0.0811442832970267
3.5	0.00457301090247356	0.000242885356752314	2.76782087145792E-06	1.56167865214767E-06	1.31202104668452E-06	7.94082338152597E-07	0.993912909805219	-0.0844956500320381
3.6	0.00447336762278772	0.000302359689607363	-7.14697107065124E-06	-1.40023698636467E-07	1.86789456236709E-06	-3.49505081923316E-06	0.993278862079615	-0.0866398165073244
3.7	0.00434125320930201	0.000145827720610513	5.77806024480629E-06	-1.50541629157585E-06	-3.23000006098462E-07	-1.73274305585815E-06	0.993417857505977	-0.0890192008639374
3.8	0.00420643598711118	0.000101927113627067	-2.00354320773535E-06	8.74357453963982E-07	-5.19433094643463E-06	2.91997815880261E-07	0.993507912618104	-0.0910489787386663
3.9	0.00412123798500301	5.23479547349866E-05	-8.37064007943299E-06	1.77145907352491E-06	-4.11720401929621E-06	-1.50481804107879E-06	0.993776162968942	-0.0946296555190288
4	0.00385027465361952	0.000189742029541151	-5.82573665101823E-06	3.60773835740587E-07	-9.48813436968805E-06	-8.46192925927341E-06	0.992574954280287	-0.0962237247239308
4.1	0.00416767187271587	0.000554253675848274	-3.99546108174779E-06	4.05942249576814E-06	-1.89128110763621E-06	5.57930717819462E-06	0.99268668476946	-0.097048543361107
4.2	0.0045464535496604	0.000444664251547979	4.63136096929568E-06	-4.37961971199146E-06	6.7570784482813E-06	7.67524083101041E-07	0.992813494629088	-0.0995795723835012
4.3	0.00480378102222016	0.000209769076731821	-3.80113900246932E-06	1.12154503334543E-06	3.55401722764664E-06	-1.20127262956806E-06	0.993109862594728	-0.101739332722818
4.4	0.00488632231639255	-0.000179840505920539	-3.14291341918051E-06	-4.94418651406491E-06	9.3245187626095E-07	-1.035552662078E-06	0.992872082687088	-0.104288306706611
4.5	0.00450473797565397	-0.000412951634629808	-1.39672850824574E-06	2.02926132796199E-06	2.16277424130861E-06	-8.47705628722226E-06	0.992827337549991	-0.10637588289807
4.6	0.00446292937650492	-0.000310523514410392	5.38366268710627E-06	9.61867584536245E-06	-1.42392259385949E-05	9.79900717014827E-06	0.99296951377706	-0.109286033910603
4.7	0.00444926545695951	-0.000482362615928818	-7.58388433120456E-06	-9.59013272749663E-06	-1.14645379971232E-06	-1.37326284826552E-07	0.992997599620693	-0.111514702869896
4.8	0.0043534802686123	-0.000597418484525222	-8.75033398198427E-06	-2.70932022983479E-06	-4.39484432827663E-06	4.54081789674004E-06	0.992704251502576	-0.114132356707387
4.9	0.00434767454891044	-0.000769736051904158	5.76274604547294E-06	8.34130524209196E-06	-7.27399303721605E-06	3.2687454104979E-06	0.99258175355848	-0.116038599156065
5	0.00418414612719866	-0.000901114165324147	4.30856381567241E-06	-8.55086829704147E-06	-4.28700300323945E-06	-6.20332626724314E-06	0.992719541175333	-0.117941339819492
5.1	0.00455988363501975	-0.00093582368739927	1.52777527313849E-05	-1.02397654508611E-05	3.51520198062768E-06	-8.73906452262365E-06	0.992844997663408	-0.119529521630349
5.2	0.00477986254554401	-0.00142687807049484	-4.23405674735357E-06	-4.73640136794285E-06	-3.17276901720931E-06	5.18951259373118E-07	0.992803074536877	-0.122011011171554
5.3	0.00477120716006931	-0.00190900455773973	4.78230436741563E-06	3.39285124495151E-06	-9.30985375524258E-06	-4.77757904015073E-06	0.992785898398591	-0.124590393682493
5.4	0.00456527100876998	-0.00238786239128808	5.19232488391395E-06	1.21506843480242E-06	-4.99576932961271E-07	1.04849778907788E-05	0.99310045994979	-0.127793872888618
5.5	0.00388317081923934	-0.00246771357740152	-1.8155539236914E-06	-1.99055287662931E-06	8.9119445730643E-06	5.24346475226846E-07	0.992667127502956	-0.131467824244266
5.6	0.00383095057074637	-0.00228023629944977	4.2499852959931E-06	7.25551917098743E-06	-4.56569863433444E-07	-8.63932270686832E-06	0.991997354384162	-0.133821457744599
5.7	0.00349949974230282	-0.0024023152915848	2.0627937202579E-06	-7.21862593698827E-07	5.48587927924674E-06	2.46835331944402E-06	0.992036523284902	-0.136264632323908
5.8	0.00300107951712755	-0.00228635857438532	3.92412421036545E-06	1.97110270327353E-06	2.73485550823926E-06	7.86372080493742E-06	0.992309139263296	-0.138709038196844
5.9	0.00256173050054452	-0.00198909701752053	-3.79570642804368E-06	-3.06982118581578E-06	-4.71590438940669E-06	-1.78802315678145E-06	0.99231595635172	-0.141762597171216
6	0.0018161632650514	-0.00152938369062558	-2.08402010560039E-06	1.70867198208903E-06	1.04654044262264E-05	-2.66463170093329E-06	0.990849814147474	-0.143871219709873
6.1	0.00192349196354999	-0.000509737778140342	-7.35497978020943E-06	-1.11374702311313E-06	-7.26346686388635E-07	-2.49366854399831E-06	0.991272149986165	-0.144365216463175
6.2	0.00239556067706067	-0.000361971993011903	-1.06610055236372E-06	1.99727655329369E-06	-3.49756671744686E-06	-5.38491045854097E-06	0.991582339151847	-0.146280464909402
6.3	0.00270050089663692	-0.000754079891024686	1.58551452686169E-06	2.84061672439154E-06	1.15538380013619E-06	5.99507398188597E-06	0.991300588043178	-0.149014593674071
6.4	0.00253139900123369	-0.00151551495471789	2.08072085921407E-06	5.05128933830827E-06	-3.34176814811515E-07	2.2833252892054E-07	0.990320546778687	-0.151805823915695
6.5	0.00179656367805441	-0.00178177901096248	4.6828637270593E-06	-1.88516631359232E-06	-4.70525437661062E-06	-1.55280239316538E-06	0.98950739175031	-0.153807291493844
6.6	0.00166695946008792	-0.00178508767073852	3.26479243308685E-07	-1.07317251262264E-06	9.33345330757589E-06	3.34505130732498E-06	0.9899942605512	-0.156572317042837
6.7	0.0012927330799097	-0.00183633228538324	5.35742049493408E-07	5.63199175768746E-06	-1.79219040952546E-06	4.99299813520726E-06	0.989707241827785	-0.159403153224042
6.8	0.000967276969707043	-0.00161143491159689	1.74945475542365E-07	-1.59212456049426E-06	-3.49363561842128E-06	-5.13424070313827E-06	0.989227562099808	-0.161947184257673
6.9	0.000708298490645225	-0.00147394085705687	-6.66014096719309E-06	6.74698401216393E-06	2.29635045942309E-06	1.35642707253335E-06	0.988915588352759	-0.1645236778492
7	4.00301795402989E-05	-0.000981486266347798	8.11065515258522E-06	3.16835788905909E-06	4.58932128036941E-06	5.87930128883568E-06	0.987673747037429	-0.166654039957145
7.1	0.000169483968241435	-0.000222898805260583	1.40175755939514E-06	7.84682606439834E-07	-2.28607776951041E-06	-4.48912674625348E-06	0.987150509521285	-0.168005577802262
7.2	0.000122990202074727	3.80082973222239E-06	-1.30283544796432E-07	4.4122822328953E-06	-5.02848353592776E-06	-6.53643029688362E-07	0.986610170413066	-0.169825575737618
7.3	-0.000192211486130827	0.000337941560130445	1.3479922499459E-06	-5.28221161468855E-06	-2.35974236015677E-06	-2.79440722925745E-06	0.985809997397443	-0.171619071956026
7.4	-0.000616489028939418	0.000640697991102218	1.85141890152028E-06	4.43236026063772E-06	-7.32402995113602E-07	-1.07139649068797E-06	0.985585560746849	-0.174316824682924
7.5	-0.00158086921481404	0.00119512803758046	-5.7642428363388E-06	-1.47594030880744E-06	-1.61398650481661E-06	-8.92255562442467E-06	0.984220606144347	-0.178519887699594
7.6	-0.00161432238967417	0.0025250453460565	5.6228028227987E-06	-3.41292977456887E-06	1.03575267222409E-06	3.19279965899344E-06	0.982430128681558	-0.180911799624292
7.7	-0.00136504839993872	0.0031480194824468	-6.52494736866106E-06	-2.84500544225683E-06	4.40415084489221E-06	5.66548615877507E-06	0.982203638994982	-0.183920673348898
7.8	-0.000861099151745741	0.00337207779088604	-1.10465364781814E-06	-5.36211699804398E-06	-2.09587272112319E-07	1.14637186332475E-06	0.982176709823152	-0.187523962004687
7.9	-0.000393195999370991	0.00325005374210483	-3.32394825996917E-06	7.23671993787834E-06	4.44192314288976E-07	-6.89461274364831E-06	0.981691576421144	-0.191776545396699
8	-0.00031513869558716	0.00350313508886672	-2.02905624877446E-07	7.39051471081143E-06	1.75474514591028E-06	-4.46768367607126E-06	0.979019242137621	-0.194672690226983
8.1	0.000572880472891891	0.00369752155434445	-7.59144761238165E-07	-6.47079136996679E-06	-1.75328330278813E-06	-1.05902873776541E-06	0.978774391747999	-0.195791258027303
8.2	0.0010656128186735	0.00356364539086074	-3.82714908693763E-06	1.66628989397125E-06	-1.09929629389461E-05	-2.58452186972707E-06	0.978889802756652	-0.198113433309236
8.3	0.00144894602901726	0.00352737815075312	-5.58818758061035E-06	-9.8544482372914E-06	-7.78722425493051E-06	3.05035611619928E-06	0.978368934855139	-0.200906569543044
8.4	0.00174520004452169	0.00343027296998235	6.75627173412192E-07	-6.13016518308801E-07	-1.41605480914498E-06	4.45837241086087E-07	0.977490471604086	-0.20369931435186
8.5	0.00149413675438689	0.00361685656401124	-1.75519583073683E-06	-2.52130453542303E-07	-2.48437053550779E-09	1.8056765058083E-06	0.976583716953066	-0.206235716846304
8.6	0.00201239945090886	0.00420504749348063	2.41631912844542E-06	-3.98546189068416E-06	-4.58995896600449E-06	-5.91346381235624E-06	0.976261191833506	-0.208969521396192
8.7	0.00246242989078449	0.00428569301506311	-1.50756907296054E-06	-2.09055873318729E-06	-3.54750865111656E-06	3.65368268400298E-06	0.975635752775198	-0.211770957925079
8.8	0.00282217538635673	0.00446508399839022	-5.50743696162378E-06	-2.10200123462074E-06	-7.24157301015254E-06	-1.24383103112038E-06	0.974924916682176	-0.21412461371146
8.9	0.00333309231111694	0.00450093896846558	8.57171912604957E-06	4.06959158405762E-06	-1.40739623669745E-06	3.20525225199697E-06	0.974630763585166	-0.21609393415801
9	0.00359732610251818	0.00458793045741768	-4.87702676408272E-07	4.16630373702009E-06	-7.82125254145812E-06	1.25453755488957E-06	0.97422925069225	-0.218331105422739
9.1	0.00462108446399901	0.00476260206050873	-2.5336330684602E-06	6.6494711461533E-06	4.09628872657328E-06	-3.09886080835822E-06	0.973753483645073	-0.220345640948718
9.2	0.0055361136873722	0.00424950296097999	-1.16398936516691E-06	3.43000137296003E-06	-2.25434084334967E-06	-2.04998667656189E-06	0.973205624458078	-0.22282672448104
9.3	0.00618536634846313	0.003627420499757	2.31020362148123E-06	-4.05023568153303E-06	-7.99930551304143E-07	-1.77806534816888E-06	0.97273657725231	-0.225316503415484
9.4	0.00665569421166712	0.00282233678048533	-1.78470085047084E-06	3.90391045327321E-06	-2.08248433742192E-06	-3.5724972280781E-06	0.972308290943727	-0.228433704996551
9.5	0.00655956560506317	0.00255950641794501	3.52654649088804E-06	6.27864192334747E-06	3.56118734571639E-07	-2.1520148758033E-06	0.971011974924359	-0.232006917492943
9.6	0.00704861435238289	0.00229861492805623	4.65212788194958E-06	7.04628148700325E-06	-8.15614460280233E-06	1.28306138522013E-05	0.969691288445768	-0.234710881354302
9.7	0.00714415033428324	0.00178977001927562	-2.88497896465587E-06	-1.51766376104624E-06	-1.40348008574511E-06	-3.95834095573807E-06	0.968977283324827	-0.237188031884551
9.8	0.00707581144149355	0.00151880556239947	1.12880393354982E-07	-3.5911316290071E-06	3.05201641550467E-06	2.38211422043219E-06	0.968593515676155	-0.239518112290346
9.9	0.00700772373148253	0.00143391164451788	5.78629427155422E-06	-6.42877374772186E-07	-2.52930713624179E-06	6.72875043338047E-06	0.967524807085919	-0.242157129528707
10	0.00666268357311781	0.00167100034975973	-1.14079120777043E-06	-5.71370405991459E-07	1.35400267968431E-06	-1.18955557571913E-06	0.964839605035899	-0.242919322547074
10.1	0.00731696152683482	0.00221966438225617	6.76731723498124E-07	-8.3955333273527E-06	6.15135644867162E-06	3.57105126911653E-06	0.965099947197182	-0.242721450370786
10.2	0.00810941633143616	0.00211827830636203	7.50497932220562E-06	8.26190440632172E-06	5.22255246748022E-06	3.49766867172492E-06	0.9652595149547	-0.244132585658371
10.3	0.00884834576614031	0.0017503513197373	1.72123112049718E-06	-6.93648949349561E-06	1.43214181385548E-06	2.85073582953511E-06	0.964630877506047	-0.246177009175931
10.4	0.00947984824628037	0.00105055143340053	-4.02009450102369E-06	-3.60643296501095E-06	1.92363870552101E-06	-5.57563592483329E-06	0.963199483594868	-0.248502241996996
10.5	0.00960391276246231	0.000586917249412524	3.55475158978092E-07	-7.03036721323083E-06	-5.69012066687622E-06	4.0648820575663E-06	0.9616816167634	-0.250091169668263
10.6	0.0103942699057466	0.000212024099045973	5.4784968774931E-06	6.68859177803595E-06	2.42473824526023E-06	1.18207409415037E-06	0.961036975162603	-0.252197888736188
10.7	0.0109687679568969	-0.000514767550971875	-7.04271465743927E-06	-1.66470721344634E-06	-7.65458328636533E-07	1.55292035220003E-06	0.96002592660865	-0.254409034972427
10.8	0.0115275496429167	-0.00131877937811332	1.48647272094172E-06	4.41449141290274E-06	9.35180772849388E-06	-4.46121989055174E-06	0.959340275235911	-0.255718230452876
10.9	0.0119130263326574	-0.00237750887649809	3.32199112608128E-07	7.37646849625206E-06	-5.13236734626901E-06	2.12728370424079E-07	0.959122211758188	-0.25714557769553
11	0.0118229142246386	-0.00325896490674328	-2.21643801037208E-06	-3.80403791213153E-06	1.19767056064852E-05	-3.54561234742944E-06	0.958594411312073	-0.258127881957394
11.1	0.0123330472337261	-0.00405467728020887	-6.0912589780706E-06	-4.90416924827702E-06	9.5035239864521E-07	5.54938273409558E-06	0.958666539105865	-0.259087629210502
11.2	0.0125198406389227	-0.00539002273368989	3.30092408540108E-06	4.28099913725347E-06	1.05294976344061E-06	-7.83887430903826E-06	0.958537128343475	-0.260684216174084
11.3	0.0124498377523964	-0.00678409500676618	7.08507492704879E-07	-2.6447364390389E-06	-4.81408390657402E-06	9.07107463497115E-06	0.958591769982293	-0.262638198277706
11.4	0.012056006523984	-0.00823047698021991	1.47065597214748E-06	-2.1923911883767E-06	-2.99555332545115E-06	-7.40446866448782E-06	0.958312777533634	-0.265744059931449
11.5	0.0110566309220109	-0.00932213169491628	9.43141991536329E-07	-1.00599541533873E-06	-8.98478924978266E-07	-8.67054876130689E-07	0.956239684973001	-0.269456268106855
11.6	0.0107047008703049	-0.0102057879604516	1.11673810953862E-05	-3.26097188954413E-06	-5.39594869815015E-06	-6.79558523351834E-06	0.954531820020995	-0.271826503488623
11.7	0.0100580267958758	-0.0114646146076348	5.30067574659881E-06	-2.88020418939088E-06	-4.38822304632821E-06	1.64181736411781E-06	0.953852602429183	-0.274920075766314
11.8	0.00921810559057973	-0.0125486816614555	-4.46567215708097E-07	-2.5355724754979E-06	1.04690504956808E-06	1.31981249276614E-05	0.95316355599458	-0.278648394608618
11.9	0.0082779274720697	-0.0135832520425723	3.30671809364792E-06	1.98346510741058E-06	-2.8115457209134E-08	1.26740980050521E-05	0.951975760954833	-0.281794732143739
12	0.00679774017650606	-0.0141267319213523	1.99126965565988E-06	4.84890137548185E-07	-3.67585045088078E-06	-9.71442527660761E-07	0.948735227006414	-0.282514632102229
