# GHZ S RI R 50
0.2	0.000660288341270915	0.00372023685588236	6.30379951277651E-06	-1.00806903852959E-06	1.06672026642591E-05	1.04917058130626E-05	0.99929541510892	-0.00719731877075386
0.3	0.00131232920272684	0.00334886414376435	5.81615837731483E-06	5.03468676673168E-06	8.09467700635604E-06	2.95110021404357E-06	0.999044053827174	-0.0101445393468363
0.4	0.00178080937786064	0.00309974019710222	-2.70661096434931E-06	7.86737274159164E-06	-4.81595783310726E-07	-4.42919129574364E-06	0.998937705230356	-0.0127983472566013
0.5	0.00182815537608711	0.00308011911399595	2.30730324114899E-06	1.47891185988885E-06	7.50939091175359E-06	-1.0518365573176E-06	0.998653332355606	-0.0155898637297651
0.6	0.00229322656048046	0.00341303733307032	3.22429900401142E-07	3.53952350205339E-06	2.72793800426041E-07	-7.66047655288004E-06	0.999195078999631	-0.0185767075091706
0.7	0.00269788938235072	0.00345325514306238	4.16614947244137E-06	5.03268487444518E-07	-3.89483816065569E-06	-2.74374733822822E-09	0.99886000507947	-0.0218633736711784
0.8	0.00312787673925863	0.00349623099136193	-2.88653713999162E-06	2.96457214912031E-06	-6.82010707346454E-06	1.32172189180063E-06	0.998511971854918	-0.0242390594906189
0.9	0.00357330978231665	0.00338301766665046	6.03500869217636E-06	8.96501651468902E-07	-7.33974399338445E-06	-1.8290137939962E-06	0.998151955357539	-0.0268384532711012
1	0.00360429432519677	0.00287849961851902	2.35901353138246E-06	2.94166307766111E-06	-9.03707819608958E-06	-2.58311544425538E-07	0.997224491812278	-0.0284544657256188
1.1	0.00334471054685265	0.00301260198215669	6.4341850669605E-07	3.56856601179658E-08	-5.29712559971913E-06	1.40092417849091E-06	0.99679816425817	-0.0297655064124055
1.2	0.00330426673277312	0.00269328322249901	-5.288130438342E-06	-3.28833544345651E-06	-1.11703811572139E-05	-1.26494059977967E-05	0.996349035392396	-0.0305386270005762
1.3	0.00279990865449982	0.00209014140063108	3.04551868966774E-06	3.10244445338931E-06	6.95399772922781E-06	-4.07721836679443E-06	0.996597491496258	-0.0311706259318461
1.4	0.00233836473989736	0.0015274326383568	-2.79660537143271E-06	-1.11494590875051E-06	5.70940655388002E-06	6.65190100072567E-08	0.996842296467001	-0.0330710454850924
1.5	0.00199371963218033	0.00144453632415193	1.2419834903723E-06	-2.53227161773192E-06	7.99990224757596E-07	2.51216557569182E-06	0.997732045822154	-0.0365097045463456
1.6	0.00247077189332293	0.00184374499348817	-9.29817429938932E-07	-6.41687103356562E-06	3.18816622008796E-06	-4.24247760020339E-06	0.997849847138698	-0.0401679091290199
1.7	0.00298792622794403	0.00183847317678623	3.40606189149384E-06	6.34844373078394E-07	2.23380671054095E-06	3.85434565565429E-06	0.99818849123537	-0.0430672211746007
1.8	0.00333482539643544	0.00187357174561156	-2.37933246325914E-06	2.89797992878559E-06	-1.01330298890984E-06	-3.99932388061861E-06	0.998075532079196	-0.0459987034506111
1.9	0.0035897145493619	0.00163427849957548	-3.7338138065392E-06	-1.76114899797613E-06	5.6318464783289E-06	3.02913213261742E-06	0.99798786834384	-0.0486897184592748
2	0.00325299174365561	0.00153833578394061	-6.17735246359264E-06	-5.74874509001303E-06	-2.0767487362522E-06	9.15390610551819E-06	0.996480546402252	-0.0516492484456149
2.1	0.00336289992045189	0.00199615295819017	1.16972095490603E-06	4.60516736158278E-06	4.47971351878178E-06	3.99200656299432E-06	0.996314545598358	-0.0528073256707323
2.2	0.00364148483146982	0.00206242985756304	6.55771612761507E-07	9.07274253426292E-07	-3.62278504043862E-06	-1.09413801041305E-05	0.996885924303737	-0.0551624255300234
2.3	0.00383291132881133	0.00194647882611646	-2.28782668081758E-06	3.55979952363904E-06	-5.33693451625074E-07	-2.79719771787208E-06	0.996795490460077	-0.0571721700082862
2.4	0.00396540703585882	0.00161794050771949	-1.55651561070771E-06	-1.45712146290013E-06	1.2852437119741E-06	-9.9843332245206E-07	0.996866715567568	-0.0604164232474763
2.5	0.00341262157632876	0.00103235655420208	7.7909107905118E-06	4.06791186529402E-06	-2.34429455337408E-06	-7.23512252728021E-06	0.996529833593833	-0.0627528603004119
2.6	0.00278967402263964	0.00141129036811805	4.86816415708803E-07	2.1196816728173E-06	-1.46977505506579E-06	4.69053571700894E-06	0.996612232449289	-0.0657070396102226
2.7	0.00267024920273736	0.00183567984371246	-7.87330601778608E-06	5.24619448639467E-06	2.53642269528539E-06	9.7295266320938E-06	0.996208805357278	-0.068816877508849
2.8	0.00289995597915111	0.00227807541344834	-7.74886375614481E-06	7.96244597277213E-06	6.02272803679403E-06	1.99317973954632E-05	0.99623999580249	-0.0707282283603861
2.9	0.00337848451176301	0.00233273952504077	-1.19061929378953E-06	8.6064499087941E-07	-8.12498012313693E-06	-2.96348079162394E-06	0.995977207563654	-0.0726983653740821
3	0.00344247588740244	0.002319356342315	-6.11022293879242E-07	-4.47594871216157E-06	-2.18578781634262E-06	6.44441258374322E-06	0.995815328370568	-0.0750921470237601
3.1	0.00394217505313946	0.00265923561409386	-2.58995122904475E-06	8.97760028021682E-08	1.1021763104136E-05	-3.53136485192262E-06	0.995476133024737	-0.0769392302623117
3.2	0.00447007971609558	0.00255498580142883	-9.80233933250649E-06	2.54883604050122E-06	1.21668471533996E-05	4.26419968904987E-06	0.995327759279144	-0.078575900572471
3.3	0.00486649881871499	0.00223880980389833	-3.46932691625543E-06	9.33115374731236E-07	-5.01170238990598E-06	-1.44247502872784E-07	0.995256515199751	-0.0816516999907064
3.4	0.00509420925333213	0.00175583664224331	5.34951783202623E-06	4.89650765834232E-07	1.34931474043915E-06	4.47673438116138E-07	0.995565960709923	-0.0834899304243428
3.5	0.00467999760390453	0.00125565869578502	2.77166908148915E-06	1.5601640844613E-06	1.31389954963427E-06	7.93408534787756E-07	0.995788205961362	-0.0867616871435441
3.6	0.00457635966173407	0.0015638278373878	-7.15323092278888E-06	-1.30701961990086E-07	1.86486549302139E-06	-3.50048898047064E-06	0.995284964490283	-0.0894282259540573
3.7	0.00479812086877369	0.00148007058218705	5.78001128780699E-06	-1.51482400851893E-06	-3.25729581370828E-07	-1.7335134027352E-06	0.995167143433484	-0.092170491462173
3.8	0.00501547745080562	0.00123793216724507	-2.00346766172908E-06	8.77976703898687E-07	-5.19715906340525E-06	3.00135767411417E-07	0.99489416872951	-0.0943818052220368
3.9	0.00514167167764228	0.000716830517535693	-8.37279692700711E-06	1.78695886227367E-06	-4.12235211890301E-06	-1.49867150017608E-06	0.994788793941709	-0.0980136609772408
4	0.00449304596865013	0.000255136601205256	-5.82688800655911E-06	3.73477391267803E-07	-9.50955709577328E-06	-8.44423851905679E-06	0.993115114848285	-0.0995510787366632
4.1	0.00430310897369469	0.000777429307821096	-3.98668989137843E-06	4.06736653727356E-06	-1.87953625337549E-06	5.58275223135474E-06	0.993145399351678	-0.099992205425686
4.2	0.00459947397078091	0.000846447253003456	4.62144768251376E-06	-4.38811945068757E-06	6.75719762993847E-06	7.53592947612191E-07	0.993303456415005	-0.102566788186386
4.3	0.0048625119871905	0.000657006595863606	-3.79759586615218E-06	1.12878533573086E-06	3.55039835719244E-06	-1.207990251023E-06	0.993448101833864	-0.104761422259558
4.4	0.00497002154475277	0.000135647630274681	-3.15077711715416E-06	-4.93630903959661E-06	9.30145202837344E-07	-1.03685209831756E-06	0.993088233698475	-0.107167318177401
4.5	0.00417728191184005	-0.000427528807584162	-1.39326763445598E-06	2.03093489860619E-06	2.14918669539827E-06	-8.47838382868576E-06	0.993184794864025	-0.108962250099854
4.6	0.00357196817648754	7.52458422090632E-05	5.40118087647524E-06	9.6121322267209E-06	-1.42264718566816E-05	9.82541290103714E-06	0.993815391347135	-0.112015533683951
4.7	0.00345632568178366	0.000382746693514372	-7.60637404506506E-06	-9.57857603468183E-06	-1.14719053175886E-06	-1.35054870485327E-07	0.993928008525797	-0.114655779747722
4.8	0.00346096097426881	0.000683182417354996	-8.7598697176162E-06	-2.6898899422584E-06	-4.38585840187352E-06	4.55274285598368E-06	0.993477725251069	-0.117571693203119
4.9	0.00373855041328441	0.000733454776088686	5.78530399192573E-06	8.32795326324283E-06	-7.26688019904969E-06	3.28809868930716E-06	0.993016662005426	-0.119590553141905
5	0.0035642818209153	0.000596686485599437	4.28573484153377E-06	-8.5620824027091E-06	-4.30336485936661E-06	-6.19177197564E-06	0.992939715035842	-0.12121432215665
5.1	0.00411887602178319	0.00105442301688536	1.52446878004198E-05	-1.02799194133796E-05	3.48962914959089E-06	-8.74652979039558E-06	0.993179289051721	-0.122790660593175
5.2	0.00490187541509364	0.000611342185637131	-4.24462977271522E-06	-4.72129309516175E-06	-3.16919648484631E-06	5.27572069071049E-07	0.992882118116967	-0.125395354145561
5.3	0.00525106617363762	-0.000165576939440226	4.78619661731751E-06	3.37631992384277E-06	-9.31252713232559E-06	-4.7473887782633E-06	0.992413745804908	-0.127797259244258
5.4	0.00513454705693561	-0.00106929205560082	5.18746966465711E-06	1.2016667820654E-06	-4.75365943967831E-07	1.04707973993157E-05	0.992464192442826	-0.130398562281841
5.5	0.00392434135973528	-0.00145109203920713	-1.81698991686573E-06	-1.98498777992909E-06	8.90248096690656E-06	5.07819801694402E-07	0.992489571941564	-0.133631768896145
5.6	0.00374556520888328	-0.00058296340220202	4.26020394987584E-06	7.23823729969424E-06	-4.74074321341496E-07	-8.62835512456703E-06	0.992043715211778	-0.13622266801208
5.7	0.00401175313529031	-0.000473415701070544	2.05816567341608E-06	-7.2523004152088E-07	5.48302252169074E-06	2.45286013022505E-06	0.991978714916759	-0.138921577472895
5.8	0.00417325993173978	-0.000608778640167029	3.92115789397923E-06	1.95886448274047E-06	2.74698289957959E-06	7.84315560910193E-06	0.991910613659156	-0.14160830983726
5.9	0.00432652269431111	-0.00114261401065358	-3.79385579174864E-06	-3.05362797462655E-06	-4.70886263838742E-06	-1.77272753215902E-06	0.991268055366059	-0.14487465661994
6	0.003156971990055	-0.0022526019272038	-2.07244478573676E-06	1.70706372054706E-06	1.04206567150394E-05	-2.67844350961098E-06	0.988448872880826	-0.146741589829534
6.1	0.00179779231187334	-0.00160719002571445	-7.32331853637462E-06	-1.10175858479441E-06	-7.2549921598197E-07	-2.48187836291555E-06	0.98826896928407	-0.145883684482691
6.2	0.00116455675404557	-0.00105762687296102	-1.06133190103245E-06	1.98852592474171E-06	-3.48237691639243E-06	-5.3610749148424E-06	0.988497343405924	-0.146865131140282
6.3	0.000901542303459033	-0.000545356758778732	1.57749837308867E-06	2.82978084700733E-06	1.1474689319007E-06	5.97104775887321E-06	0.988417332467288	-0.148753480033182
6.4	0.000879041167977972	-0.000561132059917768	2.06910305532675E-06	5.03345768866133E-06	-3.33062705004674E-07	2.27216814790906E-07	0.987889025192491	-0.151110729647518
6.5	1.42816621804846E-05	-0.000400257346906712	4.66839610177686E-06	-1.87220502462851E-06	-4.68619671878954E-06	-1.55335631583177E-06	0.987532385708195	-0.152648292722066
6.6	0.000367785507941509	0.000531923556161108	3.27201219846992E-07	-1.0699314077767E-06	9.30452863181609E-06	3.35002737460411E-06	0.989152030692928	-0.155671466582305
6.7	0.000723092514183624	0.000617637350966243	5.28447915424654E-07	5.62101461948197E-06	-1.79400096099755E-06	4.98077310006346E-06	0.989065721352154	-0.159270990025617
6.8	0.000864673623087264	0.000759409118879108	1.75867579914818E-07	-1.58909841453982E-06	-3.4832965707086E-06	-5.12764153627328E-06	0.988355051023212	-0.162186212023591
6.9	0.000993946095500748	0.000579883150347828	-6.65075677138219E-06	6.73208876018966E-06	2.29164434435449E-06	1.3548841110549E-06	0.987700800185447	-0.164819747509288
7	-0.00019117362029958	0.000605008831842046	8.0910805980857E-06	3.16327249380455E-06	4.57712562757299E-06	5.86699858045149E-06	0.986042263480367	-0.16655119432788
7.1	-0.000234652494741725	0.00226214011944756	1.39749884943982E-06	7.83818511009094E-07	-2.27648282102579E-06	-4.47945011639081E-06	0.985896792227405	-0.167265346001624
7.2	0.000458051996402832	0.00294068241948926	-1.36171489545158E-07	4.40136636821544E-06	-5.01533280915955E-06	-6.59124473683052E-07	0.985809337378469	-0.169012823184088
7.3	0.00107655470152232	0.00326427791821193	1.35601576138162E-06	-5.26853182261378E-06	-2.34914458343391E-06	-2.79345918524114E-06	0.985350285323399	-0.170763419113147
7.4	0.00179991355232214	0.00294832456863096	1.83636108547332E-06	4.43222345375342E-06	-7.28411514843334E-07	-1.07218431319235E-06	0.985737920821877	-0.173394718999017
7.5	0.00102962568456177	0.00171174801165603	-5.76336573165706E-06	-1.49244105123161E-06	-1.59056979665099E-06	-8.931814017245E-06	0.985039042852909	-0.178580375186631
7.6	6.75789865035912E-05	0.00233961946183044	5.63462589646643E-06	-3.40615551723013E-06	1.03100185225143E-06	3.19787736606326E-06	0.982586659214157	-0.181571194363846
7.7	-0.000315210990952104	0.00260798390456437	-6.52825167695496E-06	-2.85734729080586E-06	4.40112365988866E-06	5.67800552918668E-06	0.981805608293579	-0.184712461300919
7.8	-0.000539558574547849	0.00280050651315406	-1.10074140956046E-06	-5.36873427049033E-06	-2.10887098591349E-07	1.14736588144795E-06	0.981226106686295	-0.188094234776868
7.9	-0.000718093841933781	0.0027466426328936	-3.3290440148797E-06	7.24175815896826E-06	4.46754742861479E-07	-6.90027697664116E-06	0.980493047792664	-0.192117875765695
8	-0.00192890977371695	0.00340190715396914	-1.96374849810828E-07	7.38837012385842E-06	1.75028437873694E-06	-4.46781538472233E-06	0.976937948650392	-0.195165511808588
8.1	-0.0011575026672577	0.00514278509902549	-7.59844335221005E-07	-6.4587407710105E-06	-1.75042559637286E-06	-1.05653168694618E-06	0.976284303362326	-0.195019301074917
8.2	-0.000105829668111096	0.00567069684844042	-3.81883229434256E-06	1.66121567560317E-06	-1.09667213603767E-05	-2.58205519942588E-06	0.976678608744153	-0.196844185494415
8.3	0.000765270199757602	0.00589078152085431	-5.56616662969623E-06	-9.83387396407817E-06	-7.76988031128075E-06	3.03642131949164E-06	0.976297631804457	-0.19937568756495
8.4	0.00152691253232301	0.0056611711805313	6.74624870474482E-07	-6.10503578084422E-07	-1.41286192791945E-06	4.42805930011683E-07	0.97550150308371	-0.201962261606719
8.5	0.000755838146568508	0.00546907014492254	-1.75085798651908E-06	-2.55054973696122E-07	-6.05482545819205E-09	1.8017226515198E-06	0.974606868969072	-0.204164026761169
8.6	0.00110631887984373	0.00718250692145548	2.41861740470111E-06	-3.97538126916449E-06	-4.5735187899087E-06	-5.91112087567093E-06	0.974678060855647	-0.206638093963529
8.7	0.00242608886226079	0.00787924451113495	-1.50257298827311E-06	-2.08869902414609E-06	-3.54561286734891E-06	3.64332161878052E-06	0.974347520082305	-0.209473065001451
8.8	0.0038708928643418	0.00806418524831465	-5.49450516414375E-06	-2.10258870523801E-06	-7.22589989110908E-06	-1.24766478463914E-06	0.97385480803403	-0.211954135144009
8.9	0.00547976203921426	0.00732373784740443	8.54638861414731E-06	4.06474855891513E-06	-1.4058860862919E-06	3.19585853305855E-06	0.973739926480632	-0.214159696523127
9	0.00562122958282055	0.00588106273856465	-4.90775460960892E-07	4.15218566395548E-06	-7.79717723220409E-06	1.24169973180266E-06	0.973356448724103	-0.216884073049283
9.1	0.00598179837829999	0.00566061584335766	-2.5349055053068E-06	6.62189040732729E-06	4.08650738119676E-06	-3.08149649810802E-06	0.972389125872052	-0.219186231599524
9.2	0.00634782554403108	0.00481176839383467	-1.1677939196679E-06	3.4147097018763E-06	-2.24126913742376E-06	-2.04778386916432E-06	0.971376447388813	-0.221393321715547
9.3	0.00628734615046817	0.00418921757160721	2.31586148702658E-06	-4.02958152183886E-06	-7.9155722044879E-07	-1.77489159543456E-06	0.970774306899181	-0.22327192528067
9.4	0.00619647294505401	0.00359435679131415	-1.79660120320193E-06	3.8869381200218E-06	-2.06251563188733E-06	-3.5724426294162E-06	0.970723455915429	-0.225682839646831
9.5	0.00513188385882937	0.00370415479128305	3.4963642408939E-06	6.2888827520215E-06	3.65192127629898E-07	-2.1487167437617E-06	0.970083270982286	-0.229402208342449
9.6	0.00566808895423425	0.00497140919608159	4.6254286950037E-06	7.06205911427073E-06	-8.20172133809776E-06	1.27983479573535E-05	0.968714942355923	-0.232000678685569
9.7	0.00667656005841387	0.00511987964042014	-2.87982502725223E-06	-1.52780768587371E-06	-1.38973466002261E-06	-3.96343516636483E-06	0.968281616629269	-0.234175159622936
9.8	0.00757667229882327	0.00490489071526905	1.25191246989299E-07	-3.59199649768672E-06	3.04493915838245E-06	2.39337307499387E-06	0.968424894156123	-0.236286725088604
9.9	0.00843475108396914	0.00411253370855381	5.79181431985748E-06	-6.25483865063031E-07	-2.55154059367797E-06	6.7250963012123E-06	0.968301602371221	-0.239256614373552
10	0.00766081029898763	0.00317808816771534	-1.13908151606643E-06	-5.74443518941799E-07	1.35711655729226E-06	-1.18568492962168E-06	0.965322124644667	-0.241285314068905
10.1	0.00783865391532665	0.00405414980106004	7.08921498977968E-07	-8.39271014302106E-06	6.13749036894611E-06	3.59455336924957E-06	0.965218074883102	-0.240678353153951
10.2	0.00884467363031535	0.00400053961129606	7.47719956455478E-06	8.29965167538502E-06	5.21248911890813E-06	3.52206782358356E-06	0.965700071740566	-0.24199307362151
10.3	0.00985937424389716	0.00342169663566552	1.75178156045829E-06	-6.94069301130599E-06	1.4230102915713E-06	2.86103688197909E-06	0.965500445156982	-0.243956409135558
10.4	0.0107611328839596	0.00196072939502476	-4.01519832156419E-06	-3.62953314914171E-06	1.94896235098075E-06	-5.58050951864742E-06	0.964826479541612	-0.246301865460016
10.5	0.00980107193912717	0.000443079233345951	3.8470199574637E-07	-7.04966675684317E-06	-5.7231869604363E-06	4.05405764306101E-06	0.964211670727345	-0.248275261745304
10.6	0.00938948997255808	0.000426603605665979	5.47935163659473E-06	6.73353755295617E-06	2.43083819688723E-06	1.19470384281488E-06	0.964146843058425	-0.251754653321454
10.7	0.00917908737851899	0.000367419893393492	-7.06953315380307E-06	-1.68886520066098E-06	-7.72527879738952E-07	1.55787920525769E-06	0.962674423817569	-0.255021242196159
10.8	0.00956668688867592	0.000614313584101727	1.48431900442016E-06	4.43757914208957E-06	9.40336814148959E-06	-4.46262778549718E-06	0.961589238294737	-0.256392477895895
10.9	0.0103060554088348	0.000160477056015638	3.22136207478869E-07	7.40939547872525E-06	-5.15524838530156E-06	2.05645972540559E-07	0.961349585666506	-0.257978934248329
11	0.00976850975646206	-0.000487892111431778	-2.21941814574924E-06	-3.82351944619724E-06	1.20324024288635E-05	-3.54070114763811E-06	0.96071678473864	-0.259857859251297
11.1	0.0105163990388236	0.00023464386945045	-6.10848099152628E-06	-4.93623296521548E-06	9.44367415388381E-07	5.57489383846302E-06	0.959737600838696	-0.261094579144897
11.2	0.0118688909230687	-0.000356850625600552	3.30741419407948E-06	4.30653274966718E-06	1.07281607459506E-06	-7.87190663337467E-06	0.958872337026708	-0.262261332776504
11.3	0.0131247886692281	-0.00167608940086079	7.17506542466649E-07	-2.65576546006591E-06	-4.85625299071095E-06	9.10381892016622E-06	0.958649058802703	-0.263213881760266
11.4	0.0139471624543656	-0.00377801401506673	1.48399739221134E-06	-2.20007716476119E-06	-2.99216276199459E-06	-7.45093019904404E-06	0.959001843557303	-0.265067653517408
11.5	0.0128642798311202	-0.00587111533846258	9.51337332999774E-07	-1.01040289875279E-06	-9.02362234308748E-07	-8.74532404716459E-07	0.958309440537322	-0.269301280154944
11.6	0.0127889588234469	-0.00647495140322875	1.12419919624906E-05	-3.26689070322558E-06	-5.42103932842381E-06	-6.84545428765072E-06	0.956338282367865	-0.272148420741317
11.7	0.0131028709279935	-0.00825618022493552	5.33672968380814E-06	-2.8925680275141E-06	-4.4172890654838E-06	1.64742668467313E-06	0.955803879150722	-0.274983167692122
11.8	0.0129344975031822	-0.0105792259639644	-4.47767286167392E-07	-2.55199808759454E-06	1.04502121741707E-06	1.32827960089247E-05	0.955975509439085	-0.278640008371124
11.9	0.0120279645441582	-0.0136908820910524	3.32944080738341E-06	1.99467552604408E-06	-2.14802773668042E-08	1.27571150810012E-05	0.956589644016327	-0.283200043433363
12	0.00818527503989584	-0.0158195379575425	2.00257636639343E-06	4.83623036389334E-07	-3.69686795906036E-06	-9.69501536323868E-07	0.952977884652485	-0.287115127828503
