# GHZ S RI R 50
0.2	0.00024640727884418	0.00270697972402879	6.31807299002649E-06	-9.98757687358983E-07	1.06694818179975E-05	1.05315828329492E-05	1.00111002125384	-0.0062378732344209
0.3	0.00098195915857496	0.00268417333672151	5.82229818733799E-06	5.0548710081687E-06	8.10914972857083E-06	2.96977895000549E-06	1.00128581942774	-0.00919483225124773
0.4	0.00150860734097115	0.00297008667510554	-2.72257071439091E-06	7.88933433117827E-06	-4.78867666153041E-07	-4.44347079986979E-06	1.00197092921693	-0.0118985570102908
0.5	0.00272744677594565	0.00276770155917283	2.31455619977623E-06	1.48174743282337E-06	7.52972931035526E-06	-1.05895057684299E-06	1.00217727687883	-0.0163896619142347
0.6	0.00243481794286136	0.00189486604109668	3.21800922826877E-07	3.54641196997851E-06	2.76012923404484E-07	-7.67504332277489E-06	1.00089539731955	-0.0192316713072641
0.7	0.00205102781693816	0.00217101072963112	4.17683145579108E-06	5.08194832228991E-07	-3.90522685681182E-06	-6.10136112502706E-09	1.00067175345873	-0.0214294692916782
0.8	0.00200604680994148	0.00251965496497402	-2.89891417350246E-06	2.97202608962938E-06	-6.84431323706486E-06	1.32014032554378E-06	1.00082696334477	-0.0232686670532679
0.9	0.00180387373534529	0.00313203809958224	6.0599129338912E-06	9.05362146338257E-07	-7.36941432337179E-06	-1.84293000691479E-06	1.00113081318843	-0.0252130254098207
1	0.00286125191068408	0.00429010435938382	2.37211814753396E-06	2.95649739808044E-06	-9.08452726757114E-06	-2.57406422829091E-07	1.00247237839834	-0.0268615261624491
1.1	0.00374666122205135	0.00308197675874643	6.46445427839843E-07	3.51616815599227E-08	-5.32022886991965E-06	1.4131099061066E-06	1.00210836285904	-0.0307493132717848
1.2	0.00323271078888207	0.00219596037674322	-5.31604150740694E-06	-3.29571951044041E-06	-1.1237094939574E-05	-1.26902832032873E-05	1.00056855974822	-0.0324378915485671
1.3	0.00243342223725654	0.0011474707410312	3.06397194791287E-06	3.1082188690743E-06	6.97271025052946E-06	-4.10780010270043E-06	0.999550820123915	-0.034090512222191
1.4	0.00148502383294323	0.000514723444330412	-2.80797689183667E-06	-1.11074128340824E-06	5.72666460735915E-06	5.13251288187989E-08	0.998120281330191	-0.0362378348716518
1.5	0.00187887303476333	0.000157432886924552	1.23874278385263E-06	-2.54201017669804E-06	8.08476679815263E-07	2.51664072832377E-06	0.99905909422885	-0.0394664261854686
1.6	0.00119525610819854	-1.41882052496135E-05	-9.48572887781625E-07	-6.43327660888715E-06	3.18686635511332E-06	-4.26283089069633E-06	0.998392201517139	-0.0428692027750232
1.7	0.0013392111406793	0.000868046660210164	3.41870089394879E-06	6.27988876606398E-07	2.25108122107653E-06	3.86093232519377E-06	0.99914071852839	-0.0447579722782816
1.8	0.00176586498408256	0.00157874163239181	-2.37959481427695E-06	2.91358484080497E-06	-1.02695269570647E-06	-4.00974415569724E-06	0.999487032285437	-0.047079731471447
1.9	0.00238583727976444	0.00229594049875996	-3.74933656967903E-06	-1.76077583245591E-06	5.65588837027376E-06	3.02982245525339E-06	1.00009362149945	-0.0482303132977187
2	0.00406272585480467	0.00224544676595594	-6.22296588944826E-06	-5.77650124321221E-06	-2.07795262126074E-06	9.21328741739113E-06	1.00311511743116	-0.0512959560458584
2.1	0.00390619306847621	0.000920888219540579	1.19692832870731E-06	4.62919899852509E-06	4.5251734800807E-06	3.99791919945015E-06	1.00215247459253	-0.0569567115533111
2.2	0.00338092603273037	0.00084689040211476	6.63592807302903E-07	9.08764734483151E-07	-3.69494160971019E-06	-1.09802786428508E-05	1.00079479286145	-0.0595491099766022
2.3	0.00297574509101339	0.000911382543326114	-2.28070228084909E-06	3.58817473751697E-06	-5.50320972452519E-07	-2.80773987109135E-06	0.999964782217566	-0.0612895231320556
2.4	0.00249877244753618	0.0014468998118026	-1.57167651049558E-06	-1.45528095777894E-06	1.28567610671742E-06	-1.0100828662401E-06	0.999707337639271	-0.0642797432264847
2.5	0.00331748007619551	0.00223171051329523	7.84458688630646E-06	4.03232544330981E-06	-2.39901198135087E-06	-7.24569156141313E-06	0.999600075830436	-0.0667762142922373
2.6	0.00365257965494802	0.00133310993896613	4.99650295256771E-07	2.12262956396129E-06	-1.44810462635495E-06	4.71093482987063E-06	0.99919855695016	-0.0701266808050002
2.7	0.0033784178649964	0.00111119939681665	-7.87085269968784E-06	5.30330707615169E-06	2.5946412560875E-06	9.74688841135521E-06	0.998783156913299	-0.073462119300807
2.8	0.00321986184742413	0.00116406229545233	-7.73111194984494E-06	8.03355157088813E-06	6.15542585057966E-06	1.99672250522503E-05	0.998570573867309	-0.0759938385255208
2.9	0.0033453452473359	0.00154704879496992	-1.1891009304969E-06	8.71174486332002E-07	-8.17129756467066E-06	-2.92132734414236E-06	0.997799684845711	-0.0783582079617677
3	0.00449976702195666	0.00143856326622539	-6.42126160857578E-07	-4.48185451229429E-06	-2.14783057578115E-06	6.47328659350197E-06	0.997263111075488	-0.0811460911315399
3.1	0.00430385335149468	0.000476477147242365	-2.59589799783524E-06	1.06267129159494E-07	1.10272917222173E-05	-3.60946097933058E-06	0.996138568107775	-0.0835246659823938
3.2	0.00401559152389516	0.000458547968823346	-9.80804401929153E-06	2.62410397696627E-06	1.22262983662186E-05	4.18871605847232E-06	0.995138911404606	-0.0853413877976852
3.3	0.00385807549962267	0.000438619871238651	-3.46806392531251E-06	9.62130198105921E-07	-5.02165192817393E-06	-1.04956949084532E-07	0.99406475337078	-0.0886588098876113
3.4	0.00372332124241169	0.000799039041935041	5.35508029615301E-06	4.43099786634532E-07	1.35354580682536E-06	4.36010050530282E-07	0.992751672545102	-0.0904132285334839
3.5	0.00466450051545934	0.000734886392581144	2.7779595879389E-06	1.537635068047E-06	1.31726594919942E-06	7.82634500131163E-07	0.992285264651193	-0.0917504335548745
3.6	0.00415155801847348	-0.000332389186643815	-7.14992451666543E-06	-8.45278858640914E-08	1.84122536929668E-06	-3.51047671791923E-06	0.99241448324664	-0.0946871331836918
3.7	0.00337151479170732	-0.000172596565116946	5.76469902832741E-06	-1.55468796910809E-06	-3.37786660894715E-07	-1.72983442641289E-06	0.991528179972565	-0.0974577996641146
3.8	0.00302176760002577	0.000366874441597699	-1.99409028676061E-06	8.9088981363163E-07	-5.18692776407707E-06	3.36712270998769E-07	0.990600691055053	-0.0989513199638913
3.9	0.00319713998002751	0.00128777290505348	-8.34462176380145E-06	1.83353418829715E-06	-4.12276821009259E-06	-1.47078575635211E-06	0.990717148925712	-0.100655328025105
4	0.0048452030646821	0.00147446595190885	-5.82631739120652E-06	4.06382710234322E-07	-9.55960119868295E-06	-8.39291728545553E-06	0.993421072152258	-0.102567790295945
4.1	0.00499029720594628	0.000185910543951296	-3.95130311825414E-06	4.09769031258483E-06	-1.83292990909329E-06	5.59504416648186E-06	0.991804383231412	-0.107354571778429
4.2	0.00471146869987568	-0.000120109878576953	4.57662507400329E-06	-4.41664437995181E-06	6.74965447901788E-06	6.97414267017695E-07	0.989659112425931	-0.109769093271183
4.3	0.00455806549119955	-0.000218200256237316	-3.77887277056076E-06	1.15551029225112E-06	3.53170117808382E-06	-1.2325773923687E-06	0.988855663574578	-0.111412089409112
4.4	0.00445120889953663	5.86486546621846E-05	-3.18263924534695E-06	-4.89680164703041E-06	9.1905995197343E-07	-1.04163304647062E-06	0.988162407852971	-0.113527058092185
4.5	0.00558597531143352	2.11061769526472E-05	-1.36643752305766E-06	2.03489834646444E-06	2.05491402724867E-06	-8.45864882542003E-06	0.987551095559711	-0.116592980008943
4.6	0.00521315620631127	-0.00150339184215778	5.43725897944042E-06	9.49798534997601E-06	-1.40430161156723E-05	9.86521692699388E-06	0.985373777450182	-0.119025361886031
4.7	0.00435668570857775	-0.00179817422387475	-7.61018803277197E-06	-9.45612002968483E-06	-1.13929251567605E-06	-1.26599655987973E-07	0.984571130089066	-0.120198371941348
4.8	0.00368932731467589	-0.00169685692985896	-8.70792882615071E-06	-2.61871167339603E-06	-4.32586288312657E-06	4.54296222463533E-06	0.983687998055214	-0.122123621587938
4.9	0.00334188115634317	-0.00110149282856967	5.78704195894626E-06	8.22901846261712E-06	-7.19059601314501E-06	3.30354659247147E-06	0.98283758879056	-0.123371182847477
5	0.00441824093745115	-0.00109999810746965	4.20042705078311E-06	-8.50194965611756E-06	-4.29396085259591E-06	-6.11011710573501E-06	0.982384760977927	-0.124478372298659
5.1	0.00393935862088895	-0.00212044672267908	1.50693898654471E-05	-1.02347107787737E-05	3.42845684191713E-06	-8.67685544869685E-06	0.981895571630794	-0.125316132946807
5.2	0.00352067206566062	-0.00196979021098975	-4.22192305683454E-06	-4.66692526631357E-06	-3.13981901348183E-06	5.32666329692368E-07	0.981418150003125	-0.126913788432468
5.3	0.00351061969282837	-0.00175630573329644	4.75548247162278E-06	3.33084248545745E-06	-9.24671428364833E-06	-4.67486425303994E-06	0.980999497742194	-0.128868648522989
5.4	0.0037666438380564	-0.00129394625216841	5.14095271013617E-06	1.16892201793072E-06	-4.28574641836643E-07	1.03690654475004E-05	0.980243596299353	-0.131224575645327
5.5	0.00527901864938775	-0.00190361336976116	-1.79813131315388E-06	-1.95721554805259E-06	8.79349891331304E-06	4.8553542175803E-07	0.980127197859153	-0.13251673843557
5.6	0.00411943224409397	-0.00357438479458298	4.21359731252691E-06	7.16156483077705E-06	-4.67700283249191E-07	-8.53625853295521E-06	0.980170484359886	-0.135214235864478
5.7	0.00274779493697816	-0.00333420193320719	2.03733399179975E-06	-7.1708764209854E-07	5.42600629225657E-06	2.42963453391875E-06	0.97933676237038	-0.137110138269934
5.8	0.00180494834344272	-0.00264341129482117	3.87870695679719E-06	1.94376946651462E-06	2.70917201635012E-06	7.76655867803152E-06	0.979023769394048	-0.138051133970884
5.9	0.00115102402000801	-0.00111346287410857	-3.74915016004705E-06	-3.03866782098886E-06	-4.66015878986687E-06	-1.77247112345962E-06	0.979755455740979	-0.138059253648506
6	0.00288152908713828	0.000336016000674645	-2.06761993076084E-06	1.69474528315545E-06	1.03822316626261E-05	-2.64191887413694E-06	0.984019457230865	-0.140696259317712
6.1	0.00347961446200144	-0.00107125810625389	-7.28273011893594E-06	-1.08613638353045E-06	-7.24493114173462E-07	-2.46672663525067E-06	0.98227810297698	-0.145663195684444
6.2	0.00296211531552124	-0.00162634215470702	-1.05169927636136E-06	1.97491841730584E-06	-3.46179570254967E-06	-5.31850478946738E-06	0.980145703058623	-0.146747642270802
6.3	0.00235834220225731	-0.00195994467737191	1.56534258395457E-06	2.80786407691306E-06	1.13869224028116E-06	5.92483820548497E-06	0.979041711842038	-0.147847172742486
6.4	0.00189132121452635	-0.00162105974874507	2.05283116020365E-06	4.99977335364922E-06	-3.30871042461671E-07	2.25520479260748E-07	0.979002015556807	-0.149028801386727
6.5	0.00284139015093348	-0.00239474355436396	4.62590869029416E-06	-1.86821252707899E-06	-4.65181140126291E-06	-1.52943700353207E-06	0.978472126521258	-0.15350943784531
6.6	0.00123172447525426	-0.00338573870422336	3.23499574008075E-07	-1.05721848854524E-06	9.19389199250235E-06	3.31186581249285E-06	0.975293382555841	-0.154018278069189
6.7	0.000327737218914371	-0.00272679737548733	5.06427455717734E-07	5.5564036612717E-06	-1.78691158508721E-06	4.91715987263861E-06	0.975528139135279	-0.153866895326023
6.8	-0.000207536541909674	-0.00199970670774564	1.80928811164004E-07	-1.57051993104767E-06	-3.42159026918132E-06	-5.08561651423446E-06	0.97593877054409	-0.154724539634564
6.9	-0.00034859491067575	-0.00057049773656908	-6.61897441433669E-06	6.62407927457117E-06	2.25999733554151E-06	1.35359214430304E-06	0.976692710701182	-0.15533524630226
7	0.00176823246271236	-0.000370453941376888	7.99283969167517E-06	3.18409503252443E-06	4.49565875429144E-06	5.83939164284749E-06	0.978623784341205	-0.157327151613427
7.1	0.000742024839390651	-0.00200128591462787	1.37975916604481E-06	7.8606810891871E-07	-2.22631851515891E-06	-4.45438881205941E-06	0.977405642904153	-0.160193450293215
7.2	-0.000582673142213221	-0.00155042627537962	-1.63921897478616E-07	4.36198913906977E-06	-4.96714892197846E-06	-6.86339728377894E-07	0.976109555132312	-0.161210152301409
7.3	-0.00167430098067862	-0.000702760082754509	1.37634304127936E-06	-5.21158665713323E-06	-2.31012254361489E-06	-2.78237302739198E-06	0.974618460781271	-0.162099754272336
7.4	-0.00277272302401577	0.00113175584004466	1.78719288295986E-06	4.39161842565511E-06	-7.13180546683593E-07	-1.06413170780134E-06	0.972364575829103	-0.162104286522926
7.5	-0.00114858739149086	0.00313389884959044	-5.66801917615969E-06	-1.53976369128081E-06	-1.46449005422885E-06	-8.82975886692702E-06	0.974673666814348	-0.159699917896135
7.6	-0.00096194829493727	0.00221236032822462	5.6257670561552E-06	-3.29925804184229E-06	9.78949065221739E-07	3.18094316685207E-06	0.977706029828829	-0.164619730720903
7.7	-0.00147264271282724	0.00271143484108672	-6.4337811825566E-06	-2.918465130724E-06	4.28801624576471E-06	5.68654845127232E-06	0.977600760873092	-0.168447802398551
7.8	-0.00134480490765921	0.00337196496588348	-1.01495064904048E-06	-5.34063596395098E-06	-2.25578264319515E-07	1.13497890643993E-06	0.977819236551046	-0.171081197388062
7.9	-0.000383417844512095	0.00421790899091718	-3.43052965175183E-06	7.13506433078205E-06	5.62108255805941E-07	-6.84538157350035E-06	0.97948820314073	-0.172498554763042
8	0.00199069435753891	0.003086626740797	-3.36906493546202E-07	7.38518802583586E-06	1.8353872041848E-06	-4.43486152503133E-06	0.9846986306279	-0.177292801226544
8.1	0.000975466792005169	0.00151933300127837	-6.67580235022E-07	-6.4856517416331E-06	-1.73932026084439E-06	-1.08463242918017E-06	0.982488134272688	-0.184139081160806
8.2	0.000373030719546093	0.00187097257358263	-3.85091231806846E-06	1.6137549412499E-06	-1.0959414930983E-05	-2.73686259618907E-06	0.981026281768637	-0.186173772635032
8.3	0.000120968864045162	0.00243613596700397	-5.45640284939843E-06	-9.94116523820326E-06	-7.83677560021108E-06	2.94495988208384E-06	0.98066374933221	-0.188378636192962
8.4	0.000228745902594193	0.00383904671835722	6.85125497623397E-07	-6.05684692911086E-07	-1.42509910790905E-06	4.28532039416323E-07	0.980838174837217	-0.190876303279147
8.5	0.00270623023658165	0.00414372681910389	-1.75360723677828E-06	-2.71842777523002E-07	-2.2585376398992E-08	1.80690179138991E-06	0.980754874904078	-0.194761549250366
8.6	0.00228932565328454	0.00244527828380048	2.47187180718241E-06	-3.9540525075579E-06	-4.51093892314275E-06	-5.9787470627161E-06	0.979796514850923	-0.19721454492194
8.7	0.00146970392135148	0.00275822212075041	-1.48106238105225E-06	-2.11728988608147E-06	-3.60865224920581E-06	3.61132856858706E-06	0.980069187016761	-0.199490760792273
8.8	0.00107686950644979	0.00357043110006057	-5.50125556801321E-06	-2.18862376964152E-06	-7.25488132063207E-06	-1.35125318077824E-06	0.980444730867902	-0.201942446612136
8.9	0.00121174815208962	0.00513802107729387	8.57026889624359E-06	4.20137742935056E-06	-1.45600995255614E-06	3.20615227143765E-06	0.98102571644368	-0.204260783447385
9	0.00386810082008172	0.00597061946339074	-5.37971423824987E-07	4.17983751671577E-06	-7.87167432229835E-06	1.17014738112589E-06	0.981523596662238	-0.206624154122732
9.1	0.00467700538932304	0.00458503519913362	-2.63211523263513E-06	6.65482060142069E-06	4.15859982014495E-06	-3.06442788762226E-06	0.98206132636082	-0.209289000535789
9.2	0.00525454795752786	0.00424703133580911	-1.21272131352797E-06	3.4391124030125E-06	-2.24499677609502E-06	-2.09063164750665E-06	0.982070180979104	-0.212549254714759
9.3	0.00593341366976386	0.00376990690784037	2.3706378209087E-06	-4.05251016884938E-06	-7.85817997804114E-07	-1.79904936681213E-06	0.981578518440677	-0.215806445732408
9.4	0.00669692115173422	0.00373994631801427	-1.83568427994958E-06	3.90778665296551E-06	-2.05722943551884E-06	-3.61478619728739E-06	0.980294475616938	-0.21852279816193
9.5	0.00864586041903666	0.00228590572721894	3.45893386710884E-06	6.35760509063932E-06	3.870585631211E-07	-2.15786662532535E-06	0.9810491072137	-0.220021683448488
9.6	0.00741872138307412	0.000283338177396504	4.59356824121907E-06	7.17157874365286E-06	-8.40514960815906E-06	1.28265857239908E-05	0.981655599575738	-0.224912532601828
9.7	0.00640617370186156	0.000266562413666605	-2.89379584085494E-06	-1.56956886677029E-06	-1.36644804927347E-06	-4.01516984979736E-06	0.980867146290948	-0.228305203043
9.8	0.0057555989646555	0.000663401742290127	1.59414498193995E-07	-3.62703148015073E-06	3.05364929567438E-06	2.44542464851124E-06	0.980515816351546	-0.230361964035949
9.9	0.00556601019268385	0.00202332120323122	5.86515602433914E-06	-5.69471661006104E-07	-2.65422302108211E-06	6.77449125750138E-06	0.981323239955588	-0.23075389875872
10	0.00789339803418263	0.00238608920347667	-1.15420405073984E-06	-5.94571571301581E-07	1.3914968599658E-06	-1.19478348022948E-06	0.985828719283961	-0.235161654473706
10.1	0.00779975242508211	0.000841256853216214	7.48113817469121E-07	-8.52527444441428E-06	6.22424502558305E-06	3.6726627848204E-06	0.982850799643913	-0.240768187587185
10.2	0.00752959263456467	0.000852897484230287	7.56250584947425E-06	8.43888747578035E-06	5.27799982020922E-06	3.58659781328429E-06	0.981133505390908	-0.242233680473527
10.3	0.00759745663997797	0.00107937572039752	1.79375588464055E-06	-7.03486036142793E-06	1.43614687538759E-06	2.90514396621835E-06	0.980374292963038	-0.244226191803778
10.4	0.00823843549911035	0.00193656372887492	-4.07188074154652E-06	-3.68955593563557E-06	1.98531615610669E-06	-5.66301652003969E-06	0.980098477308807	-0.246965611937139
10.5	0.0109686107159241	0.0013774295480854	3.71480485773332E-07	-7.14258405782337E-06	-5.78732480041E-06	4.12172541198921E-06	0.978813230276095	-0.251859123031593
10.6	0.0112098619726716	-0.000730126092017475	5.54060634870269E-06	6.80169943014773E-06	2.45708590269658E-06	1.20604310869313E-06	0.976591039518864	-0.254121316562954
10.7	0.0112713479986592	-0.00165106475662699	-7.15157587375383E-06	-1.70886015812044E-06	-7.81585365537972E-07	1.57593737933661E-06	0.976146024524029	-0.256994960071477
10.8	0.0111649645495101	-0.00247592707373334	1.50726585948322E-06	4.49102902411609E-06	9.51527690648824E-06	-4.52757228489067E-06	0.975346186927296	-0.259850356723403
10.9	0.0112509507273942	-0.00242752555832432	3.46510816007099E-07	7.50463155803406E-06	-5.2215613549042E-06	2.22365321975547E-07	0.974829922936574	-0.262296652738664
11	0.0134559664787239	-0.003613278643296	-2.26137829356403E-06	-3.85837294991847E-06	1.21567226193719E-05	-3.63285936769497E-06	0.974617147832366	-0.26445730261242
11.1	0.0126963188531616	-0.00625230575195594	-6.20164677155986E-06	-4.96638244293272E-06	9.80280205869133E-07	5.63556155979833E-06	0.973700505263151	-0.267144525770788
11.2	0.0117721055124644	-0.00726841821978142	3.37160604950953E-06	4.33675988655324E-06	1.0381634800397E-06	-7.96976302037056E-06	0.972463823824611	-0.269750820216033
11.3	0.0109736950082057	-0.00791390796398969	7.04056381703827E-07	-2.68931883443853E-06	-4.83531054095323E-06	9.23777460574526E-06	0.970658919719941	-0.272389800732975
11.4	0.010428689116646	-0.00780907248409746	1.4741298029035E-06	-2.23078223548818E-06	-3.08581896636815E-06	-7.47832484845402E-06	0.967717067996645	-0.274658755445168
11.5	0.0119547151405244	-0.00908056191039172	9.50870883100344E-07	-1.02168755488979E-06	-9.12585246362645E-07	-8.74257620939611E-07	0.968357123180356	-0.275497179715069
11.6	0.0104673378996885	-0.0116662505987123	1.13182693171192E-05	-3.36727106381684E-06	-5.51184546232696E-06	-6.86988420866693E-06	0.96783514176623	-0.281662967357708
11.7	0.00885688992001903	-0.0123274175098027	5.3572691526334E-06	-2.96059468221344E-06	-4.44044353906719E-06	1.69752380270891E-06	0.965343184894251	-0.286163158610675
11.8	0.00773538053395565	-0.012404699591772	-4.72806884326436E-07	-2.56636892268473E-06	1.16617885108965E-06	1.33685987316321E-05	0.963180236666477	-0.289508656978336
11.9	0.00782882851584958	-0.0117094463928385	3.36617768981389E-06	1.98817782952243E-06	5.87414463522098E-08	1.28498573515319E-05	0.963296037704995	-0.290247887427722
12	0.00972415560213381	-0.0133753292927657	2.03229448544226E-06	4.75110624842705E-07	-3.75229711294477E-06	-9.54788332147972E-07	0.966559703901988	-0.295562660572747
