# GHZ S RI R 50
0.2	0.000490246485437383	0.00322928512610356	6.31031644907426E-06	-1.00368847012685E-06	1.06679994672011E-05	1.05100924101446E-05	1.00004024502948	-0.00685344687089649
0.3	0.00117348867754221	0.00303827958480364	5.81894537812597E-06	5.04382116619366E-06	8.1012354684092E-06	2.95954993749194E-06	0.999970225157132	-0.00980385971746555
0.4	0.00164788198347575	0.00305588056433351	-2.71379475190502E-06	7.87745508675914E-06	-4.80412709740393E-07	-4.43571424041819E-06	1.00023976184807	-0.0124395847429293
0.5	0.00223603275565713	0.00299604583361408	2.31077301778159E-06	1.48008940771792E-06	7.51879822456229E-06	-1.05561566936794E-06	1.00034387270191	-0.01601439727042
0.6	0.00234909447531562	0.00278233054935494	3.22440613180252E-07	3.54257000679776E-06	2.73599426478757E-07	-7.66699744264809E-06	1.00009211803911	-0.0191334173691112
0.7	0.00238749326032317	0.00296934443038997	4.17097815999665E-06	5.05157366755213E-07	-3.89949686470336E-06	-3.95002880364344E-09	0.999741706068732	-0.0220395571080526
0.8	0.0026199174305722	0.00318135742647049	-2.89182871910892E-06	2.96819408429128E-06	-6.83087289144966E-06	1.32164565430233E-06	0.999526314894378	-0.0242535494694181
0.9	0.00278491241034517	0.00340492887373458	6.04628750154927E-06	8.99797561757014E-07	-7.35326715677855E-06	-1.83443163160883E-06	0.999286115546302	-0.0265735853406486
1	0.00329051228249292	0.00368756765985317	2.36529974290764E-06	2.94790090256255E-06	-9.05823506987352E-06	-2.56513809047771E-07	0.999244752476817	-0.0279616854028619
1.1	0.00357482994324093	0.00318181363279385	6.44719836509623E-07	3.5356200950244E-08	-5.30678453629117E-06	1.40700565814111E-06	0.998986393364963	-0.0302725925099759
1.2	0.00327382853582906	0.00261257904815843	-5.30034321947222E-06	-3.29077960858429E-06	-1.12001844263675E-05	-1.26652496948675E-05	0.998154696464873	-0.0313761171346543
1.3	0.00262536561129622	0.00186074727253102	3.05364167854078E-06	3.10448346229813E-06	6.96133049120412E-06	-4.09090714278462E-06	0.998004981661961	-0.0324452521473079
1.4	0.0019495706533309	0.0013119643362339	-2.80135459454329E-06	-1.11278847641433E-06	5.71634057325963E-06	5.94630264934748E-08	0.997573159219483	-0.0345434843231192
1.5	0.00198939840298234	0.00116201463488452	1.24042222059888E-06	-2.5361196232367E-06	8.03532944067054E-07	2.51375222519537E-06	0.9986214603383	-0.0378887680792856
1.6	0.00197519274300617	0.00130335687710406	-9.37227432768066E-07	-6.42359770811407E-06	3.18779491794619E-06	-4.25066030012223E-06	0.998461561198582	-0.0416668988717132
1.7	0.00237994077026558	0.00169728651970766	3.41143162161752E-06	6.3222015219233E-07	2.24086455947679E-06	3.85738557634466E-06	0.998895308878338	-0.0442210742126448
1.8	0.00280547004986513	0.00198344677301314	-2.37974720914853E-06	2.9045269772972E-06	-1.01883081728915E-06	-4.00396555851105E-06	0.998904073564049	-0.0469044486747391
1.9	0.00320396050071423	0.00210728686985489	-3.74027518757844E-06	-1.76148195811118E-06	5.64181409097662E-06	3.03017479482103E-06	0.999015846378804	-0.0488219571536593
2	0.00375375002141358	0.00201047666643903	-6.19677191693898E-06	-5.76309114519352E-06	-2.07969374723739E-06	9.18060052227891E-06	0.999782636112166	-0.0516038072421012
2.1	0.00366039149189763	0.00161086478949415	1.18174019377305E-06	4.61667164954955E-06	4.50042386112183E-06	3.99554775174792E-06	0.999438688715402	-0.0551448257448348
2.2	0.00350229272254004	0.00166997959591108	6.59312708421807E-07	9.08021086974606E-07	-3.65523096908087E-06	-1.09596985783907E-05	0.99898064410561	-0.0577836712355115
2.3	0.00341619084497958	0.0016892826701801	-2.28478880008841E-06	3.57267059382556E-06	-5.41141200114438E-07	-2.80206947348715E-06	0.998392241780642	-0.0597164654254071
2.4	0.00326969770472023	0.00177470385516815	-1.56341654200696E-06	-1.45643083873445E-06	1.28555144365268E-06	-1.00371829516923E-06	0.998152606876241	-0.0627620321728677
2.5	0.00334917804998852	0.00185852552436585	7.81623821210689E-06	4.05170608838605E-06	-2.3697581152169E-06	-7.24047137041058E-06	0.997970294793592	-0.0649445473830023
2.6	0.00317566005219551	0.0016307951152163	4.92822451050236E-07	2.12099808871025E-06	-1.45956159067217E-06	4.69995897118198E-06	0.998011260377208	-0.0680701467749188
2.7	0.00296752250354961	0.00176404194614811	-7.87198550313359E-06	5.27256208431155E-06	2.56336611328828E-06	9.73735346551263E-06	0.99772997362838	-0.0713252665270622
2.8	0.00299257655336207	0.00203011922011041	-7.74053223858847E-06	7.99543586244436E-06	6.08438065589206E-06	1.99480777685056E-05	0.997705822541164	-0.0736317218312477
2.9	0.00325571132362953	0.00226669862990623	-1.18986110994307E-06	8.65596800130156E-07	-8.14661663937861E-06	-2.94344176160978E-06	0.997142072345306	-0.0758377841108825
3	0.00380956303789797	0.0022973002715881	-6.26002380418696E-07	-4.47797588249909E-06	-2.16695762343351E-06	6.45721721670203E-06	0.996772476177381	-0.0783298756272885
3.1	0.00398506786928631	0.00210300710321131	-2.59203118988487E-06	9.74999218936088E-08	1.10213213039417E-05	-3.56708597634811E-06	0.996119247443168	-0.0804450377546645
3.2	0.00417844464102474	0.00212017490398556	-9.80237531381733E-06	2.58264625889734E-06	1.21908828187609E-05	4.22849929694497E-06	0.995554830885192	-0.0821947744693246
3.3	0.00439468439981093	0.00198689389269415	-3.46784617188865E-06	9.46058498259565E-07	-5.01491454021763E-06	-1.26352570671741E-07	0.99497119547229	-0.0854058449469364
3.4	0.00451518366913226	0.00189828961749681	5.35044849265982E-06	4.6828901337248E-07	1.35083831836894E-06	4.4222376630518E-07	0.994423533306384	-0.0871738365067192
3.5	0.0048020903823694	0.001627002528381	2.77316414748087E-06	1.54954657322083E-06	1.31477724740748E-06	7.8830926166138E-07	0.994382689748888	-0.0893053438248405
3.6	0.00456756592254847	0.00124076991698141	-7.14982110468926E-06	-1.11414086532336E-07	1.85447995177012E-06	-3.50365899585378E-06	0.994469965117416	-0.0922637168031061
3.7	0.00436547985083598	0.00124056360400255	5.77222591256811E-06	-1.53169358366062E-06	-3.30859057647551E-07	-1.7315721058076E-06	0.993883271724477	-0.0952788502764777
3.8	0.00435996596366405	0.00129774910506314	-1.9988627821675E-06	8.83481229123264E-07	-5.19144214449733E-06	3.16230424856375E-07	0.993025160001453	-0.0972443566529762
3.9	0.00450043673798548	0.00136579267395693	-8.35745704776963E-06	1.80695074841845E-06	-4.12112075957172E-06	-1.48581994967913E-06	0.992648699614359	-0.0997832211574436
4	0.00491953557454383	0.00115953070906113	-5.82521410025116E-06	3.87415462135451E-07	-9.52855950615594E-06	-8.42028357535912E-06	0.993175636130013	-0.100955789328757
4.1	0.00481691288151329	0.000711356014755518	-3.96911755401815E-06	4.080157700216E-06	-1.85741372067433E-06	5.58674549356938E-06	0.992708549171211	-0.103685736846684
4.2	0.00470721118034592	0.000571285482960595	4.59852375631456E-06	-4.39903618844642E-06	6.75034404995334E-06	7.27385533915371E-07	0.991590294279636	-0.1063138781736
4.3	0.00464213232993195	0.000441520954339317	-3.7869420793974E-06	1.13988748635631E-06	3.53991095420218E-06	-1.21809807051856E-06	0.991081272178754	-0.108143731466118
4.4	0.00451193379903565	0.000358620307075133	-3.16247832783071E-06	-4.91670537961791E-06	9.24906766442419E-07	-1.03828289904314E-06	0.990509964518731	-0.110149283593497
4.5	0.00454591385519904	0.000191613786587944	-1.38089077705777E-06	2.03189178996403E-06	2.10676826724648E-06	-8.46637598265382E-06	0.99055078450579	-0.112345778894262
4.6	0.00400249087902302	-0.000147803029128301	5.41416987362068E-06	9.55710357254535E-06	-1.41386680333212E-05	9.83772574520916E-06	0.990064570181143	-0.115202506556628
4.7	0.00353536943970871	3.89710475163182E-05	-7.60367471202352E-06	-9.52115298147043E-06	-1.14318636711196E-06	-1.31388794479281E-07	0.989854049874751	-0.117214470807116
4.8	0.00329574748826116	0.000362329209536641	-8.73360678507556E-06	-2.65864955104236E-06	-4.35844586188387E-06	4.54631705703066E-06	0.989272275687026	-0.119760035158985
4.9	0.00335425456355619	0.000733201453357965	5.78414926938889E-06	8.28259778723423E-06	-7.23163043758146E-06	3.2936710158034E-06	0.988599464666309	-0.12148755142102
5	0.0038582403901467	0.000728451236947544	4.24600512374961E-06	-8.53236439781339E-06	-4.29780099595815E-06	-6.15309758283387E-06	0.988320784846249	-0.12273804737516
5.1	0.00399435176448117	0.000497145663178037	1.51620950445942E-05	-1.02525233162816E-05	3.46256477980688E-06	-8.7111218709093E-06	0.988339627732285	-0.12395345983382
5.2	0.00429268519277096	0.000371399973039145	-4.2317318394697E-06	-4.69665708535187E-06	-3.15517508731005E-06	5.28767141261443E-07	0.987909090000725	-0.126073287302216
5.3	0.00457811614725148	5.42764048214335E-05	4.77010349675558E-06	3.35652306639512E-06	-9.27906830893024E-06	-4.71651010948923E-06	0.987430820873378	-0.128116865573354
5.4	0.00470581794370434	-0.000257063513262647	5.16470881640365E-06	1.18802932777251E-06	-4.57087092792117E-07	1.04218705517807E-05	0.987134579614556	-0.130415070857385
5.5	0.00485875259775778	-0.000759420112431471	-1.80664624092815E-06	-1.97235246518441E-06	8.84871309559147E-06	5.01760436691285E-07	0.987345589426601	-0.132410635260035
5.6	0.00426165850882519	-0.00117118691857012	4.23286662175023E-06	7.20474004111613E-06	-4.64914121511689E-07	-8.58482371970687E-06	0.987580131552322	-0.135272017007404
5.7	0.00385945685372747	-0.00103438187070922	2.04882500281323E-06	-7.20046113560509E-07	5.45455188177601E-06	2.44550623795034E-06	0.987120206545486	-0.137913773217877
5.8	0.00364314991508891	-0.000958275775689672	3.89937256258729E-06	1.95410405517799E-06	2.72363509796417E-06	7.8079090363672E-06	0.986658963364911	-0.139934349416566
5.9	0.00342124939340447	-0.000876371566160333	-3.76878656709483E-06	-3.04877449341144E-06	-4.68269228284936E-06	-1.7760537654156E-06	0.986137554130912	-0.141454812911368
6	0.00339888294293928	-0.00110779554292593	-2.07183887370069E-06	1.69818817891631E-06	1.04033906199081E-05	-2.64725447868688E-06	0.986780070326489	-0.14287946313872
6.1	0.00246454576314247	-0.00170612299707443	-7.30124638141291E-06	-1.1038433432753E-06	-7.21600021666513E-07	-2.47519123847428E-06	0.986109407145609	-0.144842439264684
6.2	0.00129102552716819	-0.00148462238279026	-1.05972635525105E-06	1.98015507918474E-06	-3.46379401920611E-06	-5.34561360043568E-06	0.985129078091953	-0.145638433568934
6.3	0.000578068848812534	-0.000887132870710467	1.56708506931153E-06	2.82240846189928E-06	1.13324502453131E-06	5.95178474309423E-06	0.984731470763598	-0.146847685901799
6.4	0.000376028783586559	-0.0002695700159637	2.05389106744886E-06	5.02366683396877E-06	-3.32586542968219E-07	2.25964005136414E-07	0.984874594852925	-0.14847140851771
6.5	0.000639308394093189	-0.000219633068184617	4.65514737040673E-06	-1.86629647353291E-06	-4.6725203861803E-06	-1.54939429850772E-06	0.985215336655036	-0.151836920057203
6.6	0.000282793546921604	-7.0801877639557E-05	3.26763508686289E-07	-1.0645657800466E-06	9.25734822896011E-06	3.34384921168603E-06	0.984490603680778	-0.154397671622505
6.7	0.000301453812313223	0.000373411137331382	5.13730309758285E-07	5.59650768351835E-06	-1.79671346500992E-06	4.95410526279411E-06	0.984426551915122	-0.156483732411593
6.8	0.000330381779060844	0.000734718686086539	1.79616475364225E-07	-1.58198183998572E-06	-3.45432319895853E-06	-5.11610213031382E-06	0.984140981041463	-0.158614909448489
6.9	0.000388017505460602	0.00122896221446456	-6.647484830981E-06	6.6859505710583E-06	2.27882994976906E-06	1.35714424156736E-06	0.983952103166618	-0.160314095833378
7	0.000822614512998471	0.00137055721012603	8.0526593112459E-06	3.17890513185139E-06	4.54199076719782E-06	5.86171820450196E-06	0.984150525638838	-0.161885369089051
7.1	0.000337981456441833	0.00147424650790306	1.39018165762189E-06	7.86245773443981E-07	-2.25317743970747E-06	-4.47302135602259E-06	0.983822871867995	-0.163883195578189
7.2	0.000208885333633272	0.0021522237749172	-1.51595418215593E-07	4.38768468649646E-06	-4.99792983164316E-06	-6.75189483365728E-07	0.983193774851962	-0.165598461293466
7.3	0.000284287964780073	0.00271081903062674	1.36985739843391E-06	-5.24794939834186E-06	-2.33250981464542E-06	-2.79299925693522E-06	0.982176128594713	-0.167278820306179
7.4	0.000387303187785735	0.00319490659771393	1.81435170741421E-06	4.42003514716631E-06	-7.21921289612629E-07	-1.07016396745376E-06	0.98089447283186	-0.169039927194197
7.5	0.000880292626605082	0.00326590451563712	-5.72534787062871E-06	-1.51970362860258E-06	-1.52866936350229E-06	-8.89644879934824E-06	0.981100286856417	-0.170040343440078
7.6	0.000432953067865387	0.00273507267344623	5.64290616234373E-06	-3.35912058485859E-06	1.00667064148596E-06	3.19647469788074E-06	0.981726226456498	-0.173970086870544
7.7	-0.000245304784694221	0.00288809088401118	-6.49618778991772E-06	-2.89339666965382E-06	4.35535254322924E-06	5.69445446958586E-06	0.981117389309418	-0.177666946810915
7.8	-0.000589259897700853	0.00323986683123803	-1.06248111365494E-06	-5.36556840888192E-06	-2.18185782727302E-07	1.14368997438655E-06	0.980609252709928	-0.18065376304385
7.9	-0.000532844588761429	0.00372584218533114	-3.38135868826276E-06	7.20321166209222E-06	5.01106571918849E-07	-6.88530634387746E-06	0.980726038876652	-0.182993596377186
8	-9.50340963617768E-05	0.00367199173624477	-2.62869297048313E-07	7.3996709791224E-06	1.79337792822376E-06	-4.46004214558637E-06	0.982241191262559	-0.186452471018404
8.1	-0.000348788472121933	0.00400074047455505	-7.21430233807467E-07	-6.48121783824451E-06	-1.74860130004453E-06	-1.07040475943648E-06	0.980994536847393	-0.19055845848637
8.2	-0.000131770683746915	0.00457693681591808	-3.83729244153836E-06	1.64398224193908E-06	-1.09788322628816E-05	-2.64929517893332E-06	0.980099075362953	-0.192935782064451
8.3	0.000138547963669245	0.00504253223976655	-5.52828629339987E-06	-9.88956595813541E-06	-7.80660605910895E-06	3.00290015028289E-06	0.979311687774245	-0.19547444045075
8.4	0.000450418150772142	0.00571241663838569	6.79755573519006E-07	-6.09416149611869E-07	-1.41970415212902E-06	4.37704305287293E-07	0.978668332270301	-0.197985610182292
8.5	0.00120148592428388	0.00604400384927406	-1.75435786990138E-06	-2.61040205088164E-07	-1.15870011326093E-08	1.80610940852908E-06	0.978053879321662	-0.201046978223322
8.6	0.0012254728276973	0.00634754200142924	2.43970287070048E-06	-3.97168800949761E-06	-4.5558680386622E-06	-5.94062594116561E-06	0.977328099248173	-0.203567721883438
8.7	0.00173308632959762	0.00711803100515139	-1.49636908289298E-06	-2.10107080912467E-06	-3.57182106097965E-06	3.63551677052528E-06	0.977113486180865	-0.206048024127516
8.8	0.00264696334550008	0.00766000255028197	-5.50330505038008E-06	-2.13538698807819E-06	-7.24456274157849E-06	-1.28565476041284E-06	0.976959930260994	-0.208476958045815
8.9	0.00381588875883282	0.00783897485367267	8.56740837860802E-06	4.11551992208377E-06	-1.42437990523227E-06	3.20416264459576E-06	0.977128003288558	-0.210752849898081
9	0.00522913297294893	0.00726782482101904	-5.04788462387525E-07	4.16563033764271E-06	-7.82880799658732E-06	1.22314468383627E-06	0.977096028173727	-0.213362405846799
9.1	0.00571765425935188	0.00630126399285534	-2.56858528322638E-06	6.63885845066062E-06	4.11361325071079E-06	-3.07898439427332E-06	0.976732305567824	-0.215889983121522
9.2	0.00607045401386293	0.00568100881463095	-1.18316735048434E-06	3.42659242935382E-06	-2.24526910789033E-06	-2.06363239415589E-06	0.976108086198083	-0.218594198562915
9.3	0.00631602093819725	0.00514778186655699	2.33431954074086E-06	-4.04212066068259E-06	-7.91249784153407E-07	-1.78421717850348E-06	0.975450637020199	-0.221184338608581
9.4	0.00656449709042229	0.0048034184675796	-1.80763260124347E-06	3.89708835058061E-06	-2.06438170339857E-06	-3.58676263080621E-06	0.974514846089388	-0.223823390587378
9.5	0.00691530910762779	0.00430521600848919	3.4827239371036E-06	6.31110674882368E-06	3.72626430952287E-07	-2.15138473885376E-06	0.974307821102476	-0.226059560260644
9.6	0.00661411461299498	0.0041149792408547	4.61346467750277E-06	7.10503393821527E-06	-8.28114953923952E-06	1.28103121342464E-05	0.973958481753206	-0.229721344228319
9.7	0.00683701153561013	0.00431474635581133	-2.88603227441754E-06	-1.54395941456661E-06	-1.38148895492868E-06	-3.98414701159623E-06	0.973158540303888	-0.232450175110738
9.8	0.0072770265673465	0.00431376637399244	1.38143618548686E-07	-3.60587393374763E-06	3.04877310624186E-06	2.41346582552839E-06	0.972850135703627	-0.234381908669901
9.9	0.00780211861768666	0.00426368015106573	5.82010062703531E-06	-6.01851312941604E-07	-2.59337729698607E-06	6.74301133407443E-06	0.973051212211673	-0.235711241141018
10	0.00852146796665685	0.00364329554354835	-1.14551972102227E-06	-5.83412181865886E-07	1.37227628648555E-06	-1.1893462743941E-06	0.97453488540761	-0.23876052991664
10.1	0.00831995546172476	0.00299916543634449	7.23976229834281E-07	-8.45125856300478E-06	6.17662712117095E-06	3.62733286403429E-06	0.97281092742444	-0.242186869091314
10.2	0.0083600443798141	0.0028873058135342	7.51663794813745E-06	8.35871324424723E-06	5.242055569854E-06	3.54899919008893E-06	0.971533513244514	-0.243648498484591
10.3	0.00863328630288708	0.00274379335336585	1.76876769222968E-06	-6.98347932099129E-06	1.42968582536748E-06	2.88047162332552E-06	0.970665688111889	-0.24530664452084
10.4	0.00915329420982362	0.00249971859323067	-4.0434439622003E-06	-3.65652330978794E-06	1.96413945344674E-06	-5.62038502237008E-06	0.970236168492783	-0.247303005041536
10.5	0.00979652064499596	0.00165290715706689	3.71849009516685E-07	-7.09651158066234E-06	-5.75170158683485E-06	4.09298732600777E-06	0.9699242348806	-0.250722437140004
10.6	0.00956359816378335	0.000921162201601971	5.51665289936557E-06	6.76052286323517E-06	2.44492920531993E-06	1.1974922299445E-06	0.968819828141861	-0.253753037080071
10.7	0.00951509959911986	0.000732343079952873	-7.11112010532581E-06	-1.69041070260112E-06	-7.751162289494E-07	1.56749297713166E-06	0.96800123406193	-0.256986639028103
10.8	0.0096919232132089	0.00061885294078381	1.50099459258104E-06	4.46128157662483E-06	9.45125893492962E-06	-4.50578118591513E-06	0.966902892981211	-0.259477883061462
10.9	0.0101007650553415	0.000531501854459383	3.44624789159066E-07	7.45451179823057E-06	-5.18669016910917E-06	2.21178100801978E-07	0.966378505059775	-0.261653172505351
11	0.0109477116047633	-8.96799935006016E-05	-2.24469191383112E-06	-3.83479535638008E-06	1.20805039494453E-05	-3.60275690588868E-06	0.965819849307094	-0.264006772700156
11.1	0.0110939463280165	-0.000735721315444217	-6.15410557198203E-06	-4.93967434191276E-06	9.67350306346195E-07	5.59849270246531E-06	0.964134443583775	-0.266167945265012
11.2	0.0116655247133331	-0.00126922492171283	3.33960884452606E-06	4.31489156993164E-06	1.04836524013203E-06	-7.91398406240934E-06	0.962475631874086	-0.267726438602404
11.3	0.0124402603326115	-0.00221729885771796	7.08631327968129E-07	-2.67065401464289E-06	-4.8363346329027E-06	9.16570369194185E-06	0.96108323633845	-0.268922389272313
11.4	0.0129423143969477	-0.00346299177334531	1.47655054421839E-06	-2.21425047673335E-06	-3.04030217028151E-06	-7.45633156441867E-06	0.959500389645363	-0.270307296996519
11.5	0.0133055371078271	-0.00532388396489345	9.49807033938785E-07	-1.01503770841926E-06	-9.06578509697442E-07	-8.73207494607477E-07	0.959802216608966	-0.271970207290013
11.6	0.0126974932914777	-0.00714985359840683	1.12715079842826E-05	-3.31304609686019E-06	-5.46122827889372E-06	-6.85284917659072E-06	0.959031574428162	-0.276532461434943
11.7	0.0121915415743981	-0.00865325759113555	5.34329175205969E-06	-2.92440517264092E-06	-4.4257793950385E-06	1.67120258318683E-06	0.957352964007771	-0.280085263004245
11.8	0.0115663890781069	-0.010234126044943	-4.60185807730568E-07	-2.55697154479097E-06	1.10616255909318E-06	1.33143245950704E-05	0.956274533183484	-0.283162678029548
11.9	0.0110168546305939	-0.0118801239698034	3.34418051078286E-06	1.98841459298298E-06	2.10194781810113E-08	1.27881705532334E-05	0.957149991465618	-0.285224579547359
12	0.00974694322782903	-0.0138543618406132	2.01496205317165E-06	4.78911740870779E-07	-3.72001140379955E-06	-9.61211316689165E-07	0.958601858636508	-0.290040211769718
