# GHZ S RI R 50
0.2	0.000549536495048327	0.00356005831814333	6.30661476428728E-06	-1.00666433846524E-06	1.06684669484326E-05	1.04989705581629E-05	0.999775165279958	-0.00691314825438468
0.3	0.00122143783342564	0.00323947912465266	5.81778603006158E-06	5.03839495502988E-06	8.0978588785317E-06	2.9543326265614E-06	0.999619852341764	-0.0098852490693775
0.4	0.0017056005959268	0.00310479625255973	-2.70927014148328E-06	7.87225033319464E-06	-4.81418930054472E-07	-4.43216091577685E-06	0.999663742786339	-0.0125916444774384
0.5	0.00208016204286579	0.00305711612390205	2.30907248471626E-06	1.47910492919752E-06	7.51345374495719E-06	-1.05461889397904E-06	0.999365396241948	-0.0158165326647271
0.6	0.00242882353711212	0.00300964572208252	3.22894048873538E-07	3.54050204858073E-06	2.72066889377379E-07	-7.66269637918385E-06	0.999328235210304	-0.0186484148423332
0.7	0.00261380330791426	0.00301259981066308	4.16779061574786E-06	5.03688803192198E-07	-3.89639700183501E-06	-2.94946463436815E-09	0.998999856517568	-0.0215220519298859
0.8	0.00286317195720181	0.00306645121120629	-2.88839550933238E-06	2.96583201807743E-06	-6.82387633744666E-06	1.32167839111184E-06	0.99881950490321	-0.0236508076125419
0.9	0.00302892299876927	0.00310544189266368	6.03930706456697E-06	8.98262717465392E-07	-7.34483721585704E-06	-1.83170168961563E-06	0.998742239819135	-0.0260232754062833
1	0.00318334239900175	0.0031805843748937	2.36171871205099E-06	2.94489909699659E-06	-9.04719055167419E-06	-2.58394543521905E-07	0.998542892768324	-0.0277364987791955
1.1	0.00335141401364166	0.0031391076230822	6.44124756737783E-07	3.55055376064449E-08	-5.30236417368809E-06	1.40423536132057E-06	0.998137528410453	-0.0298803045457993
1.2	0.00335049520686642	0.00273493766236053	-5.29566482035517E-06	-3.28918921356018E-06	-1.11892763032911E-05	-1.26574823522363E-05	0.997421105464521	-0.0309707817779832
1.3	0.00302192850047001	0.00197391070280057	3.05147362414211E-06	3.10292437337169E-06	6.95754814111786E-06	-4.08771154211503E-06	0.997422199833361	-0.0320268529179655
1.4	0.00253198971921299	0.00114228367549192	-2.79996407581881E-06	-1.11219076324319E-06	5.71347221093433E-06	5.93532453547494E-08	0.997089175386787	-0.0342428536087836
1.5	0.0023218592434343	0.000839448729602958	1.23908620893791E-06	-2.5347686997629E-06	8.0356059077296E-07	2.51197639811829E-06	0.997522054149828	-0.0376574694013749
1.6	0.00232888897548731	0.000875323305194879	-9.37822098755562E-07	-6.41663037218336E-06	3.18340755113077E-06	-4.2469850785565E-06	0.997012753235314	-0.0409707790383806
1.7	0.00249355845655805	0.0011025875805909	3.40688541908075E-06	6.31015269237812E-07	2.2382317785287E-06	3.85194154563733E-06	0.997278004081543	-0.0433210240123192
1.8	0.00269568777157881	0.00141593296444808	-2.37610843708117E-06	2.90010189299373E-06	-1.01728723087372E-06	-3.99785377741196E-06	0.997167961089045	-0.0459241990797154
1.9	0.00293733712439728	0.00160145649118732	-3.73387237948126E-06	-1.75817717614494E-06	5.63217975439129E-06	3.02453994656286E-06	0.997050198935294	-0.0480555196763214
2	0.00326472990805577	0.00179190686466565	-6.18056249891235E-06	-5.74995397147055E-06	-2.07611746653011E-06	9.15766901383576E-06	0.996644549743712	-0.0505864291417144
2.1	0.00354082345154206	0.001659450672412	1.17457894735384E-06	4.60690218579751E-06	4.48602349768742E-06	3.99038749690835E-06	0.996451480072957	-0.0528475855620349
2.2	0.00358991874089942	0.00154667313620249	6.56883799254646E-07	9.06808700111661E-07	-3.63514787236677E-06	-1.09402604712151E-05	0.996460974981093	-0.0551680872449883
2.3	0.00352002446222064	0.00140067127471605	-2.28435314147296E-06	3.56224189859538E-06	-5.36520194239722E-07	-2.79677940872583E-06	0.996155950904297	-0.0569655534559982
2.4	0.00329012461336512	0.00134223364559571	-1.55784501500756E-06	-1.4554745251428E-06	1.28416178616169E-06	-9.99633143769026E-07	0.996111206052807	-0.0600385457862765
2.5	0.00303596730723252	0.00149036055721348	7.79207987550274E-06	4.05748497265824E-06	-2.3513378898693E-06	-7.22939317071879E-06	0.995691460003047	-0.062273455373528
2.6	0.00300076883527519	0.0016654952070384	4.87723833954371E-07	2.11772004376039E-06	-1.46576593600565E-06	4.68774488042888E-06	0.995565500432185	-0.0650098648659766
2.7	0.00306894306515232	0.0018288250415822	-7.86739400928532E-06	5.24524103040745E-06	2.53751728386513E-06	9.72325731510564E-06	0.995304936837385	-0.0679028745457862
2.8	0.00329222154001141	0.00198540859548547	-7.74458966510237E-06	7.96152924280688E-06	6.02510402019146E-06	1.99239574767154E-05	0.99545892034378	-0.0698827846998992
2.9	0.00362874089512326	0.00201794424098618	-1.1901446145683E-06	8.60903209078943E-07	-8.12467223027877E-06	-2.96031461825132E-06	0.995234855421059	-0.0719490503695638
3	0.00408966352705146	0.00201989264469365	-6.12605313568984E-07	-4.47446546730603E-06	-2.18265662947683E-06	6.44347752580106E-06	0.99510112575785	-0.0744989225536727
3.1	0.00451458375869656	0.00171724016591423	-2.58986439337211E-06	9.0417331834815E-08	1.10206110077002E-05	-3.53401561957211E-06	0.994648079148745	-0.0764988899853583
3.2	0.00469245931796042	0.00141927344113375	-9.80251232975372E-06	2.55422936746196E-06	1.2170858001076E-05	4.25862356124551E-06	0.994398005223791	-0.0782324412779155
3.3	0.00475931296220734	0.00105304722744551	-3.46900143000357E-06	9.36120150288181E-07	-5.01247252189089E-06	-1.40100482492596E-07	0.994179706186983	-0.0814785464636618
3.4	0.00463875809891185	0.000779406972041366	5.34923138373302E-06	4.82896438222104E-07	1.34964680951665E-06	4.45915420426625E-07	0.994066148315303	-0.083539178991175
3.5	0.00453595695770335	0.000605131175750467	2.77049886931245E-06	1.55596427623334E-06	1.31339702931923E-06	7.91365517330078E-07	0.993678336471788	-0.0863231443825168
3.6	0.00434792110275122	0.000382746582463945	-7.14854643369501E-06	-1.27186646052109E-07	1.86195010183144E-06	-3.49905977197463E-06	0.993312527042504	-0.0886520915734679
3.7	0.0040337261933173	0.000322101507200067	5.77583025686923E-06	-1.51725274722598E-06	-3.26531784409077E-07	-1.7323328187453E-06	0.993148926690733	-0.0911798548544003
3.8	0.00382999025314794	0.000454125222965771	-2.00156830695757E-06	8.78437573966275E-07	-5.19330274732838E-06	3.02736711028259E-07	0.9928737667948	-0.0930626359510828
3.9	0.00378988115445084	0.000702956908810318	-8.36498326660378E-06	1.78628002132911E-06	-4.11877370760826E-06	-1.49684341779603E-06	0.992936024460663	-0.0960199533524292
4	0.00407352210011802	0.000973402554570497	-5.82675813398634E-06	3.70653466242235E-07	-9.50498818997735E-06	-8.44836614571985E-06	0.992888429555945	-0.0972628387619758
4.1	0.00447850022482037	0.000872123438785554	-3.98638251019856E-06	4.06933756173497E-06	-1.87836218440783E-06	5.58444886389332E-06	0.99295837725625	-0.0991976938113605
4.2	0.00472913765858952	0.000634048582307674	4.6199547966959E-06	-4.38953184824663E-06	6.75732358259582E-06	7.51403983663676E-07	0.992628576074509	-0.101853960722801
4.3	0.00487720973731827	0.00035012119296643	-3.79726969960585E-06	1.12983821486972E-06	3.55005094612107E-06	-1.20897410686475E-06	0.992705895011029	-0.103991911229289
4.4	0.00483836535467282	5.90869204222788E-05	-3.15354713737402E-06	-4.93546845771842E-06	9.29775897940743E-07	-1.03743321253209E-06	0.992387651506881	-0.106482464609103
4.5	0.00478109897698033	-7.36563553751962E-05	-1.39019052542893E-06	2.03197952212271E-06	2.1376502046319E-06	-8.47808671510081E-06	0.992339786811612	-0.108875005813385
4.6	0.00465720271531679	-0.000413090263444714	5.4008220333275E-06	9.5941432520306E-06	-1.41984354409299E-05	9.82224769030628E-06	0.991912629668106	-0.111839606167709
4.7	0.00437873210473352	-0.000619324556987644	-7.59551785165475E-06	-9.56219459908604E-06	-1.14537273773059E-06	-1.346805881689E-07	0.991691993721986	-0.113878350205388
4.8	0.00409630052598394	-0.000671890907884163	-8.74542356457056E-06	-2.68795168039787E-06	-4.38016274636292E-06	4.54445627558552E-06	0.991199395716673	-0.116383516316047
4.9	0.00393161424027453	-0.000631462715541135	5.77354589521219E-06	8.31842126273133E-06	-7.25783047556298E-06	3.28036192193517E-06	0.990809421565177	-0.118170012404521
5	0.00406042193608341	-0.000605690140521871	4.28224579572365E-06	-8.54500507644997E-06	-4.29287392636126E-06	-6.18291990126769E-06	0.99070920931103	-0.11983384370826
5.1	0.00425314139270124	-0.000872317910530728	1.52319528205008E-05	-1.0246810251563E-05	3.4937833990854E-06	-8.7288429127703E-06	0.990656078448882	-0.121212512355613
5.2	0.00430760340482558	-0.00114249484394243	-4.23423516213021E-06	-4.72097314267462E-06	-3.16623322181507E-06	5.23222962498905E-07	0.990468950046529	-0.123435510987683
5.3	0.00434489734929585	-0.00139345119300496	4.77929362583608E-06	3.37842246553387E-06	-9.30086810257353E-06	-4.75285729720176E-06	0.99039057124332	-0.125812856964551
5.4	0.00428863615633242	-0.0016259667864555	5.18332351177729E-06	1.20246171274758E-06	-4.78384113031954E-07	1.04630547851524E-05	0.990482252233708	-0.128867187061391
5.5	0.00424852719397329	-0.00177383042585881	-1.81291870233252E-06	-1.98227596693128E-06	8.88654839487045E-06	5.10800915556414E-07	0.99009067143811	-0.131906108667308
5.6	0.00397336478948199	-0.00218450254411505	4.24523609050389E-06	7.23385869531967E-06	-4.62462594650803E-07	-8.61728162733812E-06	0.989725038621315	-0.134448548057184
5.7	0.00332513457735447	-0.00226026005612907	2.05709139375006E-06	-7.21823899023967E-07	5.47442276118222E-06	2.45762364067084E-06	0.989441235276159	-0.136928760961247
5.8	0.00267172168845276	-0.0020132135677392	3.91521680159863E-06	1.96319042693106E-06	2.73318811609705E-06	7.8411940694545E-06	0.98935339122003	-0.139072556420851
5.9	0.00208587707520612	-0.00139704595291848	-3.78627687167159E-06	-3.0610490007583E-06	-4.70381903148465E-06	-1.78245656106456E-06	0.989194419436342	-0.141209309364197
6	0.00195200037392755	-0.000471833230543905	-2.08025421313482E-06	1.70638601936628E-06	1.04478539621414E-05	-2.66272660661392E-06	0.989378090749419	-0.142863000994089
6.1	0.00237806957725317	-5.97590134724257E-05	-7.34078362481845E-06	-1.10306735284411E-06	-7.27647250719188E-07	-2.48760378914617E-06	0.989670254569468	-0.144751730497973
6.2	0.00269394513131907	-0.000171576168228519	-1.06136826760056E-06	1.99294375421342E-06	-3.49329600977709E-06	-5.36722126414728E-06	0.989377280999258	-0.146692626317621
6.3	0.00277315337228271	-0.000687785143575351	1.58256842906426E-06	2.83162808766696E-06	1.15541882596113E-06	5.97732145150912E-06	0.988793013223679	-0.14919291691004
6.4	0.00237255096927398	-0.00121561725304563	2.07655559340123E-06	5.03771059914478E-06	-3.33256572414661E-07	2.27822236311028E-07	0.987890348621699	-0.151526867803506
6.5	0.00204705354139258	-0.00145303071370635	4.66856911332177E-06	-1.88439789412598E-06	-4.69404977473911E-06	-1.54432389773364E-06	0.987325036423034	-0.154206884004803
6.6	0.00154966771453614	-0.00171074893337978	3.24973971359854E-07	-1.06938920566793E-06	9.30070243365499E-06	3.33013081647912E-06	0.986567746671806	-0.156599773736739
6.7	0.00107816600110444	-0.00153459289419672	5.31558420349659E-07	5.61204313094226E-06	-1.78778233682604E-06	4.97440085541383E-06	0.986218560570711	-0.158556629145486
6.8	0.000742362136359574	-0.00123885742705155	1.75642994276775E-07	-1.58653460164411E-06	-3.47750231229476E-06	-5.1195176912108E-06	0.985854201068973	-0.160632740782755
6.9	0.000412532878089788	-0.000824596585345388	-6.64558045282925E-06	6.71809558276736E-06	2.2874719600083E-06	1.35442780390978E-06	0.985608749951474	-0.162649848702031
7	0.000469049573124716	-0.000250939923496545	8.0807903874468E-06	3.16747175719145E-06	4.56771016888141E-06	5.86559352334851E-06	0.985199299853935	-0.164492373769395
7.1	0.000372937768452742	-0.000203663134675798	1.39615146308434E-06	7.84158013248344E-07	-2.27237869496995E-06	-4.47798622339387E-06	0.984602613983634	-0.166386092408967
7.2	-3.20649035352829E-05	5.46445635198973E-05	-1.36798787288417E-07	4.39839693612043E-06	-5.01186689149679E-06	-6.59501820229865E-07	0.983776750976189	-0.168143469830875
7.3	-0.000548651421962364	0.000472412285335855	1.35219857984506E-06	-5.26376889194004E-06	-2.34803055809135E-06	-2.78951851853736E-06	0.982676695788996	-0.169892226248183
7.4	-0.00125660087700427	0.00107356880910794	1.83785822121942E-06	4.41942787827159E-06	-7.28107405946707E-07	-1.06871693385882E-06	0.981515469644121	-0.172211852862701
7.5	-0.00168942370371726	0.00217542650059086	-5.73663764678051E-06	-1.48713994908132E-06	-1.58094876400731E-06	-8.8914203924952E-06	0.980345004508293	-0.174239565147959
7.6	-0.0016345960670164	0.00289910332254094	5.61868800100801E-06	-3.38473902698158E-06	1.0222339856899E-06	3.18745046069708E-06	0.979986548309681	-0.17697644763472
7.7	-0.00166565498216847	0.00355697987073668	-6.49929337588987E-06	-2.85847983248422E-06	4.37494184457087E-06	5.66504181357514E-06	0.979661431250247	-0.180082314189154
7.8	-0.00129335149646798	0.00402105788520751	-1.08388567429435E-06	-5.35195439239468E-06	-2.12875669426857E-07	1.14270999466423E-06	0.979548505308287	-0.183188265578429
7.9	-0.000698511466021167	0.00430905145510424	-3.3447665624007E-06	7.20488803787083E-06	4.70945173507923E-07	-6.87529586600495E-06	0.979522583612281	-0.186233941696679
8	0.000224221390522665	0.00444765773636065	-2.37662750871173E-07	7.3824603700945E-06	1.77418961319271E-06	-4.45509608825851E-06	0.979528396810192	-0.188856117331011
8.1	0.000776121640141784	0.00403283952267989	-7.35896916924365E-07	-6.47085640366488E-06	-1.74881733256171E-06	-1.0648145234237E-06	0.979413620544658	-0.191997611502892
8.2	0.00105798662450687	0.00396341326337383	-3.83062184259675E-06	1.65255756152753E-06	-1.09782573787371E-05	-2.61990870862976E-06	0.979149104535626	-0.194514192722441
8.3	0.00134031431116652	0.0039748238647144	-5.55230640424023E-06	-9.86965770096039E-06	-7.79457645623596E-06	3.02254066069973E-06	0.978679133223589	-0.197280312932078
8.4	0.00151443108423468	0.00415320517009213	6.77699100942593E-07	-6.10850237667914E-07	-1.41764155668507E-06	4.41224442429757E-07	0.978088714935221	-0.200050270799139
8.5	0.00200370524792691	0.00448199279666928	-1.75420879262798E-06	-2.5658981905842E-07	-7.12167447473204E-09	1.80532090748454E-06	0.977499011700311	-0.203070565905327
8.6	0.00235562239160326	0.00430663335596904	2.42793205339093E-06	-3.97558283012571E-06	-4.56847092060188E-06	-5.92520783557618E-06	0.976849143624921	-0.205891323251896
8.7	0.00242109007066592	0.00436473096619307	-1.50003482564525E-06	-2.09577766572468E-06	-3.56025946554225E-06	3.64082381658595E-06	0.976320135441736	-0.208531857111558
8.8	0.00254713190756677	0.00462939091914649	-5.50217149014877E-06	-2.12260813080132E-06	-7.2400980042693E-06	-1.2703002311544E-06	0.97579709708824	-0.210873765119837
8.9	0.0028126332958273	0.00497686917051896	8.56630205173523E-06	4.10110681543644E-06	-1.41907690986468E-06	3.20359774859083E-06	0.975640949340204	-0.212908286853665
9	0.00358867443739461	0.00541356990719568	-4.99495919664174E-07	4.16717739057134E-06	-7.82889973223896E-06	1.23355676410559E-06	0.975358396504834	-0.215126917737055
9.1	0.00454668863666228	0.00518578813037055	-2.55650986152198E-06	6.64590222054391E-06	4.10892097589902E-06	-3.08791797292536E-06	0.975094449299925	-0.217219383714446
9.2	0.0053278460735803	0.00483248162824572	-1.17543528192758E-06	3.43008887626101E-06	-2.25056321534269E-06	-2.05884366923791E-06	0.97472336118647	-0.21984293397521
9.3	0.00605340728758192	0.00432018624434862	2.32347322464546E-06	-4.04859615421004E-06	-7.96108980508685E-07	-1.78214614301989E-06	0.974315630607988	-0.222587564510805
9.4	0.00657438729472465	0.00369403343566789	-1.79521034167877E-06	3.90271602162982E-06	-2.07570905452627E-06	-3.58010769973393E-06	0.973543491683717	-0.225781388409504
9.5	0.0070978462016768	0.0032311888807079	3.50673030484278E-06	6.29131129310928E-06	3.63202375042992E-07	-2.15125467454573E-06	0.972529745363928	-0.228557032930918
9.6	0.0071484598581019	0.00238051635181403	4.63177753535868E-06	7.07257277694137E-06	-8.21432706470514E-06	1.28165185813455E-05	0.971868897226988	-0.231737865034594
9.7	0.00687873598427477	0.00200954561060878	-2.88470438999851E-06	-1.53023827483576E-06	-1.39222746237647E-06	-3.97000097733744E-06	0.971069900287012	-0.234470336748126
9.8	0.0066123974599247	0.00191996543437461	1.25253408339647E-07	-3.59735841094182E-06	3.04956377571148E-06	2.39683726928936E-06	0.970511417765923	-0.236681161746304
9.9	0.00638830074824127	0.00224998927628997	5.80065621377425E-06	-6.21534877117181E-07	-2.56083362691627E-06	6.73261966739248E-06	0.969601319857062	-0.238369223859238
10	0.00678775145085746	0.00282423943120741	-1.14295503235137E-06	-5.77794689236955E-07	1.36356097758734E-06	-1.18897424370399E-06	0.969370396686145	-0.239388315549392
10.1	0.00742791476281672	0.00280295249601509	6.98538640923647E-07	-8.42389131214682E-06	6.1650299185852E-06	3.59798900608251E-06	0.969040321414064	-0.241190568776066
10.2	0.00804706897145115	0.00271221266471002	7.51040979949366E-06	8.30487596732949E-06	5.2313491286931E-06	3.52041864349456E-06	0.968546835149707	-0.242580557541785
10.3	0.00868326221407184	0.00237607621488477	1.74325415851939E-06	-6.95488531609861E-06	1.43002368113125E-06	2.86336866640493E-06	0.967846006395133	-0.244412423876431
10.4	0.00917241541678225	0.00198291424076455	-4.02688570711875E-06	-3.62965897893686E-06	1.94413035202144E-06	-5.59232423451867E-06	0.966806926768673	-0.246464508673662
10.5	0.00995569705553374	0.00169659713773279	3.66468386989895E-07	-7.05666023669646E-06	-5.71736898587562E-06	4.0725646360606E-06	0.965835675345468	-0.248760816886871
10.6	0.0106937953320307	0.000877984108684659	5.48476253512923E-06	6.72103312238036E-06	2.43074240450569E-06	1.19045392375915E-06	0.96490870456068	-0.250858736157746
10.7	0.0112596549219461	8.51095076510084E-05	-7.06696621281368E-06	-1.68496384725619E-06	-7.71480703334623E-07	1.55748970044949E-06	0.964457397955091	-0.253239047477009
10.8	0.0117022980530513	-0.000906264382073593	1.48589871708812E-06	4.43620688946294E-06	9.3999159952535E-06	-4.46574995189074E-06	0.963984895266514	-0.255270788972106
10.9	0.0118101368552123	-0.00180230097324179	3.26751392691821E-07	7.41147059746036E-06	-5.15670346411548E-06	2.08851420907588E-07	0.963651921186223	-0.257262123158035
11	0.0122921884356254	-0.00256045103466345	-2.22458825981132E-06	-3.82079375093571E-06	1.20283736411087E-05	-3.5567856985548E-06	0.963141198366945	-0.258753255945021
11.1	0.0125110264372241	-0.00391964150342009	-6.11462097275579E-06	-4.92720452563386E-06	9.51983408371243E-07	5.57294724409679E-06	0.962737335583133	-0.260391177175735
11.2	0.0123832484973065	-0.00515301570748839	3.31495643832357E-06	4.29987078275781E-06	1.05812556548885E-06	-7.8728904079574E-06	0.962125552179186	-0.262305832698483
11.3	0.012161848257637	-0.00639648333809136	7.10291632751037E-07	-2.65647735276724E-06	-4.83047999152878E-06	9.11248914125109E-06	0.961600086644536	-0.264530140193804
11.4	0.0116278194019536	-0.0075015547052997	1.47368158495061E-06	-2.20214148953361E-06	-3.01484081872143E-06	-7.42859479534877E-06	0.9603212834259	-0.267549932932414
11.5	0.0113348849805459	-0.00846603310305634	9.45909212087882E-07	-1.00926231031641E-06	-9.01400532253061E-07	-8.69602975283086E-07	0.95870454693541	-0.269963820170094
11.6	0.0107394147597109	-0.00997718913115518	1.12129318661603E-05	-3.27751807476724E-06	-5.42019966119452E-06	-6.8223903980297E-06	0.957681119210783	-0.273342231652659
11.7	0.00970819893292523	-0.0111526294434043	5.32007219138396E-06	-2.89733755123903E-06	-4.40499381476955E-06	1.65289655446919E-06	0.956382097980521	-0.276902740422215
11.8	0.00861893523643974	-0.0119713986838883	-4.51557599454531E-07	-2.54463681382466E-06	1.06802169570004E-06	1.32469651066142E-05	0.955022799687566	-0.28039429610848
11.9	0.00766320921152699	-0.0123893575722374	3.31973390497791E-06	1.98725643242911E-06	-1.68914071652498E-08	1.27172206895808E-05	0.953739259694642	-0.282242284403878
12	0.00728571708069567	-0.0127597499633481	2.00141892192843E-06	4.85417151606549E-07	-3.69465620060655E-06	-9.72787363760572E-07	0.95339461371533	-0.283292141515965
