# GHZ S RI R 50
0.2	0.00055625705780501	0.00384875235510089	6.30385813113147E-06	-1.00848241695718E-06	1.06680640941384E-05	1.04912416161768E-05	0.999408387344733	-0.00695969480111563
0.3	0.00124185516094327	0.00348166563887216	5.81636710711524E-06	5.03449983553607E-06	8.09482095949074E-06	2.95082134887887E-06	0.999178223929332	-0.00988932975502613
0.4	0.00174033988743159	0.00323604391441216	-2.70659859002542E-06	7.86728907537547E-06	-4.81582710243204E-07	-4.42914793319136E-06	0.99903893916558	-0.0125530998289784
0.5	0.00190585063439532	0.00328745551588882	2.30746881629343E-06	1.47881486726831E-06	7.50956382189038E-06	-1.05233854259706E-06	0.998640519068469	-0.0153444692679528
0.6	0.00254245672771518	0.00344101031113298	3.22857024410294E-07	3.53891951652664E-06	2.71715707965919E-07	-7.65930049319631E-06	0.998981359260918	-0.018210973508463
0.7	0.00290626322629506	0.00330903495426453	4.16499318416169E-06	5.02975761056692E-07	-3.89374023699717E-06	-2.60195119479701E-09	0.998600140298428	-0.0212530514861641
0.8	0.00324031078163422	0.00324589667309838	-2.88578396312569E-06	2.9633831162787E-06	-6.81792943300234E-06	1.32080416602119E-06	0.99833751179899	-0.0234322444200382
0.9	0.00348940537582693	0.00309592106361895	6.03292910376268E-06	8.97572091307265E-07	-7.33704961884146E-06	-1.83008565168723E-06	0.998181713416167	-0.0259050800511036
1	0.00332161537698769	0.00293716809349074	2.35800115709348E-06	2.94237257871182E-06	-9.0368023128801E-06	-2.61262720599083E-07	0.997597550070544	-0.0275682796151176
1.1	0.00337927819467767	0.00335263093111518	6.43555425668907E-07	3.5777681687407E-08	-5.29847451839357E-06	1.40053951487442E-06	0.997347783114134	-0.0291629150559036
1.2	0.00360909069880339	0.00320119786737529	-5.29051534084172E-06	-3.28994329852069E-06	-1.11753218066675E-05	-1.26554348660401E-05	0.997063780329729	-0.0299371213659114
1.3	0.00357859821719319	0.00266275482731661	3.04837020656024E-06	3.10410354023201E-06	6.95826834936823E-06	-4.08159802550561E-06	0.997679406056957	-0.0306188023784263
1.4	0.00338538721412662	0.00175291927140567	-2.79888565533973E-06	-1.11433650747439E-06	5.71302659370981E-06	6.38858941646557E-08	0.997871987681336	-0.0328125540516171
1.5	0.00307036240238705	0.001320855142726	1.24074626858161E-06	-2.53335777107564E-06	8.01527699177002E-07	2.51209817131649E-06	0.998064102604426	-0.036377615992941
1.6	0.0032361425811559	0.0011508503858898	-9.32431791602144E-07	-6.41398693560143E-06	3.18498355286274E-06	-4.24233089280179E-06	0.997386204889304	-0.0398378227514599
1.7	0.00326531072719177	0.0010359309944764	3.40374095350411E-06	6.33358472852755E-07	2.23331205180396E-06	3.85083694672288E-06	0.997297211981269	-0.0424345007140969
1.8	0.00328674028496508	0.0011466508570811	-2.37642379403038E-06	2.8954967920174E-06	-1.01300269079514E-06	-3.99512656977625E-06	0.996900574047921	-0.0452220848521593
1.9	0.00329786711253635	0.00113892390549935	-3.72874080619875E-06	-1.75890322737377E-06	5.62418268128026E-06	3.02524400767406E-06	0.996403276563379	-0.047705432765363
2	0.00318214437900732	0.00144711142404853	-6.16560947804996E-06	-5.74558564444137E-06	-2.08027267332616E-06	9.14084636875041E-06	0.994952265483442	-0.049966386577377
2.1	0.00357406718570557	0.00158529559453632	1.16652188249112E-06	4.60187277617914E-06	4.47403677801243E-06	3.99082066017491E-06	0.995089436796735	-0.0514006299832472
2.2	0.00367756251428944	0.00143845076892528	6.54837877683238E-07	9.0659275089346E-07	-3.61573298549368E-06	-1.093179271188E-05	0.995371899676446	-0.0537579873239615
2.3	0.00360901038696568	0.00127041110182127	-2.28644796254125E-06	3.55488459552339E-06	-5.32088121454664E-07	-2.79416071499301E-06	0.99511590719527	-0.0555776517970866
2.4	0.00335684282050436	0.0011187876458154	-1.55383567728495E-06	-1.4559553016788E-06	1.28404295333175E-06	-9.96553107037848E-07	0.995057954482773	-0.0586493634521614
2.5	0.00276328860306952	0.00128364958387645	7.77744735090054E-06	4.06580416710202E-06	-2.33725931633108E-06	-7.2256586817085E-06	0.994490611417627	-0.0607497787805283
2.6	0.00276609555072682	0.00185538994418846	4.84148624683238E-07	2.1163515887213E-06	-1.47117816888415E-06	4.68099466659918E-06	0.994425634149801	-0.0632446693817933
2.7	0.00301448772713541	0.00213116277793752	-7.86697277906504E-06	5.22780038988208E-06	2.52014520407129E-06	9.71677987810771E-06	0.994259624780604	-0.0659600771500813
2.8	0.00338978382303718	0.00229575910760281	-7.74952349818696E-06	7.94084428138987E-06	5.98671055937587E-06	1.99132738716301E-05	0.994604047233107	-0.0678142737403499
2.9	0.00378996291993707	0.00223668141552746	-1.19060125961738E-06	8.58083403766133E-07	-8.11243349965912E-06	-2.9718472036217E-06	0.994609800910322	-0.0698611897322226
3	0.00414826797662417	0.00233679830567356	-6.0472418855235E-07	-4.47298168402009E-06	-2.19228276249893E-06	6.43617843399059E-06	0.99466917848164	-0.0723973497801328
3.1	0.00486543692086838	0.00211621470610752	-2.58861602583231E-06	8.61507823632997E-08	1.1020427706068E-05	-3.51416316752919E-06	0.994513543155373	-0.0743410130153578
3.2	0.00518941646493516	0.00164927073617269	-9.80342034035364E-06	2.53610523914156E-06	1.21589534083908E-05	4.2784190994142E-06	0.994598576075408	-0.0761193731206233
3.3	0.00531931417427685	0.00111447862921198	-3.47038794620779E-06	9.29583123580591E-07	-5.01170388644459E-06	-1.49394621985797E-07	0.994730890301535	-0.0794421003800089
3.4	0.00517150756555315	0.000616093161440324	5.34988073223701E-06	4.93146390946443E-07	1.34919820453316E-06	4.48596179442236E-07	0.995000292283614	-0.0817310751456623
3.5	0.00481128712684971	0.000436928722369759	2.76962118878749E-06	1.56087086201378E-06	1.31290133434537E-06	7.93719249660448E-07	0.994534388135826	-0.0849541197248094
3.6	0.00477815904909241	0.000307065456876198	-7.15041235482728E-06	-1.38350227974236E-07	1.86793403337612E-06	-3.49717183757211E-06	0.994103229859368	-0.0870730107794744
3.7	0.00449845708568649	8.22915316249876E-05	5.7809989506477E-06	-1.50817364110489E-06	-3.23750757517593E-07	-1.73366578622407E-06	0.99417494202462	-0.0896304753419357
3.8	0.00422366316868635	9.10827709389831E-05	-2.00425337085077E-06	8.757488967173E-07	-5.19706757908322E-06	2.94514449941724E-07	0.994036354925814	-0.0917286563453274
3.9	0.004038607757119	0.000228755443106509	-8.37268583511163E-06	1.77601958258568E-06	-4.11933169746578E-06	-1.50339294559251E-06	0.993963136133283	-0.0950871709843545
4	0.00403213324179145	0.000663691968396612	-5.82852555694594E-06	3.61896102879227E-07	-9.49414591970963E-06	-8.46452465863513E-06	0.993211252785592	-0.0960288626457837
4.1	0.0046535058501573	0.000738575712664138	-3.99629869492455E-06	4.0642589220914E-06	-1.8898822968743E-06	5.58418739261299E-06	0.993860306612815	-0.0974837554709765
4.2	0.00495744992388845	0.00036046964469487	4.63152877518037E-06	-4.38489626279097E-06	6.76149864276311E-06	7.64033424122054E-07	0.993796619239933	-0.100379105402553
4.3	0.00502556592867847	-1.3896732197331E-05	-3.80277568110191E-06	1.12417011054305E-06	3.55546836791847E-06	-1.20381611657508E-06	0.99390496060151	-0.102622229811654
4.4	0.0048384634071918	-0.000379583425230869	-3.14746164907421E-06	-4.94654617775433E-06	9.32702460591366E-07	-1.0367453753063E-06	0.99357068427196	-0.105081941480028
4.5	0.00444852221853903	-0.0003024928072706	-1.39648352511281E-06	2.032273355265E-06	2.15825966534832E-06	-8.48679250551791E-06	0.99369467965995	-0.107194669263825
4.6	0.00454188505016306	-0.000310174519387589	5.39496695679045E-06	9.61984459989987E-06	-1.42394139353938E-05	9.81682714618039E-06	0.993644364973642	-0.110271339585134
4.7	0.00444572547845776	-0.000514642555379156	-7.59435546202966E-06	-9.5898703924826E-06	-1.14713761774443E-06	-1.36611519290911E-07	0.993532078265938	-0.112400473568905
4.8	0.00428183107406079	-0.00061922477222722	-8.75653784788504E-06	-2.70548688871563E-06	-4.39441884658717E-06	4.54583082500365E-06	0.993175201230689	-0.114948419060008
4.9	0.00414548612845085	-0.000722799764619458	5.77148749419898E-06	8.34263783481072E-06	-7.27626999918015E-06	3.27531747426769E-06	0.992966081684544	-0.116836078906135
5	0.00409462608445948	-0.000607617151583781	4.30293166480921E-06	-8.55793264018398E-06	-4.29401092664178E-06	-6.20209636791601E-06	0.992989840235838	-0.11866853195593
5.1	0.00451518557879482	-0.000819336795070428	1.52749401602829E-05	-1.02512447832161E-05	3.51070198629725E-06	-8.74311301190966E-06	0.993029314686192	-0.120184588135961
5.2	0.00456390988083936	-0.00122089465533432	-4.2379014369369E-06	-4.73592597344483E-06	-3.17361166002167E-06	5.20721339079021E-07	0.992928127646525	-0.122503406851995
5.3	0.0045522623928423	-0.00148537387375625	4.78658672067625E-06	3.39184717532149E-06	-9.31716289499931E-06	-4.77471697141111E-06	0.993023251121932	-0.12492964982816
5.4	0.00445116696012842	-0.00176002970253682	5.19609017409551E-06	1.21110504679641E-06	-4.9056106384076E-07	1.04908527357001E-05	0.993418430831412	-0.128220372775772
5.5	0.00427128421164108	-0.00164413587868319	-1.81730394378186E-06	-1.9885129082794E-06	8.91137912578471E-06	5.15458325571769E-07	0.992875902855968	-0.131702649917898
5.6	0.00446907504381769	-0.00201137788163277	4.25308593086982E-06	7.25208666946145E-06	-4.61025469683847E-07	-8.63765034090752E-06	0.992493125917717	-0.134182035912996
5.7	0.00396814587219809	-0.002408279316072	2.06209121034758E-06	-7.22839804539775E-07	5.48632889216334E-06	2.46507119591582E-06	0.992350796064144	-0.136931364368874
5.8	0.00330000283162934	-0.00245083255416174	3.92372324453396E-06	1.96838154236159E-06	2.73790379042021E-06	7.85948965830785E-06	0.992215080476182	-0.139490512941372
5.9	0.00253263652184795	-0.002199908273263	-3.79372426695221E-06	-3.06709553575273E-06	-4.71307944881991E-06	-1.78598770122431E-06	0.991594203599685	-0.142175371293182
6	0.00174464155755985	-0.00126944276645043	-2.08455213833549E-06	1.70783736516067E-06	1.04659188642486E-05	-2.66069894588781E-06	0.990801609462033	-0.143269102269259
6.1	0.00213706738734158	-0.000442687374416473	-7.35702101253053E-06	-1.11140901222069E-06	-7.27386941921043E-07	-2.49397219793929E-06	0.991758583136931	-0.144684425044102
6.2	0.00246215190165453	-0.000393534385454341	-1.06501837464353E-06	1.99779275039726E-06	-3.50033184541857E-06	-5.38293115406081E-06	0.991699914522533	-0.146860987039099
6.3	0.00263452556983896	-0.00073149970833085	1.58668952925616E-06	2.83958982796656E-06	1.15808182256863E-06	5.99393474163567E-06	0.991239339646333	-0.149502822100451
6.4	0.00230181855031516	-0.00125241118615464	2.0826079243795E-06	5.05129930412489E-06	-3.34148575379577E-07	2.28469453800847E-07	0.990345979918423	-0.151967208742089
6.5	0.00197506680363845	-0.00118370390654392	4.68349946711413E-06	-1.89100489896679E-06	-4.70942938128785E-06	-1.54882741722268E-06	0.990261781399939	-0.154428552234128
6.6	0.00192603465231361	-0.00154846507927506	3.24898219851133E-07	-1.07326211868149E-06	9.33492619138949E-06	3.33113226159681E-06	0.989878040630882	-0.157833472821014
6.7	0.00147974613631232	-0.00161642690817073	5.41503004166809E-07	5.62716976750878E-06	-1.78537802589498E-06	4.99120449253701E-06	0.989085570046945	-0.160368652191536
6.8	0.00111769941526753	-0.00148569300126427	1.73386032414739E-07	-1.59078833228868E-06	-3.49486798163132E-06	-5.1263743340424E-06	0.988366856670526	-0.162756903047554
6.9	0.000596263777835343	-0.00129062960853654	-6.64842660976478E-06	6.74532587006261E-06	2.29509742066902E-06	1.3533436201631E-06	0.987712337092283	-0.165105514592097
7	0.000279023193131066	-0.000375761055580384	8.10451087266356E-06	3.158575936825E-06	4.589071453446E-06	5.86940997299956E-06	0.986783592004404	-0.166778685932941
7.1	0.000618069136153416	-0.000177840523805606	1.40068061606359E-06	7.82718126500934E-07	-2.28669512379429E-06	-4.48212844896161E-06	0.98640230748978	-0.168673007084402
7.2	0.000306527155242755	-0.000140455030304604	-1.26796965922371E-07	4.40708784029229E-06	-5.02294500335889E-06	-6.49063562127346E-07	0.985543796400555	-0.170746498973066
7.3	-0.000236285238665092	0.000119863950414544	1.34147357044221E-06	-5.27695426016066E-06	-2.35941091553338E-06	-2.78879844055154E-06	0.984393850941441	-0.172799555394037
7.4	-0.00109209488873861	0.000462070593863913	1.85454853044801E-06	4.42271626748293E-06	-7.32703277039857E-07	-1.068673620318E-06	0.983197341356477	-0.175838139884172
7.5	-0.00211272146876225	0.00174417417778249	-5.74948651962097E-06	-1.46684998530683E-06	-1.61721387333738E-06	-8.89634244709678E-06	0.980619268555487	-0.178508008986734
7.6	-0.00180645119571891	0.00296567167606971	5.6090271543586E-06	-3.40524534108116E-06	1.03355141412599E-06	3.18505680944337E-06	0.979683276902371	-0.180242135503894
7.7	-0.0017209824878433	0.00365116434932417	-6.50987307255515E-06	-2.83733100968743E-06	4.39450749072028E-06	5.65142210976329E-06	0.979315459153022	-0.183201871747018
7.8	-0.00125679081138722	0.00414061439854402	-1.10200336689922E-06	-5.34779117066114E-06	-2.08967918512456E-07	1.14333313452044E-06	0.979002009680979	-0.186346939944307
7.9	-0.000695005362823478	0.00443525633710883	-3.31712428637304E-06	7.21277911205378E-06	4.461026157537E-07	-6.87309998312424E-06	0.97837125108278	-0.189491433607605
8	0.000346772610892563	0.00491566371481498	-2.15613137883761E-07	7.37353991199865E-06	1.7587582183705E-06	-4.45451514760398E-06	0.977816816417907	-0.191044670124055
8.1	0.00145658537489179	0.00428621707955377	-7.50961270383714E-07	-6.4639976757909E-06	-1.75001843802457E-06	-1.05975117730142E-06	0.978807019384549	-0.193919035344339
8.2	0.00174822001065294	0.00378887739005244	-3.82407555816693E-06	1.66159342657441E-06	-1.09786975663439E-05	-2.58972528434098E-06	0.978694949694124	-0.197044940820674
8.3	0.00188743779125102	0.00353322438882106	-5.57511305559639E-06	-9.84791983050096E-06	-7.78108260074687E-06	3.04148626310317E-06	0.977965515684016	-0.200110067530624
8.4	0.00176548773787715	0.00349839394482845	6.75614662684756E-07	-6.12075605146826E-07	-1.41539547210731E-06	4.4445515064271E-07	0.97701498164389	-0.202889377633211
8.5	0.00183925303508237	0.00421474699188981	-1.75410280438787E-06	-2.51944599743224E-07	-2.45374534361936E-09	1.80454790706265E-06	0.976345304731414	-0.205653380850161
8.6	0.00260524993955032	0.00421361011839556	2.41396394715977E-06	-3.97958098498244E-06	-4.582490884754E-06	-5.90655333580941E-06	0.975629295177492	-0.208609251460059
8.7	0.00275672663085166	0.00407487398789007	-1.50416929142561E-06	-2.08880110036597E-06	-3.54526116147961E-06	3.64646244144354E-06	0.974797919988146	-0.211209732066397
8.8	0.00283836838970646	0.00418416889773678	-5.49927698722261E-06	-2.10480043858864E-06	-7.23226829700968E-06	-1.24922002228017E-06	0.97403315599214	-0.213411528096225
8.9	0.00289917962909432	0.00435338972656841	8.56185378755651E-06	4.0748568545254E-06	-1.40944528938483E-06	3.20167159189308E-06	0.973688901100159	-0.215293357599759
9	0.00326309474874032	0.00509938876766594	-4.89007610878924E-07	4.16270055391363E-06	-7.81537564605102E-06	1.25031493235475E-06	0.973197024487361	-0.21734256272965
9.1	0.00446488413448436	0.00513160536582536	-2.53608489788096E-06	6.64106987850295E-06	4.09457240884106E-06	-3.09278118508717E-06	0.9728366905477	-0.219160789800646
9.2	0.00532120130277542	0.00482934502480537	-1.16560905363812E-06	3.42679572141288E-06	-2.25132438882938E-06	-2.05015895285512E-06	0.972500333857228	-0.221540973811472
9.3	0.00618083373526823	0.00436718161674472	2.31043432997443E-06	-4.04657189706451E-06	-7.98635553044623E-07	-1.77724115226535E-06	0.972208359314233	-0.224153082569209
9.4	0.00674633290249087	0.00361067595501197	-1.78316205700553E-06	3.89991136671852E-06	-2.08019039558555E-06	-3.56906547957953E-06	0.971471684760802	-0.227515811975111
9.5	0.00724959385759153	0.00344006562364884	3.51500317689533E-06	6.26739430810304E-06	3.56715829113478E-07	-2.14716963884635E-06	0.96979803725084	-0.230186403990454
9.6	0.00776299408328294	0.00242210228812448	4.63163853036875E-06	7.04200600988303E-06	-8.16419668191681E-06	1.27937957912267E-05	0.969109048374933	-0.232699289565246
9.7	0.00752221553185332	0.00173284903626337	-2.87789733200133E-06	-1.52117849084619E-06	-1.39370567385384E-06	-3.95547632688242E-06	0.968392234994955	-0.235232352672889
9.8	0.00720324958100152	0.00140067112948716	1.20471088278112E-07	-3.58572723771413E-06	3.0424877078896E-06	2.38527997799893E-06	0.967750545832864	-0.237412338063319
9.9	0.00674538901353446	0.0014679387841461	5.77855580423775E-06	-6.25241320818745E-07	-2.54439056033761E-06	6.71036664515702E-06	0.966257328287198	-0.239118973007697
10	0.00675501311748666	0.00228575737459762	-1.13826743794252E-06	-5.75614387227967E-07	1.35821651872673E-06	-1.18399727245543E-06	0.965549497612183	-0.238686481888579
10.1	0.00762421274487927	0.00227337609009706	7.00664232273897E-07	-8.39651496807126E-06	6.14339479784931E-06	3.58964577367344E-06	0.966355313362373	-0.24025350296807
10.2	0.00806860560826244	0.00201462142316654	7.48379263289175E-06	8.28327692929062E-06	5.21387158999446E-06	3.51222376594085E-06	0.965897102851072	-0.241898155222386
10.3	0.00844872385428747	0.00171146481951068	1.74199595951303E-06	-6.93275193549102E-06	1.42401910040167E-06	2.85550257365875E-06	0.964994592553034	-0.243615187714298
10.4	0.00862550174348605	0.00145677453249733	-4.01114075782272E-06	-3.62232781822945E-06	1.94343294213455E-06	-5.57336926613962E-06	0.963719596654477	-0.245232541364983
10.5	0.00922356880484231	0.00187011787014802	3.73644857289835E-07	-7.03857580378233E-06	-5.70772849931657E-06	4.0558125917255E-06	0.963101761215183	-0.24680520697744
10.6	0.0105413675586989	0.0013724499553993	5.46488856413967E-06	6.70757221094077E-06	2.42335424750352E-06	1.18922816316938E-06	0.962483841605136	-0.248861789223182
10.7	0.0115315997586129	0.000524785327169065	-7.04489279350051E-06	-1.68717352601184E-06	-7.70813351198516E-07	1.5522245964986E-06	0.962268472188955	-0.250999488842969
10.8	0.0122724320847741	-0.000751912824354681	1.47599624964796E-06	4.42513289829118E-06	9.37810471391178E-06	-4.44092543729958E-06	0.962135712799917	-0.253020452067873
10.9	0.0123017935331639	-0.00203007551328253	3.14399528826097E-07	7.39113902347821E-06	-5.14252876866085E-06	2.00309313663999E-07	0.961888336272389	-0.255105715918846
11	0.0125634918063426	-0.00256360742531445	-2.21334046055734E-06	-3.81434006195026E-06	1.20030105857301E-05	-3.53013553842741E-06	0.961371801606173	-0.256446772560825
11.1	0.0131576954738288	-0.00403649543071935	-6.09088212723653E-06	-4.92297425581978E-06	9.41187814778035E-07	5.55935189891931E-06	0.961282064057858	-0.258045410842328
11.2	0.0130144248298654	-0.00555580172005351	3.29894812536357E-06	4.294261357051E-06	1.06877256544921E-06	-7.85047216681686E-06	0.960898813518483	-0.26002658326951
11.3	0.0126921448619163	-0.00699729421480489	7.13566757915066E-07	-2.64890137920365E-06	-4.83607933419209E-06	9.08204309317885E-06	0.960675171047716	-0.262435940506725
11.4	0.0119039761393717	-0.00829485045945957	1.47460653362343E-06	-2.19526384154113E-06	-2.99604403938058E-06	-7.41923925682476E-06	0.959543437901415	-0.265948778771712
11.5	0.0113299118533304	-0.00889994756108119	9.44961695236559E-07	-1.00554734554735E-06	-8.98049460994481E-07	-8.68696543508028E-07	0.957082193191836	-0.268297731729345
11.6	0.0110341498625276	-0.0104615460638428	1.11903110154115E-05	-3.24602410165915E-06	-5.39207857301493E-06	-6.81563105729579E-06	0.956380547847192	-0.271005196791853
11.7	0.00984013245357503	-0.0118459258382357	5.31440476462496E-06	-2.87857508679764E-06	-4.39860570245493E-06	1.6390795065524E-06	0.95531467012884	-0.274687555859744
11.8	0.00845426229788442	-0.0126605180983199	-4.44986708636546E-07	-2.5401250354409E-06	1.03658943239464E-06	1.32206576217811E-05	0.953763249161798	-0.278369470781753
11.9	0.0071535065016707	-0.0128385730347648	3.30748974819704E-06	1.98923936279721E-06	-4.31130880575048E-08	1.26860025442411E-05	0.951755513489747	-0.280120651714246
12	0.00681904824007926	-0.0123496345782822	1.99440569102451E-06	4.90135193601998E-07	-3.68147732421071E-06	-9.81284542133608E-07	0.951214423628343	-0.279280143238154
