# GHZ S RI R 50
0.2	0.000661980197635028	0.00394136619974169	6.30177447320087E-06	-1.00993869211394E-06	1.06679143794194E-05	1.04852854573629E-05	0.999215425803297	-0.00714897278450997
0.3	0.00134093242668841	0.00351706784420881	5.81578438732448E-06	5.0312043326347E-06	8.09289730713155E-06	2.94760432696432E-06	0.998926836103351	-0.0101309665152999
0.4	0.00182918624269604	0.00317584429629979	-2.70345215908443E-06	7.86432461591425E-06	-4.82431715488777E-07	-4.42699430537662E-06	0.99865788918587	-0.0128523543446888
0.5	0.00179566668335473	0.00321809206572888	2.30650598087238E-06	1.47810985717031E-06	7.50627185568762E-06	-1.05208409970469E-06	0.998102753777658	-0.0154377509455448
0.6	0.00249395614074558	0.00356184892240973	3.23316355795508E-07	3.53790200771774E-06	2.70456243660221E-07	-7.65724846257543E-06	0.998672165143941	-0.0182617226148156
0.7	0.00295720301309045	0.00341793557331471	4.16362791186882E-06	5.01713074767864E-07	-3.8923423975203E-06	-1.58945362856581E-09	0.99829640885435	-0.0214329773599312
0.8	0.00335659054703241	0.0033298858937888	-2.88359236889546E-06	2.96288432067239E-06	-6.81442993173183E-06	1.32221624092003E-06	0.997989946332506	-0.0236788104077664
0.9	0.00372482313929335	0.00308831227475064	6.0296273469742E-06	8.95075693218881E-07	-7.33327426710685E-06	-1.8266097208685E-06	0.99779414218663	-0.0262683189485134
1	0.00345160682410164	0.002611053444157	2.3566717507193E-06	2.93955053018215E-06	-9.029582543181E-06	-2.59309215791829E-07	0.996888637434378	-0.0280870921528737
1.1	0.0032743754391068	0.00313256947961918	6.43051464803685E-07	3.57042243879965E-08	-5.2942060247449E-06	1.39981025016352E-06	0.996446673975898	-0.029434338919972
1.2	0.00350258066775863	0.0029692774504124	-5.28607234789679E-06	-3.28677120784708E-06	-1.11662549827602E-05	-1.26437445483185E-05	0.996087761847371	-0.0302035117965545
1.3	0.00337041711506022	0.00240653262534537	3.0453920800265E-06	3.10128423844901E-06	6.95185398637057E-06	-4.0775142354907E-06	0.996556185662929	-0.0308229569624157
1.4	0.00314624990740093	0.00154410228445659	-2.79646073358425E-06	-1.11371300705768E-06	5.70831002468418E-06	6.44357030710402E-08	0.996848231766771	-0.0329189144412893
1.5	0.00268225574401634	0.00122472958239183	1.24000703822199E-06	-2.53168937977287E-06	8.00947280397311E-07	2.51049416420047E-06	0.997079402264212	-0.0364652325495576
1.6	0.0030491459370127	0.00130597039083295	-9.32228734736899E-07	-6.41010315753348E-06	3.18284636616706E-06	-4.23997195075603E-06	0.99664671059255	-0.0397927701516406
1.7	0.00321369612219663	0.00115666841887029	3.40178131239165E-06	6.32770189978753E-07	2.23224441987015E-06	3.84843256752745E-06	0.996679455603307	-0.042439849442766
1.8	0.00329203868612877	0.00124045950273593	-2.37490763496498E-06	2.89406182586612E-06	-1.0127216160049E-06	-3.99284689472604E-06	0.996360217163805	-0.0452545661626203
1.9	0.00334761855677409	0.00113130982125112	-3.72725089602157E-06	-1.75715717383548E-06	5.62202058931728E-06	3.02242145815475E-06	0.9959364660278	-0.047985286292895
2	0.00296721289793484	0.00138548026789351	-6.16197149698686E-06	-5.73712589167036E-06	-2.07416941895616E-06	9.13261970351588E-06	0.993733876514582	-0.0504658164307815
2.1	0.003417341401924	0.00186196739525247	1.16454217538038E-06	4.59651853506643E-06	4.46817990706099E-06	3.98661743629163E-06	0.993784632910609	-0.0509993224302495
2.2	0.00373724209769638	0.00174258997927675	6.5387509729908E-07	9.05873608182886E-07	-3.60851257578358E-06	-1.09217456869558E-05	0.994461720118319	-0.0531612128060161
2.3	0.0038322096926898	0.00151424814675041	-2.28566198945728E-06	3.55061333522994E-06	-5.30491923470039E-07	-2.79171248615294E-06	0.994435047206705	-0.0549852197420578
2.4	0.00375687613431961	0.00117169895626539	-1.55166914891024E-06	-1.45531274820383E-06	1.28329852737732E-06	-9.9499705753179E-07	0.994541131617596	-0.0581528669832947
2.5	0.00298425525636844	0.000942633340738492	7.76821450173884E-06	4.06794254766852E-06	-2.33026202071918E-06	-7.22138146430064E-06	0.993939586620136	-0.0603982566363526
2.6	0.00270991733215526	0.00163697489092302	4.82628059922323E-07	2.11535102051941E-06	-1.47300229592133E-06	4.67730727133631E-06	0.993829439472199	-0.0629003635707294
2.7	0.00290306671007607	0.00201916173543901	-7.86403713824831E-06	5.22011497571338E-06	2.51344464208546E-06	9.71116325563172E-06	0.993516312250799	-0.0655827754710489
2.8	0.00331111053485705	0.00228272740548466	-7.74781370608556E-06	7.92944048172974E-06	5.96956435746429E-06	1.99001205947874E-05	0.993774987684368	-0.0672360192400319
2.9	0.00379810023887178	0.002170534451715	-1.19022354768419E-06	8.56314035527955E-07	-8.10256165774978E-06	-2.97584561733952E-06	0.993814553504922	-0.0691147503446485
3	0.00393225083145677	0.00219633135942445	-5.99788946752756E-07	-4.47034047262197E-06	-2.19715963255746E-06	6.42929981993457E-06	0.993864485576884	-0.0715545711584013
3.1	0.00466985585442423	0.00223841943137744	-2.58673822692193E-06	8.36773444372662E-08	1.10153615443251E-05	-3.50125249187494E-06	0.993712913445398	-0.0733232304313546
3.2	0.00510169720504564	0.00180038588064449	-9.79809742924089E-06	2.52348728894182E-06	1.21443729924332E-05	4.28797392330412E-06	0.99384840524732	-0.074947720037899
3.3	0.00530451956990697	0.00126251312465337	-3.46881999431885E-06	9.2444499472526E-07	-5.00754712243735E-06	-1.55633831967176E-07	0.994089397654684	-0.0780923544589816
3.4	0.00523951087644307	0.000665015506896246	5.34599083909221E-06	5.00977942749414E-07	1.34772502528429E-06	4.50380858005038E-07	0.994653106961486	-0.0802470683068163
3.5	0.00462522021248617	0.000359268343206246	2.7672663906686E-06	1.56432379122233E-06	1.31171459158313E-06	7.95350035484089E-07	0.994397081244113	-0.0838311266682415
3.6	0.00458626286165447	0.000569041180343276	-7.14761826264145E-06	-1.45869318498701E-07	1.87094492668659E-06	-3.4938992951429E-06	0.993693476584594	-0.0858576841764104
3.7	0.00452846286541699	0.000386366976482086	5.78037447047586E-06	-1.50038725760155E-06	-3.21470983600652E-07	-1.7333198101569E-06	0.993924540064164	-0.0882075726590031
3.8	0.00442205029372656	0.000290235183428197	-2.00484911814193E-06	8.72759452606709E-07	-5.19592162254645E-06	2.87351025936347E-07	0.994070289366779	-0.0902916192130394
3.9	0.00430662350549876	0.000147245949119096	-8.37424424977759E-06	1.76533259183741E-06	-4.11710499558219E-06	-1.50845840535631E-06	0.99425038299555	-0.094022784798586
4	0.00384512389474709	0.00034701040410501	-5.82614645092664E-06	3.55479074171734E-07	-9.48056923713298E-06	-8.47067936390964E-06	0.992649643683947	-0.0952989245494489
4.1	0.00429354212623154	0.000877422347404347	-4.00151699157757E-06	4.05579759151791E-06	-1.89855229555672E-06	5.57866025521762E-06	0.993285105825859	-0.0956838605609642
4.2	0.00479538674654791	0.000703210315509136	4.63907455235361E-06	-4.37663457377785E-06	6.7599460390099E-06	7.75869390444378E-07	0.993820713122426	-0.0983688355354406
4.3	0.00509862649820127	0.000348536690302386	-3.8051433248399E-06	1.11802348661597E-06	3.55793495363112E-06	-1.19808956759799E-06	0.994317873283262	-0.10070726365236
4.4	0.00512918823311092	-0.000229058581073878	-3.13958170068665E-06	-4.95221115931901E-06	9.3450319205827E-07	-1.03530108735456E-06	0.994161521393647	-0.103372215659182
4.5	0.00444522670402302	-0.000489076939690313	-1.40120200657322E-06	2.02996783082141E-06	2.17681387457193E-06	-8.48490320835104E-06	0.99427688538238	-0.105380397242839
4.6	0.00437965515575661	-0.000199347479983068	5.38204238622627E-06	9.63903291607633E-06	-1.4271246542437E-05	9.79942501575975E-06	0.994699664740798	-0.108477643579688
4.7	0.00437690480843043	-0.000324571411070905	-7.58747003351214E-06	-9.61186187462183E-06	-1.14814073082903E-06	-1.38542809330558E-07	0.994768657448386	-0.110879373841251
4.8	0.0042902721232078	-0.000403927173998638	-8.7621771322995E-06	-2.7205991727878E-06	-4.40547726273377E-06	4.5445910572768E-06	0.994478613469268	-0.113588774171606
4.9	0.00427200315671885	-0.000604706127549347	5.76588268334562E-06	8.35969382945847E-06	-7.28866483874386E-06	3.26855043214174E-06	0.994367770421395	-0.115564511476059
5	0.0039460515796775	-0.000613849073595453	4.32172045505745E-06	-8.56415998523661E-06	-4.29123102427846E-06	-6.21743460439843E-06	0.994513818179097	-0.117505098622132
5.1	0.0044779631682537	-0.000468719733095627	1.53088568782521E-05	-1.02517024652016E-05	3.52492737100434E-06	-8.75308467667096E-06	0.99470464553712	-0.119141555518843
5.2	0.00480838671648219	-0.000974371071281802	-4.23965896705117E-06	-4.7463182871731E-06	-3.17852473823331E-06	5.18645309236373E-07	0.994710488694746	-0.121681586237461
5.3	0.00486605861615747	-0.00149251389488844	4.78978265093124E-06	3.40086644044296E-06	-9.32510068621623E-06	-4.78983627336461E-06	0.994795505928856	-0.124287227541321
5.4	0.0046560715609195	-0.00208222204050574	5.20254422880402E-06	1.2192106677057E-06	-5.03949390615416E-07	1.05062387091496E-05	0.995305811559611	-0.127632294705503
5.5	0.00378642656757451	-0.00204531544059466	-1.81969950057385E-06	-1.99468258151346E-06	8.93133293453639E-06	5.24557904549169E-07	0.99482619852199	-0.131595616582703
5.6	0.00396340754445298	-0.00171801915521428	4.25993035115302E-06	7.26831046721921E-06	-4.59616274321452E-07	-8.65571226135211E-06	0.994150524716961	-0.133993777073789
5.7	0.00376598993856975	-0.00196146698325669	2.06642375222307E-06	-7.23876836014317E-07	5.49694302364442E-06	2.47121197436469E-06	0.994239305419412	-0.136675771716283
5.8	0.00332274127686676	-0.00197304138999681	3.93229955798706E-06	1.97267741969829E-06	2.74389681272909E-06	7.87665972555048E-06	0.994426652874504	-0.1394392058119
5.9	0.00286432456583096	-0.00188665147741437	-3.80413199405303E-06	-3.0715826657394E-06	-4.72474207160305E-06	-1.78703308417427E-06	0.994046760513524	-0.142888292649839
6	0.00176796893314289	-0.0014689152300925	-2.08534286845388E-06	1.71180434091847E-06	1.0475523300553E-05	-2.67375648730513E-06	0.991847566201532	-0.144598211110303
6.1	0.00191517513335903	-0.000175058123700405	-7.36567072400532E-06	-1.11170402924054E-06	-7.28562661779385E-07	-2.49675593706728E-06	0.99273723152608	-0.1447228963174
6.2	0.00251792785404595	-1.2674288165397E-05	-1.06616180209018E-06	2.00085456369984E-06	-3.50636652921323E-06	-5.38996734806524E-06	0.993259431819977	-0.146903111572235
6.3	0.00289327413406697	-0.000476043062041111	1.58999800004356E-06	2.84294264401883E-06	1.16200676532606E-06	6.00185586688428E-06	0.992955459338181	-0.149888510990144
6.4	0.0026261217252719	-0.00135789246951361	2.08699530189134E-06	5.05536785512894E-06	-3.34376123228321E-07	2.28849887148961E-07	0.991719098348262	-0.152749487318361
6.5	0.00166162578335718	-0.00138597268583667	4.68855842615682E-06	-1.89023189447262E-06	-4.7127328594223E-06	-1.55261150155881E-06	0.991036150581911	-0.154349369687591
6.6	0.00176413143513269	-0.00124327896428577	3.26020308268082E-07	-1.07517592786275E-06	9.35133789796378E-06	3.34186368448087E-06	0.991817732326078	-0.157523863336729
6.7	0.00149573705169153	-0.00135849178692853	5.42768728185466E-07	5.63930293292365E-06	-1.78914432591268E-06	5.00200556050785E-06	0.991313033801818	-0.160646565860133
6.8	0.0012269259227259	-0.00124800543490637	1.7322871337426E-07	-1.59430560472213E-06	-3.50418917931763E-06	-5.13634730151017E-06	0.990610039533664	-0.1633749414507
6.9	0.00086406196296734	-0.00131751826270267	-6.65867656297926E-06	6.76303381210971E-06	2.30063026409866E-06	1.35493062546122E-06	0.989964919852475	-0.166154717098726
7	-0.000152879880898701	-0.000651575880773025	8.12301248564956E-06	3.16021429369602E-06	4.60198360711768E-06	5.87870455858739E-06	0.988308642511616	-0.16808292018619
7.1	0.000194310718269642	0.000338436002744348	1.40409195584025E-06	7.83327199581331E-07	-2.29452578266546E-06	-4.48966309228225E-06	0.987945652186328	-0.16933414222931
7.2	0.000302994752881608	0.00051074264595164	-1.23897996957611E-07	4.41602613513169E-06	-5.03349338997137E-06	-6.46772402111662E-07	0.987446116415605	-0.171326661752818
7.3	0.000102693362579995	0.000729203026080764	1.34118549569418E-06	-5.28877660804446E-06	-2.36598015663514E-06	-2.79324759706163E-06	0.986689527659647	-0.173337942810367
7.4	-0.000285671137557654	0.00073986686770895	1.86108288269056E-06	4.43401459236405E-06	-7.35050420242112E-07	-1.07130534498412E-06	0.986530823800059	-0.176590666540634
7.5	-0.00168923182280769	0.00114455350096865	-5.77292597651559E-06	-1.46340033158037E-06	-1.63687073335465E-06	-8.92662566324041E-06	0.984260737931135	-0.181445586638485
7.6	-0.00183450251022804	0.00274624577936491	5.61683954687196E-06	-3.42766235628294E-06	1.04376896465987E-06	3.19156543233698E-06	0.981844619158162	-0.183334700268321
7.7	-0.00166656001360626	0.00345335779762941	-6.5333596977416E-06	-2.82972656116406E-06	4.41896679288532E-06	5.65601757422072E-06	0.981368820988078	-0.186214130106435
7.8	-0.00120316199619769	0.0038380448051512	-1.11853159293905E-06	-5.35920284549385E-06	-2.06615895904924E-07	1.14690342198431E-06	0.981065468510902	-0.189686386565055
7.9	-0.000775467956391129	0.00384362438548435	-3.30246745064257E-06	7.24304047711026E-06	4.24828638076064E-07	-6.89305892129102E-06	0.980185129444852	-0.193806432362023
8	-0.000751522127030529	0.00452294609496329	-1.8440547162032E-07	7.38271426353383E-06	1.74172811157354E-06	-4.46700333016654E-06	0.976978373031173	-0.195819732801257
8.1	0.000625899013973781	0.004841416324704	-7.71437854786477E-07	-6.46302759415533E-06	-1.75372536212708E-06	-1.05447910099681E-06	0.977608170123611	-0.19649923015422
8.2	0.00138587419893028	0.00457773739400279	-3.82038858352278E-06	1.67238528077793E-06	-1.0988178175635E-05	-2.56036502846751E-06	0.978055669255021	-0.199032218672218
8.3	0.00195697766524089	0.00434298388543073	-5.60158284175129E-06	-9.83405114073802E-06	-7.77372335619492E-06	3.06228362812877E-06	0.977627273555865	-0.201990742294162
8.4	0.00225986345707356	0.00391703990084604	6.73903948547719E-07	-6.1350767775215E-07	-1.41384251351825E-06	4.47736816305031E-07	0.976709711082176	-0.204873411368217
8.5	0.00171056831843159	0.00413658535178128	-1.75439375615768E-06	-2.49169054032227E-07	3.86175157671521E-10	1.80444320638951E-06	0.975850670331231	-0.207354474332322
8.6	0.00243585589183542	0.00482573097096202	2.40682686031813E-06	-3.98670529694904E-06	-4.59727618603039E-06	-5.89994040567731E-06	0.975536649078447	-0.210270682340745
8.7	0.00300251107440208	0.00476923058261191	-1.50978521652803E-06	-2.08548581272622E-06	-3.53687522624686E-06	3.65624542917912E-06	0.974730685671709	-0.213147718131438
8.8	0.00343188906919647	0.00476445161968068	-5.50378045056233E-06	-2.08964151304822E-06	-7.23412385979745E-06	-1.22959686278637E-06	0.973825999750477	-0.215514888181247
8.9	0.00387866393888464	0.00449034376877739	8.56536655070718E-06	4.05034518637378E-06	-1.4003680140289E-06	3.20270010413901E-06	0.973333674986826	-0.217506616175287
9	0.00375298976273144	0.00453201344833847	-4.80405965013408E-07	4.16110094986479E-06	-7.80804924056527E-06	1.26512320785128E-06	0.972642961246283	-0.219778740205824
9.1	0.00470937451369344	0.00482520802976881	-2.51864550376788E-06	6.64209035365696E-06	4.08429165939684E-06	-3.10008273675664E-06	0.971857216742334	-0.221663148450666
9.2	0.00550215596376868	0.00436946840706657	-1.15702851026516E-06	3.42547658449516E-06	-2.25318953972772E-06	-2.04309811070111E-06	0.97114832457033	-0.223911090832486
9.3	0.00609110011980744	0.00384728160473369	2.30098714851696E-06	-4.04615690970822E-06	-8.00821566040245E-07	-1.77394625786119E-06	0.970702647890996	-0.226199598376442
9.4	0.00644927110237559	0.00303672828895904	-1.77712480181423E-06	3.90005514937351E-06	-2.08365552648448E-06	-3.56439246045883E-06	0.970350649503065	-0.229329127005959
9.5	0.00617622935193299	0.0030718478900812	3.53021200646135E-06	6.26284550390475E-06	3.52259613654899E-07	-2.14897609741311E-06	0.968696083519557	-0.232880417177001
9.6	0.00690896390463396	0.00298432805079593	4.65206357566697E-06	7.02668830249171E-06	-8.12399296626959E-06	1.28160893754968E-05	0.967351448674572	-0.235165108947943
9.7	0.00711369984655967	0.00245489094416382	-2.88102811807131E-06	-1.51156794257983E-06	-1.40507017990177E-06	-3.94911822426607E-06	0.966699379215038	-0.237495686429669
9.8	0.00710688537312524	0.00213327479736068	1.08839535044219E-07	-3.58411507541278E-06	3.04848289116954E-06	2.37413675375256E-06	0.966263913864736	-0.23980173556592
9.9	0.00698041832135849	0.00193266384089122	5.77224947165424E-06	-6.47790196536985E-07	-2.516042606223E-06	6.71603928283579E-06	0.964800441735094	-0.242429837698526
10	0.00637506392620648	0.00242232875271739	-1.13795794709242E-06	-5.69287794319206E-07	1.34977137328175E-06	-1.18695378259476E-06	0.961717589558702	-0.24221388170763
10.1	0.0073324968912613	0.00323869839957921	6.73986950903654E-07	-8.3758083645992E-06	6.13732435779734E-06	3.56178122485168E-06	0.962679884667978	-0.241615769290856
10.2	0.00841189679289431	0.00309691950563575	7.48782450848683E-06	8.24200015721737E-06	5.2104765535019E-06	3.48911664376446E-06	0.963072596813097	-0.242994151297939
10.3	0.00935583153102481	0.00251973940532611	1.71834010153469E-06	-6.91902635818E-06	1.42804752153051E-06	2.84397795706191E-06	0.962547503425601	-0.244906451108802
10.4	0.00992103805192368	0.00147612531875227	-4.00729579790498E-06	-3.60033292583681E-06	1.92293019773851E-06	-5.56016817301962E-06	0.961144486157968	-0.246921089586039
10.5	0.00961308199418133	0.00103836488562251	3.63508828152793E-07	-7.01493267892218E-06	-5.68307151895206E-06	4.04909939573014E-06	0.959855413751951	-0.248142442750478
10.6	0.0105760313763269	0.000840201041491572	5.46073314370591E-06	6.68327989229777E-06	2.41901033218747E-06	1.18288338389245E-06	0.95977453747785	-0.250160186398595
10.7	0.0112162790216055	0.000114457870003504	-7.02854435636667E-06	-1.67139075431498E-06	-7.66257523577771E-07	1.54925828488089E-06	0.958976173369343	-0.252338657118859
10.8	0.0118397781977366	-0.000783243577265725	1.47759318720016E-06	4.40967288586635E-06	9.34353749374089E-06	-4.44032445458212E-06	0.958463145534105	-0.253733493500372
10.9	0.0121016927087917	-0.00203114105900629	3.19816019871171E-07	7.36606043719788E-06	-5.12509600036953E-06	2.04139824736729E-07	0.958233983143019	-0.255285937776487
11	0.0117159128639633	-0.00269264126732916	-2.20771874635152E-06	-3.80249822789227E-06	1.19665884673541E-05	-3.52262015573959E-06	0.957625775863792	-0.256301153406168
11.1	0.0124289366286867	-0.00331341205688773	-6.07551323039109E-06	-4.90689642981389E-06	9.40555091595836E-07	5.54335118220562E-06	0.95770076072156	-0.257280641211346
11.2	0.0127479717197964	-0.00467427403206303	3.28974123282997E-06	4.28105973174326E-06	1.0645245051224E-06	-7.82730987480916E-06	0.957598583553218	-0.258864509171869
11.3	0.0127956845498479	-0.00619873111238795	7.12335231357165E-07	-2.64087505538401E-06	-4.82482731846854E-06	9.05374127582429E-06	0.957845386590527	-0.260870468565824
11.4	0.0123582842950999	-0.00787201823902776	1.47317735538943E-06	-2.18864762250386E-06	-2.98189736639335E-06	-7.40443082429744E-06	0.957697274906797	-0.26424837914617
11.5	0.0111317173133279	-0.00882939053780572	9.43564012321949E-07	-1.00402004722197E-06	-8.96684946774861E-07	-8.67411140576301E-07	0.955164392993391	-0.267995782482849
11.6	0.0109610922384653	-0.00967963201189771	1.116138437437E-05	-3.24112275883982E-06	-5.38055049193632E-06	-6.79703056296317E-06	0.953563329336789	-0.270022466332898
11.7	0.0103329950962011	-0.0111024963955201	5.30079304575207E-06	-2.86938344596818E-06	-4.38714288894278E-06	1.63348254415096E-06	0.952979329002852	-0.273118817177163
11.8	0.00937754950308945	-0.0123587390791254	-4.42410511976313E-07	-2.53420216845224E-06	1.02629606516672E-06	1.31890788023815E-05	0.952206866259744	-0.276923047290776
11.9	0.00811462457593916	-0.0135234676951323	3.30023148686424E-06	1.98551114802428E-06	-4.48168079853853E-08	1.26592364813746E-05	0.950513850393654	-0.280070470292648
12	0.00625761174224313	-0.0136404155764076	1.98711570720815E-06	4.88145775833039E-07	-3.66802789035406E-06	-9.77330730530023E-07	0.94707562961233	-0.27966257720648
