# GHZ S RI R 50
0.2	0.000515940852108866	0.00326465593526161	6.30881630011836E-06	-1.00475208640451E-06	1.06679202762077E-05	1.05057831420841E-05	1.0000970545166	-0.00681094784877181
0.3	0.00115578603826205	0.00299634234636031	5.81858191440805E-06	5.0419849139094E-06	8.10012302814182E-06	2.95777287125093E-06	1.00000042022956	-0.00980197491620098
0.4	0.00162686465494791	0.00296919721206573	-2.71207159189349E-06	7.87614041220407E-06	-4.80948060431914E-07	-4.43468444330416E-06	1.00018289084701	-0.012538361246695
0.5	0.0022002071553671	0.00287438442245275	2.31035400261847E-06	1.47953205366093E-06	7.51691418461369E-06	-1.05603101355648E-06	0.9999241615862	-0.0160988316798165
0.6	0.00238234361690066	0.0026223976603359	3.22834427408213E-07	3.54174464207638E-06	2.725323923898E-07	-7.66533868453784E-06	0.999539422900023	-0.0188562282266712
0.7	0.00241798748364106	0.00267798935891198	4.16980100236591E-06	5.04447140903701E-07	-3.89833350955016E-06	-3.42581223745852E-09	0.999247765648217	-0.0215158470632071
0.8	0.00257318298903279	0.00279748625389766	-2.89056343734389E-06	2.9673770427735E-06	-6.8283456063255E-06	1.32173145185991E-06	0.99917600730929	-0.023533269214745
0.9	0.00262842703202327	0.00299075744713589	6.04403359744697E-06	8.99521170294655E-07	-7.35051897408065E-06	-1.83382064427269E-06	0.999261213421212	-0.0257791838086284
1	0.00301193378076193	0.00334395726393962	2.36432481297071E-06	2.94738906446924E-06	-9.05578613348324E-06	-2.57500064196727E-07	0.999507724752157	-0.0275799732527497
1.1	0.00337415892329863	0.00301319153423025	6.44646454495894E-07	3.53613602310313E-08	-5.30620463260003E-06	1.40677124422627E-06	0.999027165198978	-0.0302583380421362
1.2	0.00325436133300817	0.00242376902086192	-5.30019345389949E-06	-3.2897024067907E-06	-1.12006334459454E-05	-1.26623368077491E-05	0.997957542569282	-0.0315935207451062
1.3	0.00273352618560967	0.00151788641108645	3.05396666441696E-06	3.10311396847843E-06	6.95901415947051E-06	-4.09210963242935E-06	0.997429644976476	-0.0328153257282699
1.4	0.00203712899076132	0.000765188228416905	-2.80098391644242E-06	-1.11141085739854E-06	5.71474534713222E-06	5.7277715192566E-08	0.996619120793299	-0.0348370944151534
1.5	0.00199444714783508	0.000537876386891074	1.23869695948532E-06	-2.53571529439826E-06	8.04435583678036E-07	2.51236335504045E-06	0.997166231311389	-0.0379994385759088
1.6	0.00193038738082177	0.000563955647338722	-9.39859925887329E-07	-6.41905901102882E-06	3.18364136816427E-06	-4.24956935536214E-06	0.996774499192943	-0.0411227248518089
1.7	0.00217571419972827	0.000931588958472675	3.40897733724992E-06	6.30470716427796E-07	2.24051527864354E-06	3.85352603913721E-06	0.99738848193723	-0.0432800790233691
1.8	0.00250185219193423	0.00129071944131247	-2.37705325506713E-06	2.9025845700959E-06	-1.01886925344518E-06	-4.0003114408912E-06	0.99759589777443	-0.045822227556556
1.9	0.00287091493027776	0.00152300357286573	-3.73708843049729E-06	-1.75947978350609E-06	5.63704814203285E-06	3.02681750314052E-06	0.997827402942364	-0.0478136217640375
2	0.0035078787082471	0.0015517700306988	-6.19012159597758E-06	-5.7578934352481E-06	-2.07841128837126E-06	9.1712996760952E-06	0.998275536989421	-0.0506781855100285
2.1	0.00360114935843625	0.0010617234477682	1.17941911607582E-06	4.61317168104136E-06	4.49552067656051E-06	3.99352622005734E-06	0.997807751644452	-0.0538006686870516
2.2	0.00340512398677269	0.000949269875311533	6.5856969469455E-07	9.07518540814634E-07	-3.64949599523675E-06	-1.09524597500487E-05	0.997440307066967	-0.0561948515224489
2.3	0.00317302838563173	0.000908639553879907	-2.28393259951075E-06	3.56923850417829E-06	-5.39968210566614E-07	-2.79999812505981E-06	0.996984611733667	-0.0579559894836076
2.4	0.0028586250866236	0.00108372912411729	-1.56154453733782E-06	-1.45557938501461E-06	1.28468489661331E-06	-1.00240933908623E-06	0.996917083425117	-0.0610062189507495
2.5	0.00291126592117389	0.00145063125911349	7.80604635669965E-06	4.05138850246718E-06	-2.36365764765926E-06	-7.23409629119002E-06	0.996575095797183	-0.0633774858657366
2.6	0.00303358043247747	0.00136519687546323	4.90835773827959E-07	2.11919785449346E-06	-1.46138222581038E-06	4.69417963801039E-06	0.996357339726072	-0.0662972966361634
2.7	0.00304427658850067	0.00138339435089283	-7.86916930877414E-06	5.2609738818399E-06	2.55270391899327E-06	9.7305020104768E-06	0.996041171305024	-0.0693363780336527
2.8	0.00315940290236751	0.00147987830994237	-7.74210539051011E-06	7.9815152769158E-06	6.06012833175173E-06	1.99380231109457E-05	0.996091101791921	-0.071456568087296
2.9	0.00342706518049292	0.00159716408704088	-1.19006162876012E-06	8.63731613101864E-07	-8.13818611146567E-06	-2.95057514979215E-06	0.995740412749566	-0.0735927321772008
3	0.00406275748567131	0.00157726105691411	-6.20362029473476E-07	-4.47732718581825E-06	-2.17412466801326E-06	6.45255042880589E-06	0.995481719639737	-0.076210213748137
3.1	0.00435518925355635	0.0011167559059225	-2.59198930500707E-06	9.45513292686194E-08	1.10247224072119E-05	-3.554362980927E-06	0.994811771985314	-0.0782126417033157
3.2	0.00441945855672724	0.000882975451697716	-9.80624353686617E-06	2.57252301678225E-06	1.2187784994806E-05	4.2419416972945E-06	0.994408213060513	-0.0798474128434906
3.3	0.00444383803869711	0.000626696711490289	-3.46970643633258E-06	9.42858730066446E-07	-5.01611772762445E-06	-1.31375832383069E-07	0.994073564887827	-0.0830174575087404
3.4	0.00437100857796723	0.00054108907334752	5.35230097108861E-06	4.73182915229221E-07	1.35102166556091E-06	4.43596402762744E-07	0.993808358329897	-0.0849751781575992
3.5	0.0046161035556183	0.000382542027060119	2.77337705872861E-06	1.55187863494162E-06	1.31484555749858E-06	7.89437262661125E-07	0.993499299197227	-0.087500313940936
3.6	0.0044379949022052	-0.000126601766847872	-7.15140491043666E-06	-1.16175061543527E-07	1.85723027313867E-06	-3.50324309832758E-06	0.993308094608113	-0.0899870145678303
3.7	0.00402332183435976	-0.000250644648070922	5.77519547459436E-06	-1.52776896085912E-06	-3.29641597043303E-07	-1.73236482099995E-06	0.993123918036029	-0.0926672951685692
3.8	0.00374866407445757	-0.00010295728665611	-2.00037600990558E-06	8.82333983729201E-07	-5.19386861283914E-06	3.1241772258469E-07	0.992809193044224	-0.0946708747236984
3.9	0.00372995977212694	0.000262648174753976	-8.36265540004533E-06	1.80178584394981E-06	-4.12197544845526E-06	-1.48947577358385E-06	0.992938335889655	-0.0976501216074705
4	0.00433622437200299	0.000439522008593601	-5.8279366451373E-06	3.8275376355891E-07	-9.52551903963357E-06	-8.43164211898911E-06	0.993340060308181	-0.0995252521189155
4.1	0.00461652912293928	-6.21385121359519E-05	-3.97550519012346E-06	4.07888471319839E-06	-1.86393429244162E-06	5.58843772678465E-06	0.992535382841931	-0.102317485378736
4.2	0.00457080086793229	-0.000387168262303919	4.60592481939515E-06	-4.39814495111356E-06	6.75470507875896E-06	7.34036344062546E-07	0.991321687886721	-0.104887944822892
4.3	0.00445374170384449	-0.000564301949603714	-3.79084187118148E-06	1.13758485970759E-06	3.54368477800221E-06	-1.21606410780448E-06	0.99082390928158	-0.106696888507482
4.4	0.00429104776973411	-0.000540851985771568	-3.16104524506656E-06	-4.92251777326326E-06	9.26330050957012E-07	-1.03832527184364E-06	0.990231707017337	-0.108814454907327
4.5	0.00455281952621745	-0.000477742578474207	-1.38317283132211E-06	2.03195268625229E-06	2.11429801298914E-06	-8.46938085125208E-06	0.989954850324489	-0.111124621054467
4.6	0.00445979319886108	-0.00100136954086932	5.40889467288203E-06	9.56533043855956E-06	-1.4152277520672E-05	9.83068022814749E-06	0.989142317439618	-0.113716960032197
4.7	0.0041139005995351	-0.00118862869297637	-7.59765239749314E-06	-9.53093224717166E-06	-1.14343416339776E-06	-1.3244472501241E-07	0.988871684706847	-0.115396853798249
4.8	0.00380327624207687	-0.00116891770215614	-8.73344131052356E-06	-2.66819160449946E-06	-4.36426683522537E-06	4.54324102033106E-06	0.988416991030616	-0.117660735529695
4.9	0.00368085967855067	-0.000956877964578409	5.77662003843055E-06	8.29219221855259E-06	-7.23797898279959E-06	3.2864789910287E-06	0.988106706302683	-0.119276850871972
5	0.00415932925978219	-0.000960745669319776	4.25915361329775E-06	-8.53270080704087E-06	-4.29307527213504E-06	-6.16231484011939E-06	0.988094605061567	-0.12088818539263
5.1	0.00427231405124472	-0.00150908660151316	1.51856763024799E-05	-1.02446602998379E-05	3.47481383907593E-06	-8.71459165801999E-06	0.988008479797268	-0.122187678791461
5.2	0.00419393993293999	-0.00177145682205538	-4.23120755593E-06	-4.70559603011138E-06	-3.1588473925322E-06	5.26112530378312E-07	0.98784474756774	-0.124297843796794
5.3	0.00418201760540076	-0.00192101657777322	4.77303312002853E-06	3.36485021247103E-06	-9.28635977398537E-06	-4.73047454118805E-06	0.987737761713634	-0.126646916267222
5.4	0.00423286626799245	-0.00192822830472052	5.17174774854689E-06	1.19269477493985E-06	-4.63607153415146E-07	1.04371613164845E-05	0.987624688012531	-0.129597745889343
5.5	0.00470977258519223	-0.00217964422014273	-1.80920198093384E-06	-1.97497063066062E-06	8.86083299265546E-06	5.02062131365577E-07	0.987229989631993	-0.132299476498892
5.6	0.0043962792570862	-0.00299977256209584	4.23701345698433E-06	7.21133596843317E-06	-4.65588036139816E-07	-8.59281145302505E-06	0.986880474875824	-0.134792456409143
5.7	0.0036964695661643	-0.00318887151702851	2.05082401474712E-06	-7.20478006353433E-07	5.4593608933476E-06	2.44843256136657E-06	0.986557271118565	-0.137094773730896
5.8	0.00303520571656645	-0.00309650298396422	3.90321370992452E-06	1.95688880988944E-06	2.72518252486299E-06	7.81676998808923E-06	0.986498307290107	-0.139051134315262
5.9	0.00239683560687269	-0.00261040699947474	-3.77314944897968E-06	-3.05355464349414E-06	-4.6885167533698E-06	-1.77933736550183E-06	0.986581691437256	-0.140950783568608
6	0.002473704461073	-0.00199818174304515	-2.07574758677309E-06	1.70078120111578E-06	1.0421980762021E-05	-2.65003173227393E-06	0.987329094652539	-0.14334825101495
6.1	0.00232851191307491	-0.00233179966951735	-7.3178705480102E-06	-1.10450487785E-06	-7.23829726484143E-07	-2.48055526934234E-06	0.986268186525444	-0.145904976840249
6.2	0.0016520872085244	-0.00234770485182157	-1.06072743754702E-06	1.9855927832044E-06	-3.47592288695356E-06	-5.355553290268E-06	0.984866779034469	-0.147013694886681
6.3	0.0011483027814525	-0.00210276802904786	1.57377088626074E-06	2.8269804755517E-06	1.14247233104059E-06	5.96386483257476E-06	0.984082951066546	-0.14827702479174
6.4	0.000935633937517149	-0.00173402957636719	2.06494882419021E-06	5.03098323107853E-06	-3.32947116686867E-07	2.26877744952444E-07	0.983962096919856	-0.149846480389345
6.5	0.00142672856114357	-0.00184792860552007	4.66055815869346E-06	-1.87722927967235E-06	-4.6835024767632E-06	-1.54462442188564E-06	0.983966670829739	-0.15301459264056
6.6	0.00103613022366762	-0.00238500252600018	3.25090138717797E-07	-1.06661560798217E-06	9.27616628983489E-06	3.32996025437054E-06	0.983107771995467	-0.15520860497874
6.7	0.000574785258245636	-0.00222896342006192	5.25203992059221E-07	5.59983537723656E-06	-1.78830452042227E-06	4.96150641311499E-06	0.983137682787242	-0.156963357463466
6.8	0.000223916007006752	-0.00184432096941577	1.76820936711662E-07	-1.58293733528771E-06	-3.46497080788792E-06	-5.11187909294212E-06	0.9831164655437	-0.158913902052346
6.9	3.5259686837212E-05	-0.0011140338430309	-6.63924030401839E-06	6.69717415338115E-06	2.28132936864181E-06	1.35412736259311E-06	0.983329289902732	-0.160699056762666
7	0.000777097133868457	-0.000627042028457067	8.0617363380184E-06	3.17119169381809E-06	4.55204877259344E-06	5.86000438115093E-06	0.983621872671089	-0.162790125425372
7.1	0.000635717919392437	-0.00108040295740564	1.39275780640522E-06	7.84535082045745E-07	-2.26287500042237E-06	-4.47305301465808E-06	0.982930766944118	-0.164928217890989
7.2	6.70840698687086E-05	-0.000914555174514316	-1.42271209234553E-07	4.39077485087769E-06	-5.00252859722066E-06	-6.64885085721878E-07	0.982136394358223	-0.166463653174693
7.3	-0.000579379287409798	-0.000458591859706515	1.35718041366337E-06	-5.2526382655228E-06	-2.34001022360382E-06	-2.78790247006477E-06	0.98116006799749	-0.167909484861483
7.4	-0.00131901507873727	0.000447173414442509	1.82642891600731E-06	4.41341917713404E-06	-7.24754624725994E-07	-1.06775260645823E-06	0.980137170071259	-0.169551167351788
7.5	-0.00106606852821531	0.00171135813651518	-5.72172456515761E-06	-1.50040400862387E-06	-1.55310706399996E-06	-8.87917904495888E-06	0.980391913912423	-0.170755193490728
7.6	-0.000865177601926018	0.00177902055272567	5.62270194671317E-06	-3.36494308588514E-06	1.01193150361633E-06	3.18712282615E-06	0.981052428612603	-0.174473792225712
7.7	-0.00111177568515862	0.00212679552492007	-6.48617209174148E-06	-2.87441196430838E-06	4.35564219441935E-06	5.67281761082746E-06	0.980730867777583	-0.178220048872461
7.8	-0.000996488620976466	0.00254869402984476	-1.06784546984627E-06	-5.35137907507336E-06	-2.15995525150874E-07	1.14131731518905E-06	0.980402696832752	-0.181507828720872
7.9	-0.000411282120770908	0.00304660456682771	-3.36665119031999E-06	7.19066612304798E-06	4.93090740835682E-07	-6.87057482402035E-06	0.980439915702685	-0.184276745718543
8	0.000933764376989615	0.00269168414322874	-2.61015277800549E-07	7.38615501451237E-06	1.78926335968222E-06	-4.4521987687136E-06	0.981484987998336	-0.187744467005054
8.1	0.000995723195985996	0.00184379236911379	-7.20191826266825E-07	-6.47648258423056E-06	-1.747186610421E-06	-1.06979935512615E-06	0.980387775957618	-0.191678436381537
8.2	0.000751157307679387	0.00169042101191877	-3.83660979687241E-06	1.6444366330352E-06	-1.09780883094744E-05	-2.64720509661026E-06	0.979513906884726	-0.194151613117522
8.3	0.000485837346408988	0.00190018585268203	-5.53380748242303E-06	-9.88873475667014E-06	-7.80657757200463E-06	3.0070219912071E-06	0.978658692144914	-0.196702443970157
8.4	0.000354475541368724	0.00271461291454448	6.79409956686231E-07	-6.10050381726015E-07	-1.41962532128237E-06	4.38877057394327E-07	0.977937898480204	-0.199144794191163
8.5	0.00131759667873847	0.00340977695279141	-1.75435988080507E-06	-2.59539472413994E-07	-1.00737327980326E-08	1.80589622341423E-06	0.977331327970721	-0.202009015411846
8.6	0.00164676385256473	0.00309824211913152	2.4369836796833E-06	-3.97186279615219E-06	-4.55769206616786E-06	-5.93664777913546E-06	0.976739680837703	-0.204455973266063
8.7	0.00160776345330427	0.00329905430294794	-1.49659483149966E-06	-2.1004650208973E-06	-3.57056466737706E-06	3.63574713350286E-06	0.976594046556751	-0.206885150322556
8.8	0.00166815908834685	0.00376765793093111	-5.50387986995914E-06	-2.13595722270027E-06	-7.24540307564415E-06	-1.28621363942053E-06	0.976501784633753	-0.209255953496089
8.9	0.0019819191778417	0.00452197529106701	8.57109099480945E-06	4.12084412913044E-06	-1.42630318885582E-06	3.20557862937809E-06	0.976666109098069	-0.211449964669003
9	0.00337436527677705	0.00509102464008866	-5.06401351440886E-07	4.17122872213862E-06	-7.83980965518243E-06	1.22309046538161E-06	0.976596807852647	-0.213774851350342
9.1	0.00443058884617809	0.00449538436091093	-2.57083537185037E-06	6.65001420471119E-06	4.11926137611547E-06	-3.08494928873685E-06	0.976463071495933	-0.216002998162078
9.2	0.00514851340360843	0.00407704127878045	-1.18282924928653E-06	3.43248406137874E-06	-2.24992657588706E-06	-2.06535085660388E-06	0.976067159564853	-0.218602445377106
9.3	0.00586063886728326	0.00362823169193602	2.3334203960239E-06	-4.0493500518201E-06	-7.9391438660369E-07	-1.78569346353256E-06	0.9755887447027	-0.221168551275115
9.4	0.00657294226949263	0.00325556105140563	-1.80409785855896E-06	3.90296036470229E-06	-2.07096698599254E-06	-3.5872400875937E-06	0.974776058244862	-0.223912937546298
9.5	0.00771261867950727	0.00255375056001327	3.4935992071862E-06	6.30475580688336E-06	3.68852952127387E-07	-2.15194424113138E-06	0.97437168332298	-0.226175287280636
9.6	0.00771400205042334	0.00124915371069635	4.61787440012035E-06	7.09267408530935E-06	-8.25759250443819E-06	1.28084632400323E-05	0.97419298170727	-0.229555567760979
9.7	0.00739129767432288	0.00073024782735419	-2.88385938248278E-06	-1.53997831088826E-06	-1.38291293384602E-06	-3.97847987548679E-06	0.973672259568459	-0.232349130954762
9.8	0.00712375210665322	0.000533841534242872	1.36241959888811E-07	-3.60150800718866E-06	3.04618476605747E-06	2.40903494993861E-06	0.973464804793226	-0.234531618173792
9.9	0.00700074136402818	0.000860734211091631	5.8129246004013E-06	-6.02488664171643E-07	-2.58866137396603E-06	6.73546904983627E-06	0.973290202379569	-0.236121943608136
10	0.00789698790218307	0.000926812938732408	-1.14435699098711E-06	-5.82932327274083E-07	1.37103040920607E-06	-1.18807937739722E-06	0.974216683509997	-0.238296040360257
10.1	0.00805605647433119	-1.04439728428256E-05	7.22409245813327E-07	-8.44584454398063E-06	6.17307175142524E-06	3.62416846867881E-06	0.973381143755963	-0.241244320099075
10.2	0.00775261205164224	-0.00034236804303856	7.51353893147563E-06	8.34959530909194E-06	5.23912503162573E-06	3.5444360326533E-06	0.972460006194145	-0.243077478259378
10.3	0.0075535320917488	-0.000269464588702781	1.7640898995721E-06	-6.97679110164898E-06	1.42932773351094E-06	2.87684597800443E-06	0.971482704520045	-0.245174627834974
10.4	0.00779634203911717	0.000222822701546086	-4.03903198303498E-06	-3.64960403041056E-06	1.95904827376689E-06	-5.61300947578995E-06	0.970435676564279	-0.247578027401779
10.5	0.00912650145167487	0.000272370385701303	3.69399829039959E-07	-7.08279448324775E-06	-5.73951532639202E-06	4.08642235380456E-06	0.969068569748046	-0.250694497568097
10.6	0.00996725545223274	-0.000680102527188664	5.50415355488523E-06	6.74527558101795E-06	2.43939878165594E-06	1.1947989595051E-06	0.967772680266212	-0.252819996048023
10.7	0.010427366405641	-0.00141487543113608	-7.09347781600201E-06	-1.68856032954721E-06	-7.7373961477134E-07	1.56347856677354E-06	0.967118666025215	-0.255315244609933
10.8	0.0107608504586604	-0.0021658590139625	1.49497248998448E-06	4.45133436479226E-06	9.43089996895654E-06	-4.48982664173722E-06	0.966503064668823	-0.257311780210675
10.9	0.0110237101921178	-0.00259711403233692	3.37250732464683E-07	7.4380417373254E-06	-5.17521418434912E-06	2.16089255551014E-07	0.966228136842369	-0.259160633388781
11	0.0122222065061585	-0.00336110636825267	-2.2377467776948E-06	-3.83072765948619E-06	1.20646150362056E-05	-3.58635708589503E-06	0.966037159124915	-0.260448845385406
11.1	0.0124727726741083	-0.00512007277727414	-6.14385498522268E-06	-4.93474431404263E-06	9.64167557013328E-07	5.59094730839588E-06	0.966073938855185	-0.262101426706996
11.2	0.0122339198775065	-0.00644614402577133	3.33428955977648E-06	4.30858710584347E-06	1.04728621487334E-06	-7.90196372376964E-06	0.965814829508165	-0.264224478282918
11.3	0.0118818797997281	-0.0075606589266456	7.07062187166692E-07	-2.66638050297046E-06	-4.82700489736804E-06	9.15140300232672E-06	0.965355448453647	-0.266663731288572
11.4	0.0114083406349831	-0.00831147534651946	1.47295084956104E-06	-2.21113799676641E-06	-3.03861527218175E-06	-7.4420327973045E-06	0.963979457706298	-0.269706254123608
11.5	0.0117233702308566	-0.00937842164295475	9.46869898808536E-07	-1.01345129646431E-06	-9.0518060130986E-07	-8.7052752798368E-07	0.962987211349356	-0.272069140717914
11.6	0.011073532233731	-0.0112977328610416	1.12408519443012E-05	-3.30794540944164E-06	-5.44907569403485E-06	-6.83311026726502E-06	0.962218627798594	-0.27619347469066
11.7	0.0098916768256348	-0.012494053890925	5.32972921228616E-06	-2.91756522287059E-06	-4.4146087634722E-06	1.66740896525457E-06	0.960844274684102	-0.280377649450176
11.8	0.00878857443466172	-0.0131405532157629	-4.5896746102008E-07	-2.55100938932029E-06	1.10283938310804E-06	1.32832082290215E-05	0.959291989751179	-0.284370355525291
11.9	0.00834211331909786	-0.0132917806276915	3.33587626762636E-06	1.98545591825217E-06	1.53818493355836E-08	1.27597485454319E-05	0.958320883336831	-0.286750096809399
12	0.00876010669056574	-0.0141635229369063	2.01109462109312E-06	4.8016612912174E-07	-3.71279270411507E-06	-9.63397977799874E-07	0.958092467379828	-0.289240494626609
