# GHZ S RI R 50
0.2	0.000639814709458931	0.00345306580938343	6.3061446200935E-06	-1.00635347262335E-06	1.06672267130406E-05	1.04985157866347E-05	0.999806932203582	-0.00696428769920719
0.3	0.00131949590950959	0.00314828018094877	5.81747286065264E-06	5.03772819454754E-06	8.09726529156827E-06	2.9537595884124E-06	0.999651780624062	-0.00999691067471109
0.4	0.00177685091725908	0.00299289724556262	-2.7086122661599E-06	7.8716349908496E-06	-4.81597467627937E-07	-4.4317127953172E-06	0.999655282467376	-0.012741029038337
0.5	0.00213124378533475	0.00300946817777759	2.30919178348556E-06	1.47885661421808E-06	7.51325684120454E-06	-1.05535524009075E-06	0.99938960027478	-0.0159524879250527
0.6	0.00254074870381076	0.00290699027875691	3.23582786781569E-07	3.54010851426311E-06	2.70486311290885E-07	-7.66204172854239E-06	0.999311111536819	-0.0189009339478128
0.7	0.00267305533571847	0.00286721637045509	4.16728989292789E-06	5.02898322419817E-07	-3.89584810692508E-06	-2.2764386044156E-09	0.998894539717779	-0.0217516772188237
0.8	0.002878811396715	0.00291869393075667	-2.88752345257197E-06	2.96581591631826E-06	-6.82265858493285E-06	1.32249171271636E-06	0.998686827207211	-0.023836947536708
0.9	0.00299561313912637	0.00294796376821189	6.03844604445866E-06	8.97431556289732E-07	-7.34387426906531E-06	-1.83057293489861E-06	0.998591876911008	-0.0261832102086234
1	0.00305848335878735	0.00310219983603585	2.36165827072704E-06	2.94439766288712E-06	-9.04618065500002E-06	-2.57726325170218E-07	0.998375210938194	-0.0278275893746963
1.1	0.00332435444655018	0.00309969751907769	6.44048089147987E-07	3.54168702805238E-08	-5.30151132463749E-06	1.40475110962788E-06	0.998012049089333	-0.0300303943479088
1.2	0.00331044349122417	0.00262204655828664	-5.29506231169227E-06	-3.28778224920713E-06	-1.11888064841963E-05	-1.26533612773137E-05	0.997171944971535	-0.0312076587886584
1.3	0.00295907206229252	0.00182311208797775	3.05124349959467E-06	3.10154694491794E-06	6.95496703371442E-06	-4.08791926502069E-06	0.997049678191835	-0.0323312675053242
1.4	0.00245497967905625	0.000949105053596362	-2.7993597993574E-06	-1.11104896026695E-06	5.71162434888853E-06	5.77445281850996E-08	0.996614471393376	-0.0346473828201875
1.5	0.00228081318014438	0.000695179460334374	1.23780707079125E-06	-2.53416377647206E-06	8.04032430544669E-07	2.51074075553927E-06	0.996985871846194	-0.0380100592761089
1.6	0.00232398820637883	0.000669530625338154	-9.39056730622477E-07	-6.41378643810004E-06	3.18104434983492E-06	-4.24606067648996E-06	0.996502884270963	-0.041254819539995
1.7	0.00246442556721643	0.000925578892664795	3.405720295351E-06	6.30213668509785E-07	2.2380377631336E-06	3.85013352182733E-06	0.996825351347659	-0.0434658117860566
1.8	0.0026839555297094	0.00126079855916773	-2.37503936065122E-06	2.89935346761097E-06	-1.01732232777582E-06	-3.99641829445053E-06	0.996805753414982	-0.0459816641369963
1.9	0.00291561669439509	0.0014557430079657	-3.7326286783236E-06	-1.75751697788207E-06	5.63030984296499E-06	3.0234171595166E-06	0.996693049813148	-0.0480523921938656
2	0.00329435994528422	0.00172070450865229	-6.17781107742779E-06	-5.74972151978881E-06	-2.07743154104019E-06	9.15489286824561E-06	0.99640402328074	-0.0503321053529067
2.1	0.0036367829290533	0.00146953458753989	1.17399743628171E-06	4.60690529516569E-06	4.48541718881791E-06	3.99080185822911E-06	0.996456599837638	-0.052778859962289
2.2	0.00359852835866075	0.00130054556547456	6.5683243419165E-07	9.06765657800098E-07	-3.6347771645634E-06	-1.09396785551833E-05	0.996349066673639	-0.0552183054763216
2.3	0.00344935567741657	0.00116390533040761	-2.28407877263594E-06	3.5618413198582E-06	-5.36468395370122E-07	-2.79645680068736E-06	0.995935858877799	-0.0569998957040488
2.4	0.00313176425372169	0.00115363238582198	-1.55759710837917E-06	-1.4552763149248E-06	1.28398261392248E-06	-9.99470058020472E-07	0.995810980659167	-0.0600213261717273
2.5	0.00286290831547232	0.00148942999117392	7.79085184749857E-06	4.05666936356203E-06	-2.35107411489717E-06	-7.22814505634224E-06	0.995354834080783	-0.0621570157190665
2.6	0.00300775955266868	0.00168904525633316	4.87499087814092E-07	2.11715712284793E-06	-1.46556183039804E-06	4.68639025961711E-06	0.995250778796514	-0.0648127773749631
2.7	0.00315755434526015	0.00177729573684155	-7.86642373542207E-06	5.24252293951473E-06	2.5351239091867E-06	9.72133916453737E-06	0.995081473390276	-0.067626025073078
2.8	0.00339447684750521	0.00183237953602038	-7.74552596829647E-06	7.95833470783704E-06	6.01901640570108E-06	1.99225933696963E-05	0.995338856761012	-0.0696139691948734
2.9	0.00366319474538503	0.00182102486058781	-1.19032153979612E-06	8.60517514206539E-07	-8.12337599155073E-06	-2.9624500416933E-06	0.995144764504202	-0.0717031187249536
3	0.00414951219072026	0.00188855169125242	-6.11408107555539E-07	-4.47438012117742E-06	-2.18421308180695E-06	6.44255752619322E-06	0.995010219307728	-0.0742258950964453
3.1	0.00461601270383848	0.00148331680396487	-2.58976735182402E-06	8.94969614002425E-08	1.10213117577021E-05	-3.52994229785174E-06	0.994573365088291	-0.0761939678616187
3.2	0.00472672660832947	0.00115157385027612	-9.80372389125599E-06	2.55062708600978E-06	1.21695814015001E-05	4.26328988665415E-06	0.994345931309593	-0.0779060083472715
3.3	0.00475104015114811	0.000793800791869191	-3.46957777411332E-06	9.35020757920281E-07	-5.01280195473093E-06	-1.4180120500998E-07	0.99415771994542	-0.0811628691713135
3.4	0.00458448680757363	0.000556316259489024	5.34956361714801E-06	4.84206241772103E-07	1.34965372498745E-06	4.46272963518707E-07	0.994027567425234	-0.0832920639048631
3.5	0.00455581346470568	0.000489417725021607	2.76990230530072E-06	1.55638995845581E-06	1.31310300201846E-06	7.91562047117824E-07	0.993515518132648	-0.0860027371378568
3.6	0.00446165076346642	0.000119398475449546	-7.14823307368161E-06	-1.29965209745589E-07	1.86324372540712E-06	-3.4982056849533E-06	0.993305184951754	-0.0882590932967447
3.7	0.00404459598668029	-3.22206926021494E-05	5.77687243688155E-06	-1.51535857473677E-06	-3.25952332038011E-07	-1.73260026678142E-06	0.99320666392167	-0.0908935990291247
3.8	0.00371754061632933	0.000109959389351883	-2.002044175647E-06	8.78009939089978E-07	-5.19401044820562E-06	3.01388545447845E-07	0.99289644276805	-0.0928627341896102
3.9	0.00357695142886593	0.000477761743681886	-8.3657857651809E-06	1.784384592214E-06	-4.11860730206217E-06	-1.49788476015609E-06	0.992838108767762	-0.0957859900562719
4	0.0039929235539718	0.000955011190287312	-5.82757608653605E-06	3.68404813267656E-07	-9.50276233317934E-06	-8.45307867375742E-06	0.992983542046868	-0.0967817939001792
4.1	0.0045771695907267	0.000696711273439486	-3.98800755571659E-06	4.06943383944045E-06	-1.87983179305655E-06	5.58527053474987E-06	0.993223476455565	-0.0990937111471571
4.2	0.00475089742638717	0.000328295146500231	4.62079092246411E-06	-4.38913358980009E-06	6.7575734926598E-06	7.52359927567064E-07	0.992628351421139	-0.101891722924636
4.3	0.00477130450571708	3.75618066219627E-05	-3.7973837092214E-06	1.12905723693411E-06	3.55018763641335E-06	-1.20823960156801E-06	0.992506533342351	-0.103954939971576
4.4	0.00461378255039642	-0.000139416345406908	-3.15237946237544E-06	-4.93625734236513E-06	9.30031148139128E-07	-1.0372159678119E-06	0.992117943877978	-0.106303131567617
4.5	0.00465637262783302	-1.6695685086284E-05	-1.39035940828419E-06	2.03202309309206E-06	2.13815947775459E-06	-8.47843926424297E-06	0.992161492790811	-0.10866997164821
4.6	0.00475208873212256	-0.000431238665910976	5.39971615214836E-06	9.59218095320029E-06	-1.41955316025487E-05	9.82023679128067E-06	0.991638470751214	-0.111692072318033
4.7	0.00451090398042811	-0.000726145792518136	-7.59236049004269E-06	-9.56049432743887E-06	-1.14504807049284E-06	-1.34776941211412E-07	0.991394109376566	-0.11364387312914
4.8	0.00423628551508565	-0.000851692687417864	-8.74282539550446E-06	-2.68895932473944E-06	-4.37997305715387E-06	4.54254318501635E-06	0.990965715223283	-0.116112062513755
4.9	0.00402339845268185	-0.000844065480302819	5.77097169694059E-06	8.31826748134295E-06	-7.2573445560921E-06	3.27839254888301E-06	0.990650568064	-0.117915762365028
5	0.00424231060734079	-0.000761614278310821	4.28238205030968E-06	-8.54277011739877E-06	-4.29127737362992E-06	-6.18217129811281E-06	0.99058678557158	-0.119632173382417
5.1	0.00445014760118718	-0.00125803928532499	1.52312120321387E-05	-1.02400090535095E-05	3.49543054683016E-06	-8.72575032516591E-06	0.990510202326354	-0.121035530919672
5.2	0.00431396622512654	-0.001564557045195	-4.23208091672815E-06	-4.7220047566825E-06	-3.16608765758676E-06	5.22023056069912E-07	0.990319155681233	-0.123213180871727
5.3	0.00425014577629625	-0.00170134178241323	4.77834959825836E-06	3.38009037679886E-06	-9.29962451770684E-06	-4.75604344781433E-06	0.990314114636734	-0.125556644416429
5.4	0.00420173390467628	-0.00176955040187534	5.18366947409464E-06	1.20328510963565E-06	-4.79854630933543E-07	1.04640182913551E-05	0.990459254725252	-0.128696838984559
5.5	0.00446546456231954	-0.0017694168895328	-1.81244959995716E-06	-1.98193479467918E-06	8.88464618581953E-06	5.11076295561296E-07	0.989989417425861	-0.131673681820786
5.6	0.00435377472578175	-0.00253829803307039	4.24195721429956E-06	7.23377018466944E-06	-4.59507570674786E-07	-8.6156516344506E-06	0.989789292123034	-0.134227399297563
5.7	0.00356706012135673	-0.00279722475590702	2.05712791421855E-06	-7.20972397556558E-07	5.47288191819279E-06	2.45939265043471E-06	0.989501944821651	-0.136812701283945
5.8	0.00276312048498078	-0.00263959553948759	3.91385590390246E-06	1.96466729563026E-06	2.7293864446419E-06	7.84140578271504E-06	0.989323937425007	-0.13897625540886
5.9	0.00194191662682586	-0.00203489763878686	-3.78349839357174E-06	-3.06326408555887E-06	-4.70180689053618E-06	-1.78552715088658E-06	0.989007621582434	-0.140919353172701
6	0.00173749982057099	-0.00082902040143304	-2.08284552317475E-06	1.70470191453441E-06	1.04544013849107E-05	-2.65221454532936E-06	0.989641229471041	-0.142141728990711
6.1	0.00225964442623318	-0.000521543936314996	-7.34499665300585E-06	-1.10939187152608E-06	-7.26261666854727E-07	-2.48986659334461E-06	0.990175818616304	-0.144551198346619
6.2	0.00238953304450716	-0.000620725512693165	-1.06345716265411E-06	1.99366590628132E-06	-3.49222552569032E-06	-5.37339768362035E-06	0.989629570377931	-0.146537103651357
6.3	0.0023776417458617	-0.000961388137090262	1.58212420329563E-06	2.83494945194622E-06	1.152673983141E-06	5.9829797605578E-06	0.98901398049567	-0.148872149936151
6.4	0.00200637197871185	-0.00127767245723608	2.07619186130374E-06	5.04404994836389E-06	-3.33721622321635E-07	2.27893166676133E-07	0.988343895529804	-0.151095248847848
6.5	0.00206333280766039	-0.00137961997605002	4.67439616331343E-06	-1.88736673518238E-06	-4.70029935336143E-06	-1.54578894133398E-06	0.988279258780264	-0.154238335071326
6.6	0.0016617799330527	-0.00197781123732465	3.2468122669878E-07	-1.07039386524618E-06	9.30969807801067E-06	3.32797965060618E-06	0.987093346572104	-0.157168133766486
6.7	0.00109802921449277	-0.00185550157128731	5.34448615483959E-07	5.61481984975089E-06	-1.78643747636364E-06	4.97791016988168E-06	0.986516152323044	-0.159045318114623
6.8	0.000726453129857575	-0.00156953166464701	1.75089121841461E-07	-1.58733907013687E-06	-3.48116102465002E-06	-5.12049451882378E-06	0.986138992687477	-0.161063353553054
6.9	0.000311400819747073	-0.00107184748070538	-6.64641099463047E-06	6.72356458875603E-06	2.28902117225464E-06	1.3542807087005E-06	0.985894890822784	-0.163004546601331
7	0.000672190957821554	-0.000265786930322354	8.086271600974E-06	3.16617647542555E-06	4.57231386445256E-06	5.86703546444218E-06	0.985787124528197	-0.164743243828325
7.1	0.00076331401263995	-0.000643645329955749	1.39725179785733E-06	7.83987193532414E-07	-2.27554476143333E-06	-4.47945914420525E-06	0.985302376334005	-0.167039611794743
7.2	0.000152225385877103	-0.000584195280560136	-1.34585984412851E-07	4.4008704009995E-06	-5.01494726925754E-06	-6.57255453865531E-07	0.984306208406077	-0.168989127028961
7.3	-0.000584349648533068	-0.000213628007391442	1.34927739892978E-06	-5.26730231099335E-06	-2.35109861791479E-06	-2.78929983295159E-06	0.983018156821948	-0.170883479230011
7.4	-0.0015854156779126	0.000483271273681714	1.84254116709344E-06	4.41870442279302E-06	-7.29306828608786E-07	-1.06826925421467E-06	0.981404607878995	-0.173335336697122
7.5	-0.00198456710978843	0.00210263020208196	-5.73496174900059E-06	-1.48261359924322E-06	-1.5861557855708E-06	-8.88622560586414E-06	0.979754015129519	-0.174558001073142
7.6	-0.00155950716930673	0.00273885314042343	5.61674150343452E-06	-3.38474723060829E-06	1.02246629880297E-06	3.18648467805252E-06	0.980062980078662	-0.177032493079995
7.7	-0.00158743014006921	0.00330072935821938	-6.49878648463413E-06	-2.85710523665233E-06	4.37515606872401E-06	5.66358047126592E-06	0.979856145259061	-0.180305128746364
7.8	-0.00121011265716371	0.00374262214296674	-1.08406475606792E-06	-5.3509007472709E-06	-2.12756301990972E-07	1.14251632559934E-06	0.97969431795442	-0.18341739481466
7.9	-0.000618156892426157	0.00414952466552537	-3.34541690752071E-06	7.20173148423404E-06	4.7245264347722E-07	-6.8729410227694E-06	0.979512822141876	-0.186098525406691
8	0.000828106642486504	0.00423130055143871	-2.44384238813862E-07	7.38434567788029E-06	1.77870960989049E-06	-4.45476398598546E-06	0.980597338633293	-0.188276308980898
8.1	0.00134820874684518	0.00325646489442521	-7.33649834651369E-07	-6.47693627970259E-06	-1.74989394571618E-06	-1.06654473536848E-06	0.980844253170998	-0.192445784653744
8.2	0.00128849343216465	0.00294953970928387	-3.83427443332885E-06	1.65380942093424E-06	-1.09882010279751E-05	-2.62310888676067E-06	0.980180861099309	-0.195485217126511
8.3	0.00122081105747089	0.00294367618139566	-5.55845175750496E-06	-9.87795201412157E-06	-7.80128201188614E-06	3.02616176146665E-06	0.97932433907614	-0.198393578881681
8.4	0.00105298415803831	0.00336231926455612	6.7820028173429E-07	-6.11664612332383E-07	-1.41893693365369E-06	4.42086688303185E-07	0.978489044206712	-0.201101515389202
8.5	0.00175445565494262	0.00416074427851842	-1.75599309220926E-06	-2.5534131712531E-07	-5.60710636381855E-09	1.80694072720976E-06	0.977897120250262	-0.204179060135593
8.6	0.00231230299263557	0.00370436908304269	2.42579120241747E-06	-3.97911956050439E-06	-4.57500538995527E-06	-5.92402818449792E-06	0.976981292687437	-0.207096138267384
8.7	0.00218525611717908	0.00365305521326282	-1.50185639874428E-06	-2.09566932810835E-06	-3.55942073835992E-06	3.64433036919896E-06	0.976304656938013	-0.209625543086675
8.8	0.00208543369306938	0.00394809186962328	-5.50595260306827E-06	-2.120850498833E-06	-7.24429860863474E-06	-1.2672398910561E-06	0.975738046440984	-0.21187949604421
8.9	0.00206647276202548	0.00452229522065818	8.57475575216169E-06	4.09947018210788E-06	-1.41838133849126E-06	3.20669735347991E-06	0.975551605082859	-0.213829414749807
9	0.00299201093687059	0.00548534439968381	-4.96314225073383E-07	4.17051213135313E-06	-7.83332451087701E-06	1.2410517459423E-06	0.975254157304197	-0.215869793162474
9.1	0.00421454491175564	0.00523132253846037	-2.55315899028825E-06	6.65174737496132E-06	4.1091084830865E-06	-3.0927776872897E-06	0.975137474310362	-0.2178167798542
9.2	0.00510567849253515	0.00498390384921519	-1.17336241547684E-06	3.43335863461371E-06	-2.25378135144963E-06	-2.05834341794525E-06	0.974919340887581	-0.220427194163647
9.3	0.0060829655241069	0.00452407779467967	2.32029964505795E-06	-4.0532704620976E-06	-7.98470136873507E-07	-1.78222461493091E-06	0.974569958072888	-0.223316960872024
9.4	0.00681758943780054	0.00386895393613587	-1.78995409477543E-06	3.90572019171271E-06	-2.08099241218851E-06	-3.57763764428218E-06	0.973554344047133	-0.226726679633085
9.5	0.00783681240751108	0.00334209532361242	3.51136140563494E-06	6.28259529212392E-06	3.60456525614519E-07	-2.15007219323431E-06	0.972256610234134	-0.229091194323189
9.6	0.00797200679646012	0.00184352536566466	4.63194370805723E-06	7.06462854196535E-06	-8.20114941444417E-06	1.28109454326588E-05	0.971846879727777	-0.23224959125637
9.7	0.00746327436057377	0.00119671336882937	-2.88314330351316E-06	-1.52804420538615E-06	-1.3926681866816E-06	-3.96655987184395E-06	0.970966196491418	-0.235095158363358
9.8	0.00698934538276275	0.000968916322805323	1.24400331532513E-07	-3.59434328919131E-06	3.04748356874483E-06	2.39417761898962E-06	0.970207610089098	-0.237290798476403
9.9	0.00649786728219251	0.00132324124656442	5.7951926197317E-06	-6.19632160956954E-07	-2.55987157841847E-06	6.72554134889241E-06	0.969039333715227	-0.238585856123541
10	0.0070820823723419	0.00207681351461434	-1.14227579338026E-06	-5.78518515688087E-07	1.36414746445829E-06	-1.18770060649709E-06	0.96974656669	-0.239111411923962
10.1	0.00769603289711253	0.00152615957003339	6.99798057952131E-07	-8.42481779417047E-06	6.1652775886189E-06	3.59928588976617E-06	0.969594630241949	-0.242014319758858
10.2	0.00779290275688862	0.00126184033491997	7.51075356320658E-06	8.30450299916844E-06	5.23148642764854E-06	3.52016816636153E-06	0.96849119705781	-0.243722326660084
10.3	0.0079152772353049	0.00111292554326356	1.74249851299427E-06	-6.95501578414432E-06	1.43031766091877E-06	2.86319332281823E-06	0.967316505983095	-0.245482703116717
10.4	0.00802852437419352	0.00126394767156879	-4.02837174415254E-06	-3.62935235437169E-06	1.94319130431892E-06	-5.5936895814209E-06	0.966045092285656	-0.247257722642044
10.5	0.00916020579365611	0.0016995686586419	3.60163283041799E-07	-7.05847151080392E-06	-5.7148847925144E-06	4.07858940664489E-06	0.965179721567044	-0.249570152914013
10.6	0.0103230959592344	0.000892502649525814	5.48946555570926E-06	6.71284326751271E-06	2.43100824944785E-06	1.18751934807094E-06	0.963983250928595	-0.251559273809997
10.7	0.0111849842902985	7.76495026871157E-05	-7.06504289368597E-06	-1.67817231804917E-06	-7.69794124111932E-07	1.55740510391427E-06	0.963753747212507	-0.253694686054911
10.8	0.0117990934065512	-0.00111434052330322	1.48898916197308E-06	4.43317968082428E-06	9.39240581366768E-06	-4.47176647366214E-06	0.963540810211463	-0.255841460483019
10.9	0.011834288226044	-0.00206793873768428	3.33442773635471E-07	7.40904484773679E-06	-5.15503262283335E-06	2.13512411702433E-07	0.963243637979909	-0.25795426118697
11	0.0126756945213682	-0.00267596769598554	-2.22803088252813E-06	-3.81651752833555E-06	1.20189079900028E-05	-3.56915399811906E-06	0.962825262778703	-0.259364383866773
11.1	0.0130190154605491	-0.00456751434719182	-6.11578300177583E-06	-4.9179160582106E-06	9.57036795760628E-07	5.56848815930517E-06	0.962550159106445	-0.261152063584303
11.2	0.0126398430476517	-0.00602821110377317	3.31703432732344E-06	4.29406971568586E-06	1.04995519658775E-06	-7.86907911184522E-06	0.961928540661997	-0.263199647857898
11.3	0.0121497753960029	-0.00729424402187286	7.07092188722459E-07	-2.65545362744691E-06	-4.81792446319893E-06	9.1114381546264E-06	0.961253660427394	-0.265580032498814
11.4	0.0113351716217037	-0.00822649538477631	1.4695440310118E-06	-2.20198271028321E-06	-3.02146512083976E-06	-7.41796165237915E-06	0.959510214633972	-0.268743930816254
11.5	0.0113246605908115	-0.00887241367911404	9.4361662187482E-07	-1.00843447632425E-06	-9.00680999456468E-07	-8.6751648476572E-07	0.957636921029148	-0.270352628500376
11.6	0.010786174971365	-0.0107794873265796	1.11988537497987E-05	-3.27706008724449E-06	-5.41592043762517E-06	-6.81279529337486E-06	0.957197456755212	-0.273752141570531
11.7	0.00941309648728407	-0.0119949898851776	5.31378718696454E-06	-2.89663319270887E-06	-4.4000838930552E-06	1.65303462465337E-06	0.955794101210843	-0.277592072177685
11.8	0.0080346067387756	-0.0125622394656014	-4.52271017266925E-07	-2.54178239663896E-06	1.07306870645009E-06	1.32327016586342E-05	0.954037152811363	-0.281051321948468
11.9	0.00701263341861589	-0.0123661993835541	3.31601763375178E-06	1.984349894971E-06	-1.4947862206791E-08	1.2701835761069E-05	0.952447621535493	-0.282132099126412
12	0.0075430660958085	-0.0122142873177793	2.00034856620229E-06	4.85770719060861E-07	-3.69265811189591E-06	-9.7340442016655E-07	0.953447930759281	-0.282384188840154
