# GHZ S RI R 50
0.2	0.000537400990801232	0.00373519926068812	6.305236279672E-06	-1.00807558784434E-06	1.0669212809244E-05	1.04944074595245E-05	0.999413313061188	-0.00713443785409115
0.3	0.00116413758745035	0.00335644437155433	5.81734151030213E-06	5.03648059474872E-06	8.09663046162068E-06	2.95250611919858E-06	0.999183681903245	-0.0100504421706625
0.4	0.00164883601311914	0.0031888552654085	-2.70769368758398E-06	7.87025385098303E-06	-4.81727792946675E-07	-4.43083417212208E-06	0.999188668523802	-0.0126948136001878
0.5	0.00186168960611892	0.00308725403351255	2.30807529550313E-06	1.47889456628316E-06	7.51098087476958E-06	-1.05326391828482E-06	0.998905827535457	-0.0157345435544587
0.6	0.0021856088892037	0.00331389873868014	3.22409083791439E-07	3.54014905830223E-06	2.73008467522728E-07	-7.66180926481767E-06	0.999234300241457	-0.0186146831399235
0.7	0.00254025468301628	0.0033984785220791	4.16725574695069E-06	5.03557744170958E-07	-3.8958896121949E-06	-2.88788068700125E-09	0.998955069297411	-0.0218159240866241
0.8	0.00292920727299744	0.0034586294322735	-2.88752122755272E-06	2.96549172328106E-06	-6.82234490644016E-06	1.32204687182686E-06	0.998641535248586	-0.0241798913924298
0.9	0.00328829905907353	0.00343816044829627	6.0375250793225E-06	8.96823336345845E-07	-7.34281065181858E-06	-1.82971210735084E-06	0.998319320847199	-0.0267127063038191
1	0.00347196447651807	0.00313380840594053	2.36071831800288E-06	2.9427471598179E-06	-9.04170586732553E-06	-2.56880544423058E-07	0.997652136432681	-0.0283404391300416
1.1	0.00328230139036565	0.00315814527579257	6.43722001943816E-07	3.5550578486133E-08	-5.2992253067213E-06	1.40281353604843E-06	0.997210130757033	-0.0298562216391478
1.2	0.00325151509846592	0.00292870669359948	-5.29186013903717E-06	-3.28855804389194E-06	-1.11798902910743E-05	-1.26528846956465E-05	0.996803037010407	-0.0306053132499942
1.3	0.00285845476005216	0.00235858106382681	3.04835953664177E-06	3.10290929377251E-06	6.95611572218591E-06	-4.08211776536921E-06	0.997126047889811	-0.0312974250384561
1.4	0.00243739560153008	0.00176415463136156	-2.7981569558926E-06	-1.11412088986155E-06	5.71158998223678E-06	6.40011135142446E-08	0.997233253899133	-0.0332404777317569
1.5	0.00218590825525583	0.00154647530629231	1.24125962963682E-06	-2.53325012412804E-06	8.01111653333211E-07	2.51235761384741E-06	0.998029461874721	-0.0367189027345792
1.6	0.00247390557486691	0.00182180350706783	-9.32126335386407E-07	-6.41699654719082E-06	3.18690675533593E-06	-4.24389024121442E-06	0.997826139270811	-0.0403973733611584
1.7	0.00293449480806974	0.00184530507279124	3.40618643381779E-06	6.33676639629918E-07	2.23505014186648E-06	3.85348899271567E-06	0.998053020093656	-0.0432347539903444
1.8	0.00325330946350761	0.00188967079240382	-2.37814875916078E-06	2.8983797590497E-06	-1.01442991136198E-06	-3.99853653099896E-06	0.997851017047811	-0.0461356001966649
1.9	0.00350761861803529	0.00171774225167845	-3.73348207703558E-06	-1.7601865480571E-06	5.63141193335309E-06	3.02761627661756E-06	0.997729693795228	-0.0486451116803967
2	0.00335743881550678	0.00157017978268124	-6.17898570986807E-06	-5.74850490106203E-06	-2.0756049847835E-06	9.15534268533913E-06	0.996678232709522	-0.0516790858488327
2.1	0.00335161808210662	0.00183375866819456	1.1718845209877E-06	4.60472810619496E-06	4.48166698832779E-06	3.99001735137574E-06	0.996242737517714	-0.053312057424767
2.2	0.00351103522409075	0.00190288295480421	6.5611129503574E-07	9.0685572338754E-07	-3.62741826796846E-06	-1.09383252912924E-05	0.996550284706566	-0.0556234363227285
2.3	0.00360058934590545	0.00181614342820878	-2.28579427614632E-06	3.56017230896534E-06	-5.34857839520735E-07	-2.79643760638384E-06	0.996322327844878	-0.0575686186710445
2.4	0.00362266533334822	0.0016147488726906	-1.55686523519862E-06	-1.45605048541255E-06	1.28447835186745E-06	-9.98825429785482E-07	0.996276619090121	-0.0607205739797385
2.5	0.00320268241599773	0.00121382123931648	7.79008658247231E-06	4.06210295955042E-06	-2.34730738929964E-06	-7.23103610094106E-06	0.995902231631754	-0.0629757183241621
2.6	0.00263191287661493	0.00151106107407125	4.87382353435494E-07	2.11843844216791E-06	-1.46725204746621E-06	4.68875649935283E-06	0.995891805920764	-0.0658528248557265
2.7	0.00249080126360201	0.00195586696053101	-7.86785654891929E-06	5.24625825168691E-06	2.53837846917469E-06	9.72407503162058E-06	0.995467791914172	-0.068872836986037
2.8	0.00270834334245531	0.00245232710206517	-7.74273098396949E-06	7.96105748602621E-06	6.02601741603678E-06	1.99204817761922E-05	0.995477479550779	-0.0706964049623819
2.9	0.00324043197101702	0.00261977058671875	-1.18983050481326E-06	8.60600799232134E-07	-8.12216136150195E-06	-2.95978149170397E-06	0.995287394580138	-0.0725331090703459
3	0.003542391899803	0.0025962356434015	-6.1173478836051E-07	-4.47374255130044E-06	-2.18334403932137E-06	6.44191772788047E-06	0.995332252043676	-0.0748773058807333
3.1	0.00405436457053039	0.00276966976127489	-2.58923397472299E-06	9.02268817884649E-08	1.10181329706705E-05	-3.53243147184586E-06	0.995168559983828	-0.0768307666930673
3.2	0.00457980073664139	0.00259069439832081	-9.79968907096829E-06	2.55143000694467E-06	1.2165887858394E-05	4.25957765731673E-06	0.995100916517275	-0.0786383774971252
3.3	0.00494113116886681	0.00220257092490051	-3.46819669540474E-06	9.34429940529518E-07	-5.01071889827361E-06	-1.42037000536217E-07	0.994988004440984	-0.0818846606557228
3.4	0.00511240731540758	0.00172398899966388	5.34788254798811E-06	4.86671185508716E-07	1.34907233150391E-06	4.46807234973013E-07	0.995114723342358	-0.0837994190863638
3.5	0.0048097245161677	0.00119463873794723	2.77065108245664E-06	1.55848570143583E-06	1.31343326968257E-06	7.92583962112989E-07	0.995268877537274	-0.0868828185760155
3.6	0.00458757293336116	0.00132535616068896	-7.15059671670114E-06	-1.29084612914501E-07	1.8634036238574E-06	-3.49959484743658E-06	0.994807079829017	-0.0896179731911562
3.7	0.00466564198541704	0.0012597949581413	5.77734890757134E-06	-1.51566591216379E-06	-3.26032911572862E-07	-1.73274696601901E-06	0.994559107956189	-0.0923400632280269
3.8	0.00478530026763371	0.00108878164846485	-2.00235710963952E-06	8.77970603667703E-07	-5.19467610872555E-06	3.01041674767227E-07	0.994176419072664	-0.0944335572280206
3.9	0.00487597220144581	0.000715822377227242	-8.36857024046187E-06	1.78629045285205E-06	-4.12033459395095E-06	-1.49781345598498E-06	0.994067673454028	-0.0977922585823716
4	0.00442728338359522	0.000302128698418131	-5.82579172081239E-06	3.7322376793932E-07	-9.50748421161938E-06	-8.44293085223073E-06	0.992885540388802	-0.0993463672779837
4.1	0.00417074470726619	0.000651671631373817	-3.98477309924337E-06	4.06711731383006E-06	-1.87786391492478E-06	5.58165673942398E-06	0.992678311489893	-0.100200095371106
4.2	0.00433402010563604	0.000751155278476158	4.61909250738794E-06	-4.38737672312135E-06	6.75497252869089E-06	7.52182113405058E-07	0.992606379027812	-0.102673934964668
4.3	0.00450321028331498	0.000666408326055153	-3.7961218031782E-06	1.1289849676892E-06	3.5489966855138E-06	-1.2081246270146E-06	0.992663758899167	-0.104738068363341
4.4	0.00457901004430432	0.000370435218577399	-3.15097422254739E-06	-4.93387534302529E-06	9.29574964181498E-07	-1.03674202582249E-06	0.992278516347967	-0.107025584571678
4.5	0.00408035361189829	-2.39175744227246E-08	-1.39143739102562E-06	2.03028724375009E-06	2.1438829556934E-06	-8.4739784385883E-06	0.99231413875202	-0.10883307257327
4.6	0.00364907949805004	0.000383426799392133	5.39736829760416E-06	9.60163113737163E-06	-1.42106273092158E-05	9.81793924003554E-06	0.992739957183658	-0.111634968416755
4.7	0.00365325474754213	0.000603161406049217	-7.59705570337608E-06	-9.56928743146808E-06	-1.1459479924722E-06	-1.35053223440739E-07	0.992928960465815	-0.114020151378626
4.8	0.00371398930421663	0.000748657115893049	-8.74975212713701E-06	-2.69008102676643E-06	-4.3828224142626E-06	4.54645653761821E-06	0.992598978728948	-0.116837617654719
4.9	0.00395577389223071	0.000710096554648101	5.77582236345391E-06	8.32232340637671E-06	-7.26117353327046E-06	3.28156664174836E-06	0.992210986479984	-0.118835281678754
5	0.00387628989001307	0.00045789114694015	4.28606944086973E-06	-8.55043087339759E-06	-4.2951832295649E-06	-6.18760950533833E-06	0.992159545217095	-0.120468272513279
5.1	0.00422932456134438	0.000707928390315536	1.52390406153347E-05	-1.02585166754878E-05	3.4934088730527E-06	-8.73584173005808E-06	0.992374064030451	-0.122025004437475
5.2	0.00482853806763128	0.000310217057851832	-4.23767181896885E-06	-4.72125876825102E-06	-3.16728968496986E-06	5.24611953552149E-07	0.99210183567366	-0.124569008306929
5.3	0.00508523090251262	-0.000381569867929182	4.78057894572063E-06	3.37791980120022E-06	-9.30301072639848E-06	-4.75164269070485E-06	0.991682103525206	-0.12695834658238
5.4	0.00494166519628118	-0.0011548107445529	5.18323364110341E-06	1.20447011924143E-06	-4.82304108569905E-07	1.04635973970246E-05	0.991668942635041	-0.129554274778283
5.5	0.00393815315767812	-0.00157197857725164	-1.81358260008525E-06	-1.98509050532683E-06	8.89463329630283E-06	5.15944083760196E-07	0.991712156011	-0.132562066950182
5.6	0.00355033770502314	-0.000916418126928293	4.24950216284061E-06	7.23921681702431E-06	-4.63830287527708E-07	-8.62419435935564E-06	0.991331290480134	-0.135152487005248
5.7	0.00359641439488289	-0.000715077521468786	2.05813126216202E-06	-7.22455587490343E-07	5.47769574512502E-06	2.45833337766206E-06	0.991193342603921	-0.137693866684914
5.8	0.00358251285759067	-0.000690954918116508	3.91717348057035E-06	1.96350218473371E-06	2.73543807105668E-06	7.84420225625486E-06	0.991125694948372	-0.140076270044787
5.9	0.00358506665162264	-0.000866169228648082	-3.78862718215957E-06	-3.05977463995304E-06	-4.70571451368277E-06	-1.78044741054451E-06	0.990730534349149	-0.142787566860529
6	0.00276066686298881	-0.00147885566423424	-2.07661821052918E-06	1.7051896743581E-06	1.04326246696566E-05	-2.66455625429346E-06	0.988996650284167	-0.144535970009858
6.1	0.00180113034959153	-0.000825081351175295	-7.32855029871782E-06	-1.11005783671788E-06	-7.23637466594921E-07	-2.48475368466699E-06	0.989124898393847	-0.144228617278034
6.2	0.00154080307540001	-0.000348517258765484	-1.06391950808389E-06	1.98949880150778E-06	-3.48124530652453E-06	-5.36883327580791E-06	0.98968060481492	-0.145448358659607
6.3	0.0015001122413625	-0.000111751368803448	1.57716909195421E-06	2.8335913261559E-06	1.14464132772808E-06	5.97764539050748E-06	0.989824592986433	-0.147718860771852
6.4	0.0015003956075822	-0.00036319716539372	2.06852553136642E-06	5.04014027282389E-06	-3.33555913293012E-07	2.27277517597241E-07	0.989423513577411	-0.150385129734146
6.5	0.000741708889233055	-0.000529203823266157	4.67305481317929E-06	-1.87313872541182E-06	-4.69028117690173E-06	-1.55560721223014E-06	0.988927920168959	-0.15256782104356
6.6	0.000735074627059741	0.000107377933706399	3.27839811456506E-07	-1.07037524034411E-06	9.30817150834468E-06	3.35585643169585E-06	0.989888346096454	-0.155474707467609
6.7	0.000848030540480727	0.00019646360542192	5.25239026172495E-07	5.62462101756257E-06	-1.79816273305408E-06	4.98255331602392E-06	0.989713993963974	-0.15884521267005
6.8	0.000794313482174665	0.000360884975487222	1.77073680608975E-07	-1.59002354074405E-06	-3.48207062042727E-06	-5.13340614245574E-06	0.988969437303216	-0.161698488004606
6.9	0.000766681794927139	0.000346572335030029	-6.66041742196927E-06	6.73260100221315E-06	2.29244432725449E-06	1.35748543019543E-06	0.98831553371422	-0.16423640457698
7	-0.000183257509131424	0.000405535053725158	8.0960303390803E-06	3.17076655618978E-06	4.57749567826012E-06	5.87468245084977E-06	0.986911807810546	-0.166119809416174
7.1	-0.000460873636570399	0.00180493641783731	1.39842683801542E-06	7.8516160166457E-07	-2.27656044296394E-06	-4.4845689467824E-06	0.986516946379002	-0.167178297053075
7.2	-4.29697533457273E-05	0.00255958536456363	-1.37222775095793E-07	4.40537530682815E-06	-5.01979490312502E-06	-6.60784714096177E-07	0.986163161795182	-0.169007162678456
7.3	0.000314071401772335	0.0030370223301577	1.35648050678745E-06	-5.27270756523701E-06	-2.35124415804369E-06	-2.79534006299273E-06	0.985332361311555	-0.170851580465678
7.4	0.000725765422959846	0.00310449721650161	1.83858408149131E-06	4.43261672484648E-06	-7.2902119587995E-07	-1.07216671428485E-06	0.984968457881017	-0.173266689511393
7.5	0.000199177896002314	0.00256519341887739	-5.76105484249441E-06	-1.49247453365397E-06	-1.58905661838877E-06	-8.9286337839918E-06	0.984098760512253	-0.177255917747179
7.6	-0.000336505146632881	0.00340367393442811	5.63411983971099E-06	-3.40285042873635E-06	1.02941969017094E-06	3.19723848689624E-06	0.982175177158935	-0.17989945631506
7.7	-0.000223301003314551	0.00376861262159071	-6.52389388296027E-06	-2.86042898322542E-06	4.3957796123554E-06	5.67863190378487E-06	0.981877787525053	-0.18272384458251
7.8	-4.29929149265394E-05	0.00369976203512276	-1.09577458477271E-06	-5.36840175564684E-06	-2.1184084694798E-07	1.14690417379026E-06	0.981863867660159	-0.186224509165546
7.9	-4.43445868898247E-05	0.00335107551698866	-3.33714003514594E-06	7.23834787901917E-06	4.54372232886489E-07	-6.90002981955463E-06	0.981574104984216	-0.19043986203075
8	-0.000990560150447485	0.00351854690348841	-2.04741880394048E-07	7.39478327683211E-06	1.75680825581663E-06	-4.46988474858721E-06	0.978970343963111	-0.194168500589865
8.1	-0.000598057514027309	0.00479923333385531	-7.57897245984974E-07	-6.46615441227678E-06	-1.75189126760176E-06	-1.0584445464622E-06	0.977908449376396	-0.19509995105217
8.2	0.000152040955657796	0.00523707971882747	-3.82327293748968E-06	1.66223294929689E-06	-1.097799329654E-05	-2.5870396931564E-06	0.977928319389854	-0.197159641085498
8.3	0.000771879829018271	0.00544395708459507	-5.57194064332231E-06	-9.84539533583484E-06	-7.77890514775828E-06	3.03943268512403E-06	0.977348364331311	-0.19981639908525
8.4	0.00132164219678519	0.00537955754277704	6.75363012495628E-07	-6.11387044138771E-07	-1.41455457639643E-06	4.43608896654921E-07	0.976434100869792	-0.202475895874477
8.5	0.000762192912873066	0.00526631096357786	-1.75264541985981E-06	-2.54422174770449E-07	-5.16053563304058E-09	1.80343392540824E-06	0.975392762814557	-0.204865976719384
8.6	0.000892669688673439	0.00672806057947734	2.419718318682E-06	-3.97903159693944E-06	-4.57836162488091E-06	-5.91486884687931E-06	0.975149244265246	-0.207248215763495
8.7	0.00193794812505917	0.00752000358748278	-1.50413765722319E-06	-2.09049945286445E-06	-3.54857623918713E-06	3.64698637308789E-06	0.974721706252154	-0.209881306232526
8.8	0.00316441513532841	0.00789468343810137	-5.50045805127372E-06	-2.10485958303868E-06	-7.23372690011858E-06	-1.24900782872869E-06	0.974224118376743	-0.212133707691131
8.9	0.00460336533934019	0.00755658959457325	8.5581737865859E-06	4.07032568566185E-06	-1.40781442152514E-06	3.20026520567917E-06	0.974242318746408	-0.214052423677959
9	0.00507550923574864	0.00657483154780993	-4.91084166931999E-07	4.15867701380202E-06	-7.80913139132673E-06	1.24447419368539E-06	0.974276641816748	-0.216491530516516
9.1	0.00574077047454608	0.00644230274497667	-2.53848838488845E-06	6.63562635166129E-06	4.09395895414294E-06	-3.08852996311709E-06	0.973987285529123	-0.218883420801901
9.2	0.00651049852863639	0.00559106073898916	-1.16783149480083E-06	3.42310742977013E-06	-2.24773321357368E-06	-2.05063396169345E-06	0.973469558545582	-0.221631454261484
9.3	0.00674250559397265	0.00469273444272888	2.31568153089215E-06	-4.04068380968852E-06	-7.95353590249433E-07	-1.77756458886675E-06	0.972905332063321	-0.224205161189896
9.4	0.00672934129134818	0.00384346705311488	-1.79352672310118E-06	3.8960507073016E-06	-2.07139652423948E-06	-3.57508162409805E-06	0.972453864687796	-0.227073910446085
9.5	0.00582996406499735	0.00361423223184174	3.50844065525231E-06	6.29203236259302E-06	3.62934774137173E-07	-2.15174913635906E-06	0.971624381485986	-0.230722049449786
9.6	0.00601977486348515	0.00448783205116474	4.64001155781591E-06	7.06605261115331E-06	-8.19755249521909E-06	1.28252519263218E-05	0.970106016308131	-0.233631529396115
9.7	0.00672305347541	0.00460624431894038	-2.8853844208094E-06	-1.5259934839217E-06	-1.39658186075725E-06	-3.96657835388728E-06	0.969317597312045	-0.235905517322378
9.8	0.00737954946107344	0.00443370468662756	1.20724044942693E-07	-3.59604861136159E-06	3.0513050537588E-06	2.39206430603266E-06	0.969122980001602	-0.237955858906406
9.9	0.00802216245704288	0.00386045293916923	5.79729472706061E-06	-6.32276926574693E-07	-2.54712912514215E-06	6.73492885736594E-06	0.968823829327366	-0.240555777673122
10	0.00745723633671345	0.00307694050403924	-1.14158009746796E-06	-5.73937372683782E-07	1.35778168162817E-06	-1.18922419006559E-06	0.966416949824601	-0.242731386618955
10.1	0.0074668270533767	0.00378396683068168	6.9524132446655E-07	-8.40451767097108E-06	6.15146663057238E-06	3.58842576314437E-06	0.965745548263985	-0.242617566607423
10.2	0.00825579611525247	0.00387702529613383	7.49944644957469E-06	8.29506468026033E-06	5.22402621283951E-06	3.51654323039914E-06	0.965848124817788	-0.243746387293191
10.3	0.00912698626197918	0.00355592487033913	1.74086896421144E-06	-6.95053003789346E-06	1.42956652482736E-06	2.86119972890158E-06	0.965469324916376	-0.245543625952857
10.4	0.0100241510508853	0.00256258676976087	-4.02648737362393E-06	-3.62469439052952E-06	1.93930335483509E-06	-5.58981704733183E-06	0.964714957997533	-0.247749900940549
10.5	0.00962228364094106	0.00137779357085657	3.66557204671939E-07	-7.05369799585601E-06	-5.71511879842266E-06	4.07066623888336E-06	0.963923146515288	-0.249830054671084
10.6	0.00966930036280838	0.00134750497268781	5.49351137964036E-06	6.71998556582393E-06	2.4330859860873E-06	1.1890167539891E-06	0.963679748992995	-0.252744495404306
10.7	0.00991148188548761	0.00101043863747672	-7.06988657897698E-06	-1.67400685456362E-06	-7.69082386284428E-07	1.5587576377247E-06	0.962442147269807	-0.255864181438715
10.8	0.0103106517140813	0.000748967993303027	1.49192825121747E-06	4.43150994423944E-06	9.38793379240592E-06	-4.47781117190017E-06	0.96120366362715	-0.257635701116871
10.9	0.0108830405248884	5.7138613140413E-05	3.35879634410456E-07	7.40284119397102E-06	-5.15072303565492E-06	2.15223096189003E-07	0.960746887898481	-0.259356070150466
11	0.0104715056825805	-0.000839859068115005	-2.22417049399989E-06	-3.81531099212781E-06	1.20129822600802E-05	-3.55932795539835E-06	0.95994832207139	-0.261280375614445
11.1	0.0108729004386539	-0.000527661823739294	-6.10999480359372E-06	-4.92009815639477E-06	9.52873160747202E-07	5.56690753441976E-06	0.958709582924613	-0.262607022711408
11.2	0.0118592055813456	-0.00116834499132804	3.31094330158466E-06	4.29554772785145E-06	1.0577620494077E-06	-7.86426775355056E-06	0.957585741004225	-0.263798445287365
11.3	0.0128112992362626	-0.00245482692443538	7.11685517057316E-07	-2.65348254414716E-06	-4.83305608264856E-06	9.10037026685931E-06	0.957079568901611	-0.264790616768083
11.4	0.0133527426924361	-0.00431943093502317	1.47727469496625E-06	-2.19908910067852E-06	-3.00109723698086E-06	-7.43241442191336E-06	0.956889729545383	-0.266517619198298
11.5	0.0123787018104926	-0.00623917855436257	9.48062184656103E-07	-1.00968622221177E-06	-9.01756186938504E-07	-8.71557777913256E-07	0.956132704317609	-0.270132853998606
11.6	0.0120252955793397	-0.00691044389339624	1.12181706824256E-05	-3.2755682938086E-06	-5.42032759710167E-06	-6.82655779735855E-06	0.954150831559445	-0.273027243754186
11.7	0.0120665250787416	-0.00839841871870224	5.3231036331248E-06	-2.89395417451921E-06	-4.40695932252529E-06	1.64996655038725E-06	0.953290754462016	-0.275611929684008
11.8	0.0117737251327722	-0.0102782838187613	-4.49564623216294E-07	-2.54634351755171E-06	1.05698536008815E-06	1.32547279612382E-05	0.953216112860087	-0.278727623574921
11.9	0.0108969331741871	-0.0126838812128302	3.32357121656306E-06	1.98933455032535E-06	-1.62929019340165E-08	1.27315517940303E-05	0.953892793295945	-0.282142932636725
12	0.00802816012508572	-0.0145661463422092	2.00036858154547E-06	4.82192349927455E-07	-3.69282474813907E-06	-9.66767997738662E-07	0.951723560336112	-0.28598453196499
