# GHZ S RI R 50
0.2	0.000813629367206822	0.00265935764324833	4.79214986329221E-06	-2.98586424453113E-06	-1.37212691527856E-05	1.31215237727526E-05	0.999177020967367	-0.00713460623273564
0.3	0.00124621603190171	0.00187431758946602	2.86630306291858E-06	6.62469166065217E-06	-1.66470261061703E-06	-9.31890433693807E-06	0.999019478864549	-0.00997259010986798
0.4	0.00154069321505134	0.00135789885952945	-1.86277485607408E-06	-4.01484346945696E-06	-9.01308066465057E-06	4.4040924884984E-06	0.998961692129116	-0.0125892683559618
0.5	0.00151794359362045	0.000983003960260713	-5.35731199348681E-06	3.2625834141107E-06	-2.12578014490925E-06	6.75584102925467E-06	0.99872421122033	-0.015481579128445
0.6	0.00173089302167526	0.000867553557878854	-1.3947415981155E-07	2.80543310096501E-06	-5.8140030569908E-07	-1.34054621746718E-07	0.999148148890583	-0.0184576310526538
0.7	0.00187789081277596	0.000602062925725206	8.81602561532974E-08	2.21864834340748E-06	4.9020955386625E-06	-3.40146740917376E-06	0.998824916125959	-0.0217254542605066
0.8	0.00201530536965821	0.000336981315484043	4.52731399595703E-06	8.25186257456158E-07	2.74346178475923E-06	1.9996385995681E-06	0.998424523739272	-0.0241052415098642
0.9	0.00209362818769631	1.63653999750784E-05	-1.52308329612226E-07	-4.21673901184788E-06	-3.41707181662952E-06	-3.10791683949171E-06	0.998044303775359	-0.0266542467418427
1	0.00189579482453478	-0.000452893159101265	1.05977570772028E-06	4.28935868511731E-06	3.32523250238458E-06	9.32754385813924E-07	0.997307461220842	-0.0280939358301479
1.1	0.00152997060445646	-0.000495263146250966	9.03784471575746E-06	5.18263975217517E-07	-3.57609490368423E-06	-4.99079154762844E-07	0.997142092698514	-0.0295108208711781
1.2	0.00131210807972302	-0.000854917514733864	3.75885803084185E-06	-1.19865487753373E-06	-4.09415060166625E-06	-2.4368324249374E-06	0.996942685041522	-0.030202178951352
1.3	0.00079675747541323	-0.00152332122572949	-7.6109543166573E-07	-1.42647434052091E-06	-2.58460868946221E-06	-8.70416893390585E-06	0.997631624622141	-0.0307781100813928
1.4	0.00014407100057774	-0.00233961103038525	1.33284724565304E-08	3.44708994776571E-06	-4.27996285419782E-06	-4.12787194566151E-06	0.997900993697991	-0.0328247633258045
1.5	-0.000449355709341757	-0.00275940099646371	-1.29953354718269E-06	4.42873681348257E-06	6.55439064679116E-06	-7.41029541787543E-06	0.998491809229789	-0.0363383683400094
1.6	-0.000521600970659134	-0.00279126405091632	1.62952084143043E-06	-4.88283163102879E-07	4.24391899390234E-06	-5.39132279845913E-06	0.998111850840653	-0.0401635611286415
1.7	-0.000561129327604648	-0.00295430246036586	5.29576652949348E-07	3.95664269525782E-06	-8.28401646758048E-06	3.12523333461999E-06	0.998056883930561	-0.0430999383063985
1.8	-0.000675629604084771	-0.00302063270019099	1.83140121440015E-06	1.07877750612304E-06	5.65964968130666E-07	-1.76108579500576E-06	0.997666522108601	-0.0460379944945746
1.9	-0.000876688203708618	-0.00320961231603752	3.23400126801091E-06	3.01757100012476E-06	-1.8230156453051E-07	-2.32945789148891E-06	0.997173024780176	-0.0484854092437624
2	-0.00139481214091985	-0.0032467893878294	-1.7269665595927E-07	2.0022724306598E-07	-1.21564577017862E-05	5.40986631718487E-06	0.996079758138229	-0.0510292942193494
2.1	-0.00160221082177801	-0.00302854594033446	6.68135532568438E-07	-1.38101507742568E-06	1.37961685366528E-05	4.96672474708377E-06	0.996047316704983	-0.0527765254052948
2.2	-0.00179120096534614	-0.00300884005299175	1.64375608266658E-06	-1.51521278398596E-06	2.6864722603683E-06	-6.20520676722609E-06	0.996226936221619	-0.0552688042791256
2.3	-0.00208746549619424	-0.00305463959648828	-1.6853714352453E-06	-3.42493082446924E-06	-1.78819784326678E-06	-4.58897072888497E-06	0.995906058845134	-0.0571739539929285
2.4	-0.0024495091978413	-0.00318565157784054	-1.20095884638132E-06	-4.39813848802076E-06	3.043723296495E-06	1.08685319014637E-06	0.995816576677426	-0.0602308836410708
2.5	-0.0031977680345231	-0.00329190976331309	5.37751596198657E-06	5.66836260705513E-06	-2.61333011437204E-06	1.61385720230047E-05	0.99545343608578	-0.0622743068212242
2.6	-0.0038307709345168	-0.00285139826082744	-2.27651100833073E-06	2.71006292492858E-06	4.34812425129176E-07	-4.30963910140781E-06	0.995704475586244	-0.0650599307029376
2.7	-0.00410113108417977	-0.00239357504741455	-2.40486158572605E-06	-3.63548153160256E-06	2.15421329189099E-06	-2.56905127325824E-06	0.995415100792762	-0.06809119382738
2.8	-0.00416524735225101	-0.00197769916363838	3.99969554961616E-06	2.31112334730258E-06	9.82650411398737E-06	-6.86000379009948E-07	0.995619487343401	-0.070136584011964
2.9	-0.00404819998156246	-0.00173701678786699	1.28726802794231E-05	7.10792518548655E-07	2.4397334883784E-06	-1.1708757251602E-05	0.995351578122772	-0.0722465313719186
3	-0.00407219629901334	-0.0015513247691047	-3.85113726783008E-06	1.04613496060306E-06	-4.14298375739824E-06	-1.59740387930459E-06	0.995189499738491	-0.0746988823759652
3.1	-0.00379862242425174	-0.00128351868555189	4.77554047747832E-06	-9.83465616212754E-06	1.06735378903137E-05	2.40831446569757E-06	0.994981625300972	-0.0766346963175011
3.2	-0.00360401750093234	-0.00133229794278333	-5.36335898301215E-06	-7.40311589217668E-06	1.56202106217643E-05	5.38523233046378E-06	0.994833284493345	-0.0784285921152422
3.3	-0.0035385360220724	-0.00148919238787895	-8.78581792449491E-06	2.53827911381814E-06	-8.55691456473026E-06	-1.74335569189816E-06	0.994724120289299	-0.0816302136429939
3.4	-0.0036846151047236	-0.00173563024825972	9.05890196577341E-06	-7.54940004444889E-06	-7.34306033612875E-06	4.22630768097771E-06	0.994836440765378	-0.0835383144094408
3.5	-0.00418450909848532	-0.00187547633736613	3.21736945075881E-07	-5.31834911681783E-06	-4.39072636661225E-06	-8.92711454781991E-06	0.994818662777482	-0.0864282002334443
3.6	-0.00447423001101125	-0.00160852090820219	4.06529582556998E-06	4.8994454056281E-06	-7.10923437796915E-06	8.98068878266652E-06	0.994577638804	-0.0889875439218599
3.7	-0.00464747310924706	-0.00146670909128701	1.53105812452483E-06	-4.52179957881853E-06	-5.09297144870015E-06	-6.58598896706537E-06	0.994430231135187	-0.0917616577406319
3.8	-0.00480774026471843	-0.00133896915511605	7.2790988744271E-06	-5.18475670613187E-06	-5.87297595945494E-06	-2.42262978477034E-06	0.993973224375327	-0.0938785761318
3.9	-0.00492774146573012	-0.00127516188967035	-4.02647968940473E-06	-3.53981631803172E-07	-2.5300193991168E-06	1.12963447581748E-06	0.993644864804303	-0.097031052381308
4	-0.00529408329870272	-0.00115423823737269	-3.38128476231154E-06	-8.57156786755188E-08	1.19407119505349E-06	8.66389803909718E-06	0.992916605037318	-0.0979704240307517
4.1	-0.00533591923037561	-0.000740019683961757	-2.89354100366755E-06	-3.86231165716047E-06	5.8715057811323E-06	3.04376914796865E-06	0.993360174331623	-0.0992340435781853
4.2	-0.00529077185782062	-0.000618944889589115	-7.70132609652576E-07	-2.15713663765897E-06	5.69982759103539E-06	-1.83553862370836E-06	0.993215406163593	-0.102038664777674
4.3	-0.00532732596857604	-0.000586348581428762	-5.15132523743131E-07	3.23316306601429E-06	2.12638386552353E-06	1.78231619796087E-06	0.993173630752087	-0.104126503786875
4.4	-0.00556259089527869	-0.000678287800749236	2.57048587609539E-06	3.44515623637159E-06	7.17447026270097E-06	3.92205496011875E-06	0.992908016677329	-0.106402182600853
4.5	-0.0062138963509717	-0.000580420471573113	-6.47321255626266E-06	-2.41652473612617E-07	-8.57839282563255E-06	-2.12890157985466E-06	0.993146433326051	-0.108225494435517
4.6	-0.00673030574739316	-4.30947395301962E-07	-9.93734712156633E-06	-9.24785667479231E-06	3.24239943669237E-06	-2.7274466596746E-06	0.993531145833106	-0.111281435486217
4.7	-0.00697082498280376	0.000592408885568092	1.23730915528089E-07	1.86710146371788E-06	6.07555027557174E-06	-6.73243328092137E-06	0.993641270409927	-0.113696062825227
4.8	-0.00706182085621069	0.00121342845565748	-6.40368708428422E-06	2.07435688813351E-06	7.99408496811137E-07	-1.2760992771188E-05	0.993330060251299	-0.11644652998511
4.9	-0.00691168477825821	0.00170566673421558	-3.43811049939534E-06	8.14938174767288E-06	5.55159806389504E-07	9.3885554181135E-06	0.99289506044402	-0.118407625756997
5	-0.00681419975972158	0.00213622180358982	9.66005685219037E-06	-4.05945886788211E-06	-6.94871825427841E-06	3.57698145488145E-06	0.992815302285512	-0.119889512763913
5.1	-0.00622367295964024	0.00262843952059349	-3.65030617370086E-07	-3.25659182060947E-06	-3.87830404902262E-06	-1.79740468786092E-06	0.993067635811214	-0.121381472443419
5.2	-0.00558680696665435	0.00263750849249923	-1.06553722703234E-06	-4.49318305854642E-06	8.79361516354305E-06	5.59024120685579E-06	0.992913708973767	-0.123724137503375
5.3	-0.00515073506909777	0.00245116167878632	2.28402571384945E-06	6.80326945865385E-06	8.80288607201555E-06	3.1443215300955E-06	0.992745132803952	-0.126014666644198
5.4	-0.00498308902285533	0.00216488434618758	2.71311567891282E-06	-3.14361052573707E-06	-2.67855567050886E-06	1.51330311203402E-07	0.992923577612904	-0.128745359507591
5.5	-0.00532698417222351	0.00222009388888927	2.10415653256117E-06	9.33697403508342E-06	-3.92513783101601E-06	-5.04632990666018E-06	0.992997176510942	-0.131678679484362
5.6	-0.0051777599585976	0.00267926596349708	-5.86511523425294E-06	-1.13934611962727E-06	4.87980435446248E-06	1.95046977571643E-06	0.993024928276746	-0.134413732318804
5.7	-0.00498087802350354	0.00284291926172069	3.3437180968247E-06	-1.42361273192802E-06	-5.05461664817053E-06	-4.30334697480415E-06	0.992902209312341	-0.137347941318568
5.8	-0.00481479354509731	0.00289313131969294	-2.05613360038948E-06	-4.75559085934733E-06	9.48363463226028E-07	-5.82830686650363E-07	0.99257349751224	-0.140063748469948
5.9	-0.00476245767064259	0.00273150914837672	-3.88492229363976E-06	6.20298206353429E-07	3.86799815321587E-06	1.2511409215749E-06	0.991706351112361	-0.142813903906051
6	-0.00542771382709259	0.00246288544397194	-5.94140763253631E-06	5.0496283243156E-06	-1.4858748098007E-06	1.96248194003228E-07	0.990220245513214	-0.143974120927637
6.1	-0.00610631371898162	0.00293717944773124	-5.93029616805156E-06	-4.70631852708911E-06	-4.0106396101724E-06	4.29910696244394E-07	0.990484019541253	-0.144532071222156
6.2	-0.00656024294989815	0.00346235240291514	2.82090320748682E-06	3.13193817283492E-06	1.05334870564923E-06	7.24676800528979E-07	0.990454872104484	-0.145915643111937
6.3	-0.00666221558886654	0.00409738741546158	1.64445841416195E-06	-7.47636183727127E-07	-1.34873442389027E-07	1.37744187503555E-06	0.990264961639151	-0.147835760997232
6.4	-0.00656618022165549	0.00444573485955438	-5.1867373553565E-06	-5.6345276871156E-06	3.81473341600492E-06	6.92407770843491E-06	0.989972411875345	-0.149950279052202
6.5	-0.0065837783717891	0.00489789154012413	9.08768957943377E-06	-2.37332525488418E-07	-7.33868007664778E-06	-9.0922101855397E-07	0.990386222262842	-0.152359117211024
6.6	-0.00600700742843417	0.00540166619486903	-1.49282217634197E-06	4.66283241305916E-07	3.39151480457151E-06	-9.402779438962E-06	0.990950356452121	-0.155968442207007
6.7	-0.00549852893971566	0.00554252924379118	4.32312450906388E-08	7.77249318924313E-06	-4.91809563714217E-07	-6.1027287936385E-06	0.990467937782142	-0.159187526634497
6.8	-0.00513617298453065	0.00562586393294833	4.25873013353426E-06	1.66273851214656E-06	2.16681744274834E-07	-5.24967788758269E-06	0.98977205352245	-0.162028211328099
6.9	-0.00497225430247129	0.00559995527411607	-7.57515814954849E-07	2.48583569300466E-07	5.77536337576317E-06	-2.68807758635844E-06	0.988970610850646	-0.16453463413685
7	-0.00527867592481375	0.00597014173762487	8.04111753779525E-06	-4.77190103679486E-06	4.35033108328461E-07	-3.02826021826176E-06	0.987907523320013	-0.166138948252403
7.1	-0.00493844775500116	0.00677265120480444	3.85647457098939E-06	2.04711478573332E-06	7.77776117726478E-07	7.24744970460672E-06	0.987816780339529	-0.167747669641174
7.2	-0.0043919937700701	0.00717599469884525	-2.45380517069015E-06	3.70209521728213E-06	-1.33720973442953E-06	-3.83704483163878E-06	0.987407634129519	-0.169890016814234
7.3	-0.00387951792035697	0.00736011124363327	3.44945561667892E-06	-4.96355515676346E-07	-2.45761271419704E-06	-1.92243753619095E-06	0.986508198075603	-0.172072950563929
7.4	-0.00349362700594405	0.00712497511067362	-6.21089383530294E-06	-2.70517060582461E-06	3.78322161783305E-06	2.45916174865833E-07	0.985738054314859	-0.17498938493078
7.5	-0.00389184584394268	0.0066702416929063	6.77108359769438E-06	-6.46656507179487E-06	-2.48620883556767E-06	8.0594429616313E-07	0.984115205962048	-0.178299950493117
7.6	-0.00426905299600135	0.00693656148811878	3.50093882416691E-06	5.21587121752773E-06	-1.02683619891113E-05	4.95438316150368E-06	0.982842438173635	-0.181130361027221
7.7	-0.0046273191895717	0.00707785773230738	6.06087251479087E-06	1.09631735781718E-05	3.17872554390389E-07	-1.13929682173321E-05	0.981980233210585	-0.18447998008032
7.8	-0.00471891922702215	0.00732083944251626	2.16378967426233E-06	9.82637512896049E-07	-3.09816103877359E-06	8.8507811793151E-06	0.981167616115774	-0.187626289112183
7.9	-0.00464994894434255	0.00745585171753855	2.55325287632865E-06	-2.3252139365124E-06	3.69740642977874E-06	3.34729656144933E-07	0.980405417127413	-0.190719572832351
8	-0.00463190846561919	0.00792802696753953	-2.81418559654458E-06	1.33890783042385E-06	6.88395625543028E-06	-1.87970543438194E-06	0.979378631384098	-0.192979332326251
8.1	-0.00385144240240727	0.00841882930724358	-1.79161290439368E-06	7.61054060081242E-07	-3.71623456446308E-06	-1.24579065178193E-06	0.979499193825533	-0.195233069150253
8.2	-0.00317211529453111	0.00838412074831408	-7.7769184991757E-07	6.34204520046761E-06	4.89251227956036E-06	4.34469755105096E-06	0.979342098315616	-0.197968451870374
8.3	-0.00268469444929398	0.00824472571455198	-8.96585299122765E-07	-1.42193786356999E-05	6.84525015619352E-06	5.41025559736006E-06	0.978628166897884	-0.200995161298967
8.4	-0.00245557673752611	0.00802422443234319	3.75163277022045E-06	-3.44020620505612E-06	-6.97679603111467E-06	-1.19990243880947E-06	0.977629137052975	-0.203788658227417
8.5	-0.00277794899716176	0.0081744280993706	4.67823012308125E-06	5.74537861271846E-07	8.4017074885037E-06	-6.85837461967669E-06	0.976795846367614	-0.206435959282128
8.6	-0.00244549749921647	0.00893632386985494	-3.25709167304335E-06	4.12943848803204E-06	1.0449918997894E-06	1.10990353128327E-05	0.97621167114716	-0.209296679359757
8.7	-0.00172798966350961	0.00928304260759744	2.67683418547365E-06	-2.00943732026309E-06	4.76724665737956E-07	-5.55662914612409E-07	0.975546715209637	-0.212088366000573
8.8	-0.000869898799646971	0.00935353651147678	1.17088201061392E-07	-1.2534399011322E-06	-9.33545900445636E-07	9.77087356952888E-06	0.974787631924762	-0.21452652186769
8.9	-8.2186135990453E-06	0.00887567414604847	-3.65274706743068E-06	2.30638592057788E-06	4.82376313888948E-06	-1.82174318915301E-06	0.974446420624698	-0.216741654567307
9	0.00020061620246104	0.00817058729679776	-1.88655489170746E-06	5.04154320911927E-07	-3.24601474451084E-06	-1.05145432483354E-05	0.973857936134484	-0.219380256885231
9.1	0.000507090483184037	0.00771541381764819	5.24575365672993E-06	5.69881672107052E-07	9.12917233455033E-07	3.77968858356117E-07	0.972882051175746	-0.221613050096918
9.2	0.000607360000318901	0.0071094924505062	-8.72309124250645E-06	-4.54122236336994E-06	-8.99765523300279E-07	-6.11449250705989E-06	0.971867699187745	-0.223931463914395
9.3	0.000511539110141791	0.00666478445677919	2.0554354467813E-07	6.20556938729987E-06	4.6255093035616E-06	-2.20374008600744E-06	0.971171805612088	-0.226103279465496
9.4	0.000281871494666341	0.00623391547294457	-1.91085520368374E-06	5.88211645748618E-06	-1.04707919269626E-05	7.75904244892593E-06	0.970374350157778	-0.22888145234327
9.5	-0.000324367953564118	0.00642257986382926	3.16343589301723E-06	-7.56789588155829E-06	3.67234022848219E-06	-2.74844351673282E-06	0.969195274343724	-0.231580885380208
9.6	-0.000251464316398385	0.0069449253521679	4.50915287805728E-06	5.56039323204539E-06	-6.22504111191947E-07	7.06705358906881E-06	0.968211772895745	-0.234143454583832
9.7	-8.52666580625259E-06	0.00715643893562297	-2.61254106678177E-06	-3.92848174388009E-06	3.67039609256014E-06	-7.52595152446646E-06	0.967394589970691	-0.236428696996584
9.8	0.000208101671729232	0.00722530385536819	-5.34991840467241E-07	-4.20964040208244E-06	6.27255554996266E-06	8.72722562429021E-07	0.966977779772125	-0.238366618885617
9.9	0.000331115631245635	0.00710087021159585	-2.68724319882265E-06	-5.86964241393205E-07	-8.4807592429343E-06	5.50343689069899E-06	0.966225308043837	-0.24019545690027
10	-0.000129765419627134	0.00716936559901924	4.24531210424854E-07	-1.7493850019996E-06	-3.0949292345505E-06	-7.95103485761659E-06	0.965364148359096	-0.241240071250066
10.1	-5.40637893941041E-05	0.00777814594564771	2.24804723922033E-06	4.75995739322369E-06	-3.08382631278703E-06	9.83814419712138E-06	0.965199403017615	-0.242594716707563
10.2	0.000289207994415121	0.00805096043901905	-5.38351148557178E-07	-1.04662960552046E-06	-1.21176387652432E-06	-3.11090088551253E-06	0.964631880803357	-0.243984759326754
10.3	0.000680798104232939	0.00816417196191212	1.12893177725375E-05	-2.93923960170418E-06	1.00383999548883E-05	-4.84861224408012E-06	0.963889392530187	-0.245482559282142
10.4	0.00100076872322327	0.00793518506584952	-6.2594863156445E-07	2.14589991639057E-06	3.02575566736055E-06	-2.18524049213125E-06	0.963096857890053	-0.247018248846931
10.5	0.00070680438560463	0.00793084049978146	-6.10512571426517E-06	4.64420466317656E-06	1.57275271021397E-06	4.30352421336278E-06	0.96299131353922	-0.249031314464264
10.6	0.000817427652100265	0.00835922215299742	-7.09197870536652E-06	1.06919334656368E-05	7.03004043642691E-06	4.26129384561822E-06	0.962647792014291	-0.25196905945273
10.7	0.00106297703828448	0.00876879149713396	-3.21225111485512E-06	1.57084036984251E-06	-5.36327862595547E-06	3.1766968430144E-06	0.961778043486711	-0.254866488242712
10.8	0.00153593222694835	0.00918761850594988	-1.92048486708731E-06	4.99291237797115E-06	8.46479675879975E-07	-3.20361382851104E-06	0.960865413281118	-0.256998803166662
10.9	0.00200282725117657	0.00934946792168947	-5.76385795597125E-06	-1.05143662574491E-05	4.94569720915741E-06	1.06942958836753E-05	0.960228125631897	-0.258983315268508
11	0.00219972162807114	0.00973224351688092	2.96767992946785E-06	2.60907649539641E-06	7.71552335558919E-07	-1.12289752298984E-05	0.959430613291453	-0.260903213615415
11.1	0.00312497544967509	0.010377921813227	3.85536811442719E-06	1.45198471465596E-06	2.47261099555908E-07	-7.36605251983695E-06	0.958154293363075	-0.262499785795442
11.2	0.00432320702282767	0.0104195773654952	-4.41232855252559E-06	-1.96569442820112E-06	-7.31795179631511E-06	-4.83949458140462E-06	0.956889973490729	-0.263838506726872
11.3	0.00559056070744254	0.00994213312755934	6.59386471697721E-07	-6.37176179381005E-06	3.76943549741285E-06	1.4123102778778E-05	0.956205721015879	-0.264985467346778
11.4	0.00643860892061729	0.00900411361066863	-5.11044659088402E-06	8.13486386324216E-06	-1.45652999654001E-06	4.07272618125233E-06	0.955368158880601	-0.266859950675373
11.5	0.00650305886084186	0.00824627410192909	4.51841940200362E-06	8.08121233374774E-06	-9.27508546775195E-06	1.5799991319301E-06	0.954435583057003	-0.269232049133802
11.6	0.00700538088295866	0.00772138507218258	-3.83588481850421E-06	1.39843307370718E-06	5.069913404252E-06	8.12426984256336E-06	0.9533640959822	-0.272270413447065
11.7	0.00742070415980357	0.00675484984514843	2.24312555293338E-06	1.05124303085938E-05	5.40618498711518E-07	-3.64332109374225E-06	0.952289708846079	-0.275422321978529
11.8	0.00755801210779336	0.00567549030194443	1.42632964423213E-06	4.45438002167866E-06	2.24605707418704E-06	4.52832126485098E-06	0.951413062958694	-0.2785775437184
11.9	0.00740244717290033	0.00439633462138021	7.43209942812502E-06	1.05447236918141E-05	3.87483841026574E-06	4.03460357581353E-07	0.951406210846374	-0.281091607195667
12	0.00614372840319037	0.00387376771953615	2.34824913457523E-06	-5.14176345692679E-06	-4.03416247292069E-07	1.7465989388875E-06	0.950877208856257	-0.283425253477202
