# GHZ S RI R 50
0.2	0.00101609553918295	0.00275641029175604	4.78795256693877E-06	-2.98629917102963E-06	-1.37071548149721E-05	1.31200706287913E-05	0.999005263620407	-0.0073001593633781
0.3	0.00138105944170923	0.00181733050623675	2.86703813056932E-06	6.61949191016531E-06	-1.66720600896716E-06	-9.31248831786654E-06	0.998752344438419	-0.0102263367235638
0.4	0.00163810152727369	0.00114029279257934	-1.86259165709821E-06	-4.01119582651363E-06	-9.00482317282784E-06	4.40351117175795E-06	0.998459365281052	-0.0129873714270514
0.5	0.00134959759277575	0.000725449177797945	-5.35347992773263E-06	3.26012953201767E-06	-2.12434894054725E-06	6.75090649916768E-06	0.997699262169584	-0.0155999669949399
0.6	0.00168522468424844	0.000796562900506812	-1.38975230468202E-07	2.80405798454149E-06	-5.81131423533341E-07	-1.33898882412526E-07	0.998269974252405	-0.0181538533364039
0.7	0.00192750603932808	0.000398550445322496	8.86594717489234E-08	2.21719957452004E-06	4.89809102149306E-06	-3.40050840266982E-06	0.998023441817849	-0.021299624086098
0.8	0.00205394883124513	2.57536505617423E-05	4.52396954670413E-06	8.23573583012409E-07	2.74175668697262E-06	1.99749494940966E-06	0.997731724308036	-0.0235322598925048
0.9	0.00215496220119562	-0.00042378411859335	-1.52730753843889E-07	-4.21280892601918E-06	-3.41431896393607E-06	-3.10457845017951E-06	0.997640056898305	-0.0261143853251303
1	0.00170506623277401	-0.00119013418427235	1.05802188816832E-06	4.28505689560836E-06	3.32163128823493E-06	9.32288783625243E-07	0.996820966451421	-0.0281032647004375
1.1	0.00113102272428414	-0.000951669580410568	9.02996981790347E-06	5.19751172236834E-07	-3.57291609966465E-06	-4.9941503344959E-07	0.996219323326724	-0.0295799195691794
1.2	0.00105639049534399	-0.00136655079376841	3.75534393077283E-06	-1.19711570677027E-06	-4.08994477310617E-06	-2.43488954410227E-06	0.995662508435319	-0.0304966328501025
1.3	0.000508502609696813	-0.00223030391384528	-7.60151904831274E-07	-1.42492295081055E-06	-2.58116068247591E-06	-8.69457242555941E-06	0.995753397785934	-0.0311732709082492
1.4	-0.000223481223944328	-0.00318031401081385	1.32498380810807E-08	3.44333908290557E-06	-4.27522861589504E-06	-4.12345963320876E-06	0.995748441890795	-0.0330446733404914
1.5	-0.00105389567789804	-0.00349548710534752	-1.2974814004447E-06	4.42478224907233E-06	6.54680764108531E-06	-7.4044905372337E-06	0.995971892622297	-0.0363208430994113
1.6	-0.000894578692949036	-0.0033002503105561	1.62767865901333E-06	-4.88210399607934E-07	4.23800945483601E-06	-5.38680915641027E-06	0.995765996199164	-0.0392860167157818
1.7	-0.000868706149129106	-0.00350397423922485	5.29438347220999E-07	3.9522310351286E-06	-8.27455339263753E-06	3.12272571125217E-06	0.996181888862943	-0.0418398763908875
1.8	-0.00095564293537087	-0.00354490964063286	1.8294704932403E-06	1.07773963421777E-06	5.65452712969889E-07	-1.75924819891638E-06	0.996232075402956	-0.044671732162855
1.9	-0.00111124523629403	-0.00378664527572197	3.23102913349664E-06	3.01466033106328E-06	-1.8218308236484E-07	-2.32726353453382E-06	0.996051306461028	-0.0475166925791157
2	-0.00185999202450197	-0.00379840083899073	-1.72419348785852E-07	1.99937418260348E-07	-1.2137617293771E-05	5.40262196853261E-06	0.993852615714294	-0.0504425503967591
2.1	-0.00184947265778203	-0.00330375716568412	6.68143451836218E-07	-1.3784422157487E-06	1.37717212907827E-05	4.96937832670041E-06	0.993638361368141	-0.0508142977072846
2.2	-0.00186452107828102	-0.00341492518873964	1.64315128161374E-06	-1.51194466213424E-06	2.68880808413483E-06	-6.19542921907076E-06	0.994361485167537	-0.0528928051964023
2.3	-0.00213675775846225	-0.00357080084406814	-1.68036495692462E-06	-3.42265171710218E-06	-1.78201374708905E-06	-4.58548783159375E-06	0.994432918978026	-0.0546713884886225
2.4	-0.00247295797750412	-0.00381834170057329	-1.19509982128721E-06	-4.39398940090236E-06	3.0389339546119E-06	1.08857482761659E-06	0.994700338548989	-0.0578747361465619
2.5	-0.00346189934842442	-0.0040905707551221	5.36322341322978E-06	5.66921584089777E-06	-2.63287707500225E-06	1.61158678882581E-05	0.994147496356086	-0.0603017362907739
2.6	-0.00413352369949596	-0.00336121215797485	-2.27833203024439E-06	2.70441300127765E-06	4.40547611247058E-07	-4.30517989827195E-06	0.994105672206542	-0.0629255906164397
2.7	-0.00425810408858112	-0.00287653678079029	-2.39736246164953E-06	-3.63569512356345E-06	2.15601235724625E-06	-2.56356850923228E-06	0.993629175364315	-0.065720860775287
2.8	-0.00418881844518991	-0.0024947482421817	3.99213361452238E-06	2.3157858222515E-06	9.81869961425728E-06	-6.68738944483997E-07	0.993837185847976	-0.0673469444555212
2.9	-0.00395029198807498	-0.00242291010834101	1.2861075851831E-05	7.37065502473745E-07	2.46222077213718E-06	-1.16944642910932E-05	0.993867270344853	-0.069181244300452
3	-0.00413360240081466	-0.00236100353339196	-3.85284457868674E-06	1.03673477291953E-06	-4.13832571251495E-06	-1.60695927658131E-06	0.993870785437242	-0.0716400097562778
3.1	-0.00370365508833179	-0.00204328188375733	4.79727413136093E-06	-9.82494529100642E-06	1.06690368289485E-05	2.43170960475999E-06	0.993738424080062	-0.0733228403921971
3.2	-0.00348571622167531	-0.00230559627439057	-5.34819497494075E-06	-7.4163036218044E-06	1.56114655880071E-05	5.42048522085501E-06	0.99384284783023	-0.074903271741967
3.3	-0.00350358398064352	-0.00259580516586205	-8.79492219196628E-06	2.51946627142792E-06	-8.55628565586786E-06	-1.76330323883345E-06	0.994119547198558	-0.0779618522852995
3.4	-0.00372860229355011	-0.00297065663049032	9.08346616676804E-06	-7.53414181373397E-06	-7.35856533728338E-06	4.21247822412449E-06	0.994846477911679	-0.0800058477158563
3.5	-0.00455349272977193	-0.00315929247497122	3.31350464865922E-07	-5.32467110659363E-06	-4.38096672805518E-06	-8.94625347528312E-06	0.994808397093687	-0.0837977154247579
3.6	-0.00477919973058362	-0.00265081175674622	4.06169039472565E-06	4.90911759023606E-06	-7.12760189533683E-06	8.97794594879589E-06	0.993983517113186	-0.0859229786426813
3.7	-0.00490709215243058	-0.00262180273012795	1.5395216891822E-06	-4.52299605033983E-06	-5.08654627531011E-06	-6.59943979659533E-06	0.994380052191543	-0.0882827071592197
3.8	-0.0051571559691533	-0.00256878621748124	7.2950270185152E-06	-5.17831328292013E-06	-5.87511738859294E-06	-2.43465501708397E-06	0.994711086441395	-0.0905777778196422
3.9	-0.00539377812097632	-0.00257085084451303	-4.03106707028244E-06	-3.59799045853953E-07	-2.53470593021918E-06	1.1276781364117E-06	0.99504052424701	-0.0947413382548816
4	-0.00614556284806248	-0.00236105157631972	-3.38336629132375E-06	-8.95371413518432E-08	1.18518962150915E-06	8.67080622499935E-06	0.993045069505702	-0.0968584685254406
4.1	-0.00607827445756005	-0.00149452994418484	-2.88863212922949E-06	-3.87065095937052E-06	5.8704135132665E-06	3.05698529365894E-06	0.992934127527444	-0.0970514575367277
4.2	-0.00583498602618678	-0.00129152963722969	-7.67146959795413E-07	-2.16104121700483E-06	5.70978564664049E-06	-1.82741688201051E-06	0.993129978303874	-0.0995802944690008
4.3	-0.00572848116263612	-0.00120126128155271	-5.20892957211398E-07	3.23634593353456E-06	2.12618976754652E-06	1.78789023024483E-06	0.993315428730384	-0.10169984330123
4.4	-0.00577304074351303	-0.0013055756928721	2.56806852347294E-06	3.45224133550754E-06	7.17590184122977E-06	3.93622303313538E-06	0.993068810150381	-0.104228640515022
4.5	-0.00649197982662032	-0.00123804302432226	-6.47881441027102E-06	-2.54239055883067E-07	-8.58236294726233E-06	-2.14727561781807E-06	0.992891858445266	-0.105951551100343
4.6	-0.00664641454659456	-0.000411674148258466	-9.93576136708877E-06	-9.27696001743991E-06	3.25135556426988E-06	-2.72585018345144E-06	0.993459655172106	-0.108715151605423
4.7	-0.00653365635842972	-7.34846700592628E-05	1.21283356157207E-07	1.86966932662581E-06	6.09274187779674E-06	-6.7325889034226E-06	0.993713453034361	-0.111088048496299
4.8	-0.00650113688797495	0.000235506682230964	-6.4139775028162E-06	2.06818063898971E-06	8.17495822543484E-07	-1.27748690022476E-05	0.993601651852194	-0.113758908247744
4.9	-0.00633173694478508	0.000382973966850753	-3.45450405402641E-06	8.15355836876195E-06	5.41491883337669E-07	9.40025020841506E-06	0.993612803166892	-0.115770605892779
5	-0.00656218050613221	0.000591833633323396	9.68434104262805E-06	-4.05102152899949E-06	-6.96726393312483E-06	3.57211088186833E-06	0.993872952452579	-0.117789715373324
5.1	-0.00588450222969305	0.00112172661884364	-3.62550084520477E-07	-3.26351679662875E-06	-3.88434652981869E-06	-1.80485816584116E-06	0.994112849548251	-0.119555125337511
5.2	-0.00532256831351041	0.000836737747321701	-1.06407397063122E-06	-4.50272545951901E-06	8.80626415414813E-06	5.60797687576916E-06	0.994226842143274	-0.122174417966
5.3	-0.00513067115809792	0.000499631239341546	2.28363991144062E-06	6.81855681998065E-06	8.81822038721458E-06	3.15703431833749E-06	0.9942838788702	-0.124972663811132
5.4	-0.00519573067130308	0.000139903094290944	2.72184826472066E-06	-3.14911385806894E-06	-2.68503334532083E-06	1.49745122745816E-07	0.994641577071852	-0.128390462526532
5.5	-0.00603214318365909	0.00036437205183702	2.11243537424948E-06	9.36456642462659E-06	-3.93798299599328E-06	-5.06065713336169E-06	0.994055495980761	-0.132515228428299
5.6	-0.00562839537429576	0.00121388088811916	-5.87900058420798E-06	-1.13694129153412E-06	4.89219743708734E-06	1.95067912440274E-06	0.993056401251161	-0.134738135025456
5.7	-0.00537629871647707	0.00122354032802814	3.34945492088744E-06	-1.42886143091104E-06	-5.06787516960206E-06	-4.3084408200238E-06	0.993191884257158	-0.13719477596051
5.8	-0.00538622115113575	0.00128748735447162	-2.06429975691657E-06	-4.76440452368842E-06	9.4998775881853E-07	-5.84837080951599E-07	0.993493928828192	-0.139977601939155
5.9	-0.00542512488401588	0.00126368618774427	-3.89327811757283E-06	6.26722811260107E-07	3.87870532519419E-06	1.24914489490565E-06	0.993337904734453	-0.143837798685682
6	-0.00645051058219136	0.00118581324115556	-5.94291997902787E-06	5.06566353266701E-06	-1.48779041655901E-06	1.98680278730764E-07	0.99020302167185	-0.146433781547652
6.1	-0.00678097574727692	0.00247295142139507	-5.9453951301553E-06	-4.71117672015059E-06	-4.01818794552996E-06	4.33710104341823E-07	0.989919498142566	-0.145870415974418
6.2	-0.00654080315938039	0.00301636502882803	2.83131342313193E-06	3.13620924367209E-06	1.05672131604456E-06	7.25201512555924E-07	0.990097535664585	-0.147318581337593
6.3	-0.00619744957276119	0.00332801596660672	1.64695911245112E-06	-7.52114252288116E-07	-1.32862533272164E-07	1.3808180428281E-06	0.989743349013342	-0.149468904568287
6.4	-0.00592824151916487	0.00310366307476736	-5.20645279216966E-06	-5.63304746820473E-06	3.83486311513538E-06	6.9274407537937E-06	0.988899634538779	-0.15190694112159
6.5	-0.00634293095298136	0.00327515783542199	9.0984776379327E-06	-2.48448346078021E-07	-7.34870341316942E-06	-9.01585649441009E-07	0.988366222841792	-0.153169096061833
6.6	-0.00558048572956369	0.00365096410609407	-1.49483220355417E-06	4.69531527298628E-07	3.38273740315191E-06	-9.42556126017055E-06	0.990099165980268	-0.156193504895825
6.7	-0.00531599358501298	0.00343750588909432	5.95900367939247E-08	7.78411746260073E-06	-5.05344104178311E-07	-6.11089599185216E-06	0.989985237704297	-0.15972533618866
6.8	-0.00520496346164573	0.00351132194223186	4.26706045807943E-06	1.65513937379544E-06	2.05311332316649E-07	-5.25589384704283E-06	0.989518712190635	-0.16269639349778
6.9	-0.00509713755752339	0.00341173114758104	-7.57616823776786E-07	2.50282659685379E-07	5.77455932567592E-06	-2.70165388079356E-06	0.989075414203084	-0.165662693891458
7	-0.00590167505061153	0.00384875956485113	8.04193876297367E-06	-4.79090950397036E-06	4.30358918845233E-07	-3.0323717070834E-06	0.987249991097625	-0.167905163000226
7.1	-0.0052095072199535	0.0050282414078632	3.86591758825868E-06	2.04121142275078E-06	7.94773451532915E-07	7.25498269986641E-06	0.986840303327237	-0.16877502116439
7.2	-0.00459514285859881	0.0051124089138728	-2.44688008094841E-06	3.71181245539957E-06	-1.34812110199799E-06	-3.83738269728109E-06	0.986687343158574	-0.170512546081865
7.3	-0.00436977066355675	0.00517299956156211	3.45037724801312E-06	-5.05555596123072E-07	-2.46413100823961E-06	-1.91733439333015E-06	0.986275635368794	-0.172289976592994
7.4	-0.00425100663415736	0.004995560438059	-6.22222498036754E-06	-2.69103671412577E-06	3.78650589102856E-06	2.36325018808881E-07	0.986862086625387	-0.175210040665686
7.5	-0.00526595178287827	0.00478674445053232	6.74987305095042E-06	-6.49667971895158E-06	-2.48452300055979E-06	8.16087184482425E-07	0.985569638184865	-0.180916228250313
7.6	-0.00531396579615725	0.00606596924044987	3.51633216342475E-06	5.19612204211331E-06	-1.02368202449528E-05	4.98709967360359E-06	0.982847529718436	-0.183364920546594
7.7	-0.00498212116731935	0.00633417192016816	6.08424924883086E-06	1.09266318783185E-05	2.82662272893974E-07	-1.13751373790682E-05	0.982350903472971	-0.186463399326311
7.8	-0.00455474553750004	0.00629724459985828	2.16317813827885E-06	9.7533532504771E-07	-3.06967840850664E-06	8.84580041871541E-06	0.981912914165365	-0.190267205073621
7.9	-0.0041768938710865	0.0059180197742057	2.54338796262201E-06	-2.32970346073174E-06	3.69379941538482E-06	3.23650160173342E-07	0.98080749066551	-0.194931992999171
8	-0.00460558122608309	0.00615079373469085	-2.80265859167682E-06	1.34427203035698E-06	6.86014584557611E-06	-1.89645610219983E-06	0.976272501012479	-0.197760386646769
8.1	-0.00336495805054124	0.00653119735642163	-1.78591639682294E-06	7.61693296384674E-07	-3.708503919634E-06	-1.23721980118932E-06	0.976024370122548	-0.197266597297921
8.2	-0.00279086071243924	0.0060364459565114	-7.69017607338341E-07	6.33065622434185E-06	4.88795990878439E-06	4.33076195922387E-06	0.976382542813585	-0.199339762448716
8.3	-0.00252407487607229	0.0057261175851891	-9.1194168883225E-07	-1.41927840027594E-05	6.83941764578513E-06	5.39237637490362E-06	0.975806896033411	-0.202086798525475
8.4	-0.00239468491147817	0.00533061797932517	3.73946987337235E-06	-3.43670546482966E-06	-6.96259554797187E-06	-1.18950085323377E-06	0.974688886039431	-0.204675322837933
8.5	-0.00329320084576258	0.00543279831000493	4.66826382025656E-06	5.72997420191387E-07	8.3832830271807E-06	-6.84426760658637E-06	0.973674959684612	-0.20650921929546
8.6	-0.00273642165988214	0.00653925993197494	-3.25119107867204E-06	4.12372163084455E-06	1.04567951166281E-06	1.10816340878827E-05	0.973789392632991	-0.208957688913128
8.7	-0.00204120747938642	0.00657068162341618	2.67203721589766E-06	-2.00671962558657E-06	4.75828616466376E-07	-5.54855791277824E-07	0.973412794225261	-0.211738385120546
8.8	-0.00155559722919833	0.0065406790721359	1.16975275664057E-07	-1.25127508494919E-06	-9.32629807744741E-07	9.75399682276328E-06	0.972806897714112	-0.214046126498119
8.9	-0.00102313558201343	0.00619157661373814	-3.64835316887672E-06	2.29961961638392E-06	4.81700421958431E-06	-1.81488398794594E-06	0.972615358869976	-0.216050607267055
9	-0.00132838774511457	0.00587917086089459	-1.88637225158604E-06	5.01251481950531E-07	-3.22962923222398E-06	-1.05141411682463E-05	0.972177520260504	-0.218456405340813
9.1	-0.000611506113424804	0.00616370989179164	5.24484007365571E-06	5.73170951523069E-07	9.1258025561392E-07	3.78512073237899E-07	0.971419549683929	-0.220392284339889
9.2	-5.20403701404935E-05	0.00556399837159058	-8.71761647693088E-06	-4.54458116550384E-06	-8.96038961865167E-07	-6.11294143596154E-06	0.970631167950591	-0.222526018630276
9.3	0.000131858101455014	0.0050368691210082	2.0100977189794E-07	6.20324119770033E-06	4.62524493486791E-06	-2.19954266395354E-06	0.970226758388784	-0.224444025995605
9.4	0.000174576275698074	0.0043951716544732	-1.91570313911775E-06	5.8805031075907E-06	-1.04771397752685E-05	7.75034660713437E-06	0.970173388029147	-0.227192132372063
9.5	-0.00054058214182053	0.00455246624056363	3.16087251599371E-06	-7.57212899364187E-06	3.67230669589165E-06	-2.75121073048692E-06	0.968931863647721	-0.230964772331784
9.6	9.87671196774669E-05	0.00497936271260271	4.50897876303151E-06	5.55010113882718E-06	-6.15533560407185E-07	7.05960593540764E-06	0.967549401576129	-0.233018462919623
9.7	0.00034757227348904	0.00461310944214461	-2.60998559332174E-06	-3.92125934094996E-06	3.66163097851048E-06	-7.51555671150204E-06	0.967279442992062	-0.235163556359867
9.8	0.000273222426911469	0.00441045476386298	-5.35186622413704E-07	-4.20318489381949E-06	6.26333285734315E-06	8.69921915192385E-07	0.967425104694327	-0.237550037896217
9.9	0.000152640728160497	0.0042020898742093	-2.68386965751307E-06	-5.84002015914313E-07	-8.46429844243305E-06	5.50228104172607E-06	0.966533674691345	-0.240817110356342
10	-0.000894383366800035	0.00438474041984034	4.21875467655748E-07	-1.74450537612742E-06	-3.09201620271402E-06	-7.92486523867846E-06	0.962631445666221	-0.241415012923533
10.1	-0.000558733668523861	0.00547990332448588	2.2393712113208E-06	4.74854993988517E-06	-3.081170346944E-06	9.81020008218114E-06	0.963613743194542	-0.240071796254012
10.2	-0.000108796393431428	0.0056510552123825	-5.36608343178698E-07	-1.04459940345146E-06	-1.20744252357275E-06	-3.10466152993871E-06	0.964396012217087	-0.241693793237274
10.3	0.000229323620709124	0.00581008368048754	1.12639455569083E-05	-2.92938004274245E-06	1.00164424024162E-05	-4.83466492485102E-06	0.964023768297309	-0.243973718463494
10.4	0.00062432944653383	0.00562927293979696	-6.24410887712048E-07	2.13913646504966E-06	3.01679236922418E-06	-2.17790674178603E-06	0.962565311166685	-0.246483847198409
10.5	0.000145795864873717	0.00582127329651181	-6.09105507237107E-06	4.61961309846063E-06	1.56120278705064E-06	4.29115475323013E-06	0.961070138416676	-0.247704853396861
10.6	0.000866574818556148	0.0064622327166266	-7.08563194957286E-06	1.06526447540397E-05	7.0047221658411E-06	4.25825584820961E-06	0.960977501830821	-0.250067281014739
10.7	0.00137647506064992	0.00652782552506149	-3.2040071965786E-06	1.56186594224015E-06	-5.35020225385963E-06	3.15995472298627E-06	0.959775119756748	-0.252402171947646
10.8	0.00190710266336431	0.00674900961714994	-1.9217745962062E-06	4.97208457128203E-06	8.4867563223002E-07	-3.19087603674722E-06	0.958832873988732	-0.253535397999325
10.9	0.00262086282286695	0.00651309073983441	-5.71792370853604E-06	-1.0492747662448E-05	4.90211462234614E-06	1.0670022181071E-05	0.958966496852884	-0.254639521057426
11	0.00243120188274268	0.00661195763844784	2.95321753548449E-06	2.61264273583569E-06	8.04638068447584E-07	-1.12024136751317E-05	0.958596820833747	-0.255297288732871
11.1	0.0036218928736004	0.00713554499261451	3.8455448496697E-06	1.45847591415399E-06	2.63898522021884E-07	-7.35313380020045E-06	0.959328515777012	-0.255868565134746
11.2	0.00458030728875315	0.00657764826745453	-4.40005836088437E-06	-1.97185913179349E-06	-7.29412761929501E-06	-4.84687447829567E-06	0.959885326819011	-0.257471029914227
11.3	0.00519798095756769	0.00587196894839948	6.73511897091634E-07	-6.35888484874552E-06	3.72885416622453E-06	1.41071168142522E-05	0.960617217363226	-0.259511511751715
11.4	0.00552390682885214	0.00495223834833182	-5.12635185000626E-06	8.11274136247866E-06	-1.46567127097697E-06	4.06454541987875E-06	0.961225164942853	-0.263014153087187
11.5	0.00480510931269185	0.0045406865298207	4.50708780333219E-06	8.08208859715943E-06	-9.27207256463576E-06	1.56884938277508E-06	0.95914322956118	-0.267896052483181
11.6	0.00540520852680213	0.00469556125984734	-3.83019386892777E-06	1.39194206621353E-06	5.0522570957249E-06	8.11435892707311E-06	0.957115667538928	-0.269995797350141
11.7	0.00578859284297468	0.00398243110676785	2.2217012167763E-06	1.04967158123408E-05	5.45610936858393E-07	-3.63570781959673E-06	0.956921460058046	-0.27334304767912
11.8	0.00594332577762414	0.00334662397010566	1.41600065660686E-06	4.45132176660725E-06	2.23452480207676E-06	4.52672775741782E-06	0.956503706809993	-0.277767804245646
11.9	0.00595452672277592	0.00246477851688683	7.411080706784E-06	1.05485923256894E-05	3.8715441549856E-06	4.09010218978136E-07	0.955131978897254	-0.282399070604144
12	0.00478053755043372	0.00235799655072581	2.35136299227641E-06	-5.12881287040527E-06	-4.05205408232935E-07	1.74277257353407E-06	0.949835568217277	-0.283320847149506
