# GHZ S RI R 50
0.2	0.00105598985698492	0.00261866359302373	4.788837631759E-06	-2.98560602874258E-06	-1.37105443914106E-05	1.31183974323809E-05	0.999151724846187	-0.00721995346460513
0.3	0.00146787718575251	0.00174004173273695	2.86664912635453E-06	6.62014080885795E-06	-1.66651414354862E-06	-9.31319952155585E-06	0.998938341948275	-0.0101900446935992
0.4	0.00172793266636422	0.00105295374343067	-1.86241374692858E-06	-4.01155027061433E-06	-9.00563447520648E-06	4.40312416094612E-06	0.998633924696108	-0.0129857973317584
0.5	0.00144714795156637	0.000700595814820384	-5.3542908865498E-06	3.26049866612657E-06	-2.12476348468591E-06	6.75182317564589E-06	0.997915389434426	-0.0155916325613568
0.6	0.00184974536121806	0.000694764310159118	-1.38797436987694E-07	2.80421216833857E-06	-5.81170310718973E-07	-1.33867470545079E-07	0.998429035852864	-0.0182356699727234
0.7	0.00203530493788585	0.00025675173960211	8.86956769241493E-08	2.21725840771E-06	4.89817214085E-06	-3.40067537320444E-06	0.99812368022378	-0.0213123562804518
0.8	0.00212720118888054	-0.000108258152062107	4.52417485938848E-06	8.23661210488679E-07	2.74186500739067E-06	1.99761898967622E-06	0.997860517686941	-0.0234759167024929
0.9	0.00220640019685404	-0.000555848939271716	-1.52600037885501E-07	-4.21308594547042E-06	-3.41443575262632E-06	-3.10489277057122E-06	0.997833951205622	-0.026032499388303
1	0.00171571146088152	-0.00126479609103831	1.05790680683383E-06	4.28565436926707E-06	3.32199320551401E-06	9.3259734244478E-07	0.997080840354269	-0.0280318314379018
1.1	0.00125083748446111	-0.00103884612691233	9.03108662593108E-06	5.19741614647322E-07	-3.57336038475818E-06	-4.99447446016258E-07	0.996514165594405	-0.0296533748267857
1.2	0.00114133750622631	-0.00156928079154008	3.75556868458504E-06	-1.19719742269153E-06	-4.09019865266716E-06	-2.43502720400679E-06	0.995798127400558	-0.0306838310888642
1.3	0.000514635296426577	-0.00247083470636591	-7.6016867745751E-07	-1.42496747795454E-06	-2.58120292828449E-06	-8.69483627480626E-06	0.995714866459814	-0.031369574377603
1.4	-0.000247318277485813	-0.00341750530014284	1.33784900854567E-08	3.44348697117677E-06	-4.27556622430671E-06	-4.12347829759409E-06	0.995656269620171	-0.0332243435899613
1.5	-0.00103853301135788	-0.00370421195517396	-1.29714810138258E-06	4.42523469606945E-06	6.54657289085484E-06	-7.40567197400517E-06	0.995891262321589	-0.0364782271201685
1.6	-0.000866492329819044	-0.00357538280649551	1.62780012307909E-06	-4.88459428078031E-07	4.23783252463762E-06	-5.38791261004484E-06	0.99574968071867	-0.0394181552063953
1.7	-0.000890250181492762	-0.00375207103243931	5.29994557951649E-07	3.95279190645044E-06	-8.2754867952718E-06	3.12420833300899E-06	0.996235869626908	-0.0419008207230783
1.8	-0.000983268577144218	-0.00374378627778545	1.82995701596383E-06	1.0777433899568E-06	5.65362931468204E-07	-1.75966199595276E-06	0.996375636036793	-0.0446889016281589
1.9	-0.00112827960885513	-0.0039381117754069	3.23205689961361E-06	3.015015373696E-06	-1.82456589165888E-07	-2.32776864768635E-06	0.996262691544123	-0.047520382065003
2	-0.00180489764076996	-0.00388683132158121	-1.72467616274672E-07	2.00001052592034E-07	-1.21411795189164E-05	5.40448323338097E-06	0.994166531979811	-0.0503706513156748
2.1	-0.00171992228805748	-0.00347710721265804	6.68276124769823E-07	-1.37914594892216E-06	1.37785432643612E-05	4.96993416719754E-06	0.99409581959349	-0.050890575053689
2.2	-0.00177489363163456	-0.00363410893484872	1.64350905308775E-06	-1.51296446576263E-06	2.68854658444337E-06	-6.19868757829585E-06	0.994757054310109	-0.0530524462498018
2.3	-0.0020819786836495	-0.00378703651708733	-1.68194612907099E-06	-3.42353767105621E-06	-1.78394848504016E-06	-4.58680141147224E-06	0.994804224325204	-0.054832774357863
2.4	-0.00244382964690494	-0.00400451376935382	-1.19684891337233E-06	-4.39525075807702E-06	3.04037692729068E-06	1.08807009329753E-06	0.995092270852034	-0.0580577487005426
2.5	-0.00339627892427891	-0.00419137474351159	5.36699325230827E-06	5.66931842559585E-06	-2.6282665845593E-06	1.61222719230596E-05	0.994544249398252	-0.0605470615511781
2.6	-0.00394492805383915	-0.00350524465572541	-2.27806693226431E-06	2.7059427191013E-06	4.39225342083784E-07	-4.30654430920384E-06	0.994473408986488	-0.0632278385679835
2.7	-0.00403889875041109	-0.00311266863803317	-2.39919483901615E-06	-3.6360672879716E-06	2.1558856639142E-06	-2.56500109008414E-06	0.993993856562761	-0.066056935893117
2.8	-0.00398534790899917	-0.00282354132472073	3.99430028459103E-06	2.31529145300624E-06	9.82193961368026E-06	-6.72197281756775E-07	0.994209333429439	-0.0677660836030901
2.9	-0.00381389930206781	-0.00279977800712216	1.2865905724126E-05	7.32243067032633E-07	2.45846816390173E-06	-1.16995642340087E-05	0.994174354717632	-0.0697043492341294
3	-0.00401568182616677	-0.00273038148798834	-3.85345653288489E-06	1.03875052649987E-06	-4.1402018228747E-06	-1.60555422884995E-06	0.994034277392962	-0.0722281777751157
3.1	-0.00362018598904704	-0.00248369723594249	4.79422314292359E-06	-9.82891826902082E-06	1.06722117533273E-05	2.42782958705886E-06	0.993733542902117	-0.0738705981754328
3.2	-0.00349331866797092	-0.00273532505392979	-5.35199980117378E-06	-7.41560350597182E-06	1.5616368038094E-05	5.41549963446188E-06	0.993741690756667	-0.0753363963460594
3.3	-0.00356265384438595	-0.00297149475117127	-8.7953804459572E-06	2.52323694951853E-06	-8.55834316654365E-06	-1.76031615960939E-06	0.993991956051968	-0.0783012639673524
3.4	-0.00380486672932953	-0.00327128287481137	9.08149019999262E-06	-7.53884537111265E-06	-7.3577468189159E-06	4.21605114993665E-06	0.994713046650038	-0.0803076086371863
3.5	-0.00455574626850002	-0.00337989091062892	3.29141828498613E-07	-5.32489330975E-06	-4.38475586930702E-06	-8.94457382029126E-06	0.994609917158875	-0.0840500946339091
3.6	-0.00471559767978801	-0.00294993034203682	4.06336811394183E-06	4.90788628232866E-06	-7.12480961689494E-06	8.98044026047848E-06	0.993836078157588	-0.0860847352616329
3.7	-0.0048985916818872	-0.00295612293222034	1.53805250742086E-06	-4.52378957910596E-06	-5.0891162987659E-06	-6.59807061066624E-06	0.994294278953686	-0.0884453077756882
3.8	-0.00520188863488412	-0.00286682289567018	7.29347443442655E-06	-5.18135242563274E-06	-5.87636025995042E-06	-2.43257149504349E-06	0.994673618516866	-0.0907538534532595
3.9	-0.00544984811265936	-0.00277261659455881	-4.03132522501428E-06	-3.58294768977226E-07	-2.53435932893071E-06	1.12866529640791E-06	0.995062450651037	-0.0949236640506712
4	-0.00606588122241404	-0.00245650538825456	-3.38367817495142E-06	-8.84424428822789E-08	1.18811329633101E-06	8.67114466892139E-06	0.99321872208928	-0.0970747696967968
4.1	-0.00584894640533422	-0.0016962548373457	-2.89069526074623E-06	-3.86984893754103E-06	5.87248226548827E-06	3.05476671594928E-06	0.993139373837094	-0.0975128540973363
4.2	-0.00559143158577488	-0.00160322964409592	-7.68203251602258E-07	-2.16072177807115E-06	5.70903753810897E-06	-1.83020320595395E-06	0.993201431048111	-0.100134568463647
4.3	-0.00550564655675474	-0.00158295014005985	-5.19425309099807E-07	3.2364319158744E-06	2.12689132616817E-06	1.78686060967307E-06	0.993305167171828	-0.102258266650498
4.4	-0.00558500414336453	-0.00171826143815192	2.56936506045459E-06	3.45099519912448E-06	7.1771570338691E-06	3.93304090562145E-06	0.993034144667475	-0.104804073720785
4.5	-0.00626613812156658	-0.00164984766206635	-6.47856563865237E-06	-2.51182373381446E-07	-8.58288355001645E-06	-2.1431236085653E-06	0.99282588033468	-0.106638186513792
4.6	-0.00642029161017683	-0.000972184250001241	-9.93881835129673E-06	-9.27097805880826E-06	3.24961841580244E-06	-2.72702441641481E-06	0.993210378880038	-0.109488297804457
4.7	-0.00644214838619287	-0.000693397539031816	1.22151969215528E-07	1.86934373439533E-06	6.08867769104542E-06	-6.73451067358318E-06	0.993305038681036	-0.111826150563264
4.8	-0.00652143691761674	-0.000345133138734065	-6.41189700078128E-06	2.07111970166283E-06	8.10852237379193E-07	-1.27732420343836E-05	0.993093102356759	-0.114415553245985
4.9	-0.0064111721963314	-0.000100990795206608	-3.44936012942426E-06	8.15383270780621E-06	5.46526134812996E-07	9.39809196301488E-06	0.993072497197916	-0.116344232521028
5	-0.00655946925020351	0.000199421162966653	9.67926661276107E-06	-4.05532957487384E-06	-6.96324153335734E-06	3.5750211154496E-06	0.993319240525848	-0.118338115278162
5.1	-0.00584910470165728	0.000634088424004898	-3.64003030101313E-07	-3.26219522266682E-06	-3.88385644634249E-06	-1.80234349286666E-06	0.993500785643904	-0.120048063409084
5.2	-0.00537449587354994	0.000347972026705252	-1.06568620613789E-06	-4.50067499625799E-06	8.80564513112462E-06	5.60212366333963E-06	0.993606326538611	-0.122587781665487
5.3	-0.00522397138531959	0.000102067117238876	2.28585386733641E-06	6.81509523331295E-06	8.81646169688004E-06	3.15197933157167E-06	0.993682714411166	-0.125344649458807
5.4	-0.00523550815273539	-0.000122927388473327	2.71916844391734E-06	-3.14919770506285E-06	-2.68386894195868E-06	1.51027589771433E-07	0.994045180268839	-0.128770001663699
5.5	-0.00583184032302766	0.000159919831333704	2.1159404346504E-06	9.35804751650142E-06	-3.93824942684061E-06	-5.05572043816546E-06	0.99340777210281	-0.13287447296904
5.6	-0.00530189821885981	0.000784484396680713	-5.87573826722041E-06	-1.13412295783327E-06	4.88984301020024E-06	1.9477067256387E-06	0.992443665424138	-0.135059900026152
5.7	-0.00511519847019074	0.000662244363560877	3.34699053978513E-06	-1.42907608127701E-06	-5.0662154391484E-06	-4.30423805056376E-06	0.992604996520723	-0.137532250744558
5.8	-0.00519349942737935	0.000674285360919073	-2.06449224517634E-06	-4.76086825353482E-06	9.4922985568989E-07	-5.84769760653677E-07	0.992936382109637	-0.1403467170084
5.9	-0.00529785424701828	0.000651854281831941	-3.89071550432973E-06	6.27254028232869E-07	3.87659497683933E-06	1.24745374587828E-06	0.992832474684513	-0.1442515962112
6	-0.00626638993869421	0.000620024095934843	-5.93907537532323E-06	5.06435188721467E-06	-1.48703279190183E-06	1.98869170936064E-07	0.989833131978671	-0.147040538959096
6.1	-0.00658572612598128	0.00170141592601084	-5.94392622408989E-06	-4.70678128317966E-06	-4.01598729753843E-06	4.34829789705289E-07	0.989263901421739	-0.146874007350407
6.2	-0.00658249112497977	0.00217769947767972	2.83039791508235E-06	3.1334710007217E-06	1.05625785448059E-06	7.24458403313767E-07	0.988953456894535	-0.148243517128551
6.3	-0.00641564675112641	0.00261536502190059	1.64579946627699E-06	-7.51931047802621E-07	-1.32539254563477E-07	1.37997864198147E-06	0.988374023148687	-0.150064484683019
6.4	-0.00616482371032909	0.00261385126999355	-5.20456326994093E-06	-5.62909807541957E-06	3.8339397265093E-06	6.9230167355253E-06	0.987594238448224	-0.15220448917709
6.5	-0.00634251350773824	0.00288717930863866	9.09358958095808E-06	-2.51855490331629E-07	-7.34518401921196E-06	-8.9825328075085E-07	0.987232967420652	-0.153496446261285
6.6	-0.00552140174983804	0.00309161654651439	-1.4934309253177E-06	4.69863081574524E-07	3.37563670183377E-06	-9.41970624206079E-06	0.988818385109836	-0.156523834442808
6.7	-0.00531764373434337	0.00286416733382663	6.2396363637744E-08	7.77690496087119E-06	-5.07123603084528E-07	-6.10506527717401E-06	0.988698437614771	-0.159860234169906
6.8	-0.0052178122691611	0.00298410503117014	4.26331668197366E-06	1.65243663581159E-06	2.03771984462342E-07	-5.25081545118526E-06	0.988340773709795	-0.162671726250391
6.9	-0.0050707395669641	0.00298292330299259	-7.56839668811813E-07	2.50131737737024E-07	5.76853586190513E-06	-2.69972210886137E-06	0.988067404010312	-0.165518458114459
7	-0.0056180200405998	0.00346796578254242	8.0345049817892E-06	-4.78664156751481E-06	4.29920171527286E-07	-3.02960163713201E-06	0.986481346528303	-0.167769741965774
7.1	-0.00481118014703681	0.00435417558953403	3.86248831536863E-06	2.03950353989651E-06	7.93926338479966E-07	7.24864331013688E-06	0.986103792616606	-0.16875391016772
7.2	-0.00431964980980858	0.0042662443733783	-2.44501570259171E-06	3.70834244358204E-06	-1.34662650434773E-06	-3.83410341796796E-06	0.98592187645388	-0.170437292913141
7.3	-0.00423567126946356	0.00427079191270316	3.44738527421513E-06	-5.04552724948324E-07	-2.46162934252154E-06	-1.91602145301778E-06	0.985558179125695	-0.172092747328932
7.4	-0.00424077627998454	0.00414090176069608	-6.21577540272702E-06	-2.69013002170899E-06	3.78293821332451E-06	2.37071272605745E-07	0.986277710559783	-0.174870936812707
7.5	-0.00519501400870708	0.00403483562551358	6.74680627970583E-06	-6.48715106227234E-06	-2.48259740449058E-06	8.14062414783306E-07	0.985300067056169	-0.180451451632216
7.6	-0.00527026995521473	0.00508638701885106	3.51103045164134E-06	5.19506393233441E-06	-1.02335611358506E-05	4.9778447987921E-06	0.982903872765254	-0.183262968500714
7.7	-0.00522744520586001	0.00532494820001683	6.07637805204012E-06	1.09244372808967E-05	2.87816216781175E-07	-1.13697792213293E-05	0.982229337171591	-0.186682070479818
7.8	-0.00497441402454794	0.00552461714198781	2.16169363273656E-06	9.75829725543897E-07	-3.07214542693629E-06	8.84014063514377E-06	0.981531577444076	-0.190374843517362
7.9	-0.004534367657332	0.00544648892876574	2.54356927791174E-06	-2.32689915611606E-06	3.69170851727135E-06	3.2583073545159E-07	0.980408243291939	-0.194687517568589
8	-0.00454124741820003	0.00577076494678281	-2.80345670811544E-06	1.34124831255955E-06	6.86072199906959E-06	-1.88931857236389E-06	0.976348247150519	-0.197196970357977
8.1	-0.00322297117877538	0.00588593162927982	-1.7868585512326E-06	7.60273863368602E-07	-3.70802807521466E-06	-1.24061703607697E-06	0.976318632954432	-0.196980209140551
8.2	-0.00272560894041269	0.00529735701873656	-7.74030430251727E-07	6.33182069645277E-06	4.88602524805523E-06	4.33566402877515E-06	0.976676690275741	-0.199116656493713
8.3	-0.0025316034052198	0.00500028638415735	-9.02447014101198E-07	-1.41986012787843E-05	6.8381826651052E-06	5.39908265305858E-06	0.976140240878001	-0.201843726136058
8.4	-0.00242195265570892	0.00472894756457367	3.74312893655969E-06	-3.43612977134274E-06	-6.96507570515284E-06	-1.19401602517754E-06	0.975127697194779	-0.204412522587067
8.5	-0.00306029809285808	0.00492895077473644	4.66974062808288E-06	5.74993596301084E-07	8.38895058454658E-06	-6.84354370885558E-06	0.974261945032406	-0.206338302578749
8.6	-0.00236608309874512	0.00574423055842034	-3.25391620956465E-06	4.12323230469346E-06	1.04078357838463E-06	1.10848701682923E-05	0.974407328869419	-0.208920775928187
8.7	-0.00179638475003878	0.00558324761068096	2.67395807063514E-06	-2.00600438219012E-06	4.76272655654231E-07	-5.5479381682195E-07	0.97406128140006	-0.211809832027741
8.8	-0.00148987864096002	0.00549579226257191	1.17588899348682E-07	-1.25178909912546E-06	-9.37422561326168E-07	9.75799437906072E-06	0.973471144368002	-0.214279602248144
8.9	-0.00111607378631806	0.00523247561071584	-3.6508498864689E-06	2.29977992455093E-06	4.81996206257762E-06	-1.81447326680708E-06	0.973188915226106	-0.216478122298334
9	-0.00134877901701018	0.00503595874021617	-1.88708166654764E-06	5.0122681416915E-07	-3.22964340486163E-06	-1.05181412592215E-05	0.97251771118833	-0.21898307245941
9.1	-0.000667198052502556	0.00516915005188705	5.24543150674011E-06	5.74326244075381E-07	9.12625874085796E-07	3.78750786829918E-07	0.971476435690817	-0.220861743518897
9.2	-0.000298538171295342	0.00462986651046438	-8.71664625159294E-06	-4.54792118879236E-06	-8.93980792872853E-07	-6.11367734539604E-06	0.970467527072376	-0.222749759215804
9.3	-0.000163745049114028	0.00430727805595419	1.98493923661107E-07	6.20362248506967E-06	4.62636371874203E-06	-2.19776574719508E-06	0.970012726261665	-0.224372654679511
9.4	1.88127340810243E-06	0.00388021339667787	-1.91792016177179E-06	5.87957067299783E-06	-1.04798047801756E-05	7.74603585528962E-06	0.970014152592628	-0.226873804089871
9.5	-0.000362342621281257	0.00405556470700628	3.16393962215713E-06	-7.56854426265492E-06	3.67276697760332E-06	-2.74861293889617E-06	0.968936315770551	-0.230393066590042
9.6	0.000375542280975431	0.00417910012795035	4.50381688830514E-06	5.55228614014374E-06	-6.20714804826155E-07	7.0576034170778E-06	0.967844290718631	-0.232422797417103
9.7	0.000505020154914895	0.00367631776164664	-2.60642238137045E-06	-3.92298533564541E-06	3.66747166754002E-06	-7.51164993855836E-06	0.967717796435994	-0.234629254407123
9.8	0.000302819981729056	0.00346782940552892	-5.31373707660077E-07	-4.20349952182056E-06	6.26229758761763E-06	8.75536989096108E-07	0.967952018242277	-0.237024174952502
9.9	0.00011241478616638	0.0033884090961076	-2.68350614386861E-06	-5.86875668907938E-07	-8.47086658485329E-06	5.49390216904366E-06	0.96718807404276	-0.240184478509364
10	-0.000717822116013967	0.00368704929869962	4.23961973761405E-07	-1.74492130358316E-06	-3.08503448691241E-06	-7.93214128073308E-06	0.963742217807616	-0.240756558523293
10.1	-0.000282940081040686	0.00452589081205267	2.23724380429852E-06	4.75329439077715E-06	-3.09053310802674E-06	9.81420602330004E-06	0.964924581979261	-0.239855810927961
10.2	1.56226190821874E-05	0.00455878449835687	-5.36264051679382E-07	-1.04554401529613E-06	-1.20619396387636E-06	-3.10722559870597E-06	0.96560129251583	-0.241718031143963
10.3	0.000182251324795354	0.00473093995756601	1.12720207508341E-05	-2.92409763040908E-06	1.00249920552885E-05	-4.83121006951109E-06	0.965131521688116	-0.244095834876649
10.4	0.00047927202427293	0.00471002548925531	-6.26069199864643E-07	2.14009108002011E-06	3.01995638699023E-06	-2.17746353783202E-06	0.963638728430914	-0.24667616284073
10.5	0.000184630283836661	0.0050124324146366	-6.0969192877423E-06	4.61986126643349E-06	1.56030945774619E-06	4.2945449669215E-06	0.962093556740969	-0.248065724559073
10.6	0.000921503100248323	0.00548014961875975	-7.09461780874204E-06	1.06557828469253E-05	7.00696565184933E-06	4.26392671483869E-06	0.96183249963691	-0.250478379161007
10.7	0.00131437644898271	0.00555294479114735	-3.20700147749681E-06	1.56172755181758E-06	-5.3554246478826E-06	3.16013096956845E-06	0.960590842235741	-0.252749273768017
10.8	0.00187400330561578	0.00583021256289455	-1.92496854758432E-06	4.97641229897376E-06	8.50351011280732E-07	-3.19375577741442E-06	0.959969153485182	-0.253785288216834
10.9	0.00256033495078341	0.00577044916525477	-5.72287530385362E-06	-1.05030020719068E-05	4.90628143999849E-06	1.0680407166304E-05	0.959961819064283	-0.254937330558523
11	0.00267865149632506	0.00592849291857155	2.95638485180613E-06	2.61471286368165E-06	8.03844621008268E-07	-1.12131622527928E-05	0.959753931498692	-0.255499615849929
11.1	0.00397185184585671	0.00614100950617567	3.84942069638603E-06	1.45886665230906E-06	2.62335833491127E-07	-7.35992538928157E-06	0.960772530698478	-0.256139910320783
11.2	0.00478319126613748	0.00541476750734751	-4.4046717667176E-06	-1.9721226566708E-06	-7.30231419178245E-06	-4.84872445724405E-06	0.961503879489359	-0.25792771907838
11.3	0.00522075560247698	0.00472803132360363	6.7123896748418E-07	-6.36437767277607E-06	3.73816271038011E-06	1.41169838071999E-05	0.96226420817274	-0.260155708499814
11.4	0.00543453921169908	0.00396194099431307	-5.12529723557813E-06	8.12087203449761E-06	-1.46441786481933E-06	4.06801746484485E-06	0.962794854315635	-0.263836840178721
11.5	0.00490231279789235	0.00366080282721136	4.51259433863572E-06	8.08413549413828E-06	-9.27590470005377E-06	1.57342697392847E-06	0.960702038085729	-0.268658577771711
11.6	0.00555774689485323	0.00360900848275195	-3.8321663745012E-06	1.39395727198444E-06	5.05783847155128E-06	8.11790789424911E-06	0.958928478463911	-0.27089896733301
11.7	0.00579272374864463	0.00283626716653248	2.22749290318197E-06	1.05034532421138E-05	5.44559831420067E-07	-3.63856495856167E-06	0.958778204785073	-0.274601813093941
11.8	0.00582479314763442	0.0022906992180589	1.41924119226209E-06	4.45390347457223E-06	2.23840579824852E-06	4.52896105472325E-06	0.95819857879238	-0.279331401664978
11.9	0.00595314344468656	0.00160382435002151	7.42267774143875E-06	1.05529532028401E-05	3.87483938892146E-06	4.07238082637901E-07	0.956624787445442	-0.284167508277338
12	0.00501275401577746	0.00158000270387273	2.35126532629164E-06	-5.13521775976935E-06	-4.04768707193625E-07	1.74475646295007E-06	0.951200385830589	-0.284901678611418
