# GHZ S RI R 50
0.2	0.000950214159065494	0.00243135128883191	4.7933001207268E-06	-2.98489681054175E-06	-1.3725720126561E-05	1.31191300046733E-05	0.999440619683126	-0.00707383418220102
0.3	0.00143040960675737	0.001695459254062	2.86579710985452E-06	6.62562801178056E-06	-1.66377494211936E-06	-9.31994726076933E-06	0.999338928607414	-0.0100031094292947
0.4	0.00169674954815529	0.00116519921864212	-1.86272945115908E-06	-4.01552651772955E-06	-9.01463057270834E-06	4.40402071481373E-06	0.999286370886306	-0.0126870608351503
0.5	0.001691639283376	0.000835493908771624	-5.35836234598955E-06	3.26362138949318E-06	-2.12590073282126E-06	6.75750400757698E-06	0.999099338858361	-0.0156653836277158
0.6	0.00187723826975878	0.000590398804205986	-1.39270646999913E-07	2.80578836524279E-06	-5.81482200344322E-07	-1.34025350046765E-07	0.999350528424793	-0.01871508146923
0.7	0.0018868054723496	0.000329465055032351	8.81677171883923E-08	2.21904340730428E-06	4.9029803176124E-06	-3.40205441949619E-06	0.998971243352955	-0.021830430467858
0.8	0.00194486837271322	0.000116277916328712	4.52848299671077E-06	8.2554914421977E-07	2.74412214794835E-06	2.00025446631884E-06	0.998626897243086	-0.024090740876995
0.9	0.00195574240990813	-0.000158719708544337	-1.52110977736615E-07	-4.21816635705149E-06	-3.41803798605517E-06	-3.109163677633E-06	0.998332059753013	-0.0265676031263481
1	0.0017379928494047	-0.000504151438935137	1.06004868727004E-06	4.29127679864763E-06	3.32664202696634E-06	9.33308125433875E-07	0.997727178244869	-0.0280060171147525
1.1	0.00147236156134299	-0.000668646595654888	9.04110805730889E-06	5.18066671608343E-07	-3.57739860803879E-06	-4.99106531384746E-07	0.997499802932412	-0.0297069772230702
1.2	0.00110670180604652	-0.00120323708163416	3.75958967726045E-06	-1.19916597490189E-06	-4.09519855167412E-06	-2.43708423551597E-06	0.996931574204184	-0.0306094388829056
1.3	0.000440227124380433	-0.0019616061568164	-7.61438201499375E-07	-1.42644170331639E-06	-2.58653137409908E-06	-8.70437457428081E-06	0.997249966800066	-0.0313750060215992
1.4	-0.000281404558566602	-0.00280169239626251	1.48374032147401E-08	3.44713649340435E-06	-4.28183458326641E-06	-4.12606140802391E-06	0.99733273655897	-0.0336119141382051
1.5	-0.000801435072801537	-0.0031477913555716	-1.29697864365981E-06	4.42972093031765E-06	6.55032917036654E-06	-7.41453148088199E-06	0.997979604269649	-0.0371413553960621
1.6	-0.000907227938948158	-0.00314551879681014	1.62948958746071E-06	-4.89313051918213E-07	4.24142669958928E-06	-5.39464844475127E-06	0.997674365767012	-0.0407842456106796
1.7	-0.000934820323189931	-0.00311038370049232	5.31800171354077E-07	3.95759204186025E-06	-8.28495448223923E-06	3.13051302363167E-06	0.997878785803343	-0.043416836280717
1.8	-0.000961563787473541	-0.00302964352931547	1.83271653406122E-06	1.07840700099848E-06	5.65399046627491E-07	-1.76213175936624E-06	0.997780363556911	-0.0461757886732373
1.9	-0.00107254270097708	-0.00310298283412897	3.23687664031365E-06	3.01789777369436E-06	-1.83304662296347E-07	-2.33061148148946E-06	0.99749566023014	-0.0484921495885053
2	-0.001383063718952	-0.0030641886586316	-1.72769910202224E-07	2.00422808165745E-07	-1.21639874628634E-05	5.41719715555874E-06	0.99677187639963	-0.0509299820871093
2.1	-0.00150834570027004	-0.00300704711368007	6.68018420646034E-07	-1.38252046112033E-06	1.38103599261259E-05	4.96410302258011E-06	0.996832258716526	-0.0530128179020722
2.2	-0.0017380447163469	-0.00303530804552777	1.64412799518261E-06	-1.51726473001941E-06	2.68498404661017E-06	-6.21133617462892E-06	0.996869662292933	-0.0555380963827618
2.3	-0.00206808408050816	-0.00309992889701751	-1.6884596201138E-06	-3.42631054870388E-06	-1.79201531236897E-06	-4.59108554006609E-06	0.996507368819281	-0.0574220578600104
2.4	-0.00249227064101763	-0.00321486642973872	-1.20430506795412E-06	-4.40026455294707E-06	3.04631702567679E-06	1.08577107550084E-06	0.99639811589509	-0.0605063966753993
2.5	-0.00319429610936862	-0.00321413877116948	5.38415378921956E-06	5.66804337325631E-06	-2.60438019963882E-06	1.61492141027663E-05	0.995986851094927	-0.0626192068283788
2.6	-0.00374367093909767	-0.00286610361264318	-2.27605963232376E-06	2.71247317838511E-06	4.32694966827415E-07	-4.31176568278379E-06	0.996105072650309	-0.0654087497571122
2.7	-0.00402672341217307	-0.00245448894844467	-2.40746767228469E-06	-3.63620698192198E-06	2.15417772950378E-06	-2.57113168766158E-06	0.995776674763774	-0.0683298316984505
2.8	-0.00409575140273957	-0.00207713616223911	4.00247720929565E-06	2.31108739327991E-06	9.83137796182688E-06	-6.89382032557566E-07	0.996003027070804	-0.0702782377420052
2.9	-0.00399749271476335	-0.00184316610648745	1.28801735732527E-05	7.08400670469573E-07	2.43858023391924E-06	-1.1715962659044E-05	0.995771666041505	-0.0722991839498771
3	-0.0039382476617283	-0.00165658161154108	-3.85326091237955E-06	1.04729284916659E-06	-4.14565089396795E-06	-1.59776361448546E-06	0.995659103542354	-0.0747024331963407
3.1	-0.00370573921304329	-0.00153157490204334	4.77802107322065E-06	-9.84207381321351E-06	1.06813322741743E-05	2.40903827078532E-06	0.995467656257285	-0.076666209399078
3.2	-0.00361027231846796	-0.00159264165301748	-5.36909620320345E-06	-7.40753455859275E-06	1.56332858215786E-05	5.38581397047948E-06	0.995280410787202	-0.0785172643022813
3.3	-0.00361980901436655	-0.00172684791497696	-8.7911083645168E-06	2.54351371903077E-06	-8.56370842418285E-06	-1.74127003073678E-06	0.995090504665986	-0.0818138810277048
3.4	-0.00383195267208385	-0.0019086938925272	9.06006462840697E-06	-7.55899313355006E-06	-7.34506640217465E-06	4.23295438133722E-06	0.995063259911014	-0.0838311217136909
3.5	-0.0042599674972964	-0.00197691045081505	3.18755744098902E-07	-5.32056954534354E-06	-4.39761497395917E-06	-8.92796369525739E-06	0.994867735173182	-0.0866947031232711
3.6	-0.00458650480986461	-0.0018349972700066	4.06979892024402E-06	4.8992740869508E-06	-7.10725527715069E-06	8.98855102478117E-06	0.994610571378305	-0.0892721140485566
3.7	-0.00489764632247133	-0.00167760918349367	1.52866850275106E-06	-4.52472236671223E-06	-5.09952289849707E-06	-6.58533624527979E-06	0.994395224699122	-0.0920736602522179
3.8	-0.00516406602291153	-0.00146822677078086	7.27797585024817E-06	-5.19187534484047E-06	-5.8768372928341E-06	-2.41926285816298E-06	0.99389189088393	-0.0941747778566248
3.9	-0.00535599558454671	-0.00124522739471564	-4.0279143189599E-06	-3.51337249893748E-07	-2.52999766508609E-06	1.13169663724037E-06	0.993541699729986	-0.0972469119947635
4	-0.00558684594884721	-0.00094385717896937	-3.3828186278831E-06	-8.36416442235646E-08	1.20000443622601E-06	8.66694544238889E-06	0.993047174235988	-0.0981755035835126
4.1	-0.00556457873552291	-0.000585773451518317	-2.89806347708154E-06	-3.86129599363124E-06	5.87648271143639E-06	3.03982223131258E-06	0.993317430151409	-0.0997638065655263
4.2	-0.00553543541610296	-0.000405026504927381	-7.72344358104146E-07	-2.15689369869946E-06	5.69937410897281E-06	-1.84133793290248E-06	0.992930841399116	-0.102506357841807
4.3	-0.00554029521366512	-0.000277755474256872	-5.11880291984865E-07	3.23405878993211E-06	2.12845119504002E-06	1.78034166762475E-06	0.992805260938116	-0.104542535448926
4.4	-0.00570991118117264	-0.000232693868603119	2.57459119881554E-06	3.44202684330464E-06	7.17909131396399E-06	3.91339096397989E-06	0.992475788763426	-0.106867747719863
4.5	-0.00607873477556612	5.51047571600481E-06	-6.47137410034951E-06	-2.31950987669912E-07	-8.57864421820127E-06	-2.11543101978173E-06	0.992568714785406	-0.108868670209028
4.6	-0.0063590872737144	0.00039953750261632	-9.94228246150975E-06	-9.22645737639748E-06	3.23595725760752E-06	-2.72978829071518E-06	0.992608002441255	-0.111906638262163
4.7	-0.00650330906403942	0.000826565340833948	1.25903920106829E-07	1.86506145471289E-06	6.06112110252875E-06	-6.73310453999391E-06	0.992607523028078	-0.114186862641784
4.8	-0.00656165228815639	0.0012582864756979	-6.39425953132443E-06	2.07902294179259E-06	7.84591141473328E-07	-1.27475882484333E-05	0.992271732732711	-0.116885703452013
4.9	-0.00646934215214059	0.00160756819956033	-3.42596570619317E-06	8.1432185070584E-06	5.63841589769361E-07	9.37696494896745E-06	0.991812206737438	-0.118860093769941
5	-0.00633326118484742	0.00192851063115043	9.643781101279E-06	-4.06298607811253E-06	-6.93641154010023E-06	3.57866365315349E-06	0.991650135023138	-0.120419228286912
5.1	-0.00590746249036429	0.00216866900147223	-3.66969136828605E-07	-3.25210397809884E-06	-3.87461215944031E-06	-1.79220529821677E-06	0.991722356176514	-0.121918492576555
5.2	-0.00550207823544152	0.0021696698192272	-1.06743273963054E-06	-4.48673363213758E-06	8.78653225474496E-06	5.57682769578329E-06	0.991455390583943	-0.124209233219812
5.3	-0.00520790779399941	0.00206025208295675	2.28619131344624E-06	6.79294257693315E-06	8.79406243293192E-06	3.13378424615752E-06	0.99121707755658	-0.126497536718534
5.4	-0.00511063111865241	0.00189668571623902	2.70694082171807E-06	-3.1417104997066E-06	-2.67490031156164E-06	1.53345432216819E-07	0.991269630020937	-0.129286488613926
5.5	-0.00531263224527798	0.00198860167826295	2.107865718143E-06	9.32107683558784E-06	-3.9228627497041E-06	-5.03566599076009E-06	0.991146631112863	-0.132133232412933
5.6	-0.0053336205786175	0.00222601991856254	-5.85741864756466E-06	-1.13451101631582E-06	4.87395090173018E-06	1.94502449310431E-06	0.991065807355069	-0.134782029086119
5.7	-0.00543909631153261	0.00247458942909401	3.33848197780857E-06	-1.42341063773749E-06	-5.05001451623926E-06	-4.29495422696131E-06	0.990787961914182	-0.137508733833487
5.8	-0.00551504760645056	0.00275719380320018	-2.05536774438901E-06	-4.74871764570173E-06	9.46925275040528E-07	-5.82457416085833E-07	0.990429987286067	-0.139872990312459
5.9	-0.00564334685442567	0.00302737703538069	-3.88061145128344E-06	6.20256400421892E-07	3.86400934039574E-06	1.24915735019651E-06	0.989745006416632	-0.142124375939825
6	-0.00603064831039337	0.00340396878618022	-5.93759784155928E-06	5.04809566140215E-06	-1.48509977086021E-06	1.96397763058664E-07	0.989045768170309	-0.143034941250357
6.1	-0.00614862415737491	0.00402990138221671	-5.93078608776737E-06	-4.70057331332415E-06	-4.00867810655177E-06	4.32275020760049E-07	0.989592660208907	-0.143982409512803
6.2	-0.00607029546048869	0.00445519254317457	2.82184364339379E-06	3.12778931315605E-06	1.05333311212023E-06	7.23386488398191E-07	0.989735728592394	-0.145551430992684
6.3	-0.00582711490713229	0.00466726304646365	1.64242722960602E-06	-7.48528085111365E-07	-1.33502819664579E-07	1.37643679173137E-06	0.98955836696234	-0.147826664973731
6.4	-0.00573682119753262	0.00458170659797737	-5.18619175527712E-06	-5.62403597476571E-06	3.81676581299994E-06	6.91342506622967E-06	0.989030847900586	-0.150199817226028
6.5	-0.00577462525832589	0.00468568242572695	9.07503683085774E-06	-2.4605866255432E-07	-7.32955882582213E-06	-9.0067019305349E-07	0.989040452067624	-0.15292006283495
6.6	-0.00558756661008982	0.00488170381970577	-1.48973730296247E-06	4.66362159983063E-07	3.37919779657267E-06	-9.38737538351666E-06	0.98885395797765	-0.15615747227643
6.7	-0.00536360801733118	0.00509990518255262	4.4839756358544E-08	7.75738951247487E-06	-4.92183338997601E-07	-6.09077013851386E-06	0.988280977946092	-0.158770097492607
6.8	-0.00513036504488936	0.00528127924002114	4.25035506783814E-06	1.65992973743047E-06	2.16756790138498E-07	-5.23952626883978E-06	0.987699017284215	-0.161212849922057
6.9	-0.0050434790609846	0.00540065843412644	-7.56188939425529E-07	2.47825840775525E-07	5.76555171347451E-06	-2.68081188494783E-06	0.987058590884084	-0.163417950097385
7	-0.00511345124507634	0.00584051206571151	8.02991478884389E-06	-4.75879313336431E-06	4.36072780884825E-07	-3.0227151649305E-06	0.986280351405565	-0.164945318387088
7.1	-0.00488971350446704	0.00632337327629458	3.84875941265774E-06	2.0463098367288E-06	7.71670601136455E-07	7.23602927442935E-06	0.986039965780738	-0.166644526181706
7.2	-0.00463094118115828	0.00671700758817936	-2.45226228586633E-06	3.69436555690583E-06	-1.33243504065971E-06	-3.83164085237908E-06	0.985459463708958	-0.168600106151887
7.3	-0.00438907020665248	0.00700386625958071	3.44376492053397E-06	-4.93362304604985E-07	-2.45215268599772E-06	-1.92061290930703E-06	0.984406486528218	-0.170610076478283
7.4	-0.00431923330405092	0.00706454652099619	-6.19660042625823E-06	-2.70281103721619E-06	3.77524857463201E-06	2.47385639779687E-07	0.98326077980523	-0.173255571483994
7.5	-0.00461121099771246	0.00723667236124849	6.75962561189317E-06	-6.44315710937345E-06	-2.48049157401463E-06	8.01445675350173E-07	0.981555710306296	-0.175655834441554
7.6	-0.00458357003239086	0.00762450496523274	3.48471154112592E-06	5.20794281873813E-06	-1.0249960238319E-05	4.92725738858641E-06	0.980921924250586	-0.178133751443957
7.7	-0.00454782413555402	0.00784907799699709	6.0259942622303E-06	1.09471373724475E-05	3.37792852732072E-07	-1.13642793338309E-05	0.980537326495676	-0.181159113299776
7.8	-0.00429980270800531	0.00784989375101638	2.15672832947972E-06	9.85259457474582E-07	-3.11095793980457E-06	8.82395467681862E-06	0.980303980703021	-0.184309649185607
7.9	-0.00408371103713547	0.0077183914739805	2.55446475300578E-06	-2.31392758989578E-06	3.68934149578562E-06	3.43887842142117E-07	0.979913026398367	-0.187471425992716
8	-0.00389575682755241	0.00784482909288918	-2.81457679470374E-06	1.32880847456444E-06	6.88075429076531E-06	-1.85678546378116E-06	0.979471477661189	-0.189956236252036
8.1	-0.00341613867805684	0.00793237159394893	-1.79200217242226E-06	7.55539102190676E-07	-3.70945606998123E-06	-1.2546212551175E-06	0.979350690541075	-0.192752897232094
8.2	-0.00303035901423245	0.00789819963056131	-7.93720981701914E-07	6.33447239950687E-06	4.87680569363447E-06	4.35380125126123E-06	0.978934461060444	-0.195364943035813
8.3	-0.00271056864584188	0.00782721794956123	-8.58350442668268E-07	-1.42107576836088E-05	6.82567628366641E-06	5.42414762186964E-06	0.978204471194927	-0.19823202672569
8.4	-0.00259888600353939	0.00775066433548798	3.75810886452683E-06	-3.42829023167312E-06	-6.96919779571445E-06	-1.2171659889934E-06	0.977284539889961	-0.200922855022966
8.5	-0.00270153513644737	0.00798891716119342	4.6731164625994E-06	5.85564038030195E-07	8.41188742362545E-06	-6.83232601801531E-06	0.976524675621506	-0.203605425262797
8.6	-0.00249427060515176	0.00842087358249884	-3.2661355890674E-06	4.1167123697792E-06	1.01250206711681E-06	1.1092745243721E-05	0.975855846307694	-0.206336272649159
8.7	-0.0020859967103604	0.00875657888304736	2.68156852713866E-06	-1.99997541756383E-06	4.78182949693158E-07	-5.5386588342361E-07	0.975288258146317	-0.208889505975744
8.8	-0.00151518134153072	0.00895852061115577	1.21236849513625E-07	-1.25272102270317E-06	-9.65880185082351E-07	9.7652003332049E-06	0.974700932172353	-0.211059939427692
8.9	-0.000907518716148343	0.00882058800901438	-3.66152482941604E-06	2.29380324710544E-06	4.83101246592136E-06	-1.80492714549615E-06	0.974630914672693	-0.212942146014273
9	-0.000515362643145705	0.00860231434177431	-1.88946248845093E-06	4.97609984926228E-07	-3.20979050953856E-06	-1.05323282904444E-05	0.974519058860916	-0.215212160732724
9.1	3.46595938220109E-05	0.00829261848723439	5.24958583385798E-06	5.89604496883406E-07	9.12570044796369E-07	3.81715051558224E-07	0.974266566457026	-0.217341407024251
9.2	0.000474432669277565	0.00779620908506881	-8.72151385734876E-06	-4.57652034085512E-06	-8.81209467401624E-07	-6.12668797385179E-06	0.973891156832282	-0.219976483024777
9.3	0.000722945632097004	0.00722378872056895	1.88314908864385E-07	6.21602678968832E-06	4.63910506458931E-06	-2.1941615388892E-06	0.973524937760592	-0.222683707078378
9.4	0.000688343647950139	0.00660374364684706	-1.928126604839E-06	5.88616742387339E-06	-1.05053865751822E-05	7.74487947519499E-06	0.972745150448403	-0.225954100507196
9.5	0.000341261347966335	0.00648695910172626	3.18597257705675E-06	-7.56939239923229E-06	3.68362367518977E-06	-2.74276759097236E-06	0.971586215739373	-0.228829940356301
9.6	0.000180707746922921	0.00653275838019528	4.50207886510032E-06	5.57979284130269E-06	-6.4091305629577E-07	7.07598923830532E-06	0.970730298986545	-0.231802848135529
9.7	9.82327804990303E-05	0.0066525310351688	-2.60779544424076E-06	-3.94091646163649E-06	3.69369467749893E-06	-7.52984520571718E-06	0.969864439053503	-0.234367067873922
9.8	4.03481335938576E-05	0.0067580342893127	-5.26790779749507E-07	-4.21817651057247E-06	6.28164974961876E-06	8.8786793805983E-07	0.969402269233614	-0.236482373897118
9.9	-8.02917735699386E-05	0.00684967011442138	-2.6910937874597E-06	-5.93925965631529E-07	-8.50890271717828E-06	5.49549937984973E-06	0.968593000624132	-0.238295150227445
10	-0.000377059331327944	0.00717350063593756	4.28953179830054E-07	-1.75286305651786E-06	-3.08717566221055E-06	-7.97654750822988E-06	0.968181156261414	-0.239467220063968
10.1	-0.000338284847571201	0.00766819894536548	2.24704848049377E-06	4.77406057039825E-06	-3.10399094819429E-06	9.85712294652242E-06	0.967764175162618	-0.241317062262794
10.2	-9.30655536137786E-05	0.00804954806301156	-5.38320239429168E-07	-1.04950370118005E-06	-1.2108332964294E-06	-3.11900069689361E-06	0.967036791592322	-0.242722684487199
10.3	0.000260442369739904	0.00828821535619402	1.1315858618185E-05	-2.93434531858325E-06	1.00641885932887E-05	-4.84894499324626E-06	0.966268703460186	-0.244355389157025
10.4	0.000555328857135357	0.00830595384263639	-6.28806330289711E-07	2.14992077087932E-06	3.0336449533501E-06	-2.18760692297163E-06	0.96538223950892	-0.246112706706518
10.5	0.000630921955485777	0.00854399526734374	-6.11724776508239E-06	4.65081502219075E-06	1.57438555182779E-06	4.3116082942151E-06	0.96500061429886	-0.248385715538654
10.6	0.000984300232368553	0.00886742841749253	-7.10628362676046E-06	1.07034158961637E-05	7.03776476841488E-06	4.27015224259911E-06	0.964366159129299	-0.251045372343326
10.7	0.00149333479738092	0.00915538859910464	-3.21759731841305E-06	1.57095407821586E-06	-5.37255284916217E-06	3.17763848637168E-06	0.96375188672212	-0.253716693968433
10.8	0.00209326277318657	0.00926864046779902	-1.92696414067004E-06	4.99882863262688E-06	8.50071056836889E-07	-3.207692813806E-06	0.963141723991692	-0.255924148138398
10.9	0.00248646824789757	0.00923668724535981	-5.76542707665022E-06	-1.05365673697359E-05	4.94574700588603E-06	1.07161661403407E-05	0.96269429410437	-0.258035238415804
11	0.00282703557844917	0.00944933042398875	2.97112937920288E-06	2.61584290843294E-06	7.80899082635751E-07	-1.12484852601948E-05	0.962006502566004	-0.259972446933241
11.1	0.00349443449903817	0.00966664610727526	3.86186815966349E-06	1.45733297091294E-06	2.52592208839258E-07	-7.38013624616641E-06	0.960885670011364	-0.261697238640552
11.2	0.00432769944358244	0.00963365340894315	-4.42034576417927E-06	-1.97176139058639E-06	-7.3305032816928E-06	-4.85275846347254E-06	0.959721581998657	-0.263236944734067
11.3	0.00524093899337481	0.00922708964090538	6.6214023046839E-07	-6.38432448945338E-06	3.77376744328001E-06	1.41521289629297E-05	0.958935305482538	-0.264711056282229
11.4	0.00580675117469854	0.00850947841174924	-5.11950630380501E-06	8.15037812625386E-06	-1.45900594875975E-06	4.08042671863316E-06	0.957855833319429	-0.266928217035291
11.5	0.00597071461982506	0.00794330626380273	4.5256766983969E-06	8.09533290615045E-06	-9.29107529028327E-06	1.5821490336704E-06	0.956834483599995	-0.269199789476085
11.6	0.00625656070319842	0.00735734357151567	-3.8434534594663E-06	1.40151521899067E-06	5.08065786649577E-06	8.14014333350116E-06	0.955821940872439	-0.272512360583493
11.7	0.0064267229825792	0.00666914317624725	2.25080491800899E-06	1.0533003840094E-05	5.40620672214324E-07	-3.6508457774003E-06	0.954600603845008	-0.275812062926539
11.8	0.00647724198739963	0.00599330962271139	1.43074922043167E-06	4.46279947370669E-06	2.25214413069318E-06	4.53660109550579E-06	0.953579567909201	-0.27896452774268
11.9	0.00629953930898825	0.00534641973978621	7.44726529118967E-06	1.05657438134902E-05	3.8826322268818E-06	4.04184884561179E-07	0.953250753486344	-0.280940111675628
12	0.00590503511232471	0.00511836513093576	2.35400867204622E-06	-5.15596025864549E-06	-4.04305104738632E-07	1.75137548818237E-06	0.953537880895791	-0.283146619786124
