# GHZ S RI R 50
0.2	0.00103810947274374	0.00249284098698834	4.79115720429063E-06	-2.98534747039586E-06	-1.37183569777002E-05	1.31191405759446E-05	0.999407293149432	-0.00713879542319835
0.3	0.00152257410871746	0.0016973315236212	2.86676781839662E-06	6.62266309813315E-06	-1.66590644540684E-06	-9.3164548486742E-06	0.999267541823223	-0.0101552545998297
0.4	0.00179405189965324	0.00105940375605469	-1.8629780029205E-06	-4.01322459934239E-06	-9.00940292653694E-06	4.40447908472894E-06	0.999056022335141	-0.0129696643840159
0.5	0.00163670950655008	0.000723215211992789	-5.35582779423807E-06	3.26276121539832E-06	-2.12438686925761E-06	6.75488843029496E-06	0.998530067982925	-0.0157823012729861
0.6	0.00194936843070969	0.000564887944814282	-1.38496990588074E-07	2.80490125819785E-06	-5.81325632358757E-07	-1.33830411274065E-07	0.998845844110403	-0.0186136987608285
0.7	0.00201444644902699	0.000189954436790608	8.88486566699143E-08	2.21797950380236E-06	4.89958599094355E-06	-3.40206273177732E-06	0.998477182827308	-0.0216507273389516
0.8	0.0020619646906579	-0.000100835297182975	4.52611959983485E-06	8.23652927673846E-07	2.74315977152568E-06	1.99823693507554E-06	0.998195605096088	-0.0238160285557568
0.9	0.00208907274106124	-0.000465803186968303	-1.53161081642776E-07	-4.21517151498591E-06	-3.4164975356022E-06	-3.10604974908967E-06	0.998099076339587	-0.0263327388210445
1	0.00169420410441172	-0.000991649602112974	1.05962884270927E-06	4.28784670405965E-06	3.32414775705122E-06	9.32271438606361E-07	0.997447080859183	-0.028165015953753
1.1	0.00133343548305404	-0.000950672563775336	9.03522613592972E-06	5.16927154864228E-07	-3.57509726092518E-06	-4.98462809431994E-07	0.996943055454944	-0.0299487981662551
1.2	0.00107486755859683	-0.00151655596948313	3.75667278333667E-06	-1.19890768105039E-06	-4.09262865306227E-06	-2.43465506442473E-06	0.99612749558717	-0.0309941448102733
1.3	0.000412883974256765	-0.00236226565107764	-7.61078562091163E-07	-1.42517884073851E-06	-2.58597180360718E-06	-8.6970218106806E-06	0.996084279099026	-0.0317597264678276
1.4	-0.000305107018196057	-0.00329294160412479	1.55442445114135E-08	3.44451379227735E-06	-4.27944020657432E-06	-4.1220338536303E-06	0.996039389286383	-0.0338692833274682
1.5	-0.0009626238481671	-0.00364540586399537	-1.29431432860774E-06	4.42703123393305E-06	6.54271006841263E-06	-7.41173841322801E-06	0.996380827261922	-0.0373407565826774
1.6	-0.000964735289035962	-0.00359223434097334	1.62779961997868E-06	-4.89667206031299E-07	4.23502902065413E-06	-5.3918965438414E-06	0.996045966790284	-0.0404973527284187
1.7	-0.00104168184348983	-0.0036160702061229	5.32873779964926E-07	3.95332603386166E-06	-8.27519935046013E-06	3.13069691974624E-06	0.996397908371785	-0.0429163380534371
1.8	-0.00111858606244242	-0.00349572615886984	1.83111268354564E-06	1.07666221145002E-06	5.64224124958774E-07	-1.76043660505904E-06	0.996452260238277	-0.0455982984710849
1.9	-0.00122443743496425	-0.00355199088271441	3.23447281325546E-06	3.01342662697117E-06	-1.83964489794865E-07	-2.32801229039658E-06	0.996280650300955	-0.048143100358846
2	-0.00166190972577679	-0.00344267038443572	-1.72427753180048E-07	2.00180433094464E-07	-1.21432129169019E-05	5.4135038818873E-06	0.994758299330827	-0.0507771512932792
2.1	-0.00158699316204081	-0.0032050418756388	6.67206569897036E-07	-1.38023996004025E-06	1.3787870077735E-05	4.95867166702646E-06	0.994689344458797	-0.0519149693452747
2.2	-0.00167929045244032	-0.00334448690998114	1.64224229833363E-06	-1.5146395493037E-06	2.68298990393508E-06	-6.20176537296002E-06	0.995054786230098	-0.0541414583958482
2.3	-0.00198816005919677	-0.0035017534764297	-1.68489675521739E-06	-3.42204444861516E-06	-1.7879065051135E-06	-4.58520782503026E-06	0.994931641110605	-0.0559051734301959
2.4	-0.00239649979689997	-0.00370085682026506	-1.20053344406916E-06	-4.39409585270659E-06	3.0412009459812E-06	1.08545983172452E-06	0.995047693424897	-0.0590598840023943
2.5	-0.00325019846054186	-0.00380373551101972	5.3716082513517E-06	5.66333212539409E-06	-2.61245080922017E-06	1.6122360090738E-05	0.994474889721929	-0.0614188461316144
2.6	-0.00380417805830774	-0.00327573118610067	-2.2750567953553E-06	2.70685321354038E-06	4.35553569978136E-07	-4.30539080022833E-06	0.994335621018668	-0.0640739111879858
2.7	-0.00398921340004951	-0.00286132955052948	-2.40080349806499E-06	-3.63305020324621E-06	2.15330886177222E-06	-2.5655267981606E-06	0.99382614101179	-0.0667921189991442
2.8	-0.00396759807166908	-0.00251863965117915	3.99411854803372E-06	2.31190985618448E-06	9.817584646382E-06	-6.77957654540289E-07	0.994021979743772	-0.0684240695506337
2.9	-0.00378914431311593	-0.00241022409854344	1.28608586919584E-05	7.2465158578729E-07	2.4508039418664E-06	-1.16959891468074E-05	0.993964484652321	-0.0702437985022311
3	-0.0038319159006043	-0.00232618977282714	-3.85077175782506E-06	1.0400862261028E-06	-4.13867325013322E-06	-1.60258846978452E-06	0.993916605687776	-0.0726412965648429
3.1	-0.00350246418030643	-0.00220773237679075	4.78836781577023E-06	-9.82582319632048E-06	1.06678590514763E-05	2.42283048389653E-06	0.99371305256407	-0.0743787635446444
3.2	-0.00342429983170121	-0.00243332803544656	-5.35280326852526E-06	-7.40973058636691E-06	1.56114601266705E-05	5.40597658259822E-06	0.993668128465567	-0.0760107051498014
3.3	-0.00352181176695995	-0.00265971411405703	-8.78901280630199E-06	2.52669225013893E-06	-8.55448626996325E-06	-1.75457307985251E-06	0.993719654635461	-0.0791215917501726
3.4	-0.00381167103901615	-0.00291674569788302	9.06958577960924E-06	-7.53870453768027E-06	-7.34930337241293E-06	4.21741964512051E-06	0.994094511588823	-0.0811357537383277
3.5	-0.00446715393108138	-0.00300289529962484	3.26856187351888E-07	-5.31932452910108E-06	-4.38332057135908E-06	-8.93342619197341E-06	0.993861200768364	-0.084506249179591
3.6	-0.00476589676868818	-0.00270024582262591	4.06087787336036E-06	4.90280884573573E-06	-7.11680033178561E-06	8.97416557713359E-06	0.993199879863682	-0.0866415684540458
3.7	-0.00507964297768791	-0.00259375985169964	1.53557023733289E-06	-4.52011681783241E-06	-5.0861743929607E-06	-6.5909215394693E-06	0.99337601771314	-0.0890025517835687
3.8	-0.00541985976212941	-0.00238084973775211	7.28550528102134E-06	-5.17722279362527E-06	-5.87086169333939E-06	-2.42933458214891E-06	0.993472533294075	-0.0910473059964362
3.9	-0.0056690953717408	-0.00213579566051981	-4.02713526667552E-06	-3.584881906926E-07	-2.53191378103626E-06	1.12715326565471E-06	0.993712549470544	-0.0946276059416831
4	-0.00609095192349878	-0.00172270087249298	-3.38161647987632E-06	-8.95661916433403E-08	1.1843843742124E-06	8.66635333842087E-06	0.99256997851925	-0.0962447749373928
4.1	-0.00590551662143848	-0.00105586223725381	-2.88889470523907E-06	-3.86784066463899E-06	5.86906393103976E-06	3.05336034629111E-06	0.992684329847369	-0.0970515640815905
4.2	-0.00565543687779611	-0.000852641970847799	-7.67574229487907E-07	-2.15948948387641E-06	5.70576593166291E-06	-1.82866057284921E-06	0.992761484066428	-0.0995957888229242
4.3	-0.00549082529300215	-0.000760986397131949	-5.19349447678226E-07	3.23470058943053E-06	2.12566559040509E-06	1.78605159841636E-06	0.993008813971947	-0.101708675454045
4.4	-0.0054945686143776	-0.000826969776174166	2.56850724140788E-06	3.4492268416027E-06	7.17427273926434E-06	3.9306621349408E-06	0.992851736768316	-0.10431208104643
4.5	-0.00590915903895499	-0.000727535042901745	-6.47429192264997E-06	-2.4811176094304E-07	-8.57803220212334E-06	-2.13782996187564E-06	0.992727004923528	-0.106368768614948
4.6	-0.00601280141467989	-0.000285699927262449	-9.92977057932525E-06	-9.25818584672721E-06	3.24531174077503E-06	-2.72470716138099E-06	0.992872493222269	-0.10926931955622
4.7	-0.00603400700075319	-8.59212488147776E-05	1.21919925930263E-07	1.86707031003182E-06	6.08155467168E-06	-6.72603007884803E-06	0.992932131655086	-0.11152594882985
4.8	-0.00611365758888959	0.000145162522652848	-6.40466284134084E-06	2.06698547921246E-06	8.1311343225301E-07	-1.27575775409385E-05	0.992708138274611	-0.114132230654093
4.9	-0.00607631214093313	0.000312677008531611	-3.44814709876742E-06	8.14304313388211E-06	5.42607137941277E-07	9.38723248960564E-06	0.992559396637081	-0.116069618199156
5	-0.00618002295913074	0.000528655561619429	9.66776862406428E-06	-4.04539047219118E-06	-6.95526592795984E-06	3.56696573067789E-06	0.992667698155193	-0.117936074787475
5.1	-0.00571458180243484	0.000811898394490885	-3.60979072078677E-07	-3.25826228884974E-06	-3.8774241380211E-06	-1.80305305845833E-06	0.99277927379102	-0.119560087346569
5.2	-0.00539244555693111	0.000646507261249743	-1.06066928457728E-06	-4.49640284573405E-06	8.79080865879568E-06	5.60310864703769E-06	0.99277966401632	-0.121985133326349
5.3	-0.00528095261257912	0.000486746971296058	2.27761760516813E-06	6.80971409701533E-06	8.80431815211947E-06	3.15607246452337E-06	0.99279558156599	-0.124587936670057
5.4	-0.00532428318292672	0.000332513467521902	2.71875884734958E-06	-3.14346708316769E-06	-2.68102305775778E-06	1.48644564716543E-07	0.993083667735182	-0.127822640073882
5.5	-0.00580921098676431	0.000553014844742003	2.10188220113068E-06	9.34902732921143E-06	-3.92718801560603E-06	-5.05426244147646E-06	0.992642236873435	-0.131489605519809
5.6	-0.00565308358725805	0.00102447168085175	-5.87001173761594E-06	-1.14198740205971E-06	4.88359988489784E-06	1.95355837656852E-06	0.991989598054153	-0.133806633023521
5.7	-0.00577713791420058	0.0011754242218689	3.34761036916411E-06	-1.42380291671678E-06	-5.05810295161503E-06	-4.30955312965579E-06	0.992024243401515	-0.136231861896685
5.8	-0.00602848144233666	0.00154854184008963	-2.05723489228115E-06	-4.76292406059015E-06	9.49889202225147E-07	-5.83289371403655E-07	0.992256455063928	-0.138676893819081
5.9	-0.00620840933943744	0.00207860559391407	-3.89240185074917E-06	6.21076728024225E-07	3.87525012514832E-06	1.2539324944273E-06	0.992302438560911	-0.141739027033328
6	-0.00667200964356298	0.00274665073579411	-5.95244639290668E-06	5.06179107445614E-06	-1.48892532226148E-06	1.97061925146899E-07	0.990781214974647	-0.143839120799711
6.1	-0.00629970279649624	0.00394642314730238	-5.94807625345396E-06	-4.71517906207795E-06	-4.02070188226121E-06	4.33192774274161E-07	0.991163526648411	-0.144316760777297
6.2	-0.00552854652295667	0.00425390223508047	2.83236240830358E-06	3.13691665158163E-06	1.05708072284963E-06	7.2533610866696E-07	0.991576721420697	-0.146254550349036
6.3	-0.00490087504801747	0.00400667781320142	1.64696683219293E-06	-7.52329754865405E-07	-1.32722562788031E-07	1.38090582010688E-06	0.99129628133619	-0.148999590447878
6.4	-0.00476578987448014	0.00335861670017402	-5.20640048732238E-06	-5.63318551151288E-06	3.83477673878527E-06	6.92756629052365E-06	0.990288727039129	-0.151765117712325
6.5	-0.00517727697420109	0.00316973051991274	9.09644746007725E-06	-2.51717550147409E-07	-7.34746613959294E-06	-8.98710202599015E-07	0.989501418417988	-0.153772165248301
6.6	-0.00499177278519587	0.0032237548088031	-1.49352237320416E-06	4.68863934428333E-07	3.38107779731878E-06	-9.41631277063047E-06	0.989998882634874	-0.156572588294505
6.7	-0.0050452745158115	0.00320690839445999	5.37903121067283E-08	7.77740134569422E-06	-5.00392809998262E-07	-6.10596214004363E-06	0.989643263506995	-0.159368041665663
6.8	-0.00504913303608065	0.00341556084855073	4.26240450774082E-06	1.6584901826724E-06	2.10692086900912E-07	-5.25208484539566E-06	0.989233300569659	-0.161916040105951
6.9	-0.00501261115039122	0.00351951670462614	-7.57550369153919E-07	2.49249298794527E-07	5.77500848667864E-06	-2.69339223978099E-06	0.988898202352652	-0.164511109796191
7	-0.00539868751788277	0.00397871671972073	8.04465950811764E-06	-4.77903439560213E-06	4.33942879617216E-07	-3.03062701843314E-06	0.987632889343189	-0.166647152040661
7.1	-0.00496955085693003	0.00465056510476664	3.86197967893763E-06	2.04577320306559E-06	7.84781747342249E-07	7.25380608374546E-06	0.987118649612102	-0.168000899317959
7.2	-0.00475586818174945	0.00478459700143383	-2.45129923456169E-06	3.70787781789475E-06	-1.34280857044552E-06	-3.83842207416336E-06	0.986638415110427	-0.169805176699948
7.3	-0.00481974016676979	0.00499722645309382	3.45031754901296E-06	-5.01436801602464E-07	-2.46143143186679E-06	-1.91984716215542E-06	0.985835050790201	-0.171622581165124
7.4	-0.00503031383849355	0.00515603560436884	-6.21625220611829E-06	-2.69568276468418E-06	3.78424271978752E-06	2.39904294501068E-07	0.985599838690656	-0.174311105680079
7.5	-0.00578372455170156	0.00554768396346922	6.75455382476749E-06	-6.47864615317701E-06	-2.4835154481102E-06	8.10984993074895E-07	0.984181820444232	-0.178475125095245
7.6	-0.00563590624666223	0.00668780513848622	3.50532705714702E-06	5.20188148433268E-06	-1.02443497986287E-05	4.96585098220253E-06	0.982450373621069	-0.180915150899616
7.7	-0.00524866475933491	0.0071232191855093	6.06360115033379E-06	1.09378944075337E-05	3.0404933514338E-07	-1.13744191487208E-05	0.982208236323983	-0.183914634636291
7.8	-0.00463378633537343	0.00714512493816334	2.16153389571929E-06	9.79861578196411E-07	-3.08804747243329E-06	8.84093591593049E-06	0.982179993023877	-0.18750616452006
7.9	-0.00409653384727627	0.00680845242944491	2.54989601725407E-06	-2.3245590431909E-06	3.69444917215101E-06	3.32544800048281E-07	0.981673328586345	-0.1917583893866
8	-0.00397649838564655	0.00685198875553036	-2.81079787107152E-06	1.33872042535265E-06	6.87624526927663E-06	-1.88065287914082E-06	0.978986352175551	-0.194654630036754
8.1	-0.00307135103162347	0.00682719205880379	-1.79088523832554E-06	7.60135618027241E-07	-3.71391145246009E-06	-1.24620291312087E-06	0.978759109107297	-0.195738354962296
8.2	-0.00261842761862774	0.00647390879591174	-7.79648884848468E-07	6.34188538398377E-06	4.89123914877684E-06	4.34625392070307E-06	0.978850196181004	-0.198016467121422
8.3	-0.0022849605422871	0.00624423951534237	-8.95264528952637E-07	-1.42227467842829E-05	6.84624421153174E-06	5.41223562778771E-06	0.978374310072636	-0.200879011173161
8.4	-0.00207498805388634	0.00594549472384337	3.75149344657272E-06	-3.44064066264917E-06	-6.97715542616921E-06	-1.1993794921882E-06	0.97748517608332	-0.203710507518069
8.5	-0.00243934182836295	0.00594860468987607	4.67726264516501E-06	5.76057254124336E-07	8.40269189343974E-06	-6.854348472628E-06	0.97658673992253	-0.206180420924767
8.6	-0.00208302051226379	0.00637789978711035	-3.25962286321257E-06	4.12818674105802E-06	1.03927808907611E-06	1.11008181931553E-05	0.976267481438403	-0.208955065220386
8.7	-0.00179621468299778	0.00631961943117388	2.67872070908085E-06	-2.00821837567836E-06	4.77185177846984E-07	-5.55491742276023E-07	0.975675176695188	-0.211790091070192
8.8	-0.00162467075103102	0.00638037471473944	1.18200992424346E-07	-1.25379506753519E-06	-9.42227941985815E-07	9.77362440652415E-06	0.974916022099414	-0.214112707310687
8.9	-0.00134689050362897	0.00634175470615743	-3.65807983742823E-06	2.30297965804117E-06	4.8291827155897E-06	-1.81648257262599E-06	0.974625904804994	-0.216054884470835
9	-0.00134059175924772	0.00638554785704914	-1.89045179927342E-06	5.01839091457526E-07	-3.23381839758399E-06	-1.05369866085454E-05	0.974257225314538	-0.218314818378743
9.1	-0.000590935718483811	0.00653644101581709	5.25657546579264E-06	5.76581518795265E-07	9.14510383868185E-07	3.79741493082004E-07	0.973770749990308	-0.22030630877819
9.2	4.71841867141515E-05	0.00605790820229025	-8.7397178078821E-06	-4.55595979873166E-06	-8.98383472109804E-07	-6.12838660075923E-06	0.973203053394323	-0.222794480904945
9.3	0.000402193672663691	0.00550424107788345	2.0490789753417E-07	6.21837693187167E-06	4.63540562669136E-06	-2.20748674982485E-06	0.972772861508211	-0.22525642034555
9.4	0.000562485497866466	0.0048196686558535	-1.91353749867487E-06	5.89449197975767E-06	-1.04905253293562E-05	7.77700267229912E-06	0.972315941726349	-0.228445717676959
9.5	0.000157468008680377	0.00470057294085201	3.16094046764077E-06	-7.58575541017115E-06	3.67620726000407E-06	-2.75775694616105E-06	0.970988396850914	-0.232017707790292
9.6	0.000337598107875052	0.0046446266221966	4.52157911824543E-06	5.55925003158586E-06	-6.12869006693763E-07	7.07480528584999E-06	0.969663719721462	-0.234671659728546
9.7	0.000143950521536164	0.00438225866842344	-2.61961823093211E-06	-3.92758352315101E-06	3.66266913606181E-06	-7.53598161281344E-06	0.96893090019116	-0.237145235076332
9.8	-0.000242932037710744	0.0044101441211672	-5.4141477687375E-07	-4.21175219212004E-06	6.27810480369211E-06	8.64295140126752E-07	0.968590914762587	-0.23950212526987
9.9	-0.000594543971334094	0.00466924148921473	-2.69046342227379E-06	-5.82360770063577E-07	-8.47705697592432E-06	5.5237514396254E-06	0.967504046621602	-0.2421474177386
10	-0.00119373457107368	0.00530563934206773	4.20569313974437E-07	-1.75050904608075E-06	-3.11337724890044E-06	-7.94465762548478E-06	0.964844759154382	-0.242881348671007
10.1	-0.000779048563171058	0.00629586929710703	2.25759953045252E-06	4.75476818978896E-06	-3.06318307649656E-06	9.8433569424575E-06	0.965104108224979	-0.242686534505272
10.2	-0.000198477940315159	0.00665354573050482	-5.40499415878921E-07	-1.04503740472628E-06	-1.21829214434391E-06	-3.10703908833469E-06	0.965238133627417	-0.244092837471756
10.3	0.000354005493356683	0.00682832796857474	1.12722172119042E-05	-2.96389130042744E-06	1.00177980229479E-05	-4.86855176974713E-06	0.964652311387363	-0.246130715207648
10.4	0.000846214338622614	0.00671701407862533	-6.19536117555942E-07	2.14370461059239E-06	3.01505529094829E-06	-2.18892544673835E-06	0.963206685966151	-0.24844876160681
10.5	0.000867134480855579	0.00687609899542626	-6.08145082950247E-06	4.64335193138681E-06	1.5764443628286E-06	4.28986364053142E-06	0.961696051847143	-0.25007152318594
10.6	0.00158335214868945	0.00715452883671206	-7.0572078516271E-06	1.06736339409446E-05	7.0174177587846E-06	4.23951103170625E-06	0.961059269813347	-0.252199408991581
10.7	0.00216956696881154	0.0071114332283972	-3.20061809347685E-06	1.5697254262239E-06	-5.3432192045054E-06	3.17314040072711E-06	0.960015326329499	-0.254346271339485
10.8	0.00279292369881044	0.00703743892409965	-1.91084090292134E-06	4.97780072886133E-06	8.41558550570431E-07	-3.19365983576681E-06	0.959381914600463	-0.255680253271093
10.9	0.0032910431182595	0.0067388360512646	-5.74492168844654E-06	-1.04802609069786E-05	4.92941951863566E-06	1.0659590800507E-05	0.959097539822797	-0.257130258417245
11	0.00338356909624494	0.00665178119712213	2.95917394050829E-06	2.60402737249313E-06	7.74838065296912E-07	-1.12009920394836E-05	0.958544124533349	-0.258098284169018
11.1	0.00415974559214993	0.00665830516209902	3.84709534690056E-06	1.44866739511868E-06	2.46388799126697E-07	-7.35013083375058E-06	0.958644152568276	-0.259019452511883
11.2	0.00468651697700634	0.00613472191066964	-4.40239934496204E-06	-1.96018322741911E-06	-7.30180883579989E-06	-4.82665534704181E-06	0.958537749820164	-0.260638620141268
11.3	0.00501364446887903	0.00556841871122976	6.56626497508087E-07	-6.35574433637024E-06	3.76231062963348E-06	1.408670441542E-05	0.958580773100788	-0.262550363263696
11.4	0.00511141641347414	0.00494477057345273	-5.09744877364945E-06	8.1160707996043E-06	-1.45264122074315E-06	4.06320166139385E-06	0.95830133076592	-0.265639538573744
11.5	0.00469023039995061	0.00467818867278453	4.51463053562476E-06	8.05926384127498E-06	-9.25277818247536E-06	1.58383185048298E-06	0.956336819925529	-0.269388240736876
11.6	0.00499553274173278	0.00459147621583643	-3.82323137956373E-06	1.39716962200433E-06	5.06087589491274E-06	8.09584544528042E-06	0.954591806538267	-0.271758986432954
11.7	0.00508122376957183	0.00412561993876454	2.23944663089598E-06	1.04793308938372E-05	5.37830167099891E-07	-3.63225551631134E-06	0.953930823038339	-0.27491136486136
11.8	0.00509348616665894	0.00382601546880483	1.42180602353737E-06	4.44209697558154E-06	2.23923258798135E-06	4.51593003742159E-06	0.953186881930977	-0.278627942160267
11.9	0.00508137888799748	0.00352101510014929	7.40966560868341E-06	1.05235162481636E-05	3.86555855928375E-06	4.04352015465515E-07	0.952014341175174	-0.281750413893804
12	0.00464557033574387	0.00364080717815757	2.34630681831705E-06	-5.12746296721258E-06	-4.03720030494455E-07	1.74203235399423E-06	0.948816762492129	-0.282536928355225
