# GHZ S RI R 50
0.2	0.000547134141611752	0.00129818997111863	4.80979182050446E-06	-2.98143536075322E-06	-1.37823816178362E-05	1.31190709968451E-05	1.00119481004075	-0.00617738254853534
0.3	0.00110040075016747	0.000957447220596151	2.8615466489427E-06	6.64739885200607E-06	-1.65179642215559E-06	-9.34645748511988E-06	1.00154394716781	-0.00904707502881361
0.4	0.00140355656875977	0.0010239937061888	-1.8641760696729E-06	-4.03156405651799E-06	-9.05090695857316E-06	4.40802947730451E-06	1.00241525956523	-0.0116574744741085
0.5	0.00258763636394728	0.000494497661796534	-5.37383713702612E-06	3.27549149114552E-06	-2.13022224237787E-06	6.77909677074276E-06	1.00308035717967	-0.0163953502713411
0.6	0.00185526291323109	-0.000907234214938257	-1.41584734439576E-07	2.81209222450613E-06	-5.82713814972148E-07	-1.34744916022522E-07	1.00163912461133	-0.019578723587207
0.7	0.00106332196558128	-0.000760958257174149	8.57365720543286E-08	2.22626626997233E-06	4.92286163973687E-06	-3.40696636679549E-06	1.00138420922249	-0.0218257294755032
0.8	0.00071385661242933	-0.000555134890908229	4.54579314595572E-06	8.342823035628E-07	2.75282352522865E-06	2.01160620263264E-06	1.00144819949978	-0.0237377420687004
0.9	0.000186179819202633	-3.60123338221662E-05	-1.4851123196188E-07	-4.23940074859943E-06	-3.43190354167783E-06	-3.12823224043479E-06	1.00154197357216	-0.0256127558287997
1	0.00121285813202778	0.00119878227606131	1.06721834702868E-06	4.31629522357331E-06	3.34641798683684E-06	9.38076517088868E-07	1.00300575020115	-0.0267138846053826
1.1	0.00198648613355424	-0.000618603609460903	9.08757849995606E-06	5.12411407684762E-07	-3.59605581012705E-06	-4.98365128431491E-07	1.00301604798966	-0.0307260487805696
1.2	0.000898692115762439	-0.00180010279946705	3.7764217740343E-06	-1.20892409430822E-06	-4.11749994294929E-06	-2.44447942325297E-06	1.00149105091397	-0.0324161172646917
1.3	-0.000359365499099513	-0.00297672211810133	-7.67019497679884E-07	-1.43123894705209E-06	-2.61184972960452E-06	-8.7370426966052E-06	1.00065117361732	-0.0341720926959137
1.4	-0.0017283647016022	-0.00361374480661658	2.20207635753308E-08	3.4588496112823E-06	-4.30495972272529E-06	-4.13125824298908E-06	0.999249738705792	-0.0366129437454732
1.5	-0.00143909669229111	-0.00402763315337267	-1.29352062419469E-06	4.44660697882832E-06	6.55899533243504E-06	-7.45044641442418E-06	1.0006220279174	-0.0399351666402549
1.6	-0.00259352853642809	-0.00430168890022231	1.63536990243281E-06	-4.94116905741615E-07	4.24968483966081E-06	-5.42414026270438E-06	1.00008683001685	-0.0438747784245678
1.7	-0.00268940314701611	-0.00326593283706741	5.42282199438516E-07	3.97541638990619E-06	-8.31821970363111E-06	3.16208576498997E-06	1.00083770447566	-0.0458693235661941
1.8	-0.00242205077896636	-0.00257399935579671	1.84426060966095E-06	1.07988862003592E-06	5.64451033861512E-07	-1.77221631549114E-06	1.00125651080518	-0.048184694530013
1.9	-0.00203800396685256	-0.00182889534787871	3.2584377936426E-06	3.02959410037962E-06	-1.87526181169456E-07	-2.34286235014122E-06	1.00182057285825	-0.0489296608717478
2	-0.000394072597078754	-0.00200411905502457	-1.73962889269805E-07	2.0235565943782E-07	-1.22597553735627E-05	5.47959058975755E-06	1.00617868790406	-0.0516858418259228
2.1	-0.0010683965779037	-0.00363765680544335	6.67180929760602E-07	-1.39726967614838E-06	1.39497127079043E-05	4.94136219957117E-06	1.0054857327724	-0.0588069580389778
2.2	-0.0020735568589522	-0.00359875051506907	1.6480971010448E-06	-1.53699031879434E-06	2.67176666314106E-06	-6.27074189717432E-06	1.00357581510442	-0.0618588556473169
2.3	-0.00284377192519288	-0.00339278521244194	-1.71916038740445E-06	-3.44087820211761E-06	-1.82987211142245E-06	-4.61320401791424E-06	1.00242398993946	-0.0637286716977551
2.4	-0.00365766099577078	-0.00271327363760251	-1.23977320171659E-06	-4.42387907757849E-06	3.07443652415881E-06	1.0747392940383E-06	1.00192430609313	-0.0666616631604022
2.5	-0.00288786592763002	-0.00170874735941719	5.4591375873211E-06	5.66339688604939E-06	-2.50154676536304E-06	1.62681123160402E-05	1.0020296394721	-0.0689278987796988
2.6	-0.00282473189779701	-0.00286356931727072	-2.26998172065113E-06	2.74228974529309E-06	4.06000807121175E-07	-4.33773255072252E-06	1.0019888745894	-0.0725412346150553
2.7	-0.00353920787684174	-0.00301937070956869	-2.44606427556762E-06	-3.64100325738354E-06	2.14926542153179E-06	-2.60064101500169E-06	1.00168114492203	-0.0761343302011397
2.8	-0.00414741409154803	-0.00286028126979383	4.04389110819676E-06	2.29499702234813E-06	9.88538589087875E-06	-7.67223215411877E-07	1.0015311045528	-0.0790715906505634
2.9	-0.00443935692266751	-0.0021552604094364	1.29595203873421E-05	6.01789270963527E-07	2.35181056739399E-06	-1.18035497608338E-05	1.00047597646641	-0.0816964732303855
3	-0.00341090404158735	-0.00203194650705309	-3.85973734793058E-06	1.08644221894639E-06	-4.17723691089296E-06	-1.56691390051341E-06	0.999736697719877	-0.0844886772734175
3.1	-0.00408155839912942	-0.00286184209630726	4.71199972018449E-06	-9.92396208490835E-06	1.07460555783042E-05	2.32600969828516E-06	0.998630058222859	-0.0871644360858837
3.2	-0.00468178155983265	-0.00248155118920674	-5.45916401852817E-06	-7.38422836091025E-06	1.57423470313562E-05	5.25783365389135E-06	0.997280081350137	-0.0892894500798441
3.3	-0.00502002073854014	-0.00209898551496127	-8.7896788980072E-06	2.64120264596275E-06	-8.60576012258828E-06	-1.65799162356299E-06	0.995749419615431	-0.0928478704778445
3.4	-0.00530733426826125	-0.0013594239073247	8.98613936064291E-06	-7.66710590424312E-06	-7.30607490501549E-06	4.31859501247037E-06	0.993789726209213	-0.0945484231917568
3.5	-0.00425588548729627	-0.00116173417900548	2.69462000363895E-07	-5.31896480469631E-06	-4.47611995324196E-06	-8.87982488547375E-06	0.993317956533981	-0.0951440120885722
3.6	-0.00504274217193451	-0.00222243614420473	4.11491952398324E-06	4.86571124344018E-06	-7.03137110511966E-06	9.05546617023674E-06	0.99393517021789	-0.0986779615509145
3.7	-0.0060399239216214	-0.00167856727197519	1.48479690047148E-06	-4.53998439661908E-06	-5.1640135830661E-06	-6.53631588516772E-06	0.992506463558965	-0.10199119070623
3.8	-0.00650576186962803	-0.000824871685254794	7.22041252643596E-06	-5.25927842766136E-06	-5.8956592408995E-06	-2.35912847974261E-06	0.990775633541552	-0.103502669456497
3.9	-0.00640390110777382	0.000435856771015921	-4.02511835099606E-06	-3.15088895907409E-07	-2.51624420498975E-06	1.1524795918741E-06	0.990142931129372	-0.104428811983459
4	-0.00458165218212133	0.000800007553717347	-3.38619181851303E-06	-5.34945958805609E-08	1.27834060011106E-06	8.66295660950061E-06	0.993941512550428	-0.105498239612507
4.1	-0.00475208212981033	-0.000582636023184602	-2.94141469956357E-06	-3.82532262928152E-06	5.90856457369978E-06	2.96960485625235E-06	0.992445620509701	-0.111409559658638
4.2	-0.00539850559421446	-0.00055748518138956	-7.95465531521471E-07	-2.14287643003203E-06	5.66464195720589E-06	-1.90290372544581E-06	0.989597386826934	-0.114046847971679
4.3	-0.00578257685311995	-0.000259604948605424	-4.73808462974409E-07	3.22957018023949E-06	2.14176500898565E-06	1.75070696585719E-06	0.988281876800001	-0.115540548999844
4.4	-0.00610771234429592	0.000491623679171074	2.60561608713606E-06	3.40034911344163E-06	7.1997332289438E-06	3.81673649850501E-06	0.987464515593915	-0.117434023221669
4.5	-0.00480726625497837	0.000944890680772073	-6.43890017741444E-06	-1.45332376450917E-07	-8.55943922293647E-06	-1.99067977509991E-06	0.986996898778507	-0.120569928075665
4.6	-0.00541358129550851	-0.000451474723360886	-9.96773036545235E-06	-9.04140771064605E-06	3.17959442370569E-06	-2.74469944552419E-06	0.984498396807937	-0.123231421562364
4.7	-0.00645168523960862	-0.000165180249737333	1.4369405378589E-07	1.84875018978979E-06	5.94434762365697E-06	-6.73991661666436E-06	0.983552623512009	-0.124459585999321
4.8	-0.0070978578806381	0.000477672643667696	-6.32176014186355E-06	2.12371229206527E-06	6.55082717442947E-07	-1.26506452782493E-05	0.98251119154205	-0.126491777227316
4.9	-0.00735282798744799	0.00162633773872578	-3.31584370096606E-06	8.10643639419201E-06	6.51549438078718E-07	9.29008529206142E-06	0.98115815763345	-0.127814762149308
5	-0.00584012511317384	0.00204323854982401	9.50109962932275E-06	-4.10959577517411E-06	-6.82761792133416E-06	3.60507673726776E-06	0.980246968994587	-0.128489467603052
5.1	-0.0063938494320666	0.00116630713572946	-3.87302636414613E-07	-3.2141553212924E-06	-3.84606210961221E-06	-1.74384485316856E-06	0.979598704349005	-0.129184592653596
5.2	-0.00668632116956486	0.00187251835512886	-1.08843050146234E-06	-4.43095775201102E-06	8.7327256769518E-06	5.45357881745708E-06	0.978743316814331	-0.130527062667991
5.3	-0.00637995339675488	0.0024912111472585	2.31040340445102E-06	6.69989827168261E-06	8.71834947130708E-06	3.03403399423281E-06	0.977955538403372	-0.132091905110934
5.4	-0.00579651136388489	0.00329453920186813	2.64813887752947E-06	-3.12173047648775E-06	-2.6392147666932E-06	1.71687935595533E-07	0.976761889965192	-0.133883471469172
5.5	-0.00368341202034351	0.00276872367710343	2.1186927300649E-06	9.16902463074406E-06	-3.88620103127988E-06	-4.94067321318995E-06	0.977014312699291	-0.133999897315298
5.6	-0.0050165056473854	0.00102462873456544	-5.78233697794998E-06	-1.102903211635E-06	4.81428646260015E-06	1.90534820806077E-06	0.977781914810415	-0.13709658190405
5.7	-0.00628016762531718	0.0017441309623815	3.29055893628875E-06	-1.41363093940419E-06	-4.99493353271173E-06	-4.22461012684999E-06	0.97647445959789	-0.139264186863939
5.8	-0.0068371395625174	0.00271286480865775	-2.03591276707787E-06	-4.68069273836082E-06	9.33054907983878E-07	-5.76237775689497E-07	0.975372059553933	-0.139927472986471
5.9	-0.00719459677109579	0.00436152380489131	-3.83068505034648E-06	6.10788523247563E-07	3.8135986120172E-06	1.23445617657301E-06	0.975356830575791	-0.138675536682933
6	-0.00490183913931946	0.00588930013197565	-5.88061440046887E-06	5.00510480431774E-06	-1.47141587049741E-06	1.95394075571487E-07	0.980996833567155	-0.139772132255393
6.1	-0.00440133913492755	0.00394785130934654	-5.87734735488036E-06	-4.62781753065043E-06	-3.96119445306955E-06	4.39922218113895E-07	0.979512328063243	-0.145500467760916
6.2	-0.00526850283310328	0.0036008935999701	2.79001776501065E-06	3.08113672821552E-06	1.04064975019098E-06	7.118719458047E-07	0.977190952942992	-0.146246783710474
6.3	-0.00591170566365626	0.00375092215863531	1.62007937348768E-06	-7.38726095046864E-07	-1.31432319196688E-07	1.35785503874122E-06	0.976167951176082	-0.146929363177615
6.4	-0.00618330371263221	0.00470234095799333	-5.11886566064252E-06	-5.55730354787175E-06	3.76567396212386E-06	6.82997008180466E-06	0.976536526973414	-0.147694774651896
6.5	-0.00448933373409696	0.00421101097369774	8.95181948090447E-06	-2.59209378073418E-07	-7.23203732371363E-06	-8.75175734826442E-07	0.976788210518121	-0.153180865252631
6.6	-0.00599758029513503	0.00335620949603125	-1.46570397196336E-06	4.56890024459533E-07	3.33460477978162E-06	-9.22840666956488E-06	0.972414170164163	-0.154026977477545
6.7	-0.00636517251149999	0.00442186152555491	1.45289535556787E-08	7.6346177925163E-06	-4.61142203238206E-07	-5.99611874472772E-06	0.972283815982755	-0.153281413657251
6.8	-0.00632372539232666	0.00517437532372978	4.17802425103739E-06	1.65762948887988E-06	2.41270020705954E-07	-5.16005281932119E-06	0.972616067629921	-0.15379474717589
6.9	-0.0060862037506358	0.0066637837110311	-7.47033630671015E-07	2.39606519645178E-07	5.7006784838792E-06	-2.60694764835785E-06	0.973044794822743	-0.153784961685836
7	-0.00314676220115784	0.00677162135755517	7.9514309481574E-06	-4.63723119446783E-06	4.50931047247422E-07	-2.97776430659201E-06	0.975711883780502	-0.154915211897729
7.1	-0.00426351015666838	0.00464747749412812	3.78063781592363E-06	2.04950256007117E-06	7.03520133472348E-07	7.14482867566801E-06	0.974815157331714	-0.15825940656257
7.2	-0.00540838659351534	0.0053673897091357	-2.45228247626267E-06	3.6250553310186E-06	-1.28194906882318E-06	-3.79327427931546E-06	0.973375843496928	-0.159348088840181
7.3	-0.00595857237057093	0.00624849641975872	3.4031458148933E-06	-4.55804835788796E-07	-2.40271239801551E-06	-1.91761941081079E-06	0.971496675823602	-0.160393541659779
7.4	-0.00654754024619325	0.00793806322958539	-6.07731607876093E-06	-2.72442142977291E-06	3.71654612124688E-06	2.81394127355294E-07	0.967955733563044	-0.160121381640659
7.5	-0.0040338277617212	0.00961094520697336	6.76154766902541E-06	-6.2399894883884E-06	-2.45636206932548E-06	7.50119614193051E-07	0.970138232102315	-0.155095327907822
7.6	-0.00380244018196048	0.00756197256136849	3.36332896570604E-06	5.21357221687494E-06	-1.02289848454942E-05	4.70772043806436E-06	0.974738431260925	-0.160075879394389
7.7	-0.00456035815336789	0.00762521210290974	5.79499495983514E-06	1.09471208677513E-05	5.18810700660824E-07	-1.1257490686667E-05	0.974584956399244	-0.163854737276323
7.8	-0.00470926203196073	0.00800501046656351	2.12196409750291E-06	1.0137267409231E-06	-3.23510802710681E-06	8.69737476528943E-06	0.974746311273944	-0.165854883107091
7.9	-0.00410666612326004	0.00887183845291347	2.5813601502503E-06	-2.24753611464652E-06	3.65625705538185E-06	4.13426803312703E-07	0.976685231923355	-0.165751876312864
8	-0.00156853153941685	0.00747403634115748	-2.83947182554326E-06	1.2708661364486E-06	6.91343357609348E-06	-1.71612958533215E-06	0.984991776768467	-0.1701813936804
8.1	-0.00320875040815203	0.00580990817622634	-1.80432809463047E-06	7.26974910584464E-07	-3.68988374513672E-06	-1.3141269425702E-06	0.982977383910589	-0.179245970727027
8.2	-0.00401094668315589	0.00644897084916259	-8.92103056438115E-07	6.31937512719088E-06	4.80685152498446E-06	4.42793273386986E-06	0.980773826806464	-0.181535612094314
8.3	-0.00430818426564566	0.00710665673757615	-6.34660759119874E-07	-1.4228800199529E-05	6.74235996132302E-06	5.53344397819812E-06	0.980223554877328	-0.183700649442866
8.4	-0.00435709873632727	0.00864991151539824	3.81598132775156E-06	-3.37892585306384E-06	-6.96413561045881E-06	-1.32283505995062E-06	0.980478588341622	-0.186032617203717
8.5	-0.00148860283157413	0.00904579198618692	4.66671633028703E-06	6.45601730354642E-07	8.5014529522731E-06	-6.72612028889886E-06	0.980697750566024	-0.190191543667187
8.6	-0.00231859265122981	0.00696033842506433	-3.32997428191155E-06	4.06524762665971E-06	8.39290701518154E-07	1.11071944742712E-05	0.979295210997106	-0.192651955708415
8.7	-0.00330042947430102	0.0076328269371201	2.71999206140946E-06	-1.96003824051466E-06	4.88276496612318E-07	-5.47152410359961E-07	0.979692830204822	-0.194570454533581
8.8	-0.00348505097687058	0.00856444089438607	1.41991002034703E-07	-1.25594119927638E-06	-1.12774885613653E-06	9.78996569744585E-06	0.980305886707018	-0.196752500704546
8.9	-0.0032197585582161	0.0100597466430422	-3.71664155605285E-06	2.25382296865209E-06	4.88588239017462E-06	-1.74497279090923E-06	0.981265516242999	-0.198881464883478
9	-0.000195478205859096	0.0106114297131097	-1.90473421938466E-06	4.7447275554278E-07	-3.08279841675535E-06	-1.0623317135004E-05	0.982286327192125	-0.201182679387004
9.1	5.24088649468087E-05	0.0085757751302639	5.27113313527895E-06	6.71089271387745E-07	9.12162769617591E-07	3.97492605758504E-07	0.98331670213586	-0.203988642168237
9.2	0.000147937774080983	0.00830170009497899	-8.71925855068128E-06	-4.73176017898676E-06	-8.01324465914842E-07	-6.18270767406912E-06	0.983748125865366	-0.207537595730337
9.3	0.000470676557695609	0.0078503322769035	1.08943839877856E-07	6.26441293291015E-06	4.70189830753656E-06	-2.15010307130283E-06	0.983496678792786	-0.211267795200699
9.4	0.000745433057673297	0.00799476289807769	-2.01237118835987E-06	5.89933495924548E-06	-1.06660696720188E-05	7.66448360037726E-06	0.981761052012567	-0.214261201612474
9.5	0.00254572114338476	0.00654927169825756	3.32262088117876E-06	-7.56033180763013E-06	3.74689197018506E-06	-2.6996147257604E-06	0.982796769788293	-0.214928732797079
9.6	0.000387435821291512	0.00474926860216717	4.45526625702746E-06	5.70631143845103E-06	-7.6145352085263E-07	7.13379761164801E-06	0.984101601539554	-0.220431545551252
9.7	-0.000913029054433199	0.00550297079335558	-2.57850530604081E-06	-4.02336189961246E-06	3.84621875610152E-06	-7.5589909561028E-06	0.98311958420441	-0.224091902933542
9.8	-0.0015767462894874	0.00637206701662637	-4.71991126316401E-07	-4.27580316698916E-06	6.34326465186279E-06	9.89299268790129E-07	0.982661683697924	-0.225944164743272
9.9	-0.00184968003238408	0.008049056715685	-2.71862968912521E-06	-6.44895796708153E-07	-8.71325763371619E-06	5.43567162130292E-06	0.983882285171093	-0.22523023870743
10	0.000719680009786656	0.00856835782708953	4.60534239234907E-07	-1.78201917254113E-06	-3.04350840551668E-06	-8.17553203874358E-06	0.991657681168093	-0.230385163087087
10.1	-4.04254463459301E-05	0.00684230921369371	2.24845849834177E-06	4.87955566440449E-06	-3.24204087763711E-06	1.00108809258702E-05	0.98764730273464	-0.238893207945917
10.2	-0.000888308917681621	0.00739971819842145	-5.39405544411985E-07	-1.07184360314602E-06	-1.20733992427878E-06	-3.18234825190271E-06	0.984754631452544	-0.240372120979428
10.3	-0.0011854594972889	0.00825305598346967	1.15408475475225E-05	-2.90271278897984E-06	1.02809734521316E-05	-4.86100608101511E-06	0.983844782209231	-0.241931158981385
10.4	-0.000892429525590884	0.00987293142514214	-6.53735603528171E-07	2.18882597972712E-06	3.10639502468174E-06	-2.21329551900088E-06	0.984291742668333	-0.244113902655377
10.5	0.00196796873262713	0.0100045455675894	-6.23816042971943E-06	4.72614444988507E-06	1.59603302315201E-06	4.39390165364568E-06	0.984423821348651	-0.250093024364267
10.6	0.00164186335810901	0.00847760651720272	-7.2592293213782E-06	1.08632831265752E-05	7.14410283200768E-06	4.36389659501604E-06	0.982050647756331	-0.253044589561535
10.7	0.00154232425739316	0.00863539062559418	-3.28136286658023E-06	1.59112097162709E-06	-5.48055094050055E-06	3.22155682208989E-06	0.982210020359184	-0.25662951682455
10.8	0.00143216640243609	0.00881457437233722	-1.97049281139141E-06	5.09468007306851E-06	8.70422305058466E-07	-3.26964245497676E-06	0.981512419173181	-0.26069953298781
10.9	0.00156822404370264	0.0100485969830703	-5.89520072465332E-06	-1.07419947556287E-05	5.05919855024509E-06	1.09262595127593E-05	0.980818882107493	-0.263961960907176
11	0.00444303167040444	0.00992746476154347	3.0333600435017E-06	2.65512087552082E-06	7.62151675655178E-07	-1.14572571540711E-05	0.980522024721947	-0.267434412473927
11.1	0.00363942611153253	0.00819115245609772	3.93794643633184E-06	1.47317512343865E-06	2.35765985200218E-07	-7.5181381195375E-06	0.978100899875411	-0.271359669196251
11.2	0.00332229141116855	0.00865227174207775	-4.51261531390552E-06	-1.98915680650226E-06	-7.49061603562003E-06	-4.91148120961538E-06	0.975476333441074	-0.274072980675534
11.3	0.00360202379750793	0.00916655006687731	6.33293884138157E-07	-6.50336536209818E-06	3.93197357349031E-06	1.43825476599219E-05	0.972157339529634	-0.276150186623443
11.4	0.004129647936249	0.0100846417084553	-5.13383996863412E-06	8.31519901581609E-06	-1.44929770475865E-06	4.15427915029709E-06	0.967934518195653	-0.277251414982517
11.5	0.00704516345627886	0.00925813849241147	4.62566764300807E-06	8.19414659374705E-06	-9.41969664260793E-06	1.64431605309447E-06	0.970263290312286	-0.2761513868814
11.6	0.00607849795882209	0.00682497407437949	-3.90387547379424E-06	1.44926150718252E-06	5.21953715643556E-06	8.25563913576134E-06	0.970610131629899	-0.283873894457391
11.7	0.00529901755635219	0.0068117911577999	2.37785324202307E-06	1.06979988091199E-05	5.19625927763888E-07	-3.71904201284621E-06	0.967270260849038	-0.288686863177251
11.8	0.0051195147126021	0.00714112240649133	1.49511172294568E-06	4.52219865112317E-06	2.33054378749238E-06	4.58963663765801E-06	0.964627781326721	-0.291257190507343
11.9	0.00614090188526325	0.00826602798127708	7.65731708497407E-06	1.06815853261561E-05	3.95070142362706E-06	3.79406400879859E-07	0.966213898396836	-0.290380755750356
12	0.00927747408831953	0.00686425495861069	2.34930838646333E-06	-5.29242698168457E-06	-3.94186601437353E-07	1.79347933847229E-06	0.974173644751893	-0.297768378483357
