# GHZ S RI R 50
0.2	0.000957823815350973	0.00261854062007405	4.78959273060328E-06	-2.98578655367027E-06	-1.37129057324728E-05	1.31195105934628E-05	0.999187476968291	-0.00717501987146091
0.3	0.00132158425430271	0.00172764871343842	2.86639010184501E-06	6.62165963083391E-06	-1.66572634692952E-06	-9.31506027104927E-06	0.998975185012615	-0.0100857266937776
0.4	0.00159143380406399	0.00110889589948338	-1.86255037308559E-06	-4.0127294568874E-06	-9.00830037723467E-06	4.40348748587532E-06	0.998755128096694	-0.0128476633713393
0.5	0.00140309275876127	0.000674509666009808	-5.35508882893322E-06	3.26078362618739E-06	-2.12522956220555E-06	6.7526586538867E-06	0.998001974380986	-0.0155908792283349
0.6	0.00168071986569376	0.000660131993388507	-1.39370603385034E-07	2.80466668868481E-06	-5.81243920986262E-07	-1.34004313210718E-07	0.998430416009285	-0.0180709001099413
0.7	0.00187364385147271	0.000284146853363248	8.83147669265435E-08	2.21786970367692E-06	4.90010752198864E-06	-3.40069404331077E-06	0.99823071888815	-0.0210966804543362
0.8	0.00197587878123782	-6.01787564603093E-05	4.5254753796586E-06	8.24618381255835E-07	2.74242223697648E-06	1.99867186866562E-06	0.998028061757319	-0.0232665379478647
0.9	0.00205672733397049	-0.000441732680428948	-1.52178462704988E-07	-4.21469821007822E-06	-3.41537505998611E-06	-3.10645663339173E-06	0.99807120697281	-0.0257993344210391
1	0.00174071442728289	-0.00111610687769905	1.05835412836607E-06	4.28729376572797E-06	3.32328040738512E-06	9.32925095744548E-07	0.997499450109949	-0.0278953534209213
1.1	0.0012571163350795	-0.00102143315964555	9.03416684569606E-06	5.19911153827181E-07	-3.57457939625063E-06	-4.99614719526178E-07	0.996865181600977	-0.0296448163432545
1.2	0.00113557978154296	-0.00153928080431541	3.75692031605212E-06	-1.19767163379894E-06	-4.09170988419086E-06	-2.43586885664073E-06	0.996155317242422	-0.0306732547663233
1.3	0.000470791522635649	-0.00246574187993102	-7.60388754325905E-07	-1.42544277834197E-06	-2.58187968470377E-06	-8.69769882788582E-06	0.99598991785022	-0.0313509157745577
1.4	-0.000371753310729784	-0.00333946916716281	1.28570136793785E-08	3.44445820333286E-06	-4.27614064756642E-06	-4.12529103759555E-06	0.995810147714337	-0.0329917655373172
1.5	-0.00113387447475776	-0.00362175458522237	-1.29877430847153E-06	4.42637822255071E-06	6.55076970236746E-06	-7.40641010090897E-06	0.996129428959588	-0.0361288703029759
1.6	-0.00099595595913051	-0.00343447314678143	1.62860034985769E-06	-4.88266370434497E-07	4.24092075943062E-06	-5.38913200336277E-06	0.996038160329979	-0.0390262347200275
1.7	-0.000939089008385106	-0.0036086701079491	5.29525535677465E-07	3.95463902273968E-06	-8.2797127041733E-06	3.1241197069736E-06	0.996631906499071	-0.0415709940540068
1.8	-0.000986146934099884	-0.00364553549529528	1.83063725917597E-06	1.07848665808076E-06	5.65864010439326E-07	-1.76038158467781E-06	0.996828892799845	-0.0444460658906515
1.9	-0.00108554738404799	-0.00387861405752951	3.23332947822047E-06	3.01708667523709E-06	-1.82212829306771E-07	-2.32902949521785E-06	0.996840924565352	-0.047317242150146
2	-0.00172699212381537	-0.00399113415620355	-1.7257884519626E-07	2.00153859792877E-07	-1.21495206891289E-05	5.40905308649549E-06	0.994948131926997	-0.0505510827480724
2.1	-0.00181848348963	-0.00361885115925984	6.68358909201013E-07	-1.38004684144785E-06	1.37871892535183E-05	4.96981823829053E-06	0.994527109095241	-0.0512449804244392
2.2	-0.00192799908241782	-0.00371060696590029	1.64409745277895E-06	-1.51412694857447E-06	2.68874775350349E-06	-6.20262326292309E-06	0.995128712256901	-0.0533334011598473
2.3	-0.00224941793166634	-0.00380424804499626	-1.68379956052525E-06	-3.42508425031297E-06	-1.78616023350029E-06	-4.5889943090106E-06	0.995195412894494	-0.0551068905720621
2.4	-0.00257407457256396	-0.0039448700659356	-1.1990859258808E-06	-4.39743505860427E-06	3.04255435638794E-06	1.08765632042367E-06	0.995535153463171	-0.058349456889785
2.5	-0.00339306272429551	-0.00418499965472466	5.37212216411691E-06	5.67015379691231E-06	-2.62315194227749E-06	1.61318671647792E-05	0.995055302003706	-0.0609541998420114
2.6	-0.00402242353295671	-0.00360116063780318	-2.27827308390772E-06	2.70851482221594E-06	4.37661346914714E-07	-4.3092876943967E-06	0.994958468168507	-0.0637656086101233
2.7	-0.00419507126126072	-0.00319842890184822	-2.40274207425694E-06	-3.63692582113598E-06	2.15574221160806E-06	-2.5678045975645E-06	0.994403750714734	-0.0667331415836269
2.8	-0.00419390107447306	-0.00284676837574224	3.99817087890101E-06	2.31377396164687E-06	9.82697096077216E-06	-6.79496569337564E-07	0.99450250412273	-0.0685080275535534
2.9	-0.00399808694047385	-0.00274659862739933	1.2872562215986E-05	7.22144828864834E-07	2.450130004171E-06	-1.17070723482494E-05	0.994394132781529	-0.0704690333574412
3	-0.00415421885808739	-0.00272137149488797	-3.85409209548578E-06	1.04229290436362E-06	-4.14310428447736E-06	-1.60279546008233E-06	0.994207204175481	-0.073037709101559
3.1	-0.00382748278455923	-0.0024262975051494	4.78740306163127E-06	-9.83684385393179E-06	1.06783778135288E-05	2.41937445003087E-06	0.99381985172255	-0.074691987331839
3.2	-0.00366225853716985	-0.00261633029424615	-5.36033860583966E-06	-7.41289785140251E-06	1.56258965668512E-05	5.40284016178431E-06	0.993781085742783	-0.0761166562596067
3.3	-0.00368532064529145	-0.00281792638601318	-8.79503439373952E-06	2.53174381277186E-06	-8.56181762474776E-06	-1.75296605856634E-06	0.994006399201165	-0.0790308643186478
3.4	-0.00384629771737269	-0.00308408482489747	9.07634493547537E-06	-7.54758333853063E-06	-7.35518260331956E-06	4.22287054599458E-06	0.99473329575418	-0.0809438652030719
3.5	-0.00450594934706272	-0.0032851642182699	3.2538109072744E-07	-5.32629989048233E-06	-4.39215761775218E-06	-8.9433822702518E-06	0.994808151561377	-0.0846635964223656
3.6	-0.00471046933059274	-0.00285765673531853	4.0687399729596E-06	4.90563659178126E-06	-7.1188486521973E-06	8.98905738252883E-06	0.994017599786272	-0.0868515432649979
3.7	-0.00482190293838499	-0.00284639969916368	1.53408600727262E-06	-4.52598590683116E-06	-5.09613324827018E-06	-6.59442612375335E-06	0.99444873013473	-0.0892425601400821
3.8	-0.00504146211261504	-0.00280235056620592	7.28923053139476E-06	-5.18881954209209E-06	-5.87925172401073E-06	-2.42719389757725E-06	0.994844592322161	-0.0916145073321463
3.9	-0.00520495682531981	-0.0028075354416016	-4.03204024018548E-06	-3.54362738969606E-07	-2.53347744413764E-06	1.13125903778321E-06	0.995310920623002	-0.0959215166393048
4	-0.00583111068394885	-0.00274087796130881	-3.38395200135665E-06	-8.42227465490298E-08	1.19899518170426E-06	8.67008029185442E-06	0.993383106802281	-0.0985961764340934
4.1	-0.00584948206400897	-0.00204600466195822	-2.89477665275744E-06	-3.86502088919302E-06	5.8746443412374E-06	3.046377096091E-06	0.992709084790724	-0.0990926574268813
4.2	-0.00571388908247039	-0.00190541398788953	-7.70430806066942E-07	-2.15885832111887E-06	5.70435086993082E-06	-1.83617667327028E-06	0.99250802998678	-0.101558768358959
4.3	-0.0057097281791041	-0.00182075727334178	-5.15506129158012E-07	3.23523947096817E-06	2.12773084793382E-06	1.78349193954611E-06	0.992427300817714	-0.103543697762101
4.4	-0.00580092699528704	-0.00187168601168709	2.57133527523678E-06	3.44601905261302E-06	7.1766226992682E-06	3.9228743225231E-06	0.992043673041603	-0.105928370459966
4.5	-0.0064709977540149	-0.00186380410028158	-6.47342848687008E-06	-2.45390665053938E-07	-8.57763820619924E-06	-2.13395466978647E-06	0.991687475095762	-0.107611539255148
4.6	-0.00679055374765866	-0.00112115669453404	-9.93816953548208E-06	-9.25838139017483E-06	3.24569127222574E-06	-2.72730177012015E-06	0.992076488429029	-0.110188510137926
4.7	-0.0068409947050011	-0.000701401710623952	1.23331548457563E-07	1.86821952812395E-06	6.08078655577676E-06	-6.73481827697577E-06	0.992246898837366	-0.112409009390683
4.8	-0.00689356892458382	-0.00022151752720215	-6.40695047155212E-06	2.07459085556485E-06	8.01270313472575E-07	-1.27669220154358E-05	0.992079240550136	-0.114905432187094
4.9	-0.0066817306552333	0.000137856796616218	-3.44113675723096E-06	8.15155596358035E-06	5.5329681223959E-07	9.39205236841602E-06	0.992102525462394	-0.116750909307642
5	-0.00673143716545089	0.000393435136794038	9.67049651664362E-06	-4.05905899984379E-06	-6.95650443170313E-06	3.57728748299453E-06	0.992421936866051	-0.118686957800225
5.1	-0.00601631198830587	0.000912096377286469	-3.66076064343194E-07	-3.26012683844548E-06	-3.88295338956762E-06	-1.79863187512911E-06	0.9926760448997	-0.12036140778244
5.2	-0.00539793169125187	0.000644695465990152	-1.0683485161638E-06	-4.49702226124371E-06	8.80420314575506E-06	5.59202670354471E-06	0.99284587703886	-0.122913755039184
5.3	-0.00515154430130696	0.000327093127258991	2.28900423574247E-06	6.80823688940088E-06	8.81198126874963E-06	3.14322904085581E-06	0.992895545938507	-0.125705768032716
5.4	-0.00510126387513912	3.2758431927864E-05	2.71479612237336E-06	-3.14784300227691E-06	-2.68127630750681E-06	1.52450279326759E-07	0.993167656782665	-0.129048432546051
5.5	-0.00572121168539642	0.000147691798267207	2.11734261302953E-06	9.34930482814874E-06	-3.93661275382999E-06	-5.05003700702348E-06	0.992602021911057	-0.133093223545236
5.6	-0.00527676476453842	0.00088784994726778	-5.87122918251657E-06	-1.13040959273909E-06	4.88655879855122E-06	1.94375565670968E-06	0.99152981993183	-0.135273200805793
5.7	-0.00491946640271921	0.000807298909886974	3.34291159458153E-06	-1.42907117610161E-06	-5.06287965155728E-06	-4.29757564911877E-06	0.991694448360665	-0.13764448457286
5.8	-0.00481245419731355	0.000706797457447292	-2.06373950962999E-06	-4.75455720158061E-06	9.47910813135573E-07	-5.84416489332315E-07	0.992087785384838	-0.140460942312834
5.9	-0.00474221382480288	0.000439561241321749	-3.8856521488861E-06	6.27619125318447E-07	3.87210415179052E-06	1.24474254186237E-06	0.992092823115185	-0.144548137247596
6	-0.00571815891290542	-0.000169938810984384	-5.92734934298281E-06	5.05885925043418E-06	-1.48456651386357E-06	1.99204311095574E-07	0.988715865965502	-0.14802378315924
6.1	-0.00663278379093947	0.000590027643690385	-5.93147730035264E-06	-4.69754496570375E-06	-4.00780856201627E-06	4.33683115346041E-07	0.987161279297774	-0.147609048271681
6.2	-0.00720000930053973	0.00119218496557078	2.82314141793777E-06	3.12881497049677E-06	1.05378838719637E-06	7.23597395454054E-07	0.986417932222212	-0.148378273651296
6.3	-0.00736080865257068	0.0020815359067286	1.64352250296603E-06	-7.49321299465967E-07	-1.33396820666112E-07	1.37746747003864E-06	0.985774968492729	-0.149521669480725
6.4	-0.00700749401822734	0.00253820463017568	-5.19245357740066E-06	-5.62451967729502E-06	3.82292470822088E-06	6.91544947446018E-06	0.985332123091544	-0.151268214711005
6.5	-0.00701992426456097	0.00290584983090222	9.07933068259424E-06	-2.4391133384539E-07	-7.33275276252922E-06	-9.02917259586289E-07	0.985065282975113	-0.152371457691025
6.6	-0.00607128439333457	0.00331842323419233	-1.49208223205361E-06	4.67754414110221E-07	3.38116526888739E-06	-9.40469379057049E-06	0.987178423115032	-0.155030877038332
6.7	-0.0056821065718772	0.00310520703955074	5.53653191455632E-08	7.76940204385414E-06	-5.01158762191486E-07	-6.09958592842811E-06	0.987492801811099	-0.158514695860467
6.8	-0.00550151121002393	0.00323999735580084	4.25835026994946E-06	1.65434184152006E-06	2.07697500472861E-07	-5.24612912924693E-06	0.987321035832435	-0.16144270658366
6.9	-0.00520540107387453	0.00327801240868017	-7.56396106930136E-07	2.49391112846589E-07	5.76571638803989E-06	-2.69342675272459E-06	0.987236762209015	-0.164338716692506
7	-0.00571749683304174	0.00355978376157684	8.03151239861639E-06	-4.77695182665501E-06	4.31774472768877E-07	-3.02685000204842E-06	0.98569422392581	-0.166789114849611
7.1	-0.00501382456594229	0.00462292456685734	3.85802504916956E-06	2.040925946347E-06	7.87783728784128E-07	7.24380304570278E-06	0.985266630155251	-0.167551239007203
7.2	-0.00433980878773777	0.00465803836339579	-2.44640812473981E-06	3.70359751597347E-06	-1.34239996825673E-06	-3.83248988749249E-06	0.985323978178417	-0.169019102567633
7.3	-0.00403780402110175	0.00468836804221419	3.44559337636496E-06	-5.00693887990429E-07	-2.45802481616031E-06	-1.91725341220657E-06	0.985273022988111	-0.170477139062158
7.4	-0.00372043630600361	0.00450884639776743	-6.20895241612E-06	-2.69725613595453E-06	3.78069793154132E-06	2.42117588315158E-07	0.98657327447729	-0.172997809824775
7.5	-0.00440507094559925	0.00392287242069186	6.75798651808625E-06	-6.47824130972961E-06	-2.48432966735904E-06	8.10467326009282E-07	0.986623323319871	-0.179070701654209
7.6	-0.00469063709252433	0.00469769614672272	3.506387820048E-06	5.20076155696721E-06	-1.02426092566487E-05	4.9680437663443E-06	0.984080791378698	-0.182576740080092
7.7	-0.00484218943915898	0.00479348036785145	6.0678965382829E-06	1.09341557267269E-05	2.98955055762122E-07	-1.13734747589231E-05	0.983194841023397	-0.186310383872063
7.8	-0.00479309171674662	0.00496758658067074	2.16161379192067E-06	9.77989489648604E-07	-3.08066173961277E-06	8.84058915268933E-06	0.982263372577264	-0.190158336343925
7.9	-0.00441442404379858	0.00492136093711014	2.54634161719803E-06	-2.32611751681261E-06	3.69310267063819E-06	3.28595728814258E-07	0.981090556422119	-0.194633490067397
8	-0.00476071330180498	0.00511036661401726	-2.8041586656622E-06	1.34143260965926E-06	6.86237858136438E-06	-1.88945010438203E-06	0.976383668669988	-0.197868483793882
8.1	-0.00359624388077745	0.00550330600422063	-1.78638814834686E-06	7.59698570503566E-07	-3.70655091288401E-06	-1.24085575914233E-06	0.9756224167867	-0.197108059770586
8.2	-0.00309616894516704	0.0050341903289173	-7.76231131290979E-07	6.32870548051198E-06	4.88211963927937E-06	4.3357065459592E-06	0.975932341894903	-0.198869577917247
8.3	-0.00294752176407231	0.004838011228842	-8.94971539017659E-07	-1.4192797554331E-05	6.8324794309655E-06	5.40011352991891E-06	0.975378612287204	-0.201393696824333
8.4	-0.00278962136176262	0.00470233025534904	3.74298900663542E-06	-3.43246031810202E-06	-6.96091989176125E-06	-1.19698440460115E-06	0.974358736167759	-0.20379469786563
8.5	-0.00347010063439168	0.00480993285311656	4.66638646151351E-06	5.78565222428463E-07	8.38954552850894E-06	-6.8322851624349E-06	0.973419370208092	-0.205472103144749
8.6	-0.00290161854962634	0.00594454142000812	-3.2569399583053E-06	4.11915924331867E-06	1.03018686222819E-06	1.10830460018468E-05	0.973814928831298	-0.207716926329789
8.7	-0.00212946386235528	0.00600515040850235	2.67524774581183E-06	-2.00364949440377E-06	4.76659383831195E-07	-5.54351834100815E-07	0.973788525746063	-0.210546620025879
8.8	-0.00155615543969778	0.00599333813758758	1.18402518073196E-07	-1.2515979859107E-06	-9.43763025255892E-07	9.75649091650165E-06	0.973466347606419	-0.213080507324004
8.9	-0.000850826650298708	0.00566457763029972	-3.65132835934706E-06	2.29731666279569E-06	4.81993138993138E-06	-1.81147831723227E-06	0.97337612761699	-0.215439327444072
9	-0.000940015176338933	0.00504174086520853	-1.8868691324238E-06	4.99707640912267E-07	-3.2210429662112E-06	-1.05172722734289E-05	0.972788271988761	-0.218174545374959
9.1	-0.000428129701642812	0.0050024513976265	5.24367594100866E-06	5.77972890812346E-07	9.12118790367929E-07	3.79314007211281E-07	0.971625030423032	-0.220230414234569
9.2	-0.000212717400550543	0.00433889895095681	-8.709642064603E-06	-4.55423072683343E-06	-8.88188375483599E-07	-6.11243406054749E-06	0.970429624964242	-0.222051924373313
9.3	-0.000305383057226154	0.00402415288863627	1.90992024737588E-07	6.20220592100618E-06	4.62776852001269E-06	-2.19162439466946E-06	0.969889013172958	-0.223388409845701
9.4	-0.000239195387935615	0.00374067220278306	-1.92677926388206E-06	5.87627696499494E-06	-1.04909824488113E-05	7.72955217534018E-06	0.970060348488668	-0.225475163609099
9.5	-0.000735853572534079	0.00394796309544328	3.1780500200564E-06	-7.56732941272476E-06	3.6792208420353E-06	-2.74402239739154E-06	0.96945990393178	-0.228985897945817
9.6	8.78261830121277E-06	0.00444308980681521	4.49948387182283E-06	5.56166262129485E-06	-6.30263138257123E-07	7.06129234320458E-06	0.968410234057532	-0.231002697994511
9.7	0.000419795087538278	0.00408318734342274	-2.60298636275978E-06	-3.92866182541621E-06	3.67924701822624E-06	-7.51148342423317E-06	0.968539118920832	-0.233080070631457
9.8	0.000498827553480771	0.00386070303121404	-5.26175776422988E-07	-4.20706975325882E-06	6.26541112134321E-06	8.84417997022142E-07	0.969158891824383	-0.235469557574427
9.9	0.000626640337252292	0.00360550486410065	-2.68528145585292E-06	-5.90753815970581E-07	-8.48558855581521E-06	5.48851447538524E-06	0.968941172125213	-0.238965618957057
10	-0.000182480220085767	0.00337266296490862	4.25731476046173E-07	-1.74589204728736E-06	-3.08078978227575E-06	-7.94071395674057E-06	0.965229615018048	-0.24042968044733
10.1	-3.52907320894405E-05	0.00410207585117406	2.23278852121479E-06	4.7589580176741E-06	-3.10446792331137E-06	9.81644430720213E-06	0.96608182047466	-0.239205989093783
10.2	0.00010233110671673	0.00410108779125104	-5.35388501209593E-07	-1.04730556645236E-06	-1.20320680459241E-06	-3.11193866132051E-06	0.967004420172683	-0.241077577015528
10.3	0.000149178630353929	0.00434897949640404	1.12906880426448E-05	-2.91465685944325E-06	1.0044242464154E-05	-4.82582078557086E-06	0.966726201510074	-0.24363288234964
10.4	0.000543139793256699	0.00436817003402714	-6.28841524204934E-07	2.14274941664202E-06	3.02633565357305E-06	-2.17812238589338E-06	0.965385830207816	-0.246549087779368
10.5	0.000156971859523883	0.00436611831695198	-6.10966961001179E-06	4.62080889341606E-06	1.5585999799082E-06	4.30198818311721E-06	0.96365135830765	-0.248181019962413
10.6	0.000594793056930089	0.00485522491818743	-7.11619338435482E-06	1.06695589670084E-05	7.01634812513093E-06	4.27737993619537E-06	0.963469252706779	-0.250764942357177
10.7	0.00071299139145579	0.00503016841946057	-3.21390559465631E-06	1.56330400938945E-06	-5.36720246473045E-06	3.16383123876466E-06	0.96196161209606	-0.253295125787997
10.8	0.00108808363180121	0.00563153077971324	-1.92968463468433E-06	4.98534374893542E-06	8.52653783689538E-07	-3.19957267913244E-06	0.961051790463904	-0.254207294842851
10.9	0.00189194757615745	0.00588610188774979	-5.73209630392539E-06	-1.05217352767869E-05	4.91406533065375E-06	1.06993906602148E-05	0.960991509062041	-0.25516377225206
11	0.00202926137762401	0.00603732577186438	2.9611826759224E-06	2.61992213419499E-06	8.07335169986709E-07	-1.12330304764776E-05	0.960860275543501	-0.255616165533039
11.1	0.00334546135662985	0.00661480029224636	3.85687709759199E-06	1.46183317937715E-06	2.63082344564724E-07	-7.37426245326338E-06	0.962042171084842	-0.256051525074472
11.2	0.00443687129590689	0.00607162172917503	-4.4133390641054E-06	-1.97556489114777E-06	-7.31681426544265E-06	-4.85748009056316E-06	0.963037059716535	-0.257756571809282
11.3	0.00517341647794972	0.00544546382157624	6.72032045977729E-07	-6.37652703111864E-06	3.74633998345572E-06	1.41435359786478E-05	0.964105055959514	-0.25991697964429
11.4	0.00573078563760042	0.00463163593036735	-5.13605296241316E-06	8.13617706618676E-06	-1.46765975850949E-06	4.07579075891812E-06	0.965087835367686	-0.263528847034344
11.5	0.00527591276164857	0.00400823378417244	4.52414795962838E-06	8.1034529603765E-06	-9.29833189912775E-06	1.57792467912537E-06	0.963473424059783	-0.269000801879704
11.6	0.00595270796237722	0.00403382424285139	-3.84001062574774E-06	1.39924769652239E-06	5.07378422160314E-06	8.13334263398282E-06	0.961416542956357	-0.271589491819749
11.7	0.00644193750100916	0.0031874131126934	2.23907498261772E-06	1.05239300491864E-05	5.43297693973738E-07	-3.64652660014729E-06	0.961346828252503	-0.275439787240038
11.8	0.00671197915152593	0.0024171734517372	1.4256904830782E-06	4.46217408355725E-06	2.24663748440731E-06	4.53675284553076E-06	0.960976147727541	-0.280544995970172
11.9	0.00715252592783209	0.00121543971086777	7.45381220823794E-06	1.05685392073963E-05	3.8845683727192E-06	4.03250693387876E-07	0.959742397269988	-0.286486453272363
12	0.0057657624774202	0.000581873710869636	2.34513407501351E-06	-5.15004867484951E-06	-4.01922704683195E-07	1.74897563490268E-06	0.953214467003829	-0.288416056439466
