# GHZ S RI R 50
0.2	0.000801689798008888	0.00282253159007789	4.79097167794108E-06	-2.98627422318537E-06	-1.3717109380566E-05	1.31220634794889E-05	0.999013618537139	-0.00715179510569722
0.3	0.00120171132923464	0.00195901020115289	2.86611693813498E-06	6.6236576012481E-06	-1.66477627949747E-06	-9.31752837843942E-06	0.998821669138655	-0.00992853199657172
0.4	0.00151211490755067	0.00139198847176233	-1.86227248544128E-06	-4.0141316138814E-06	-9.01149043179156E-06	4.40292164857725E-06	0.998731689304276	-0.0125234878103554
0.5	0.0013638644784059	0.000919579902774863	-5.35686009277436E-06	3.26022446321593E-06	-2.12715032963579E-06	6.75350069102305E-06	0.998325057734016	-0.0152636851647039
0.6	0.00154302005378075	0.0009997805847254	-1.40438131983899E-07	2.80536121427311E-06	-5.81349232853473E-07	-1.34253500245605E-07	0.998975186537841	-0.0180088053939522
0.7	0.00181353175249663	0.000759440824422143	8.75864792291007E-08	2.2187022927192E-06	4.90304582232859E-06	-3.4002446017115E-06	0.998790511897765	-0.0213543200718178
0.8	0.00202596771651914	0.000470459089183145	4.52706930662724E-06	8.26255592362668E-07	2.74295640081074E-06	2.00027063553482E-06	0.998427646560942	-0.0237895451170357
0.9	0.00222097009270322	0.000105289244975786	-1.51420074001379E-07	-4.21654593926991E-06	-3.41624090087815E-06	-3.1084643299911E-06	0.998099797953779	-0.0264121179793515
1	0.00203896387777279	-0.0006692130460936	1.05834590834798E-06	4.2887759937648E-06	3.32428514125274E-06	9.33502030774777E-07	0.997215298531949	-0.0280522207297321
1.1	0.00137691375423236	-0.000643820708487733	9.03658112992689E-06	5.22374831815144E-07	-3.57545928555087E-06	-5.0067241098674E-07	0.996873958486032	-0.029205992275626
1.2	0.0011805141742149	-0.000894997032538385	3.75930162498866E-06	-1.19675550037837E-06	-4.09278941334915E-06	-2.43875473905202E-06	0.996780733829138	-0.0297622954506493
1.3	0.000628475580655863	-0.00150860439705442	-7.60221758521618E-07	-1.42696830848197E-06	-2.57924637981514E-06	-8.70590500054946E-06	0.997505317420645	-0.0301604738753509
1.4	2.0889323307904E-06	-0.00222551312204088	1.06448666354826E-08	3.44773576785113E-06	-4.27753527366912E-06	-4.13196793394772E-06	0.997989702471133	-0.0319667355526384
1.5	-0.000685860699056943	-0.00263721471272146	-1.30333863941621E-06	4.42949546053092E-06	6.56246495602195E-06	-7.40830265402015E-06	0.998722536876034	-0.0355324699899384
1.6	-0.000609802034715919	-0.00246047590994772	1.63051569717753E-06	-4.87484176627338E-07	4.24905506718868E-06	-5.39099441758483E-06	0.99851180119941	-0.0393091748691869
1.7	-0.000491009551508307	-0.00273176898721939	5.27610971386395E-07	3.95860592562993E-06	-8.28924259754081E-06	3.12196899588466E-06	0.998591728102447	-0.0424340989580319
1.8	-0.000557341152276183	-0.00290299058104154	1.83173881084237E-06	1.08021332038917E-06	5.67119526295792E-07	-1.76164680101352E-06	0.998291101772624	-0.0455338111476647
1.9	-0.000711447129315458	-0.00324753660543017	3.23508256333037E-06	3.02046615385377E-06	-1.81689248314182E-07	-2.33097128933667E-06	0.997973674788375	-0.0483192030743205
2	-0.00151446052148572	-0.00348835598247262	-1.72718697199024E-07	2.0030606955651E-07	-1.21591519858268E-05	5.41298173328192E-06	0.996245439208491	-0.0514752236703995
2.1	-0.00181867837947347	-0.00293559344712477	6.68579577004738E-07	-1.38076096911029E-06	1.37941982082555E-05	4.97120005845728E-06	0.99585881730869	-0.0524242796634955
2.2	-0.00183347858803675	-0.00285085985394824	1.64486383440481E-06	-1.51472323673359E-06	2.69013539066142E-06	-6.20521178724653E-06	0.996458312236332	-0.0547202842760984
2.3	-0.00199976903505704	-0.00292614605704316	-1.68441006271321E-06	-3.42699544930552E-06	-1.7867339034198E-06	-4.59151861827102E-06	0.996409474091171	-0.0567069622629764
2.4	-0.00218548512733003	-0.00319303724161176	-1.19965876333115E-06	-4.40049427873184E-06	3.04456494761874E-06	1.08856488705607E-06	0.996522283900175	-0.0599441639101222
2.5	-0.00306157677637205	-0.00374752111658417	5.37733426970631E-06	5.67428333895095E-06	-2.62341408789116E-06	1.61457787966275E-05	0.996153542847608	-0.0622817726530605
2.6	-0.00410464628109833	-0.00319714404272646	-2.27923196261134E-06	2.71161625015292E-06	4.36493861115462E-07	-4.31308513716677E-06	0.996310193140524	-0.0652059135119845
2.7	-0.00450771299494531	-0.00253274102757591	-2.40646503509814E-06	-3.63819783540814E-06	2.15586517509431E-06	-2.57082818914549E-06	0.995781385639437	-0.0683084719841533
2.8	-0.00453893876575484	-0.00186868294928304	4.00182919136761E-06	2.31239162518447E-06	9.83178830759245E-06	-6.86303743207147E-07	0.995836660705461	-0.0701397846091554
2.9	-0.00420966490009248	-0.00157375179378188	1.28784783922435E-05	7.13066702806572E-07	2.44262472733602E-06	-1.17137597344147E-05	0.995697411456517	-0.0720467132959027
3	-0.00433769749755203	-0.00151308423381544	-3.85427610965378E-06	1.04572088355342E-06	-4.14552641800422E-06	-1.59984198474711E-06	0.995733984979779	-0.0744790090030243
3.1	-0.0040046650777168	-0.000972152269369323	4.78015033653528E-06	-9.84278537638654E-06	1.0682511747522E-05	2.41095067286612E-06	0.99571699903298	-0.0764284921436648
3.2	-0.0035998585850363	-0.00103321619725066	-5.3677709354834E-06	-7.40903779314453E-06	1.5632885587816E-05	5.38941375611554E-06	0.995716543101642	-0.0783198479399393
3.3	-0.00341431567654056	-0.00126788194865693	-8.79297986347118E-06	2.54016209102513E-06	-8.56380747162378E-06	-1.74493431027171E-06	0.995718309213381	-0.0815828268227082
3.4	-0.00343531140704257	-0.00167938531923737	9.06883834130023E-06	-7.55487807560145E-06	-7.35076901869121E-06	4.22895963206775E-06	0.996090544567309	-0.0835036678925602
3.5	-0.00419481899604208	-0.0020949462794787	3.21875971371284E-07	-5.32634728577642E-06	-4.39788904175092E-06	-8.94022134060538E-06	0.996355925740623	-0.0869576775263399
3.6	-0.00458812976921007	-0.00148728062753994	4.07295967506375E-06	4.90296708276148E-06	-7.11257796719488E-06	8.99549015372044E-06	0.995667362073844	-0.0896843694379738
3.7	-0.00452522258515295	-0.00130187795162791	1.53026852185677E-06	-4.5270769255635E-06	-5.10140055437433E-06	-6.58993201508637E-06	0.995535162946582	-0.0923540257930822
3.8	-0.00449997189329416	-0.00131627373012633	7.28418625901375E-06	-5.19346262271936E-06	-5.88014042153711E-06	-2.42240189988861E-06	0.995268927244259	-0.0945637385505807
3.9	-0.00453078474422021	-0.00160676738073949	-4.03164831324086E-06	-3.51736406741533E-07	-2.53236752388863E-06	1.13270174862881E-06	0.995177433206254	-0.0982612481608974
4	-0.0054438802486062	-0.00190094122402973	-3.38389221261362E-06	-8.18011931776098E-08	1.20514932055314E-06	8.66891593651921E-06	0.993385265081391	-0.10002507886515
4.1	-0.00588799885742115	-0.000982484490839629	-2.89743010320558E-06	-3.86251995195061E-06	5.87642990274801E-06	3.04171009060178E-06	0.993300714974016	-0.100206039445117
4.2	-0.00573254250846495	-0.000543690356227016	-7.72131153346644E-07	-2.1583923809017E-06	5.70327274952773E-06	-1.84065795209272E-06	0.99356423746084	-0.102756761662003
4.3	-0.00557379138201459	-0.000372265967810595	-5.12712249964903E-07	3.23635936898074E-06	2.12976158771489E-06	1.78194826628439E-06	0.993724640304761	-0.104962130606263
4.4	-0.00554733132164606	-0.000534605093417638	2.57564272928131E-06	3.44440456206965E-06	7.18279330705385E-06	3.91667014489049E-06	0.993425510158766	-0.107455667200894
4.5	-0.00641412863567701	-0.000772196342016666	-6.47601109759634E-06	-2.37842721462142E-07	-8.58319363163412E-06	-2.12459400338006E-06	0.993349057767334	-0.109118670879467
4.6	-0.00707139738106196	0.000224849048505142	-9.95328899551028E-06	-9.24846219601481E-06	3.24319242413935E-06	-2.73236252936303E-06	0.994083187366569	-0.111998542471857
4.7	-0.00705841705823447	0.000930371540265962	1.25873316809746E-07	1.86843614800456E-06	6.0729605120507E-06	-6.74438891046288E-06	0.994309093705737	-0.114647569962222
4.8	-0.00695288971133146	0.00152165856692139	-6.4048464884468E-06	2.08346617184209E-06	7.84121510218325E-07	-1.27693922841429E-05	0.993957442430053	-0.117565811131722
4.9	-0.00659159623732864	0.00182947443718769	-3.42952471298621E-06	8.15624259735697E-06	5.66574669343848E-07	9.391058850159E-06	0.993469618723311	-0.119649134178362
5	-0.00679567367587719	0.00194938874314137	9.66142371218538E-06	-4.07168061406025E-06	-6.9490282957064E-06	3.58614869931235E-06	0.993346694421124	-0.121282044030165
5.1	-0.00618196083969457	0.00282785522138159	-3.70286661637245E-07	-3.25787296281717E-06	-3.88329044573198E-06	-1.79241124068056E-06	0.993560113997552	-0.122935520371034
5.2	-0.00523847829906347	0.00269884028089605	-1.07341661720936E-06	-4.49224577375596E-06	8.80488380885568E-06	5.57632661424532E-06	0.993295962998184	-0.12553747371868
5.3	-0.00476602514751676	0.00218274886273846	2.29468710666131E-06	6.79866919064007E-06	8.8067686612138E-06	3.12970387981795E-06	0.992820025510647	-0.128007651419436
5.4	-0.00476519873314615	0.00152940318042993	2.70880677091517E-06	-3.14609450243997E-06	-2.67777463451047E-06	1.54447271659966E-07	0.992791333797822	-0.130630993903902
5.5	-0.00597159813348605	0.00141146745928831	2.11707268279348E-06	9.33917311602833E-06	-3.93357058280588E-06	-5.04398904660213E-06	0.992764722341772	-0.133912320239449
5.6	-0.00598447810827035	0.00278110809491617	-5.86806055487612E-06	-1.12807938063198E-06	4.88420491835585E-06	1.94122042872998E-06	0.992155229026609	-0.136390513295203
5.7	-0.00542588805196695	0.00321917256340884	3.34036165466406E-06	-1.4295849040935E-06	-5.06163891403803E-06	-4.2929890481133E-06	0.992050428163765	-0.138957781559931
5.8	-0.00498248821210347	0.00335684729498837	-2.06458841972868E-06	-4.75068665125544E-06	9.47061728555778E-07	-5.8447852798039E-07	0.991943793839476	-0.141581525570132
5.9	-0.00452511121858407	0.00309463380861597	-3.88271169493096E-06	6.29329348956763E-07	3.87019893683307E-06	1.2417885929089E-06	0.991398868388019	-0.144874885102313
6	-0.00542233566930901	0.00218534454981031	-5.91835997826776E-06	5.05849781468849E-06	-1.48307704131018E-06	2.00082905127286E-07	0.988321039073203	-0.146822072971674
6.1	-0.00643679572040035	0.00324560855559925	-5.92741571959976E-06	-4.68876545127613E-06	-4.00298486864803E-06	4.35498118707613E-07	0.988273682715944	-0.145551602995301
6.2	-0.00645880169565649	0.00397431677047909	2.82154146021778E-06	3.12341185695168E-06	1.05293480707708E-06	7.2211650293995E-07	0.989067869273111	-0.146685080709666
6.3	-0.00619738945014782	0.0044637622857541	1.64088384661612E-06	-7.49174104422166E-07	-1.32482376624069E-07	1.37566093186929E-06	0.989189966062923	-0.148895283868122
6.4	-0.0058669907578681	0.00432401174188241	-5.18565939906329E-06	-5.61474299011335E-06	3.81851677927441E-06	6.90397746937992E-06	0.988575495222412	-0.151482655310589
6.5	-0.00661709990957962	0.0043834956036218	9.06476812422301E-06	-2.39708355767929E-07	-7.32053014287934E-06	-9.04535152029727E-07	0.987959520108667	-0.152908548563931
6.6	-0.00600403896801018	0.00542355475197539	-1.49083564235489E-06	4.65661275784183E-07	3.38700912700958E-06	-9.39026125365924E-06	0.989766143723956	-0.155899958788905
6.7	-0.00538000110390687	0.00542869007532	4.62467045258694E-08	7.76382089636949E-06	-4.93667344664516E-07	-6.09573909681557E-06	0.989501041501553	-0.159703264287887
6.8	-0.00504843110333069	0.00548267074918512	4.25462127736633E-06	1.65814329304102E-06	2.13221856422189E-07	-5.24349591313729E-06	0.988604888683989	-0.162765012890293
6.9	-0.00473495148269401	0.00521849187372965	-7.56265705350367E-07	2.48754721142182E-07	5.76528308732918E-06	-2.68825430404947E-06	0.987685442488638	-0.165521700920574
7	-0.00592309679649074	0.0051644417328272	8.02555739144357E-06	-4.76871389078005E-06	4.32650739486717E-07	-3.02364167367378E-06	0.98562238886917	-0.167333888614266
7.1	-0.00577283235158103	0.0070194461311405	3.85092398573164E-06	2.04175124010386E-06	7.79998730587131E-07	7.23475697995707E-06	0.985292341105334	-0.167854087981159
7.2	-0.00476684568374571	0.00770124097656413	-2.44807840848248E-06	3.69601299560835E-06	-1.33595164548671E-06	-3.82950625338984E-06	0.985189932818288	-0.169564295071559
7.3	-0.00390665513880348	0.00795928711791324	3.4427755505255E-06	-4.95273506792104E-07	-2.45277532432969E-06	-1.91878944858996E-06	0.984560024942673	-0.171330011160298
7.4	-0.00299327609173254	0.0075732500849808	-6.19966206911214E-06	-2.70515557882816E-06	3.77730531800013E-06	2.48039166716422E-07	0.984756893266671	-0.173851876918823
7.5	-0.00367536387578242	0.00626214961698611	6.76689897683374E-06	-6.46572971313076E-06	-2.48505527434035E-06	8.06241166174489E-07	0.983753105589754	-0.179062273807661
7.6	-0.00438517029841644	0.00712783331251044	3.49968710513275E-06	5.20480975485749E-06	-1.02481666145387E-05	4.95496732896257E-06	0.980874094337036	-0.181558381300696
7.7	-0.00425006619757238	0.00734805247186987	6.05222838065554E-06	1.09410346953466E-05	3.14413295061403E-07	-1.13716231943597E-05	0.980295713430894	-0.184177545963696
7.8	-0.00408504432998676	0.0071956212884065	2.16037551825539E-06	9.80889033093278E-07	-3.09249434977801E-06	8.83674599960263E-06	0.980057658057306	-0.187548315630864
7.9	-0.00408786474971296	0.00665209285242505	2.54877409971997E-06	-2.32414139014273E-06	3.69330326430163E-06	3.31958964242375E-07	0.979537053205757	-0.191951405696573
8	-0.00548292990714349	0.00694270406206982	-2.80381704423362E-06	1.34088160730595E-06	6.86138584356273E-06	-1.88834639638743E-06	0.975472723804495	-0.195382108255445
8.1	-0.004648136833693	0.00855986833245683	-1.7842801489356E-06	7.58850610379005E-07	-3.70224183979927E-06	-1.23931840426538E-06	0.974816410833813	-0.194766471581264
8.2	-0.00354887612253223	0.008773206797815	-7.77325446531194E-07	6.31809035392646E-06	4.87253690665138E-06	4.33045380024726E-06	0.975436905819162	-0.196509410567802
8.3	-0.0027031981601945	0.00867611687456648	-8.82367459395898E-07	-1.41680552491442E-05	6.81604908256185E-06	5.39573110734191E-06	0.97522113352053	-0.199160288163062
8.4	-0.00202790792798833	0.00807857731479473	3.7408641260777E-06	-3.42192768861239E-06	-6.94752494861739E-06	-1.20360898466616E-06	0.974428583724937	-0.201818847887356
8.5	-0.00317310789681904	0.00752756903873758	4.65986811085444E-06	5.84840645520459E-07	8.38959592944865E-06	-6.81146519406373E-06	0.973465497356034	-0.203827287278851
8.6	-0.0031062464575672	0.00930188980840817	-3.25869127678017E-06	4.11133342590755E-06	1.0160519339618E-06	1.1073604003125E-05	0.973634009397553	-0.20619343368042
8.7	-0.00189425577355797	0.00993689367021709	2.67419158724185E-06	-1.99866985635212E-06	4.76669158862041E-07	-5.53238419320183E-07	0.973343948932334	-0.208965376994993
8.8	-0.000601603491928831	0.0100397074794038	1.19486627373476E-07	-1.2497022022243E-06	-9.5218438331307E-07	9.7416920522839E-06	0.97280623592084	-0.211243119169995
8.9	0.000838395823024096	0.00923921437013303	-3.64744694281955E-06	2.28949688624868E-06	4.81351932680371E-06	-1.80326449846538E-06	0.972807291506726	-0.21320212797995
9	0.000657727182445117	0.00773069361726594	-1.88375206181826E-06	4.96059422963925E-07	-3.19982697342651E-06	-1.05005070375467E-05	0.972743874777248	-0.215812743684333
9.1	0.000857330273591916	0.00766839699929871	5.2337512404165E-06	5.85992692400431E-07	9.0991371254279E-07	3.80234145822833E-07	0.972124725177461	-0.218134831556778
9.2	0.00115911120359808	0.00673996131322948	-8.69028021667967E-06	-4.56299480580244E-06	-8.76595208147229E-07	-6.10580165163856E-06	0.971369958739598	-0.220570160974594
9.3	0.000818384443661896	0.00595340366161566	1.79991270762868E-07	6.19652835790151E-06	4.62710554520026E-06	-2.18143037547697E-06	0.970896382616656	-0.222630409108683
9.4	0.000279445037877303	0.00528527980753796	-1.9375295349677E-06	5.86911146842509E-06	-1.05006723153294E-05	7.70411144894439E-06	0.970854681218931	-0.225202491186644
9.5	-0.00144474370217361	0.00548809453294373	3.19664732682738E-06	-7.56411322639001E-06	3.68726852244285E-06	-2.73719397023582E-06	0.97012455151277	-0.22915683870806
9.6	-0.00128904656422307	0.00720517093429223	4.49698616917327E-06	5.57677495699416E-06	-6.42458610411085E-07	7.07033012263246E-06	0.968509868168102	-0.231578462794491
9.7	-0.000536315540318151	0.00764968733441803	-2.60310537488568E-06	-3.93800763567116E-06	3.69345007976016E-06	-7.52005336438526E-06	0.968039565220838	-0.23358464896828
9.8	3.74127985790704E-05	0.00775500399122395	-5.24115088770452E-07	-4.21493042667354E-06	6.27592945600132E-06	8.90454899580266E-07	0.968253657392426	-0.235632329648051
9.9	0.000610898123232944	0.00729643243847051	-2.68971980486611E-06	-5.92694824830141E-07	-8.50213404897685E-06	5.49509242698732E-06	0.968135887463785	-0.238684967837319
10	-0.000620006595520461	0.00674073679548753	4.26246940994288E-07	-1.74814289897549E-06	-3.08489143727532E-06	-7.95086074884922E-06	0.964656438190832	-0.240647954390675
10.1	-0.00071713615913419	0.00837759763723096	2.23332149293478E-06	4.76391716332206E-06	-3.11028550554873E-06	9.82429189502047E-06	0.964677427524051	-0.239305236602274
10.2	0.000229762725064321	0.00893342245348359	-5.35324001008175E-07	-1.04862973677162E-06	-1.20263626134926E-06	-3.1156557061154E-06	0.965546859062554	-0.240418512919231
10.3	0.00120679472074093	0.00897344132240015	1.13057279767131E-05	-2.90983305005543E-06	1.00592363045369E-05	-4.82408719855172E-06	0.965672194729752	-0.242317116424257
10.4	0.00214535292942678	0.00809336959101038	-6.31598795742569E-07	2.14525602004274E-06	3.03253945471525E-06	-2.17859676103713E-06	0.965145995311937	-0.244643855281031
10.5	0.00107845726005229	0.00714314094607386	-6.1246184643792E-06	4.62364162558418E-06	1.55757822861135E-06	4.31101868523063E-06	0.964613639415602	-0.246441434032877
10.6	0.000778666014261087	0.00788377934313868	-7.13628241121848E-06	1.06856675054631E-05	7.02718502392147E-06	4.2898206089465E-06	0.964884957357315	-0.249931472623202
10.7	0.000915583021064034	0.00837727968663654	-3.22090092216308E-06	1.56417575396715E-06	-5.37923685743789E-06	3.16631962965557E-06	0.963623825179468	-0.253106758392135
10.8	0.00130603463587885	0.00907788363467831	-1.93661173612217E-06	4.99280294491943E-06	8.56417064625927E-07	-3.20463186249742E-06	0.962381325465923	-0.254849615202841
10.9	0.00214388536805835	0.00915249453098504	-5.73536421068841E-06	-1.05420888279113E-05	4.91590441906355E-06	1.07195635416567E-05	0.962033113329001	-0.256546167587282
11	0.00147591133340175	0.00908778148748655	2.96236562424924E-06	2.62464088037556E-06	8.1596809766785E-07	-1.12438694163077E-05	0.961254023475103	-0.258569803287834
11.1	0.00236533500772992	0.010766270696711	3.85867181384519E-06	1.46815611601714E-06	2.72765860649548E-07	-7.38093286034853E-06	0.960247050263046	-0.259812587934651
11.2	0.00404616787891464	0.0109839923143941	-4.4154719492132E-06	-1.98455537107935E-06	-7.31795037254221E-06	-4.87422425306241E-06	0.959384992715668	-0.261087307010652
11.3	0.00563551942077538	0.0104678837189997	6.83367039396988E-07	-6.38434309994193E-06	3.72851730506377E-06	1.41694104085196E-05	0.959135691987955	-0.262120055464372
11.4	0.00690607947658063	0.00913715458504248	-5.16000640435608E-06	8.13981554715481E-06	-1.47783697969422E-06	4.0797170416258E-06	0.959609724486487	-0.26399348420214
11.5	0.0061468090336402	0.0078523181176314	4.51803295178669E-06	8.13169847378487E-06	-9.32330289070192E-06	1.56246675745427E-06	0.95895229415529	-0.268578655912843
11.6	0.00666375478716958	0.00832566720770158	-3.85230395252941E-06	1.39685716755371E-06	5.07426183552659E-06	8.16271316929145E-06	0.956590401587147	-0.271220494918124
11.7	0.00777494357011765	0.00745556356376636	2.22911740507236E-06	1.05534741907471E-05	5.50036794072664E-07	-3.65481572965486E-06	0.956101315784077	-0.273855293083931
11.8	0.00851952211521036	0.00598897289240558	1.42229649753886E-06	4.47520843549644E-06	2.24512376615362E-06	4.55123022664771E-06	0.956374911710394	-0.277345491908824
11.9	0.00849088038218449	0.00360804915072613	7.45317402395458E-06	1.06049568945733E-05	3.89272628781132E-06	4.10628448624549E-07	0.957095352816523	-0.281906166334863
12	0.00559621644542182	0.00213057120957991	2.35596174955417E-06	-5.1579527843379E-06	-4.04785537514925E-07	1.75211850493909E-06	0.953317450968424	-0.286009213505323
