# GHZ S RI R 50
0.2	0.000755335370897271	0.00262552164149481	4.79363240300091E-06	-2.98573769357097E-06	-1.37262359155158E-05	1.31221261456028E-05	0.999489617937831	-0.00687576573439722
0.3	0.00125642421634651	0.00189379641918169	2.86636302348224E-06	6.62636473837285E-06	-1.664275554997E-06	-9.32105800152525E-06	0.999406649800492	-0.00974513559564693
0.4	0.00157150739893336	0.00140928847657835	-1.86305161950544E-06	-4.01605026278713E-06	-9.01580274218912E-06	4.40477463288699E-06	0.999387393514677	-0.012398875497864
0.5	0.00173418317793298	0.00110087925855407	-5.35851474222775E-06	3.26453866078729E-06	-2.12534812301397E-06	6.75839669732296E-06	0.999165876699081	-0.0154546979709509
0.6	0.00201553725127606	0.000702777710789143	-1.38982680846671E-07	2.80561758344637E-06	-5.81457256522436E-07	-1.33958751179948E-07	0.999244946712768	-0.018426272746535
0.7	0.00201567337317065	0.000328445566280984	8.82380699070107E-08	2.21872107327269E-06	4.90214811622359E-06	-3.40174875318845E-06	0.998847676848425	-0.0214074909551907
0.8	0.00201645113206495	2.80497909435813E-05	4.52762047486074E-06	8.25494770087123E-07	2.7435665094253E-06	1.99994183063789E-06	0.998539337848026	-0.0235810482582863
0.9	0.0018700447054468	-0.000255831348206868	-1.51612096527696E-07	-4.21752393281951E-06	-3.41715334943951E-06	-3.10906250339588E-06	0.998338884376538	-0.0259715022890967
1	0.00157284580660545	-0.000281374098980895	1.0596416583345E-06	4.29172007851686E-06	3.32678655851839E-06	9.33755770087497E-07	0.99803128767168	-0.027381323167129
1.1	0.00157992459647021	-0.000252913232555882	9.04340634194365E-06	5.1771724647441E-07	-3.57832359671535E-06	-4.9904214223187E-07	0.998026369659976	-0.0292723517540805
1.2	0.00147651783116423	-0.000585580722762816	3.76134107401778E-06	-1.2003710781775E-06	-4.09769052569185E-06	-2.43770171114452E-06	0.997784819313816	-0.0301103840063232
1.3	0.00127365101658543	-0.00126569316260751	-7.62519885134314E-07	-1.4273102197709E-06	-2.5915069947779E-06	-8.71036900898517E-06	0.998621172426665	-0.0309211674243152
1.4	0.000785259310475324	-0.00239505172352964	1.65624575734688E-08	3.44948769224215E-06	-4.28681693388993E-06	-4.12675436539627E-06	0.99870528615687	-0.0334198034424757
1.5	0.000278881879712321	-0.00309497623613643	-1.29512014812217E-06	4.431397809684E-06	6.54824984116164E-06	-7.41947765826876E-06	0.998764172540262	-0.0371009373485269
1.6	-0.00017825415232847	-0.00360355446130958	1.62891643961471E-06	-4.89863927924674E-07	4.23825763987094E-06	-5.39513646936079E-06	0.997677930847606	-0.040782647630583
1.7	-0.000661249209082511	-0.00367429846600911	5.32818431982924E-07	3.95508663043535E-06	-8.27903120110996E-06	3.13145880584382E-06	0.997308295180136	-0.0432997972659586
1.8	-0.00101448949015657	-0.00352844061700995	1.8313723689673E-06	1.07689637795822E-06	5.64373319150441E-07	-1.76070183663452E-06	0.996743270899064	-0.04596864359943
1.9	-0.00135106414377202	-0.00336379661620675	3.23310268070812E-06	3.01371320077266E-06	-1.83328638604618E-07	-2.3276348330998E-06	0.995972193449685	-0.0479964039575989
2	-0.00143221589159503	-0.00298512541717511	-1.72646532254983E-07	2.00118707493481E-07	-1.21518477787181E-05	5.40600093612842E-06	0.995437724014982	-0.0497900349164246
2.1	-0.00134909253210762	-0.0031932153722816	6.67636845728164E-07	-1.38114503227009E-06	1.37969040220367E-05	4.96185447335017E-06	0.995719846218724	-0.0522288203203726
2.2	-0.00169616474552209	-0.00337444155367369	1.64246729076542E-06	-1.51549211751451E-06	2.68256638812971E-06	-6.20439851423951E-06	0.995490645216002	-0.0547706264241225
2.3	-0.00221392736577786	-0.00348869626327468	-1.68590044886496E-06	-3.42239303197503E-06	-1.7891582539216E-06	-4.5857668137561E-06	0.994965615224062	-0.056511798368433
2.4	-0.00293842920087282	-0.00345894789763928	-1.20164075301916E-06	-4.39490089345856E-06	3.04211823900323E-06	1.08514293635692E-06	0.994713696574311	-0.0594139816808978
2.5	-0.0036206522430672	-0.00285234975343991	5.37506055698986E-06	5.66135055855274E-06	-2.60477450589812E-06	1.61255923823686E-05	0.994179917112101	-0.0612387735748217
2.6	-0.00366895602623756	-0.00239909908369235	-2.27373440350927E-06	2.70668257666661E-06	4.34333745174248E-07	-4.30430693786507E-06	0.994272168579364	-0.0636730872830942
2.7	-0.00367069012233696	-0.00212019363225579	-2.4006722528586E-06	-3.63253221753087E-06	2.15295565199058E-06	-2.56531663585084E-06	0.994188102486823	-0.0663517451384006
2.8	-0.00364738879642328	-0.00197635709802799	3.99504028138072E-06	2.31151709711932E-06	9.81874535780876E-06	-6.79751367633136E-07	0.99465357811969	-0.068376071632189
2.9	-0.00364366344247703	-0.00182245706719713	1.28649479126096E-05	7.17586245969929E-07	2.44489116647895E-06	-1.17007212214086E-05	0.994548983658181	-0.0705674217622659
3	-0.0033466725301287	-0.00154629754238549	-3.84958596896024E-06	1.04379624257039E-06	-4.14005247688947E-06	-1.59848010813353E-06	0.994535888264845	-0.0731309465379052
3.1	-0.002989115909907	-0.0018788682405276	4.78022614869519E-06	-9.82909835066681E-06	1.06691918214894E-05	2.414149195328E-06	0.994425567915343	-0.0752307144629809
3.2	-0.00307575181147983	-0.00219973853208352	-5.36051086144316E-06	-7.40531110897806E-06	1.56182756699449E-05	5.39143676797322E-06	0.99434109046215	-0.0772176119678005
3.3	-0.00330818798027296	-0.00249313767040176	-8.78714055248913E-06	2.53776719964485E-06	-8.55780681684537E-06	-1.74437449309821E-06	0.994217604115031	-0.0806975346557395
3.4	-0.00383581880485257	-0.00266018173071906	9.05649803177093E-06	-7.5526871125267E-06	-7.34176420155318E-06	4.22893078178411E-06	0.994028404955596	-0.0829922242553139
3.5	-0.00419767475016511	-0.00245122570582339	3.198424163452E-07	-5.31460418475175E-06	-4.39034119431937E-06	-8.91928770724797E-06	0.993281783070697	-0.0855907130065227
3.6	-0.00450685218159804	-0.00265035799472923	4.06188568845348E-06	4.89786071492897E-06	-7.1077154974767E-06	8.97409612230601E-06	0.993156037228124	-0.0877234772709999
3.7	-0.00521546198308812	-0.00253533881167495	1.53151696396326E-06	-4.51986542085858E-06	-5.089718723254E-06	-6.58479002514521E-06	0.99299973862868	-0.090327689573443
3.8	-0.00583347769566033	-0.00206988840367395	7.27733753925116E-06	-5.18104935757443E-06	-5.87007814875455E-06	-2.42297071466574E-06	0.992505804140279	-0.0921747101994525
3.9	-0.00620932588998855	-0.00127663420596156	-4.02384419839163E-06	-3.55968570684589E-07	-2.5291026852358E-06	1.12756601008827E-06	0.992162526777577	-0.0947149262151273
4	-0.00581670628615621	-0.000267416740018256	-3.38142987086601E-06	-9.01692492948977E-08	1.18276757113193E-06	8.66612913889047E-06	0.992766028085653	-0.0948625295675999
4.1	-0.00510280936505507	-0.000318628709499991	-2.89267094136688E-06	-3.86685058036353E-06	5.87313506099563E-06	3.04988942008045E-06	0.993846466282344	-0.0973288692128462
4.2	-0.00500299811656836	-0.000540857194715488	-7.69343942670826E-07	-2.15885410064588E-06	5.70425073637929E-06	-1.83333699931447E-06	0.993507999605507	-0.100395207697443
4.3	-0.00511800567830278	-0.000662678266587587	-5.17273482291526E-07	3.2351951598236E-06	2.12692908863594E-06	1.78475760630074E-06	0.993536694571765	-0.102583162734155
4.4	-0.00552992572731907	-0.000620668058556528	2.57172190649431E-06	3.44925737316689E-06	7.17985648904606E-06	3.92816854043727E-06	0.993359828000379	-0.105044406119885
4.5	-0.00562559410872976	-6.36164452444254E-06	-6.47813341422642E-06	-2.38550149828738E-07	-8.58583087653367E-06	-2.12613103077053E-06	0.993612459540557	-0.10742802979515
4.6	-0.00551954552553852	-0.000127757422574442	-9.93708434841522E-06	-9.24133824273467E-06	3.24037001821033E-06	-2.72761278945434E-06	0.99312051428648	-0.110638182743819
4.7	-0.00582141735097264	-8.40807796598177E-05	1.23209410381602E-07	1.86597635683684E-06	6.07339777755356E-06	-6.72682201259646E-06	0.992889803825239	-0.112601108317584
4.8	-0.00613519610107612	0.000108348546583497	-6.40105925736153E-06	2.06888826503954E-06	8.07238973864069E-07	-1.27525369319705E-05	0.992539066045884	-0.115053911253127
4.9	-0.0064453706410008	0.000455732447974509	-3.44351836728139E-06	8.14286132640398E-06	5.46935521779481E-07	9.38488162946332E-06	0.992151635309716	-0.116895622210113
5	-0.00619838344273644	0.00109331373370385	9.65687909372158E-06	-4.04943583858276E-06	-6.94693452793482E-06	3.56934454061895E-06	0.991995512277702	-0.118481812258872
5.1	-0.00588725090443572	0.000882404858213564	-3.60477052014034E-07	-3.25513529235204E-06	-3.87359760733997E-06	-1.80149612629958E-06	0.991935573897426	-0.119850062585456
5.2	-0.00601796010211042	0.00101768005236139	-1.05888696472116E-06	-4.49416923462098E-06	8.78441134855901E-06	5.60230076499918E-06	0.991827437810757	-0.121847980778214
5.3	-0.00593127527629104	0.00136371454409406	2.27631161634663E-06	6.80853154375431E-06	8.80205560533216E-06	3.15645616657626E-06	0.992064040574479	-0.124074597355776
5.4	-0.00575790472604154	0.00170813050009628	2.71640577661338E-06	-3.14402222674873E-06	-2.68022430304106E-06	1.49986883341244E-07	0.992422957330211	-0.127325442778997
5.5	-0.00506932395527722	0.00216248671687329	2.10050820093593E-06	9.33375983074699E-06	-3.92201906042104E-06	-5.04542360530628E-06	0.992013848952141	-0.130210336372967
5.6	-0.00484596705256727	0.00138210607676496	-5.86290152247503E-06	-1.14588036239657E-06	4.87681541504848E-06	1.95575074353093E-06	0.99219580526217	-0.132907581905167
5.7	-0.00557610295667465	0.0012797671324001	3.34626868769037E-06	-1.4201321847726E-06	-5.05100910974054E-06	-4.31035509333187E-06	0.991849502383433	-0.135805003590325
5.8	-0.00628546221858769	0.00169195404294479	-2.05138254818387E-06	-4.76057219588327E-06	9.49568218215068E-07	-5.81972836056816E-07	0.991375825717578	-0.138119232118211
5.9	-0.00708507736212808	0.00265617631891463	-3.88959296419699E-06	6.14022360306668E-07	3.86935489054382E-06	1.25911024789174E-06	0.99065489459094	-0.139786920022725
6	-0.00699970913250725	0.00468925609195923	-5.97026672052935E-06	5.05415909871568E-06	-1.49100785442044E-06	1.93971922076696E-07	0.991934628507021	-0.139939065582024
6.1	-0.00560320333685811	0.00535556138318688	-5.95578218925803E-06	-4.72258760022064E-06	-4.02639671461903E-06	4.33260490807377E-07	0.993632863355544	-0.143015708995895
6.2	-0.00469845653543883	0.00524678806609734	2.83538074558406E-06	3.13828503550427E-06	1.05806776062868E-06	7.2552660192979E-07	0.993602896834784	-0.145799985166446
6.3	-0.00416322868365256	0.00461708345998176	1.64757279646703E-06	-7.52993210304037E-07	-1.32514948958562E-07	1.38156219587189E-06	0.993063950530137	-0.14888638778191
6.4	-0.00447268369390022	0.0040986571550974	-5.21049496613333E-06	-5.63930111308652E-06	3.83737815117761E-06	6.93470413858073E-06	0.992147964642817	-0.15135517776444
6.5	-0.00416960194902824	0.00418134247481187	9.10927001415203E-06	-2.65410900581575E-07	-7.35943800931834E-06	-8.89247812898764E-07	0.992384569809192	-0.154890340190157
6.6	-0.00437985752770466	0.00344086902409619	-1.4920163257171E-06	4.70815224109626E-07	3.36532437224791E-06	-9.41618037274537E-06	0.990411547272142	-0.158428802879562
6.7	-0.00475790400249491	0.00360833768323766	5.80556326702888E-08	7.7695385520194E-06	-5.0328003807486E-07	-6.0995346781848E-06	0.989207841220283	-0.160143072653454
6.8	-0.00489607998571585	0.00377263805669553	4.2580995397476E-06	1.65671573772476E-06	2.10371263254022E-07	-5.24674319403958E-06	0.988554715653459	-0.162185262686571
6.9	-0.00533228570681046	0.00418629529983105	-7.56954193809715E-07	2.48893692893361E-07	5.77061434964334E-06	-2.69000748041681E-06	0.98781048395607	-0.164150204751256
7	-0.00467644614154838	0.00531398602811275	8.03783116347695E-06	-4.77453283243554E-06	4.33687943989019E-07	-3.02796323388084E-06	0.987673544488433	-0.165575652644644
7.1	-0.00421713804009597	0.00458798474972737	3.85803918401156E-06	2.04438016081848E-06	7.83021011778085E-07	7.2470544288696E-06	0.987279521452229	-0.168396366030026
7.2	-0.00477635276632228	0.00451168973292261	-2.44924721018185E-06	3.70480985048111E-06	-1.34171067046044E-06	-3.83522877904703E-06	0.986004392950558	-0.170768263514558
7.3	-0.0054306196038803	0.00474984126480767	3.44707724746562E-06	-5.02780531600839E-07	-2.46029290230352E-06	-1.91692010295346E-06	0.984266749503654	-0.173169947948831
7.4	-0.00658312011470508	0.00528703545485739	-6.20886195983059E-06	-2.68158290654655E-06	3.77767676395079E-06	2.33882900489669E-07	0.981625636814794	-0.176236495306579
7.5	-0.00706098008140037	0.00735120264348561	6.72832967459647E-06	-6.45134359325616E-06	-2.47361293311142E-06	8.07295803305771E-07	0.978318728977713	-0.176395760909272
7.6	-0.0062385268039317	0.00808934422348364	3.48872323964934E-06	5.19334161455391E-06	-1.0224752939793E-05	4.93820528591819E-06	0.97891710460547	-0.178049755280658
7.7	-0.00610452458977302	0.00873064028423537	6.03670430094153E-06	1.09184593805489E-05	3.16143857051966E-07	-1.13467560119097E-05	0.978589821571648	-0.181031929278588
7.8	-0.00543347015726096	0.00921674695140261	2.15431434791381E-06	9.79943149933863E-07	-3.09091624156524E-06	8.8125910167965E-06	0.978371091891423	-0.18378374626089
7.9	-0.00461529125616322	0.00965468477140148	2.54723079188673E-06	-2.3106794415301E-06	3.68151283061261E-06	3.40513707868392E-07	0.978138514956461	-0.185772952123184
8	-0.00250489376704762	0.00982075865469585	-2.81495200970706E-06	1.3247323078862E-06	6.87995176048155E-06	-1.84744693780163E-06	0.980610643885756	-0.186897069737751
8.1	-0.00158653824098923	0.00812249010003863	-1.79502210984872E-06	7.56616795393026E-07	-3.71544618786638E-06	-1.2570302870055E-06	0.98223957538524	-0.192413639651269
8.2	-0.00158159931305138	0.0073412244402311	-7.9022685761293E-07	6.34802337900549E-06	4.89025869712896E-06	4.35873933832053E-06	0.981587335071114	-0.19624160503887
8.3	-0.00160986171456765	0.00684448748719535	-8.77768229113516E-07	-1.42418819968326E-05	6.84780252905515E-06	5.4280373101423E-06	0.980761312431416	-0.199712980916621
8.4	-0.0020308174677143	0.00679362471170905	3.76269140806584E-06	-3.44392909615235E-06	-6.99030129403319E-06	-1.20890020750763E-06	0.9798785103414	-0.202798939815035
8.5	-0.001326271676264	0.00756990416901045	4.68619830075707E-06	5.72836101258828E-07	8.41156423445069E-06	-6.87432285418843E-06	0.979369026375649	-0.206296258976234
8.6	-0.000816799111680328	0.00644270267693905	-3.25971979526652E-06	4.13028865630846E-06	1.04220434686177E-06	1.11041841313988E-05	0.977919994514391	-0.209717701994554
8.7	-0.00137085813537064	0.00601881409739645	2.6811854024505E-06	-2.00794938794319E-06	4.77724274438992E-07	-5.55550776490585E-07	0.976778375233986	-0.21230381128331
8.8	-0.00188858395019814	0.00607726551943275	1.19297409863544E-07	-1.25499727078682E-06	-9.50796263689641E-07	9.78297967703844E-06	0.975758129251749	-0.214461128568921
8.9	-0.00253169328385591	0.00656331660965407	-3.66595431851189E-06	2.30576833659717E-06	4.83905854208521E-06	-1.81785680956378E-06	0.975243591324251	-0.216290845108805
9	-0.0019698690139127	0.00797171574139584	-1.89250118598272E-06	5.04115048010853E-07	-3.24707669840595E-06	-1.05480357469501E-05	0.974717989338712	-0.21821284067668
9.1	-0.00093442896851815	0.00770342525183988	5.26263815516501E-06	5.7610009397501E-07	9.15625355258344E-07	3.79973414955025E-07	0.974556620026622	-0.220040214247123
9.2	-0.000324095833397921	0.00767329986918916	-8.75794191979731E-06	-4.55725834493597E-06	-9.04433360527253E-07	-6.13814526227094E-06	0.974392211807374	-0.222763685113707
9.3	0.000525127404919235	0.00733208039746499	2.15891126763463E-07	6.22768847732203E-06	4.63882281405009E-06	-2.21886699076619E-06	0.974070753843043	-0.225964697954127
9.4	0.000905859144470671	0.00668744455348396	-1.89806594799292E-06	5.90257664051277E-06	-1.04738562984068E-05	7.8097929985854E-06	0.97252681993975	-0.229946427285362
9.5	0.00178934411466588	0.00642683405437904	3.14447722096638E-06	-7.5750206691306E-06	3.66522788013928E-06	-2.75725776615243E-06	0.970442435060512	-0.231745321406413
9.6	0.00150244618835589	0.0047279021253091	4.51541343465764E-06	5.55688110955186E-06	-6.15625832240847E-07	7.06886857837145E-06	0.970103596126122	-0.23469621235784
9.7	0.000391619211283453	0.00432955760519686	-2.61745444052216E-06	-3.92762944698461E-06	3.66468141896939E-06	-7.53270972974913E-06	0.968798341767412	-0.237535602045345
9.8	-0.000639924993456477	0.00447262918780226	-5.39148347469794E-07	-4.20997959175231E-06	6.27466672859239E-06	8.66867802104402E-07	0.967458559308489	-0.239565583274776
9.9	-0.00179416154205694	0.00540847591927949	-2.68694654112539E-06	-5.86679254457355E-07	-8.47924772981985E-06	5.50339858307819E-06	0.965446602885919	-0.23997582822953
10	-0.0013364086761028	0.00731610727131311	4.26675849494825E-07	-1.75296742067534E-06	-3.09631030881894E-06	-7.97077615687341E-06	0.967263771326126	-0.239048651759571
10.1	-0.000578041366172457	0.00723509721362896	2.26186226943273E-06	4.76668507284158E-06	-3.07286947716693E-06	9.86617438807244E-06	0.967403902742176	-0.242836234674005
10.2	-0.000471787702702982	0.00749945644843025	-5.41215183737426E-07	-1.04640620237366E-06	-1.21990992866893E-06	-3.11111100487389E-06	0.965796110295571	-0.244308046074565
10.3	-0.000343712619548764	0.00778168906360692	1.12847607183846E-05	-2.96071146734016E-06	1.0030146732093E-05	-4.86789648956538E-06	0.964476461462808	-0.245505124675411
10.4	-0.000535049657878821	0.00848122905294105	-6.23051273106102E-07	2.14676813922318E-06	3.02282886313353E-06	-2.18935622237231E-06	0.963254901087709	-0.24640830841475
10.5	0.000729081866666062	0.0100326205549594	-6.09116309883386E-06	4.65725216743592E-06	1.58266246574565E-06	4.29785913407956E-06	0.963129831948717	-0.248346607668385
10.6	0.00226513986619211	0.00976037521598285	-7.06016066215363E-06	1.06777127754499E-05	7.02010608255517E-06	4.24129498901446E-06	0.962001083987683	-0.250078696337952
10.7	0.00355389470394504	0.00939759039492539	-3.20479704938584E-06	1.56804445174856E-06	-5.35071488526678E-06	3.17080098988081E-06	0.962365620933804	-0.25195240407333
10.8	0.00438825664807857	0.00833552550989216	-1.91809848782732E-06	4.98377760724975E-06	8.45625091719473E-07	-3.19782853368941E-06	0.962521775426366	-0.25467443008097
10.9	0.00411254950354529	0.007722861438993	-5.75588529779243E-06	-1.0503184409035E-05	4.93863084910125E-06	1.06827991246342E-05	0.961840794491693	-0.25735167394853
11	0.00510071456874229	0.00809152920735268	2.96552440242016E-06	2.60369271067595E-06	7.63096580892866E-07	-1.12147849548085E-05	0.961044784242275	-0.259076171945566
11.1	0.00559924182079653	0.00657001245919829	3.8502065400509E-06	1.44741078269435E-06	2.42473727051616E-07	-7.35468119005968E-06	0.960185208000228	-0.26124628471103
11.2	0.00524762203853502	0.00586303576634435	-4.40767398399348E-06	-1.95874298880363E-06	-7.31168891036037E-06	-4.82565038617838E-06	0.95896774421299	-0.263368031784255
11.3	0.00498635428719087	0.00536441535601235	6.48156735243464E-07	-6.36278237768801E-06	3.7860887756167E-06	1.40948330573443E-05	0.957876415154623	-0.265749710863787
11.4	0.00430155845349207	0.00527164936898486	-5.07525511261111E-06	8.12962345756432E-06	-1.44156780365165E-06	4.06700404714933E-06	0.955271781647915	-0.268915144877719
11.5	0.00493133136600271	0.00587009536494141	4.51100980893964E-06	8.03729212152141E-06	-9.2305058109315E-06	1.58783348643839E-06	0.952884728936974	-0.269120470490049
11.6	0.0050008628557782	0.00443012512294897	-3.82249714180234E-06	1.39566800100238E-06	5.05707377847206E-06	8.09488893519897E-06	0.953005805831348	-0.272328112764027
11.7	0.00396046706684189	0.00400939910882299	2.24530254769008E-06	1.04787557168582E-05	5.3588153290723E-07	-3.63277312196902E-06	0.951184589619536	-0.276104249687819
11.8	0.00300188170913712	0.00443074331090399	1.42498197397689E-06	4.43775461461304E-06	2.24192223754161E-06	4.51077541577401E-06	0.948695351441702	-0.278890524462641
11.9	0.00239581580148262	0.00596809445477588	7.39070918969748E-06	1.05048398548336E-05	3.8575451108034E-06	4.04955268385307E-07	0.946440601564748	-0.278159612963813
12	0.00459590977084678	0.00792487820132885	2.35979661328589E-06	-5.12730772096518E-06	-4.07921341942992E-07	1.74283997007912E-06	0.949996575556087	-0.276422743232709
