# GHZ S RI R 50
0.2	0.000539452016522099	0.00213083585182314	4.80090620437134E-06	-2.98430516741263E-06	-1.37511622131778E-05	1.31224100974175E-05	1.00029966912466	-0.00643281450435049
0.3	0.00103812167158678	0.00153309844191556	2.86420900021479E-06	6.63635968765757E-06	-1.65851757200245E-06	-9.33316779683643E-06	1.00040823173762	-0.00924980704421698
0.4	0.00139640373525718	0.00129908457587657	-1.86354151062414E-06	-4.02330662565302E-06	-9.03222389735981E-06	4.40621533824332E-06	1.00079598198153	-0.0119100832420203
0.5	0.00202684234935483	0.000773780122049259	-5.36543921186825E-06	3.26844133655921E-06	-2.12832946897304E-06	6.76686175532267E-06	1.00068633242324	-0.0157293651342735
0.6	0.00181332376290344	-6.99088072266411E-06	-1.40866400137594E-07	2.8086511216044E-06	-5.82021138994399E-07	-1.34466055284142E-07	1.00007321216525	-0.0184021940360594
0.7	0.00153677122981876	-0.000164247459609052	8.6681001951125E-08	2.22230011053241E-06	4.91250814031362E-06	-3.40338386608508E-06	0.999908001075471	-0.0209377129577675
0.8	0.00140456026443669	-0.000279659047413264	4.53589522604323E-06	8.30330745435728E-07	2.74751402690781E-06	2.0058076459902E-06	0.999908584254117	-0.0229333689396103
0.9	0.00112717843198865	-0.000195890846434276	-1.49510623111084E-07	-4.22762438166589E-06	-3.42345084216581E-06	-3.11843737830024E-06	1.00010310696476	-0.0250950390449768
1	0.00151280231863237	0.000209897818849357	1.06233033755323E-06	4.30302118622882E-06	3.33550760391728E-06	9.36283659820351E-07	1.00078924101731	-0.0267908916102386
1.1	0.00172928271098118	-0.000551008728715793	9.06421505511029E-06	5.17448700456296E-07	-3.58660458767541E-06	-4.99610099380839E-07	1.00053557891575	-0.0297576576292007
1.2	0.00128105889860116	-0.00120007172965932	3.76907156850497E-06	-1.20373703699758E-06	-4.10692465707784E-06	-2.44199176767146E-06	0.999677768503415	-0.0309864081378684
1.3	0.00062260494343744	-0.00209952787262772	-7.64308370326261E-07	-1.42960217584004E-06	-2.59877189640598E-06	-8.72498989700789E-06	0.999589603165582	-0.0320547889971695
1.4	-0.000255209143813169	-0.00295800874918681	1.7403413367988E-08	3.45468789472093E-06	-4.29426047775948E-06	-4.13196621696555E-06	0.998967904463911	-0.0341015155458466
1.5	-0.00044978324553141	-0.00361649461472319	-1.29692652039803E-06	4.43936098863832E-06	6.55900612569062E-06	-7.43328475377052E-06	0.999533427277717	-0.037550127951524
1.6	-0.00120085737428301	-0.00399545156839292	1.632426931659E-06	-4.91408230646867E-07	4.24625809196929E-06	-5.40837570190243E-06	0.99863029523174	-0.0410777544576611
1.7	-0.00149284820874162	-0.00370432456299872	5.36176061730649E-07	3.9649465140254E-06	-8.29865449135543E-06	3.14365021785215E-06	0.998890699054835	-0.0434180280005551
1.8	-0.00160384986372943	-0.00338069654400089	1.83709219698715E-06	1.07876857177843E-06	5.64869884957534E-07	-1.76591598401394E-06	0.998853780077202	-0.0460499673433897
1.9	-0.00158922376259621	-0.00301837403377433	3.24462278849392E-06	3.02188781967545E-06	-1.84896982417644E-07	-2.33493021155194E-06	0.998887826412355	-0.0477986253779172
2	-0.0010149152883369	-0.00307060755838592	-1.7319390433495E-07	2.01163060173854E-07	-1.21991675308807E-05	5.44179859192668E-06	1.00007375147998	-0.0507742139682222
2.1	-0.00136767664391884	-0.00377428803119793	6.67326514903117E-07	-1.38797342766772E-06	1.38614972822834E-05	4.95206191631378E-06	0.99931934130529	-0.0547231162147321
2.2	-0.00195648653335645	-0.00385092319376599	1.64501594951038E-06	-1.52470508882381E-06	2.67831429530058E-06	-6.23299653557899E-06	0.998564834007495	-0.0571827372423469
2.3	-0.00258136916636523	-0.00382079304332802	-1.70040475662537E-06	-3.43065979459385E-06	-1.80689042637119E-06	-4.59799615756962E-06	0.99799016947934	-0.0589228545266809
2.4	-0.00327005481329512	-0.00347892017766896	-1.21851793636992E-06	-4.40745603710589E-06	3.05626493341406E-06	1.08042860542551E-06	0.997872546420379	-0.0619564469760997
2.5	-0.00327249204189398	-0.0029053522125774	5.41071265121167E-06	5.66214889357733E-06	-2.56088624435647E-06	1.61859386463997E-05	0.997572992658369	-0.064360990474903
2.6	-0.00346277093805532	-0.00313413860762836	-2.27246943395893E-06	2.7224649958863E-06	4.22178419154373E-07	-4.31939692774403E-06	0.997342318073776	-0.0674243163940623
2.7	-0.00384396538795618	-0.00297049814116297	-2.42129555441481E-06	-3.63604739469699E-06	2.15103310810515E-06	-2.58129281730923E-06	0.996855157403028	-0.0705518515150336
2.8	-0.00408874837043676	-0.00268284892115502	4.01665250032262E-06	2.30313738693738E-06	9.84695039764218E-06	-7.20343100498052E-07	0.996838137163714	-0.072782397983175
2.9	-0.00404930587593902	-0.0022354223255918	1.29041354918827E-05	6.64581173068388E-07	2.40171461160526E-06	-1.17440273953252E-05	0.996401613059327	-0.0749992988894556
3	-0.0034131664268754	-0.00219145785291669	-3.85415749977752E-06	1.06243534634345E-06	-4.15642535004046E-06	-1.58477229033322E-06	0.996167022020668	-0.0777379467758959
3.1	-0.00348957480946592	-0.00267900128457043	4.7493816447087E-06	-9.87326023105465E-06	1.07051835051494E-05	2.37401113436081E-06	0.995580291213589	-0.0800045717210836
3.2	-0.00371247021491481	-0.00276735207887716	-5.4060726439237E-06	-7.39586640556857E-06	1.56758797861626E-05	5.33016594459757E-06	0.995047802271278	-0.0819421708157226
3.3	-0.00397924728651282	-0.00283308437469893	-8.78895898273183E-06	2.58473978441566E-06	-8.58014678465183E-06	-1.70544070761768E-06	0.994460643917692	-0.0853384036595109
3.4	-0.00433898311677156	-0.00266517564426771	9.02767195448019E-06	-7.60400641406071E-06	-7.32769002964131E-06	4.2688102739061E-06	0.993803704063688	-0.0872898751712994
3.5	-0.00417407787862053	-0.00266737210940346	2.97628860447277E-07	-5.31979945654169E-06	-4.43118551332418E-06	-8.90719824410185E-06	0.993397202060101	-0.089465538013796
3.6	-0.00478292448148424	-0.00309379104375819	4.08865615115397E-06	4.88397700892427E-06	-7.07330535991874E-06	9.01604365360362E-06	0.99316607578229	-0.0921270988308764
3.7	-0.00552021674225942	-0.00279489831080689	1.51008600065775E-06	-4.53006685365672E-06	-5.12521170207382E-06	-6.56349262521223E-06	0.992649470686929	-0.0947321825329645
3.8	-0.00600547254271894	-0.00221615963062134	7.25321009613069E-06	-5.21784569093076E-06	-5.88311163135701E-06	-2.39453582036099E-06	0.992057902325196	-0.0964448187075523
3.9	-0.00608516672653481	-0.00136137833290756	-4.02624684668965E-06	-3.37225179310217E-07	-2.52429639593894E-06	1.13959486002524E-06	0.992164600505469	-0.0988486186931123
4	-0.00528799294045247	-0.000941806335620981	-3.38410372257155E-06	-7.18058908389067E-08	1.23074288365965E-06	8.66527933907622E-06	0.993487103635039	-0.100698791145882
4.1	-0.00521394731845939	-0.00134876425121738	-2.91470040488117E-06	-3.84758781073309E-06	5.88885275945238E-06	3.01299500192869E-06	0.992519648233725	-0.104037896073851
4.2	-0.00540461731294745	-0.00132358508517441	-7.81248514954332E-07	-2.1519453409433E-06	5.68717383841184E-06	-1.86501055633249E-06	0.991190080590268	-0.106575446649842
4.3	-0.0055647627027618	-0.00118451594501661	-4.97423922408933E-07	3.23323442363974E-06	2.13414644358454E-06	1.76947216322585E-06	0.990721887990095	-0.108412431875201
4.4	-0.00577201111426426	-0.000822522045950163	2.58743696124958E-06	3.42651985891733E-06	7.189023893097E-06	3.87639721899337E-06	0.990228529263989	-0.110729573785291
4.5	-0.00527938283260654	-0.000542763140087224	-6.4581085861583E-06	-1.98768066713124E-07	-8.57018503110059E-06	-2.06740959009404E-06	0.989701639217432	-0.113327850762885
4.6	-0.00559138760219108	-0.00106866336076988	-9.94777180417407E-06	-9.15747119900575E-06	3.21479348719669E-06	-2.73410867078035E-06	0.988387035782138	-0.115834959860315
4.7	-0.00612696383288255	-0.000919177009641096	1.31876967708236E-07	1.85860646764106E-06	6.01851152996039E-06	-6.73208901010728E-06	0.987914140332313	-0.117358120142825
4.8	-0.00655884969547198	-0.000535060165949711	-6.36645702587311E-06	2.09223240501388E-06	7.41867396768861E-07	-1.27076731938577E-05	0.987298512674379	-0.119467106890394
4.9	-0.00673781060961173	0.000139079106546132	-3.38839969561608E-06	8.12489197391525E-06	5.91042820448506E-07	9.34181680440841E-06	0.986666459192529	-0.120952851212113
5	-0.00605232886366827	0.000467617583709906	9.59154871620013E-06	-4.07172768500307E-06	-6.89706564492187E-06	3.58214517859011E-06	0.986375421346345	-0.122287257636875
5.1	-0.00611345585323417	0.00016256383735578	-3.7216271917951E-07	-3.23818670099878E-06	-3.86260952144651E-06	-1.7769935051426E-06	0.986088940703848	-0.123404136872318
5.2	-0.00617314812323318	0.000430347978698689	-1.07234115977864E-06	-4.46689483242907E-06	8.76325319675611E-06	5.53701824803965E-06	0.985825169425131	-0.125235114766224
5.3	-0.00602907654904984	0.000731511322290656	2.29135588721007E-06	6.76041162815549E-06	8.76493147065198E-06	3.10228662801896E-06	0.985617878602742	-0.127416229204754
5.4	-0.00573744961352077	0.00117124335469091	2.68700467301711E-06	-3.13316297745072E-06	-2.66197769783813E-06	1.58767872056782E-07	0.985241642520972	-0.130116334322095
5.5	-0.00480455888960698	0.0010376082073883	2.10763502954251E-06	9.26630869405986E-06	-3.90716054830654E-06	-5.00262396726222E-06	0.984961680361699	-0.132276764084442
5.6	-0.00529989776049532	0.000323051481719482	-5.8285601602618E-06	-1.12525528648858E-06	4.85054166592402E-06	1.93227409808344E-06	0.984720139729424	-0.134783934143193
5.7	-0.00604019637947742	0.000639470680221566	3.32104782006328E-06	-1.4177131714353E-06	-5.02647938928825E-06	-4.27110902678176E-06	0.98414522044325	-0.136883413443384
5.8	-0.00656317798499627	0.00130375169152032	-2.04501357235892E-06	-4.72486674998479E-06	9.4217019639081E-07	-5.79525398490286E-07	0.983930884408387	-0.138405869961779
5.9	-0.00690559782937887	0.00256036850937301	-3.86402068280771E-06	6.14510133560504E-07	3.84603803634189E-06	1.24666607618179E-06	0.984333113993981	-0.139553732482612
6	-0.00582938721038028	0.00385745998061145	-5.92109574175651E-06	5.03552676279275E-06	-1.48112458536745E-06	1.96087885513099E-07	0.986387795619928	-0.141975449684151
6.1	-0.00512334206357207	0.00353961062662678	-5.91613846727172E-06	-4.67484787809596E-06	-3.99350115590207E-06	4.36566664305692E-07	0.985415255280967	-0.145293659732569
6.2	-0.00494885399442711	0.00338766449147132	2.81348714624407E-06	3.11094591959106E-06	1.0496784049264E-06	7.1900795817672E-07	0.984325888906942	-0.146758210272131
6.3	-0.0048947577035477	0.00316301488921286	1.634545135202E-06	-7.46424429376732E-07	-1.31874843338813E-07	1.37040214820643E-06	0.983553276357941	-0.148485807076532
6.4	-0.00497153842746856	0.00323058929844724	-5.16777635829245E-06	-5.59756403968555E-06	3.80481151702471E-06	6.88235809747653E-06	0.983173350197638	-0.150182544365218
6.5	-0.00430646282989434	0.00274929380258192	9.02826877486612E-06	-2.574605345938E-07	-7.29331984358605E-06	-8.85837173465576E-07	0.98259431701594	-0.153714001193035
6.6	-0.0050386117495457	0.00214240313761612	-1.48021024014297E-06	4.63273997957768E-07	3.35812571762568E-06	-9.32693358277422E-06	0.9807623524926	-0.155103436999779
6.7	-0.0054564614866555	0.00249763483960255	3.54876936201636E-08	7.70828424401131E-06	-4.81944688550936E-07	-6.05274896247686E-06	0.980627592593584	-0.15608739008588
6.8	-0.00567527186594801	0.00296204081436438	4.22103616987705E-06	1.65759819876849E-06	2.25172400170854E-07	-5.20678960668126E-06	0.980608736407964	-0.157624736941903
6.9	-0.00566876615748989	0.00387496060607776	-7.52293185722006E-07	2.44499562189367E-07	5.73778518875564E-06	-2.65073957037717E-06	0.980764954751193	-0.158996454356359
7	-0.00437368122904219	0.00417771516136623	7.99920836863522E-06	-4.70918447765381E-06	4.4240780879623E-07	-3.00470789621301E-06	0.981349284703376	-0.161035357080227
7.1	-0.00470808563657237	0.00339531829084934	3.82285385743189E-06	2.04697096208794E-06	7.4651869040173E-07	7.2008297289098E-06	0.980306948179055	-0.163309299507496
7.2	-0.00531471114285618	0.00369402601220539	-2.45014261050149E-06	3.66811366568381E-06	-1.31449103796937E-06	-3.81555994576909E-06	0.97928237246966	-0.164612518794147
7.3	-0.00590031771275185	0.00424790170598937	3.4260722423801E-06	-4.80803283904642E-07	-2.43307428471512E-06	-1.9169550772174E-06	0.977948938162625	-0.165873252514409
7.4	-0.00660395384040594	0.00540018279369537	-6.14650417998072E-06	-2.70467314858587E-06	3.74922652186479E-06	2.57870345649064E-07	0.976245823563886	-0.166875143285097
7.5	-0.00579776162562488	0.00684014050308071	6.74898227069298E-06	-6.36066449001449E-06	-2.46782133377214E-06	7.81989574374368E-07	0.976872719103752	-0.166673571615249
7.6	-0.00549195008279997	0.00671988240971334	3.43500986051294E-06	5.20002611424283E-06	-1.02230056086123E-05	4.83998323882336E-06	0.978082854688566	-0.170467325938473
7.7	-0.00551396846230179	0.00719669600367087	5.9292613604607E-06	1.09260343902317E-05	4.03844280367036E-07	-1.13030284909343E-05	0.97786738844052	-0.173770243966585
7.8	-0.00505195673318485	0.00757760369093108	2.13972577896269E-06	9.94435984785208E-07	-3.15302394627694E-06	8.76037152031673E-06	0.977995406309193	-0.176623254765727
7.9	-0.00408113936938335	0.00789208517596707	2.56193268444821E-06	-2.28495179805967E-06	3.67180052960957E-06	3.70852863420144E-07	0.978930188403092	-0.178988005810995
8	-0.00238068313700887	0.00704228683336713	-2.82180838079946E-06	1.30492993662153E-06	6.88739753177796E-06	-1.80004427140005E-06	0.981416181617717	-0.183049175940715
8.1	-0.00255702948687557	0.00582266242296041	-1.79614925726728E-06	7.43551061423329E-07	-3.69969574870516E-06	-1.27822492461169E-06	0.980162891926294	-0.18780226184333
8.2	-0.0027329217545977	0.00562554298581073	-8.33959088630914E-07	6.32875751241247E-06	4.84858212206467E-06	4.38438842177296E-06	0.979433225153856	-0.190026173373658
8.3	-0.00280640203479313	0.00563159752555125	-7.69660539273176E-07	-1.42240838895628E-05	6.79545473778285E-06	5.4700080338017E-06	0.979148739668222	-0.192613269167896
8.4	-0.00277525725761563	0.00617858184237465	3.78190672427402E-06	-3.41126249837916E-06	-6.97071512367658E-06	-1.25783469576984E-06	0.978967740206454	-0.195293229539511
8.5	-0.00147151264694546	0.00622271715725278	4.67101529586071E-06	6.09541246857031E-07	8.44838120106437E-06	-6.79066645409029E-06	0.978610251133423	-0.19859371166701
8.6	-0.00172433902438808	0.00519427888940469	-3.29430677604733E-06	4.09679732389506E-06	9.40156002586647E-07	1.11034098000196E-05	0.977908157124219	-0.201153797996614
8.7	-0.00225466144917142	0.00525256499392132	2.69930892176682E-06	-1.98428026824582E-06	4.82713518791353E-07	-5.51352287293615E-07	0.977873727444385	-0.203599944160086
8.8	-0.00258042500785665	0.00569326905015115	1.3008048608166E-07	-1.2549591398948E-06	-1.03486896014098E-06	9.78250486533399E-06	0.977801242413549	-0.205917773759565
8.9	-0.00257471115686881	0.00661955913113119	-3.68784217002053E-06	2.27865715090035E-06	4.85815683856299E-06	-1.78091148227385E-06	0.978085688766453	-0.208029163740886
9	-0.00109118572325231	0.00716702856319855	-1.89840714288809E-06	4.88253310880368E-07	-3.15903247783859E-06	-1.05847153040635E-05	0.978340728912912	-0.210342615607531
9.1	-0.000453240729045964	0.00635828555411071	5.26678996777516E-06	6.22664089980177E-07	9.13925746420174E-07	3.8856072368503E-07	0.978585465325067	-0.21275305416573
9.2	-2.39141900675576E-05	0.00596621575473997	-8.73489230819555E-06	-4.64240337869004E-06	-8.5258584390782E-07	-6.15776273330066E-06	0.978451115266448	-0.215759507928265
9.3	0.000319148739295348	0.00546600510842761	1.59181604223584E-07	6.24338841583062E-06	4.66941510966465E-06	-2.18115894574886E-06	0.978055504502485	-0.218708703754412
9.4	0.000583619615861164	0.00523595531050837	-1.96190536714985E-06	5.89931198050123E-06	-1.05794295352451E-05	7.72614202822483E-06	0.977054280477385	-0.221615230259023
9.5	0.00139849426761635	0.00440340481048465	3.23954055429707E-06	-7.57677559154357E-06	3.71152959138461E-06	-2.73111983873212E-06	0.976998650837955	-0.223742597292759
9.6	0.000471096395760969	0.00328520774897013	4.49026174490196E-06	5.63042281181538E-06	-6.84226557593061E-07	7.10389037855099E-06	0.976929751986623	-0.227594278053866
9.7	-0.000446952530978071	0.00335451107847461	-2.59908308643378E-06	-3.97400935895685E-06	3.75218419509181E-06	-7.54620558980225E-06	0.976201933002767	-0.230510691301622
9.8	-0.00123290504683331	0.00382334881819158	-5.06644985868512E-07	-4.24260926620553E-06	6.30897907671315E-06	9.26424579775836E-07	0.975911724446742	-0.232586146845818
9.9	-0.00171008384659759	0.00503057104418545	-2.70405405485135E-06	-6.1354723179568E-07	-8.59367230289908E-06	5.47863432488199E-06	0.976007251572189	-0.233679035934582
10	-0.000654902087985947	0.00585719870750796	4.40234297989149E-07	-1.76566381513273E-06	-3.07804858101862E-06	-8.05690047263252E-06	0.977988100261657	-0.236464420215328
10.1	-0.000659809020137708	0.0056103800795635	2.25150250612702E-06	4.81569623527607E-06	-3.15286355951638E-06	9.92298176557807E-06	0.976437741802279	-0.239819473838171
10.2	-0.00070942174886453	0.00608527365917132	-5.39553193632766E-07	-1.05819916640237E-06	-1.21176031812909E-06	-3.14389560148637E-06	0.975577137227428	-0.241183942599795
10.3	-0.000553903277550311	0.00668471642147447	1.14027114972634E-05	-2.92879158170672E-06	1.01466400760508E-05	-4.85984207637172E-06	0.97508498374935	-0.243082907144087
10.4	-3.27921849132748E-05	0.00763849642606881	-6.37110615299868E-07	2.16466122948753E-06	3.05970536671713E-06	-2.19851012929054E-06	0.974560554718817	-0.245511404769473
10.5	0.00175143932584809	0.00785622280955189	-6.15801782637978E-06	4.67519239999628E-06	1.58110119957244E-06	4.33917598228312E-06	0.973451895213701	-0.249096639413932
10.6	0.00232957185521883	0.00704411308928681	-7.16393595201082E-06	1.07516756741202E-05	7.07016508719278E-06	4.30580200618948E-06	0.972037729380021	-0.251296030461909
10.7	0.00273734906319551	0.00672574792912231	-3.23980172452398E-06	1.57526581002553E-06	-5.41053715793122E-06	3.18822122050065E-06	0.971567747199677	-0.254034364988195
10.8	0.00297365409425513	0.00644887899441922	-1.94472283663791E-06	5.0286870832807E-06	8.58996248044826E-07	-3.22727322238509E-06	0.970920939623047	-0.25656998389347
10.9	0.00319831322261231	0.00669673322987773	-5.79983978968671E-06	-1.06069940308471E-05	4.97476194995809E-06	1.078751677574E-05	0.970380495656922	-0.258910049306091
11	0.00466336774448052	0.00636344138966306	2.99023234004109E-06	2.63158284456393E-06	7.83478682996408E-07	-1.13189419367679E-05	0.969951525966187	-0.260796610340311
11.1	0.00458170419126636	0.00517359675971796	3.88829896768171E-06	1.46382935447323E-06	2.48428333031126E-07	-7.42865003972159E-06	0.969378727656703	-0.262945776878489
11.2	0.00435102333967626	0.00483270711941353	-4.4523111329575E-06	-1.97683978983788E-06	-7.38625501175406E-06	-4.87140368524591E-06	0.968560539132215	-0.265344690731942
11.3	0.00420959789375288	0.0047369805090307	6.49385648867851E-07	-6.42376398211345E-06	3.83300129378572E-06	1.42258719010968E-05	0.96750336259913	-0.267824876037902
11.4	0.00415431143776563	0.00506616269724309	-5.1180163509948E-06	8.20501132775057E-06	-1.45304416832476E-06	4.10430036594568E-06	0.965527088572537	-0.270545483926741
11.5	0.00521890550949601	0.00474672394079625	4.56264124337244E-06	8.12271220416883E-06	-9.32986122362854E-06	1.60824133996465E-06	0.965122353819377	-0.272536134322224
11.6	0.00482189436253433	0.00363271153370118	-3.8599567801349E-06	1.41954501204001E-06	5.13003857352029E-06	8.16926922232536E-06	0.964146468478176	-0.277285296016705
11.7	0.00425563803482196	0.00354798234908975	2.29822747660256E-06	1.05779225152398E-05	5.30785301128635E-07	-3.67095079926597E-06	0.962293790363782	-0.281393012721337
11.8	0.00402019225574424	0.00394293239174909	1.45306536955649E-06	4.47848926293827E-06	2.27853219139291E-06	4.54974840995104E-06	0.960503174710747	-0.284907410763279
11.9	0.00450846345233158	0.00488014787233453	7.51486552871846E-06	1.05989822908901E-05	3.90361909546611E-06	3.95407689644832E-07	0.959852048089542	-0.286307128812068
12	0.00639656357915272	0.0044998101635851	2.35053572148531E-06	-5.20278002548751E-06	-4.00255555996481E-07	1.76570268374238E-06	0.961033084562516	-0.289887323592041
