# GHZ S RI R 50
0.2	0.000823860188108813	0.0020616665898988	4.79819310148886E-06	-2.98392082300501E-06	-1.37424961722114E-05	1.31192803715956E-05	0.999919884943111	-0.00688271055775814
0.3	0.00130503885447623	0.00144564218565253	2.86467324536877E-06	6.63211980544547E-06	-1.66038635794796E-06	-9.32789549410152E-06	0.999937619136034	-0.00979713296966169
0.4	0.00157963422318098	0.00110759891199821	-1.8633587893855E-06	-4.02026499952652E-06	-9.02533966420709E-06	4.4056627120634E-06	1.00016905473347	-0.0124611394350028
0.5	0.00191938324351992	0.00069896418999769	-5.36267375697971E-06	3.26733398631403E-06	-2.12680322021441E-06	6.76386446063572E-06	1.00024323600886	-0.0159857737695595
0.6	0.00179675473130932	0.000151059750692119	-1.3986516430983E-07	2.80768438556413E-06	-5.81856429445316E-07	-1.3422055254123E-07	1.00002197159775	-0.019091949435329
0.7	0.00158964579797227	4.6127668652634E-05	8.76042301970358E-08	2.22122294358075E-06	4.90873411257643E-06	-3.40392226780463E-06	0.999688601223648	-0.0220138457676713
0.8	0.0015536927681945	-2.47950130656024E-05	4.53375822204014E-06	8.27671231386178E-07	2.74694676801151E-06	2.00335554823416E-06	0.999438365992413	-0.0242262051529833
0.9	0.00145199823110777	-5.05926107804262E-05	-1.51683230942356E-07	-4.22441684157783E-06	-3.42260297803461E-06	-3.11428206742448E-06	0.999213033684336	-0.02655855698232
1	0.00167003494454329	9.45641082435061E-07	1.06292251157207E-06	4.29812096350018E-06	3.33240375605371E-06	9.33992127744722E-07	0.999157691467792	-0.0279131832556235
1.1	0.00165730288249535	-0.000711441593844473	9.0535940894869E-06	5.14884635827015E-07	-3.58246547422449E-06	-4.98246401764791E-07	0.998955198431551	-0.0302459584012783
1.2	0.00104304213567806	-0.00147911592950397	3.76360252162779E-06	-1.20230358818335E-06	-4.10124843275315E-06	-2.43819746918681E-06	0.998074159572588	-0.0313862457165824
1.3	9.62814350472149E-05	-0.00237905476982963	-7.6293691843629E-07	-1.42740162685033E-06	-2.59369888975855E-06	-8.71134063239077E-06	0.997941221990601	-0.032398881572941
1.4	-0.000895589818839777	-0.00306189621368913	1.66619846332753E-08	3.44958098161957E-06	-4.28705198908952E-06	-4.12674341330986E-06	0.997549065652793	-0.0345276523586639
1.5	-0.00117390697388478	-0.00334183098599914	-1.29639440253964E-06	4.43361408934791E-06	6.5527405481048E-06	-7.42261786560089E-06	0.998552684528628	-0.0379002820676173
1.6	-0.00150249208024644	-0.0033125431040042	1.63114249588778E-06	-4.90441893630552E-07	4.24426179728392E-06	-5.40220756576146E-06	0.99836628081287	-0.0416652329788758
1.7	-0.00143545445835323	-0.0030006126380095	5.34461457340486E-07	3.96272984966342E-06	-8.29472337207347E-06	3.13883563755493E-06	0.998812030035514	-0.0442192746587776
1.8	-0.00130848933417075	-0.00279165599588183	1.83600676263522E-06	1.07897881316247E-06	5.65255806264708E-07	-1.76503457753355E-06	0.998901093701582	-0.0469059295152538
1.9	-0.00122797009336104	-0.00270764654400604	3.24325938388492E-06	3.02167984380453E-06	-1.84440276228424E-07	-2.33436256664971E-06	0.998948252060204	-0.0488263601792473
2	-0.00102759871418864	-0.00285992574163168	-1.73112285115854E-07	2.01022312418739E-07	-1.21924329084436E-05	5.43714251879284E-06	0.999709678838176	-0.0515696606793708
2.1	-0.00142070279157848	-0.00325081045822167	6.67645087563817E-07	-1.3868717919285E-06	1.38513454252547E-05	4.9561939326906E-06	0.999426788422057	-0.0551088650220466
2.2	-0.00188071741634465	-0.00320345520399757	1.64520452689688E-06	-1.52317049750202E-06	2.68071769230417E-06	-6.22898491042283E-06	0.99891188522103	-0.0577899922091304
2.3	-0.00230766228863573	-0.00314818365697594	-1.69782078280242E-06	-3.43054831342158E-06	-1.80358101847315E-06	-4.59756738713071E-06	0.998322210509698	-0.059691263474604
2.4	-0.00276119101830416	-0.00302548255322699	-1.21528816154954E-06	-4.40725489831278E-06	3.0548372908695E-06	1.08222422703915E-06	0.998118755463258	-0.0627356494173865
2.5	-0.00298212794936162	-0.00287254214127677	5.40717215186753E-06	5.66637465031084E-06	-2.5724092798731E-06	1.61854058431526E-05	0.99792488584662	-0.064928326725323
2.6	-0.00346181881308301	-0.00302329845436561	-2.27404561815607E-06	2.72202022551975E-06	4.24079008997222E-07	-4.32003328541383E-06	0.998049371857552	-0.0680731915515805
2.7	-0.00394725288799509	-0.00277442053993704	-2.42012430328297E-06	-3.63727172084764E-06	2.15219226062604E-06	-2.58069719616402E-06	0.997672876426927	-0.0713195345464542
2.8	-0.00422413350991226	-0.0024178477280927	4.01561096658656E-06	2.30501295421584E-06	9.84734670029084E-06	-7.15785539088612E-07	0.997693334347776	-0.0736113882271503
2.9	-0.00424273175930885	-0.00201844240484909	1.29030057653027E-05	6.71946398363944E-07	2.40831347170735E-06	-1.17419682698859E-05	0.997119085933983	-0.0758226223179237
3	-0.00397341786533795	-0.00187384890135277	-3.85418440202516E-06	1.06009255418355E-06	-4.15490691288939E-06	-1.58689130948207E-06	0.996707723451339	-0.078313954971083
3.1	-0.00406433469938691	-0.0018900502460653	4.75370336955692E-06	-9.86523567370484E-06	1.06983506453039E-05	2.38005435888209E-06	0.996130400850848	-0.0804081372778663
3.2	-0.00412662913955382	-0.0017268603001316	-5.39549353308705E-06	-7.39648472680286E-06	1.56608698796087E-05	5.34206285767688E-06	0.995531066454153	-0.0822086297615897
3.3	-0.00416296988843247	-0.00163726006560749	-8.78655379978117E-06	2.57240629192223E-06	-8.57265016326196E-06	-1.71480978804022E-06	0.994924532480577	-0.085427323331574
3.4	-0.00428351723835356	-0.00152254226203033	9.03435203657748E-06	-7.58737878104911E-06	-7.33036756898495E-06	4.25621719736655E-06	0.994385407160831	-0.0871650800157858
3.5	-0.00423877496906077	-0.00158037064857353	3.04667904075149E-07	-5.31847520406123E-06	-4.41854021519553E-06	-8.9115517041582E-06	0.994330909276515	-0.089315714641635
3.6	-0.00467567645002171	-0.00172305476328477	4.0818284517946E-06	4.8880970194703E-06	-7.08310069453751E-06	9.0055608109225E-06	0.994390858405246	-0.0922651479147205
3.7	-0.00505600824268905	-0.00145683353571721	1.51545587563927E-06	-4.52776471482264E-06	-5.1166873930216E-06	-6.56907402510285E-06	0.993841451420901	-0.0952619731805201
3.8	-0.00526263410849977	-0.00114246245391745	7.25911747688348E-06	-5.20979288554036E-06	-5.88049633322085E-06	-2.40113631381018E-06	0.992989759790502	-0.0972424946154923
3.9	-0.0052843709722429	-0.000783147385210468	-4.02608392733961E-06	-3.40628362945068E-07	-2.52533279424643E-06	1.13750189181889E-06	0.992585090716152	-0.0997808494097713
4	-0.00502586881275413	-0.000711236707904492	-3.38265723284774E-06	-7.41561683344956E-08	1.22414125628605E-06	8.66257031618367E-06	0.993170551310361	-0.100976830483564
4.1	-0.00525415018471794	-0.000841866046843276	-2.90961273027073E-06	-3.84841690073876E-06	5.88306712332306E-06	3.01704824658888E-06	0.99270617597088	-0.103688742253247
4.2	-0.00548145473300544	-0.000667222415119394	-7.78718704454224E-07	-2.15150764551674E-06	5.68582271812628E-06	-1.85843593861566E-06	0.991538254486478	-0.106329761802461
4.3	-0.00563245500018625	-0.000472720676823294	-5.00621298814204E-07	3.23064876856301E-06	2.13087432842855E-06	1.77067097923137E-06	0.99098057968886	-0.10811255969348
4.4	-0.00584768725049275	-0.000234429018674155	2.58132176680672E-06	3.42807048260498E-06	7.17967631952137E-06	3.88392288818434E-06	0.990489525498042	-0.110172897177355
4.5	-0.00584413324533434	-6.0025819230418E-05	-6.45791597190773E-06	-2.09252964964318E-07	-8.56700229371109E-06	-2.08135979407989E-06	0.990450799379994	-0.112338101564421
4.6	-0.00643445336939642	-6.21054226696024E-05	-9.94254582165912E-06	-9.17455672225424E-06	3.21988820213046E-06	-2.73184081340415E-06	0.98996794905206	-0.115185414410153
4.7	-0.00690349331742215	0.000490283229951211	1.30419651295263E-07	1.86011434741693E-06	6.02867442241322E-06	-6.73211056058574E-06	0.989788718634375	-0.117225413088819
4.8	-0.00712347093787005	0.00115664110185906	-6.37323070235918E-06	2.09044436895075E-06	7.49749274554371E-07	-1.27183950853384E-05	0.989276153092141	-0.1197599259625
4.9	-0.00701754776111383	0.0018679934479066	-3.39484254073887E-06	8.13143250091137E-06	5.87975843530708E-07	9.3510846871367E-06	0.988577025717138	-0.121518384716349
5	-0.00643914286273557	0.00220806089470023	9.60251535324498E-06	-4.07462601742679E-06	-6.90505306165717E-06	3.58493424738727E-06	0.98826915445069	-0.122732576128932
5.1	-0.00620944414903427	0.00228242585243757	-3.72543650759845E-07	-3.24101211002389E-06	-3.8660178056144E-06	-1.77848130688184E-06	0.988274034188707	-0.123983687409917
5.2	-0.00580676274131077	0.00247672594576781	-1.07300973078085E-06	-4.47016895356794E-06	8.76948652113677E-06	5.54126152267744E-06	0.987885850292021	-0.12604742233683
5.3	-0.00539708484778016	0.00247647997607703	2.29180837260433E-06	6.76491412112067E-06	8.76990394466957E-06	3.1054514837074E-06	0.987440474651184	-0.128114451932911
5.4	-0.00510038095665547	0.00248061944767135	2.69008687161346E-06	-3.13416621356603E-06	-2.66382775175526E-06	1.57786640430209E-07	0.987117764328951	-0.130443631195975
5.5	-0.00475498132184946	0.00226106672574422	2.10639023634836E-06	9.2771573534549E-06	-3.90949078787178E-06	-5.00953574478534E-06	0.987320831723717	-0.132432215328887
5.6	-0.00515154058350395	0.00213508385594303	-5.83490354732766E-06	-1.12723810751544E-06	4.85569576551308E-06	1.9350321103077E-06	0.98757242260141	-0.135257278261247
5.7	-0.00534238386116998	0.00254184864914636	3.32460837915999E-06	-1.41928937491507E-06	-5.03196030045188E-06	-4.27564227676203E-06	0.987107997709176	-0.137881183175215
5.8	-0.00530967486490495	0.00286609213311707	-2.04776310824215E-06	-4.72873741474573E-06	9.4290914783699E-07	-5.80228595985997E-07	0.986606584894726	-0.139902406436676
5.9	-0.00527664169182454	0.00316824164441731	-3.86520869604816E-06	6.16313541018879E-07	3.84797781356461E-06	1.24556284514614E-06	0.986124092079171	-0.141431405572314
6	-0.00503190466465996	0.00314516394427535	-5.91761781514767E-06	5.0307027828251E-06	-1.48006008713949E-06	1.95671310029166E-07	0.986711818272693	-0.142847596455377
6.1	-0.00569659265771572	0.00273100651856474	-5.90547325398812E-06	-4.67918924176092E-06	-3.99107481792907E-06	4.30931894879658E-07	0.986001596166259	-0.144794464106544
6.2	-0.00657065985964733	0.00310546903326357	2.80631862478441E-06	3.11488903747342E-06	1.04784221407363E-06	7.20677442411788E-07	0.985123427564286	-0.145612762233247
6.3	-0.00696548661622253	0.00384182310928119	1.63603904782421E-06	-7.42915173997172E-07	-1.34775344303607E-07	1.37004698751221E-06	0.984727125484046	-0.146832823011306
6.4	-0.00687216602222423	0.00457050357703986	-5.15754226195348E-06	-5.60994967750335E-06	3.79150627352183E-06	6.89225931086327E-06	0.984842767534568	-0.148431121466005
6.5	-0.00628614364059682	0.00470417679266733	9.03783136587567E-06	-2.37097630238667E-07	-7.29854672636491E-06	-9.03374288379044E-07	0.985209279855781	-0.151802042524273
6.6	-0.00632622199972919	0.00490121208928292	-1.48384790967119E-06	4.61757893967991E-07	3.37989633953842E-06	-9.33960156120966E-06	0.98449519428815	-0.154397917785946
6.7	-0.00599511710063036	0.00537480123611165	2.79264370884778E-08	7.72623363404208E-06	-4.77062677554435E-07	-6.06729357507486E-06	0.984362757126949	-0.156449196456082
6.8	-0.00565227747298843	0.00572010689929683	4.23102469335113E-06	1.66388574377548E-06	2.28275757674834E-07	-5.21999406080348E-06	0.984146506657759	-0.158583894833817
6.9	-0.00530262567352444	0.00618452429915068	-7.54261154850192E-07	2.45174651306745E-07	5.75276147457168E-06	-2.65795536700166E-06	0.983934724404551	-0.160301691890598
7	-0.00458306362574607	0.00628900090219013	8.01521054434221E-06	-4.72290301312703E-06	4.42197844428916E-07	-3.01160105476037E-06	0.984109806684793	-0.16187875420691
7.1	-0.00477626838211335	0.00630207075063394	3.83057890662968E-06	2.05077928620981E-06	7.4848086843604E-07	7.21507385882971E-06	0.983791129943672	-0.16387874537175
7.2	-0.00464985220252245	0.00688770758440751	-2.45653084034973E-06	3.67552036060253E-06	-1.31634737239834E-06	-3.82431367535502E-06	0.983221754272153	-0.165577939397087
7.3	-0.00432666400152974	0.00732319730579903	3.43548239039622E-06	-4.80095685711816E-07	-2.43844591439289E-06	-1.92347658806556E-06	0.982201125062246	-0.167282126096993
7.4	-0.00401498430264193	0.00765761265270977	-6.16658552163845E-06	-2.71944323221375E-06	3.76260140942785E-06	2.61836839751054E-07	0.980908657429983	-0.169034117150517
7.5	-0.0033292293580646	0.00756279297943951	6.78079885745121E-06	-6.39049200542506E-06	-2.47943613910719E-06	7.85636248370502E-07	0.98106116207774	-0.169996121629357
7.6	-0.00360442154108756	0.0068558976562073	3.45504187422897E-06	5.22346468674265E-06	-1.02702498997223E-05	4.86997252683429E-06	0.981746506597207	-0.173973232662059
7.7	-0.00414537616142143	0.00682663709735954	5.97189895993801E-06	1.09746932941935E-05	3.92922591023814E-07	-1.13608691910756E-05	0.981121935649299	-0.177660862774695
7.8	-0.0043797308350502	0.00697910689191155	2.15200713826714E-06	9.95516351262236E-07	-3.15293513736744E-06	8.80902005984137E-06	0.980612385432014	-0.180635933104956
7.9	-0.00425745560560606	0.00725240157939378	2.56711530841734E-06	-2.30150818538184E-06	3.68868687876542E-06	3.62934908726066E-07	0.980707628615076	-0.182975615273733
8	-0.00378213636623624	0.00700007421124835	-2.82568270870427E-06	1.31799382067962E-06	6.90141177842345E-06	-1.827920903664E-06	0.98220806601107	-0.186434690467292
8.1	-0.00400955091179084	0.00711536528265252	-1.79702275912108E-06	7.50193970229235E-07	-3.7098835221402E-06	-1.26938096032719E-06	0.980978851289334	-0.190505600131117
8.2	-0.00382880457943838	0.00747036632881053	-8.16967668069212E-07	6.33786938998269E-06	4.86614558166029E-06	4.37536903776538E-06	0.980058759983088	-0.192839079072718
8.3	-0.00360874926762314	0.00774110202304087	-8.08098370096691E-07	-1.42294291981315E-05	6.81361928484764E-06	5.45468310143126E-06	0.97931686117827	-0.195446838247809
8.4	-0.00338691321382692	0.00820957329155446	3.77465689232435E-06	-3.42064182371917E-06	-6.97486443605378E-06	-1.24187837907217E-06	0.978663108015437	-0.197996843074888
8.5	-0.00275029913656526	0.00836433618429626	4.67553328849427E-06	5.99793523084384E-07	8.43937721588329E-06	-6.81369022090035E-06	0.978056571423166	-0.200991756816037
8.6	-0.00288523745695923	0.00851016330170052	-3.28389452311418E-06	4.10952434216899E-06	9.74746047917598E-07	1.11076994767734E-05	0.977334260296052	-0.203553239558572
8.7	-0.00253986163164591	0.00914262968740214	2.69263159600202E-06	-1.99392816108997E-06	4.80831482092936E-07	-5.53097214562695E-07	0.977153062816773	-0.206066806553227
8.8	-0.00181232005643742	0.00956694266787611	1.2530611252455E-07	-1.2548454994813E-06	-9.97642326452772E-07	9.78169743223092E-06	0.976950925495836	-0.208465114680142
8.9	-0.000872038354381054	0.00967190927361444	-3.67465526943659E-06	2.29009673960393E-06	4.8454779996601E-06	-1.79744726051112E-06	0.977122855507176	-0.210713740185911
9	0.000290031873895308	0.00904813659993736	-1.89306252244749E-06	4.94303868777889E-07	-3.19195034621873E-06	-1.05533137489868E-05	0.977123964839996	-0.213345955083261
9.1	0.000496291337409502	0.0080489853435146	5.25542945893009E-06	6.03727241118342E-07	9.12878537943114E-07	3.84560362496613E-07	0.976749377729306	-0.215850536549647
9.2	0.000565218522513018	0.00746174810852984	-8.72246937492453E-06	-4.60612909657651E-06	-8.66483355376238E-07	-6.13807820100631E-06	0.976105346058866	-0.218561954525216
9.3	0.000510498322546575	0.00699612523249329	1.7177839525252E-07	6.22596720778731E-06	4.65208137346413E-06	-2.18493581053931E-06	0.975486614817946	-0.221124066778062
9.4	0.000444091978655822	0.00676884819169123	-1.94760787847318E-06	5.88846325269684E-06	-1.05416281475354E-05	7.72500252479019E-06	0.974522549840465	-0.223835353828954
9.5	0.000467622150066173	0.00640661542369981	3.22102752643107E-06	-7.5692536240837E-06	3.70047452115818E-06	-2.73275046722969E-06	0.974284383780658	-0.226070494931633
9.6	-0.000160112440466149	0.00643772899298437	4.49392899372565E-06	5.61216887709514E-06	-6.69032849765938E-07	7.09342207208504E-06	0.97393056925031	-0.22968240654142
9.7	-0.000228533054335564	0.00689615032006794	-2.60280570741556E-06	-3.96178467182301E-06	3.7301253267641E-06	-7.54093403552139E-06	0.973111730922679	-0.232407802498573
9.8	-0.000107499430330345	0.00719960640879255	-5.14744667469829E-07	-4.23372207587215E-06	6.2993395914982E-06	9.11288179844229E-07	0.97284737122368	-0.234365929637708
9.9	0.000131236737902374	0.00749108854982919	-2.69946644817499E-06	-6.0579735735642E-07	-8.56156426877513E-06	5.4866838190805E-06	0.973030287293709	-0.235701733901797
10	0.000577501482065766	0.00727469325769852	4.3558551322987E-07	-1.76085246008501E-06	-3.08306731969783E-06	-8.02559031398793E-06	0.974539730686097	-0.238722280119053
10.1	0.000131522777313618	0.0070888526135992	2.24947425903637E-06	4.79967280126754E-06	-3.13450724874139E-06	9.89721898078783E-06	0.972814867364707	-0.242151773971412
10.2	-4.30478919974953E-05	0.00744711495436661	-5.39071996952014E-07	-1.05521192295688E-06	-1.21127926148985E-06	-3.13532628645213E-06	0.971511742440161	-0.24360874567356
10.3	4.05942064450588E-05	0.00785861642392236	1.13766306670932E-05	-2.9327488495468E-06	1.0121456421005E-05	-4.85871619840943E-06	0.970686878558497	-0.245259927269466
10.4	0.000416738729051179	0.00821899519705827	-6.33959765024959E-07	2.16140327599437E-06	3.05221235488813E-06	-2.19744952576508E-06	0.970243061364865	-0.247249064628291
10.5	0.000965875855625501	0.00801793217398326	-6.14780152124304E-06	4.67636775705322E-06	1.58357494307552E-06	4.33355347854104E-06	0.969938698378886	-0.25070257505955
10.6	0.00066518349413089	0.00794207772517928	-7.14195417734067E-06	1.07592415334749E-05	7.07443516293547E-06	4.29153183666735E-06	0.968842307953804	-0.253754472543993
10.7	0.000624934601683331	0.00844804833204688	-3.23463869713046E-06	1.58139678757494E-06	-5.40071213965374E-06	3.19815640394754E-06	0.967990334524305	-0.256923339441099
10.8	0.000867289376962772	0.00908384041960225	-1.93209118010108E-06	5.02965270162614E-06	8.5115339021173E-07	-3.22701762394413E-06	0.966944854788977	-0.259439471618386
10.9	0.00140515549716337	0.00977510238536457	-5.8187234713882E-06	-1.0584545550589E-05	4.99477982140519E-06	1.07667752968344E-05	0.96635358580458	-0.26163770913478
11	0.00244661761384801	0.00993485772722714	2.99179740015833E-06	2.62210011179548E-06	7.59311243750343E-07	-1.13060819749914E-05	0.965769180221375	-0.263976814640159
11.1	0.00283717326217743	0.010109109262965	3.88424384069001E-06	1.45611876124111E-06	2.37691038296065E-07	-7.41735302840405E-06	0.96411204262171	-0.26609926939292
11.2	0.00375884427903434	0.0104203989487756	-4.4470541580141E-06	-1.97045226541211E-06	-7.37874444655331E-06	-4.85838987135302E-06	0.962476319356626	-0.267680572901237
11.3	0.00495845805227989	0.0103231703541585	6.47457769815384E-07	-6.4155355609529E-06	3.83042876756726E-06	1.42067592021146E-05	0.96107224834421	-0.268834060126581
11.4	0.00598365026221753	0.00990026664301692	-5.11668125364976E-06	8.19609510596018E-06	-1.45332329021538E-06	4.1002508472428E-06	0.959488938219701	-0.270202283548223
11.5	0.00691906556826495	0.00886149383809317	4.55899279795409E-06	8.12034009189266E-06	-9.32634928106027E-06	1.60555372971589E-06	0.959899683252406	-0.271901678837739
11.6	0.00699174775390268	0.00786534041366283	-3.85843549513923E-06	1.41780340497653E-06	5.12530394079963E-06	8.16662300111437E-06	0.959091874237121	-0.276464381291517
11.7	0.00725807722645377	0.00715791217425624	2.29336012944778E-06	1.0574343172025E-05	5.31918418580608E-07	-3.66921820283207E-06	0.957431756526212	-0.280076450446676
11.8	0.00751764294180504	0.00634516873638695	1.45152164695759E-06	4.47725746254752E-06	2.27668305421644E-06	4.54868245287932E-06	0.956298040281899	-0.283142076302078
11.9	0.00790470877333412	0.00539926528933458	7.51740702787687E-06	1.05894352871275E-05	3.90195199107044E-06	3.92933483346374E-07	0.957188970632813	-0.285179908254158
12	0.00767288825537991	0.00409326960049625	2.34261116694643E-06	-5.19460710152603E-06	-3.98311816629973E-07	1.76266047639136E-06	0.958684218317825	-0.29006322214173
