# GHZ S RI R 50
0.2	0.000926575636892079	0.002825017671097	4.78888101796708E-06	-2.98651454608708E-06	-1.37100627939454E-05	1.31214176402851E-05	0.998861491299642	-0.00736394871259707
0.3	0.00129551171176289	0.00191855559797359	2.86693214252481E-06	6.62077854467706E-06	-1.66668344518629E-06	-9.31409875303556E-06	0.998608517413178	-0.0102136869766767
0.4	0.00156496783677757	0.00129702257619478	-1.86258984551306E-06	-4.01209465623675E-06	-9.00686007224031E-06	4.40354801409954E-06	0.998407125353346	-0.0128625064447805
0.5	0.00130639867560372	0.000870178388827235	-5.35442160155892E-06	3.26021724077553E-06	-2.12508381905407E-06	6.75168126194775E-06	0.997922376125843	-0.0155001180277608
0.6	0.00155930033266071	0.00101298054230744	-1.3942778488585E-07	2.80451090652708E-06	-5.81209209072172E-07	-1.34010445400525E-07	0.998640118062748	-0.0182938573470009
0.7	0.00185142021751668	0.000733619893584671	8.84146407658514E-08	2.21773727203041E-06	4.89966319797844E-06	-3.40072933545009E-06	0.998385873436147	-0.0216944006294721
0.8	0.00206520200645135	0.000419320811588937	4.52511825917634E-06	8.24055654338049E-07	2.74236536191899E-06	1.9981834998378E-06	0.997959574841641	-0.024139902546251
0.9	0.0022662236752573	-5.98095536486742E-06	-1.52916617252428E-07	-4.21394749639689E-06	-3.41535238481755E-06	-3.10530433628194E-06	0.997569200088308	-0.0268002320861775
1	0.00195188021098626	-0.000849051662846681	1.05883463208845E-06	4.28558549142043E-06	3.32230401229106E-06	9.3193987934664E-07	0.99650486089886	-0.0284510000900193
1.1	0.00127202075667633	-0.000724293498139624	9.03050597770752E-06	5.19446560300648E-07	-3.57313912126383E-06	-4.99311323019194E-07	0.996100571440877	-0.0295376569828756
1.2	0.00110567650733581	-0.00103086467322385	3.75591751840822E-06	-1.1969580667841E-06	-4.09026176160512E-06	-2.43553418103896E-06	0.995896165595373	-0.0301716270080073
1.3	0.000531019667202091	-0.00172735341438509	-7.60007347683416E-07	-1.42541434288107E-06	-2.57981304664485E-06	-8.69711372879308E-06	0.99645997088128	-0.0306671876671737
1.4	-0.000152771767718947	-0.00250399057671974	1.19175417100304E-08	3.44442329153655E-06	-4.27496795673065E-06	-4.1264111602779E-06	0.996818097042977	-0.0325459144481602
1.5	-0.000924675170881503	-0.00280201793208105	-1.30036635785792E-06	4.42569006739525E-06	6.55323233086312E-06	-7.403625090349E-06	0.997423639019978	-0.0359804453752768
1.6	-0.000738448163852276	-0.00253392552779639	1.62877213084653E-06	-4.87533082797345E-07	4.24318866157541E-06	-5.38711100122597E-06	0.997333402862483	-0.0395491613656681
1.7	-0.000580512201533255	-0.00278551922160186	5.28014288201796E-07	3.95468735407457E-06	-8.28057377017957E-06	3.12087853651935E-06	0.997501191630554	-0.042539510022894
1.8	-0.000613374669450117	-0.00294933047062071	1.83017604479134E-06	1.07890331766795E-06	5.66305906991896E-07	-1.76006961325214E-06	0.997274959814217	-0.0455604739062032
1.9	-0.00077544492538949	-0.00332391684409377	3.23229846555052E-06	3.01704564596259E-06	-1.81825974101018E-07	-2.3286455072817E-06	0.996922630655358	-0.0483714796145663
2	-0.00165149636380111	-0.00349131955994758	-1.72524349085653E-07	2.00066322852269E-07	-1.21451621845456E-05	5.4062373720757E-06	0.994928447233577	-0.0513007983659353
2.1	-0.0018587836097229	-0.00288888943944515	6.68222389184356E-07	-1.37914091615396E-06	1.3778441578235E-05	4.969428451256E-06	0.994730149094135	-0.05196805686997
2.2	-0.00184907970723456	-0.00283653487111331	1.64362687135395E-06	-1.51272702661838E-06	2.68916352638176E-06	-6.19817558913076E-06	0.995399067881855	-0.0542348511326149
2.3	-0.00200801904639034	-0.00292991858211862	-1.68150779213113E-06	-3.42400667287213E-06	-1.78333318639127E-06	-4.58735589332885E-06	0.995356609310648	-0.056165468527088
2.4	-0.00220120695293948	-0.00323596265417264	-1.19644574418509E-06	-4.39630415622115E-06	3.04082557882576E-06	1.0887319270737E-06	0.995465581140211	-0.059346022470262
2.5	-0.00317049059970292	-0.00375455326396885	5.36868574700278E-06	5.67146339045477E-06	-2.6296897678611E-06	1.61278090645379E-05	0.995057752809872	-0.0615795005477217
2.6	-0.00412153944248588	-0.00311213711000921	-2.27855537931951E-06	2.70745407091441E-06	4.38677834441105E-07	-4.30840942856858E-06	0.995267689900604	-0.0643625526030358
2.7	-0.00442835858346807	-0.00249881188545563	-2.40132821078986E-06	-3.63631941969236E-06	2.15560457548305E-06	-2.56662933532408E-06	0.99483376064326	-0.0673644231190582
2.8	-0.00442988610479822	-0.00193974893579929	3.99600907314157E-06	2.31367212232412E-06	9.82302837175883E-06	-6.77097865868191E-07	0.994974630429462	-0.0691579822965212
2.9	-0.00417040685647423	-0.00174000717882668	1.28663175916318E-05	7.25009734137215E-07	2.45189058587969E-06	-1.17009465851886E-05	0.994844598102462	-0.0710509392593592
3	-0.00440549293222583	-0.00163327376788289	-3.85212595445412E-06	1.0409413335848E-06	-4.14045089019505E-06	-1.60271314823117E-06	0.994814480090793	-0.0734140827477033
3.1	-0.00403745090861983	-0.00106497934036539	4.78669825680391E-06	-9.82883618139907E-06	1.06704138870922E-05	2.42051575048907E-06	0.994754712070211	-0.0752080882951014
3.2	-0.00366365688996762	-0.00113208481926536	-5.35407935975466E-06	-7.40934800375749E-06	1.56129509455228E-05	5.40408584986811E-06	0.994783433717966	-0.07694375156023
3.3	-0.00349366906155104	-0.00135077381603435	-8.7896113323958E-06	2.52645014857908E-06	-8.5548854129444E-06	-1.75504295329108E-06	0.994883481729541	-0.0800716635117195
3.4	-0.00354115065447509	-0.00176129507221119	9.07355155588914E-06	-7.53765125373047E-06	-7.35198048965769E-06	4.21618501801841E-06	0.995399109160568	-0.0819650176108575
3.5	-0.00434331663058301	-0.00208563612553588	3.28465940512676E-07	-5.32276381102147E-06	-4.38388549689157E-06	-8.94049400402469E-06	0.995634742460278	-0.0854469775732472
3.6	-0.0046263564101704	-0.00145882449578414	4.06362665081271E-06	4.90558117956513E-06	-7.12065600610142E-06	8.9800365913807E-06	0.995037491647439	-0.087998198471657
3.7	-0.00454920658073273	-0.00133459540207859	1.53609537006282E-06	-4.52261997087571E-06	-5.08930472452899E-06	-6.59409892592573E-06	0.995093406907043	-0.0906486664616056
3.8	-0.00455521611605143	-0.00138430306050773	7.28886341547879E-06	-5.18099194233908E-06	-5.87440029157543E-06	-2.42993165711439E-06	0.994956411089675	-0.0929265593048442
3.9	-0.00464739707834051	-0.00167927515112363	-4.02962659236482E-06	-3.57156710537719E-07	-2.53296254188102E-06	1.12878103993683E-06	0.994848311158475	-0.0967360758038402
4	-0.00559749798610312	-0.00185385239367512	-3.38211938342728E-06	-8.69536489599924E-08	1.19126097211646E-06	8.66654501433159E-06	0.992912853171324	-0.0982970655714116
4.1	-0.0059032336725206	-0.00093235447390389	-2.89010745124889E-06	-3.86603050004133E-06	5.86948270896166E-06	3.05040392582833E-06	0.993072968437092	-0.098382080638241
4.2	-0.00573871313141922	-0.000577300128565918	-7.6827857380725E-07	-2.15906889263582E-06	5.70472465386278E-06	-1.83053553599588E-06	0.993376066948141	-0.100966329267956
4.3	-0.00562352366649164	-0.000443870628663936	-5.18322782788051E-07	3.23464257827642E-06	2.126070444647E-06	1.78527989856026E-06	0.993548527866817	-0.103113370372332
4.4	-0.00566728653422588	-0.000624560652388302	2.56868125768017E-06	3.44883885387445E-06	7.17426635727409E-06	3.92985329248322E-06	0.993310979370712	-0.105506553448133
4.5	-0.00662201499934081	-0.000745612368035488	-6.4765260871186E-06	-2.50640988733182E-07	-8.58031051944963E-06	-2.14183144712957E-06	0.993423560768707	-0.107053784467128
4.6	-0.00717950999184778	0.000309024099768417	-9.93923676111741E-06	-9.26962038904711E-06	3.24921369272956E-06	-2.72720559931131E-06	0.994356404471893	-0.109987854891545
4.7	-0.00714268567207539	0.00100187680816512	1.2252948975301E-07	1.86945627049569E-06	6.08779478879331E-06	-6.73620341989468E-06	0.99472288798593	-0.112650004166646
4.8	-0.00702314443453003	0.00158792700776483	-6.41223529063786E-06	2.07311164640841E-06	8.07568497067441E-07	-1.27752285370171E-05	0.994546552574533	-0.115579848125176
4.9	-0.00667771439049125	0.00187537748310301	-3.44680219802535E-06	8.15623261578574E-06	5.50094339067716E-07	9.39917716531411E-06	0.99426611456452	-0.117701109948774
5	-0.00689747443486405	0.00208706942203514	9.67762791119E-06	-4.0593706654048E-06	-6.96178941367624E-06	3.57793141036203E-06	0.994326564997267	-0.119415049275941
5.1	-0.00617104061950663	0.00293315693297642	-3.65343648020255E-07	-3.26182874407628E-06	-3.88435529068884E-06	-1.80060058461251E-06	0.994693050589313	-0.121131148640833
5.2	-0.0052427487343861	0.00275711386228546	-1.06733255893475E-06	-4.49930597910469E-06	8.80615358372896E-06	5.59731888386044E-06	0.994601149635023	-0.123784853321704
5.3	-0.00477516260722821	0.00225175504320577	2.2870242095454E-06	6.81172950539831E-06	8.81396020602718E-06	3.14806962476551E-06	0.994349440921494	-0.126337083084496
5.4	-0.0047722798275655	0.00160153478968633	2.7177628648686E-06	-3.14732811815392E-06	-2.68236932759746E-06	1.50840979251356E-07	0.994558731441177	-0.129186558083328
5.5	-0.00592690045036544	0.00159957747271209	2.1102420604737E-06	9.35704933455975E-06	-3.93452109481237E-06	-5.0567362657892E-06	0.994525443737197	-0.132716243838694
5.6	-0.00574261182326068	0.00285843366555708	-5.87623583687879E-06	-1.13634188903875E-06	4.88990742017297E-06	1.94970584424321E-06	0.99402696490209	-0.135264626842422
5.7	-0.00516462176137271	0.0031398553154175	3.3475587693676E-06	-1.42853312606559E-06	-5.06579164785406E-06	-4.30560969916712E-06	0.994069246343721	-0.13802173352994
5.8	-0.00474052464519097	0.00313243208241808	-2.06373963941329E-06	-4.76091282539742E-06	9.49262373392146E-07	-5.84611078591738E-07	0.994018878591125	-0.140909963598791
5.9	-0.00439472402659038	0.00267004944136136	-3.88965186658377E-06	6.26932648296462E-07	3.87546488530557E-06	1.24725074155228E-06	0.993309724366941	-0.144503246394549
6	-0.00556883529731899	0.00174136872727763	-5.93406965126198E-06	5.05984200763099E-06	-1.48575429015847E-06	1.98662566146217E-07	0.98997016171631	-0.146301555136286
6.1	-0.00669555774040872	0.00279958077112064	-5.93355884431256E-06	-4.70480239848205E-06	-4.01131158660787E-06	4.31705857785541E-07	0.990003788023138	-0.145123118859784
6.2	-0.00696452214527326	0.00358402101010768	2.82401202453368E-06	3.13291808551982E-06	1.05433499854156E-06	7.24746306384775E-07	0.990591683277254	-0.146272796444634
6.3	-0.0068512874219881	0.00429226769250239	1.64519520001426E-06	-7.4919765110784E-07	-1.34120402036876E-07	1.37852945525309E-06	0.990632535573381	-0.14834288805287
6.4	-0.00654488789915728	0.00436763426704316	-5.19289216606807E-06	-5.63227223565934E-06	3.82145844865772E-06	6.9233296585394E-06	0.990120877965773	-0.15082781541744
6.5	-0.00713899632172681	0.00472506453650466	9.08944129812759E-06	-2.35153240414478E-07	-7.3398253056917E-06	-9.1118604728541E-07	0.989970064406521	-0.152264306447641
6.6	-0.00626112153969167	0.00573197955981278	-1.49487084495689E-06	4.66859538969764E-07	3.3964930235716E-06	-9.41543763848234E-06	0.991979322941717	-0.155736976730847
6.7	-0.00553621704344095	0.00570923812714081	4.78888156236341E-08	7.78410009940876E-06	-4.9615179902705E-07	-6.11157163269518E-06	0.991770689321675	-0.159759743610274
6.8	-0.00510967314938754	0.00571772910872045	4.26623376662751E-06	1.66098452664558E-06	2.11973012102531E-07	-5.2571783212208E-06	0.990992791837717	-0.163022876485927
6.9	-0.00481759248350225	0.00538942416118835	-7.58140790508335E-07	2.49748031607505E-07	5.77922173005894E-06	-2.69790715304515E-06	0.990116813516688	-0.166005112546859
7	-0.00596227470180923	0.0055333246555648	8.04461566964414E-06	-4.78641498608593E-06	4.32053530048933E-07	-3.03213101772753E-06	0.988118690894483	-0.167849749412139
7.1	-0.00554253690299818	0.00728238556122114	3.86314670605448E-06	2.0444208192701E-06	7.87743506173655E-07	7.2541543441083E-06	0.988006294181925	-0.168604654110459
7.2	-0.00449251562938652	0.00781141856236928	-2.45148254976711E-06	3.70864521547343E-06	-1.34326591070399E-06	-3.83898052702973E-06	0.987990842823354	-0.170564877725936
7.3	-0.00361048665960591	0.0079452074233006	3.45212505603448E-06	-5.00523297303353E-07	-2.46196054548855E-06	-1.92158149020331E-06	0.987502696387646	-0.17260636359352
7.4	-0.00275312883576139	0.00738463992144278	-6.22209563216008E-06	-2.70425720935795E-06	3.78894599745763E-06	2.43310060174964E-07	0.987832824604434	-0.175663607709555
7.5	-0.00357509498132785	0.00609734538084539	6.77345418707463E-06	-6.49554000874572E-06	-2.49031518563549E-06	8.12943815079403E-07	0.986429236128157	-0.181276760962453
7.6	-0.00419313232959161	0.00691663873382035	3.51800060638877E-06	5.21216384050025E-06	-1.02660708126373E-05	4.98598863089822E-06	0.983514918155336	-0.18384485631727
7.7	-0.00420970522638895	0.00701501006898421	6.08996887151174E-06	1.09575433360866E-05	2.92468343639053E-07	-1.14020053310438E-05	0.982763360705997	-0.18686828334323
7.8	-0.00417500621987495	0.00690489221275334	2.1678137908797E-06	9.78490676806695E-07	-3.08044313875954E-06	8.86513279060101E-06	0.982143864016406	-0.190438063115815
7.9	-0.00427691250584746	0.006496074235495	2.54866529939637E-06	-2.33493281341244E-06	3.70177714480502E-06	3.24034519480923E-07	0.981071332502048	-0.194821104080467
8	-0.00551888244831565	0.00701590083826887	-2.8062586798561E-06	1.34902722037377E-06	6.87018242092897E-06	-1.90571760082809E-06	0.976852896957822	-0.197694645827696
8.1	-0.00450555003270111	0.00842942500715775	-1.78635379189623E-06	7.64182467980342E-07	-3.71248728233302E-06	-1.23405288468041E-06	0.976466737728999	-0.197322954726414
8.2	-0.00350933420213934	0.00850503511772522	-7.63715956997941E-07	6.33239714297177E-06	4.89251117258889E-06	4.32730659039169E-06	0.976828933743294	-0.199396229895428
8.3	-0.00280927145155504	0.00837041859552985	-9.20609018218048E-07	-1.41910796535424E-05	6.84218791852555E-06	5.38773009474413E-06	0.976260217371549	-0.202197488480023
8.4	-0.00233986479301779	0.00782652092941774	3.73785716662269E-06	-3.4376681543509E-06	-6.96228235563059E-06	-1.18690757556481E-06	0.97513745904208	-0.204863152506272
8.5	-0.00352333628264486	0.00763365896463965	4.66924275100498E-06	5.71807909558597E-07	8.38286495862522E-06	-6.84778765528224E-06	0.974050135576455	-0.206830726916246
8.6	-0.00320301464718714	0.0093994545883466	-3.24958277805588E-06	4.12703156671766E-06	1.05298867319244E-06	1.10843583868221E-05	0.974045817111597	-0.209321011199308
8.7	-0.00196827338684602	0.00994328112472528	2.6704920167223E-06	-2.00947931157245E-06	4.75368185227485E-07	-5.55372150573921E-07	0.973573201853109	-0.212147768847086
8.8	-0.000694961842068458	0.00996831991989504	1.15478227081951E-07	-1.25120550801983E-06	-9.2095649680184E-07	9.75347899113973E-06	0.972882856762538	-0.214503041710433
8.9	0.000607704827577295	0.00909440643523952	-3.64278062564797E-06	2.30341403475091E-06	4.81139726925653E-06	-1.82065592438928E-06	0.972675806530854	-0.216580336640561
9	0.000307518055771364	0.007780531504936	-1.88326126809154E-06	5.03092846723219E-07	-3.2393268001489E-06	-1.04962256562957E-05	0.972262636984455	-0.219247219191725
9.1	0.000578308874615895	0.0077430152938624	5.23744456824089E-06	5.6733799443161E-07	9.11557400913557E-07	3.77075221233405E-07	0.97129937819901	-0.221468416854396
9.2	0.000836861385371162	0.00691992959393595	-8.70736036879399E-06	-4.53221235141415E-06	-8.98560781377408E-07	-6.1031637013119E-06	0.970282892123665	-0.223716398092895
9.3	0.000591011743753074	0.00627076000539589	2.0265480758777E-07	6.19503580536363E-06	4.61849610883522E-06	-2.19807845564729E-06	0.969674896161969	-0.225647322513507
9.4	0.000163905752492617	0.00563681821759312	-1.91425715767186E-06	5.87418207596582E-06	-1.04669302203635E-05	7.74126593638199E-06	0.969448795412856	-0.228277266251234
9.5	-0.00131576511336187	0.0059985419667279	3.16367319224013E-06	-7.56917172511288E-06	3.67281670950205E-06	-2.74899088935241E-06	0.968341087286008	-0.232003985135623
9.6	-0.000903590689595638	0.00747606334327736	4.51095081773026E-06	5.5528510443638E-06	-6.1602507874582E-07	7.0629231489622E-06	0.966722970233129	-0.234198467538379
9.7	-0.000123645230985417	0.00773235726059558	-2.61273499282402E-06	-3.9227797777451E-06	3.66149145956825E-06	-7.52113103248683E-06	0.966185321623345	-0.236201293330089
9.8	0.000459345090512539	0.00767069205913486	-5.37536241463603E-07	-4.20544911948921E-06	6.26751155907181E-06	8.67421344863327E-07	0.966223177533176	-0.238306863388831
9.9	0.000924332561778686	0.00704876322166707	-2.68567501916621E-06	-5.82621688594741E-07	-8.46535942096696E-06	5.51056636255333E-06	0.965654894390424	-0.241325804350757
10	-0.000350102810575181	0.00656547927896167	4.20563677533924E-07	-1.74525228774975E-06	-3.09914080472811E-06	-7.9242102696831E-06	0.962118705744471	-0.242639025471525
10.1	-0.000370896345326705	0.0079409011231686	2.24156134149262E-06	4.74756249382432E-06	-3.07670596047288E-06	9.81168654445592E-06	0.962375923272651	-0.241570691701533
10.2	0.000338027043474274	0.00829882740014387	-5.36971609743187E-07	-1.04470574543554E-06	-1.208436227168E-06	-3.10506815672458E-06	0.962883402908447	-0.242853733179701
10.3	0.00103457595210619	0.00830656966476799	1.12693529433255E-05	-2.93287515312252E-06	1.00208636178586E-05	-4.83894406933631E-06	0.962602742424452	-0.244702480535508
10.4	0.00165741180072539	0.00753896086317352	-6.24567654169425E-07	2.14117124441921E-06	3.01908598923925E-06	-2.18042681893295E-06	0.961701365369232	-0.246784933895119
10.5	0.000514279040858346	0.00700171405030819	-6.09755734465742E-06	4.62742776244105E-06	1.56451467272031E-06	4.29624444828081E-06	0.961108241486457	-0.248269751316412
10.6	0.000327952085339783	0.0078418204988492	-7.0892523354069E-06	1.06738063719228E-05	7.01836431695032E-06	4.26002142993553E-06	0.961141083866272	-0.251562955873989
10.7	0.000413885559481417	0.00838555503968635	-3.20744494145964E-06	1.56744289972948E-06	-5.35539982278317E-06	3.17012419493285E-06	0.959713410383231	-0.254581018262907
10.8	0.000902400343744576	0.00915327123771171	-1.91915282412402E-06	4.98215744099359E-06	8.4638333854443E-07	-3.19690188744022E-06	0.958534471201706	-0.256068945432748
10.9	0.00176277870706792	0.00921552534799067	-5.74030493947282E-06	-1.04993570490515E-05	4.92361311885117E-06	1.0678002331082E-05	0.958358019676885	-0.257412358653382
11	0.00119555431582763	0.00945414198514347	2.95893148104945E-06	2.61076542110018E-06	7.90506352960136E-07	-1.12120978284492E-05	0.957589276239282	-0.259005607557101
11.1	0.00234359900744072	0.0110335761023393	3.84911791359962E-06	1.45626978997545E-06	2.58109463974058E-07	-7.35792173234965E-06	0.956793500370906	-0.259959818320383
11.2	0.00406862308473538	0.0111623443638511	-4.40423834101902E-06	-1.97087081307186E-06	-7.30191155500121E-06	-4.84635223341313E-06	0.956114184953458	-0.261034517020922
11.3	0.00568968720597187	0.0105370270587101	6.71909104758872E-07	-6.36446786397644E-06	3.73680693048104E-06	1.41177204640624E-05	0.956153439142895	-0.261997753911559
11.4	0.0068668919355667	0.00916250132932149	-5.13112023353094E-06	8.12040671242765E-06	-1.46702302579506E-06	4.06837850782078E-06	0.95660203646893	-0.264043946177446
11.5	0.00617864535125192	0.00808396118076349	4.5115836479753E-06	8.09483538524697E-06	-9.28580803312179E-06	1.56882174455186E-06	0.955503615097536	-0.268273874718795
11.6	0.00686949600988245	0.00835032363482762	-3.83643965629556E-06	1.3946646560679E-06	5.06153473505853E-06	8.12737113351771E-06	0.953453584030031	-0.270628664992614
11.7	0.00787612509180477	0.00733397477415147	2.22764075547418E-06	1.0512416176102E-05	5.45587188596653E-07	-3.64145965430549E-06	0.953025590452279	-0.273344414584208
11.8	0.00846716795370261	0.00584552802585228	1.41948540193296E-06	4.45721820800299E-06	2.23920402899885E-06	4.53246327260482E-06	0.953066779248912	-0.276904315261563
11.9	0.00835130428615692	0.00358714130635191	7.42750440981586E-06	1.05573138777549E-05	3.87678997802528E-06	4.07006096656014E-07	0.953306550462195	-0.281281388334237
12	0.00566974089211788	0.00252915642002518	2.34726760691517E-06	-5.13563324739136E-06	-4.035002012798E-07	1.74463192734063E-06	0.949534044862604	-0.284195387297003
