# GHZ S RI R 50
0.2	0.000968809560737191	0.00278205531554241	4.7888366692917E-06	-2.98638903714427E-06	-1.37100030794965E-05	1.3120974047107E-05	0.998891398293096	-0.00738681903008432
0.3	0.00132332491594856	0.00185983843427815	2.86683204740893E-06	6.62083329086734E-06	-1.66653919930429E-06	-9.31413850592018E-06	0.998643983863253	-0.0102519114286335
0.4	0.00157104888753195	0.00124629344443839	-1.86265528073697E-06	-4.01230366557814E-06	-9.00733072235791E-06	4.40370581706352E-06	0.99846674409461	-0.0129042227342282
0.5	0.00135413660535224	0.000819163176354428	-5.35451555289166E-06	3.26080696825393E-06	-2.12472511673056E-06	6.75225219142256E-06	0.998026733030731	-0.0156213434927521
0.6	0.00157393119968194	0.000885573061253119	-1.39298546511169E-07	2.80453741514121E-06	-5.81219584026982E-07	-1.33984412816028E-07	0.998651825677668	-0.0184534298030643
0.7	0.00180518984453943	0.000598369238699078	8.84327028554974E-08	2.21780884741044E-06	4.89979938318231E-06	-3.40087356620467E-06	0.998366296941172	-0.0218134070637169
0.8	0.00196759295281141	0.000287410858614606	4.52539626460784E-06	8.24182869718825E-07	2.74250928910932E-06	1.99835714674201E-06	0.997927863613398	-0.0242272979215327
0.9	0.00209222787084203	-0.000113099704244599	-1.52741101635475E-07	-4.21441138929514E-06	-3.41558115649421E-06	-3.10579673897711E-06	0.997517283125898	-0.0268346923891546
1	0.00177065264510569	-0.000825747359196264	1.05896644396656E-06	4.28639685399587E-06	3.32290654061483E-06	9.32162999306005E-07	0.996529078136468	-0.0284024276202513
1.1	0.00118569036035189	-0.00074302369721751	9.03186994577716E-06	5.19051875835303E-07	-3.5736941497957E-06	-4.99198646530549E-07	0.996168256340261	-0.0296084002881433
1.2	0.00101996443553379	-0.00111729941516965	3.7561797580841E-06	-1.19748349059062E-06	-4.09094665746787E-06	-2.43535030168589E-06	0.995911140075525	-0.0303650004138165
1.3	0.000457855609099414	-0.00192411699679979	-7.60376452696758E-07	-1.42526728260002E-06	-2.58200922720591E-06	-8.69671938126094E-06	0.996395414334346	-0.0311038513564366
1.4	-0.000294298179755767	-0.00280765486861341	1.32362826164688E-08	3.44410571406196E-06	-4.27616061628687E-06	-4.1243981043011E-06	0.996554253754079	-0.0332140572887031
1.5	-0.00108217148541626	-0.00308495967430821	-1.29847261152902E-06	4.42548900973771E-06	6.54937457784693E-06	-7.40495937086811E-06	0.997067741605312	-0.0366133343394607
1.6	-0.000988389794825036	-0.00282149775718149	1.62842347430229E-06	-4.87979467194403E-07	4.24100272085158E-06	-5.38777503524162E-06	0.996923582108751	-0.0400970434961381
1.7	-0.000890056345003071	-0.00294766517956189	5.28987465196858E-07	3.95428136603548E-06	-8.27920930717426E-06	3.1227780243796E-06	0.997099408075656	-0.0429018602596117
1.8	-0.000928425115516369	-0.00299246619593329	1.83029435791576E-06	1.07846123180398E-06	5.65907947889303E-07	-1.76008558755159E-06	0.996889492710247	-0.0457583108369009
1.9	-0.00107083377768316	-0.00322663327667473	3.23224701127538E-06	3.01645498270795E-06	-1.82016768250269E-07	-2.32839712324686E-06	0.996524571595749	-0.0483169936355472
2	-0.00175039283744884	-0.00326654937346732	-1.7256347057506E-07	2.0005833458728E-07	-1.21467716606276E-05	5.40503452360322E-06	0.994902303727425	-0.050915954090618
2.1	-0.00184453090679678	-0.00280183780907701	6.68337907417131E-07	-1.37943873912506E-06	1.37813881635804E-05	4.97022800468934E-06	0.994931458018547	-0.0518683389202186
2.2	-0.00184745332420837	-0.00281608400385221	1.64381409894014E-06	-1.51300463788597E-06	2.68934071978544E-06	-6.19917275360764E-06	0.995526231634076	-0.05420569425569
2.3	-0.00204527654468072	-0.00295225023402391	-1.68168592091917E-06	-3.42445361364981E-06	-1.78351279764376E-06	-4.58795011856591E-06	0.995434950844429	-0.0561277815763396
2.4	-0.00233074677187822	-0.00323581632702139	-1.19640796503631E-06	-4.39703664113339E-06	3.04123599086436E-06	1.08905114868243E-06	0.995493118325489	-0.05925317315854
2.5	-0.00325198036336467	-0.00357121891014881	5.36941954866138E-06	5.67233005847414E-06	-2.63020144745762E-06	1.61301294677245E-05	0.995121738060548	-0.0613626586351635
2.6	-0.0040240804304988	-0.00298173201953362	-2.2790426104172E-06	2.70736549343537E-06	4.39231641022376E-07	-4.30865560582114E-06	0.995426486270026	-0.0640824706464573
2.7	-0.0042588158981102	-0.00247675989346698	-2.40084448715013E-06	-3.63746888877622E-06	2.1565580307501E-06	-2.56652428004179E-06	0.995154011879507	-0.0670760457391682
2.8	-0.00427302330331762	-0.00205301917177945	3.99649700593372E-06	2.31532854872032E-06	9.82586668814694E-06	-6.747520724164E-07	0.995394362774749	-0.0689868923354983
2.9	-0.00410941969963114	-0.00190178519264684	1.28706285780909E-05	7.27874736057714E-07	2.45511722036682E-06	-1.1704502948035E-05	0.995242533101952	-0.0709910819518533
3	-0.00431077967658546	-0.00176998534004628	-3.85334089275573E-06	1.04075953068282E-06	-4.14142089257228E-06	-1.60367616430135E-06	0.995166155111141	-0.0734094023247569
3.1	-0.00399556929972995	-0.00134911754433226	4.78976639956691E-06	-9.83076259120884E-06	1.06729914992056E-05	2.42306569708782E-06	0.995051286408634	-0.0752877479427581
3.2	-0.00374925208166099	-0.00143040912458937	-5.35493390274511E-06	-7.41225825069527E-06	1.56172363496582E-05	5.40750446112141E-06	0.994979406440431	-0.0770919944423105
3.3	-0.00368474191222723	-0.00162579677836867	-8.79227625731723E-06	2.52715669061384E-06	-8.55745284272281E-06	-1.75562536299545E-06	0.994962054541003	-0.0802951901888316
3.4	-0.00384593797527311	-0.00195173533519058	9.07434409213913E-06	-7.54063060952536E-06	-7.35290890094441E-06	4.218196094334E-06	0.995270958863284	-0.0822564685371372
3.5	-0.00458367803047308	-0.00212604409382894	3.27853882227445E-07	-5.32245607322577E-06	-4.38459439265685E-06	-8.93942926214612E-06	0.995291080299233	-0.0855274765108677
3.6	-0.00486342687226625	-0.00160096011731478	4.06346819970487E-06	4.90595775769055E-06	-7.12137786369427E-06	8.97989798390221E-06	0.9948029653154	-0.0880114287202455
3.7	-0.00491580883259531	-0.00144597653041951	1.53626891549058E-06	-4.52299666322198E-06	-5.08968463015348E-06	-6.5947144100726E-06	0.994795213330199	-0.0906755313544137
3.8	-0.00502265830331253	-0.00137486581745273	7.28925697039168E-06	-5.18135616669977E-06	-5.87476833690097E-06	-2.43003092522753E-06	0.994546322974209	-0.0928505095304471
3.9	-0.0051578047425312	-0.00144010573808594	-4.02954225922245E-06	-3.5759659680699E-07	-2.5330585991744E-06	1.12848942443324E-06	0.994350499338293	-0.0963237351655925
4	-0.00583768651252599	-0.00134990515643581	-3.38297498108974E-06	-8.8206885044361E-08	1.18842055974032E-06	8.66925189427817E-06	0.992973919060293	-0.0974225322036893
4.1	-0.00589894971896156	-0.000573838369767055	-2.89098848670273E-06	-3.86811377120891E-06	5.87181080236195E-06	3.05245047880359E-06	0.993522886646251	-0.0979240835969294
4.2	-0.00567651165992973	-0.000318615302051991	-7.68526598932347E-07	-2.16001971187921E-06	5.7072295187622E-06	-1.83110568428588E-06	0.993842538372714	-0.100673305083712
4.3	-0.0055335112080393	-0.000259007756940001	-5.18573262967634E-07	3.23611839428297E-06	2.12703437790396E-06	1.78610461242859E-06	0.994071753896873	-0.102927543078368
4.4	-0.00560554702633952	-0.000459143182888457	2.57039348571786E-06	3.45051242330875E-06	7.17855321611652E-06	3.93139133950783E-06	0.993891254377024	-0.105445539580521
4.5	-0.00639732627017727	-0.000495373471512813	-6.48002138302225E-06	-2.47885515948777E-07	-8.58574776891945E-06	-2.13912640515696E-06	0.994091793953406	-0.10727414937956
4.6	-0.00683556856561887	0.000291483856009126	-9.94526006274945E-06	-9.26652158205104E-06	3.24848240383491E-06	-2.729189322806E-06	0.994770145274907	-0.110453575483407
4.7	-0.00688483984122808	0.000818632915070214	1.23221772234501E-07	1.86955906072376E-06	6.0858155591747E-06	-6.73895791252597E-06	0.994968982982895	-0.113153163470327
4.8	-0.00688433873946363	0.0012994577433262	-6.4119784519133E-06	2.07528025264338E-06	8.03557690601762E-07	-1.27762866663391E-05	0.994667711721196	-0.116126808291902
4.9	-0.00670823544992417	0.001583204118275	-3.44422891750484E-06	8.15812071425808E-06	5.53436409941617E-07	9.39976709059024E-06	0.994245927719393	-0.118284907535982
5	-0.00687964931450488	0.00189361661773761	9.67473151024314E-06	-4.06333243795844E-06	-6.95940663709213E-06	3.58071003298013E-06	0.994147172280952	-0.11999128824842
5.1	-0.00623544659788762	0.0025615655746344	-3.66119671850452E-07	-3.26107706537624E-06	-3.88404244329156E-06	-1.79922647133186E-06	0.994355934067669	-0.12166759317705
5.2	-0.00550144349972631	0.00244851928698794	-1.06821058077158E-06	-4.4984694521194E-06	8.80625730261237E-06	5.59458432857132E-06	0.994154893590203	-0.124226339379519
5.3	-0.00510613056446172	0.00209327213781143	2.28894597852454E-06	6.81056914332266E-06	8.81432117036622E-06	3.14516790031898E-06	0.993896286874286	-0.126722130884492
5.4	-0.00509737043508042	0.00161192401448795	2.71579500135809E-06	-3.14846971017369E-06	-2.68201596094682E-06	1.52267703360806E-07	0.994048057867971	-0.12964619411689
5.5	-0.00595459287248795	0.00171083768584571	2.11412062457339E-06	9.35123194325919E-06	-3.93521265118694E-06	-5.05211750681499E-06	0.993891542364501	-0.133019647841277
5.6	-0.00579776159582508	0.00261904172046971	-5.87424752191012E-06	-1.13453699813679E-06	4.88848680445815E-06	1.94781890934364E-06	0.993514020538591	-0.135621838109403
5.7	-0.00549919008923192	0.0028738903138829	3.34630157427518E-06	-1.42903216595788E-06	-5.06558157981876E-06	-4.30314787137718E-06	0.99340062198164	-0.138441082828024
5.8	-0.00531058786796257	0.0030152593345528	-2.06449528166175E-06	-4.75926858025908E-06	9.48889581966888E-07	-5.84721436263405E-07	0.993161687026806	-0.141180866205016
5.9	-0.00517990323927145	0.00290816384659565	-3.88890950885137E-06	6.27109903804402E-07	3.87486450450647E-06	1.2467393199218E-06	0.992336750686776	-0.144259943550595
6	-0.00606429601281308	0.00265511996443725	-5.93708018563364E-06	5.0623226026931E-06	-1.48649905133221E-06	1.98749397256264E-07	0.989963930380162	-0.145441855722024
6.1	-0.00656364354597586	0.00368862534991954	-5.94066671614301E-06	-4.70331405990476E-06	-4.01345379659477E-06	4.34927764820515E-07	0.990587872251484	-0.145053932103641
6.2	-0.00646776083424892	0.00422871975445295	2.82798579015157E-06	3.13100693698157E-06	1.05537226262207E-06	7.23901875773398E-07	0.991158908511862	-0.146655562488932
6.3	-0.00623141789658933	0.00452419711499475	1.64446178884651E-06	-7.50878755029455E-07	-1.32724111190983E-07	1.37868781897878E-06	0.991030013799079	-0.149087652757855
6.4	-0.00612692497005138	0.00437235222162954	-5.19731053373502E-06	-5.62741591438567E-06	3.82708202773191E-06	6.91954719175937E-06	0.990249230829792	-0.151612051198744
6.5	-0.00664485106495261	0.00469333833674749	9.08834962009891E-06	-2.46103196323975E-07	-7.34027274890555E-06	-9.02245974359216E-07	0.990096746034743	-0.153421867106479
6.6	-0.00599055320593308	0.00541318354727411	-1.49318046044723E-06	4.68158923474859E-07	3.38334725589954E-06	-9.41184861113977E-06	0.991213705248334	-0.156943988739794
6.7	-0.00544749003471112	0.00545416453698581	5.34762021730218E-08	7.77627417662631E-06	-5.00079679400263E-07	-6.10509525435775E-06	0.990695181758525	-0.160462205019325
6.8	-0.0050947442055093	0.00547796932481122	4.26248739191092E-06	1.65735592754765E-06	2.0942834164419E-07	-5.25175132079566E-06	0.98986563740174	-0.163419763157338
6.9	-0.00494085484185788	0.00525598513777871	-7.57302510074504E-07	2.49675089708699E-07	5.77263960390363E-06	-2.6965363298411E-06	0.988927139549248	-0.166117173100862
7	-0.00575980404008946	0.00558959557460279	8.03569370458285E-06	-4.78299043394826E-06	4.31094403345014E-07	-3.02915494295031E-06	0.987266304331054	-0.167730219365888
7.1	-0.00532764749657543	0.006858839059022	3.85936829096048E-06	2.04191532723808E-06	7.87672536000453E-07	7.24658595486089E-06	0.987135038778957	-0.168861173999315
7.2	-0.00458493803219514	0.00725254718719399	-2.44853156556836E-06	3.70502255185082E-06	-1.34226186480841E-06	-3.83482540039628E-06	0.986815808586632	-0.170928940382952
7.3	-0.00400493204683073	0.00737394327128549	3.44814405022929E-06	-5.00712427640307E-07	-2.45961679994571E-06	-1.91889081196533E-06	0.985963652610432	-0.173066397817562
7.4	-0.00356560471971336	0.0069840625137953	-6.21405946059625E-06	-2.6973396839359E-06	3.78340260671879E-06	2.41192661451379E-07	0.985487717752243	-0.176122327130356
7.5	-0.00439191399359636	0.00634431140123698	6.75829897030341E-06	-6.48041509296832E-06	-2.48467158805001E-06	8.10976143444128E-07	0.983429007672252	-0.180459863888825
7.6	-0.00476481739925653	0.00712821011852958	3.50828856563367E-06	5.20436495998268E-06	-1.02495705419991E-05	4.97053599583998E-06	0.981268793800968	-0.182636165286078
7.7	-0.00475946233462728	0.00734302695045933	6.07147448235144E-06	1.09419537676864E-05	2.99755674508931E-07	-1.13812396378689E-05	0.980637922657046	-0.185479935481453
7.8	-0.00462837551518831	0.00735438538692271	2.16299557405016E-06	9.78715959119784E-07	-3.08302914369736E-06	8.84627613427572E-06	0.980147379442419	-0.188713922674725
7.9	-0.00459876282035462	0.00710490523282277	2.54728352392177E-06	-2.32707758763391E-06	3.69454773134423E-06	3.28644915989692E-07	0.979317893045361	-0.1924218421108
8	-0.00518375901353184	0.00767459255183417	-2.80655776459808E-06	1.34123810513536E-06	6.86770699058644E-06	-1.88804166490488E-06	0.976623901986735	-0.194599536095073
8.1	-0.00418875674126754	0.00854758493269153	-1.78724334182527E-06	7.608391755259E-07	-3.70936289540076E-06	-1.24027902012442E-06	0.976868236518993	-0.195402283020962
8.2	-0.00332425510445957	0.00852077375692083	-7.73273417379421E-07	6.33006232490771E-06	4.88498370633913E-06	4.33400316251548E-06	0.977119811549671	-0.197795648121802
8.3	-0.00268281876716501	0.00832942463267048	-8.99336340938714E-07	-1.41911664391085E-05	6.83352242328771E-06	5.39745745185357E-06	0.976584891785487	-0.200696932957069
8.4	-0.00233622368070338	0.00783892161675727	3.74339588847405E-06	-3.43295992317872E-06	-6.96181571820314E-06	-1.19700690239821E-06	0.975596596706177	-0.203433702222978
8.5	-0.00314569316931544	0.00781439048506306	4.66929945146286E-06	5.76036005521902E-07	8.38998027264434E-06	-6.84115131327188E-06	0.974718600078554	-0.205744355402552
8.6	-0.00277513181060597	0.00898618409565789	-3.25338146349252E-06	4.12226333652087E-06	1.04018630022903E-06	1.10826015723113E-05	0.974442684670126	-0.208498552088177
8.7	-0.00188480574100885	0.00930964538020713	2.67288666946008E-06	-2.00545872344217E-06	4.76069624608524E-07	-5.5462664594229E-07	0.97381617105545	-0.211307989171421
8.8	-0.000977908804156214	0.00930496535021076	1.17402158982125E-07	-1.25113177212867E-06	-9.35955765833263E-07	9.75287241607254E-06	0.97303434246197	-0.213616802673234
8.9	-9.56531823707509E-05	0.00866410605659288	-3.64780353784603E-06	2.29900254403938E-06	4.8162136907095E-06	-1.81429412149991E-06	0.972750317683164	-0.21560180706469
9	-0.000288016625946223	0.00789788330046019	-1.88460672557637E-06	5.01142718432706E-07	-3.22863580846277E-06	-1.05042228295195E-05	0.97232130547415	-0.218056420720537
9.1	0.000120128617219594	0.00786145189804478	5.23894639022561E-06	5.74324238979637E-07	9.11460370166824E-07	3.7840978657158E-07	0.971541410675367	-0.220134298011317
9.2	0.000476864444129364	0.00721948330641501	-8.7077389636274E-06	-4.54435331102463E-06	-8.92517528974327E-07	-6.10782749348973E-06	0.970751134839183	-0.22244094759619
9.3	0.000479007060098147	0.00662308137100964	1.98307255962631E-07	6.19857367365237E-06	4.62260685002291E-06	-2.19595809667882E-06	0.970256685990246	-0.224651633681523
9.4	0.000216297518068481	0.0059567582553714	-1.91670533609009E-06	5.87487367816583E-06	-1.04719774401972E-05	7.73945983644749E-06	0.969796237244905	-0.227604707601572
9.5	-0.00083339755205783	0.00618207353516636	3.16688661801046E-06	-7.56324681683012E-06	3.67268323756321E-06	-2.74522401679924E-06	0.968472531753171	-0.230996769670324
9.6	-0.000572030996797801	0.00704230835850555	4.50371775129604E-06	5.55685236052047E-06	-6.23932960467839E-07	7.06078607931933E-06	0.967141646478464	-0.233385937667784
9.7	-0.000189022050700208	0.00717178931961206	-2.60847453147383E-06	-3.92566787286968E-06	3.66973727297702E-06	-7.51719962939628E-06	0.966426203940852	-0.235609069621305
9.8	4.02801712718142E-05	0.00716466688599886	-5.33049845380807E-07	-4.2060684276656E-06	6.26665224941189E-06	8.74125463800746E-07	0.96612928685203	-0.237692473432679
9.9	0.000148300217816857	0.00687849605258565	-2.68471140798845E-06	-5.86308910538366E-07	-8.4725017474523E-06	5.49851634534072E-06	0.965224723871133	-0.24007825610962
10	-0.00081034511190758	0.00696726400662318	4.23800695839415E-07	-1.74601434660403E-06	-3.08862609777261E-06	-7.93595229373405E-06	0.962903825517149	-0.240786006133807
10.1	-0.000594676116986189	0.00814456267974967	2.23997518846147E-06	4.7536253751146E-06	-3.0870401125129E-06	9.81830938049163E-06	0.963261845135745	-0.240762630164738
10.2	0.000120775585038966	0.00848076693324313	-5.36582348492964E-07	-1.04556508758991E-06	-1.20708581273379E-06	-3.10737845238459E-06	0.963364893266149	-0.242097062237952
10.3	0.000787785144965777	0.00844100753551548	1.12748108370023E-05	-2.92465005316325E-06	1.00275052450726E-05	-4.83224526178047E-06	0.962899958829401	-0.243791214785499
10.4	0.00121682427208963	0.00783686349544463	-6.27046866367885E-07	2.14142326653725E-06	3.02261091292863E-06	-2.17821593279085E-06	0.962002745766135	-0.245556559349594
10.5	0.000452610823210933	0.0076791529114068	-6.10333829636556E-06	4.62621015261117E-06	1.56279959147959E-06	4.29932845997509E-06	0.96172190031682	-0.247134066176356
10.6	0.000621690832012674	0.00839762848288347	-7.10022493684621E-06	1.06688728305225E-05	7.01549218083945E-06	4.26717483224653E-06	0.961791725525424	-0.25005258588465
10.7	0.000882138158696051	0.00877586387943305	-3.21021312724712E-06	1.56404943442443E-06	-5.36068235627541E-06	3.16461266263585E-06	0.96075352416624	-0.253033184080738
10.8	0.00151654641583778	0.00916687810509144	-1.92653329407693E-06	4.98319734464698E-06	8.50857827609496E-07	-3.19803894385078E-06	0.960111881191018	-0.254846756238102
10.9	0.00207673334523857	0.0091118905572479	-5.73482177292285E-06	-1.05137218907595E-05	4.91727453935841E-06	1.06917174010646E-05	0.959742534242753	-0.256675615876736
11	0.00180632440958273	0.00941333018440121	2.95938608063925E-06	2.61434599511166E-06	7.97823267362814E-07	-1.12193197932431E-05	0.959016877043927	-0.258480446227768
11.1	0.0028517734315321	0.0104040930470593	3.85030556651338E-06	1.45979040443906E-06	2.63393134011469E-07	-7.36195496855617E-06	0.95808848219236	-0.25984868628055
11.2	0.00419937470468143	0.0103674081374359	-4.40597644526749E-06	-1.9748690805648E-06	-7.30383137027407E-06	-4.85403454982641E-06	0.957163486900419	-0.261191536255566
11.3	0.00543615369162395	0.00976641401384019	6.74498887518984E-07	-6.36837615035623E-06	3.73445888826394E-06	1.41281583018903E-05	0.95675959207539	-0.262469454480859
11.4	0.00624026926970318	0.00861101793982678	-5.13225886446928E-06	8.12373467042249E-06	-1.4672003430774E-06	4.06995217668911E-06	0.956464075109045	-0.264666717704498
11.5	0.00578955529708938	0.00784850587963429	4.50713096875713E-06	8.09449973766959E-06	-9.28397294920582E-06	1.56467167113781E-06	0.955165945688863	-0.267932300591279
11.6	0.0063669129379629	0.00780566954892031	-3.83855751911298E-06	1.3922164408683E-06	5.05694390108275E-06	8.13341885263039E-06	0.95362680049814	-0.270433304629452
11.7	0.00699238950721232	0.00690089155625547	2.22306721178034E-06	1.05182699900344E-05	5.47757203227053E-07	-3.64279019022195E-06	0.952932811473861	-0.273320488480066
11.8	0.00727968645216644	0.00575698044810938	1.41783617746932E-06	4.4592508106803E-06	2.23777129662209E-06	4.53490244068654E-06	0.952521530757953	-0.276613796413582
11.9	0.00700585962646394	0.00424305222219409	7.41705675366831E-06	1.05647980521674E-05	3.87641764184137E-06	4.1086919531053E-07	0.952389206836286	-0.279734224137868
12	0.00522433240408651	0.00375610196802036	2.35796443269296E-06	-5.13676215097923E-06	-4.06752227120064E-07	1.74566134752814E-06	0.950557158591844	-0.281704173289527
