# GHZ S RI R 50
0.2	0.00101271091620437	0.00259377025463145	4.78965186561676E-06	-2.98534596884337E-06	-1.37134031796541E-05	1.31181010483801E-05	0.999216142393215	-0.00712307119290501
0.3	0.00143172726812837	0.0017383831644417	2.86614086416877E-06	6.6212328515804E-06	-1.66553666469244E-06	-9.31444048443391E-06	0.999023115176904	-0.0100615955332161
0.4	0.00170575259606649	0.00107232972171805	-1.86214282932236E-06	-4.01230831201022E-06	-9.00736459702051E-06	4.40254477466127E-06	0.998749492357053	-0.0128361986119475
0.5	0.00145332249481526	0.000710592738752219	-5.35532456014233E-06	3.26019979481296E-06	-2.12586399718113E-06	6.75233789011093E-06	0.998034091449296	-0.0154530597094247
0.6	0.00184046441222953	0.00069730978243214	-1.39298018990373E-07	2.80453919145863E-06	-5.81219975176916E-07	-1.33984368924625E-07	0.998534716950291	-0.0180433158837108
0.7	0.00202808059802113	0.000273979024447425	8.82937969059697E-08	2.21762949713831E-06	4.89959327360185E-06	-3.4002998774248E-06	0.99827179762023	-0.0210775593675858
0.8	0.00212897379102467	-8.02471845916778E-05	4.52487856952885E-06	8.24680467963081E-07	2.74200580531137E-06	1.99852179328219E-06	0.9980582720909	-0.0232199863330379
0.9	0.00222425224153222	-0.000508994107174162	-1.51856138713797E-07	-4.21405676652147E-06	-3.41462631282391E-06	-3.10621801548353E-06	0.998097676682332	-0.0257645710095988
1	0.00178685444507792	-0.00122102820447607	1.05746077960693E-06	4.28686992956444E-06	3.32264784874484E-06	9.33369191737918E-07	0.997427418611726	-0.0278097814367741
1.1	0.00131870560838547	-0.00103082630167053	9.0333480246472E-06	5.21473788305572E-07	-3.57420321476686E-06	-5.00209378334513E-07	0.996859063602928	-0.0294711115672278
1.2	0.00119074016543421	-0.00155377180254774	3.75692490952241E-06	-1.19679449947488E-06	-4.09092087598976E-06	-2.43657560453622E-06	0.996146168943262	-0.0304731991389068
1.3	0.000537424874463531	-0.00241798225406925	-7.60054136776766E-07	-1.42564514910516E-06	-2.57981110270077E-06	-8.69843626591003E-06	0.996061785282859	-0.031059226330757
1.4	-0.000216433975675158	-0.00330161754080721	1.22454372466236E-08	3.44482848023079E-06	-4.27586338345768E-06	-4.12649271337955E-06	0.996056881335547	-0.0327679060399391
1.5	-0.000965974239478392	-0.00360336416856721	-1.29925085855601E-06	4.42674552954309E-06	6.55202887646634E-06	-7.40668889302579E-06	0.99637978508073	-0.0360132353834333
1.6	-0.00078323315528448	-0.00349352485246948	1.62871673395706E-06	-4.88195487743357E-07	4.241469208437E-06	-5.38916811547081E-06	0.996278628983834	-0.0389870536794972
1.7	-0.000781546240265256	-0.00370830077914523	5.29227945232002E-07	3.95485868313366E-06	-8.28033632124453E-06	3.12358667748925E-06	0.996823262714891	-0.0415429993008123
1.8	-0.000863409424972853	-0.00374536564251451	1.83065874100325E-06	1.07870899915129E-06	5.6604868286663E-07	-1.76044231115403E-06	0.997013554264913	-0.0444173957410722
1.9	-0.00100209095655426	-0.00398751027030843	3.23337688440895E-06	3.01735924658773E-06	-1.82133998616396E-07	-2.32915256198725E-06	0.996977263310338	-0.0473517192140041
2	-0.00170835184826206	-0.00401862557407631	-1.72588512702029E-07	2.00120192440772E-07	-1.21492385431267E-05	5.4073131424809E-06	0.994893494039764	-0.0504355009998721
2.1	-0.00171005172552231	-0.00361089352702479	6.68653168265005E-07	-1.37998472871471E-06	1.37868937506435E-05	4.97267742999802E-06	0.994674546150806	-0.0510135960797959
2.2	-0.00180159739578644	-0.00373408217895222	1.64442915044648E-06	-1.51399988441419E-06	2.68982067409748E-06	-6.20267874276154E-06	0.995316378764477	-0.0531724442712632
2.3	-0.00211792876816427	-0.0038483603945954	-1.68345098994082E-06	-3.42549559545294E-06	-1.78566669991951E-06	-4.58948458946599E-06	0.995380521366425	-0.0549730540145093
2.4	-0.00245348276332817	-0.0040329659379082	-1.19850822994425E-06	-4.3977963815893E-06	3.04252992359977E-06	1.08813873107973E-06	0.995708065080732	-0.0582485169304977
2.5	-0.0033671368387243	-0.00426268928175176	5.37171181610447E-06	5.67142552124034E-06	-2.6257888374469E-06	1.61327971501631E-05	0.995172671605741	-0.0608539644285569
2.6	-0.00397230076975309	-0.00360404887617569	-2.27867195858593E-06	2.70838958996904E-06	4.38151052888167E-07	-4.30943591222928E-06	0.995047498363287	-0.0636329275954324
2.7	-0.00411356934482754	-0.00318384132354955	-2.40220373353282E-06	-3.63735479574184E-06	2.15617636214444E-06	-2.56750155248834E-06	0.994487867834641	-0.066528236950233
2.8	-0.00407395311407274	-0.00283810307791092	3.99780095551681E-06	2.3146965235596E-06	9.82741757911417E-06	-6.77424627644271E-07	0.994642232466611	-0.0682487741789153
2.9	-0.00386718392707367	-0.00277130628441264	1.28733495545924E-05	7.25610363441055E-07	2.45341811303848E-06	-1.17073132413525E-05	0.994594585575642	-0.0701938488037487
3	-0.00404446003199147	-0.00271951798182474	-3.85493662237826E-06	1.0414525031068E-06	-4.14330841467243E-06	-1.60410529835898E-06	0.994452594188107	-0.072751739685286
3.1	-0.00365411133721202	-0.00244152925024147	4.79077530810154E-06	-9.83716775163039E-06	1.06794632927343E-05	2.42258657027125E-06	0.994133561799239	-0.0744075313928069
3.2	-0.00348805824193395	-0.00267341023197926	-5.35952357833719E-06	-7.41590319602157E-06	1.56278105637346E-05	5.40813264040878E-06	0.994150037092978	-0.0758664119645093
3.3	-0.00351756024510266	-0.00290335607729342	-8.79793418955993E-06	2.53026683400635E-06	-8.56361679574346E-06	-1.75549975036514E-06	0.994420329515975	-0.078829240224117
3.4	-0.00370164244805479	-0.00320908541430522	9.08076544569495E-06	-7.54816059054316E-06	-7.35838268104384E-06	4.22273394729111E-06	0.995188333695901	-0.0808285687978507
3.5	-0.004419626286678	-0.00338676389097303	3.25879810248386E-07	-5.32788665134966E-06	-4.3928141242715E-06	-8.94641774502353E-06	0.995174859282111	-0.0846549044650724
3.6	-0.00458989131621971	-0.00296117833733418	4.06914604738727E-06	4.9072705622088E-06	-7.12157338764637E-06	8.99038083895868E-06	0.994354492661252	-0.0867896934041441
3.7	-0.00473527930882175	-0.00298275667564791	1.53506706158605E-06	-4.52704353888255E-06	-5.09672361288895E-06	-6.5968716439253E-06	0.994802586023981	-0.0891998159939425
3.8	-0.00500220533914801	-0.00293691427072368	7.29195781331975E-06	-5.18967719716353E-06	-5.88079897739326E-06	-2.42851168970008E-06	0.995194441849871	-0.0915998501698457
3.9	-0.00522014643240843	-0.0029199733643897	-4.03321383476085E-06	-3.5467363097481E-07	-2.53428408144556E-06	1.13146385810837E-06	0.995609571489238	-0.0959484001047119
4	-0.0058905196100067	-0.00274085882372099	-3.38473495033549E-06	-8.46708803442467E-08	1.19817880836652E-06	8.67226539907965E-06	0.993578301173134	-0.0984586641803816
4.1	-0.00580531838102697	-0.00198862683447767	-2.89529875858231E-06	-3.8668767079973E-06	5.87639397161423E-06	3.04835667841804E-06	0.993125604545325	-0.0988982299851691
4.2	-0.00561953121049936	-0.0018645948720531	-7.70598472479662E-07	-2.15979128818802E-06	5.70680249822529E-06	-1.83653830443238E-06	0.992995506250724	-0.101455045893443
4.3	-0.0055847122945562	-0.00179726427384559	-5.15758947724576E-07	3.23656575183092E-06	2.12858504291239E-06	1.78425324280272E-06	0.992943928255248	-0.103508151000157
4.4	-0.00566860699410029	-0.00187850831549923	2.57248885882675E-06	3.44732375703596E-06	7.17965123200459E-06	3.9242169530651E-06	0.992557233872697	-0.105972489264842
4.5	-0.0063643058241579	-0.00182981068496375	-6.47638029277773E-06	-2.44804613401649E-07	-8.58174424631536E-06	-2.13399552868296E-06	0.992207218599596	-0.107704385722841
4.6	-0.00658458040336275	-0.00108049205706751	-9.94394928412511E-06	-9.25911872544928E-06	3.24613918854834E-06	-2.72906436191533E-06	0.992560332674255	-0.11040043833951
4.7	-0.00659558841185695	-0.000721580450614566	1.23840981439877E-07	1.8686248625495E-06	6.08047666144584E-06	-6.73795807213953E-06	0.992651596649892	-0.112663476553107
4.8	-0.00663685450616583	-0.000303537618843745	-6.40752672587002E-06	2.07644627738828E-06	7.98393704998156E-07	-1.27692337976069E-05	0.992432808234217	-0.115183738243757
4.9	-0.00644738053542025	-1.62575743094205E-05	-3.43997408250356E-06	8.15337191379213E-06	5.55259803081036E-07	9.39323708397745E-06	0.992419109793471	-0.11705929464476
5	-0.00655301108962533	0.000239319042678305	9.67092187857374E-06	-4.06190307975298E-06	-6.95665635861892E-06	3.57942696114261E-06	0.992682466810242	-0.119037283053131
5.1	-0.00582560398362188	0.000711645521348618	-3.66845819022752E-07	-3.26024013036389E-06	-3.88360077011128E-06	-1.79785026119659E-06	0.992861540287311	-0.120734203983058
5.2	-0.00528230613737702	0.000409783947599627	-1.06927463052035E-06	-4.49702708488876E-06	8.80570856222584E-06	5.59057720760348E-06	0.992957423844386	-0.123278463594184
5.3	-0.00509974513764105	0.000118573558940515	2.29036632969719E-06	6.80824303918849E-06	8.81308508431979E-06	3.14184002078385E-06	0.99296925040892	-0.126037091468415
5.4	-0.00508688049739596	-0.000142603127725861	2.71447788113561E-06	-3.1487489948609E-06	-2.68155425078228E-06	1.53004935593386E-07	0.993255768960855	-0.12938829852778
5.5	-0.00572078058139569	6.55614695064147E-05	2.1206125724846E-06	9.34937773652847E-06	-3.93861017568926E-06	-5.0491518986756E-06	0.992609784865023	-0.13347480017527
5.6	-0.00519857182254754	0.000774055164501356	-5.87151975621481E-06	-1.12880482726398E-06	4.8870741837341E-06	1.94241699784455E-06	0.99152657869106	-0.135600544900188
5.7	-0.00490228534025629	0.000649611842940802	3.34265391683196E-06	-1.42994507324434E-06	-5.06409767680014E-06	-4.29644155363299E-06	0.991675776539327	-0.1379834109356
5.8	-0.00487714730372522	0.000579647651325297	-2.06510946570335E-06	-4.7543190725561E-06	9.47818235639307E-07	-5.84700529547344E-07	0.99203568276557	-0.140785683168445
5.9	-0.00488719896394009	0.000393604131746765	-3.88573221693112E-06	6.28752128478955E-07	3.87270932608544E-06	1.24373688746906E-06	0.991978553491936	-0.144831016076122
6	-0.00592091171283168	1.61691967812634E-05	-5.92725013278385E-06	5.06045471829921E-06	-1.48471678782966E-06	1.99472322980226E-07	0.988607948626389	-0.148006903579833
6.1	-0.00659647022064281	0.000973595145467771	-5.93495230958848E-06	-4.69743193951034E-06	-4.0090856172001E-06	4.3502495038214E-07	0.987462966575005	-0.147570637424745
6.2	-0.00690297323266357	0.00155993329619127	2.82565368128005E-06	3.12847199167775E-06	1.05450526904501E-06	7.23318787200209E-07	0.986915152250538	-0.148546293843317
6.3	-0.00687998067620245	0.00228118827173685	1.6434454154974E-06	-7.50505968159579E-07	-1.32581525467127E-07	1.37787072805442E-06	0.986319753928339	-0.14994212712888
6.4	-0.00651937618513711	0.00251455652964172	-5.19624755695495E-06	-5.62180305261266E-06	3.8273962596933E-06	6.91365866274549E-06	0.985726351453241	-0.151864877474614
6.5	-0.00660949534852976	0.00280865186511687	9.07983880234138E-06	-2.49049641872515E-07	-7.33378351054364E-06	-8.98845622274534E-07	0.985374933415967	-0.152986506651382
6.6	-0.00570055462548039	0.00309917136526165	-1.49163601059944E-06	4.68701479402043E-07	3.37461909456508E-06	-9.40607951183816E-06	0.987280312467599	-0.155810750099991
6.7	-0.00542295384691177	0.00285101418858417	5.9964560217099E-08	7.76731859700512E-06	-5.04648726555298E-07	-6.09767845988502E-06	0.987346465640408	-0.159218881830887
6.8	-0.00529759015337322	0.00298540594347917	4.25762336172696E-06	1.65158345968992E-06	2.04970968584832E-07	-5.24430890296836E-06	0.98705352730311	-0.162042672274067
6.9	-0.0050641762367436	0.00299972968316376	-7.55964562396233E-07	2.49597292293637E-07	5.76209762684582E-06	-2.69465484674332E-06	0.986872314984678	-0.164876062176335
7	-0.00563573304909782	0.00337016886930143	8.02616020156652E-06	-4.77762752027324E-06	4.30503569120994E-07	-3.02562513875509E-06	0.985243857439955	-0.167195809737536
7.1	-0.00486660073010619	0.00438479417536568	3.85679654203728E-06	2.03865257192942E-06	7.89777573308886E-07	7.2399774406849E-06	0.984830135871806	-0.167951993401889
7.2	-0.00427205421825589	0.00435459685003889	-2.44395910360895E-06	3.70239854003576E-06	-1.34288299218102E-06	-3.83004245560013E-06	0.984787504290401	-0.16943573104476
7.3	-0.0040754340104216	0.00437910595040359	3.44347606063858E-06	-5.01508215944673E-07	-2.45723968089662E-06	-1.91538024237912E-06	0.984621095406489	-0.170885560383131
7.4	-0.00389428206265465	0.0042288045881011	-6.20613783971775E-06	-2.69311960446644E-06	3.77843128865563E-06	2.40473717114632E-07	0.985746408209199	-0.173438320880368
7.5	-0.00473252394219652	0.00385528026873777	6.74860762810016E-06	-6.47554131540761E-06	-2.48164394299755E-06	8.1092453476887E-07	0.985359021311891	-0.179360263114569
7.6	-0.00490691451217667	0.00479527635930486	3.50393593784982E-06	5.19442743560593E-06	-1.02306003678729E-05	4.96526070423291E-06	0.982849150272425	-0.182459801068587
7.7	-0.00492807250094597	0.00496198541217639	6.06224556230306E-06	1.09219476932026E-05	2.97740546255931E-07	-1.13612957088175E-05	0.982104480159045	-0.185973438532767
7.8	-0.00476314114880892	0.00512582479498351	2.15932685998307E-06	9.77065213740308E-07	-3.07783641052469E-06	8.83127500673414E-06	0.981339486759813	-0.189736191842262
7.9	-0.00433834920326761	0.00502430987708746	2.54402521101995E-06	-2.32339973253313E-06	3.68926615723663E-06	3.28733854090173E-07	0.980232699577703	-0.194188925189246
8	-0.00459102106570339	0.00525734272443216	-2.80190373408011E-06	1.33885859138558E-06	6.85625565130283E-06	-1.88456059130036E-06	0.975645021960444	-0.197101355184342
8.1	-0.00333264542276118	0.00553119886649213	-1.78548843911413E-06	7.58201965116197E-07	-3.70319641713549E-06	-1.24190952176214E-06	0.975252725020935	-0.196397911907206
8.2	-0.00284612251669598	0.00498665720563002	-7.78864723169498E-07	6.32439759761865E-06	4.87695706186904E-06	4.33542009683798E-06	0.975645580522927	-0.198267300155107
8.3	-0.00269323868218934	0.00474547325113526	-8.87419864797647E-07	-1.41849455272366E-05	6.82581180742094E-06	5.4003409331298E-06	0.975139356427932	-0.200825705342918
8.4	-0.00255503965488401	0.00454406055906818	3.74280649171769E-06	-3.42853345098292E-06	-6.95644466327965E-06	-1.2001249683916E-06	0.974156641274196	-0.203244704570494
8.5	-0.0032616050050127	0.00468850774675806	4.66400370329843E-06	5.80697712244493E-07	8.38929567189072E-06	-6.82493153610455E-06	0.973287394548202	-0.204942450136599
8.6	-0.00262089554488524	0.00572147348205151	-3.25719690323508E-06	4.11531731418989E-06	1.02417228351775E-06	1.10775287462852E-05	0.97365632079778	-0.207278819413117
8.7	-0.00193095361012825	0.00567951796501395	2.67490467554968E-06	-2.00088264400215E-06	4.76716876251276E-07	-5.53744704724613E-07	0.973548782202151	-0.21008712171227
8.8	-0.00147632968110848	0.00563988673594656	1.19236309388219E-07	-1.25081580752087E-06	-9.50251040265609E-07	9.75037871390157E-06	0.973170871341926	-0.212539402495527
8.9	-0.000902809831566364	0.00534119413686014	-3.6515678602641E-06	2.29311371048386E-06	4.81920448475741E-06	-1.80650638425774E-06	0.973072071549155	-0.214770484457329
9	-0.00107627372187548	0.00489805087774143	-1.88670471645309E-06	4.97908558743753E-07	-3.21087672311888E-06	-1.05167346444848E-05	0.972539617081457	-0.217359674983436
9.1	-0.000467751737826642	0.00495814160730669	5.2418109821014E-06	5.82479964757334E-07	9.11546849639043E-07	3.80026131297559E-07	0.971524992256993	-0.219303235075946
9.2	-0.000173575563532455	0.00433052665996534	-8.70439003478556E-06	-4.56108083958325E-06	-8.82765920303585E-07	-6.11228211582482E-06	0.970507555751411	-0.221129862668625
9.3	-0.000171434612632873	0.00400537621226614	1.86108324884963E-07	6.20177728046704E-06	4.62905630604504E-06	-2.18778930613761E-06	0.970099610282851	-0.222562416757174
9.4	-5.9320596690012E-05	0.00365798814746212	-1.93072830411831E-06	5.87455942403347E-06	-1.04956601855355E-05	7.72177647480301E-06	0.970331507675314	-0.224806556062179
9.5	-0.00052234232617249	0.00384512936708178	3.18174496351953E-06	-7.563903193796E-06	3.68002862257577E-06	-2.74132277019038E-06	0.969592497708981	-0.228400475469126
9.6	0.000252166813432244	0.00419010247027903	4.49427418827453E-06	5.56350078749182E-06	-6.35239341611618E-07	7.05900993405908E-06	0.968580153850035	-0.230393940831145
9.7	0.000546000351801336	0.00374578570839919	-2.59945664945411E-06	-3.92999672824315E-06	3.68445882074285E-06	-7.50727694410319E-06	0.968706345096992	-0.232520540308127
9.8	0.000501791720633173	0.00352052201236494	-5.22831533465426E-07	-4.20698981440687E-06	6.26399046235034E-06	8.89203950677719E-07	0.969282178361471	-0.234935251530191
9.9	0.000502030763404223	0.00331594442423649	-2.68446716060328E-06	-5.92780607576548E-07	-8.48877873882938E-06	5.48114721128404E-06	0.968934443900408	-0.238392565153191
10	-0.00036631602762095	0.00328421741487727	4.27374376739983E-07	-1.74537783321673E-06	-3.07300937817945E-06	-7.94317147845666E-06	0.965252481740409	-0.239511591677704
10.1	-0.00010843139155133	0.00408261019648639	2.2290496656393E-06	4.76148910239777E-06	-3.11321177124369E-06	9.81512383571552E-06	0.966383475933186	-0.238347581859595
10.2	7.20077712256274E-05	0.00410284157945188	-5.34650798369878E-07	-1.04781253537778E-06	-1.2009767085857E-06	-3.11315253580973E-06	0.967313805584814	-0.240280417761619
10.3	0.000154389964418542	0.00435598512235414	1.12933003456899E-05	-2.90623813106625E-06	1.00482523433831E-05	-4.81841285224532E-06	0.967028600542641	-0.242831662121033
10.4	0.000529974428272293	0.00438434318543095	-6.30602859901342E-07	2.14225201125588E-06	3.02814606801788E-06	-2.17566043726886E-06	0.965662599509734	-0.245700484434822
10.5	0.000177078429726856	0.00452458970541879	-6.11392103741182E-06	4.61639126689536E-06	1.55532874666105E-06	4.30363461571111E-06	0.964008906846829	-0.247257406232963
10.6	0.000782565147420349	0.00502683964581067	-7.12393447729327E-06	1.06640049460163E-05	7.01299443329645E-06	4.28248071580005E-06	0.963841821244194	-0.249835423893961
10.7	0.0010386977416326	0.00515401698541231	-3.21500173768393E-06	1.56049582221887E-06	-5.36949804982647E-06	3.1591040327672E-06	0.962448594496544	-0.252286933696898
10.8	0.00152413257198899	0.00561864438848255	-1.9342115289916E-06	4.98347038836751E-06	8.55567277982969E-07	-3.19872385097093E-06	0.961718459113127	-0.253253696439113
10.9	0.0023253848126337	0.00570397459061715	-5.72234041645876E-06	-1.05282770504057E-05	4.90406246032038E-06	1.07051498473601E-05	0.961789629340878	-0.254327126522085
11	0.00242857955988501	0.00581635602680737	2.95933703762154E-06	2.62309971613645E-06	8.17718690032535E-07	-1.12343497234081E-05	0.961685053661691	-0.2548743055608
11.1	0.0037461513914865	0.00622887178201977	3.85628391424713E-06	1.46553092977019E-06	2.69688369015139E-07	-7.37537988657853E-06	0.962901153845981	-0.255449038277325
11.2	0.00470146477675393	0.00557665059381438	-4.41264703579427E-06	-1.97993106047376E-06	-7.31427042943579E-06	-4.86509574138694E-06	0.963865495008366	-0.257277213605328
11.3	0.00527723753283213	0.00492479495480503	6.77526506471521E-07	-6.37785956600899E-06	3.73570565263507E-06	1.41508405008519E-05	0.964851985911723	-0.259552849229248
11.4	0.00568253625564991	0.00412604938289499	-5.14386529673484E-06	8.13548619047714E-06	-1.4711613996126E-06	4.07624587445872E-06	0.965763680750047	-0.263307793041754
11.5	0.00515418170027671	0.00363723288683404	4.52011282346904E-06	8.10853799782381E-06	-9.30182995358604E-06	1.57233176146816E-06	0.963953662557082	-0.268725007803784
11.6	0.00583474691034607	0.00366584494348344	-3.8423185445963E-06	1.3966967713728E-06	5.0690498826585E-06	8.13987632050766E-06	0.961988714431969	-0.271199815360774
11.7	0.0062222173571307	0.00285123989960529	2.23192535341423E-06	1.05302532080963E-05	5.4635087571823E-07	-3.64769887012452E-06	0.961948784725091	-0.275083935091236
11.8	0.00639965701795634	0.00218199004608208	1.42310502636072E-06	4.46549414799715E-06	2.24441307252854E-06	4.54071942607804E-06	0.961544566362636	-0.280183776608761
11.9	0.00668317363670201	0.00120088854112226	7.44833552248076E-06	1.05796842546626E-05	3.88601608618315E-06	4.06709997634318E-07	0.96011558054087	-0.285858551987093
12	0.00547423718152166	0.000806304694965647	2.35172963635943E-06	-5.15080561131445E-06	-4.03924011395718E-07	1.74962927728885E-06	0.95382640260338	-0.287429410932584
