# GHZ S RI R 50
0.2	0.000372287995027892	0.00139485079965501	4.81051674100019E-06	-2.98210189471205E-06	-1.37843096036945E-05	1.31217631182608E-05	1.00115435834218	-0.00614582869597098
0.3	0.000904846037229051	0.00105915096631604	2.8618825242073E-06	6.64872063862789E-06	-1.6518272984486E-06	-9.3482457904704E-06	1.00149810102466	-0.00894638703286197
0.4	0.00124492953183642	0.00119532070662535	-1.86457918291029E-06	-4.03242984431338E-06	-9.05285053549629E-06	4.40898240497558E-06	1.00244409038922	-0.0115087204145723
0.5	0.00253071495273873	0.000606825620988617	-5.37411326866649E-06	3.27604595418564E-06	-2.13004455395905E-06	6.77977320915663E-06	1.00312791476472	-0.0163550947554736
0.6	0.00173568416107531	-0.000791994261946555	-1.41764150781572E-07	2.81229758868483E-06	-5.82750048462657E-07	-1.34790110147854E-07	1.00165196680513	-0.0194905045811709
0.7	0.000989503705228866	-0.000607397389209152	8.56821258761582E-08	2.22648697917992E-06	4.92344052028222E-06	-3.40716144083432E-06	1.00144314699971	-0.0217891621231895
0.8	0.000674072311966625	-0.000403525123717923	4.54617448987935E-06	8.34307080398878E-07	2.75306895174173E-06	2.01174491662467E-06	1.00148268346731	-0.0237763448756758
0.9	0.000159232907588923	0.00015508386846556	-1.4876121080936E-07	-4.2397682445112E-06	-3.43238249899738E-06	-3.12831782797631E-06	1.00152642054046	-0.0256603780015298
1	0.0013206526460411	0.00142798241294803	1.06798964639838E-06	4.31641041784743E-06	3.34679362613763E-06	9.37596443387194E-07	1.00305294951133	-0.0267396639464653
1.1	0.00207845051112202	-0.000419476629093848	9.0880582717618E-06	5.11170928378629E-07	-3.59628676060144E-06	-4.97887545285167E-07	1.00309681200695	-0.0306910763120531
1.2	0.00104941070438377	-0.0014554752792917	3.77685530298854E-06	-1.20953037437055E-06	-4.11839511579689E-06	-2.44438557506037E-06	1.00180147641474	-0.0322024419851867
1.3	-9.87381963516089E-05	-0.00250709239147857	-7.67237722352038E-07	-1.43155883922226E-06	-2.61269094897785E-06	-8.73904807290694E-06	1.0012271334897	-0.0337696516249276
1.4	-0.00138606394520579	-0.00307179420931971	2.15034382158337E-08	3.45957152459618E-06	-4.30523073726472E-06	-4.13276609773413E-06	0.999919216730074	-0.0360182050027243
1.5	-0.00103556443342419	-0.00360576605429189	-1.29500571239157E-06	4.44666040586849E-06	6.56192568454662E-06	-7.44919778570029E-06	1.00129984857333	-0.0393605799889658
1.6	-0.00225270014178118	-0.00399320160835674	1.63548027169187E-06	-4.93601066037042E-07	4.25124566879022E-06	-5.42269427166359E-06	1.00056747540824	-0.0435266874523177
1.7	-0.00236077541352784	-0.00309226425016916	5.41175265460569E-07	3.97486333947952E-06	-8.3175789300781E-06	3.15941710525191E-06	1.00107897270141	-0.0457450273068548
1.8	-0.00214383666936698	-0.00252158203203276	1.84344807934027E-06	1.07997726444165E-06	5.64681564416103E-07	-1.77154338040757E-06	1.00125753920525	-0.0481906479819319
1.9	-0.00180828759640976	-0.00185848114953129	3.2565046922912E-06	3.02930572436395E-06	-1.86876319888509E-07	-2.34206004769801E-06	1.00168916490064	-0.0489473617390066
2	-0.000215888460780497	-0.00217846409989217	-1.73936464459985E-07	2.02275007834105E-07	-1.22568223947971E-05	5.47648612751632E-06	1.00610816522919	-0.0519149811385551
2.1	-0.0010835020101534	-0.0038288373210979	6.66905345787946E-07	-1.39660859139293E-06	1.39431528961588E-05	4.93940524337989E-06	1.00512124930915	-0.0591892502656355
2.2	-0.00216748157949031	-0.00372136716354243	1.6473193424867E-06	-1.53612371582186E-06	2.67067908271686E-06	-6.26739204374452E-06	1.0030732175184	-0.0622121790415634
2.3	-0.00297458245449041	-0.00344800004318692	-1.71809988800423E-06	-3.43911417930349E-06	-1.82870370659228E-06	-4.61081919233725E-06	1.0018167094069	-0.0640522738816871
2.4	-0.00378398408721347	-0.00268635730469681	-1.23900586011938E-06	-4.42146109969464E-06	3.07271970830791E-06	1.07420401380668E-06	1.00123134543351	-0.0668997933125831
2.5	-0.00293810941980759	-0.00168660247909487	5.45576660164826E-06	5.65987334541296E-06	-2.49995809547259E-06	1.62580333357569E-05	1.00134519368792	-0.069081790938783
2.6	-0.00294904016782429	-0.00286462678738337	-2.2685412858715E-06	2.74052443826775E-06	4.0576051814204E-07	-4.33495455702578E-06	1.00130307729532	-0.0726876704056637
2.7	-0.00371889070538284	-0.00295614126303771	-2.4446060405158E-06	-3.63835951287662E-06	2.1476352525775E-06	-2.59898705699418E-06	1.00094273835576	-0.0763049948162207
2.8	-0.0043483810568535	-0.00269211483998338	4.04107527190774E-06	2.29278308748936E-06	9.87776785397331E-06	-7.67777595826453E-07	1.00071329885993	-0.0792230231089707
2.9	-0.00457738461093008	-0.00187925149362172	1.29487901052012E-05	5.99277550874949E-07	2.34801646844515E-06	-1.17940562322036E-05	0.999637550889673	-0.0817833683892477
3	-0.00345027352178208	-0.00176359106601611	-3.85607722284179E-06	1.08592444827046E-06	-4.17361314176094E-06	-1.56496836243495E-06	0.998966374458268	-0.0845161620410755
3.1	-0.00410607035622198	-0.00257007328573224	4.70694797252647E-06	-9.91528792176491E-06	1.07364498192274E-05	2.32306730341601E-06	0.997940203873648	-0.0871921915687236
3.2	-0.00461015863559889	-0.00218339710229521	-5.45417264775682E-06	-7.37729042943678E-06	1.57277600818189E-05	5.25275050273863E-06	0.996655452663518	-0.0893123902447083
3.3	-0.00487644043232965	-0.00183336645454502	-8.78164024086789E-06	2.63796829177526E-06	-8.59752705696023E-06	-1.65716802753475E-06	0.995151627716107	-0.0928383409534662
3.4	-0.00509124298866307	-0.00113020921849323	8.9790868366132E-06	-7.65758861548795E-06	-7.29990927989369E-06	4.3127283642094E-06	0.99319083892509	-0.0944195031897735
3.5	-0.00397487565369145	-0.00104326194321277	2.71691660456722E-07	-5.31399116856938E-06	-4.46790758486184E-06	-8.87381396572761E-06	0.992905122373475	-0.0948554309607396
3.6	-0.00480758515761112	-0.00214238454653414	4.10914761266442E-06	4.86391501136638E-06	-7.03035972436531E-06	9.04463765721997E-06	0.993616660705623	-0.0984718317600899
3.7	-0.00576213873418826	-0.00161316848694384	1.48619677739131E-06	-4.53544481351935E-06	-5.15606773910425E-06	-6.53397111914223E-06	0.992146389788619	-0.101786442444123
3.8	-0.00617765606459231	-0.000814511908993473	7.21793641026519E-06	-5.25024154616343E-06	-5.88928256227767E-06	-2.36105360095494E-06	0.990361934793143	-0.103251880055117
3.9	-0.00602484671138376	0.000351429526087984	-4.0217491459684E-06	-3.1782100904376E-07	-2.51513626292538E-06	1.14972024341409E-06	0.989738078505282	-0.104083998581005
4	-0.004223228325757	0.000507047466647772	-3.38376927756001E-06	-5.56988410904789E-08	1.27170378495376E-06	8.6576959632685E-06	0.993624303172955	-0.105262845552574
4.1	-0.0045908165021966	-0.000954430126297413	-2.93633977046579E-06	-3.82415493554379E-06	5.90160548942378E-06	2.97118600514284E-06	0.991955302989655	-0.111195571870381
4.2	-0.0053726469029557	-0.000919773964948416	-7.9306235167334E-07	-2.14171611403602E-06	5.66141298055273E-06	-1.8967192421986E-06	0.989022152017877	-0.113749397545308
4.3	-0.00587396722945116	-0.000584370686381422	-4.76462487554092E-07	3.22649807365001E-06	2.13837580424515E-06	1.75129892466492E-06	0.987627546398707	-0.115095472882192
4.4	-0.00627249260991258	0.000248988023693172	2.60001704471328E-06	3.40063213893148E-06	7.19027422006E-06	3.82166108095235E-06	0.986812192700755	-0.116758711615607
4.5	-0.00500695319379991	0.000719349877356018	-6.43411760002725E-06	-1.53239908879641E-07	-8.55084512383326E-06	-1.99990688879755E-06	0.986420469638005	-0.119658775446091
4.6	-0.00572895414621862	-0.000565534578242485	-9.94928187142948E-06	-9.05107864456989E-06	3.18188993925901E-06	-2.7386167643127E-06	0.984117977958228	-0.122086635428251
4.7	-0.00676343651877273	-0.000142083567227833	1.40824600505748E-07	1.84826925097022E-06	5.9523605039634E-06	-6.72831422795436E-06	0.983353416052457	-0.123218027486608
4.8	-0.00736692699790162	0.000601124807653736	-6.3234528225745E-06	2.11333367438686E-06	6.74600966343293E-07	-1.26464001796914E-05	0.982450695979299	-0.125202278883286
4.9	-0.00753295381665781	0.0018357939224542	-3.32791021849333E-06	8.09985084989337E-06	6.36944896922132E-07	9.28948182592874E-06	0.981200785195823	-0.126467461570776
5	-0.0059415832713411	0.00222507419417824	9.50653070800129E-06	-4.09347147972245E-06	-6.83258846635197E-06	3.59340040417741E-06	0.980416529515421	-0.127039446221352
5.1	-0.00648974520090448	0.00141640563760531	-3.81879363361338E-07	-3.2148142347176E-06	-3.84312574160972E-06	-1.75033801314777E-06	0.979956842714237	-0.127695504613497
5.2	-0.00667838843969002	0.00214619403074157	-1.08092936044131E-06	-4.43322121146919E-06	8.72415559930369E-06	5.46904306498382E-06	0.979225631211747	-0.129036980281369
5.3	-0.00630073304014576	0.00272739625567385	2.29895005424728E-06	6.70490278559538E-06	8.71424246157206E-06	3.04978786414455E-06	0.97850091632502	-0.130558863443274
5.4	-0.00566457540578626	0.00349642586859596	2.65430946694671E-06	-3.1171750521656E-06	-2.63986955751689E-06	1.6677603010279E-07	0.977357317787343	-0.132185911216251
5.5	-0.00354285670093621	0.00286373407702326	2.09984361870104E-06	9.17593565488644E-06	-3.8767704786753E-06	-4.95020706308719E-06	0.977896179540294	-0.13212976653352
5.6	-0.00490034393296902	0.00119881754900608	-5.78253274899433E-06	-1.11545775091538E-06	4.81238768836358E-06	1.91622760242309E-06	0.978872138172845	-0.135301302510282
5.7	-0.00600376601446857	0.00192699205764135	3.29502089836801E-06	-1.40737567443751E-06	-4.98835052379487E-06	-4.23700581360099E-06	0.977690199900122	-0.137534731362948
5.8	-0.00640746934433842	0.0027663991181902	-2.02682130332418E-06	-4.68725176316715E-06	9.34728039410508E-07	-5.74505205895043E-07	0.976658832550826	-0.138283754494787
5.9	-0.00665421033322721	0.00418675580796159	-3.83407439015385E-06	6.02690103050666E-07	3.81292066009305E-06	1.24350260815093E-06	0.976711887197428	-0.137100954334091
6	-0.00439736809088408	0.00527835378673738	-5.89413337800634E-06	4.99537134867094E-06	-1.47258468753067E-06	1.92413012142973E-07	0.982351122422374	-0.138467438289381
6.1	-0.00436834342741915	0.0030981030027016	-5.86908686662898E-06	-4.64348172718597E-06	-3.96391344238708E-06	4.30887545334794E-07	0.980593435508879	-0.144140431777794
6.2	-0.00568325827910566	0.00288644532620571	2.78408250053748E-06	3.09033428926181E-06	1.03954846425475E-06	7.15004364235761E-07	0.978250971625065	-0.1446470730522
6.3	-0.0065590528106286	0.00342296842661752	1.62373730335602E-06	-7.35314955069679E-07	-1.35097765915797E-07	1.35897278824391E-06	0.977455924207137	-0.145056848041031
6.4	-0.00672303261201682	0.00474390077540347	-5.11291879191077E-06	-5.57798896731171E-06	3.75462639033802E-06	6.84924628852805E-06	0.978311616936399	-0.1457514142436
6.5	-0.00485602130822661	0.00433230940085861	8.96707499607074E-06	-2.39634872823365E-07	-7.24193891767439E-06	-8.92767845244419E-07	0.978917711497362	-0.15147415752246
6.6	-0.00624679153406453	0.00358734053764845	-1.46952366595499E-06	4.54645361074405E-07	3.36078844975824E-06	-9.23918754092983E-06	0.974871085653668	-0.152558569400378
6.7	-0.00649072435079118	0.00461685433972346	3.56532388936918E-10	7.65110219070725E-06	-4.50980839782237E-07	-6.00990205092301E-06	0.974867718632984	-0.15223638171619
6.8	-0.00642849618087733	0.00534023506472213	4.184955009243E-06	1.66801427503218E-06	2.49968537254929E-07	-5.1714640641384E-06	0.975156017269391	-0.153070028484469
6.9	-0.00613329380180685	0.00684095749493707	-7.49104282870512E-07	2.392124504181E-07	5.71747972053179E-06	-2.60577759929368E-06	0.975552905749462	-0.153249349123156
7	-0.00320371829500374	0.00681908320542637	7.97462854897366E-06	-4.63983442936725E-06	4.55030078857211E-07	-2.98420877045109E-06	0.978225467528537	-0.154596537831091
7.1	-0.00443102339838126	0.00484148611496338	3.78752391990574E-06	2.05765673828525E-06	6.98688615634687E-07	7.16197892181534E-06	0.977328857538343	-0.158059077634608
7.2	-0.0054605701138205	0.00568271945193235	-2.46091433986511E-06	3.63170099233318E-06	-1.28200874865645E-06	-3.80324049227812E-06	0.975949289581846	-0.159322455418459
7.3	-0.00586215833849565	0.00661281737935292	3.41162760984095E-06	-4.54589199122897E-07	-2.40718054357387E-06	-1.92385548866597E-06	0.974057503609397	-0.160527194967338
7.4	-0.00623516083105249	0.00828569702296463	-6.09035332393006E-06	-2.73527701272927E-06	3.72546967614243E-06	2.84636077351806E-07	0.970511721492743	-0.160263551225672
7.5	-0.00354478897240096	0.00971111298100176	6.78449965430852E-06	-6.25284436407745E-06	-2.4636914165153E-06	7.50571864782354E-07	0.972974757071916	-0.15533100701195
7.6	-0.00338846933641636	0.00752311809216378	3.37137336690363E-06	5.2298092536961E-06	-1.02602193013774E-05	4.71801544038491E-06	0.977567826483747	-0.160652845398361
7.7	-0.00422715800046642	0.00748743642578667	5.81121155252901E-06	1.09792477257618E-05	5.20952489574797E-07	-1.12901631578291E-05	0.977300103540327	-0.164679081778295
7.8	-0.00448783974242094	0.00783666095111674	2.12828471765749E-06	1.01613624620291E-06	-3.24234677183402E-06	8.72306601122142E-06	0.977320861396003	-0.166878519206857
7.9	-0.00394593283864563	0.00872740570926785	2.58760872538401E-06	-2.25531354243951E-06	3.66695974708827E-06	4.12730170305576E-07	0.97923764401984	-0.166917319032286
8	-0.00156376666241018	0.00717489651566589	-2.84615209319226E-06	1.2776623119772E-06	6.93123748399226E-06	-1.72874556873262E-06	0.987624575780065	-0.171994676228782
8.1	-0.00334582751679663	0.00572683924387726	-1.80765731670043E-06	7.31239000618872E-07	-3.70059529860134E-06	-1.3121472884922E-06	0.985142556736629	-0.181261038122763
8.2	-0.00412735806638357	0.00641154700128639	-8.84719180403137E-07	6.33494219791893E-06	4.82426637437781E-06	4.4307654357658E-06	0.982801646060154	-0.183731940980875
8.3	-0.00446820262085009	0.00709667785732712	-6.58970810232974E-07	-1.42586325339202E-05	6.76589955381014E-06	5.53457605478115E-06	0.982059024487123	-0.186075111518233
8.4	-0.00451734748743092	0.00871589286987497	3.81788794670995E-06	-3.39268044818255E-06	-6.98088930500322E-06	-1.31322882016267E-06	0.982114803299202	-0.188517785731474
8.5	-0.0017014891247107	0.00906208384855627	4.67688463052744E-06	6.38300790120928E-07	8.50550885783715E-06	-6.7546371935666E-06	0.982095093521962	-0.192733796856236
8.6	-0.00263488048155939	0.00723332526840413	-3.32823959902709E-06	4.07982601249843E-06	8.6327860675934E-07	1.11270185950755E-05	0.98058002221913	-0.195168846439733
8.7	-0.00343482301283887	0.00810926151332791	2.7204073313921E-06	-1.96969899916032E-06	4.87908616438174E-07	-5.49235282832667E-07	0.980891199330156	-0.197169722157102
8.8	-0.00338265129958173	0.00911722632837276	1.39072095708698E-07	-1.25829530102021E-06	-1.10502952552457E-06	9.80836817366949E-06	0.98140201345105	-0.199467841738651
8.9	-0.00282262936451274	0.0105694490855151	-3.7152412347579E-06	2.26708526913281E-06	4.88742240259696E-06	-1.76081601968854E-06	0.98225488908167	-0.201750817256993
9	0.000348847093837431	0.0107904135792748	-1.90518161013838E-06	4.80322665637172E-07	-3.11583623357526E-06	-1.06245741211792E-05	0.983162499502535	-0.204268093566019
9.1	0.000507309010094323	0.0086229282938298	5.27706147935804E-06	6.56298338010635E-07	9.14005221324207E-07	3.95145536328305E-07	0.983976496395467	-0.207309363379718
9.2	0.000530988974180877	0.00818940844970319	-8.737340336116E-06	-4.70922543082076E-06	-8.19458828819846E-07	-6.18361707378324E-06	0.984101136487429	-0.210972529323258
9.3	0.000665841797254388	0.00765561224483267	1.26165652574503E-07	6.26624566438295E-06	4.69759998788145E-06	-2.16373308717469E-06	0.983497742232214	-0.214660025146867
9.4	0.000823667204839145	0.00783206014109882	-1.99763096051384E-06	5.90552816727856E-06	-1.06483433470848E-05	7.69313362434996E-06	0.981497965801658	-0.217419366277916
9.5	0.00245145880291704	0.00641112789436615	3.30612968418239E-06	-7.56997925367806E-06	3.74168455674314E-06	-2.7089440589141E-06	0.982501835584219	-0.21788537506768
9.6	0.000240526230879019	0.00489600988181831	4.46996865653277E-06	5.69656523575722E-06	-7.4426767098124E-07	7.13699324906088E-06	0.983549564344835	-0.223329794913771
9.7	-0.000881812337711393	0.00577539351853038	-2.58803238624731E-06	-4.01691905436238E-06	3.82780336764334E-06	-7.56779603190666E-06	0.982355097055091	-0.226811425407614
9.8	-0.00135013842901891	0.0066428794251193	-4.8168568384295E-07	-4.27352655544348E-06	6.34376986743624E-06	9.74446167445255E-07	0.981769427399661	-0.228459354533393
9.9	-0.00139775802919584	0.0082051570479203	-2.71907831319513E-06	-6.38620291987999E-07	-8.69802159489357E-06	5.45306751948712E-06	0.983111123247139	-0.227641704380408
10	0.00117842612958623	0.00832280162271627	4.56084294298494E-07	-1.78203100818629E-06	-3.06083663892059E-06	-8.1635080790049E-06	0.990773276771118	-0.233254607776431
10.1	0.000162524475399701	0.00649898412947162	2.25657757186596E-06	4.87092725196968E-06	-3.21889440571625E-06	1.00092390217029E-05	0.986304709048678	-0.241657086909744
10.2	-0.000873848405328508	0.00705666025345528	-5.41030172707735E-07	-1.07001834251744E-06	-1.2124592024734E-06	-3.17767525064887E-06	0.983200458836641	-0.243003839640393
10.3	-0.00131298893332413	0.00804386051640523	1.15276422433596E-05	-2.92277962840277E-06	1.02648732834245E-05	-4.877369674912E-06	0.982125441702045	-0.244361018042773
10.4	-0.000952037462010071	0.00980405738533072	-6.48781408682622E-07	2.18869626732716E-06	3.09973470270898E-06	-2.21820614458346E-06	0.98257174510747	-0.246360836438277
10.5	0.00191774701177772	0.00980609019842859	-6.22250082477091E-06	4.73512458019695E-06	1.6039212233259E-06	4.38655035581069E-06	0.982667966962683	-0.252325094496106
10.6	0.00147172703731868	0.00834872153177311	-7.22820689321498E-06	1.08682917032908E-05	7.14649982676745E-06	4.34390532367481E-06	0.980223884790313	-0.25534831090898
10.7	0.00129476643303174	0.00856423683832577	-3.27344889491246E-06	1.5966099480594E-06	-5.46603498214938E-06	3.22999354568945E-06	0.980024627805473	-0.259056526848524
10.8	0.00113250366306467	0.0088985257298187	-1.95553072603456E-06	5.09089040460458E-06	8.6146455382673E-07	-3.26630196802232E-06	0.978890163730289	-0.263019313026241
10.9	0.0013791832309786	0.0102429008344134	-5.90826988824528E-06	-1.07072194142733E-05	5.07434258041837E-06	1.08930434470185E-05	0.977920751220815	-0.266122216604055
11	0.00425840957191124	0.010039601474468	3.03189654314364E-06	2.64244934079444E-06	7.36006006928051E-07	-1.1432027714735E-05	0.977424286809211	-0.26958825732182
11.1	0.0034154895337376	0.00852346388627971	3.93065255558121E-06	1.46182837882417E-06	2.2072659642748E-07	-7.49926613101778E-06	0.974566384207275	-0.273375434266995
11.2	0.00326702467796393	0.00910892255304552	-4.50354413490479E-06	-1.9759296757851E-06	-7.47831476160548E-06	-4.88507454317008E-06	0.971608287973973	-0.275776242995924
11.3	0.00378891225528577	0.00970040581027431	6.22308446689307E-07	-6.48517097773546E-06	3.94062091195001E-06	1.43348258507259E-05	0.968124453136097	-0.277287061515016
11.4	0.00457286756422555	0.0105615825755742	-5.1095340728033E-06	8.29425967969371E-06	-1.44064603955527E-06	4.14271266447252E-06	0.963877772847922	-0.277680387388988
11.5	0.00751554050586071	0.00946495415458623	4.61715166054102E-06	8.16665087752133E-06	-9.39047003880232E-06	1.64550750557746E-06	0.966568648634404	-0.276339086936036
11.6	0.0065377078411738	0.00707580336207894	-3.89090083249854E-06	1.44699063539026E-06	5.20803199135519E-06	8.2269663334666E-06	0.966760321144268	-0.283907880497426
11.7	0.00591154679901216	0.00698737140457365	2.37366236705186E-06	1.06621692228618E-05	5.16674529158827E-07	-3.70703869956785E-06	0.963359318748006	-0.288336616628854
11.8	0.0058421587627958	0.00714791817304909	1.49051192557716E-06	4.50685223215743E-06	2.32314135771195E-06	4.57398453519417E-06	0.960830826843995	-0.290509126855054
11.9	0.00699751944930338	0.00794248254433763	7.63264733246843E-06	1.06466205965535E-05	3.93784787028959E-06	3.78074505892541E-07	0.963016629586412	-0.289573814021755
12	0.00984201715282751	0.00608300530499778	2.33963460615722E-06	-5.27504889980713E-06	-3.9228337044947E-07	1.78746598527155E-06	0.971034814703326	-0.297768474220708
