# GHZ S RI R 50
0.2	0.000881782380161419	0.00273931641693316	4.79027393184787E-06	-2.98637203774291E-06	-1.37147455199429E-05	1.31219058915147E-05	0.999196849033494	-0.00714154570379829
0.3	0.0012860387091521	0.00186181114880177	2.86694686032751E-06	6.62254547367042E-06	-1.66617038996004E-06	-9.316358597025E-06	0.999010200512131	-0.0100320566843286
0.4	0.00157094112971179	0.00127627642830572	-1.86298974895859E-06	-4.013394333482E-06	-9.00978702199096E-06	4.40451343463758E-06	0.998857250660237	-0.0127477295664139
0.5	0.00149073903322812	0.000856707800418469	-5.35546263296951E-06	3.26213922785022E-06	-2.12453912514219E-06	6.75408841573041E-06	0.998293090286787	-0.0156005297042278
0.6	0.00174345632731986	0.000741080305091954	-1.39075095264208E-07	2.80479403986377E-06	-5.81281598642836E-07	-1.33947284029675E-07	0.99863890095695	-0.0182657848680821
0.7	0.00189074420664648	0.000376327011423585	8.84582235115455E-08	2.21798444116809E-06	4.90016059809883E-06	-3.40118480809266E-06	0.998366601340575	-0.0213485493225163
0.8	0.00196580524514791	3.66695690450307E-05	4.52584203717089E-06	8.24427674681155E-07	2.74272698567888E-06	1.99866270471682E-06	0.998071330798938	-0.0235762706714706
0.9	0.00196025349532655	-0.000324284222139012	-1.52368223538813E-07	-4.215154173696E-06	-3.41587717656465E-06	-3.10665706012913E-06	0.997932888323275	-0.0260787339431208
1	0.00162621112810799	-0.000787275955739272	1.05905466824426E-06	4.28808275001199E-06	3.32408694276641E-06	9.32752859573895E-07	0.99735364974277	-0.0278603015842947
1.1	0.00125190251922187	-0.000672287186127518	9.03608950025416E-06	5.18474226895046E-07	-3.57539031903081E-06	-4.99105825835058E-07	0.996950683392326	-0.0295199051041447
1.2	0.00116448149488608	-0.00102756031531576	3.75799027202666E-06	-1.19880847337825E-06	-4.09359432323716E-06	-2.43592517776081E-06	0.996539729884919	-0.0303977328028037
1.3	0.000768383931733834	-0.00182767069076309	-7.61307203071064E-07	-1.42589829225904E-06	-2.58642129502893E-06	-8.70123736918936E-06	0.996935112295201	-0.0311727241515318
1.4	0.00012455931540653	-0.00285638278219138	1.49729044945133E-08	3.44591741448666E-06	-4.28048953234881E-06	-4.12442812616942E-06	0.996926858744785	-0.0333178195008375
1.5	-0.00058478040011218	-0.00334986235473441	-1.29611601113403E-06	4.42766878375176E-06	6.54678664194796E-06	-7.41133494485278E-06	0.997079176946129	-0.0367793559207908
1.6	-0.000718820099338718	-0.00340265547899079	1.6281495297364E-06	-4.89052879881969E-07	4.2376086933629E-06	-5.39068128792349E-06	0.996461885123942	-0.0400196203562163
1.7	-0.000885757124214326	-0.0035275399593127	5.31256590380547E-07	3.95332002431678E-06	-8.27599604357141E-06	3.1271996321895E-06	0.996545566387282	-0.0425551035064049
1.8	-0.00107567511101697	-0.00347582423227825	1.83032812925866E-06	1.07716118333617E-06	5.64797695762857E-07	-1.75986583290015E-06	0.996320978528821	-0.0453062149703359
1.9	-0.00128162579399181	-0.00352679663385513	3.23209430141071E-06	3.01387506245552E-06	-1.82878177471459E-07	-2.32733793434493E-06	0.995915326824326	-0.0477692952639188
2	-0.00172375128591002	-0.00340820981892989	-1.72479651878659E-07	2.00036903252003E-07	-1.21424964409019E-05	5.40585699707842E-06	0.994454214101389	-0.0503072144620932
2.1	-0.00170533629132382	-0.00318976861588927	6.67657084416852E-07	-1.37949536575422E-06	1.37812441388165E-05	4.96370000078955E-06	0.994332668696112	-0.0515093362723236
2.2	-0.00182759879835093	-0.00332253101990135	1.6425428644255E-06	-1.51336049033546E-06	2.68538954860602E-06	-6.19859759519238E-06	0.994687717411692	-0.0537206003275516
2.3	-0.00218519679006029	-0.00347686668956473	-1.68266288483551E-06	-3.42208732001488E-06	-1.78503010672887E-06	-4.58501615345209E-06	0.994537973951687	-0.0554793009461212
2.4	-0.00267217981163569	-0.00361893234177499	-1.19790194254099E-06	-4.39388391151151E-06	3.04000982099224E-06	1.08690333366077E-06	0.994598814091513	-0.0585567021190622
2.5	-0.00351365340943459	-0.00357538515577297	5.36768607731208E-06	5.66517059820148E-06	-2.62048489484027E-06	1.6118164340445E-05	0.994060968228729	-0.06074468210292
2.6	-0.0039899809502294	-0.00298241295430562	-2.27622332415391E-06	2.70515928963366E-06	4.37900667875872E-07	-4.30448151221854E-06	0.994061623950509	-0.0632908418544504
2.7	-0.00409521623344753	-0.00255662315083171	-2.39865317029608E-06	-3.63400856862174E-06	2.15448622832368E-06	-2.56415103032182E-06	0.993721117241311	-0.0660399503519328
2.8	-0.00405236524599686	-0.0022331096705072	3.99295127372366E-06	2.31363576272087E-06	9.81758017292136E-06	-6.73514637273652E-07	0.994000853311961	-0.0677928825734438
2.9	-0.00387751514444948	-0.00209830486539717	1.28609891347683E-05	7.28910246828163E-07	2.45472831651913E-06	-1.16955173523455E-05	0.993990480546872	-0.0697158449304491
3	-0.0038368904239574	-0.00198188186414582	-3.85112414406527E-06	1.03936122740445E-06	-4.13851195228235E-06	-1.60347076020082E-06	0.994046090250891	-0.0722020536094875
3.1	-0.00345481697114697	-0.00192403949896593	4.79014731570333E-06	-9.82598510802877E-06	1.06684230720934E-05	2.4245275427621E-06	0.993964238874453	-0.0740902574891802
3.2	-0.00334500426606511	-0.00221760935802555	-5.35304126958214E-06	-7.41118601786584E-06	1.56133231231249E-05	5.40788282434957E-06	0.993996247998401	-0.0758928202843958
3.3	-0.00345467946702443	-0.00252652231648045	-8.79085459521305E-06	2.52708402051368E-06	-8.55621792710717E-06	-1.75505726660845E-06	0.994073918250393	-0.0791641785352229
3.4	-0.00381016186874853	-0.00282569800835705	9.07112268014789E-06	-7.54105197241559E-06	-7.35068071762853E-06	4.21889163802671E-06	0.994378378907121	-0.0813025250808595
3.5	-0.00446868419922791	-0.00288972479274822	3.26696870206974E-07	-5.3200785897749E-06	-4.38427564987236E-06	-8.93450261322389E-06	0.99406895649099	-0.0845982121882437
3.6	-0.00479230125242279	-0.00263370390922868	4.06158408078871E-06	4.90393537608316E-06	-7.11852009331867E-06	8.97582827005704E-06	0.993465666155687	-0.0867536358730441
3.7	-0.00515179838989352	-0.00252389699447718	1.53597472601985E-06	-4.52113385073561E-06	-5.08726189743723E-06	-6.59249020347722E-06	0.993584382791792	-0.0891527848584119
3.8	-0.00553255737173952	-0.00228101145683852	7.28694020290445E-06	-5.17838426296039E-06	-5.87210335624567E-06	-2.42975945934022E-06	0.993571729716297	-0.0911838244161061
3.9	-0.00580058538436391	-0.00195783308103318	-4.02765943918049E-06	-3.58609126846274E-07	-2.53226808501124E-06	1.12725548139922E-06	0.993682428206213	-0.094605813855588
4	-0.0060982639728428	-0.00146669634794168	-3.38240710129822E-06	-9.00505854761241E-08	1.18347868125696E-06	8.66857317399986E-06	0.992797065942418	-0.0959614129008225
4.1	-0.00583146475780038	-0.00092074309603014	-2.88966362755636E-06	-3.86923919466867E-06	5.87084585449321E-06	3.05462853480157E-06	0.99313282935127	-0.096981622267267
4.2	-0.00561646858440547	-0.000820017611507324	-7.67782803558423E-07	-2.16031727007516E-06	5.70794607166934E-06	-1.82913772058964E-06	0.993234547655114	-0.0996627686826319
4.3	-0.00553897415653201	-0.000787848314544215	-5.1972465617869E-07	3.2361163123996E-06	2.12653152345837E-06	1.78694083070725E-06	0.993468173513919	-0.101843345547984
4.4	-0.00566708507667018	-0.00083664694862894	2.56975482474308E-06	3.45132419000431E-06	7.17809170705719E-06	3.93330113540946E-06	0.993301194802924	-0.104421686428965
4.5	-0.00608685507308096	-0.000612492731093091	-6.47851500700425E-06	-2.47803735768439E-07	-8.58375862574823E-06	-2.13859687096244E-06	0.99326684997177	-0.106471186181782
4.6	-0.00615273228341783	-0.000184533137407904	-9.93589911501063E-06	-9.26276194100469E-06	3.24696216716677E-06	-2.7264320317336E-06	0.993404441558951	-0.109394055039485
4.7	-0.00617641272719245	1.13220434322878E-05	1.21983820522686E-07	1.86812797061856E-06	6.08501721246606E-06	-6.72982226741029E-06	0.993480759059118	-0.111630235964856
4.8	-0.0062750619900399	0.000225518385780739	-6.40858964147777E-06	2.06797340540885E-06	8.14105597023522E-07	-1.27652046345862E-05	0.993261236953483	-0.114251036157728
4.9	-0.00630726207632343	0.00041118750193126	-3.45049024792007E-06	8.14843748218478E-06	5.4291039357569E-07	9.39347877128084E-06	0.993074473905786	-0.116219720689
5	-0.00638735808339637	0.000726914144540076	9.67313052747594E-06	-4.04886665745247E-06	-6.95905219614121E-06	3.56986056470569E-06	0.993129891965676	-0.118069705962476
5.1	-0.00592552091506115	0.000991067574082775	-3.61362198171558E-07	-3.26008818626641E-06	-3.87971941829468E-06	-1.8038618318167E-06	0.993225752631238	-0.119681839340221
5.2	-0.00563315203562651	0.000889550953724334	-1.06160190325186E-06	-4.49916292753856E-06	8.79666016136102E-06	5.60610505895847E-06	0.993226787880082	-0.122071581668275
5.3	-0.00549111734242468	0.000800453008964421	2.2800617497657E-06	6.81421587396545E-06	8.81089469413028E-06	3.15719846712771E-06	0.993311054758087	-0.124660269528256
5.4	-0.00549686000357015	0.000693518323941203	2.71974653837925E-06	-3.14648371960788E-06	-2.68286784434024E-06	1.49540363477243E-07	0.99361295993509	-0.127982674363327
5.5	-0.00582098203396054	0.000961494108489416	2.10592942302524E-06	9.3525077732539E-06	-3.93062357081074E-06	-5.05521633856182E-06	0.993115085302938	-0.131584538700275
5.6	-0.00561877940826035	0.00126386507706457	-5.87277588029203E-06	-1.14128351856934E-06	4.88610404998095E-06	1.95340551569301E-06	0.992536169019129	-0.133985867422555
5.7	-0.00579092729621273	0.00134040771193474	3.34859511396996E-06	-1.42513426418299E-06	-5.0610822274597E-06	-4.31007637471912E-06	0.992455276044047	-0.13653999883526
5.8	-0.00609901037832687	0.00166527075964017	-2.058926124786E-06	-4.76378465002857E-06	9.50020439222629E-07	-5.83675367576586E-07	0.992475043159542	-0.139021824362903
5.9	-0.00640364000324622	0.00220700405797152	-3.89289839535214E-06	6.21583788652724E-07	3.87594516211108E-06	1.25369853085334E-06	0.99222869965936	-0.141879573784375
6	-0.00683978153919361	0.00309587764730674	-5.95509100624589E-06	5.06350641322563E-06	-1.48953122333745E-06	1.97063305843958E-07	0.991039000438326	-0.143528090574464
6.1	-0.00629446957313476	0.0042481950408457	-5.952133541664E-06	-4.71586616894126E-06	-4.02249908418537E-06	4.34448484994914E-07	0.991724974955869	-0.144355466600482
6.2	-0.00548354129785114	0.00447571128686071	2.83461629135556E-06	3.13705559196557E-06	1.05775541980603E-06	7.25217912571897E-07	0.992126813692066	-0.146500230985919
6.3	-0.0048915253203855	0.00416110009326974	1.64724673480875E-06	-7.53188280790578E-07	-1.32260506283154E-07	1.38142075685899E-06	0.991791617895865	-0.149340554389719
6.4	-0.00487912849813587	0.00356364345278984	-5.21025310291273E-06	-5.63420793474694E-06	3.83838783001366E-06	6.92953849110343E-06	0.99077357281233	-0.152016453385425
6.5	-0.0051874819674204	0.00351841326378755	9.10188569449171E-06	-2.56724026145261E-07	-7.35244661033544E-06	-8.95341432279979E-07	0.990242723020103	-0.154199499563623
6.6	-0.00497806231381498	0.0034843041348834	-1.49368550015098E-06	4.69966499167706E-07	3.37609335596178E-06	-9.42140203881681E-06	0.990416447712091	-0.157233254108599
6.7	-0.00502659829052837	0.00343992087727866	5.82709844249689E-08	7.77862893145777E-06	-5.03984680464612E-07	-6.10666246431785E-06	0.989855673376228	-0.160001364677412
6.8	-0.00506768299108005	0.00355732532355242	4.26363522561513E-06	1.6563194923932E-06	2.07873188594819E-07	-5.252611793539E-06	0.989266449616042	-0.162588020989766
6.9	-0.0052011422587292	0.00366301651567807	-7.57440450241319E-07	2.49683914443032E-07	5.77372570453619E-06	-2.69673668633775E-06	0.988668743148031	-0.165147843746862
7	-0.00550354624969393	0.00429906409334505	8.04124734465888E-06	-4.78411381047752E-06	4.31948313005013E-07	-3.03080046065761E-06	0.987441284192135	-0.167121257405434
7.1	-0.0050389445263909	0.00481409544028797	3.86290581382767E-06	2.04286283120099E-06	7.89672262074026E-07	7.25236358835048E-06	0.986919120035419	-0.168713321066618
7.2	-0.00490770383080525	0.00491472824859135	-2.44807552486285E-06	3.7091340846476E-06	-1.34550860343461E-06	-3.83677009637534E-06	0.986265442638871	-0.170683483200398
7.3	-0.0050556490213326	0.00510196623835544	3.44908594911011E-06	-5.04465849638682E-07	-2.46262665428299E-06	-1.91717466925004E-06	0.985216067222395	-0.172701382932491
7.4	-0.00546380147901991	0.00528048473573452	-6.21654990594712E-06	-2.68711220452954E-06	3.78277344030939E-06	2.353354726084E-07	0.984380728003469	-0.175587792957923
7.5	-0.00626840251576614	0.00601780113668887	6.74095927389518E-06	-6.47845905792433E-06	-2.48007398325437E-06	8.12584862222242E-07	0.982256371488807	-0.179010434248017
7.6	-0.00595745423338477	0.0072396417092509	3.50508038861678E-06	5.19401895612061E-06	-1.02301595606201E-05	4.96742162987665E-06	0.980743358670084	-0.180973935912348
7.7	-0.00553101302883056	0.00774780731233707	6.06343107777744E-06	1.09215364954703E-05	2.96621432806038E-07	-1.13615214541268E-05	0.980467631077859	-0.183786022597198
7.8	-0.0048542825548604	0.00784105439338163	2.15925318147817E-06	9.77368511813825E-07	-3.07905441366801E-06	8.83109249227645E-06	0.980379250906071	-0.187161633045637
7.9	-0.00425218244354774	0.00762116688615752	2.54525642966606E-06	-2.32193685516172E-06	3.68900101163814E-06	3.3077221752383E-07	0.979853252242212	-0.190959773091084
8	-0.00376939290155744	0.00772787790834144	-2.80768490729211E-06	1.336714094609E-06	6.86841806051885E-06	-1.87738975501717E-06	0.978053470833181	-0.193365602569068
8.1	-0.00275996747007534	0.00737667243976099	-1.78937285498765E-06	7.59733702123071E-07	-3.71109562263963E-06	-1.24478882530959E-06	0.978351168254837	-0.195194103170766
8.2	-0.00234819294819174	0.00684266602477462	-7.77512895409009E-07	6.33713724582254E-06	4.88848008513869E-06	4.34169168934287E-06	0.978391964431369	-0.197843895189568
8.3	-0.00210501230925198	0.00645886356249427	-8.97660345480112E-07	-1.42118430184206E-05	6.84225684670529E-06	5.40668214064521E-06	0.977838324381153	-0.200873847250179
8.4	-0.00210187330801027	0.00612625249277563	3.74876885471993E-06	-3.43923800382061E-06	-6.97329402914398E-06	-1.19757569573458E-06	0.9768965531012	-0.203729867656598
8.5	-0.00239214522600054	0.00632102697430473	4.67507273193516E-06	5.7363591109646E-07	8.39518274754677E-06	-6.85456434100349E-06	0.976058919273597	-0.206296476726876
8.6	-0.00198524901337937	0.00655201767393208	-3.25557336368444E-06	4.12603232277398E-06	1.04233787827874E-06	1.10915894147498E-05	0.975548210809355	-0.209130253408176
8.7	-0.00180713704126765	0.00643723810260064	2.67621431888137E-06	-2.00700915586433E-06	4.76707036443899E-07	-5.55115036905134E-07	0.974844751062739	-0.21185109029808
8.8	-0.00173609129705918	0.00646851993716389	1.18095816289755E-07	-1.25284928932863E-06	-9.41392336708892E-07	9.76625210886457E-06	0.974038858315254	-0.214065544547779
8.9	-0.00165638301556208	0.00648525954736088	-3.65608892620648E-06	2.30161535544806E-06	4.82652786025788E-06	-1.81536426892696E-06	0.973731946951378	-0.215918805558195
9	-0.0016214936375808	0.00683380414676863	-1.88927689107439E-06	5.01957104103797E-07	-3.2342294117118E-06	-1.05303451483181E-05	0.973379625701628	-0.218066839134294
9.1	-0.000761674350397682	0.00698972301061	5.25361022491958E-06	5.75510785969442E-07	9.140336649193E-07	3.79393290347156E-07	0.973031059780444	-0.220006059229527
9.2	-5.87500133255856E-05	0.00658400228873174	-8.73668052753199E-06	-4.55178482547724E-06	-8.99391038635629E-07	-6.12530242939575E-06	0.972613241151209	-0.222550944864004
9.3	0.000413424444812581	0.00600804260976668	2.07150398818865E-07	6.21523864736422E-06	4.63229191406193E-06	-2.2081469231085E-06	0.972239190548242	-0.225179777595911
9.4	0.000554916237091813	0.0052640318571503	-1.90923320550341E-06	5.89153117192794E-06	-1.04795182921975E-05	7.77718346983833E-06	0.971560495980929	-0.228532880713664
9.5	0.000308367636949064	0.00516758145185091	3.15556302990546E-06	-7.57769365766964E-06	3.67132798549228E-06	-2.75539899064115E-06	0.969981610146109	-0.231706030869333
9.6	0.000445115096103709	0.00486189097429435	4.51569365878733E-06	5.55470907986397E-06	-6.13929106030812E-07	7.06751532953876E-06	0.968829197192807	-0.234235036839619
9.7	0.000121077995273858	0.00455579846204488	-2.61582677276956E-06	-3.92489414548077E-06	3.6619540578915E-06	-7.52776263344304E-06	0.968023595205433	-0.236670078824547
9.8	-0.000372584568686055	0.00455954975411496	-5.38944298453724E-07	-4.20785254687628E-06	6.27152320741335E-06	8.66331372359758E-07	0.967489492364062	-0.238906168500865
9.9	-0.000911790303692159	0.00489213781380503	-2.6869068980719E-06	-5.83845024472333E-07	-8.47174032108162E-06	5.51062222207577E-06	0.966131527967542	-0.241049064794997
10	-0.00139751764746336	0.00580991007838252	4.22548146387004E-07	-1.74886389428331E-06	-3.10122360052866E-06	-7.94363057334061E-06	0.96427315564917	-0.241160399032466
10.1	-0.000881752680279526	0.00665551224304285	2.25211923183678E-06	4.75496985190884E-06	-3.07134106622288E-06	9.83637035578558E-06	0.964750406362098	-0.241544929248871
10.2	-0.000368679926318867	0.0069817859848601	-5.39199573219863E-07	-1.04507132187026E-06	-1.21461485719897E-06	-3.10675335546951E-06	0.964706033109537	-0.24292885371272
10.3	8.4598316606435E-05	0.00716157293700699	1.12707251814154E-05	-2.94918322260058E-06	1.00191263410386E-05	-4.85448678394804E-06	0.96406990405103	-0.244742496364678
10.4	0.000387678777135001	0.00721745642066556	-6.22498169365176E-07	2.14241769482766E-06	3.01763787715224E-06	-2.18419172196121E-06	0.96275230030282	-0.246643109165999
10.5	0.000518309230810326	0.00773141820975102	-6.08692302891234E-06	4.6357930445494E-06	1.5711651205978E-06	4.29165232186397E-06	0.961561073629462	-0.248224730572186
10.6	0.0016184163750405	0.00803170768735403	-7.0699277981571E-06	1.06633133058556E-05	7.01114239660482E-06	4.24792365616506E-06	0.961267252615318	-0.250201748523716
10.7	0.0024679298026241	0.00786551121053181	-3.20290176481422E-06	1.56508692148246E-06	-5.34783307878544E-06	3.16539794223715E-06	0.960668237106515	-0.25239575544975
10.8	0.00316467206164495	0.00747905233175096	-1.91839708434388E-06	4.97589658528973E-06	8.46339382086645E-07	-3.19299593869838E-06	0.960255026699522	-0.254140815584108
10.9	0.00343374706827423	0.00702041115559703	-5.73303473481893E-06	-1.04915059654695E-05	4.91701209987931E-06	1.06698180130943E-05	0.959870046167169	-0.255930535575034
11	0.00359066033284466	0.00707168298838843	2.95718615743289E-06	2.60770962682427E-06	7.86609574390911E-07	-1.12028625070504E-05	0.95924424212662	-0.257102746177991
11.1	0.00435633314719448	0.00684738257602914	3.84611571865271E-06	1.45314251528628E-06	2.54533834634571E-07	-7.35103968362396E-06	0.959174797162639	-0.258311272779643
11.2	0.00476147548360571	0.00627096663845362	-4.40155377124423E-06	-1.9653977730245E-06	-7.29873653260892E-06	-4.83574507206634E-06	0.958897168016309	-0.260086913121739
11.3	0.00499912416957532	0.00565418451883859	6.62561850243979E-07	-6.35780289189532E-06	3.75132583508282E-06	1.40959152659468E-05	0.958796635632768	-0.262202752471113
11.4	0.00490488804155039	0.00506200041500076	-5.10369353825055E-06	8.11602499958036E-06	-1.45539105287289E-06	4.06378810664793E-06	0.958079644818851	-0.26544368459107
11.5	0.00459861914128653	0.00500202050858754	4.50775207664603E-06	8.06187494507256E-06	-9.25294047743693E-06	1.57635697325591E-06	0.955897407567136	-0.268543558125235
11.6	0.0048829110893482	0.00469249895229005	-3.82552420024987E-06	1.39349499137509E-06	5.05355553661222E-06	8.10288958848104E-06	0.954502092542376	-0.270988437353242
11.7	0.0047424059177988	0.00421173515352922	2.23085804411805E-06	1.04847051945106E-05	5.41231447359601E-07	-3.63295066056134E-06	0.953623177321333	-0.274256147262682
11.8	0.00451488762506326	0.00404888169177265	1.41870094248505E-06	4.44401389011317E-06	2.23622551647167E-06	4.51848157519798E-06	0.952490946462752	-0.277796554398438
11.9	0.00430925396650161	0.00415215750892072	7.39840793996614E-06	1.05289410941019E-05	3.86455687750268E-06	4.07990400003288E-07	0.951006882788686	-0.280096613710824
12	0.00439144043318764	0.00477454484973225	2.35459918948525E-06	-5.12579956549343E-06	-4.06402116125604E-07	1.7420416177589E-06	0.94919683379439	-0.280107760332016
