# GHZ S RI R 50
0.2	0.00116994737767684	0.00245969055960669	4.78929014558466E-06	-2.9852601251509E-06	-1.37122715747134E-05	1.31175698914217E-05	0.999268401063772	-0.00731418597878339
0.3	0.00159845080585705	0.00160371282313145	2.86688367341035E-06	6.62035018505391E-06	-1.66675051166056E-06	-9.31353738003011E-06	0.999074009985083	-0.0103720500036207
0.4	0.00182422760311063	0.000918082120498852	-1.86288774180598E-06	-4.01172395370707E-06	-9.0060064607971E-06	4.40420618196398E-06	0.998783611886845	-0.0132204125963986
0.5	0.00156118998330449	0.000586761044074832	-5.35418720473704E-06	3.26207819583525E-06	-2.12350083269285E-06	6.7530881350885E-06	0.998162510942261	-0.0159474763674949
0.6	0.00189661759207524	0.000497937199982224	-1.38148234977871E-07	2.80432328276599E-06	-5.81217817321567E-07	-1.33735877034018E-07	0.998550207802545	-0.0187445311206323
0.7	0.00197938013965239	9.99886115827681E-05	8.91543815055562E-08	2.21740100456651E-06	4.89783345068659E-06	-3.40192095648132E-06	0.9981665483319	-0.0218063640117388
0.8	0.00202260056785229	-0.000209119854495557	4.52489616664367E-06	8.22770878055769E-07	2.74262967703938E-06	1.99725868020466E-06	0.997862028677547	-0.0239624713950375
0.9	0.00205976891069294	-0.000611794129793824	-1.53619161946881E-07	-4.21367390309226E-06	-3.41567590662922E-06	-3.10454505851324E-06	0.997757426864333	-0.026494379406564
1	0.00159006460653885	-0.00123084943276781	1.05937892615392E-06	4.28601656330544E-06	3.32280694318229E-06	9.3173592657986E-07	0.996992251438983	-0.0283884616081594
1.1	0.00118186722586759	-0.00115244983260031	9.03130635791156E-06	5.16462019452926E-07	-3.57355407654934E-06	-4.98150802407962E-07	0.996386046739149	-0.0301508141479026
1.2	0.000935163477368159	-0.00183178466682927	3.75447664404619E-06	-1.19844022049161E-06	-4.09044705978902E-06	-2.43304480224357E-06	0.995418078646439	-0.0313355649389067
1.3	0.000164862469370259	-0.00283704514370766	-7.60618658936723E-07	-1.42408049755193E-06	-2.58467566336426E-06	-8.69046159357748E-06	0.995064610373522	-0.0322577449204607
1.4	-0.000706699097264725	-0.00379803900735815	1.57130895463131E-08	3.44182957121023E-06	-4.27632291089513E-06	-4.11859781909989E-06	0.994800489516795	-0.0343508713196158
1.5	-0.00146699750186042	-0.00397692843209101	-1.29328171623913E-06	4.42408632655573E-06	6.53802477176935E-06	-7.40696432313676E-06	0.99511118553096	-0.0376045179419858
1.6	-0.00132839644693971	-0.0037336104927336	1.62691365200221E-06	-4.89396553363257E-07	4.23273361091194E-06	-5.38894821870052E-06	0.99506068000779	-0.040478129560021
1.7	-0.00129934115738971	-0.00370253551174944	5.32381868331986E-07	3.95163741512238E-06	-8.27179701953956E-06	3.12878860084874E-06	0.995667332550737	-0.0427557380870277
1.8	-0.00129402338118433	-0.00355740879262031	1.8303449142964E-06	1.07652424837058E-06	5.64253702232737E-07	-1.75975837143837E-06	0.995927546684772	-0.0453585851842973
1.9	-0.00134644083408664	-0.00364307634330879	3.23315210428483E-06	3.01304703928336E-06	-1.83585665452822E-07	-2.32739305569178E-06	0.995893623725698	-0.0479464007050002
2	-0.00183172503851731	-0.00352930779466917	-1.72402623633571E-07	2.0007266014684E-07	-1.2139757104047E-05	5.40913705230913E-06	0.994206461355907	-0.0505518632300822
2.1	-0.00168731067066854	-0.00323052883578449	6.67579256446647E-07	-1.37958520206607E-06	1.37820200449741E-05	4.96287021529263E-06	0.994270306727443	-0.0513977997642269
2.2	-0.00173567352024176	-0.00340075710900886	1.64262293675351E-06	-1.5136857512859E-06	2.68521203790302E-06	-6.19959508889107E-06	0.994799375279017	-0.0536006577268969
2.3	-0.00202386865433747	-0.00357864986147425	-1.68319518946883E-06	-3.42236655377373E-06	-1.78568354167069E-06	-4.58543391666336E-06	0.994765927075135	-0.0553597916431935
2.4	-0.00240257305520762	-0.00381541054995243	-1.19832845433289E-06	-4.39420601612578E-06	3.04037012918194E-06	1.08678615041361E-06	0.994969553314589	-0.058528142289038
2.5	-0.00329880405149726	-0.00396519803326408	5.36834138730718E-06	5.66616699493754E-06	-2.62131202379722E-06	1.612051864686E-05	0.994437831628271	-0.0609130134554752
2.6	-0.00381131722289555	-0.00340047534723384	-2.27666745106393E-06	2.70583263832361E-06	4.37885821816303E-07	-4.30546856700257E-06	0.994387896020017	-0.0635680890545172
2.7	-0.00393968103582048	-0.00306200840448561	-2.39909042188238E-06	-3.6347890532308E-06	2.1549660077665E-06	-2.56464428964525E-06	0.99395175213243	-0.0663363235919019
2.8	-0.00392294202071864	-0.00282112046704392	3.99345675254503E-06	2.31459192815119E-06	9.81961419653684E-06	-6.72427522880521E-07	0.994182397416967	-0.068026727776513
2.9	-0.0038143047939261	-0.00280684677114791	1.28629422803803E-05	7.32480411055419E-07	2.45827430460885E-06	-1.16968130515406E-05	0.994089269484601	-0.0699136587977844
3	-0.00400482921285954	-0.00272439679051739	-3.85227225657707E-06	1.03804603672971E-06	-4.13867575966566E-06	-1.6054063385404E-06	0.993903326587646	-0.0723331512842143
3.1	-0.00370377947129163	-0.00253352419687035	4.79477927685928E-06	-9.82446121603684E-06	1.06679955682583E-05	2.42938902076246E-06	0.993557207937634	-0.0739627846808634
3.2	-0.00366606119406743	-0.0027217457111941	-5.34846857380381E-06	-7.4140977785213E-06	1.56095805053604E-05	5.41693765714159E-06	0.993449658683053	-0.0754352320885195
3.3	-0.00378124422123783	-0.00288810151444105	-8.79204013084506E-06	2.52060612555532E-06	-8.55435219462894E-06	-1.76106261007488E-06	0.993539727327661	-0.0783999939180834
3.4	-0.00406127374083088	-0.00310309555622633	9.07733843406866E-06	-7.53350779328772E-06	-7.35414986775011E-06	4.21278519418903E-06	0.994044522072611	-0.0803549859627
3.5	-0.00474248092792915	-0.003128186854899	3.30275784387903E-07	-5.32079390287177E-06	-4.37912902945549E-06	-8.93896933253719E-06	0.993853895145132	-0.0838263097871424
3.6	-0.00493861180154915	-0.00275156877083991	4.05897730382976E-06	4.90635213024862E-06	-7.12374502546066E-06	8.97214030852644E-06	0.993205452306399	-0.0858792495104807
3.7	-0.00518258561508047	-0.0026891156009031	1.5386978972595E-06	-4.52052464832384E-06	-5.08375014689717E-06	-6.59585911157307E-06	0.993549447989362	-0.0882522068358159
3.8	-0.00550365409771607	-0.00252342929175109	7.29091077274669E-06	-5.175209007281E-06	-5.87169252075791E-06	-2.4333501976205E-06	0.993789099218636	-0.0904188478653599
3.9	-0.00575901701365264	-0.00232608430460398	-4.02851235818066E-06	-3.60276205457149E-07	-2.53333452437545E-06	1.12654102241907E-06	0.994080477622223	-0.0942286829680896
4	-0.00624558959813231	-0.00190389193752006	-3.38226807920736E-06	-9.08465605341715E-08	1.18138949048393E-06	8.66855100906879E-06	0.992672982673637	-0.0959552644951451
4.1	-0.00599279219594458	-0.00119372369934842	-2.88762415386221E-06	-3.87008747756346E-06	5.86883385228769E-06	3.05689012030643E-06	0.992803123762113	-0.0966135188849623
4.2	-0.00571151801100906	-0.00104419165100664	-7.66707875436691E-07	-2.16030341660292E-06	5.70782174519794E-06	-1.82633002376663E-06	0.992881711434196	-0.0992012274760382
4.3	-0.00555260735238315	-0.000991571412937244	-5.21046706113179E-07	3.23496055425966E-06	2.12511557681814E-06	1.78739879071213E-06	0.993082435901336	-0.101310817222191
4.4	-0.00557223205913816	-0.00110644121020755	2.56688290567149E-06	3.45120696758009E-06	7.1730320459177E-06	3.9353733078303E-06	0.992911277350863	-0.103892922752691
4.5	-0.00608869063955907	-0.00101977998237302	-6.47607840751671E-06	-2.52676614383753E-07	-8.57914460871718E-06	-2.14442537959181E-06	0.992826899435192	-0.105895530926086
4.6	-0.00619180898752326	-0.000515740716790607	-9.92972936703231E-06	-9.26828227303933E-06	3.2484380941322E-06	-2.72431098082976E-06	0.993109820265137	-0.108877496004029
4.7	-0.0062324713929341	-0.000309960413778399	1.21258075089604E-07	1.86819430111112E-06	6.08769753974918E-06	-6.72752224424766E-06	0.993196149197475	-0.111243828060368
4.8	-0.00633280907864925	-3.89083516215559E-05	-6.40912197580954E-06	2.06655682092616E-06	8.16979720161504E-07	-1.2765157587899E-05	0.992988014402749	-0.113902110378612
4.9	-0.00628567239133306	0.000159622877684084	-3.45187750837284E-06	8.14758285090526E-06	5.41185472591209E-07	9.39331641137334E-06	0.992903411910813	-0.115880097355323
5	-0.00640572360593713	0.000437389075948441	9.67522667576062E-06	-4.04746956896827E-06	-6.96069166516225E-06	3.56894282190129E-06	0.99307806297404	-0.117824731748313
5.1	-0.00581401174751927	0.000761603360490525	-3.61378955385307E-07	-3.26046670222362E-06	-3.88015281959314E-06	-1.80409936894679E-06	0.993229306110623	-0.119510258060454
5.2	-0.0054349781084692	0.000530980242365732	-1.06169396777271E-06	-4.49917831518391E-06	8.79683327283626E-06	5.60598507657054E-06	0.993274828560504	-0.122008883757276
5.3	-0.00531026580119689	0.000330887595901396	2.27976293876966E-06	6.81373936996225E-06	8.81016626683074E-06	3.15712032383198E-06	0.99332651175262	-0.124705604658899
5.4	-0.00534880454588503	0.000143772520031229	2.72009527912516E-06	-3.14598626167558E-06	-2.68279336696977E-06	1.49154988917398E-07	0.993657947894836	-0.128077751200094
5.5	-0.00586873816306508	0.000414653336094222	2.10694794586625E-06	9.35470800050126E-06	-3.93186448234918E-06	-5.05625696481236E-06	0.99311565797434	-0.131961692961215
5.6	-0.00554282287355084	0.000913219704637331	-5.87337210836812E-06	-1.13973663021957E-06	4.88687398814276E-06	1.95216720833257E-06	0.99236840603924	-0.134257824577348
5.7	-0.00556213422105319	0.000940790784043963	3.3482845623215E-06	-1.42597484251287E-06	-5.06220266218903E-06	-4.3088830475194E-06	0.992463858062967	-0.136753793056293
5.8	-0.00575380173475205	0.00116458193820984	-2.06040415803054E-06	-4.76339445159653E-06	9.49892214639871E-07	-5.83977736034705E-07	0.992726214359962	-0.139384916632432
5.9	-0.00592186884586286	0.00144695371618115	-3.89259395830034E-06	6.23468310959417E-07	3.87654881531332E-06	1.25182055757571E-06	0.992653800916284	-0.142797000904834
6	-0.00662696379272401	0.00183535279249524	-5.94914985043195E-06	5.06306551421099E-06	-1.48852575989893E-06	1.97611350442628E-07	0.990526245292106	-0.145069628891589
6.1	-0.00656033104890952	0.00294394839130177	-5.94715944387412E-06	-4.71380082940181E-06	-4.0198386415649E-06	4.33373332467708E-07	0.990529554798	-0.145335706765986
6.2	-0.00619616000947593	0.00330814831737297	2.83156279917771E-06	3.13665353392236E-06	1.05682625924448E-06	7.25314963494249E-07	0.990521212535527	-0.147017941635585
6.3	-0.00583091282835378	0.00338453288238058	1.64694075836253E-06	-7.51944536409711E-07	-1.32968056978629E-07	1.38074077413136E-06	0.990027673270314	-0.149310392682229
6.4	-0.00568626507853166	0.00307269594060567	-5.20536176019987E-06	-5.63373325839959E-06	3.8336006953292E-06	6.92786006504221E-06	0.989087264647761	-0.151746202197183
6.5	-0.00595712183499169	0.00317634666592225	9.09775259862291E-06	-2.50578946693406E-07	-7.34837813047964E-06	-8.99784067482877E-07	0.988590076536305	-0.153460178314179
6.6	-0.00544261646912275	0.00331358935211245	-1.49385238445733E-06	4.69321261511596E-07	3.38002363254241E-06	-9.41975966086856E-06	0.989548000168771	-0.156437620432407
6.7	-0.0053298663197981	0.00324500609589468	5.70703519793587E-08	7.7790263955192E-06	-5.03064999992188E-07	-6.10704539684875E-06	0.989339855872771	-0.159434472716839
6.8	-0.00521750328415272	0.003423701214359	4.26382990645082E-06	1.65661701203504E-06	2.08123847134954E-07	-5.25293450127695E-06	0.989044562284439	-0.162082257940013
6.9	-0.0050934844410074	0.00347256315952703	-7.5749745206189E-07	2.49644496079105E-07	5.77421521244755E-06	-2.69647779602103E-06	0.988806574099238	-0.164780202937189
7	-0.00547789109259185	0.00397412498360104	8.04337391255544E-06	-4.78321851086545E-06	4.3261297318293E-07	-3.03115844865929E-06	0.98751140711068	-0.166922117769679
7.1	-0.00481496036359367	0.00466190947627917	3.86331323630555E-06	2.04420252456616E-06	7.88201139208835E-07	7.25418035464631E-06	0.987155340905517	-0.168187117950733
7.2	-0.00447288722395203	0.00464794737383709	-2.44999488090496E-06	3.70914381815508E-06	-1.34445282791387E-06	-3.83817324693907E-06	0.986834736881917	-0.169990972327417
7.3	-0.0044579976123838	0.00472213845347557	3.45056193971822E-06	-5.0250859856451E-07	-2.46227568168001E-06	-1.91934123076186E-06	0.986261494869566	-0.171796457784925
7.4	-0.00458696525142051	0.00469554901900245	-6.21859635405623E-06	-2.69513563464921E-06	3.78537309568591E-06	2.39171499835526E-07	0.986440530009063	-0.174633300375104
7.5	-0.00542748295858182	0.00484455819635919	6.75474232714737E-06	-6.48429236233895E-06	-2.48424686683588E-06	8.12382082725461E-07	0.985156925144875	-0.179402519615804
7.6	-0.00537356591132677	0.00580825642998632	3.50899756928843E-06	5.20242888393988E-06	-1.02462734815811E-05	4.97230579616204E-06	0.983293481097657	-0.182112508432955
7.7	-0.00523030905879013	0.0060790815779408	6.07203501011016E-06	1.09396296359987E-05	2.98242117483336E-07	-1.13796773981592E-05	0.982829966389366	-0.185439899752396
7.8	-0.00487157960788611	0.00617403909851611	2.16289946435598E-06	9.78877627150978E-07	-3.08369844102521E-06	8.84595547337775E-06	0.98240171631654	-0.189090407200882
7.9	-0.00445726568940701	0.00600913480104501	2.54881305225037E-06	-2.32657406412329E-06	3.69525960967462E-06	3.30222894809242E-07	0.981479526335858	-0.193238090122568
8	-0.00437091169608738	0.00625157444140771	-2.80953919863478E-06	1.33986024770878E-06	6.87386937394558E-06	-1.88373073537923E-06	0.978302324237381	-0.195748275082491
8.1	-0.0033008566382458	0.00628721627863917	-1.79036947322872E-06	7.6031881357953E-07	-3.71337887569855E-06	-1.24523805476139E-06	0.978189228644021	-0.196358710379326
8.2	-0.00286933830905555	0.00587247054088845	-7.78427686959259E-07	6.3408565451153E-06	4.8910824626669E-06	4.34462623349042E-06	0.978280399372601	-0.198599775985458
8.3	-0.00261833004282213	0.00566502002278863	-8.97520084535289E-07	-1.42191429547991E-05	6.84552530525408E-06	5.40973326515738E-06	0.977683248167186	-0.201382599489963
8.4	-0.0024778126393766	0.00543829266013756	3.74979306095031E-06	-3.44002762982638E-06	-6.97503418381468E-06	-1.19803053207079E-06	0.976683305369726	-0.204068725006331
8.5	-0.00291604206067772	0.00563337328980664	4.67611820092607E-06	5.75553108219368E-07	8.40003244748992E-06	-6.85324949007022E-06	0.975804119082709	-0.206314979610817
8.6	-0.00234783108489801	0.00620459690348846	-3.25782576767532E-06	4.12780297156953E-06	1.0414732336723E-06	1.10976005139118E-05	0.975643844468839	-0.209059162151188
8.7	-0.00192885038511259	0.00608468933480878	2.67727374002813E-06	-2.00821924936357E-06	4.76876107600517E-07	-5.55423544836055E-07	0.975136212351311	-0.211947522130964
8.8	-0.00170258541292429	0.00606150349229913	1.17796735630197E-07	-1.25334259185644E-06	-9.39068589962529E-07	9.77010320606508E-06	0.97443139207657	-0.214374979842964
8.9	-0.00141935081573193	0.00590802377183393	-3.6557155309432E-06	2.30298298833316E-06	4.82641890708793E-06	-1.81705291446932E-06	0.974097685397807	-0.216472698785049
9	-0.00152941071851901	0.00589101157180151	-1.88931588874877E-06	5.02185500531779E-07	-3.23552394376174E-06	-1.05305154630945E-05	0.973498051223183	-0.218850789300903
9.1	-0.000817143896159365	0.00602364932571813	5.25249823303652E-06	5.74512492042071E-07	9.13886236658063E-07	3.79155452006663E-07	0.972658643394424	-0.220743746652538
9.2	-0.000315918615176018	0.00557119715120873	-8.73114011533716E-06	-4.55095266767474E-06	-8.97774510332148E-07	-6.12217457694072E-06	0.971822497056743	-0.222891931824252
9.3	-8.88076822256948E-06	0.00517912682465804	2.03592846160834E-07	6.21188773360583E-06	4.63093182271156E-06	-2.20435025635747E-06	0.971358165371686	-0.224947497392481
9.4	0.000218667098900223	0.00462420026818797	-1.91343004596747E-06	5.8880706094672E-06	-1.04824903561714E-05	7.76611335335703E-06	0.971061755957867	-0.227875975732959
9.5	-6.04160979480371E-05	0.00465289196655322	3.15904383267189E-06	-7.57730870339141E-06	3.67289584391743E-06	-2.75422549424019E-06	0.969787934185466	-0.2313756400922
9.6	0.00041411050668383	0.00458032908615256	4.51400782049141E-06	5.55360432619903E-06	-6.14367842578792E-07	7.0655667045994E-06	0.968608406174015	-0.233793606597427
9.7	0.000358687900440792	0.00416583813369246	-2.61422598856845E-06	-3.92379820617571E-06	3.66171268490728E-06	-7.52432799942105E-06	0.96811088824251	-0.236221115908944
9.8	5.10276563707269E-05	0.00405018450816257	-5.38109210495429E-07	-4.20667007208365E-06	6.26949393357599E-06	8.67072651273876E-07	0.967958465886071	-0.238639050273216
9.9	-0.000258020378256902	0.00412681145036057	-2.68651101846206E-06	-5.83385942449802E-07	-8.46951743973696E-06	5.51077476422979E-06	0.966909495070796	-0.241476323799467
10	-0.00093301926422174	0.00462987636407346	4.2162735872322E-07	-1.74755314050919E-06	-3.10124726765568E-06	-7.93603838030574E-06	0.964035642544166	-0.242038033149053
10.1	-0.000494204638443988	0.00545001486988661	2.24931370748038E-06	4.75194886045002E-06	-3.07136892122333E-06	9.8282956369825E-06	0.964688150718275	-0.241772574080538
10.2	-9.47627446393599E-05	0.0055936115379138	-5.38751145425117E-07	-1.04464746001293E-06	-1.21347405545842E-06	-3.10542589869417E-06	0.96488296023328	-0.243457067427372
10.3	0.000212654939299906	0.00571424701776723	1.1265660326291E-05	-2.94851587860389E-06	1.00145019371699E-05	-4.85292208818482E-06	0.96419332957297	-0.245656331021213
10.4	0.000500925332534818	0.00562967964490199	-6.21490190375584E-07	2.14123410258085E-06	3.01509582722097E-06	-2.18366619528853E-06	0.96261395656886	-0.248046025876849
10.5	0.000253146417673763	0.00589049851238511	-6.08333954712589E-06	4.63279365251481E-06	1.57008594835514E-06	4.28907805871772E-06	0.960960677109786	-0.249702200912895
10.6	0.00098261645641211	0.00631755868002455	-7.06622645682507E-06	1.0663225378938E-05	7.01098952241011E-06	4.24555634887121E-06	0.960514548635788	-0.251796471147027
10.7	0.00144053285388967	0.00641976161866439	-3.20149970741349E-06	1.56662407396468E-06	-5.3451828044664E-06	3.16787390753021E-06	0.959405479826684	-0.253900913151086
10.8	0.00203828850155989	0.00658189304309802	-1.91464165574099E-06	4.97596733779519E-06	8.44022237416929E-07	-3.19278674535079E-06	0.958831052631666	-0.255048329462608
10.9	0.00262653798681512	0.00646645302475585	-5.73680850506653E-06	-1.04849446101054E-05	4.92115166367479E-06	1.06636385491258E-05	0.958724907378029	-0.256296779411757
11	0.0028174252332888	0.00660834081162037	2.95778081168716E-06	2.60674526308444E-06	7.83398570707904E-07	-1.12025402554593E-05	0.958379901785206	-0.257000273771078
11.1	0.00390741935074134	0.00668710823062918	3.84686861462703E-06	1.45154028349884E-06	2.51386817539166E-07	-7.35139571191109E-06	0.958910667055914	-0.257751569710414
11.2	0.00460080263791157	0.00607285912212335	-4.4018558609649E-06	-1.96375712780002E-06	-7.29976774996847E-06	-4.8328959507432E-06	0.959183308414582	-0.25938135964572
11.3	0.00499585809827084	0.00545374828668444	6.61756656000728E-07	-6.35672048301939E-06	3.75216367600785E-06	1.40929530458965E-05	0.959510737648515	-0.261389988026893
11.4	0.00515457319155946	0.00476253302401239	-5.10571828979241E-06	8.1149122773181E-06	-1.45638927699167E-06	4.06349559365065E-06	0.959522547805046	-0.264710634145414
11.5	0.00476296753375603	0.00450523900757688	4.51130778518152E-06	8.0646561767899E-06	-9.25681269422502E-06	1.57881669640942E-06	0.957481878917109	-0.268736464816029
11.6	0.00527314203839724	0.00435153326756477	-3.82501780924958E-06	1.39473019526091E-06	5.05614445220491E-06	8.10112832371128E-06	0.955873107304804	-0.271035597245881
11.7	0.00541920523854357	0.0037054847254894	2.23235326914625E-06	1.04843624261235E-05	5.40710398796507E-07	-3.63301994124005E-06	0.955454257712648	-0.274464624103052
11.8	0.00542910502876418	0.00326318712557112	1.41958306299856E-06	4.44486086696936E-06	2.23730535308587E-06	4.5192435876845E-06	0.954753511991621	-0.278617071925492
11.9	0.00547203154105434	0.00278183949570412	7.40920473429919E-06	1.05304542398583E-05	3.86704535293463E-06	4.05834749103765E-07	0.953361479419705	-0.282377745943508
12	0.00486127971256661	0.0028744284288311	2.34873693236315E-06	-5.12706749485029E-06	-4.04500190356491E-07	1.74206365270148E-06	0.949414801830022	-0.282951852868311
