# GHZ S RI R 50
0.2	0.000994156641259175	0.00277497028179196	4.7890833863092E-06	-2.98608085681941E-06	-1.37110269551998E-05	1.31201292329957E-05	0.999095147346412	-0.00717802659379009
0.3	0.00147062337726688	0.00192689156543685	2.86713775481928E-06	6.62016829610262E-06	-1.66712958457241E-06	-9.31338168406909E-06	0.998894273217391	-0.0101242178809195
0.4	0.0017589806183107	0.00123170039807189	-1.86248434812466E-06	-4.01142201765398E-06	-9.00534062787006E-06	4.40327830588423E-06	0.998587297194554	-0.0128738552135136
0.5	0.00147836405334293	0.000926681238802878	-5.35432604214905E-06	3.26055908357827E-06	-2.1247484277405E-06	6.75190065190971E-06	0.998002188063833	-0.0154092645752663
0.6	0.00194102289566641	0.000936449782383756	-1.38656286187871E-07	2.8041293940373E-06	-5.81158280044969E-07	-1.33834861170233E-07	0.998602054840619	-0.0182202698417249
0.7	0.00215865931810143	0.000502263862722037	8.8787853538266E-08	2.21709223253953E-06	4.89766243323112E-06	-3.40064452336013E-06	0.998243383116876	-0.0214072826089667
0.8	0.00229055753876751	0.000133341296890401	4.52374446159273E-06	8.23356825448076E-07	2.74167662627368E-06	1.99727877489425E-06	0.997902169928718	-0.0236514988508825
0.9	0.00239422169852896	-0.000355852742438384	-1.5278829235139E-07	-4.21248660366877E-06	-3.41411071217529E-06	-3.10428673598616E-06	0.997721248654803	-0.0262533137493787
1	0.00183548663838155	-0.00106476705768516	1.05784903601126E-06	4.28500684387893E-06	3.3215306252312E-06	9.32387028515151E-07	0.996801830380621	-0.028038832760021
1.1	0.00136170926413792	-0.000748474370316121	9.03019105545998E-06	5.19723563383695E-07	-3.57300494552755E-06	-4.99411231406615E-07	0.996415501306489	-0.029407810023049
1.2	0.00127940289441707	-0.00110933531033854	3.75581524556715E-06	-1.19708816298425E-06	-4.09029741075204E-06	-2.43533754572304E-06	0.996007343288157	-0.0302137261023618
1.3	0.000851357439154671	-0.00182096722727788	-7.60341085301231E-07	-1.42539340433623E-06	-2.58167288625395E-06	-8.69737358738621E-06	0.99649240360025	-0.0307766869563229
1.4	0.000311956798137198	-0.00281921105304759	1.36159158518874E-08	3.44478326461562E-06	-4.27745514883195E-06	-4.12474311413998E-06	0.996824119505843	-0.0329031087511422
1.5	-0.000472141147876028	-0.00326755517467078	-1.29691047748088E-06	4.42637466947208E-06	6.54714984272643E-06	-7.40810038365755E-06	0.997010658238231	-0.0364768110855081
1.6	-0.000416231338814842	-0.00329566815417588	1.62782339407517E-06	-4.88643178930229E-07	4.23748303666405E-06	-5.38857288641229E-06	0.996551532415365	-0.039791172437931
1.7	-0.000586344635859768	-0.00352767266468727	5.30423556020452E-07	3.95234107888225E-06	-8.27429790101376E-06	3.12490955766895E-06	0.996596348360154	-0.0424381168576384
1.8	-0.000804652081540668	-0.00352171217179244	1.82971795775427E-06	1.07716554581713E-06	5.64917998196972E-07	-1.75934860389472E-06	0.996357246247938	-0.0452560455109481
1.9	-0.00106560815195264	-0.00366989642353981	3.23136389481741E-06	3.01297149593075E-06	-1.82916259730109E-07	-2.32672535295691E-06	0.995869083028467	-0.0479896827057917
2	-0.00178784481591819	-0.00346865524293893	-1.72340573708684E-07	1.99899734404434E-07	-1.21332230211631E-05	5.40259642243677E-06	0.993661341722041	-0.0504318704806415
2.1	-0.00163176380769868	-0.00299162257713369	6.67708396668332E-07	-1.37831669000077E-06	1.37700921863361E-05	4.96536889664032E-06	0.99377271000663	-0.0509636045758599
2.2	-0.00161412493886277	-0.0031271285208385	1.6422320639532E-06	-1.51187812158347E-06	2.68634820189585E-06	-6.19411792363859E-06	0.994393339113887	-0.0531677102645388
2.3	-0.0018593129722448	-0.00332147418737544	-1.6803709210298E-06	-3.4209466812522E-06	-1.7822097750331E-06	-4.5832966502393E-06	0.994365288572333	-0.0549603802053263
2.4	-0.00223801547850842	-0.00362753556506219	-1.19515704162909E-06	-4.3920328257103E-06	3.03781995155229E-06	1.08774753565467E-06	0.994507347226469	-0.0581267493334128
2.5	-0.0033042948897313	-0.00379655309816728	5.36205665488677E-06	5.66610433806805E-06	-2.6291785561085E-06	1.61099798580352E-05	0.993894303275673	-0.0603822974383887
2.6	-0.00389006440860315	-0.00303307156524378	-2.27669791822581E-06	2.70319758551251E-06	4.39732503581794E-07	-4.30282457573812E-06	0.99386738988223	-0.0629032542122679
2.7	-0.00397534369232306	-0.00253774965686873	-2.39592158513842E-06	-3.63353136554215E-06	2.15473230910189E-06	-2.56203242062716E-06	0.993459483676762	-0.0655773007717826
2.8	-0.0038682153354535	-0.00218824897183014	3.98971569369638E-06	2.31471463853974E-06	9.81314804557998E-06	-6.67748103361374E-07	0.993762472471374	-0.0672158501111025
2.9	-0.00366190134724073	-0.00214596944455447	1.28541468393679E-05	7.37384293400182E-07	2.46155088139363E-06	-1.16880643774848E-05	0.993791603182252	-0.0690997819080551
3	-0.00382049456283493	-0.00201726158883586	-3.85050833364984E-06	1.03619792470056E-06	-4.13587680160614E-06	-1.60590253291909E-06	0.993799922214546	-0.0715390523955672
3.1	-0.00335527290661409	-0.00179530697854112	4.79496042833344E-06	-9.81822881459417E-06	1.06619638006116E-05	2.43098835418832E-06	0.993723827828789	-0.0732864211696982
3.2	-0.00318017712998116	-0.00209112092659678	-5.34432096643698E-06	-7.41243077819829E-06	1.56017136228267E-05	5.41877693689376E-06	0.993824802141753	-0.0749616597061887
3.3	-0.00323414285236005	-0.00241159444554969	-8.79013706728007E-06	2.51739602553548E-06	-8.55132061611896E-06	-1.76293561070161E-06	0.994042996361849	-0.0781140517750371
3.4	-0.00354868150993936	-0.00281049301552365	9.07831164536442E-06	-7.52976605457692E-06	-7.35437724656915E-06	4.21001672439944E-06	0.994614986810724	-0.0802385728338616
3.5	-0.00441351714802871	-0.0028961380960002	3.31262646257671E-07	-5.32042324973694E-06	-4.3771852919068E-06	-8.93927949451878E-06	0.994345362608138	-0.08384176171976
3.6	-0.00465041081087251	-0.00244388330669962	4.05729568492971E-06	4.90665463877353E-06	-7.12490394237968E-06	8.96929312339992E-06	0.993614484410831	-0.0858594791660542
3.7	-0.00489089125543669	-0.0023648179025538	1.53995857335642E-06	-4.51944838165891E-06	-5.08097044580303E-06	-6.59665264318921E-06	0.993882683327536	-0.0881909483034336
3.8	-0.00520427847609154	-0.00220458859337081	7.29208798892975E-06	-5.17190685674921E-06	-5.87014941682609E-06	-2.43530714194408E-06	0.994034901704594	-0.0902899690480357
3.9	-0.00548513839602828	-0.00205229385939489	-4.02791881838745E-06	-3.61766513456092E-07	-2.53347555822443E-06	1.1254504748174E-06	0.994186759439295	-0.0940207667816453
4	-0.00609684973207239	-0.00157695941006559	-3.38158962606177E-06	-9.26517296688203E-08	1.17649973240817E-06	8.66757403739443E-06	0.992644684310085	-0.0953199729174199
4.1	-0.00578253701745364	-0.000745860621354506	-2.88508315503182E-06	-3.87245920900183E-06	5.86711013463633E-06	3.06133068492098E-06	0.993282754224395	-0.0956868843692516
4.2	-0.00541153981847734	-0.000606667947427805	-7.65471988456956E-07	-2.16159514676957E-06	5.71109576787127E-06	-1.82299469786063E-06	0.993768697146818	-0.0983851217308069
4.3	-0.00520219241157207	-0.000633880441956458	-5.23402695776436E-07	3.23643168351473E-06	2.12515931946856E-06	1.78975228247183E-06	0.994216713668535	-0.100676706186547
4.4	-0.00525817728489206	-0.000887761348641077	2.56650449457507E-06	3.45527493539041E-06	7.17559992141213E-06	3.94270835402121E-06	0.994141187169838	-0.103396041613095
4.5	-0.00597762863021505	-0.000817100185956352	-6.48213746959705E-06	-2.57052583752549E-07	-8.58601630054701E-06	-2.15196064421189E-06	0.99417637919399	-0.10537341207078
4.6	-0.00610850343327434	-0.00018550002446959	-9.93549470997109E-06	-9.2826505331837E-06	3.25310838535659E-06	-2.72555147395931E-06	0.994602443614095	-0.108460995587619
4.7	-0.00611959094079668	6.29931597697523E-05	1.20482967759325E-07	1.87011500678081E-06	6.09699340953734E-06	-6.73130973672452E-06	0.994703073215436	-0.110890697167873
4.8	-0.00619080776312561	0.000330899724074858	-6.41653479247036E-06	2.06520335610875E-06	8.24539353378863E-07	-1.27773117656363E-05	0.994482507623225	-0.113588644935564
4.9	-0.00616759838943674	0.000470454094789143	-3.46021761282161E-06	8.15393998722904E-06	5.36223016050918E-07	9.40330194075637E-06	0.994345392512521	-0.115595606105465
5	-0.0064370211034054	0.000812304856981486	9.68816378666215E-06	-4.04708885928975E-06	-6.97033386803026E-06	3.56940743977937E-06	0.994461869626403	-0.117499855078615
5.1	-0.0058135829677229	0.0012792444072291	-3.60311006231343E-07	-3.26415974237881E-06	-3.88354777708816E-06	-1.80779003187332E-06	0.994638812834374	-0.119172215909267
5.2	-0.00538017956736255	0.0011003755432252	-1.06081403005629E-06	-4.50467680575186E-06	8.80406233893009E-06	5.61626254821429E-06	0.994687017739257	-0.12165567172513
5.3	-0.0052025452591693	0.000905998802054103	2.27923599078693E-06	6.82302328520156E-06	8.81924288876091E-06	3.16514022021981E-06	0.994805207373748	-0.124284759272364
5.4	-0.00525043448945027	0.000643476300164822	2.72529927900462E-06	-3.14901876238737E-06	-2.68653882158023E-06	1.48099373852355E-07	0.995288999946901	-0.127661141264958
5.5	-0.00592043657801008	0.000984449042017594	2.10741704619304E-06	9.36903966135767E-06	-3.93622049649311E-06	-5.06478721696242E-06	0.994801245218704	-0.131617462209819
5.6	-0.00553284470662918	0.00159529980712361	-5.88149145243542E-06	-1.14268836154542E-06	4.89340292368302E-06	1.9560548882976E-06	0.994142751266314	-0.13397891624831
5.7	-0.00552249363153256	0.00162553348430638	3.35341108666839E-06	-1.42753916799082E-06	-5.06894173782539E-06	-4.31598531597714E-06	0.994227003971119	-0.136642923604307
5.8	-0.00571787114216447	0.00187247810897261	-2.06343466219049E-06	-4.77054530693964E-06	9.51320118551415E-07	-5.84841097797914E-07	0.99437386868196	-0.139406966173702
5.9	-0.00591498432358963	0.00219324156250248	-3.8980061479779E-06	6.25179607458947E-07	3.88233479149647E-06	1.25278355091083E-06	0.994033239480718	-0.142864669680823
6	-0.00672707135550155	0.00281806270512316	-5.95611260189315E-06	5.07094159301937E-06	-1.49047118649261E-06	1.98157620194285E-07	0.991778908847298	-0.14456604545891
6.1	-0.00631604415620133	0.00429259311915773	-5.95856836824478E-06	-4.71878665700911E-06	-4.02603374548745E-06	4.35744982818932E-07	0.992628468701481	-0.144674339127553
6.2	-0.00541298341715508	0.00461659031710974	2.83860076289939E-06	3.13929114154763E-06	1.05908870697477E-06	7.25595981040848E-07	0.993253820297584	-0.146877156675999
6.3	-0.00471265831390241	0.0042989092689223	1.6484583257952E-06	-7.54710694727143E-07	-1.31715482139498E-07	1.38280827093312E-06	0.992951156501473	-0.149873485200539
6.4	-0.00467351125255514	0.00352947228526131	-5.21664644353422E-06	-5.63548833702274E-06	3.84448271085768E-06	6.93239396760564E-06	0.991687259425827	-0.152708718364647
6.5	-0.00531589998339525	0.00357781890423205	9.10923030923688E-06	-2.56704272027678E-07	-7.35835207509814E-06	-8.96246437494226E-07	0.991030170749794	-0.154314184631842
6.6	-0.00489717257886683	0.00378004909938884	-1.49546858087482E-06	4.70967566055167E-07	3.37788273732586E-06	-9.43434844994343E-06	0.991822362962321	-0.157524137952193
6.7	-0.00484286383760897	0.003699066389485	6.25221036055365E-08	7.78826284503215E-06	-5.07891426259651E-07	-6.11397946203202E-06	0.991248981116334	-0.160611339452362
6.8	-0.00478908963967467	0.0037925160119842	4.26969145197822E-06	1.65537033805483E-06	2.04579766908719E-07	-5.25883966014245E-06	0.990615819441637	-0.163343759646727
6.9	-0.00485670499876787	0.00368904465631307	-7.58058812532971E-07	2.50507137800257E-07	5.77785402512949E-06	-2.70385256045155E-06	0.989947531335426	-0.166142113194125
7	-0.00559085342497734	0.0043241383751319	8.04593586089544E-06	-4.79491631046104E-06	4.30158674301851E-07	-3.03421260721671E-06	0.988267767400379	-0.168075980921011
7.1	-0.00494062449067984	0.00522681961593238	3.86825014148184E-06	2.0419338187259E-06	7.95957025004252E-07	7.25888367573659E-06	0.987913775049899	-0.16932942973374
7.2	-0.00457067189254172	0.00530492740605087	-2.4478158235775E-06	3.71447381820859E-06	-1.34954104740112E-06	-3.83953790476952E-06	0.987474403817166	-0.1713062753324
7.3	-0.00451931149701379	0.00540088571988621	3.45252394803352E-06	-5.070714654784E-07	-2.46644070232025E-06	-1.9177831326347E-06	0.986714601530535	-0.173341482695165
7.4	-0.00469376283309062	0.00526743622299355	-6.22769575498425E-06	-2.6879173403218E-06	3.78879440570676E-06	2.33644768024453E-07	0.986545130505815	-0.176584959934401
7.5	-0.00588463074026556	0.00550891906087091	6.74502006026624E-06	-6.50065353744083E-06	-2.4837839664024E-06	8.17674451066818E-07	0.984222019060043	-0.181400669304205
7.6	-0.00584870389581814	0.00691901270360186	3.51909840565691E-06	5.19555187044468E-06	-1.02365043099714E-05	4.99221598029844E-06	0.981864863714311	-0.183338106622613
7.7	-0.0055430270227668	0.00743803898804349	6.09167009059467E-06	1.09256033193551E-05	2.76371403080855E-07	-1.13777615008259E-05	0.981373435634688	-0.186208103313321
7.8	-0.00496844436257203	0.00762042579208664	2.16405826229554E-06	9.74256995328843E-07	-3.06512979811538E-06	8.84887880895545E-06	0.981068803530354	-0.189668603644198
7.9	-0.00447045504066476	0.00741115557676511	2.54240474763672E-06	-2.33072301744595E-06	3.69389333479058E-06	3.2213035612421E-07	0.980166954699513	-0.193788234464624
8	-0.00440392934358617	0.00787907948886731	-2.80433917787347E-06	1.34417504165525E-06	6.86389431079815E-06	-1.89555797081365E-06	0.9769455933802	-0.195801619931761
8.1	-0.00301003469952205	0.00797828421949944	-1.78763094540355E-06	7.63012624491444E-07	-3.71284958465992E-06	-1.23752138524629E-06	0.977593005216482	-0.196446384273161
8.2	-0.00228938208091366	0.00749512482918474	-7.66346151065326E-07	6.33771710548238E-06	4.89546466727784E-06	4.33261796473376E-06	0.978016270489984	-0.198935311971737
8.3	-0.00176755076070826	0.00706631140259271	-9.21657817285008E-07	-1.42070457869481E-05	6.84989127881879E-06	5.39378579466707E-06	0.977632684140674	-0.20196322366243
8.4	-0.00155079189889144	0.00643733540842885	3.74185765625049E-06	-3.44332697420622E-06	-6.97191158866426E-06	-1.18649343925496E-06	0.976704406420582	-0.204884587265842
8.5	-0.00221543168490905	0.00647276186693951	4.67496604523083E-06	5.6823556732825E-07	8.38604015220071E-06	-6.86298368829989E-06	0.97585377537854	-0.207299208336643
8.6	-0.00165208078758502	0.00700472903993624	-3.24916674057361E-06	4.13089257410725E-06	1.05927519447555E-06	1.10896721662803E-05	0.975542959802323	-0.210256249990205
8.7	-0.00124770602734937	0.00680954229643573	2.67207939728816E-06	-2.0109721970842E-06	4.75636647791802E-07	-5.55766005811226E-07	0.974770031251951	-0.213166896366396
8.8	-0.00100578393059637	0.00668579262741394	1.15866033785614E-07	-1.25233628916889E-06	-9.23998757368878E-07	9.76228906421055E-06	0.973817136482657	-0.215502984519323
8.9	-0.000791984460572425	0.0063365394452416	-3.64912857793209E-06	2.30523542125479E-06	4.8192563642074E-06	-1.8212648277755E-06	0.973328879306598	-0.217467622614635
9	-0.00117568709983854	0.00633597507776481	-1.8869463884352E-06	5.04113599022988E-07	-3.24586991439886E-06	-1.05167565825022E-05	0.972670913623411	-0.219762519725945
9.1	-0.000491504204164143	0.00660522622197877	5.24845923670196E-06	5.67184975706436E-07	9.13545171488914E-07	3.77626279169617E-07	0.971874508895352	-0.221623916012563
9.2	2.50145560410047E-05	0.0061829425590027	-8.73043823906228E-06	-4.53536078773985E-06	-9.05456061801418E-07	-6.11607533023666E-06	0.97114580250853	-0.223878906255471
9.3	0.000319658159128016	0.00572851655995754	2.12528932180434E-07	6.20729509622793E-06	4.62450879887421E-06	-2.20959283440582E-06	0.970738941293835	-0.226139673993615
9.4	0.000367496497837622	0.00503887260434576	-1.9033109364279E-06	5.88770132145148E-06	-1.04646719385808E-05	7.77785085569801E-06	0.970358273378432	-0.229341129103052
9.5	-0.000212277910095238	0.00521841809349077	3.14417516277008E-06	-7.57791898918445E-06	3.66590502344281E-06	-2.75873997745761E-06	0.968672527489371	-0.232891151114416
9.6	0.000212508372805291	0.00533419982713001	4.51986396777179E-06	5.54271437105701E-06	-6.02691826291079E-07	7.06185015438681E-06	0.967323991716547	-0.235125933442687
9.7	0.000128683276372029	0.00505077023311005	-2.61880565450856E-06	-3.91709618789909E-06	3.64734068692817E-06	-7.52532521805258E-06	0.966653140050872	-0.2374529324826
9.8	-0.00019509487909334	0.00502767660721572	-5.44809763945332E-07	-4.20280613782878E-06	6.26654392759245E-06	8.55912561248327E-07	0.966261334169599	-0.239785780156112
9.9	-0.000601722715781783	0.00516978479758717	-2.68490649835361E-06	-5.78048762544435E-07	-8.45142503189325E-06	5.5203806543305E-06	0.964779742431807	-0.242420127808857
10	-0.00145913592233739	0.00605244077053685	4.18612067073649E-07	-1.74594889755103E-06	-3.10861583527801E-06	-7.9216243474692E-06	0.961722741242544	-0.242176019046436
10.1	-0.000744065904408925	0.00730755866558353	2.25291335527226E-06	4.74322903472668E-06	-3.05460787497781E-06	9.82052107353249E-06	0.962684036638688	-0.24158093882317
10.2	0.000123348732052346	0.0076232457204118	-5.39289506868891E-07	-1.04254415969247E-06	-1.21561016315764E-06	-3.0996496912351E-06	0.963051266974215	-0.242954501562466
10.3	0.000881253988449238	0.00758572052313217	1.12449609127749E-05	-2.95435659319158E-06	9.99401397230711E-06	-4.85455965684936E-06	0.962568864087285	-0.244860269557308
10.4	0.00130641326109578	0.00712512027776204	-6.19563417734019E-07	2.13784489130648E-06	3.00908093704654E-06	-2.18117711782537E-06	0.961151612337208	-0.246867738913589
10.5	0.000887330968286058	0.00730590866431717	-6.07428362628261E-06	4.62584715587644E-06	1.5677201631266E-06	4.2826843426502E-06	0.959869787390104	-0.248122819474034
10.6	0.0017748578394655	0.00776320864127356	-7.05743176462854E-06	1.06462016246939E-05	6.99986141602853E-06	4.2403702000839E-06	0.95979679442962	-0.25016166892841
10.7	0.00242500416948569	0.00771960409063934	-3.19730158972068E-06	1.56275761967035E-06	-5.33842588510888E-06	3.16057093666167E-06	0.958965479676867	-0.252276018400662
10.8	0.00310973101675047	0.00755013294143653	-1.91513257579705E-06	4.96706178828839E-06	8.44923905530303E-07	-3.1873362481111E-06	0.958504648134836	-0.253695500236614
10.9	0.00347901537411567	0.00706175938112682	-5.71953258912252E-06	-1.04739378155346E-05	4.90495303625607E-06	1.06516896549987E-05	0.958209322847764	-0.255270690548211
11	0.00327299695239201	0.00719847095529804	2.95133961113296E-06	2.60516511732912E-06	7.90963590126783E-07	-1.11852300325884E-05	0.957575515475665	-0.256271698294577
11.1	0.00425117562998344	0.00737918925669344	3.83967126296206E-06	1.45259692433742E-06	2.57308536774661E-07	-7.33980691177544E-06	0.957678283783365	-0.257212622679207
11.2	0.00490672986724567	0.0068305522075387	-4.39364319980529E-06	-1.96495347141735E-06	-7.28469682119185E-06	-4.83258647616733E-06	0.95759911214499	-0.258818987064573
11.3	0.00534865580178295	0.00613586472445966	6.66867264699788E-07	-6.34824052577637E-06	3.73437756464569E-06	1.40790210629517E-05	0.957834215878962	-0.26078277369415
11.4	0.00540253543613049	0.00528921452507498	-5.10700420308698E-06	8.10272783887051E-06	-1.45813812839436E-06	4.05826385999614E-06	0.957685621471326	-0.264143966244928
11.5	0.00475742378615766	0.00515415794451524	4.5011281415541E-06	8.05797845531773E-06	-9.24695720286065E-06	1.57133803934098E-06	0.955261339897056	-0.267927670856783
11.6	0.00523809245356792	0.00509859149065289	-3.82160880188332E-06	1.39009347325044E-06	5.04385034352883E-06	8.09555453675517E-06	0.953623129878719	-0.269954921534129
11.7	0.00533913590357553	0.00447068781576517	2.22093594855215E-06	1.0474118365014E-05	5.43146739740707E-07	-3.6283626131278E-06	0.953057455125745	-0.273109969248988
11.8	0.00523463370297388	0.00399972000163264	1.41400731982619E-06	4.44067649551622E-06	2.23066940182891E-06	4.51567635841455E-06	0.952230135349686	-0.276902574061996
11.9	0.00489925532097905	0.00355993045418306	7.3871661344574E-06	1.05210618003807E-05	3.86053178779814E-06	4.08982965565552E-07	0.950552318349953	-0.280026159620924
12	0.004072361783153	0.00410106923328036	2.35291988960514E-06	-5.1145844018225E-06	-4.06591875179697E-07	1.73845037233204E-06	0.947157050608831	-0.27968466427712
