# GHZ S RI R 50
0.2	-6.55947491433582E-05	0.000941742983212748	4.82143824159666E-06	-2.9805694516984E-06	-1.38213109927387E-05	1.31242251743671E-05	1.00225119955199	-0.00533852271728935
0.3	0.000620764160725479	0.000905694950550023	2.85961303959449E-06	6.66277786747691E-06	-1.64469919602366E-06	-9.36550616897108E-06	1.00291269808595	-0.00803801389905347
0.4	0.00106967789202528	0.001390868653067	-1.86523463558163E-06	-4.04241685547971E-06	-9.07545200600807E-06	4.4109226840664E-06	1.00440467757877	-0.0105145605866534
0.5	0.00310446785089031	0.000734917232732746	-5.38434101472126E-06	3.2826350811178E-06	-2.13383487372787E-06	6.79297718683629E-06	1.00561827652255	-0.0162936256213342
0.6	0.00192099377951354	-0.00137166272767693	-1.43363215277054E-07	2.81611450955026E-06	-5.83488378766057E-07	-1.35267182480269E-07	1.00318822390339	-0.0195332070401842
0.7	0.00075807411782159	-0.00101865559908861	8.39893262693893E-08	2.23064770486606E-06	4.93531500547201E-06	-3.40932827809195E-06	1.00304183918438	-0.0213014336291924
0.8	0.000233691267172733	-0.000619140172428244	4.55583047044305E-06	8.40036043361934E-07	2.75764789892281E-06	2.01864684095485E-06	1.00334865258192	-0.0230691395929501
0.9	-0.000596444865229959	0.000354984611996194	-1.45836936137971E-07	-4.25182501367849E-06	-3.43958153283662E-06	-3.13983392267085E-06	1.00366956484064	-0.0246082455460572
1	0.00120454062100042	0.00261070200526043	1.07106166502743E-06	4.33140030092634E-06	3.35817077076725E-06	9.41285555627291E-07	1.00647459436085	-0.0254464588697535
1.1	0.00261785098833434	-5.27501829068314E-06	9.11708539588026E-06	5.10163488129232E-07	-3.60785885284974E-06	-4.98428241990047E-07	1.00683831739103	-0.0306447405127184
1.2	0.00130712811294463	-0.00109773178698853	3.78915952566239E-06	-1.21477968916305E-06	-4.13299490161389E-06	-2.45130042692164E-06	1.00539748485526	-0.0322664067890787
1.3	0.000182554600470711	-0.00202913627082088	-7.70769801223749E-07	-1.43608562095222E-06	-2.62703795394266E-06	-8.76792505226645E-06	1.00490883089254	-0.033983433117944
1.4	-0.0010456074416749	-0.00251970565389992	2.46993695593641E-08	3.47057084504632E-06	-4.32267893580595E-06	-4.14203707002643E-06	1.00332155462011	-0.0364002090909461
1.5	-0.000146125558667572	-0.00348505044953689	-1.29515167254794E-06	4.46027782365869E-06	6.57460873118302E-06	-7.47548845453336E-06	1.0048783018753	-0.0400191664254894
1.6	-0.00215399752559012	-0.0045244116632093	1.63965928287304E-06	-4.96456896487438E-07	4.25840939435778E-06	-5.44181178343488E-06	1.00334171358899	-0.0448448433360568
1.7	-0.00260772138737657	-0.00327916522280544	5.46988483692356E-07	3.9856020195074E-06	-8.33787160598923E-06	3.17735431936119E-06	1.00358560357438	-0.0468897106881669
1.8	-0.00246777867541877	-0.00246001404738574	1.84986998711988E-06	1.08072491455183E-06	5.64089181538163E-07	-1.77713873398027E-06	1.0036413399796	-0.0492467536791802
1.9	-0.00205809031176208	-0.00132850881102118	3.26804299849318E-06	3.03482823614491E-06	-1.89398394900054E-07	-2.34832913011231E-06	1.0041600531012	-0.0492121040116593
2	0.000549008847062604	-0.00167685665904464	-1.7452687005451E-07	2.03291426382272E-07	-1.23055018312047E-05	5.51008906574349E-06	1.01116545551439	-0.0522905033466078
2.1	-0.000632100454430222	-0.0042843186856999	6.65956753546443E-07	-1.40438726445171E-06	1.40161389824328E-05	4.92259369029018E-06	1.0096388926695	-0.0624333798422542
2.2	-0.00220588547875056	-0.00414653559417489	1.64836161555897E-06	-1.54667964590803E-06	2.66061508424122E-06	-6.29785570726042E-06	1.0063305921083	-0.0657393071964072
2.3	-0.00332414926670949	-0.00371433669208603	-1.73492348312201E-06	-3.44476308515156E-06	-1.84970654901506E-06	-4.61993947514971E-06	1.00451771851074	-0.0675307258711744
2.4	-0.00445328562554328	-0.0024782553807791	-1.25889923850069E-06	-4.43128019464734E-06	3.08650018033746E-06	1.06662620685638E-06	1.00358956999606	-0.070277988225653
2.5	-0.00288091449495167	-0.000754217840492207	5.49464980727766E-06	5.65140807481593E-06	-2.4365549843449E-06	1.63120080963257E-05	1.00379286112116	-0.07249822160327
2.6	-0.00252240865266199	-0.00262665948033115	-2.26233163741136E-06	2.75488895723248E-06	3.89581446078078E-07	-4.34520306046734E-06	1.00340744098101	-0.0763776376057863
2.7	-0.00349274485839845	-0.00287307195158763	-2.46386054482645E-06	-3.63675691029209E-06	2.14223871850892E-06	-2.61283365699669E-06	1.00295289764047	-0.0800797987158502
2.8	-0.00431202658615857	-0.00259902320649629	4.05968524181041E-06	2.28102591842926E-06	9.89663745289213E-06	-8.10757938738203E-07	1.0025731492218	-0.0833084209991409
2.9	-0.00461084968949283	-0.00142284218542152	1.29787912634358E-05	5.39369653573599E-07	2.29723248364426E-06	-1.18298948222357E-05	1.00122921184465	-0.0860364883569456
3	-0.00268505196676706	-0.00131254326963348	-3.85604716055239E-06	1.10647123758182E-06	-4.18711481578981E-06	-1.54651966586693E-06	1.0005658060043	-0.0889413964796332
3.1	-0.00364498189945732	-0.00287209191556835	4.66773055751368E-06	-9.95356783195234E-06	1.07647983810009E-05	2.27611312424695E-06	0.99943312988011	-0.0921542970831668
3.2	-0.0044591615065045	-0.00241669708589767	-5.50215424196918E-06	-7.36040732932242E-06	1.57812225544872E-05	5.17796258916845E-06	0.997805652989681	-0.0947039969413089
3.3	-0.00490417297196738	-0.00200065455383961	-8.77708926597524E-06	2.6926988960386E-06	-8.61791407135685E-06	-1.60885025637132E-06	0.99569725020321	-0.098661064356701
3.4	-0.00525848567862782	-0.00095875615913094	8.93316776474346E-06	-7.71716582144574E-06	-7.27475495347767E-06	4.36056097863114E-06	0.992646089489877	-0.100322114115523
3.5	-0.00339929766204768	-0.000807061283301129	2.43152909715464E-07	-5.31092496287666E-06	-4.51138409269339E-06	-8.84247600527104E-06	0.99201943068061	-0.099566604239808
3.6	-0.00460866264538215	-0.00270189701602961	4.13277593791141E-06	4.84296949317155E-06	-6.98469038261256E-06	9.07842383019224E-06	0.993084072435667	-0.103632644006105
3.7	-0.0061267106827104	-0.00196724253906594	1.46126762635428E-06	-4.54197658023047E-06	-5.18960321307352E-06	-6.50405159945671E-06	0.99083786076645	-0.107109669263657
3.8	-0.00679544414258441	-0.000740786738139495	7.18338015008447E-06	-5.28456988834504E-06	-5.89688814379276E-06	-2.3272728449072E-06	0.988325643301643	-0.10809659102657
3.9	-0.0065776744374089	0.00112940930370844	-4.01834751479402E-06	-2.98495055402991E-07	-2.50665879462861E-06	1.16016399901524E-06	0.987545961315209	-0.107585203244812
4	-0.00360118206560425	0.00149432564234375	-3.38455295362251E-06	-4.03723615937267E-08	1.31114007306051E-06	8.65329186037442E-06	0.993954572927719	-0.108665329563918
4.1	-0.00398386285976028	-0.000931665759757014	-2.95846993350708E-06	-3.8051160709405E-06	5.91758082103595E-06	2.93450796762347E-06	0.991485422021678	-0.117021132434024
4.2	-0.00514589761472206	-0.00098674076858189	-8.05062912747387E-07	-2.13445005308784E-06	5.64341030886147E-06	-1.92867291493677E-06	0.987315895007903	-0.119509151548231
4.3	-0.00586349935774388	-0.000517473086836136	-4.56523169995207E-07	3.22467258059132E-06	2.14573057059189E-06	1.73600711061665E-06	0.985418646463255	-0.120602353961081
4.4	-0.00636093886628754	0.000770981745082775	2.61731190666337E-06	3.37914206035978E-06	7.20316192060853E-06	3.7707957274679E-06	0.984380255518223	-0.122100805252617
4.5	-0.00408365352662822	0.00152248448992226	-6.41773272662138E-06	-1.05675256896409E-07	-8.54223238899045E-06	-1.93180642712516E-06	0.983630834703114	-0.125658913518086
4.6	-0.00474777897420007	-0.000779048702607316	-9.96130127705125E-06	-8.9490175327594E-06	3.15072738487633E-06	-2.74621621120739E-06	0.979735561599971	-0.127732348105653
4.7	-0.00612586543398137	-0.000562894977103155	1.49887446477277E-07	1.83880335231391E-06	5.88885075975744E-06	-6.72788113101531E-06	0.978450851118323	-0.128024899183972
4.8	-0.00698137945826503	0.00010237045016392	-6.28279342723918E-06	2.13308636682442E-06	6.11352143056437E-07	-1.25883300175558E-05	0.977257277632963	-0.129488086638785
4.9	-0.00740635101054202	0.00159252489842443	-3.27346624873464E-06	8.07431212578186E-06	6.76847953153813E-07	9.23951632425954E-06	0.97559243725532	-0.130340420344742
5	-0.00511036236908063	0.00197276549041256	9.42978373946134E-06	-4.10901394884101E-06	-6.774620151706E-06	3.60052228199982E-06	0.974416750473235	-0.130472004352501
5.1	-0.00636079144102689	0.000381975407560218	-3.89473173476296E-07	-3.19402884693988E-06	-3.82508967019436E-06	-1.72780077775417E-06	0.97350613533512	-0.130671061275665
5.2	-0.00716371506037568	0.00153216569485707	-1.0874887095949E-06	-4.4041905924068E-06	8.68908273947376E-06	5.41176963774361E-06	0.97249195861198	-0.131407185608031
5.3	-0.00691558595190894	0.00262585016669155	2.30517853234474E-06	6.65832942434598E-06	8.67159766034405E-06	3.00588661492325E-06	0.971591812282131	-0.132483513588516
5.4	-0.00609468993382313	0.00405153933120489	2.62663571671036E-06	-3.10479292305983E-06	-2.62169120604383E-06	1.74070801056634E-07	0.9698677775134	-0.133618693028349
5.5	-0.0026034787257967	0.00320597788414166	2.09720351706578E-06	9.09875029127336E-06	-3.85324176705101E-06	-4.90429838467468E-06	0.970580657652003	-0.13203368732401
5.6	-0.00472773038712628	0.000293065495231882	-5.74323985132308E-06	-1.10535555885394E-06	4.7801025254224E-06	1.90102715828957E-06	0.972035142426754	-0.135415197911401
5.7	-0.0067172479697852	0.00131029230367438	3.27269505375568E-06	-1.39905381332896E-06	-4.95653539149461E-06	-4.20730699857102E-06	0.970251624056082	-0.137210577223151
5.8	-0.0076335125290274	0.00271688005788371	-2.01224882362193E-06	-4.65657402754367E-06	9.28650322504973E-07	-5.70467151202533E-07	0.968860625846295	-0.136840979121332
5.9	-0.00822023717705155	0.0053354989934618	-3.812008250593E-06	5.93454251590495E-07	3.78827107296248E-06	1.24165606231416E-06	0.96947830618148	-0.133423802770182
6	-0.00432216436966066	0.00787935119982449	-5.87943402210646E-06	4.97439996043509E-06	-1.46802485199312E-06	1.90558215122843E-07	0.979348825463437	-0.134525087325218
6.1	-0.00308809431835708	0.00478485520850838	-5.85190243161579E-06	-4.61696779556541E-06	-3.94747864583704E-06	4.34530309643463E-07	0.977522756500584	-0.143184667308728
6.2	-0.00393810923969006	0.00401480092080292	2.77437368172342E-06	3.07151865626134E-06	1.03535553735706E-06	7.10139542175772E-07	0.974643989965414	-0.144003804890644
6.3	-0.00467518570445216	0.00382695918130778	1.61465710619501E-06	-7.32818155114303E-07	-1.33271002477474E-07	1.35199271385168E-06	0.973717899551823	-0.144545148508269
6.4	-0.00502637229014657	0.00493819027806428	-5.09093590461836E-06	-5.54849018671677E-06	3.73983964222339E-06	6.81426767606577E-06	0.974808287731146	-0.145111572779743
6.5	-0.00244883981642957	0.00372925889426898	8.91617311909737E-06	-2.54826728417802E-07	-7.2028335787448E-06	-8.74385814352566E-07	0.975114902734741	-0.152746549243468
6.6	-0.0052260179338588	0.00199491712350619	-1.45811523749897E-06	4.51199599532245E-07	3.33427068831293E-06	-9.16778419356388E-06	0.967951769684244	-0.152582370889276
6.7	-0.00625412055661396	0.00341820977253449	-1.22810932989223E-08	7.59304995826464E-06	-4.37634351552919E-07	-5.96504659683499E-06	0.967703864141832	-0.150158424505902
6.8	-0.00662974493034659	0.00445389608252786	4.15051521221507E-06	1.66686207511923E-06	2.6157843453341E-07	-5.13360208369443E-06	0.968195190544622	-0.149813511580391
6.9	-0.00659105061890279	0.00677266162283028	-7.44744565977932E-07	2.35202412078839E-07	5.68667812302928E-06	-2.56984182842153E-06	0.968868190036383	-0.148736440367759
7	-0.00205558437862482	0.00684079612461066	7.93797659711615E-06	-4.5811998622614E-06	4.62444071078016E-07	-2.96283382340948E-06	0.973323804165536	-0.149809145497612
7.1	-0.00412707052617819	0.003218789323502	3.7554948393466E-06	2.0591544408874E-06	6.66650712795236E-07	7.11909545349665E-06	0.971816237539348	-0.154489264936738
7.2	-0.00627844292254767	0.00425515940895524	-2.45992087728887E-06	3.59958411556764E-06	-1.25916995029589E-06	-3.78473194538107E-06	0.969574581961541	-0.155393543925548
7.3	-0.00749170128445051	0.00565604421800221	3.39145634755624E-06	-4.38904397271763E-07	-2.38454613640652E-06	-1.92053162030705E-06	0.966775572802799	-0.156194177785414
7.4	-0.00868209664968018	0.00856925536962983	-6.03212603797073E-06	-2.73722702935362E-06	3.69518336385141E-06	2.96709694849662E-07	0.961203671561477	-0.154336036815781
7.5	-0.00467289953002921	0.0116670620439545	6.76996440011339E-06	-6.15154921600374E-06	-2.44776458222139E-06	7.26858734934816E-07	0.964900147135345	-0.144696695780091
7.6	-0.00394396128495585	0.00895430981965326	3.30885908417329E-06	5.22145999732661E-06	-1.02292057531912E-05	4.60783093935903E-06	0.972210365803756	-0.150270512504843
7.7	-0.00459588982973718	0.00921932053168289	5.68891107210134E-06	1.09567663640179E-05	6.06403134673418E-07	-1.121601392857E-05	0.972510388933414	-0.153986603032704
7.8	-0.00438566423006835	0.00967693483716401	2.10711113076403E-06	1.02847918072111E-06	-3.29832933131287E-06	8.64420778288277E-06	0.973459363434273	-0.155485766351955
7.9	-0.00324389740491965	0.010770454915081	2.59762783911375E-06	-2.21793390975372E-06	3.64461120823296E-06	4.47821193043496E-07	0.977164796548415	-0.154028781281195
8	0.000704846093951149	0.00822204866782045	-2.85688555249372E-06	1.24592551918277E-06	6.94259573936071E-06	-1.65287757739363E-06	0.990711039308682	-0.160227497446616
8.1	-0.00208116940448385	0.00509624109894122	-1.81388669672689E-06	7.16523278206687E-07	-3.69033012746144E-06	-1.34264228515464E-06	0.987935102511093	-0.173742417893388
8.2	-0.00364211957443194	0.00589280791963648	-9.33641739851414E-07	6.32816064152418E-06	4.7900919430974E-06	4.46805113473808E-06	0.984609053081213	-0.176436829597339
8.3	-0.00437376119205633	0.0067650401650716	-5.49694083555369E-07	-1.42714429777136E-05	6.72701865131217E-06	5.58960477860684E-06	0.984044838917323	-0.178662177152272
8.4	-0.00463930557196072	0.00908150591104473	3.84759454660168E-06	-3.37065375720676E-06	-6.98193501504827E-06	-1.36465128655167E-06	0.984768216554143	-0.181160797125655
8.5	-0.000141584035106464	0.00950237381281531	4.67570466229321E-06	6.65712389363392E-07	8.54917535542044E-06	-6.70904113678663E-06	0.985279301491387	-0.186435323185967
8.6	-0.00171876124529857	0.00580383448541868	-3.35934876861678E-06	4.0550691712721E-06	7.79342784778036E-07	1.11345543544056E-05	0.983033538755405	-0.188871871664767
8.7	-0.00370118660003765	0.00669965396321842	2.7401805934415E-06	-1.94993625460681E-06	4.93065579972758E-07	-5.45949044723628E-07	0.983578559682257	-0.19039973931329
8.8	-0.00447603360016072	0.00816582467463029	1.49874098681323E-07	-1.26027774156448E-06	-1.18928305363813E-06	9.82364701059528E-06	0.984530513763432	-0.192405157959533
8.9	-0.0045211174678805	0.0108429069210657	-3.74659939637598E-06	2.24688500142695E-06	4.91925016211646E-06	-1.72968277146796E-06	0.985936640347885	-0.194388774575659
9	0.000200479671392435	0.0121923480405729	-1.914952752203E-06	4.68608103397121E-07	-3.05197910128061E-06	-1.06821239426297E-05	0.987809828539705	-0.196479802643768
9.1	0.000533226620771869	0.00927764272773752	5.29620197815673E-06	6.99633115862486E-07	9.15169238928962E-07	4.03939739905999E-07	0.990098870403019	-0.199851531481103
9.2	0.000778086233721817	0.00902601037125626	-8.75589176305392E-06	-4.79389245761528E-06	-7.83174615834776E-07	-6.22424346430911E-06	0.991346709295242	-0.204567422618946
9.3	0.001267629839827	0.00828026628733051	9.26657070739382E-08	6.30351383728272E-06	4.73684379124531E-06	-2.15069782087095E-06	0.991006667841506	-0.209640895392287
9.4	0.00155336749038923	0.00858274575208757	-2.03515457869151E-06	5.92547592210577E-06	-1.07371307912115E-05	7.68149384343871E-06	0.988103225681184	-0.212866328029672
9.5	0.00445629901392454	0.006191795236715	3.36892876723382E-06	-7.57888612034014E-06	3.77447070603261E-06	-2.6954102237487E-06	0.989879759146262	-0.212220961753785
9.6	0.00082923923191808	0.00322862029595747	4.45881764674151E-06	5.76316939841335E-06	-7.98118208444192E-07	7.17672664612298E-06	0.991910977008809	-0.219195567902685
9.7	-0.00140740762876112	0.0044067588259183	-2.58177721720085E-06	-4.06099155329746E-06	3.90089905980707E-06	-7.5977727634724E-06	0.990300746558088	-0.223345009135983
9.8	-0.0026090684512709	0.00581691274236397	-4.60199671905456E-07	-4.30767865833913E-06	6.38457608089138E-06	1.01872750621394E-06	0.989320186185111	-0.224811096696053
9.9	-0.00317865416943522	0.00859317564023349	-2.73720787459048E-06	-6.62147596440348E-07	-8.80636033565573E-06	5.43961003265979E-06	0.991280245059956	-0.222239876706494
10	0.000993942764292661	0.00947247371713639	4.70708829129241E-07	-1.80070132711026E-06	-3.05463480685905E-06	-8.27574359509976E-06	1.00365413313368	-0.229487587041337
10.1	-0.000250416205442247	0.00669576083470343	2.27046787477526E-06	4.92791290548505E-06	-3.27456344805991E-06	1.01097276729422E-05	0.9971564783458	-0.241584835819861
10.2	-0.00167234879738801	0.00764002514764419	-5.44413517206751E-07	-1.08150656064353E-06	-1.21863376031126E-06	-3.21108054866285E-06	0.992784429599439	-0.242653628558798
10.3	-0.00219990058111763	0.00913157444506218	1.1646227494022E-05	-2.93205762147393E-06	1.03743228637352E-05	-4.90805457199239E-06	0.991694261461118	-0.243727029636457
10.4	-0.00165603895879954	0.0119608355247916	-6.57707807758285E-07	2.21123105869006E-06	3.13460942515635E-06	-2.23874047781885E-06	0.992844282644291	-0.245765403983338
10.5	0.00329722398252099	0.0122526477480945	-6.27489666847929E-06	4.78842278004345E-06	1.62508876689542E-06	4.42585639325647E-06	0.993137223793323	-0.253580834823383
10.6	0.00315582140466145	0.00951542355691974	-7.28118786091233E-06	1.09553858205034E-05	7.20364001927361E-06	4.37555113812411E-06	0.98956158990176	-0.256250505727151
10.7	0.00319643756538463	0.0092025873929557	-3.30079484575555E-06	1.6095895891736E-06	-5.51174735702469E-06	3.25635399520271E-06	0.990087369561027	-0.260244457480504
10.8	0.00286431606860638	0.00880307714649399	-1.97059753456526E-06	5.13626041325151E-06	8.67688228021976E-07	-3.29525234823942E-06	0.989101168946446	-0.265459767746003
10.9	0.00270839393041533	0.0101550476077667	-5.97653676570386E-06	-1.07950458963438E-05	5.13538015102303E-06	1.09837219479764E-05	0.987760119429487	-0.2695608875466
11	0.00681547313465861	0.0094597814290228	3.06226930293192E-06	2.65634610045574E-06	7.14921440927854E-07	-1.15248010716545E-05	0.987150500765029	-0.274001303191964
11.1	0.0047524791395242	0.00626606557611767	3.96589570985776E-06	1.46431824032546E-06	2.04715650755199E-07	-7.56041195182087E-06	0.983367762981481	-0.279297121781548
11.2	0.00336616721559336	0.00691439626213263	-4.54706392407834E-06	-1.9771686352147E-06	-7.55591383830198E-06	-4.9002919825435E-06	0.979275600789682	-0.282578528045303
11.3	0.00295902957627954	0.00804429599164072	5.98502789115301E-07	-6.53763857156162E-06	4.03400295091051E-06	1.44273742673405E-05	0.974084830029292	-0.284505229235799
11.4	0.00317224499894246	0.0100767557488467	-5.09539261585577E-06	8.37233758762647E-06	-1.42684500031049E-06	4.17566440743133E-06	0.96753746662168	-0.284450456547984
11.5	0.0075278644060107	0.00919324331625234	4.66745075469509E-06	8.19521574900047E-06	-9.43492430794626E-06	1.6839668136233E-06	0.971620463553855	-0.280732194869069
11.6	0.00551278263457464	0.00578394514214253	-3.91330195475894E-06	1.47260726056266E-06	5.27768406381272E-06	8.2659462454173E-06	0.972398523375283	-0.290585079548519
11.7	0.00395117737911075	0.00645639334613304	2.44453882448402E-06	1.07237787755407E-05	5.01312346711114E-07	-3.73531377984728E-06	0.967488574523848	-0.295484485052837
11.8	0.00348854182936807	0.00775033792921238	1.52371187551777E-06	4.52670735055468E-06	2.36183395802611E-06	4.58981833854307E-06	0.963744933284171	-0.296739039140147
11.9	0.00496270034946316	0.0104581234067477	7.72143139431099E-06	1.06815529615214E-05	3.96342720186834E-06	3.64814610007016E-07	0.96630653116467	-0.292816616208861
12	0.0108291297454662	0.00876614465531574	2.3357174179996E-06	-5.33789689375115E-06	-3.87078888470316E-07	1.80674518343005E-06	0.980091364692499	-0.302944379179152
