# GHZ S RI R 50
0.2	0.00084919744233804	0.0020973559020625	4.79660435669182E-06	-2.98427122692317E-06	-1.37370259858052E-05	1.31193418195594E-05	0.999976698296943	-0.00684018615684153
0.3	0.00128693992964378	0.00140429658485793	2.86511147889813E-06	6.63041905641564E-06	-1.66145766734931E-06	-9.3258564635651E-06	0.999967814578209	-0.00979524547005249
0.4	0.00155829378116597	0.00102178043441854	-1.8635332631975E-06	-4.01912615875017E-06	-9.02275101553716E-06	4.40600620144048E-06	1.00011218111702	-0.0125599084861269
0.5	0.00188349509822707	0.000578154881104601	-5.36110882257934E-06	3.26703150324368E-06	-2.12569849286297E-06	6.76244374901633E-06	0.999823539402335	-0.0160702013948815
0.6	0.00182955516670165	-8.2612344419872E-06	-1.39465093870719E-07	2.80708206618927E-06	-5.81745442677221E-07	-1.34114378209635E-07	0.999469296436934	-0.0188147671164273
0.7	0.00161917386921763	-0.000244246875608433	8.78762304062162E-08	2.22054750583904E-06	4.90681049483548E-06	-3.40356415705225E-06	0.999194677205958	-0.021490151818855
0.8	0.00150571543421376	-0.00040699402609526	4.53221658134812E-06	8.27010122219689E-07	2.74613442313436E-06	2.00242207727806E-06	0.999088080315457	-0.0235059647996637
0.9	0.00129444524287647	-0.000462056667943775	-1.51584095304582E-07	-4.22284610331806E-06	-3.42129766651863E-06	-3.11315755389021E-06	0.999188135361511	-0.0257641982713929
1	0.00139170977966713	-0.000339267798132069	1.06213045524268E-06	4.29709734294391E-06	3.33140239371854E-06	9.34136150540846E-07	0.999420615756802	-0.0275315033375163
1.1	0.00145797862210276	-0.00087720218162643	9.05257044701985E-06	5.14970252315915E-07	-3.58205575991935E-06	-4.98247246470272E-07	0.998995953404226	-0.03023169185719
1.2	0.00102565108566425	-0.00166577537024679	3.76302864819039E-06	-1.20266986388081E-06	-4.10111976448946E-06	-2.43738545393222E-06	0.997876969279603	-0.0316036181458176
1.3	0.000206751595834706	-0.00272093428261531	-7.63195887621392E-07	-1.42695110637893E-06	-2.5956301161026E-06	-8.7091527958313E-06	0.99736592020155	-0.0327688980339563
1.4	-0.000806393176946862	-0.00360876182339003	1.79629390655131E-08	3.44860563353542E-06	-4.28740962349836E-06	-4.12396153583523E-06	0.996595053355376	-0.0348212440804641
1.5	-0.00116848072839566	-0.00396700313876474	-1.29372673145028E-06	4.43249495145619E-06	6.54654506171943E-06	-7.4228754049142E-06	0.997097504751186	-0.0380108640162634
1.6	-0.0015487167378463	-0.00405279059395219	1.62986523686408E-06	-4.90954566597587E-07	4.2388581253943E-06	-5.40093611773406E-06	0.996679365969772	-0.0411209759781559
1.7	-0.00164187733870469	-0.0037661796741326	5.35505014128983E-07	3.95941535379644E-06	-8.28703922865372E-06	3.13943099377499E-06	0.997305352545859	-0.0432782459662707
1.8	-0.00161436469927	-0.00348342083509504	1.83468535659271E-06	1.07763439550228E-06	5.64366845373141E-07	-1.76365573870744E-06	0.99759292322789	-0.0458237054348073
1.9	-0.00156278719166704	-0.00329009990499072	3.24066420571051E-06	3.01858259501512E-06	-1.84535187378137E-07	-2.33223010222284E-06	0.997759930026366	-0.0478180281643161
2	-0.00127328320072954	-0.00331684941881575	-1.72957110231338E-07	2.00807720680409E-07	-1.2180765912791E-05	5.4307029014108E-06	0.998202698367181	-0.0506441241077277
2.1	-0.00147970567675164	-0.00380062558409321	6.67490059756941E-07	-1.3855256579787E-06	1.38383949973167E-05	4.95606936823848E-06	0.997795854190825	-0.0537647750481065
2.2	-0.00197923194900192	-0.00392545738338126	1.64438152053002E-06	-1.52158177648489E-06	2.6803906092942E-06	-6.22358302671395E-06	0.997371672450508	-0.0562011981802501
2.3	-0.00255324518336936	-0.00392948596581753	-1.6955765949291E-06	-3.42828375282483E-06	-1.80094626665261E-06	-4.59440834935357E-06	0.996914695482799	-0.0579308818741388
2.4	-0.00317458231622475	-0.00371593333376505	-1.21284887968455E-06	-4.40359648566328E-06	3.05172097354605E-06	1.08215732888646E-06	0.996883277991157	-0.0609799180944846
2.5	-0.00342084358977707	-0.00328033852569036	5.39869671814574E-06	5.66312255268219E-06	-2.57774623321044E-06	1.61671760866572E-05	0.996529767857597	-0.0633613487505102
2.6	-0.00360509807717866	-0.00329010233396113	-2.27363649294434E-06	2.71766453295972E-06	4.26666832632507E-07	-4.31534617604118E-06	0.996395370225372	-0.0663002827059176
2.7	-0.00387188126217518	-0.00315705126041308	-2.41478003206648E-06	-3.63593712602715E-06	2.15237806078749E-06	-2.57646442367041E-06	0.995984186607374	-0.069330749017101
2.8	-0.00405886609665002	-0.00297112203582099	4.01014393249522E-06	2.30705728180965E-06	9.84012199525964E-06	-7.05650726194102E-07	0.996078602700154	-0.0714362957328225
2.9	-0.00407262819198151	-0.00269222747146503	1.28940204048077E-05	6.8577512560214E-07	2.41974999101382E-06	-1.17318059091934E-05	0.995717436023948	-0.0735776379070024
3	-0.00372144930552208	-0.0026011368828072	-3.85425322753089E-06	1.05506644144774E-06	-4.15165929704574E-06	-1.59144466603908E-06	0.995417012586495	-0.0761944261092874
3.1	-0.00369759407158399	-0.00288563790872594	4.7646409490949E-06	-9.85925291250071E-06	1.06950177517942E-05	2.39207823297824E-06	0.994822859533507	-0.0781757581961618
3.2	-0.00389105157265139	-0.00297441624133809	-5.38825112715394E-06	-7.40308394044044E-06	1.5657005350332E-05	5.35934468180032E-06	0.994384485933196	-0.0798612893494339
3.3	-0.00412123942496836	-0.00300816724827826	-8.79146436214284E-06	2.56434874388885E-06	-8.57323628293707E-06	-1.72380113556717E-06	0.994026958942563	-0.0830389797667217
3.4	-0.00443699894932441	-0.00289041877956596	9.04485392556486E-06	-7.58269150663549E-06	-7.33722283544868E-06	4.2516042902124E-06	0.993770241176391	-0.0849664661664456
3.5	-0.00443573982047384	-0.00283483735841018	3.08016282605287E-07	-5.32051453730943E-06	-4.41499073445911E-06	-8.91795391163754E-06	0.993447555715322	-0.0875107103821568
3.6	-0.004817522547596	-0.00310003019101002	4.07954446013931E-06	4.89192853944714E-06	-7.09069555997998E-06	9.0029680443426E-06	0.993229071336476	-0.0899885048586253
3.7	-0.00541197138353186	-0.00295620654481084	1.51938002560969E-06	-4.52802359838131E-06	-5.113278486072E-06	-6.57502515633379E-06	0.993082119039403	-0.0926504806897968
3.8	-0.00588785666942318	-0.00254899705235729	7.26613521303742E-06	-5.20647177334373E-06	-5.88114949379413E-06	-2.40661675418621E-06	0.99277381379496	-0.0946690597391544
3.9	-0.0060659336798305	-0.00188984661822914	-4.02771798651827E-06	-3.4368500482099E-07	-2.52733020123467E-06	1.13621530187605E-06	0.992874738056988	-0.0976478348975056
4	-0.00561440828008357	-0.00143828396108428	-3.38399640465353E-06	-7.69945039983794E-08	1.21745816801417E-06	8.66717343877414E-06	0.993334997026607	-0.099546302712125
4.1	-0.00546225774755015	-0.00162894315872112	-2.90772984380612E-06	-3.85362215400784E-06	5.88384316876014E-06	3.02459411289757E-06	0.992533011106854	-0.102320493382694
4.2	-0.00562935954235108	-0.00164016113205503	-7.77349762787614E-07	-2.15382040922367E-06	5.6917538362425E-06	-1.85466922688948E-06	0.99126964591864	-0.104903860191071
4.3	-0.00583440131607344	-0.00149226059353756	-5.03734965096455E-07	3.23274596563614E-06	2.13104334772185E-06	1.77384794573505E-06	0.990723188863987	-0.106665760733473
4.4	-0.00608266659422918	-0.00114607836220693	2.58059447194902E-06	3.43241202567983E-06	7.18185752621044E-06	3.89200742340808E-06	0.99021127757426	-0.108838076253404
4.5	-0.00585027235778571	-0.000742150288554859	-6.46125584053625E-06	-2.14235388165233E-07	-8.57007293709663E-06	-2.08894635272501E-06	0.989854882799378	-0.111116976375397
4.6	-0.00599214110271346	-0.000929383473843997	-9.93939695622617E-06	-9.18618691670251E-06	3.2233717103446E-06	-2.73042362290928E-06	0.989045749753712	-0.11369990247985
4.7	-0.00634173565379463	-0.00075051195594725	1.28802393713839E-07	1.86081741691699E-06	6.03657829887406E-06	-6.72885936336938E-06	0.988806418074806	-0.115407815390898
4.8	-0.00663403972810377	-0.000386814724733089	-6.37715254184178E-06	2.08459252555571E-06	7.62823262638716E-07	-1.2721244761584E-05	0.988420864225245	-0.117660623655652
4.9	-0.00670938422467017	0.000166594847627099	-3.40548104095269E-06	8.13032400494833E-06	5.77309608670728E-07	9.3550322977826E-06	0.988084320648245	-0.119307678788888
5	-0.00615728877120756	0.000505890219177935	9.61372146493026E-06	-4.06546036905744E-06	-6.91391580945157E-06	3.57876622835124E-06	0.988042988042831	-0.120882765219476
5.1	-0.00595487296932178	0.000262924228248403	-3.69332732013138E-07	-3.24410149021995E-06	-3.86728905984477E-06	-1.78415282894226E-06	0.987942924576932	-0.122217929570673
5.2	-0.0059318844987197	0.00032325982528548	-1.06954089879901E-06	-4.47572181079432E-06	8.77261405790828E-06	5.55570070550939E-06	0.987821501946578	-0.124271998086697
5.3	-0.00582074257233262	0.000493509641174043	2.28866162311704E-06	6.77531396996596E-06	8.77801168672464E-06	3.11705167648166E-06	0.987747414891211	-0.126644498634645
5.4	-0.00560109894873783	0.000805244433022585	2.69587884423956E-06	-3.13734745453975E-06	-2.6679063227466E-06	1.56524694012493E-07	0.987607864521373	-0.129626319652759
5.5	-0.00492803150122395	0.000839041270700882	2.10968008701081E-06	9.28976618897347E-06	-3.91506240511E-06	-5.01622300568367E-06	0.987205198300998	-0.132321043526876
5.6	-0.00504100766229786	0.00030178677559918	-5.84037127253037E-06	-1.12813924601072E-06	4.8602714604471E-06	1.93671131211839E-06	0.986872787015876	-0.134777711465809
5.7	-0.00553244087074501	0.00038406058547963	3.32789071990777E-06	-1.4202151380009E-06	-5.03615118496226E-06	-4.28025147817714E-06	0.986545103796262	-0.137062189091433
5.8	-0.00594568182878589	0.000728250190802635	-2.04911767296968E-06	-4.73419592366088E-06	9.44028468147493E-07	-5.80683751662634E-07	0.986445979327734	-0.13901916917208
5.9	-0.00632700346131324	0.00143843324480087	-3.87046160366843E-06	6.16344855076734E-07	3.85282911119997E-06	1.24799796622884E-06	0.986568237115806	-0.140927371494848
6	-0.00597876625404109	0.00225790199927445	-5.92886414899715E-06	5.03849591826083E-06	-1.4826886753621E-06	1.95757704199851E-07	0.987260766538514	-0.143316316515808
6.1	-0.00585583987220314	0.00210633850516946	-5.91995283758097E-06	-4.68819141097196E-06	-3.99993698058705E-06	4.3292650536502E-07	0.986160211119231	-0.145856721445106
6.2	-0.00623383953584798	0.00224394117778102	2.81528701987989E-06	3.12007799959685E-06	1.05085432157257E-06	7.2157475791987E-07	0.984861184919431	-0.146987949044881
6.3	-0.00641986992229704	0.00262894082008142	1.63887272713646E-06	-7.46442359609076E-07	-1.33522822132959E-07	1.37327928765429E-06	0.984078648672028	-0.148262117439068
6.4	-0.00633575868545467	0.00311074443876404	-5.17575254541071E-06	-5.61412667384379E-06	3.80873614735128E-06	6.9009239766407E-06	0.983930373922065	-0.149806011393238
6.5	-0.00551952054968867	0.00308030111053537	9.05380279687151E-06	-2.52300560929162E-07	-7.3132342326325E-06	-8.93078815439102E-07	0.983960754204645	-0.152979643342634
6.6	-0.00559299555630158	0.00259264520961083	-1.48487777499406E-06	4.65310226192236E-07	3.36578485078548E-06	-9.35856653584384E-06	0.983112362646302	-0.15520887358282
6.7	-0.00573919432273262	0.00277967423857167	4.32774119204765E-08	7.73211222334186E-06	-4.89467120854222E-07	-6.07100691894561E-06	0.983074092415167	-0.15692855304216
6.8	-0.0057728753169965	0.00314840340945988	4.23569271859736E-06	1.65685797796618E-06	2.18894109854842E-07	-5.22244295764351E-06	0.983122110304717	-0.158882947436268
6.9	-0.00566661205766366	0.00384733930949539	-7.54070469197684E-07	2.46328630422096E-07	5.75015815021044E-06	-2.66693104052764E-06	0.983311972699911	-0.160686609961668
7	-0.00463928953949841	0.00429427399026672	8.01466066873224E-06	-4.73568242865544E-06	4.38829153406327E-07	-3.0140844611737E-06	0.983581176671898	-0.162783383879944
7.1	-0.00449108672947321	0.00374994429538273	3.83747461080232E-06	2.04594400210329E-06	7.6161810904443E-07	7.2200841503214E-06	0.982899038347017	-0.164923626577979
7.2	-0.00480472724065931	0.00382574785601197	-2.45015805349097E-06	3.68310098341142E-06	-1.32539691803485E-06	-3.82387057903494E-06	0.982164461414232	-0.16644328762299
7.3	-0.00520184606049867	0.00416221625221871	3.43510721584848E-06	-4.88743348467285E-07	-2.44380379960898E-06	-1.9178773162116E-06	0.981185004927503	-0.167912917266218
7.4	-0.00572757433228342	0.00492318934945224	-6.17232780791895E-06	-2.7008601524683E-06	3.76209908126568E-06	2.50963540930435E-07	0.980151342723495	-0.169545444053174
7.5	-0.00527014200877549	0.00602051885987384	6.75192381025259E-06	-6.40155539976871E-06	-2.47351483614158E-06	7.91916590283297E-07	0.980353105981694	-0.170710982041437
7.6	-0.00489283734198975	0.00590454361120327	3.45960347076934E-06	5.20390662367672E-06	-1.02362771737416E-05	4.88317807173119E-06	0.981072622715787	-0.174476984719522
7.7	-0.00500124037401118	0.00606659986262754	5.97806673908019E-06	1.09374182044797E-05	3.70859323359678E-07	-1.13345090600577E-05	0.980735411298431	-0.178213996585495
7.8	-0.00477581773019284	0.00628619539613027	2.14837102346454E-06	9.90022324847959E-07	-3.13262634184344E-06	8.79279054242195E-06	0.980405850249293	-0.181490057548902
7.9	-0.00412456907059794	0.00656800049402832	2.5591255984897E-06	-2.29895355958373E-06	3.68085894687355E-06	3.58458062959761E-07	0.980421566575761	-0.184258780743659
8	-0.00274403520368945	0.00600812526265858	-2.82026326082864E-06	1.31607650698644E-06	6.88842224099166E-06	-1.82579102430235E-06	0.981451901259278	-0.187726670887944
8.1	-0.00266280557002441	0.00494461999264033	-1.79577576961457E-06	7.49434504693464E-07	-3.70699012718181E-06	-1.26886010799097E-06	0.980372167170098	-0.191625513304348
8.2	-0.00294762673094639	0.00457167100079501	-8.15855883442196E-07	6.33733909888282E-06	4.86634541092794E-06	4.37412357519705E-06	0.979473799519198	-0.194054699807681
8.3	-0.00326485512448186	0.0045886913463004	-8.14792587918516E-07	-1.42315817827019E-05	6.81733935782409E-06	5.45251407555575E-06	0.978663957072154	-0.196674829726844
8.4	-0.00348531064560951	0.00520423822377369	3.77271803078293E-06	-3.42418435194852E-06	-6.97711178871923E-06	-1.23673113087508E-06	0.977932633882754	-0.199156019375083
8.5	-0.00263212261677818	0.0057216414007611	4.67546168305862E-06	5.95806455221022E-07	8.43263864750552E-06	-6.81991811423397E-06	0.977334191091617	-0.201953742847714
8.6	-0.00246173589921192	0.00524705500809797	-3.2808895867338E-06	4.11009575145702E-06	9.8019125700679E-07	1.11041799697873E-05	0.976745899562225	-0.204441494031421
8.7	-0.00266627161908738	0.00530700818017205	2.69185569126323E-06	-1.99420390304431E-06	4.80652740622908E-07	-5.53119435321447E-07	0.976633593726532	-0.206904098139617
8.8	-0.00279667851196031	0.00565734616949957	1.253963210878E-07	-1.2550023040362E-06	-9.98348244558155E-07	9.78291851858637E-06	0.976492817327679	-0.209244070641011
8.9	-0.00271719433038584	0.00634012385851323	-3.67763928867734E-06	2.29021453916845E-06	4.84899546484986E-06	-1.79687008443584E-06	0.976661072390211	-0.21141083314096
9	-0.00157785422806425	0.00686420125433539	-1.89578774140537E-06	4.94562532483387E-07	-3.19399495362634E-06	-1.05686038442428E-05	0.976624796125489	-0.213758433359901
9.1	-0.000800306581568473	0.00623977335999968	5.26393128992403E-06	6.03268013663053E-07	9.1443074506841E-07	3.84924393369675E-07	0.976480238510432	-0.215963512514366
9.2	-0.000363240925467057	0.00585683819539364	-8.73855090691551E-06	-4.60771656084907E-06	-8.71597094277367E-07	-6.14685216937817E-06	0.976064470063576	-0.218570132090496
9.3	5.31842672494654E-05	0.00547759341745313	1.77865670122111E-07	6.23361996752014E-06	4.65586001686694E-06	-2.19206565816337E-06	0.975624909626459	-0.221108215612856
9.4	0.000456850091010756	0.00522433899372225	-1.94155906749005E-06	5.89635856267128E-06	-1.05408994144925E-05	7.74594794209618E-06	0.974783756235259	-0.223924943036427
9.5	0.00128291538254941	0.00465714391160284	3.2076443390309E-06	-7.57459548215682E-06	3.69554248332038E-06	-2.73912307457544E-06	0.974348164599743	-0.22618619144449
9.6	0.000965055745907079	0.00356030397685577	4.49661989740607E-06	5.60135531034825E-06	-6.5966303881202E-07	7.08757805190978E-06	0.974165125013677	-0.229516472743277
9.7	0.000349100672663058	0.00329041140327497	-2.60279258427335E-06	-3.95521865976769E-06	3.72008352948033E-06	-7.5350210514977E-06	0.973625508892604	-0.232306545980167
9.8	-0.000241810661100224	0.00339295535801451	-5.16134479687515E-07	-4.22827414889236E-06	6.29203476349098E-06	9.07159506930399E-07	0.973462089326406	-0.234515614300197
9.9	-0.000657890027906761	0.00406188256760832	-2.69635135880396E-06	-6.04445397272923E-07	-8.54997873230574E-06	5.48204027030918E-06	0.973269300793986	-0.236112376046714
10	-3.40935497667978E-05	0.00453898881675224	4.35304035540603E-07	-1.75911428806652E-06	-3.07944678140601E-06	-8.01807087810462E-06	0.974221577515879	-0.238257784545641
10.1	-0.000112725668794201	0.00405865107455026	2.24866082400598E-06	4.79627865041035E-06	-3.13117151536636E-06	9.89125217293119E-06	0.973385136498945	-0.241209172871981
10.2	-0.000629178594600156	0.00419153330831127	-5.39010124649143E-07	-1.05420082086683E-06	-1.21140139468664E-06	-3.13245543956554E-06	0.972438278509536	-0.243037614862142
10.3	-0.00101958856928556	0.00481486025285955	1.13633989090224E-05	-2.93425518111179E-06	1.01087727855017E-05	-4.85767501413641E-06	0.971504032565044	-0.245127909658051
10.4	-0.000923275925645238	0.00591028622804304	-6.32170461622834E-07	2.15851357880388E-06	3.04689093607783E-06	-2.19547756837344E-06	0.970442703310608	-0.247524097638346
10.5	0.000315007541687493	0.00660566315295897	-6.13465975877564E-06	4.6687072681363E-06	1.58152280846828E-06	4.324702166687E-06	0.969083058337899	-0.250674677150768
10.6	0.00109366069039772	0.00630436883607458	-7.12590041297535E-06	1.07347286334736E-05	7.05832308211822E-06	4.28189384656115E-06	0.967795140057018	-0.252821456236714
10.7	0.00156495167810078	0.00625769869405032	-3.22734040657235E-06	1.57653045819417E-06	-5.38870723513296E-06	3.18868449535629E-06	0.967107810738973	-0.255251978927351
10.8	0.00196467688750938	0.00624745081868336	-1.93019750052948E-06	5.01642531610114E-06	8.50877636139074E-07	-3.21874548686926E-06	0.96654503077055	-0.257273391955499
10.9	0.00235099060541603	0.00659103025842706	-5.79607950519255E-06	-1.05659313674474E-05	4.97382862777066E-06	1.07470085251211E-05	0.966203218037201	-0.259145173810762
11	0.00375160976109198	0.00661546804584046	2.98472937723809E-06	2.62064501363178E-06	7.68243446197495E-07	-1.12875694761046E-05	0.965986396813611	-0.260418913820669
11.1	0.00426198825739202	0.00565845018386198	3.87830633908568E-06	1.45534553893116E-06	2.39789043056204E-07	-7.40684858704221E-06	0.966051440967169	-0.262032544993991
11.2	0.00436787656805564	0.0051546219721466	-4.44018202929928E-06	-1.96774533652274E-06	-7.36724094992901E-06	-4.85148774610895E-06	0.965815566715924	-0.264178437698043
11.3	0.00442440731407034	0.00487475255787712	6.45406940613789E-07	-6.40502866965319E-06	3.82626770971562E-06	1.41826878960348E-05	0.965344647591033	-0.266575041466573
11.4	0.00445561854035253	0.00494179007731945	-5.10385618511265E-06	8.18424532372136E-06	-1.44883602968221E-06	4.09379557921528E-06	0.963968390679381	-0.269600858434088
11.5	0.00533515525787581	0.00469653525005863	4.55463193794536E-06	8.09819436821389E-06	-9.30365867065436E-06	1.60890571697802E-06	0.963085171165648	-0.27200093061193
11.6	0.00535108476329014	0.00359889788442901	-3.84777656190112E-06	1.41522805889523E-06	5.11422340270168E-06	8.14341201759984E-06	0.962279292599224	-0.276125565427603
11.7	0.00492010469724372	0.00320159654726563	2.28832427075783E-06	1.05475904614867E-05	5.30326725960286E-07	-3.66002710011915E-06	0.960923181993176	-0.280369179647341
11.8	0.00468248034698908	0.00333935497207963	1.4477719086408E-06	4.46678635077926E-06	2.27097916370807E-06	4.5381018423239E-06	0.959315593752234	-0.284349857652865
11.9	0.00516505188918401	0.0039228655573461	7.49579717522728E-06	1.05691787867597E-05	3.89305211038483E-06	3.93826555040943E-07	0.958359956267795	-0.286705625277037
12	0.00664906276033852	0.00374936258297831	2.34402085710377E-06	-5.18347183659658E-06	-3.99456297587604E-07	1.75929003596737E-06	0.958174683789067	-0.289263483140784
