# GHZ S RI R 50
0.2	0.000786383247728709	0.00214235782467849	4.79786344343119E-06	-2.98428216751629E-06	-1.37411627571027E-05	1.31202431724017E-05	0.999864461313923	-0.00688824452594791
0.3	0.00121291148134026	0.0014572743660337	2.86446377734557E-06	6.63238542021526E-06	-1.66003903093217E-06	-9.32817149126479E-06	0.999866680766913	-0.00974577487540327
0.4	0.00149061254406851	0.00113134678400021	-1.86326500750519E-06	-4.02063124029511E-06	-9.02617386615947E-06	4.40546687980633E-06	1.00014558008792	-0.0123851857645931
0.5	0.00183818354196505	0.000607998708207932	-5.36282332212375E-06	3.26657956451443E-06	-2.12749129675699E-06	6.7633346793447E-06	1.00012245968467	-0.0159619531307239
0.6	0.00159258057264597	0.000120039166361772	-1.40641856430185E-07	2.80791288664795E-06	-5.81875169669226E-07	-1.34391501863044E-07	0.999919472163299	-0.0188565410699964
0.7	0.00142227840966655	6.21953849127169E-05	8.70963176536735E-08	2.2216511229109E-06	4.910437669182E-06	-3.40338879715858E-06	0.999710464098249	-0.0217713996152678
0.8	0.00140171563956609	-9.67139664976126E-06	4.53455451122028E-06	8.28841573760784E-07	2.74710064147073E-06	2.00438841361637E-06	0.999506338169982	-0.0240041460024364
0.9	0.00131847463837975	-6.73410902017507E-06	-1.50903056121369E-07	-4.22551687298841E-06	-3.42286691094852E-06	-3.11573459239881E-06	0.999334681459187	-0.0263343509635682
1	0.00164797268171077	-3.41866954287653E-05	1.062545825232E-06	4.29917806614594E-06	3.33297737784586E-06	9.34655746116806E-07	0.999345341127865	-0.0278181570700072
1.1	0.00150379196756238	-0.000818817642155229	9.05537315349204E-06	5.16847287102464E-07	-3.58310908402364E-06	-4.99084318484977E-07	0.99901344171145	-0.0301567307175772
1.2	0.00089510477210833	-0.00156547128650366	3.76466444062828E-06	-1.20192136883438E-06	-4.10175362356035E-06	-2.43946331418987E-06	0.99815457487984	-0.0313060862687506
1.3	-8.83329374643437E-05	-0.00253771886095671	-7.62843595888341E-07	-1.42776801899919E-06	-2.59277363950645E-06	-8.71325173419148E-06	0.997929045572915	-0.0324040246997981
1.4	-0.00116648042191271	-0.00320443232108576	1.59028175373331E-08	3.45013889556017E-06	-4.28682938095979E-06	-4.12835324575545E-06	0.997442839826253	-0.0344527631983979
1.5	-0.00151090865457183	-0.00346979084037761	-1.29788949052005E-06	4.43449103662191E-06	6.5564401896366E-06	-7.42295811067796E-06	0.998503748920507	-0.0377869392752646
1.6	-0.0018548429116881	-0.00326475442938751	1.63184094214795E-06	-4.90274143375324E-07	4.24695549513292E-06	-5.40327434770221E-06	0.998389622476383	-0.0414215485656664
1.7	-0.00169644905661325	-0.00291193723791149	5.34018371543429E-07	3.96442827732525E-06	-8.29861502223489E-06	3.13872860882364E-06	0.998966128351492	-0.0439868807157371
1.8	-0.00152585411353101	-0.00268539587755568	1.83666186408328E-06	1.07971118113522E-06	5.65752434896721E-07	-1.76573073685073E-06	0.999129364862565	-0.0466889948965647
1.9	-0.00136941650433654	-0.00258862335985886	3.24461428455871E-06	3.02363629633534E-06	-1.84269568736157E-07	-2.33560807338646E-06	0.99933596476122	-0.048625641694362
2	-0.00116245151884454	-0.00284967676861185	-1.73178535651174E-07	2.01146716617528E-07	-1.2198117342984E-05	5.44138430471823E-06	1.00008915540816	-0.0517081761836866
2.1	-0.00160953742077027	-0.0031424234115993	6.678478289195E-07	-1.38729184039054E-06	1.38555411777002E-05	4.95770006229485E-06	0.999544750875474	-0.0550241423617668
2.2	-0.0019721107223815	-0.003071522616104	1.64603770758285E-06	-1.52356566459756E-06	2.68253667127714E-06	-6.23109928963485E-06	0.999223013363395	-0.0575666076489225
2.3	-0.00233714716004936	-0.00304881845852512	-1.69821005836838E-06	-3.43246431618514E-06	-1.80386976874416E-06	-4.60007343201923E-06	0.998795480919027	-0.0595002246275134
2.4	-0.00271902854919267	-0.0029668897681181	-1.21553626792364E-06	-4.40980546334158E-06	3.05642045026077E-06	1.08311511118806E-06	0.998720672892057	-0.0626209979591589
2.5	-0.00290384762253711	-0.00300931091559778	5.40955213216046E-06	5.67036803160013E-06	-2.57603675237174E-06	1.6194431439731E-05	0.998593444911839	-0.0649711136503531
2.6	-0.00356422813509047	-0.00320080968601972	-2.27596188326485E-06	2.72389200804195E-06	4.24727159240643E-07	-4.32324686851885E-06	0.998712495678185	-0.0682268113570555
2.7	-0.00412860784328443	-0.00290262164693905	-2.42227208433736E-06	-3.63982912840878E-06	2.15360782564803E-06	-2.58284069532771E-06	0.998257123456007	-0.0715927812821753
2.8	-0.00442826055033638	-0.00246081813063483	4.01873953928344E-06	2.30595046962987E-06	9.85399493878714E-06	-7.17860347546742E-07	0.998175596398675	-0.0738760520663111
2.9	-0.00437245871632761	-0.0020283199246524	1.2911264783363E-05	6.7028628756966E-07	2.40793774730671E-06	-1.17497744144573E-05	0.997608900092088	-0.0760505175499968
3	-0.0041289031604872	-0.00198450966788629	-3.85674152384266E-06	1.06126351620798E-06	-4.15797145347935E-06	-1.58752473346916E-06	0.99724055857123	-0.0785958574229181
3.1	-0.00428210323996813	-0.00190774802807109	4.75469322386783E-06	-9.8739298540655E-06	1.07070486095091E-05	2.37903409827603E-06	0.996660816726716	-0.0807602275017128
3.2	-0.00429636728104239	-0.00172397687619974	-5.40184496743209E-06	-7.39960145976674E-06	1.5673502279754E-05	5.34008067685889E-06	0.996023551860197	-0.082632442741005
3.3	-0.00432295740582057	-0.00164203306958186	-8.79100865464318E-06	2.57749400586045E-06	-8.57867206299576E-06	-1.71247836314845E-06	0.995360014128628	-0.0858930301033496
3.4	-0.00441507041883373	-0.00154157321187506	9.0369462751435E-06	-7.5950631662283E-06	-7.33315151847063E-06	4.26133633942152E-06	0.994814907338215	-0.087603097829491
3.5	-0.00445089585208961	-0.00170849205613578	3.02846676378654E-07	-5.32276453694804E-06	-4.42545771179173E-06	-8.91682951475664E-06	0.994874661830141	-0.0899118427596233
3.6	-0.00499231206800588	-0.00168708470722013	4.08783488303333E-06	4.88873161016481E-06	-7.08198006056271E-06	9.01636936030716E-06	0.994701913299579	-0.0929651246905392
3.7	-0.00527712463011178	-0.00133271196125479	1.51328380260893E-06	-4.53117204495929E-06	-5.12373300089752E-06	-6.56920474685906E-06	0.994093952542998	-0.0958611261782884
3.8	-0.00538339631192425	-0.00102091186549807	7.25957342842524E-06	-5.21679027858328E-06	-5.88488151282517E-06	-2.39876585143925E-06	0.993307583002646	-0.0977888807652369
3.9	-0.00531584933615167	-0.000754091793064953	-4.02867396681797E-06	-3.38371551518295E-07	-2.52613235448549E-06	1.13971687982449E-06	0.993080811585235	-0.10042970861895
4	-0.00519328346851782	-0.000880228262721131	-3.38444239553919E-06	-7.12969388742894E-08	1.23218309216171E-06	8.66593088276821E-06	0.993426311510642	-0.102055716221291
4.1	-0.00560812210100741	-0.000813405548345754	-2.91326107262596E-06	-3.84788609877258E-06	5.88725392634435E-06	3.01422035059178E-06	0.99265729104075	-0.104371584062921
4.2	-0.00574322818161305	-0.000476063439982032	-7.80573597107741E-07	-2.15209537275492E-06	5.68751054549593E-06	-1.86323466730874E-06	0.991727856836573	-0.106872958652743
4.3	-0.00574300827770158	-0.000237232647695334	-4.98217939495362E-07	3.2328493915432E-06	2.13352077282059E-06	1.76988180527434E-06	0.991336297694387	-0.108770784001465
4.4	-0.00578894586354397	-6.19749349119767E-05	2.58580557222289E-06	3.42696353658403E-06	7.18655395178353E-06	3.87845678625388E-06	0.990865148646032	-0.111038745026926
4.5	-0.00579663969843106	-0.000137388017085128	-6.45947062452883E-06	-2.03789303662315E-07	-8.57060319489098E-06	-2.0744961391584E-06	0.99062303582488	-0.113292496164368
4.6	-0.00652129066944331	-7.80875483581665E-05	-9.95404887096969E-06	-9.1696802411535E-06	3.2188142757321E-06	-2.73558969478685E-06	0.990173969158922	-0.116092493690353
4.7	-0.00694813002220879	0.000484875273554408	1.32310729607006E-07	1.86060961674789E-06	6.02401374510251E-06	-6.74035884232563E-06	0.989972681913066	-0.118272544359588
4.8	-0.00715273477332165	0.00112912976222005	-6.37235968955454E-06	2.09776291659113E-06	7.36210767571855E-07	-1.27219585349207E-05	0.989341621210302	-0.120899416604068
4.9	-0.00700771786001319	0.00179597200732549	-3.38606842862128E-06	8.13558808867475E-06	5.98297657746666E-07	9.35091981495856E-06	0.988508480943237	-0.12270501946006
5	-0.0065520052464675	0.00199564571479554	9.59889789259166E-06	-4.0844468049211E-06	-6.90179546600379E-06	3.59202803288084E-06	0.9880875380853	-0.123957841285974
5.1	-0.00638110543309351	0.00226047467460376	-3.76532807803848E-07	-3.24068063941411E-06	-3.86834851306915E-06	-1.77380888491533E-06	0.987995652427361	-0.125244181673376
5.2	-0.00583848235282785	0.00244200517119569	-1.07877943164704E-06	-4.46791371143365E-06	8.77526923100599E-06	5.52853509173745E-06	0.987506816150463	-0.127400193498536
5.3	-0.00539980962875834	0.00230664585119467	2.2998249686092E-06	6.75911070207693E-06	8.77042414831533E-06	3.09257108278449E-06	0.986863368272302	-0.129559436168269
5.4	-0.0051715918418458	0.00216132357598542	2.68498724732559E-06	-3.1354519064253E-06	-2.66213503061699E-06	1.60732820788133E-07	0.98633610640918	-0.131830146106515
5.5	-0.0051891148478793	0.00180326999851594	2.11553751216834E-06	9.27214240415523E-06	-3.91359532231286E-06	-5.00390492437261E-06	0.986454409425755	-0.133907768327327
5.6	-0.00578651835122861	0.00208758506238271	-5.83396407551735E-06	-1.11879280134287E-06	4.85627512834091E-06	1.9275806032076E-06	0.986337285587739	-0.136616951232543
5.7	-0.00587948835407045	0.00270509758546037	3.3207031074516E-06	-1.42290971441653E-06	-5.03469110288414E-06	-4.26630609435704E-06	0.985790684291195	-0.138989489432844
5.8	-0.00575245407864822	0.00318606956931466	-2.0528118817909E-06	-4.72311465114556E-06	9.41558875327849E-07	-5.81130123029466E-07	0.9853655239061	-0.140836196353848
5.9	-0.00550241149461778	0.00362784869043751	-3.8621705984056E-06	6.21935457977073E-07	3.84781753094881E-06	1.23896140668692E-06	0.985135017924434	-0.142433455230945
6	-0.00512047344120234	0.00344007741064862	-5.90164813535851E-06	5.03690567830596E-06	-1.47812748436365E-06	1.98337619359957E-07	0.98529822791648	-0.144325519484117
6.1	-0.00575147643317348	0.00323079925090157	-5.90449898257696E-06	-4.66366306225888E-06	-3.9849013986263E-06	4.3646230707496E-07	0.984358730476404	-0.14561347860258
6.2	-0.00626868349829505	0.00356256512142526	2.80691361119157E-06	3.10640537565643E-06	1.04741856455169E-06	7.18132783255913E-07	0.983824526129123	-0.146396508903992
6.3	-0.00647048363713526	0.00401365917659633	1.63237931760824E-06	-7.44072263059975E-07	-1.32604199391736E-07	1.36806349040465E-06	0.983446435242183	-0.147838914927717
6.4	-0.00637087731394392	0.00441061798968232	-5.1550185814097E-06	-5.59224455489346E-06	3.79332895636409E-06	6.87388852550732E-06	0.983238097535558	-0.149615043359873
6.5	-0.00619418138447975	0.00427673057479798	9.01632700652933E-06	-2.42270774212329E-07	-7.28187530910692E-06	-8.96609869999353E-07	0.982878025652479	-0.152494017983612
6.6	-0.00637348856168285	0.00474382563007778	-1.48095082609871E-06	4.61122612382378E-07	3.37194152838414E-06	-9.32239521885558E-06	0.982552508992128	-0.154428323919093
6.7	-0.00602015703442674	0.00520721961658937	2.91835326802239E-08	7.71269565911952E-06	-4.77252646653438E-07	-6.05658547588019E-06	0.982585477422725	-0.156516765275186
6.8	-0.00571566056930003	0.00556117102956293	4.22382412154322E-06	1.6603088830301E-06	2.27077355149217E-07	-5.21083211095202E-06	0.982321021894554	-0.158620174995404
6.9	-0.00529539098668144	0.00597516679150563	-7.52846351692396E-07	2.44804321255101E-07	5.74188612790388E-06	-2.65368026323906E-06	0.982103885232883	-0.160328116453376
7	-0.00489314059880301	0.00581352341956719	7.99993612310015E-06	-4.7135778563647E-06	4.41437910806101E-07	-3.00579522658633E-06	0.981910638611008	-0.162012733908708
7.1	-0.00528818393646806	0.00625388810206614	3.82277647994419E-06	2.04725390005787E-06	7.4605509222563E-07	7.20098746640244E-06	0.981368480959155	-0.163481859409477
7.2	-0.00500453197333854	0.00699199897891183	-2.45248149879329E-06	3.66731025636542E-06	-1.31261077512682E-06	-3.81681833184038E-06	0.980891450280636	-0.164878552696748
7.3	-0.00457509529602405	0.00748130769563462	3.42839534232628E-06	-4.77377631814855E-07	-2.43229880026478E-06	-1.920578844619E-06	0.979933428582321	-0.166294641383913
7.4	-0.00407413618155993	0.00782789080395064	-6.15163428343616E-06	-2.71940708258511E-06	3.75472282534721E-06	2.64654373132897E-07	0.978987998853039	-0.16766403634396
7.5	-0.00344565349228608	0.00736832143980572	6.77560178160104E-06	-6.37634985896443E-06	-2.47641590338985E-06	7.82709341319736E-07	0.979632023400036	-0.169256929554613
7.6	-0.00393926125616471	0.00690563670897122	3.44631326127501E-06	5.21539875113926E-06	-1.02535216838602E-05	4.85635527486167E-06	0.979665982762168	-0.173154755584866
7.7	-0.00428032181764864	0.0069836128253378	5.95176211529782E-06	1.09577741814636E-05	4.00882492029321E-07	-1.1338302385273E-05	0.979173997336943	-0.17640132591105
7.8	-0.00437760430004073	0.00702151503743595	2.14719495839489E-06	9.95795988450508E-07	-3.15573263267652E-06	8.7902063143354E-06	0.979004014440462	-0.179319833890571
7.9	-0.00422745752880466	0.0070149644341831	2.56523736113936E-06	-2.29599779056738E-06	3.6829555085581E-06	3.65448918500646E-07	0.979421921021795	-0.182119065637664
8	-0.00429311553449721	0.00664857747066244	-2.82047319164381E-06	1.31470084661291E-06	6.88833913635029E-06	-1.82260569484008E-06	0.979806095172755	-0.186174194852687
8.1	-0.00457762772259703	0.00728422391100181	-1.79319718312335E-06	7.46666532440931E-07	-3.69940777229236E-06	-1.26958764976372E-06	0.978120584310014	-0.188949896205984
8.2	-0.00414620879051036	0.00782502501371164	-8.23936715049479E-07	6.32153220605368E-06	4.84832301442658E-06	4.37173874042799E-06	0.977667934417264	-0.190633218013655
8.3	-0.00367097035144906	0.00812647505801416	-7.82637262214671E-07	-1.4198418780011E-05	6.78907193052489E-06	5.45359336094757E-06	0.977357135208112	-0.192982881360285
8.4	-0.00314573606684622	0.0084094975724809	3.77230709587353E-06	-3.40556951937817E-06	-6.95628403886186E-06	-1.25211831225964E-06	0.977003719843914	-0.195480698032443
8.5	-0.00274555027727068	0.00808439038350315	4.66369263650957E-06	6.10563135620952E-07	8.4384224141895E-06	-6.77687302153459E-06	0.976445676628535	-0.198282677700208
8.6	-0.00311691196473883	0.00854610815278787	-3.28954963299257E-06	4.09443420657672E-06	9.43995937455448E-07	1.10928256688365E-05	0.976124801939991	-0.200619070839406
8.7	-0.00261858792724049	0.00928246370718294	2.6937775102712E-06	-1.98424053479847E-06	4.81534053908135E-07	-5.51082385853385E-07	0.976200701557653	-0.203154260723483
8.8	-0.00176868096804753	0.00971591978569614	1.28339458143134E-07	-1.25273794144179E-06	-1.02125797420991E-06	9.76521532026356E-06	0.976154212292668	-0.205514791098348
8.9	-0.00061222274817611	0.00973249562244532	-3.67540461611608E-06	2.27666641411873E-06	4.8431365403949E-06	-1.78156352094459E-06	0.976515631860182	-0.207669506458994
9	0.000429236396874659	0.00873433381778971	-1.89237682070397E-06	4.87694512902285E-07	-3.1545846107708E-06	-1.0550878690736E-05	0.976802697880684	-0.210294896284257
9.1	0.000521364305670594	0.00789169096503978	5.24907740157634E-06	6.19135650107654E-07	9.10927495892805E-07	3.86996158414372E-07	0.976617556612462	-0.21286799631485
9.2	0.000674664886857931	0.00717340421342973	-8.70100451768493E-06	-4.62930213484469E-06	-8.46778108264388E-07	-6.13568105771616E-06	0.97611346226568	-0.215659368394375
9.3	0.000489781800646529	0.00655222903544701	1.50862086844006E-07	6.22255511379315E-06	4.65640465020915E-06	-2.16799029544184E-06	0.975608226611849	-0.218180991549796
9.4	0.000283414983964176	0.00624219930783361	-1.96887850462024E-06	5.88021505852504E-06	-1.0568049920545E-05	7.6848417747084E-06	0.975031051133305	-0.220758902441367
9.5	-0.000199457963313075	0.00581761928073651	3.24922270905872E-06	-7.56436365998852E-06	3.71267156948869E-06	-2.72239124515369E-06	0.975181256112418	-0.22357132048496
9.6	-0.000914577031822952	0.00640006786530862	4.48208103395069E-06	5.62901223106153E-06	-6.89078618937006E-07	7.09724698942229E-06	0.974599812644009	-0.227258516433961
9.7	-0.000817438177431034	0.00702467953998376	-2.59439116885299E-06	-3.97199748357915E-06	3.7533146255681E-06	-7.53721591749549E-06	0.973954715761423	-0.229908823399412
9.8	-0.000603619387990513	0.0074308295385938	-5.04423612617692E-07	-4.23955788093029E-06	6.3037165885903E-06	9.28433132645659E-07	0.973994475818126	-0.231916613268465
9.9	-0.000184303186168015	0.00773481259616016	-2.70192048267822E-06	-6.12413254975623E-07	-8.58519376009994E-06	5.47599161810459E-06	0.974574181783629	-0.233733784715923
10	3.14093640341751E-05	0.00734580846736035	4.38620941010995E-07	-1.76145254935301E-06	-3.07289683416289E-06	-8.03615600012728E-06	0.975069028442093	-0.237345352068756
10.1	-0.000423507857528689	0.00772410104041992	2.24000592522141E-06	4.8072418864359E-06	-3.15818969617833E-06	9.89554413266115E-06	0.973320276592667	-0.239513413097142
10.2	-0.000131147208002578	0.00826339990106483	-5.3705394358265E-07	-1.05738001595693E-06	-1.20494938559886E-06	-3.14085109736461E-06	0.97282289012253	-0.240748186747561
10.3	0.000387302630565676	0.00855771854307253	1.13948334362198E-05	-2.90964488171679E-06	1.01428046700598E-05	-4.84043198293398E-06	0.972568612424533	-0.242609205431634
10.4	0.0011356618300487	0.00851109415705139	-6.39337273680826E-07	2.1619730360256E-06	3.05988176096315E-06	-2.19268448045584E-06	0.972393215343925	-0.245044018893971
10.5	0.00140796833956046	0.00765428076220513	-6.16597017310173E-06	4.66331652848954E-06	1.57292076044725E-06	4.34161807633692E-06	0.971931109434092	-0.248607446582091
10.6	0.000826024219365708	0.00766369147033709	-7.18275984557987E-06	1.07558614211872E-05	7.07333599592429E-06	4.31774385100717E-06	0.971204810731575	-0.251751636928094
10.7	0.000617220462290182	0.00812601852807804	-3.24382935875169E-06	1.57581782109574E-06	-5.41745911433971E-06	3.18974098766622E-06	0.970204627976386	-0.255253050744368
10.8	0.000742552869509459	0.00888364810992919	-1.9475844638728E-06	5.03291013861556E-06	8.60474045343615E-07	-3.23006614469274E-06	0.969022532173016	-0.257701735134915
10.9	0.00142763909735748	0.00956853344751205	-5.80116130525621E-06	-1.06162595147486E-05	4.97543629193211E-06	1.07966888749281E-05	0.968602736460061	-0.259832686038637
11	0.0021067933163866	0.00945552089302696	2.99032899150615E-06	2.63548625959787E-06	7.92145348412922E-07	-1.13259122305284E-05	0.96805578978129	-0.262333858850161
11.1	0.00236710940751079	0.0100792577975937	3.88945199571501E-06	1.46904031389159E-06	2.5659602835801E-07	-7.43359487623795E-06	0.966490903055452	-0.264395672470232
11.2	0.0034563917647301	0.0104943451631071	-4.4528327311146E-06	-1.98527181315241E-06	-7.38467116238407E-06	-4.88666609699704E-06	0.96501932303469	-0.266055472216607
11.3	0.00473649112859128	0.0104172444831353	6.63532972796094E-07	-6.42932506132679E-06	3.80734979641761E-06	1.4249222015798E-05	0.963709323655978	-0.267299049721051
11.4	0.00592951641513442	0.00988209623858486	-5.15058826535341E-06	8.20562314082154E-06	-1.46730431810092E-06	4.10773318435976E-06	0.962628942714414	-0.268680081290931
11.5	0.00651281823290172	0.00856989533295172	4.56003381621856E-06	8.1571025731907E-06	-9.36190929521426E-06	1.59405361906889E-06	0.963290981895641	-0.271435683151669
11.6	0.00650239672424799	0.00807546797799085	-3.87194467597665E-06	1.41744714417446E-06	5.13103962720367E-06	8.19779688175638E-06	0.961815402962897	-0.275975427458584
11.7	0.00708483939311599	0.00749421301103224	2.28659613403312E-06	1.06082185377723E-05	5.38151818276078E-07	-3.67928055686881E-06	0.96036597550133	-0.279368814180486
11.8	0.00764968333408731	0.00656818882100439	1.45021992193475E-06	4.49321474919389E-06	2.27787870701499E-06	4.56594385933765E-06	0.959760859113623	-0.282572739162279
11.9	0.0081480204000117	0.00516205844522522	7.53322390483984E-06	1.06338830893287E-05	3.91520466198269E-06	3.9816266268142E-07	0.961009295135144	-0.285483625226887
12	0.0072029648901385	0.00334454881645111	2.35113132490443E-06	-5.20922631236442E-06	-4.00031636675581E-07	1.7677434200649E-06	0.961152562551107	-0.291364662241026
