# GHZ S RI R 50
0.2	0.000580854278198872	0.00153862096674288	4.80620825381659E-06	-2.98256561583992E-06	-1.37698094907992E-05	1.31203283330133E-05	1.00098953633691	-0.0062673474594808
0.3	0.00111468402249264	0.00109002778614507	2.8630074050477E-06	6.64282400726941E-06	-1.65503803736185E-06	-9.34105756387111E-06	1.00125315695616	-0.00918812593108862
0.4	0.0014417757695167	0.00101910726792699	-1.86437160356168E-06	-4.02805165485145E-06	-9.04293868009735E-06	4.40831255927238E-06	1.00190008520448	-0.0119201757262051
0.5	0.00241141392522946	0.000466313881461653	-5.36987748782266E-06	3.27343927157422E-06	-2.12838395460226E-06	6.7744086434112E-06	1.00207655077357	-0.0163609058626185
0.6	0.00188234439692889	-0.000741344726990905	-1.40795967251646E-07	2.81061971120277E-06	-5.82435403724524E-07	-1.34524930192368E-07	1.00082521966051	-0.0191902064120641
0.7	0.00125230507771427	-0.000758208762253626	8.65083170288563E-08	2.22453690262581E-06	4.91782777771491E-06	-3.40622022222646E-06	1.00061857592601	-0.0214037790239563
0.8	0.000937618593652163	-0.000693438135465112	4.5416915617952E-06	8.318378499179E-07	2.75088203130446E-06	2.00866718468428E-06	1.00073884669637	-0.0232413795625818
0.9	0.000466967326147572	-0.000330492285896684	-1.49620172259937E-07	-4.23438554377225E-06	-3.42882674983593E-06	-3.12352604705835E-06	1.00105752481046	-0.0251980665273327
1	0.00123696751298123	0.000598084525664842	1.0659414338429E-06	4.31060727026397E-06	3.3420580234013E-06	9.36752306626798E-07	1.00238493448659	-0.0268128515866805
1.1	0.00182664472756427	-0.000819157371195689	9.07781085801824E-06	5.12220446083894E-07	-3.59217897945127E-06	-4.9797250129546E-07	1.00207709270521	-0.0307225512547887
1.2	0.000997765602265342	-0.00190583681954529	3.77243493249142E-06	-1.20782388367408E-06	-4.11331214087946E-06	-2.44175770124684E-06	1.0004877832577	-0.0324479226598141
1.3	-0.0001020404462999	-0.00310372551538962	-7.66220897432647E-07	-1.42982272092059E-06	-2.60904724266844E-06	-8.7283527662987E-06	0.999487043099738	-0.034043910086529
1.4	-0.00136875185296583	-0.00387062774455349	2.16456268284658E-08	3.45574076962789E-06	-4.30066316799902E-06	-4.1279845844668E-06	0.998096210235232	-0.0362219247851898
1.5	-0.0012935221175176	-0.00436044085999332	-1.29208386328694E-06	4.44264170411516E-06	6.55259668422463E-06	-7.44406038959385E-06	0.998990270664641	-0.0394777357571348
1.6	-0.00229829250438052	-0.00464630531014119	1.63322633705388E-06	-4.93750142467135E-07	4.2434629088327E-06	-5.41795740066355E-06	0.99829696635408	-0.0428672980898605
1.7	-0.00249659836825047	-0.00384330997715479	5.41695362647635E-07	3.96918297117443E-06	-8.30504490160688E-06	3.15769689600194E-06	0.999057457303924	-0.0447560114608333
1.8	-0.00237055456916795	-0.00320731846337459	1.84107158884341E-06	1.07810682534634E-06	5.63547605522777E-07	-1.76916821000137E-06	0.999484049993382	-0.0470812077478562
1.9	-0.00206901410517584	-0.00252876043292017	3.25275220217806E-06	3.02393266555359E-06	-1.87332875769295E-07	-2.33862823874282E-06	1.00002600046552	-0.0482346765471257
2	-0.000745300736242507	-0.00263692816160183	-1.73500477582211E-07	2.01859559218105E-07	-1.22280639508563E-05	5.46692722596206E-06	1.00304197458513	-0.051261692516922
2.1	-0.00120662676492561	-0.00394874947293178	6.66493684821845E-07	-1.39312359261921E-06	1.3909615271834E-05	4.93898475914989E-06	1.0021406354358	-0.0569206256545032
2.2	-0.00203577701628376	-0.00403146418382757	1.64566604444994E-06	-1.53183652009876E-06	2.6713657678209E-06	-6.25351105337365E-06	1.00072590218561	-0.0595552502003779
2.3	-0.00278425540830168	-0.00392821615658223	-1.71171074490301E-06	-3.43461197062632E-06	-1.82098777475635E-06	-4.6043257290256E-06	0.99989473020206	-0.0612641027480566
2.4	-0.00357177121680652	-0.00335263380354301	-1.23162855290315E-06	-4.41442671379533E-06	3.06563717567434E-06	1.07563718982416E-06	0.999673527492368	-0.064253240927446
2.5	-0.00305754042205752	-0.00249043783971692	5.43664908269628E-06	5.65826343798443E-06	-2.52152521035303E-06	1.6224175321947E-05	0.999554712672189	-0.0667598736794276
2.6	-0.00302390190050393	-0.00330650720113961	-2.26945449627369E-06	2.73251403503318E-06	4.1220423453811E-07	-4.32748246817801E-06	0.99923666241668	-0.0701297847229932
2.7	-0.00357450420264545	-0.0034116857112548	-2.43432107485916E-06	-3.63677434362688E-06	2.1487178174283E-06	-2.59105638556528E-06	0.998726034274517	-0.0734563023556733
2.8	-0.0040361526140425	-0.00326553852176449	4.03002611563968E-06	2.29729289328456E-06	9.86361738878445E-06	-7.46626280469335E-07	0.998558108855127	-0.0759734646102538
2.9	-0.00419269005778234	-0.00271366768920823	1.29286381630144E-05	6.29615458671821E-07	2.37304522607189E-06	-1.17713585229758E-05	0.997776704992196	-0.0783429839779854
3	-0.00331449134632438	-0.00270250576457053	-3.85572413327677E-06	1.07469416268163E-06	-4.16590208220719E-06	-1.57480858692232E-06	0.997198317004521	-0.0811300121546218
3.1	-0.00377494361101132	-0.0034920752614344	4.7285660988709E-06	-9.89695080910164E-06	1.07235165986466E-05	2.3483191751478E-06	0.99614983983454	-0.0834877404425756
3.2	-0.00432149175090434	-0.00336165226257121	-5.43223090734985E-06	-7.38759654724886E-06	1.57059960183693E-05	5.29077597259094E-06	0.995115069485763	-0.0853551769375868
3.3	-0.00473065513142826	-0.00315365600686911	-8.78634161290751E-06	2.61334709515979E-06	-8.59060107452706E-06	-1.68007967500743E-06	0.994017967627521	-0.0886801110429771
3.4	-0.00510112754531827	-0.00258510936523354	9.00240922932475E-06	-7.63367441754459E-06	-7.31346777060226E-06	4.29292527306478E-06	0.992713598043662	-0.0904042879049382
3.5	-0.00439670420147816	-0.00244107000746979	2.83195662429888E-07	-5.31700158273151E-06	-4.45202127108224E-06	-8.88932563093539E-06	0.992233539771264	-0.0917605658573452
3.6	-0.00511809123041644	-0.00326243407055182	4.10005585970674E-06	4.87254637876998E-06	-7.04893910286581E-06	9.03185040408686E-06	0.992335499023015	-0.0946882947254814
3.7	-0.0060735453482378	-0.00282919453207217	1.49678568958391E-06	-4.53286697703237E-06	-5.14210884219442E-06	-6.54686937043657E-06	0.99148648543621	-0.0974408065471462
3.8	-0.0066179980867164	-0.0020284343794433	7.23382070214145E-06	-5.23547632562185E-06	-5.88639721532507E-06	-2.37619801977321E-06	0.990565360966954	-0.0989493493698345
3.9	-0.00659652012277521	-0.000817275365364618	-4.02397683469105E-06	-3.26825643959146E-07	-2.51947125093888E-06	1.14506830863494E-06	0.990653643431969	-0.100652816893896
4	-0.00510923373033907	-0.000356571836466137	-3.38425998560537E-06	-6.3247368078708E-08	1.2526471073901E-06	8.6621020929574E-06	0.993415932676162	-0.102588832831724
4.1	-0.00508603850750975	-0.00132324813728426	-2.92658700025473E-06	-3.83572958490305E-06	5.89646150627216E-06	2.99128010631613E-06	0.991801996245556	-0.107357567262892
4.2	-0.00547701035945641	-0.00131537925830427	-7.87692609612198E-07	-2.14686000231759E-06	5.67441394563614E-06	-1.88226616355558E-06	0.989607032331741	-0.109784728798516
4.3	-0.00571301325132232	-0.0010904932634046	-4.86092423274585E-07	3.2301971355369E-06	2.13687214470799E-06	1.75991105500363E-06	0.988755212198878	-0.111380471375938
4.4	-0.00590430947973706	-0.000491428703604628	2.59499151563097E-06	3.41241072188853E-06	7.19091291527654E-06	3.84601223079495E-06	0.988141869945342	-0.113550529672064
4.5	-0.00479263688986252	-0.000177785182469225	-6.44427692962139E-06	-1.72915043499175E-07	-8.55892451326696E-06	-2.02902022936762E-06	0.987451493182824	-0.116584722781287
4.6	-0.00519709066913567	-0.00137140792165816	-9.94742369360759E-06	-9.0965071520878E-06	3.19589333113219E-06	-2.73631594027875E-06	0.98527769444856	-0.119007915474777
4.7	-0.00605196763272218	-0.00130785570480364	1.36893616667382E-07	1.85248205691801E-06	5.9802797851658E-06	-6.72886324281732E-06	0.98450608228022	-0.120209022030007
4.8	-0.0066972833497239	-0.000866525892833066	-6.34089569779584E-06	2.10360084350772E-06	7.03959121053982E-07	-1.26704345530201E-05	0.983691856083326	-0.12212352480645
4.9	-0.00699184694104722	6.99242119583781E-05	-3.35401639178762E-06	8.10846953058272E-06	6.16104793679945E-07	9.30998161874896E-06	0.982815182959538	-0.123401798394815
5	-0.00582543049842768	0.000406341301048961	9.54289841236104E-06	-4.08171435913083E-06	-6.86031147024857E-06	3.58675958317553E-06	0.982333414398035	-0.124472803717615
5.1	-0.00621680627638546	-0.00032517470722551	-3.7733931161112E-07	-3.22487248330643E-06	-3.85126781452149E-06	-1.76220887456029E-06	0.981830244309263	-0.125346053862234
5.2	-0.00653533301759203	0.000143389760594868	-1.07703228085627E-06	-4.44775764933123E-06	8.74072673249379E-06	5.49868547431108E-06	0.98139509038635	-0.126888000129374
5.3	-0.00641946537016049	0.000671555052334699	2.29584703149418E-06	6.72896421110054E-06	8.73636677847554E-06	3.07235126894734E-06	0.981009109577594	-0.128866273428507
5.4	-0.00598905400132482	0.00144349150914266	2.66833016254294E-06	-3.12466696984201E-06	-2.649645541738E-06	1.63627394699179E-07	0.980226769102947	-0.131252914745704
5.5	-0.00428621336517906	0.00110034032722923	2.10671374121386E-06	9.21546681341504E-06	-3.89215655118034E-06	-4.97215162391845E-06	0.980102561160912	-0.132538079599084
5.6	-0.0052553210048423	-0.000286670705548752	-5.80281568286018E-06	-1.11723628535121E-06	4.82961923403297E-06	1.92110516302691E-06	0.980162854831783	-0.135199586803187
5.7	-0.00641768213341826	0.000222007377234742	3.30584695468164E-06	-1.41311365148527E-06	-5.00656069837023E-06	-4.25001804657503E-06	0.979324684096408	-0.137077749030428
5.8	-0.00711322166220797	0.0011573563695264	-2.03687241424145E-06	-4.70369862956113E-06	9.37917881160388E-07	-5.77146119378023E-07	0.978971750645824	-0.138019351713279
5.9	-0.00751591337259494	0.00290159286067474	-3.84853101635313E-06	6.09959292194523E-07	3.82964130356413E-06	1.24359060261523E-06	0.979742046979619	-0.138035962031447
6	-0.00552784799476813	0.00456059274479844	-5.90561929677752E-06	5.02041639764072E-06	-1.4770501467756E-06	1.95260651840129E-07	0.983951305279812	-0.140664301140844
6.1	-0.00465637424866028	0.0033387335385233	-5.89803745215339E-06	-4.65422470440063E-06	-3.97892028405599E-06	4.37630367134614E-07	0.982170749701351	-0.14561474485485
6.2	-0.00487581263872001	0.002930352106025	2.80220796148403E-06	3.09752947678003E-06	1.04540355191513E-06	7.15846778994419E-07	0.98014022438949	-0.146722024252937
6.3	-0.00516678845846363	0.00273176091790478	1.62791284244004E-06	-7.42600620924608E-07	-1.31867120919151E-07	1.36453665818765E-06	0.979037473061681	-0.147832350232064
6.4	-0.00534447733629108	0.00318310783417561	-5.14451882435217E-06	-5.57908313691217E-06	3.78603812239607E-06	6.85811212795191E-06	0.978970567644052	-0.148988530850677
6.5	-0.00406594704919257	0.00249781572123613	8.98971859623576E-06	-2.58679543953511E-07	-7.26245844751305E-06	-8.80189867038206E-07	0.978466347310458	-0.153474751908817
6.6	-0.00535813364698653	0.00154441975679604	-1.47281809763279E-06	4.5974773001446E-07	3.34753057260111E-06	-9.27567112333188E-06	0.975297928739338	-0.15401854199373
6.7	-0.00595571904520372	0.00222988393183853	2.28265814282395E-08	7.67043765426589E-06	-4.69769998760346E-07	-6.02376637776883E-06	0.975465034887718	-0.153832564085215
6.8	-0.00618055727813699	0.00294142314845439	4.19844146977172E-06	1.65900658610649E-06	2.35141554425723E-07	-5.18275803662858E-06	0.975944253071668	-0.154693822325765
6.9	-0.00602877620147747	0.00434161152099827	-7.49746051376555E-07	2.41642080373574E-07	5.72027585684811E-06	-2.62566107324969E-06	0.976675464963	-0.155322977442366
7	-0.00362524233403658	0.00449341269646029	7.9800146308616E-06	-4.66874679462483E-06	4.48769800951862E-07	-2.99151642641882E-06	0.978583304480727	-0.157320650363714
7.1	-0.00437549105976048	0.00276893395429523	3.80221493230947E-06	2.0509532577405E-06	7.2170236583197E-07	7.17601940812993E-06	0.977374097839071	-0.160189026402562
7.2	-0.00545141533790027	0.00313380357258186	-2.45344573370008E-06	3.64699127227256E-06	-1.29727963133497E-06	-3.80626867654716E-06	0.976137338864922	-0.161189791779888
7.3	-0.00629670622688831	0.00386429349405075	3.41559553995171E-06	-4.6734470451474E-07	-2.41788425398675E-06	-1.91851924122069E-06	0.974643238253438	-0.162103042325899
7.4	-0.00718319259281061	0.00555263102172854	-6.11119034496E-06	-2.71707805329532E-06	3.73298749936142E-06	2.71101224997071E-07	0.972378595253526	-0.162098537509383
7.5	-0.00536606783598796	0.00738603910022468	6.75996538778063E-06	-6.29725351844848E-06	-2.46290143940108E-06	7.64712233400327E-07	0.974634796969509	-0.159656461574554
7.6	-0.00500835535114138	0.00629127213246717	3.39722989903838E-06	5.20978675855406E-06	-1.02308664346423E-05	4.76960178110615E-06	0.977726134242737	-0.164622708287714
7.7	-0.00538042948458374	0.00660846208303673	5.85803409953395E-06	1.09429012560939E-05	4.67458846987633E-07	-1.12833227641694E-05	0.977605222572541	-0.168441738787929
7.8	-0.00514330461761917	0.00706829689929952	2.13113020669222E-06	1.00581199178235E-06	-3.20076687913489E-06	8.73060511792536E-06	0.977822193871691	-0.171063478888342
7.9	-0.00411911935618783	0.00769893914843374	2.57518022971182E-06	-2.26598938275859E-06	3.66639376612571E-06	3.9512551628143E-07	0.979469709016061	-0.172480870582103
8	-0.00171405929582236	0.00637103378745726	-2.83440081144926E-06	1.28743693477478E-06	6.90870494210959E-06	-1.75552707328919E-06	0.984665304310371	-0.177275391550699
8.1	-0.002703874587528	0.00459187969745121	-1.80280272041172E-06	7.35121811431434E-07	-3.69846508852082E-06	-1.29981289896595E-06	0.982472022679156	-0.184086219604286
8.2	-0.00334513520434589	0.00472251865967061	-8.67427815747469E-07	6.33230104322596E-06	4.83209916951616E-06	4.41465632113602E-06	0.980985288242674	-0.186077097256497
8.3	-0.00365030137250807	0.00509436325653258	-6.98357342709522E-07	-1.42482062528599E-05	6.77726677613483E-06	5.51236496970053E-06	0.980668787631178	-0.188350933000071
8.4	-0.00363432224005072	0.00630017178261194	3.80474030075964E-06	-3.39997823384267E-06	-6.97773031119857E-06	-1.29255551620505E-06	0.980832983533805	-0.190887590825377
8.5	-0.00126308304362972	0.00643197130789996	4.67412785353109E-06	6.28532176043284E-07	8.48488972459956E-06	-6.76560705933369E-06	0.980757338644101	-0.194706250192847
8.6	-0.00183656292933871	0.00456497519449365	-3.31746641356023E-06	4.08530587781838E-06	8.87820254159409E-07	1.11196638251431E-05	0.979802602270714	-0.197199993880481
8.7	-0.00282497164368041	0.00473520579899092	2.71406353337719E-06	-1.97443593335272E-06	4.86329904063375E-07	-5.49947140005242E-07	0.980109013254145	-0.199509376271686
8.8	-0.00341128324656114	0.00542959149032915	1.36384454517894E-07	-1.25746379517981E-06	-1.08406087727434E-06	9.80192934616132E-06	0.980435620581047	-0.201930603642982
8.9	-0.00351119345957727	0.00692790976463418	-3.70838145299935E-06	2.2702269955212E-06	4.88015389799913E-06	-1.76613315761038E-06	0.981020326870768	-0.204221506784166
9	-0.00110369089171859	0.00771029488154225	-1.90491149986306E-06	4.82337086169126E-07	-3.127121299611E-06	-1.06226184349658E-05	0.981551593557472	-0.206607461179116
9.1	-0.000582375563992429	0.0062904243157616	5.27883178282586E-06	6.46455470311862E-07	9.14840419126023E-07	3.93469405745183E-07	0.982078291007833	-0.209249202125736
9.2	-0.00029182514616577	0.00598987469416809	-8.74388978199231E-06	-4.69087803128431E-06	-8.31213955161328E-07	-6.18019575619426E-06	0.982067268584392	-0.212516794510946
9.3	8.80519643976523E-05	0.00558413675867036	1.3773619167887E-07	6.26320914421687E-06	4.69148431663506E-06	-2.17148176688884E-06	0.98161451523503	-0.21574560387591
9.4	0.000541995012928103	0.00567221187154182	-1.98610425070534E-06	5.90848831489128E-06	-1.06321795935488E-05	7.71230616083675E-06	0.980302267559426	-0.218534814364205
9.5	0.00216586745674671	0.00434511869224027	3.2795773961768E-06	-7.58065407360021E-06	3.73192110880528E-06	-2.72162421908556E-06	0.98102559115813	-0.22003278664595
9.6	0.000607021700032645	0.00256050846664516	4.48274800855559E-06	5.67004879113313E-06	-7.16890953155729E-07	7.12692343273248E-06	0.981627285369162	-0.224873426667393
9.7	-0.000701756593915277	0.00279951931485685	-2.59495104848145E-06	-3.99973722808452E-06	3.79528595856409E-06	-7.56296915404754E-06	0.980819788664022	-0.228262637884367
9.8	-0.00167955287390298	0.00349840806793694	-4.93875789487334E-07	-4.26239161326891E-06	6.33248944664721E-06	9.52540314190872E-07	0.980512979881472	-0.230345856706741
9.9	-0.0021710806842916	0.00520044132686883	-2.71477960901279E-06	-6.2709956877402E-07	-8.65680844911911E-06	5.47162043239319E-06	0.981302085434036	-0.230744386476191
10	-0.000132585608263114	0.00599012470136999	4.48164006016454E-07	-1.77634384401301E-06	-3.07619558890941E-06	-8.11992023189396E-06	0.985833527084803	-0.235122907127795
10.1	-0.000457818041577655	0.00491701146665194	2.25949497974477E-06	4.84731370306755E-06	-3.18333921430937E-06	9.9791154399266E-06	0.982854805699352	-0.24073268050506
10.2	-0.000941775907823133	0.00539766237469288	-5.41563443362664E-07	-1.06463364170935E-06	-1.21554384117128E-06	-3.16263951121891E-06	0.981111557786049	-0.24219347985765
10.3	-0.00107141038314378	0.00618230626379885	1.14698116613947E-05	-2.9371121423586E-06	1.02080015741066E-05	-4.88008348128793E-06	0.980395766061686	-0.244179062367866
10.4	-0.000585316999824564	0.00765976146288324	-6.41163330459409E-07	2.17793329711021E-06	3.07865809947965E-06	-2.21183953525866E-06	0.980105552162209	-0.246911219321862
10.5	0.00206735764087072	0.00777158367050123	-6.1858264655531E-06	4.70906886058463E-06	1.59552499898672E-06	4.36102367856234E-06	0.97882783001014	-0.251839174072882
10.6	0.00225333120820238	0.00631130784741748	-7.18969469649656E-06	1.08111393842702E-05	7.1089059397586E-06	4.32074112411655E-06	0.976613645995818	-0.254122761044367
10.7	0.00232359071378709	0.00608953258171273	-3.2558057041408E-06	1.58702111469356E-06	-5.43671109063459E-06	3.21087564383663E-06	0.97613500318166	-0.256931234629139
10.8	0.00228684289665663	0.006022058314696	-1.94828350549353E-06	5.06044717649436E-06	8.59051099170613E-07	-3.24706895965248E-06	0.975388459841252	-0.259811627569902
10.9	0.00251210025289199	0.00686239590452675	-5.85716004501263E-06	-1.0655978532107E-05	5.0276721219506E-06	1.0839382273158E-05	0.974804791081854	-0.262281062189513
11	0.00493668393541792	0.00645503992726934	3.01260343343507E-06	2.63742026908774E-06	7.57995113666063E-07	-1.13796668119678E-05	0.974565996588671	-0.264427058849787
11.1	0.00442626277256813	0.00462845872703234	3.912376647698E-06	1.46167001568375E-06	2.30948760144153E-07	-7.46820820957084E-06	0.973677957555743	-0.267075064546785
11.2	0.00385822824498343	0.00445372962404319	-4.48142641241126E-06	-1.9740495169186E-06	-7.43925066520658E-06	-4.87510034852803E-06	0.972464680285711	-0.26970443665037
11.3	0.00348837067148335	0.00465344852393379	6.29996397364279E-07	-6.4568565035442E-06	3.90122787979352E-06	1.42806910971792E-05	0.97064834236206	-0.272300477238779
11.4	0.00346745410441417	0.00557104293769755	-5.10602640461767E-06	8.25584598474156E-06	-1.44283524851789E-06	4.12548415198593E-06	0.967706370096419	-0.274552782937851
11.5	0.00554557344410341	0.00512448143925888	4.59938074931082E-06	8.14045538497979E-06	-9.35934248800688E-06	1.63739384098448E-06	0.968455629335885	-0.275428832095458
11.6	0.0047486169175559	0.0033887737699572	-3.87341954554176E-06	1.43782517173528E-06	5.17851886672186E-06	8.19129615006574E-06	0.967896343873992	-0.281594761508106
11.7	0.00391892205041681	0.00352642071779472	2.34798358272304E-06	1.06161325232406E-05	5.19396408008202E-07	-3.6891822748553E-06	0.965422609876928	-0.286154892315521
11.8	0.00368307719458206	0.00422517632164308	1.47645945774267E-06	4.49092716914708E-06	2.30554492863904E-06	4.55924635255052E-06	0.963204042517797	-0.289488117402106
11.9	0.00471241397241075	0.00565173685621098	7.58467548589296E-06	1.06181354826585E-05	3.92184055438328E-06	3.83330459418317E-07	0.96333544838843	-0.290203199589045
12	0.00770096329415733	0.00470867659309922	2.34135069443848E-06	-5.24325906975148E-06	-3.94833471692516E-07	1.77769733123594E-06	0.966642655061752	-0.295586170859511
