# GHZ S RI R 50
0.2	0.000713258026989727	0.00216821442183175	4.79911985100821E-06	-2.98415718166109E-06	-1.37453841290954E-05	1.31206952813081E-05	1.00003987340793	-0.0066672463104334
0.3	0.00125918565312987	0.00159563240638715	2.86482125555759E-06	6.6331769613955E-06	-1.66025708529826E-06	-9.32928946201644E-06	1.00010411378991	-0.00955495248663428
0.4	0.00156651107532252	0.00128353437926462	-1.8633949028028E-06	-4.02099783454285E-06	-9.02699867916594E-06	4.40577793323677E-06	1.00036260611621	-0.0121885161624378
0.5	0.00204031800584394	0.000950091170802053	-5.36357429251376E-06	3.26827394987347E-06	-2.12686939793768E-06	6.76533275674953E-06	1.00052138620303	-0.0157563602539396
0.6	0.00202426615848109	0.000229882813145013	-1.39627310790626E-07	2.80770349302419E-06	-5.81869317766615E-07	-1.34171531855131E-07	1.00014586800378	-0.0189354458574967
0.7	0.0017605057662775	3.41917221418199E-05	8.75635458336333E-08	2.22110361051812E-06	4.90852231349768E-06	-3.40365783926927E-06	0.999741269460696	-0.0217370730486295
0.8	0.00165972217730569	-8.38648701392271E-05	4.53343602391974E-06	8.28018128246907E-07	2.74662148684933E-06	2.00348273975504E-06	0.999506619295341	-0.0238588133064013
0.9	0.00140991333986983	-0.000117782304202552	-1.50910409605614E-07	-4.22442259567612E-06	-3.42201603055432E-06	-3.1148913705347E-06	0.999315842161398	-0.0261010829882755
1	0.00150236401467538	0.000256161760076711	1.06228506556858E-06	4.29938639521899E-06	3.33301852638266E-06	9.34913363780268E-07	0.999470351148406	-0.0272842923096512
1.1	0.00175457964180826	-0.000290266299773122	9.05710953139491E-06	5.15600634734754E-07	-3.58383978487794E-06	-4.98645026445589E-07	0.999543804757967	-0.0297331582755329
1.2	0.00129285294237848	-0.000874317245763331	3.76598839903637E-06	-1.20303743238485E-06	-4.10382274621723E-06	-2.43976582533513E-06	0.998934161582555	-0.0307664842204426
1.3	0.000751016338503691	-0.00161988163805754	-7.63901233802544E-07	-1.42859798286592E-06	-2.59766028163299E-06	-8.71900701928105E-06	0.99937172135459	-0.0317787367892447
1.4	5.30939554241599E-05	-0.00254648502142251	1.82416093792258E-08	3.4526205863698E-06	-4.29271102875299E-06	-4.12844391730193E-06	0.999143174529357	-0.0343128331508079
1.5	-0.000139232294077033	-0.00315091024470756	-1.29462363763383E-06	4.43630766856346E-06	6.55175724556201E-06	-7.42945698666986E-06	0.999716761533684	-0.0379665171182691
1.6	-0.000783242663084698	-0.00363180466847415	1.63097926581735E-06	-4.91184128169182E-07	4.24200135395801E-06	-5.40427792491545E-06	0.998810521316813	-0.0419125582902939
1.7	-0.00112272799740098	-0.00337509298137027	5.35707834724954E-07	3.96162578192163E-06	-8.29171377774957E-06	3.14097592464946E-06	0.998732982009644	-0.0443355925570891
1.8	-0.00125629990062982	-0.00310269760304844	1.83550965579057E-06	1.07794079479794E-06	5.64469475552439E-07	-1.76441415544527E-06	0.998452631737312	-0.0469300358645795
1.9	-0.00138626931604797	-0.00281807717944403	3.24127393123073E-06	3.01890523704387E-06	-1.84657464515583E-07	-2.33257338219741E-06	0.998045106896101	-0.0485742766560502
2	-0.000974962932491179	-0.00263195926940151	-1.73078572342845E-07	2.00835620228306E-07	-1.21868934398794E-05	5.42936735480186E-06	0.999086372073196	-0.0505863255569934
2.1	-0.00118147052357578	-0.0033026337149305	6.67493029141157E-07	-1.38642241217811E-06	1.38469216674104E-05	4.95519894058601E-06	0.999145775103904	-0.0546558052932322
2.2	-0.0017823301638212	-0.00338053534007045	1.64420998420843E-06	-1.52255226944233E-06	2.67872613408035E-06	-6.22605591078929E-06	0.998289435831717	-0.0574609580852646
2.3	-0.00238572023173024	-0.00336101563881821	-1.69687580923151E-06	-3.42817899492459E-06	-1.80262799226863E-06	-4.59441721065113E-06	0.997465688293295	-0.0592747255431666
2.4	-0.00313752593211581	-0.00312464281652606	-1.2142769111928E-06	-4.4040476327087E-06	3.05256273044549E-06	1.08151039913064E-06	0.997030813464554	-0.0621628425541046
2.5	-0.0033940402204546	-0.0023872365868185	5.40284111335647E-06	5.66127441526092E-06	-2.56941422437484E-06	1.61717294096504E-05	0.996673413265522	-0.0640346884508795
2.6	-0.00344054857225727	-0.00242682523478339	-2.27190792760123E-06	2.7183370262522E-06	4.24455202096872E-07	-4.3148351192727E-06	0.996741974980951	-0.0668283694161532
2.7	-0.00369649505858161	-0.00223292298375799	-2.41550130526353E-06	-3.63450685776765E-06	2.15116555672583E-06	-2.57668317005864E-06	0.996588938604237	-0.0697475123503586
2.8	-0.00386500159444134	-0.00202940328955074	4.01045158491517E-06	2.30553228066765E-06	9.8388466900631E-06	-7.08713232476431E-07	0.996888813914944	-0.07201236140976
2.9	-0.00393842248889045	-0.00165996010638084	1.28939149442877E-05	6.79581750845257E-07	2.41405446841205E-06	-1.1732569311885E-05	0.996507227165162	-0.0742806802710328
3	-0.00338017352205171	-0.00138006993881297	-3.85237739939392E-06	1.05755582241473E-06	-4.15161590725584E-06	-1.58797677825532E-06	0.996351938490634	-0.0768224498439411
3.1	-0.00330003298829209	-0.00184908413428647	4.75791434772871E-06	-9.85848653596455E-06	1.06927353273095E-05	2.38569849793792E-06	0.996059998053936	-0.0791176672741951
3.2	-0.00349619482342842	-0.00192967661108889	-5.39175974353018E-06	-7.39813719837977E-06	1.56570611626666E-05	5.3483837104974E-06	0.995645652460055	-0.0812314188328665
3.3	-0.00370387184278723	-0.00202018214879885	-8.78755801797702E-06	2.57088400085846E-06	-8.57282559873337E-06	-1.71654236755997E-06	0.995088456865211	-0.0848172069673818
3.4	-0.00411790018837128	-0.00193955835147295	9.03340177862963E-06	-7.58930039297147E-06	-7.32993195957318E-06	4.25769453088684E-06	0.994305041700981	-0.0869718136308938
3.5	-0.00401397519625313	-0.00175632212390564	3.03579805523785E-07	-5.31558312713366E-06	-4.41763429562099E-06	-8.90585369965665E-06	0.993654590061637	-0.0888914053756064
3.6	-0.00446521598878223	-0.00227516405349683	4.07868170268986E-06	4.88758784861919E-06	-7.083376755446E-06	8.9998324174492E-06	0.993878772288965	-0.0915835483800911
3.7	-0.00526434234741398	-0.00205362173539811	1.51650987650663E-06	-4.52642045759972E-06	-5.11371767526171E-06	-6.56930878640971E-06	0.993241263223053	-0.0945659346353257
3.8	-0.00583320566519089	-0.0015110998876277	7.25887843608934E-06	-5.20663382330724E-06	-5.87850404026794E-06	-2.40218650354958E-06	0.992197214955649	-0.0963766047127392
3.9	-0.00609071727605844	-0.000630262713367322	-4.02416101442474E-06	-3.42446886779741E-07	-2.524786832453E-06	1.13577175773751E-06	0.99154840843132	-0.0983566954315655
4	-0.00530659454421376	0.000147123397446023	-3.38280306309738E-06	-7.81035101909961E-08	1.21412968664285E-06	8.66459174133752E-06	0.993149790711215	-0.0985654839280491
4.1	-0.00495544672713098	-0.000349347612684222	-2.90876702637422E-06	-3.85266923384905E-06	5.88455578931168E-06	3.02280029191539E-06	0.993472136428278	-0.102221771540695
4.2	-0.00518900074866801	-0.000459281620385139	-7.78000037069306E-07	-2.1531720119168E-06	5.6901128586811E-06	-1.85642157918772E-06	0.992188379536592	-0.105183745415142
4.3	-0.00546317731623949	-0.000373794307109001	-5.02670400661594E-07	3.23270246924461E-06	2.13147525723098E-06	1.77305501088985E-06	0.991655893816354	-0.107075287099931
4.4	-0.0058929584919123	-9.88050593749873E-06	2.58246195173842E-06	3.43237823251986E-06	7.18506044916506E-06	3.8904697141412E-06	0.991207909050405	-0.109208133795959
4.5	-0.00554353315176811	0.000681309252886129	-6.46415977897127E-06	-2.07291762944435E-07	-8.57588892177464E-06	-2.08048248836425E-06	0.991317043662792	-0.111689818994514
4.6	-0.00560432119160627	0.000256784031857615	-9.94578880848148E-06	-9.17197441344665E-06	3.21921134395001E-06	-2.73294356874619E-06	0.990271789570699	-0.114707312884935
4.7	-0.00604418024273234	0.00044050751240571	1.30032791031376E-07	1.85973390390155E-06	6.02865715258496E-06	-6.72948105010725E-06	0.989887603323182	-0.116420672288981
4.8	-0.00635630120196611	0.000773534890426036	-6.37304627327201E-06	2.08634045618721E-06	7.56871950851654E-07	-1.27152079880804E-05	0.989393331154787	-0.118779041856129
4.9	-0.00658205554320647	0.00132304927435913	-3.40082779337533E-06	8.12867911540336E-06	5.80973094326198E-07	9.35127472426145E-06	0.988707065230534	-0.12051178484378
5	-0.00591419505062044	0.00184879479634597	9.60308033208406E-06	-4.06808947178526E-06	-6.90585097588575E-06	3.58010624317635E-06	0.988298981907405	-0.121780878597712
5.1	-0.00587717876677713	0.00138614287407722	-3.68923177885047E-07	-3.24073710276956E-06	-3.86326042149735E-06	-1.78233210131909E-06	0.988087335826184	-0.122957759722071
5.2	-0.00606066028587973	0.00169253470480519	-1.06773179874229E-06	-4.47239838370118E-06	8.764458543607E-06	5.55317237910915E-06	0.987684173356648	-0.124757186118399
5.3	-0.00589607270159824	0.00210668643157756	2.28589540546579E-06	6.77171666520696E-06	8.77210127330285E-06	3.11698407369018E-06	0.987537818864237	-0.126695474674453
5.4	-0.00560198354379335	0.00256351462990176	2.69403916662433E-06	-3.13557449121797E-06	-2.66625666306347E-06	1.56583116713189E-07	0.987394224843849	-0.12936142790171
5.5	-0.00448285997564832	0.00270439029413802	2.10368811594087E-06	9.27811531089558E-06	-3.90812955478043E-06	-5.01088266052133E-06	0.987295590309927	-0.131188584185145
5.6	-0.00477957283556582	0.0016138001621376	-5.83529773888196E-06	-1.13361654313779E-06	4.85498572377234E-06	1.94060802121814E-06	0.98785465271829	-0.134073698087484
5.7	-0.00565768014288289	0.00181081824679118	3.32814634152279E-06	-1.41670045498324E-06	-5.03061552673192E-06	-4.28353667471999E-06	0.987172192190119	-0.136804747536163
5.8	-0.00627224368985431	0.00236082914299059	-2.04421801003875E-06	-4.73456789982555E-06	9.44257562353161E-07	-5.796531938841E-07	0.986378030212746	-0.138581952802221
5.9	-0.00694248672465057	0.00343240728880496	-3.8699031303836E-06	6.10898198841459E-07	3.84976006305814E-06	1.25275100966785E-06	0.985684513432953	-0.13912733276319
6	-0.00626763851052604	0.00523332903807541	-5.94405732093915E-06	5.03340784044711E-06	-1.48461206865157E-06	1.93352375808028E-07	0.988478116431808	-0.139105537753197
6.1	-0.00532165909341792	0.00507393619260546	-5.92698844051679E-06	-4.69633123838757E-06	-4.00565066638928E-06	4.32466021013197E-07	0.989457833052485	-0.142941791176839
6.2	-0.00509107698714513	0.0050280747675919	2.81863640593766E-06	3.12235163661201E-06	1.05200295150718E-06	7.22008915561202E-07	0.988900868007178	-0.144997440617965
6.3	-0.00491581212988697	0.00480216912506052	1.63965778885652E-06	-7.4735079847893E-07	-1.33221417537935E-07	1.37414841394569E-06	0.98845129493242	-0.147344048224694
6.4	-0.00512249761959377	0.00481559441775081	-5.17908555107803E-06	-5.61854969043149E-06	3.81099026455795E-06	6.90617770873494E-06	0.988172100983047	-0.149399010651956
6.5	-0.00430702242228629	0.00472361187748328	9.06332049775888E-06	-2.5889778393182E-07	-7.3216887125814E-06	-8.88924328469921E-07	0.988651440695399	-0.153870515331133
6.6	-0.00491334744851138	0.00395148902245951	-1.484463021858E-06	4.65947889218721E-07	3.36093576787097E-06	-9.35891745311403E-06	0.985793340495737	-0.15690907466722
6.7	-0.00524063496589541	0.00443026020587575	4.11640107012002E-08	7.73030841946651E-06	-4.87700792680307E-07	-6.06971452855268E-06	0.984797673806535	-0.157963183997753
6.8	-0.00527563922428295	0.004765886523566	4.23437338684245E-06	1.65934336827598E-06	2.22088141899112E-07	-5.22193722809017E-06	0.98435703608455	-0.159587293627784
6.9	-0.00549768483332388	0.00548001560329982	-7.54307080101195E-07	2.45905453343229E-07	5.75243531839327E-06	-2.66379706025291E-06	0.983867083264196	-0.160922988254191
7	-0.00415618181292828	0.00629546373678059	8.01524089428076E-06	-4.73227774696906E-06	4.39815677895372E-07	-3.01353333480483E-06	0.984638679411267	-0.162126979366132
7.1	-0.00423536524917589	0.00517243759948825	3.83493296807576E-06	2.04777025806747E-06	7.56715033643695E-07	7.21827865395811E-06	0.984195006251549	-0.165205498158551
7.2	-0.00494746089320021	0.00544737349031947	-2.45234558228226E-06	3.68104278568822E-06	-1.32268667952169E-06	-3.82432388590853E-06	0.982845920584411	-0.167296696548798
7.3	-0.00546783330364988	0.00593927504455762	3.43535926739849E-06	-4.87638140716022E-07	-2.44324546938898E-06	-1.91872486893474E-06	0.980969044665525	-0.169403262806081
7.4	-0.00635692752472063	0.00680652218422171	-6.17090349969426E-06	-2.69718792969362E-06	3.76065249427768E-06	2.49300361926885E-07	0.977759472262008	-0.171531377758516
7.5	-0.00584211344280354	0.0087574202885865	6.74296958659013E-06	-6.38694195523276E-06	-2.46949264573905E-06	7.89326321807223E-07	0.975843417465037	-0.169653964829116
7.6	-0.00507038954467572	0.00854701426139338	3.45018825391234E-06	5.20362981746997E-06	-1.02333682743298E-05	4.86633210749198E-06	0.97796290052154	-0.172149523320529
7.7	-0.00511987630012133	0.00894945792723561	5.9620518640816E-06	1.09355434655153E-05	3.82543011427255E-07	-1.13256372790921E-05	0.977817841176736	-0.175293940498442
7.8	-0.00467089531707717	0.00921839954513992	2.14532336643693E-06	9.9162901724859E-07	-3.14001652472067E-06	8.78137997574871E-06	0.977853374679079	-0.17785680807475
7.9	-0.00405430105863057	0.00962414155709103	2.55981610099637E-06	-2.29187814870409E-06	3.67575276035469E-06	3.64144466146516E-07	0.978301633536698	-0.179238459252642
8	-0.00191925450728185	0.00922439985619426	-2.82483731284918E-06	1.30849964245952E-06	6.89566749659672E-06	-1.80686488699815E-06	0.983001969251562	-0.181457783785811
8.1	-0.00201461784523674	0.0075883353123294	-1.79891461830577E-06	7.48123621499006E-07	-3.70996954863551E-06	-1.27502739923739E-06	0.983381300450353	-0.1885682873679
8.2	-0.00235877551995072	0.00731960103195246	-8.20731828657828E-07	6.34217337525146E-06	4.8675831891165E-06	4.38104507750796E-06	0.981985283422491	-0.192126967703537
8.3	-0.00255359290623104	0.00724232922449459	-8.06253438969059E-07	-1.424260336017E-05	6.81886647235166E-06	5.46091467823464E-06	0.981005573605732	-0.195259527743374
8.4	-0.00295009201109453	0.00776005236228579	3.77964865508158E-06	-3.42592115406254E-06	-6.98491966284567E-06	-1.24287764289289E-06	0.980291779547115	-0.19808829859115
8.5	-0.00165052965587081	0.00854227447404725	4.68208334504391E-06	5.93749017018841E-07	8.43976095909272E-06	-6.83419528075561E-06	0.979893533406336	-0.20178059175674
8.6	-0.00160378244899619	0.00728747507823514	-3.28036107943919E-06	4.11261635725989E-06	9.84689390509426E-07	1.11072731685402E-05	0.978289652978268	-0.204847148843171
8.7	-0.00220909359553004	0.00739700894694356	2.69272311517173E-06	-1.99467876282352E-06	4.80815554247528E-07	-5.53261845674573E-07	0.977542910374227	-0.207092872085345
8.8	-0.00246276637333299	0.00782570316193234	1.25784071905036E-07	-1.25549883625555E-06	-1.00137962822349E-06	9.78678349019114E-06	0.977024787908393	-0.209116419641501
8.9	-0.00267828790342795	0.0086164325100036	-3.68114654971278E-06	2.29150681047305E-06	4.85340614517577E-06	-1.79754086963536E-06	0.977047588731378	-0.210883312018573
9	-0.0012736189505014	0.00973063877938831	-1.89626116319429E-06	4.95746586530058E-07	-3.20076460544677E-06	-1.05710142201243E-05	0.977203067648997	-0.212807288257037
9.1	-0.000416965236302282	0.00889375473387992	5.26646569532982E-06	6.04062174253519E-07	9.1484455471136E-07	3.85200255871135E-07	0.977691680032199	-0.214968827214697
9.2	0.000142299822251206	0.00875315429129605	-8.75062045075319E-06	-4.60951218957652E-06	-8.75127383694534E-07	-6.1536597276795E-06	0.977937175577428	-0.218139197566454
9.3	0.000898032123925256	0.00825886116979777	1.85968572487091E-07	6.24118652707225E-06	4.65890816398424E-06	-2.20069149926218E-06	0.977696052557697	-0.221788072162757
9.4	0.00121277665129773	0.0077272049605097	-1.93051681198818E-06	5.90422205496618E-06	-1.0531561775094E-05	7.77294357681735E-06	0.975921786998559	-0.225713282050078
9.5	0.00229373166973943	0.00706165954294841	3.19677251193657E-06	-7.57334803191575E-06	3.68995011383123E-06	-2.7416079678309E-06	0.974673759091651	-0.227122197608698
9.6	0.00134116119832491	0.00536848261334694	4.50060281983634E-06	5.60310425546677E-06	-6.58032904848972E-07	7.0915687365116E-06	0.974774774154345	-0.2309662224096
9.7	0.000216173397902561	0.00540353061109621	-2.60817550617621E-06	-3.95729938386481E-06	3.71843835186785E-06	-7.54513054627528E-06	0.97340255524449	-0.234082807605717
9.8	-0.000586825799419502	0.00574538048372846	-5.2060391904744E-07	-4.23120693804083E-06	6.29800401227552E-06	9.01866468361713E-07	0.972210432300577	-0.236009317479341
9.9	-0.00139963965728253	0.00674651423142156	-2.69743208175373E-06	-6.0365627856413E-07	-8.5507109698931E-06	5.48690392006035E-06	0.971145436405298	-0.235955474456162
10	-0.00034983651844691	0.00803356660881136	4.36746152426063E-07	-1.76258540462335E-06	-3.08325653756063E-06	-8.03547405581803E-06	0.975113947037815	-0.237009931124334
10.1	-0.00028091893083938	0.00732930492164388	2.26038424579704E-06	4.80218444893317E-06	-3.12213473447492E-06	9.91532175767014E-06	0.973687875481447	-0.242709842676235
10.2	-0.000674559293266896	0.00773091827252722	-5.41296097155813E-07	-1.05441491311913E-06	-1.21778814054588E-06	-3.13373026789918E-06	0.971320040653725	-0.244164164088403
10.3	-0.000812772260288303	0.00831018998544122	1.1367678264933E-05	-2.94998312773576E-06	1.01098684003231E-05	-4.87321289468117E-06	0.969939911448842	-0.245324189741081
10.4	-0.0009220311489626	0.00943098841968595	-6.31420433834701E-07	2.16148195026305E-06	3.04894741928048E-06	-2.20015777714966E-06	0.969237477414167	-0.246430134819992
10.5	0.000819529928790802	0.0106947631071886	-6.1353214444067E-06	4.68789200836479E-06	1.59235380750717E-06	4.32846557838191E-06	0.969362740904328	-0.249667137755521
10.6	0.00181829641188552	0.0101860260552105	-7.11090852970393E-06	1.07473618148384E-05	7.06601965480949E-06	4.27196638335856E-06	0.967789860637212	-0.251850432896735
10.7	0.00281337757448725	0.0100763754128028	-3.22712232276945E-06	1.57931608447817E-06	-5.38794058606403E-06	3.19349470093849E-06	0.968140505961585	-0.254289136419507
10.8	0.00343923282631003	0.00935152394934673	-1.92862847325117E-06	5.02062400830268E-06	8.49628924510061E-07	-3.2212252033527E-06	0.968038358760496	-0.257635948680211
10.9	0.00330561927373867	0.0092786747060183	-5.8113436609691E-06	-1.05704396668484E-05	4.98849070962034E-06	1.07524516826957E-05	0.967223316528938	-0.260579907652184
11	0.00483712840503038	0.00951160002290465	2.98894724309436E-06	2.61562741032288E-06	7.49592627453733E-07	-1.12884362279348E-05	0.966460846583024	-0.263058873373456
11.1	0.00488676902092858	0.00801842184581348	3.87750420374216E-06	1.45141752026709E-06	2.33593770208534E-07	-7.40323472565805E-06	0.964702236021949	-0.265872318440937
11.2	0.00462926722490742	0.00781463620906824	-4.44049169085769E-06	-1.96415878023251E-06	-7.36886690432581E-06	-4.84515463412509E-06	0.962692176172738	-0.268016120816146
11.3	0.00473192324148599	0.00765509167998131	6.38872854440619E-07	-6.405308571943E-06	3.84042872099385E-06	1.41779773765632E-05	0.960742629983337	-0.270006240120253
11.4	0.00454842649403505	0.00779774031689571	-5.08656518404028E-06	8.18853361968246E-06	-1.44081785364382E-06	4.09400129326332E-06	0.957479501784761	-0.272203623676565
11.5	0.00592700433650503	0.00787961952267603	4.54885094294605E-06	8.08101909708042E-06	-9.28524532565625E-06	1.60920803296933E-06	0.956673008989444	-0.271577938896898
11.6	0.00567583534650653	0.00607970344093576	-3.84665368406426E-06	1.41361866692362E-06	5.10998544445963E-06	8.1416159299165E-06	0.957017810713111	-0.276221804232266
11.7	0.00475882135966064	0.00575813921536755	2.29089394181312E-06	1.0544576989432E-05	5.29140531684306E-07	-3.65936797069803E-06	0.954609406614052	-0.280166736104777
11.8	0.00408257316176479	0.00607719945294001	1.44862632724913E-06	4.46259593327688E-06	2.27121287866275E-06	4.53348587474062E-06	0.952093380026402	-0.282558266415001
11.9	0.00387130212558987	0.00740642054796033	7.47501972409232E-06	1.05538964346452E-05	3.88544911438873E-06	3.95518132945529E-07	0.951263521079304	-0.281299150819033
12	0.00639222292506997	0.00828212865561305	2.35404294931754E-06	-5.17885069436553E-06	-4.02863483245777E-07	1.75849003109641E-06	0.957222993876116	-0.282658487449328
