# GHZ S RI R 50
0.2	0.000827006936856386	0.00267209786873407	4.79194318960781E-06	-2.98569379800509E-06	-1.37207060293241E-05	1.31208207049862E-05	0.999357808765701	-0.00693009580963648
0.3	0.00127832843697444	0.0018566984708051	2.86593831087135E-06	6.62450373308711E-06	-1.66429358506606E-06	-9.31855466534286E-06	0.999224742292123	-0.0097831957738499
0.4	0.00159944616935425	0.00128119626339624	-1.86235294182861E-06	-4.01464374554416E-06	-9.01264729594239E-06	4.40312729984823E-06	0.999104142122408	-0.0124828475601017
0.5	0.00153131257566109	0.000860257525968076	-5.35752586772098E-06	3.26128354003191E-06	-2.12692846723831E-06	6.75489562164326E-06	0.998531618057852	-0.0153004866706092
0.6	0.00179431640002282	0.000744124086013446	-1.4001112136271E-07	2.80541367334471E-06	-5.81376167263922E-07	-1.34166173839382E-07	0.998892031567047	-0.0178844659322505
0.7	0.0019476890519055	0.0003905065360007	8.77026118310804E-08	2.21864169776161E-06	4.90274087810111E-06	-3.40042041387209E-06	0.998687789630646	-0.0208865028992158
0.8	0.00204543902459595	7.04222410089867E-05	4.52705742420964E-06	8.26338203442914E-07	2.74292202238445E-06	2.00032171399357E-06	0.998498074471274	-0.0230616293665912
0.9	0.00209908304839161	-0.000275833211123262	-1.50952760030167E-07	-4.21680557789564E-06	-3.4160864820547E-06	-3.10902880910476E-06	0.99851302017494	-0.0255618325216292
1	0.00183313597537485	-0.000813681482463317	1.05796388541208E-06	4.29013131732164E-06	3.32505949364339E-06	9.3428423130008E-07	0.998046172448371	-0.0274825048562595
1.1	0.00142750795239939	-0.000755246783484359	9.03982965300844E-06	5.22175583603772E-07	-3.57675716200345E-06	-5.00698534092377E-07	0.997608086927827	-0.0292146441377125
1.2	0.00128555181379682	-0.00114294320507596	3.76030291641959E-06	-1.19772202744904E-06	-4.09446493559064E-06	-2.43888542894852E-06	0.997135298491349	-0.0300760844555762
1.3	0.000782165972280689	-0.00188637080530486	-7.60901411206539E-07	-1.42711227566378E-06	-2.58282420317062E-06	-8.70746096497666E-06	0.997447971663118	-0.0306453507846738
1.4	0.000145514525169726	-0.00278185853062857	1.25663686501275E-08	3.44835677497259E-06	-4.28061361804752E-06	-4.1303377212192E-06	0.997586285130863	-0.0324950671036992
1.5	-0.000511609661110091	-0.00328821289198688	-1.30018363551073E-06	4.43073335562053E-06	6.55747011662156E-06	-7.41357759726757E-06	0.997939454943999	-0.0359825544413279
1.6	-0.000594772341302757	-0.00334018926906014	1.62998948658015E-06	-4.88672048431869E-07	4.24456315385934E-06	-5.39369311652196E-06	0.997466113540464	-0.039274425416687
1.7	-0.000721597394544839	-0.00352719795405623	5.30156687481352E-07	3.95756266256658E-06	-8.28571384484061E-06	3.12694722120844E-06	0.9976853930577	-0.0419546813076269
1.8	-0.000895373307121931	-0.00352370302502299	1.8319614741013E-06	1.07893193168842E-06	5.65989021492845E-07	-1.76159098969637E-06	0.997582226755354	-0.0448546040065244
1.9	-0.00106874113181528	-0.00364017757422814	3.2354555860023E-06	3.01821047648526E-06	-1.82639654563487E-07	-2.33022602333409E-06	0.997365391023223	-0.047555055690091
2	-0.00158992856755519	-0.00365024707592888	-1.72669139645408E-07	2.00300032919731E-07	-1.21567665969802E-05	5.41377002883375E-06	0.995772495622088	-0.0505756746626405
2.1	-0.00166752427876697	-0.00336018395943313	6.68233227148817E-07	-1.38111417380603E-06	1.37972083542132E-05	4.96755403309044E-06	0.995392597110473	-0.0516831841600427
2.2	-0.00178087716852978	-0.00344286556018551	1.64421390890123E-06	-1.51543314299108E-06	2.68746782874963E-06	-6.20637749869242E-06	0.995823805232643	-0.0538558950783661
2.3	-0.00210229894069773	-0.00355783796827296	-1.68571558579135E-06	-3.4258073759639E-06	-1.78854341657439E-06	-4.59013556390534E-06	0.995788720199485	-0.0556662174477006
2.4	-0.0024875483114047	-0.00369920737887822	-1.20123032401162E-06	-4.39878950624674E-06	3.04421186265894E-06	1.08695960023482E-06	0.995998528279597	-0.0588951646225742
2.5	-0.00328484381101536	-0.00384670070018111	5.37687850151244E-06	5.66952932453638E-06	-2.61608029488498E-06	1.6138990859899E-05	0.995484755629056	-0.0613994388931275
2.6	-0.00392383546344239	-0.00330701579153273	-2.27751834691172E-06	2.71014472349723E-06	4.35774837941502E-07	-4.31041600669809E-06	0.995345799315688	-0.0641826102473775
2.7	-0.00414017407211868	-0.00282905327030181	-2.40475729950987E-06	-3.63657920764108E-06	2.15504549771651E-06	-2.56921466053452E-06	0.994787776184132	-0.0670782274514567
2.8	-0.00412310739469423	-0.00239452220604316	3.99988370401909E-06	2.31237068956764E-06	9.8283245795828E-06	-6.84020073261329E-07	0.994909561587387	-0.0688343481817471
2.9	-0.00387027316018321	-0.00221299578211824	1.28752155151081E-05	7.15915571408355E-07	2.44478470491726E-06	-1.17103712079193E-05	0.994854457204972	-0.0707735382977983
3	-0.00385599884506385	-0.00217121993874174	-3.8540066148659E-06	1.04454537894129E-06	-4.144510713406E-06	-1.60071887910016E-06	0.994838375496874	-0.0733489482348509
3.1	-0.00351152811102744	-0.00201304189145536	4.78317679998627E-06	-9.84162948493614E-06	1.06820763160877E-05	2.41416367216892E-06	0.994637836528995	-0.075225688946999
3.2	-0.00334327863238244	-0.00225692874961636	-5.36704458517473E-06	-7.4112561789788E-06	1.56341138456125E-05	5.39344987496784E-06	0.994630731925034	-0.0769520920249446
3.3	-0.00339138253455343	-0.00253383629338843	-8.79505026465183E-06	2.53994309902705E-06	-8.56546206306183E-06	-1.74603644515799E-06	0.994726156707302	-0.0801479105843952
3.4	-0.00363260334128883	-0.00284021552370702	9.06982433008835E-06	-7.55745107161673E-06	-7.35178424120383E-06	4.23065922393438E-06	0.995160538083313	-0.0822153068182153
3.5	-0.00429275843057541	-0.00304398708824977	3.20692317408546E-07	-5.32588649269342E-06	-4.39938406313996E-06	-8.93838023223993E-06	0.995036718855245	-0.0857493041202319
3.6	-0.0046449828193712	-0.0027009537825697	4.07239569840434E-06	4.90235748626648E-06	-7.1117150943129E-06	8.99427038194098E-06	0.994235095722747	-0.0880260888439731
3.7	-0.00489457578009926	-0.00258386255622126	1.53029832725214E-06	-4.52680835613319E-06	-5.10098159915437E-06	-6.58971627078342E-06	0.994364514105182	-0.0904104994427259
3.8	-0.00516654264047726	-0.00240753865957668	7.28395391504082E-06	-5.19311599752825E-06	-5.87984390866203E-06	-2.4223930376499E-06	0.994470800702425	-0.0925464271084
3.9	-0.00533962329933302	-0.00225293627939138	-4.03118796321991E-06	-3.52160496327598E-07	-2.53223306415308E-06	1.13229430129591E-06	0.994772125501153	-0.0963484842156362
4	-0.00580404872433312	-0.00204400289615853	-3.38422795714392E-06	-8.31472874002867E-08	1.20185475157369E-06	8.67033509678469E-06	0.993407224583036	-0.0984814632049503
4.1	-0.00576699712657199	-0.00138768724886175	-2.8975755701605E-06	-3.86429664206175E-06	5.87766754645803E-06	3.04381631555097E-06	0.993097772090746	-0.0992448215455011
4.2	-0.00556594593051207	-0.00118854660312993	-7.71990384903225E-07	-2.15902827470141E-06	5.70492282612626E-06	-1.840237985178E-06	0.993076949955012	-0.101779845949725
4.3	-0.00545368269131501	-0.00111191609035156	-5.13344704282738E-07	3.23695412708585E-06	2.12991862493596E-06	1.78266706475762E-06	0.993201458402614	-0.103932237507566
4.4	-0.00549093532518386	-0.00119093976782501	2.57582046853495E-06	3.44525416411693E-06	7.18377368198225E-06	3.91799868865477E-06	0.99289671544545	-0.106541082638622
4.5	-0.00600335150930013	-0.00119197873360817	-6.47566202379902E-06	-2.36953086070486E-07	-8.58297562247659E-06	-2.12330838159545E-06	0.992542166426054	-0.108517346428915
4.6	-0.00628624408080546	-0.000650601974462616	-9.94798143972096E-06	-9.24460409247518E-06	3.24179561131649E-06	-2.73086473651265E-06	0.992629960903956	-0.111239092622461
4.7	-0.00635590099815883	-0.000328723079009056	1.25215707897537E-07	1.86741756929378E-06	6.0716378842042E-06	-6.73866388721052E-06	0.992621873017703	-0.113445629415888
4.8	-0.00644579529609656	3.30583986495034E-05	-6.40214194649871E-06	2.07911315025327E-06	7.899273304458E-07	-1.2761578687813E-05	0.992283450928699	-0.11596739341493
4.9	-0.00634494641702511	0.000313457775777253	-3.43292785337061E-06	8.14979317463438E-06	5.60295472374494E-07	9.38650968262427E-06	0.992044264482432	-0.117821162481097
5	-0.00642501340860308	0.000538236443291852	9.65984614056102E-06	-4.06292437964228E-06	-6.94836127234775E-06	3.57954627478828E-06	0.99209237685713	-0.119640733154584
5.1	-0.00591806923155422	0.000975080873270658	-3.67355215079832E-07	-3.25716720184827E-06	-3.88051916681783E-06	-1.79520216500556E-06	0.992149338257631	-0.121218317770862
5.2	-0.00544405061801036	0.000836234566702668	-1.06942431916122E-06	-4.4928309813146E-06	8.7993478326014E-06	5.58355520806477E-06	0.99211379326393	-0.123633708943181
5.3	-0.00523710397093723	0.000625781918112771	2.28999396530054E-06	6.80156167661009E-06	8.80594730010342E-06	3.13683752117998E-06	0.992030997983429	-0.126247261747831
5.4	-0.00521726921072223	0.000407088699432718	2.71088176398663E-06	-3.14619342281962E-06	-2.67875234308283E-06	1.53527826253066E-07	0.992180416938961	-0.129413835411678
5.5	-0.00576165494516452	0.000518414321451084	2.11670143325709E-06	9.33841606010265E-06	-3.93313103833066E-06	-5.04363689610315E-06	0.991654769048624	-0.133093152733221
5.6	-0.00558909582349273	0.00114191319186271	-5.86640842765005E-06	-1.12978405408538E-06	4.88249669173444E-06	1.94242113979372E-06	0.990736771507501	-0.135324807181029
5.7	-0.00552662691358222	0.00127045228336289	3.34070807299094E-06	-1.4281000810541E-06	-5.05949482338877E-06	-4.29476659443738E-06	0.990679798938104	-0.137645199691363
5.8	-0.005619701939927	0.00152198256535392	-2.06250144787728E-06	-4.75204753983358E-06	9.4741501770743E-07	-5.84076380287011E-07	0.990868993161868	-0.140109012714379
5.9	-0.00564623670416593	0.00184240014941028	-3.88453723300842E-06	6.26988543481413E-07	3.87078180999707E-06	1.24480018247672E-06	0.990881509277084	-0.143414142006498
6	-0.00614653658577904	0.00205145112404723	-5.92909277649396E-06	5.06160862351232E-06	-1.48513465070635E-06	1.99466620667196E-07	0.988725143845148	-0.146087329753096
6.1	-0.00616150057211732	0.00308396096175767	-5.93863335711258E-06	-4.69382476615562E-06	-4.00913481825773E-06	4.37770368930395E-07	0.988284473419992	-0.146192856875924
6.2	-0.00572213587904738	0.00344372750247221	2.82794976829504E-06	3.12516718174733E-06	1.05494919749301E-06	7.22181721435742E-07	0.988333250110123	-0.147700769618477
6.3	-0.00530312294944162	0.00345808547681689	1.64185581445842E-06	-7.51679212727218E-07	-1.31193674659412E-07	1.37726643430419E-06	0.987907338592545	-0.149909053805499
6.4	-0.0051223770042983	0.00309253468233399	-5.19651201173546E-06	-5.61407735976755E-06	3.82956075292122E-06	6.90597825633227E-06	0.986977746207312	-0.152263311636816
6.5	-0.00550819827516771	0.00298647196537607	9.07037961392675E-06	-2.54680260319195E-07	-7.32685635967283E-06	-8.93171370761945E-07	0.986104360984627	-0.153794444282037
6.6	-0.0051889906236761	0.0032209613443337	-1.48959456406124E-06	4.67933933176098E-07	3.3706426511818E-06	-9.39271940280575E-06	0.987070627019374	-0.156171431562827
6.7	-0.00512442853048001	0.00314511986314547	5.5414906086061E-08	7.75761748585834E-06	-5.00503523700669E-07	-6.09032626442303E-06	0.986908484224475	-0.159041986952934
6.8	-0.00512570260768369	0.00332199364578499	4.25154855912985E-06	1.6532044907652E-06	2.09001572415412E-07	-5.23831177147854E-06	0.986461077644886	-0.161594170290294
6.9	-0.00503921705145986	0.00342154579230688	-7.55422659835822E-07	2.48686148372628E-07	5.75865902604301E-06	-2.68691364372484E-06	0.986096109179753	-0.164146876185126
7	-0.00553679071971276	0.00374190988873854	8.02165137655435E-06	-4.76561821500579E-06	4.32637554120305E-07	-3.02201102591786E-06	0.984621233657727	-0.166307160937212
7.1	-0.00516440556634716	0.00464941940212275	3.85057706999516E-06	2.04020485864447E-06	7.81812240703396E-07	7.23283049112266E-06	0.98398218968053	-0.16724676413001
7.2	-0.00478931641566977	0.00485801258202317	-2.4450336502542E-06	3.69615255330327E-06	-1.33773934500017E-06	-3.82736620653582E-06	0.983649929467872	-0.168726701090237
7.3	-0.00470711863179961	0.00507034010240447	3.44021138620633E-06	-4.98003945375926E-07	-2.45295206195392E-06	-1.91544049069357E-06	0.983066958921552	-0.170226510506929
7.4	-0.00470758050688438	0.00518193795281821	-6.1955596822023E-06	-2.69384095994722E-06	3.7729988167001E-06	2.42860405953588E-07	0.983302042858095	-0.172579864578348
7.5	-0.00539383799680995	0.00521016733807433	6.74520482261647E-06	-6.45603950978462E-06	-2.4784256365313E-06	8.06432396294605E-07	0.982549965095048	-0.177187920962689
7.6	-0.00549848261892061	0.00628845837472287	3.49213243435203E-06	5.19191514705415E-06	-1.02230631298318E-05	4.94469614786055E-06	0.980446727004834	-0.179880517933626
7.7	-0.0052432116274893	0.00673166786225127	6.0375777252699E-06	1.0915188094536E-05	3.13947287849508E-07	-1.13445961542518E-05	0.979977186936703	-0.182821531089401
7.8	-0.0047540985011018	0.00687021432176399	2.1548603276087E-06	9.79363214566724E-07	-3.0884443190968E-06	8.81453209093529E-06	0.979768451935033	-0.186280183726879
7.9	-0.00417752375527849	0.00663454754947798	2.5455292987407E-06	-2.31608353379236E-06	3.68456006795803E-06	3.35239969783253E-07	0.979289811417872	-0.190486086962455
8	-0.00424058715213769	0.00663249443275536	-2.80360302323303E-06	1.33311665782962E-06	6.85776375384296E-06	-1.87093239752746E-06	0.976054198526948	-0.193703780240963
8.1	-0.00323975014021559	0.00687593722995417	-1.78599697756499E-06	7.55667370078575E-07	-3.70057786335779E-06	-1.24640816157687E-06	0.975598911844623	-0.193890579796978
8.2	-0.00263688708108263	0.00651020230100714	-7.86925377441626E-07	6.3211133161734E-06	4.86950013123936E-06	4.34030288049038E-06	0.976047919951082	-0.195762676851358
8.3	-0.00223877950899486	0.00623282836697733	-8.67126003166793E-07	-1.41825825220089E-05	6.81643072927008E-06	5.40861985750964E-06	0.97586096641058	-0.198408119620231
8.4	-0.00193700969426759	0.00587198806905153	3.74766808739654E-06	-3.42310429531369E-06	-6.95460877769315E-06	-1.21009282227068E-06	0.975196043360987	-0.201065300736289
8.5	-0.00242080456907865	0.005680024788651	4.66289755064758E-06	5.86455899823998E-07	8.39710215645744E-06	-6.81392739678652E-06	0.974427020724823	-0.203239435402448
8.6	-0.0021350871097335	0.00633818906205476	-3.26334005058364E-06	4.10981648275699E-06	1.00670199360458E-06	1.10780779620407E-05	0.974518450829025	-0.205706799580877
8.7	-0.00168498239171473	0.00635482868705074	2.67853295867616E-06	-1.99655187226047E-06	4.77696441220144E-07	-5.529912558368E-07	0.97429399024135	-0.20845067644679
8.8	-0.00134653561830851	0.00639571918419154	1.21469871463129E-07	-1.25090595774084E-06	-9.67667127066272E-07	9.75104482635507E-06	0.973839772234086	-0.210770641035728
8.9	-0.000854362973494775	0.00623723428771967	-3.65718721251195E-06	2.28778978170004E-06	4.82449972469423E-06	-1.79893476176724E-06	0.973792599536016	-0.212796257568513
9	-0.000859454606047449	0.00590826806824342	-1.88837803511265E-06	4.94961188999647E-07	-3.19464093762985E-06	-1.0526793215315E-05	0.973563466823126	-0.215218632936755
9.1	-0.00028524942793287	0.00596243294339149	5.24535769877549E-06	5.92138324276369E-07	9.11677003630857E-07	3.81948382974715E-07	0.973034538009299	-0.2172887878883
9.2	0.000164532618349213	0.0053688514484386	-8.70886806562621E-06	-4.57828523882001E-06	-8.75653804770137E-07	-6.12089815646936E-06	0.972415107435166	-0.21960291006031
9.3	0.00025282709044715	0.00484668365935893	1.80474477517609E-07	6.2100821144382E-06	4.63719693590495E-06	-2.18626954679615E-06	0.972087929126887	-0.221672077028023
9.4	0.000244103504613401	0.00432035281326853	-1.93716651078438E-06	5.88034768307625E-06	-1.05137863038057E-05	7.72383944153801E-06	0.972036628041515	-0.224372121310743
9.5	-0.000358654554890354	0.00429629407080275	3.19324553029367E-06	-7.57004343384104E-06	3.68731273714669E-06	-2.74101686438748E-06	0.971248657419308	-0.227965266019906
9.6	-0.000123468321403943	0.00463374552201179	4.49796428285178E-06	5.57768439631641E-06	-6.42389117273066E-07	7.07165184385249E-06	0.970142139987485	-0.230419877358106
9.7	-9.70829759741104E-05	0.00449202421563075	-2.60295058537198E-06	-3.93920342419076E-06	3.69541993659628E-06	-7.52088955877026E-06	0.969878794650342	-0.232692621481697
9.8	-0.000300789150041954	0.00454999077093999	-5.23064251115702E-07	-4.21576934625576E-06	6.27672764193899E-06	8.92296055226621E-07	0.970083158858269	-0.235009683617045
9.9	-0.000419213928287541	0.00473185749731976	-2.68999773949635E-06	-5.94434583251744E-07	-8.50739800235375E-06	5.49132085768603E-06	0.969593963614744	-0.237952466418658
10	-0.00106172812539306	0.00509660839465206	4.27982007844852E-07	-1.74994107270241E-06	-3.08302488646418E-06	-7.96255609343231E-06	0.966683674186781	-0.239184157756109
10.1	-0.000714100238465931	0.00620122726861298	2.23779211786169E-06	4.76905078392425E-06	-3.11066555581706E-06	9.83761923229138E-06	0.967185468800035	-0.238404466983514
10.2	-5.55335969738494E-05	0.00656187658224524	-5.36351559583412E-07	-1.04901010701123E-06	-1.2054237664794E-06	-3.11703039703181E-06	0.967997914591502	-0.239831663696154
10.3	0.000566599372288074	0.00673565757597931	1.1306633766742E-05	-2.91704539556576E-06	1.005874820049E-05	-4.83101648260201E-06	0.967945057397303	-0.242068296041592
10.4	0.00122703426392061	0.00653138257605303	-6.30577028431723E-07	2.14541442807601E-06	3.0313557298952E-06	-2.17985349580363E-06	0.966913906180336	-0.244715557099991
10.5	0.0011486262023406	0.00637331118837557	-6.11816833471535E-06	4.62498401386794E-06	1.55948261427349E-06	4.30757482882966E-06	0.965549874956001	-0.246492925240595
10.6	0.00170048616419919	0.00663059256679794	-7.12889016435574E-06	1.06731788837149E-05	7.01899690782982E-06	4.28541396657512E-06	0.965353943394453	-0.248918316076957
10.7	0.00208692180137756	0.00656035201462237	-3.21815234241773E-06	1.56118221638736E-06	-5.3748772994055E-06	3.16073525654797E-06	0.964293164149303	-0.251497489931553
10.8	0.00255226871186542	0.00665480871021906	-1.93758580866964E-06	4.98758419132831E-06	8.57368091456021E-07	-3.2014840064628E-06	0.963586402091894	-0.252950011947089
10.9	0.00312407608219757	0.00649195252161105	-5.72588003011945E-06	-1.05398063350641E-05	4.90675955469509E-06	1.07166900005889E-05	0.963422216550187	-0.254485788646572
11	0.00310976910223929	0.0063586571690832	2.96108843543877E-06	2.62517063681855E-06	8.19376087049468E-07	-1.12418953002421E-05	0.963008771837328	-0.255604358755741
11.1	0.00391204021562074	0.00665793962156	3.85854826885287E-06	1.46750674454968E-06	2.7173646943774E-07	-7.38035077993489E-06	0.963407380832634	-0.256609554762488
11.2	0.00462204450876764	0.00621130356781638	-4.41576733394125E-06	-1.9819571960903E-06	-7.31925555614763E-06	-4.86965763944616E-06	0.963654085806774	-0.258477283332901
11.3	0.00511046792866741	0.00566294720654274	6.77368111675035E-07	-6.38278859170145E-06	3.740047089751E-06	1.41612227773345E-05	0.964044719592094	-0.260674375257632
11.4	0.00541154875855249	0.00496970157003175	-5.14411889152554E-06	8.14141022956199E-06	-1.47069746050899E-06	4.07887489013867E-06	0.964289749144329	-0.264073478524682
11.5	0.00492869638224421	0.00448497184678709	4.5212751848485E-06	8.11253399133132E-06	-9.3060519091742E-06	1.57208651374045E-06	0.962642321995634	-0.268778362066111
11.6	0.00526596294312213	0.00454066527019657	-3.84541273887861E-06	1.39825543535159E-06	5.07412770572559E-06	8.14622082114183E-06	0.960613080314783	-0.271521947738538
11.7	0.00553521962809852	0.00400727432956896	2.23652686856135E-06	1.05368311202168E-05	5.45662668161276E-07	-3.65036208361447E-06	0.960088706451386	-0.275024574449645
11.8	0.00568744504051997	0.00354165756248333	1.42463173070929E-06	4.46726134719916E-06	2.24633080954018E-06	4.54236021688646E-06	0.959515310146643	-0.279354193336504
11.9	0.00578462521581029	0.00287626181104441	7.44610843530022E-06	1.05850037508852E-05	3.88678391739377E-06	4.08273092822121E-07	0.958325955147813	-0.283627022950117
12	0.00488436482454187	0.00256451514230726	2.35626194488377E-06	-5.15451771161137E-06	-4.05096748691938E-07	1.75107022707246E-06	0.953836594968945	-0.285449759035043
