# GHZ S RI R 50
0.2	0.00085468657949676	0.00207719062228091	4.79806852269069E-06	-2.98382015335521E-06	-1.37421553084246E-05	1.31188633967334E-05	0.999935339244392	-0.00685260976059787
0.3	0.00134510380937521	0.00144690880117438	2.86448305595202E-06	6.63198325107856E-06	-1.66018469136464E-06	-9.3276639413159E-06	0.999962913980111	-0.00976893130566323
0.4	0.00161532969969488	0.00108714725196496	-1.86314838609427E-06	-4.02023655204939E-06	-9.02528478529061E-06	4.40518462615444E-06	1.00018914971016	-0.0124342480637123
0.5	0.0019394005082592	0.000679684632131494	-5.36290703130636E-06	3.26701055003656E-06	-2.12724193464215E-06	6.7637631164247E-06	1.00026138423432	-0.0159356026416163
0.6	0.00182556535727871	0.00012025171988913	-1.40031689933361E-07	2.8077195976405E-06	-5.81857566152654E-07	-1.34256689510231E-07	1.00004789060953	-0.0190347022164684
0.7	0.00160314163478131	-2.46786234199426E-06	8.74319135406702E-08	2.22128073146168E-06	4.90911377001699E-06	-3.40361504479844E-06	0.99971467650414	-0.0219345366273381
0.8	0.00154656302173249	-8.16997123813938E-05	4.53385853060073E-06	8.28164354095825E-07	2.74685532799901E-06	2.00371534197344E-06	0.999476843999102	-0.0241204169833293
0.9	0.0014171379838588	-0.000115311129912277	-1.51148419014E-07	-4.22469860841138E-06	-3.42241422212103E-06	-3.11491631335823E-06	0.999270048626384	-0.0264332396201773
1	0.00158287843173452	-4.39020886738602E-05	1.06233425183131E-06	4.29875077808661E-06	3.33260527171404E-06	9.34634910115065E-07	0.99922356434757	-0.0277666138078621
1.1	0.00156467298138445	-0.000710730152283201	9.05492196674178E-06	5.16430696728785E-07	-3.58294322730567E-06	-4.98904077835756E-07	0.999040491920494	-0.0300802467202389
1.2	0.00095584208805584	-0.00144505021803448	3.76452499958464E-06	-1.20198019294092E-06	-4.10169509014634E-06	-2.43929017901267E-06	0.998179309185782	-0.0312101877087858
1.3	6.08260199885347E-05	-0.00232226006322819	-7.62995619655276E-07	-1.42782170815394E-06	-2.59354977435024E-06	-8.71371799580647E-06	0.998116956294377	-0.0322514094770566
1.4	-0.000869945202839605	-0.00305583363875397	1.6740254201571E-08	3.45046491755705E-06	-4.28823949089618E-06	-4.12770933272013E-06	0.997780540021616	-0.0345175046042802
1.5	-0.00114036287472885	-0.00338008430524225	-1.29625110478054E-06	4.43468477047335E-06	6.55343743617364E-06	-7.42482592691329E-06	0.998741466977387	-0.0379860528751185
1.6	-0.00149732228118455	-0.00339479962848963	1.63135083849749E-06	-4.90671701106654E-07	4.24441611508588E-06	-5.40344914288262E-06	0.998463854357905	-0.0417457487097369
1.7	-0.00146727638544985	-0.00306878934277001	5.34748640768223E-07	3.96330618649844E-06	-8.29582488508146E-06	3.13974471225418E-06	0.998901265246296	-0.0442320964945537
1.8	-0.00135493399402936	-0.00283768128068532	1.83636065102565E-06	1.07911407186103E-06	5.65303021885313E-07	-1.76536089122115E-06	0.999021494646495	-0.0468828369402345
1.9	-0.00128574512891207	-0.00272539748590414	3.24389651042964E-06	3.02215583716536E-06	-1.84518486723241E-07	-2.33477534573074E-06	0.999071312632192	-0.0487818451665857
2	-0.00106487996271285	-0.00282905006952816	-1.73150880301056E-07	2.01052583425415E-07	-1.21948391481411E-05	5.43769254834443E-06	0.999841857780009	-0.0514439829786993
2.1	-0.00140710366724979	-0.00323753299316206	6.67862693339843E-07	-1.38718183248347E-06	1.38545104429235E-05	4.95795159011155E-06	0.999645872428104	-0.0549839559914415
2.2	-0.00186386854239887	-0.00322665852594092	1.64566406561227E-06	-1.5235245135013E-06	2.68155407946951E-06	-6.23052728187132E-06	0.999150793451833	-0.0576963760873103
2.3	-0.00231416925005665	-0.00320187757404402	-1.69822005546694E-06	-3.43148231125254E-06	-1.80399110551124E-06	-4.59881215949223E-06	0.998561383483839	-0.0596250086559608
2.4	-0.0028210857226077	-0.00309118517763506	-1.21557945644439E-06	-4.40845338433616E-06	3.05565210539323E-06	1.08254129663817E-06	0.998333705379102	-0.0626957299036254
2.5	-0.00309563196633575	-0.00288248491632112	5.4087010971252E-06	5.66790226883257E-06	-2.57301247570381E-06	1.61898878297451E-05	0.998091370695135	-0.0648843286128847
2.6	-0.00355791495550694	-0.00298025378540437	-2.27461811880219E-06	2.72271852890995E-06	4.24176798123099E-07	-4.32113404333351E-06	0.998181334985237	-0.0679787444929985
2.7	-0.00401763522117595	-0.00269679181699857	-2.42061814569374E-06	-3.6382970697574E-06	2.15284020417896E-06	-2.58128578430167E-06	0.997819328097807	-0.0711444005085486
2.8	-0.00425614430063102	-0.00232120569917644	4.01656133370048E-06	2.30602753821176E-06	9.85023677275394E-06	-7.15125851915904E-07	0.997903663069412	-0.0733565859211065
2.9	-0.00423365768434225	-0.00191438601779123	1.29076237406991E-05	6.74139283847833E-07	2.41096624171926E-06	-1.17458995619993E-05	0.997449540505588	-0.0755010391240306
3	-0.00389787382557667	-0.00176211911111665	-3.85626498495328E-06	1.05998057299183E-06	-4.15669930520831E-06	-1.58836166781434E-06	0.997217104514025	-0.0779883011873071
3.1	-0.00392351281315496	-0.0018484477019299	4.75788139437522E-06	-9.87091880276731E-06	1.07048423460701E-05	2.38282819133472E-06	0.996823226103867	-0.0801890216908804
3.2	-0.00397758685024113	-0.00176321459226635	-5.39949560833118E-06	-7.40179426181958E-06	1.5672302739606E-05	5.34576377958507E-06	0.996319283340287	-0.0821758211869053
3.3	-0.00404230683203425	-0.00174553648098967	-8.79287689369238E-06	2.57568637855794E-06	-8.57945210523594E-06	-1.71483496587842E-06	0.995726943589651	-0.0855965750306194
3.4	-0.00422498254715161	-0.00167874198080303	9.03910099371294E-06	-7.59577858099116E-06	-7.33476488405726E-06	4.26157697511721E-06	0.995134967815995	-0.0875238873951605
3.5	-0.00423374325686665	-0.00173317661466963	3.02745168757601E-07	-5.32232517401183E-06	-4.42521656558418E-06	-8.91602280768936E-06	0.994939943511814	-0.0897950632762214
3.6	-0.00470654188600822	-0.00190730729213613	4.08661558334377E-06	4.88960946282012E-06	-7.08397943236711E-06	9.01455025570931E-06	0.994916706351103	-0.0927707310258517
3.7	-0.00516876132332129	-0.00164622478959193	1.5143308610658E-06	-4.53146695933753E-06	-5.12315154333811E-06	-6.57101048522478E-06	0.994303784710163	-0.0957998786093293
3.8	-0.00545708903081614	-0.00129676429678461	7.26116988933491E-06	-5.21687387203273E-06	-5.88553529325996E-06	-2.39969541484328E-06	0.993390530571363	-0.0977918876023278
3.9	-0.00554983362600463	-0.000859563896162912	-4.02877239519143E-06	-3.38701110472284E-07	-2.52630113243458E-06	1.13955225508521E-06	0.992918375159193	-0.100309818606865
4	-0.00529095408858347	-0.000657992785177628	-3.38487216926406E-06	-7.25451422524529E-08	1.22917760092667E-06	8.66754907748879E-06	0.99351473382918	-0.10140212672014
4.1	-0.00546201157083489	-0.000739786577168573	-2.91387778083921E-06	-3.84959068821963E-06	5.88903025429836E-06	3.01595693979101E-06	0.993132137540927	-0.104149259713857
4.2	-0.00566596679802704	-0.000524808379940752	-7.80736171981906E-07	-2.15261056135085E-06	5.68887008357402E-06	-1.86361724516216E-06	0.991986323218179	-0.10684392401646
4.3	-0.00578608427868857	-0.000277975302695207	-4.98394087396617E-07	3.23348703081551E-06	2.13390767235702E-06	1.77028751581348E-06	0.991443046612913	-0.108709629496676
4.4	-0.00596327065962972	2.94308822556313E-05	2.58648978788954E-06	3.42789251857095E-06	7.18847312479506E-06	3.87952142320052E-06	0.99091119930688	-0.110882368732817
4.5	-0.0058424387616382	0.000313438081506569	-6.46162954303294E-06	-2.01663056253288E-07	-8.57407997309302E-06	-2.07225863616296E-06	0.99079014397934	-0.113147539394736
4.6	-0.00622214357279273	0.000288391195027906	-9.95662415089786E-06	-9.1640035662645E-06	3.21715341277978E-06	-2.73660310040723E-06	0.990169605303702	-0.116050796684227
4.7	-0.00653854926271726	0.000711754136464889	1.32676183269325E-07	1.85997925944644E-06	6.02058802539023E-06	-6.73950209245506E-06	0.989919939204534	-0.118096710751091
4.8	-0.00669133185361483	0.00119390583277289	-6.37015084924011E-06	2.09730909405647E-06	7.35472640617948E-07	-1.27177393022088E-05	0.989365594294962	-0.120677234181687
4.9	-0.00662748710095233	0.00172871643478319	-3.38571761356199E-06	8.1335296725671E-06	5.9766385239157E-07	9.34879189658127E-06	0.988593041123749	-0.122528988680066
5	-0.0061205826015724	0.0019745124032769	9.59600135748091E-06	-4.08373805607829E-06	-6.89968252902255E-06	3.5913335889787E-06	0.988157208431274	-0.123851525566451
5.1	-0.00598755729728925	0.00193239333122138	-3.75751938036034E-07	-3.23966422851203E-06	-3.86668660026227E-06	-1.77399156043424E-06	0.987989898259761	-0.125165344114404
5.2	-0.00573464359943273	0.00209546593167305	-1.07724358053524E-06	-4.46762822632867E-06	8.77233603527421E-06	5.53049012532441E-06	0.987451544676012	-0.127243675604429
5.3	-0.00544332289756029	0.00212403263102109	2.29812909157137E-06	6.76024636951132E-06	8.77021992621381E-06	3.0952217300184E-06	0.986894315377009	-0.129318855033989
5.4	-0.00524083944213168	0.00217670223080209	2.68567338159306E-06	-3.13606976411589E-06	-2.66273013757109E-06	1.60691545246194E-07	0.986457909694726	-0.131692154900922
5.5	-0.00492817703727058	0.00203203977691017	2.11626921364542E-06	9.27039066357023E-06	-3.91353986971809E-06	-5.00263807165334E-06	0.986462373145962	-0.133668558664015
5.6	-0.00539067296807324	0.00187101392766156	-5.83309607864471E-06	-1.12030328472223E-06	4.85527637804244E-06	1.92874269186851E-06	0.986575739238969	-0.136401397120893
5.7	-0.00575199205679483	0.00232924884218045	3.32139205815775E-06	-1.42200687230656E-06	-5.03377762180395E-06	-4.26816865307077E-06	0.985963233795317	-0.138898609983608
5.8	-0.00589111373238338	0.00281521877360957	-2.05134794660867E-06	-4.72441607734687E-06	9.41880446733949E-07	-5.80858647781225E-07	0.985363490209003	-0.140691052721969
5.9	-0.0059959374404984	0.00343063560476491	-3.86312203613765E-06	6.19451379048019E-07	3.84752837263081E-06	1.24169490564342E-06	0.984887716707666	-0.141864110078984
6	-0.00564754011158147	0.00393757404320574	-5.91289452627958E-06	5.03502955599752E-06	-1.47974824907008E-06	1.96862403630031E-07	0.985859277889362	-0.142827439181777
6.1	-0.0057840745958794	0.00386386044532012	-5.9115884475528E-06	-4.6732834141785E-06	-3.99118893935616E-06	4.35459868367792E-07	0.98579492085381	-0.14478729496714
6.2	-0.00602727438741678	0.00417026956839141	2.8111302774705E-06	3.11120467291004E-06	1.04900141539967E-06	7.19250745381554E-07	0.985412976449347	-0.145963263181194
6.3	-0.00601725692478497	0.00446928741430234	1.63466145539613E-06	-7.45513581238409E-07	-1.32523575681445E-07	1.37012993665081E-06	0.985150762731835	-0.147741426474309
6.4	-0.00591894039385686	0.00470025137178476	-5.16462322755695E-06	-5.59950595284362E-06	3.80117291482542E-06	6.8835297719144E-06	0.984995020145001	-0.149742480850788
6.5	-0.0054925597047667	0.00454065674403931	9.03222159209855E-06	-2.51035924267447E-07	-7.29572166546773E-06	-8.91483511941863E-07	0.984992209134001	-0.153289123332165
6.6	-0.0057747775199885	0.00451948372409112	-1.48185627909604E-06	4.63484281117698E-07	3.363412632934E-06	-9.33612779238042E-06	0.983765460515848	-0.155866657154874
6.7	-0.00567329022600972	0.00494979210843135	3.74267177138422E-08	7.71775570467602E-06	-4.84025719752125E-07	-6.06007455151682E-06	0.98329618446192	-0.157692484509667
6.8	-0.00548937927563931	0.00528977098693844	4.22762062206765E-06	1.65740992628686E-06	2.22508683965192E-07	-5.21387575305604E-06	0.982877685949583	-0.159632610543589
6.9	-0.00529875014365023	0.00577380651692613	-7.53063333528471E-07	2.45530320736026E-07	5.74292169944579E-06	-2.65964548359846E-06	0.982495298370885	-0.161197075075049
7	-0.00463171627846713	0.00597526241692464	8.00082790370083E-06	-4.72298774511218E-06	4.39223631725862E-07	-3.00795418993233E-06	0.982568993522537	-0.162626068671814
7.1	-0.00488078111509945	0.00590925265899297	3.82688096666426E-06	2.04502950258535E-06	7.52970886448728E-07	7.20458130670059E-06	0.982106469030053	-0.164615874182188
7.2	-0.00493700972192238	0.00648195826740269	-2.45005591971548E-06	3.67208547727813E-06	-1.31743149383859E-06	-3.81769624664758E-06	0.98129870095474	-0.166275318392903
7.3	-0.00483790454422841	0.0069830664098548	3.4295143877891E-06	-4.82304022181693E-07	-2.43617665272209E-06	-1.91825063051698E-06	0.979952823815758	-0.167935165937762
7.4	-0.00481980564301098	0.00751513664305557	-6.15745292264927E-06	-2.70795868505723E-06	3.75561429650541E-06	2.57522950483735E-07	0.978113853697752	-0.169563924151542
7.5	-0.00426205640891296	0.00795574741586588	6.75775809068824E-06	-6.38034573608433E-06	-2.4724126006859E-06	7.85875921857251E-07	0.977629632397797	-0.169842222201598
7.6	-0.00417917043965428	0.00766036543645104	3.44720564278072E-06	5.20704175392771E-06	-1.02387347529316E-05	4.86009916918109E-06	0.97842875363016	-0.172926312589419
7.7	-0.0042390234808868	0.00779273487968079	5.95317749028078E-06	1.09426173365809E-05	3.92767308004238E-07	-1.13270787695629E-05	0.978281329956806	-0.1759792714526
7.8	-0.0040650773654709	0.0077254421241199	2.14542980547026E-06	9.93773759365672E-07	-3.14840805064595E-06	8.78255529345104E-06	0.978376121105843	-0.178831741445584
7.9	-0.00381860420362161	0.00767333031974667	2.56213389219552E-06	-2.2934705061949E-06	3.67869830568244E-06	3.64824878055264E-07	0.978825157040819	-0.181282179641448
8	-0.00325570184499324	0.00722766209369952	-2.82060836568087E-06	1.31170283095045E-06	6.88743155185407E-06	-1.81579415072898E-06	0.980636295162514	-0.18467056999689
8.1	-0.00356635615060659	0.00705865474933583	-1.79438535410833E-06	7.46632658506238E-07	-3.7011530441591E-06	-1.27122547121294E-06	0.979665384261677	-0.188987978300828
8.2	-0.00352120450545389	0.00731003264460317	-8.22952631026284E-07	6.32552951096785E-06	4.85226429712573E-06	4.37323468282707E-06	0.978767144592277	-0.191389010241227
8.3	-0.00338931194833354	0.00752215865051258	-7.89188073311129E-07	-1.42064364585084E-05	6.79540545973943E-06	5.45388973807281E-06	0.978074267143544	-0.193985053107093
8.4	-0.00327379319049709	0.00794845478939737	3.7732307768796E-06	-3.41031402371945E-06	-6.96228939988265E-06	-1.2490973791337E-06	0.97747332936315	-0.196504821610953
8.5	-0.00266110306236267	0.0081385649683379	4.66775297580218E-06	6.05058834086186E-07	8.43574042697711E-06	-6.79238144121961E-06	0.976928405225841	-0.199481862354524
8.6	-0.00285124418939947	0.00813748729995202	-3.28499594647808E-06	4.0983458649251E-06	9.56703309285175E-07	1.10921640760921E-05	0.976154174282087	-0.201992289498655
8.7	-0.00270696009381019	0.00872639313265583	2.6921946931026E-06	-1.98639648759189E-06	4.8109412114997E-07	-5.51468028110478E-07	0.975933638419608	-0.204312590513472
8.8	-0.00220543066830987	0.00921638760645134	1.27670486157429E-07	-1.25298615629016E-06	-1.01604622983052E-06	9.76716161078703E-06	0.975760569430937	-0.206405520954332
8.9	-0.00149185882977696	0.00953924393540461	-3.67646534315811E-06	2.27939574579328E-06	4.84503076019134E-06	-1.78450082258256E-06	0.976113714866524	-0.208241370915838
9	-0.00032073636542098	0.00935169379322085	-1.89334810351087E-06	4.89458964143689E-07	-3.16472995186358E-06	-1.05559673197479E-05	0.976569122999401	-0.210453252738949
9.1	0.000176642890576268	0.00859954082188007	5.25384070945975E-06	6.16338751573925E-07	9.11930545095856E-07	3.86743654345947E-07	0.976915589368859	-0.212817718367927
9.2	0.000626984406622544	0.00805159646153301	-8.715432365175E-06	-4.62611051581422E-06	-8.53716570529497E-07	-6.1418529705283E-06	0.976933288555967	-0.215827532194504
9.3	0.000872474631540412	0.00737516141902465	1.60497230406663E-07	6.2288824465851E-06	4.65800980362726E-06	-2.17736595668195E-06	0.976654702979778	-0.218910830926812
9.4	0.000883514696706309	0.00686536535350877	-1.95777628244341E-06	5.8876179004956E-06	-1.0558046186229E-05	7.71112012968335E-06	0.975691223465687	-0.222115277459063
9.5	0.000916680371055554	0.00629890969623083	3.23335779509652E-06	-7.56609955893836E-06	3.7055202387072E-06	-2.72773085487305E-06	0.975305474974955	-0.224565081377355
9.6	0.000147143595829811	0.00604600435901437	4.48599663282453E-06	5.62124006060318E-06	-6.80933351304315E-07	7.09441254604483E-06	0.974934503938126	-0.228322170917544
9.7	-0.000177845638919171	0.00640129349328137	-2.59733538160088E-06	-3.96777377333592E-06	3.74420509145208E-06	-7.53793324707037E-06	0.974038366564332	-0.231167065241868
9.8	-0.000308986374091495	0.00671520623112934	-5.0807631161142E-07	-4.23681381170959E-06	6.30118986483201E-06	9.22100443396592E-07	0.973669598810477	-0.233177996402914
9.9	-0.000329645922023407	0.00714008054287574	-2.70009050057551E-06	-6.10678270856161E-07	-8.57592983924029E-06	5.47569585056101E-06	0.973688165558002	-0.234415318592524
10	5.18336399812324E-05	0.00722811601938957	4.3904523951673E-07	-1.76162709840738E-06	-3.07172110701583E-06	-8.03798530166053E-06	0.975359917193237	-0.237126710059469
10.1	-0.000342390598373706	0.00717255041963358	2.24451919759613E-06	4.80805465580519E-06	-3.15277097135689E-06	9.90270718796324E-06	0.97380407377136	-0.240640567172871
10.2	-0.000480425062933393	0.00766322685575342	-5.38148523945027E-07	-1.05706318498359E-06	-1.20813057031215E-06	-3.14027839402212E-06	0.972558057548735	-0.242077151549076
10.3	-0.000351752349912487	0.00817468895895862	1.13924935861557E-05	-2.92056965282527E-06	1.01385855572991E-05	-4.85023976578789E-06	0.971809110599898	-0.243731651268382
10.4	2.77269582402327E-05	0.0086958581045695	-6.37390648165926E-07	2.16294435612543E-06	3.05831331757842E-06	-2.19596087562673E-06	0.971389236888419	-0.24570862509914
10.5	0.000799324441767129	0.0087889513710487	-6.15919264814677E-06	4.6748695808661E-06	1.58070964439629E-06	4.33978942185913E-06	0.971152288646938	-0.249121672548917
10.6	0.000902622964107301	0.00874663780230185	-7.15864029930327E-06	1.0760379236716E-05	7.0755989288754E-06	4.30218461512394E-06	0.970143390031053	-0.252053480380707
10.7	0.00126035584529021	0.00905902349603958	-3.2387859954112E-06	1.5786433196459E-06	-5.40830207297216E-06	3.19394892472817E-06	0.969634528023711	-0.255184965508471
10.8	0.0017000283889197	0.0092810209343068	-1.94031439954479E-06	5.03092274968605E-06	8.56131307923148E-07	-3.22835311132306E-06	0.968908986594738	-0.257945401278528
10.9	0.00214667642202339	0.00960607613124826	-5.80924220993398E-06	-1.0602952870049E-05	4.98425063982309E-06	1.07841853872545E-05	0.968454149313546	-0.260456120759139
11	0.00309799350176375	0.00957932908692834	2.99163440747878E-06	2.62904750123291E-06	7.75315840166049E-07	-1.13177296936868E-05	0.967881437000139	-0.263037665500584
11.1	0.0033156740677215	0.00946007087229256	3.88720687391756E-06	1.46285731384288E-06	2.47408159258498E-07	-7.42624161898965E-06	0.96623523993855	-0.265437782225485
11.2	0.00394451409233708	0.00963550172015449	-4.45090555533501E-06	-1.97827097759648E-06	-7.38330936666348E-06	-4.87354797598736E-06	0.96453713340615	-0.267290575812027
11.3	0.00483108783172532	0.00951352454486199	6.54617523485362E-07	-6.42434970960832E-06	3.8223203117763E-06	1.42313705997639E-05	0.962952678092789	-0.268730219769957
11.4	0.0055437447904983	0.00917932722425369	-5.13039900649607E-06	8.20504630355495E-06	-1.45848455289864E-06	4.10551852182138E-06	0.961118586038889	-0.270376906044036
11.5	0.00634091303706949	0.00835803679971848	4.56049274148879E-06	8.13492153197426E-06	-9.34082330278919E-06	1.60203335031499E-06	0.961264827249504	-0.271995155999089
11.6	0.00627284931601843	0.00744039495730804	-3.86547068810107E-06	1.41763959685966E-06	5.12834076993441E-06	8.18284692446767E-06	0.96046927500401	-0.276522986464754
11.7	0.00634454855780198	0.00695049695439957	2.2916227022601E-06	1.05936128224352E-05	5.34786880749732E-07	-3.67519511929417E-06	0.958738228569969	-0.280103009951513
11.8	0.0064929372409993	0.00646653945717091	1.45188385842405E-06	4.48599144582313E-06	2.27848578769614E-06	4.55795602779049E-06	0.95755441052884	-0.283006312364623
11.9	0.00669573918344938	0.00605710167764513	7.52209379058169E-06	1.0613889065467E-05	3.90844577449906E-06	3.96723826967969E-07	0.958168681681461	-0.284356083611724
12	0.00707254239541623	0.00518506805626342	2.3524962759318E-06	-5.20449037478161E-06	-4.00756214573191E-07	1.76635849877637E-06	0.960669974822273	-0.288846739233832
