# GHZ S RI R 50
0.2	0.000462382776123679	0.0013399246011869	4.81041082515766E-06	-2.98159264738279E-06	-1.37843109753139E-05	1.31200141344843E-05	1.00120157760504	-0.00611633309938166
0.3	0.00104050907044283	0.00103241301450706	2.86164485936795E-06	6.64809815998575E-06	-1.65171129358297E-06	-9.34737968483391E-06	1.00156195726159	-0.00896011253660183
0.4	0.00137114086426888	0.00112117150935649	-1.86423472552397E-06	-4.03193206605095E-06	-9.05173822416649E-06	4.40817916116471E-06	1.00245155511243	-0.0115470511856419
0.5	0.00259573860324826	0.000605930388322876	-5.37418603354903E-06	3.27568038565029E-06	-2.13037822047815E-06	6.77951671012417E-06	1.0031616448595	-0.016289862935082
0.6	0.00189350820445404	-0.000809497450037734	-1.41585789774983E-07	2.81214178004721E-06	-5.82724137563447E-07	-1.34746989494906E-07	1.00172018401855	-0.0195203839015693
0.7	0.00111975248883629	-0.000668972278513689	8.57256254009402E-08	2.22624648228297E-06	4.92283258086809E-06	-3.40691299790225E-06	1.00144732740453	-0.0217937016881801
0.8	0.000787875115235959	-0.000468890101449409	4.5456571734957E-06	8.34264586232864E-07	2.75273886338911E-06	2.01155084072485E-06	1.00148931937568	-0.0237301106662178
0.9	0.00027014284079931	4.93363670582549E-05	-1.4852358134139E-07	-4.23922232781725E-06	-3.43177334012365E-06	-3.12808602641744E-06	1.00154964235115	-0.0256123558958499
1	0.00131087529509401	0.00130999199681463	1.06725356710471E-06	4.31611794287101E-06	3.3463110136273E-06	9.37984232474556E-07	1.00301122857857	-0.0266597371423309
1.1	0.00211468677331126	-0.000478282137178635	9.08737923368735E-06	5.1223624847787E-07	-3.59598227353676E-06	-4.98289034526418E-07	1.00309772517132	-0.0306132065290276
1.2	0.0010629489716239	-0.00158415144044267	3.77661564884514E-06	-1.20892367584448E-06	-4.11765486127007E-06	-2.44465496773434E-06	1.00171006154366	-0.0321886037743337
1.3	-0.000112566144984331	-0.00265817780355311	-7.67022164340057E-07	-1.43150333456257E-06	-2.6115672730748E-06	-8.73850041972697E-06	1.00108509439372	-0.0337947836916513
1.4	-0.00138723367777582	-0.00327080524306532	2.15333571864488E-08	3.4594443750796E-06	-4.30510942841275E-06	-4.1325762199577E-06	0.999823398819741	-0.0361743512729802
1.5	-0.00105404938916478	-0.0037746261995822	-1.29444352720814E-06	4.44676855365713E-06	6.56093328415301E-06	-7.4499195561065E-06	1.00117831005097	-0.0395717621117568
1.6	-0.00224662574760194	-0.00418154982420645	1.63543096224825E-06	-4.93808400853066E-07	4.25060198842557E-06	-5.42326398970735E-06	1.00049487159459	-0.0436937101943335
1.7	-0.00241075895035985	-0.00323828714596476	5.41580078218785E-07	3.97501604375083E-06	-8.31770620228102E-06	3.16036824292522E-06	1.00103572866267	-0.0458182377599432
1.8	-0.00220913298165951	-0.0026010464345671	1.84371648891592E-06	1.07992067591112E-06	5.6458222749355E-07	-1.77176045845278E-06	1.00127255519347	-0.0481973122558796
1.9	-0.00188558571505742	-0.00188251602269405	3.25709833551523E-06	3.0291917680289E-06	-1.8714817391243E-07	-2.34222756577119E-06	1.00169213716275	-0.0489468345200864
2	-0.000279147824545781	-0.00206512358765937	-1.73940311656459E-07	2.02270128009458E-07	-1.22568928418839E-05	5.47618146615008E-06	1.00601870297938	-0.0516738729727478
2.1	-0.00099764757616591	-0.00370939100879483	6.67105935720529E-07	-1.39675498835987E-06	1.39447454212129E-05	4.9411651543149E-06	1.00529041736412	-0.0588698340091572
2.2	-0.00204085457323371	-0.0036517468156532	1.64762306745474E-06	-1.53628400230619E-06	2.6713222587146E-06	-6.26820769580627E-06	1.00329170632222	-0.061943175241118
2.3	-0.00283022331855471	-0.00341936169462155	-1.71815123846583E-06	-3.43965151384066E-06	-1.82871035695153E-06	-4.61151561404779E-06	1.00206430244448	-0.0637932688093073
2.4	-0.00365545389159712	-0.00270988162008086	-1.23878813862314E-06	-4.42212297513716E-06	3.07301605416576E-06	1.07459916838416E-06	1.00150021180728	-0.0666710783315506
2.5	-0.00287873314173459	-0.00167010252058788	5.45612442578499E-06	5.66134912828314E-06	-2.50196033519208E-06	1.62605005499395E-05	1.00158585857089	-0.0688608250756163
2.6	-0.00280733073369832	-0.00281210366261347	-2.26910767674031E-06	2.74065869259273E-06	4.06240825778031E-07	-4.33548064794795E-06	1.00153921115328	-0.0724389636755742
2.7	-0.00352402114302008	-0.00294458842095982	-2.44430724349035E-06	-3.63930498638993E-06	2.14839780980871E-06	-2.59897370327911E-06	1.00121917974836	-0.0760035652702083
2.8	-0.00412709773098092	-0.00275771449554343	4.04133880185979E-06	2.29414950760659E-06	9.87986359195883E-06	-7.65676725255216E-07	1.00106229462992	-0.0789309250918461
2.9	-0.00440434292055287	-0.00202332908343048	1.29518559339074E-05	6.02651750629135E-07	2.35153723737309E-06	-1.17963997560302E-05	0.999999283676316	-0.0815493678394762
3	-0.00333394940466244	-0.00187929417765093	-3.85738223127048E-06	1.08541266635768E-06	-4.17444666184104E-06	-1.56628664943918E-06	0.999274082091863	-0.0843109684639217
3.1	-0.00397668967526431	-0.00272962910797543	4.71034555746169E-06	-9.91669195716589E-06	1.07385936162048E-05	2.3260575270541E-06	0.998200333765508	-0.0869741790696063
3.2	-0.00454914993155313	-0.00235903542301647	-5.45405232067627E-06	-7.38054112997093E-06	1.57309565895595E-05	5.25768482107443E-06	0.996885731950784	-0.0890804543058922
3.3	-0.00486424702172903	-0.0019971114090294	-8.78478458425173E-06	2.63711861589049E-06	-8.59981091438511E-06	-1.65927931422967E-06	0.995379734605737	-0.0926120554486395
3.4	-0.00513750341262588	-0.00127994303080747	8.98300834120807E-06	-7.65919856816686E-06	-7.30288351957376E-06	4.31338426483564E-06	0.993420704315182	-0.0942652891730567
3.5	-0.00405969887329284	-0.00109845022936731	2.71647613302839E-07	-5.3153610693676E-06	-4.46924449779464E-06	-8.87599617072499E-06	0.992980494866908	-0.0947506234817156
3.6	-0.00484818171954037	-0.00220194130283745	4.1097847308737E-06	4.86506818107484E-06	-7.03215211292691E-06	9.04618866764291E-06	0.993675811362866	-0.0982622457712797
3.7	-0.00585482858446607	-0.00167398990879831	1.48669486445092E-06	-4.53650393454421E-06	-5.1571261133422E-06	-6.53571636901032E-06	0.99223689710312	-0.101563094722451
3.8	-0.00632232266812064	-0.000828360071745751	7.21981185527325E-06	-5.25160077332637E-06	-5.89080980178546E-06	-2.36166894714731E-06	0.99047175029611	-0.103023511493527
3.9	-0.00621534416868887	0.000426009872687959	-4.0226678088638E-06	-3.17811475269072E-07	-2.51568341212766E-06	1.15003206783081E-06	0.989817966840739	-0.103843636470115
4	-0.00436698255361287	0.000771221138738452	-3.38450315296046E-06	-5.61242657272873E-08	1.27092485468966E-06	8.65974636007711E-06	0.993734183305603	-0.104789918022338
4.1	-0.00454037842052307	-0.000671233518488059	-2.93711217989879E-06	-3.82592294954676E-06	5.90361176198687E-06	2.9729081478671E-06	0.992345507209087	-0.110757982317422
4.2	-0.00522454140676088	-0.000689406538576877	-7.93340394508422E-07	-2.14262164743616E-06	5.66380197258219E-06	-1.89737154074837E-06	0.989503540775	-0.113413083024178
4.3	-0.00566054450822084	-0.00041778166162818	-4.76574830546992E-07	3.22789228929134E-06	2.139340557472E-06	1.75198767484321E-06	0.988186180275561	-0.114866599477047
4.4	-0.00604398588011526	0.000332393816470236	2.60142029780835E-06	3.40193552726872E-06	7.19373349827867E-06	3.82280366744723E-06	0.987400336702712	-0.116672287389796
4.5	-0.00478009145878526	0.000808514544478402	-6.43740476016073E-06	-1.52039982128364E-07	-8.55557035536397E-06	-1.9992214074199E-06	0.987024029775627	-0.119727607634935
4.6	-0.00542938756880477	-0.000579893381627679	-9.95618691091092E-06	-9.0510947580281E-06	3.18215715081594E-06	-2.74075536470098E-06	0.984595662328577	-0.122354518456204
4.7	-0.00651101723711726	-0.000250007481271682	1.41523681143352E-07	1.84877074825371E-06	5.95174490476697E-06	-6.73243814149529E-06	0.983693562044863	-0.123530557109592
4.8	-0.00717482052747003	0.000446916482141613	-6.32426336334325E-06	2.11610078619469E-06	6.70276823832665E-07	-1.26497615513616E-05	0.982697693432959	-0.125515955387601
4.9	-0.0074232134526052	0.00165250121282305	-3.32587867513597E-06	8.10285871795289E-06	6.40297145040853E-07	9.29139440112572E-06	0.981387395476499	-0.126787120918353
5	-0.00587137308938226	0.00211357453498035	9.50681493565904E-06	-4.09826050423159E-06	-6.83252303324318E-06	3.5969780106685E-06	0.980533433465246	-0.127385997749003
5.1	-0.00640558932377954	0.00124255710902327	-3.83174083645526E-07	-3.21503271637884E-06	-3.84424576783412E-06	-1.74904224894863E-06	0.979976306739328	-0.128034238323635
5.2	-0.00668731629879508	0.00197413090110934	-1.08268971518879E-06	-4.43331612548732E-06	8.727152014758E-06	5.46642654622776E-06	0.979191737822109	-0.129334004430841
5.3	-0.0063553441368388	0.00262041714221642	2.30186520510848E-06	6.70493628821271E-06	8.71662566250527E-06	3.04683147591744E-06	0.978481826863591	-0.130836887408414
5.4	-0.00573103408333658	0.00344811105121599	2.65332449267956E-06	-3.11908416025035E-06	-2.64031407172466E-06	1.68090834456502E-07	0.977377480664182	-0.132559169002361
5.5	-0.00353832469165406	0.00292254290402597	2.10608721425187E-06	9.17521782134916E-06	-3.88034078143891E-06	-4.94799896847586E-06	0.97778094984697	-0.132585306212302
5.6	-0.00482679721772919	0.00112357458975041	-5.78322287850353E-06	-1.11215221796485E-06	4.81352843254972E-06	1.91348528976658E-06	0.978736617761881	-0.135737217027764
5.7	-0.00606121757354953	0.00180271673383326	3.29438666295839E-06	-1.40940215333033E-06	-4.99114505407598E-06	-4.23431596952829E-06	0.977503829066919	-0.13800156497676
5.8	-0.00658772920893786	0.00270958445489926	-2.03004366685118E-06	-4.68633694434346E-06	9.34434852604052E-07	-5.75162457271359E-07	0.976423243349639	-0.138745499080465
5.9	-0.00694180682137736	0.00427756462183067	-3.83386658837878E-06	6.0536165452506E-07	3.8139824572756E-06	1.2409453074266E-06	0.976395269266557	-0.137511521080414
6	-0.00466434201930205	0.00572159917545505	-5.89227724594463E-06	4.9997440789716E-06	-1.47274069098247E-06	1.93312682386537E-07	0.982161242179571	-0.138589378355842
6.1	-0.00426392185542069	0.00367790196795927	-5.8751091710631E-06	-4.63976626079711E-06	-3.96481103333714E-06	4.34549216993554E-07	0.980732930694135	-0.144473234782573
6.2	-0.0052873972871888	0.00335160243538165	2.78787978813536E-06	3.08770690540103E-06	1.04048308330791E-06	7.13961111851035E-07	0.978393239822411	-0.145239813390399
6.3	-0.00601924102581803	0.00361801585118611	1.62270942138778E-06	-7.3711715246799E-07	-1.3350821440771E-07	1.35898229125133E-06	0.977451476176987	-0.145882095581868
6.4	-0.00628181869794584	0.00470472050280688	-5.11709472816766E-06	-5.57079161379979E-06	3.76058246244076E-06	6.84305720938277E-06	0.978006926785993	-0.146629440060204
6.5	-0.00449880015460252	0.00428046002135448	8.96374933121247E-06	-2.48643619810501E-07	-7.2403543916422E-06	-8.85118801362802E-07	0.978488670766218	-0.152278948051333
6.6	-0.00596615525934373	0.00341155340722321	-1.46812331352165E-06	4.55869072535013E-07	3.34914825779978E-06	-9.23678314015323E-06	0.97411392251166	-0.153345239514784
6.7	-0.0063191199080472	0.00446896187833782	6.70533060622167E-09	7.64488133086938E-06	-4.55601356066477E-07	-6.00464159363616E-06	0.973946865160937	-0.152726332426326
6.8	-0.00627703831035994	0.00521147491356516	4.18227400172506E-06	1.66382169931876E-06	2.46413014701925E-07	-5.16698435433217E-06	0.974241664678048	-0.153348115095416
6.9	-0.00604611668927182	0.00671042423914431	-7.48295572374885E-07	2.39341564063943E-07	5.71094128465898E-06	-2.60603785712133E-06	0.974632420919492	-0.153407165093265
7	-0.00307006481044589	0.00683117408756859	7.96588450124642E-06	-4.6384122530027E-06	4.53597332626428E-07	-2.98168909304599E-06	0.97735039348736	-0.154581186822813
7.1	-0.00418902034773306	0.00467285064407156	3.78474295161168E-06	2.0547267888217E-06	7.00137751161816E-07	7.15539251282509E-06	0.976500676087515	-0.158091007696059
7.2	-0.00534036973208517	0.00540218206790392	-2.45779853848274E-06	3.62901507942701E-06	-1.28177815558721E-06	-3.799484074225E-06	0.975040452044925	-0.159328015284478
7.3	-0.00587401929100172	0.00629127095571703	3.40842727634091E-06	-4.54962740190022E-07	-2.40543959298046E-06	-1.92155524426686E-06	0.973115893549241	-0.160505606742406
7.4	-0.00644079653758218	0.00796704169318286	-6.08553091164981E-06	-2.73067153344508E-06	3.72205695193172E-06	2.83126237210331E-07	0.969476120587075	-0.160339214536516
7.5	-0.00389642924241311	0.00962301578935675	6.77393110765974E-06	-6.24716972063271E-06	-2.46034614795369E-06	7.50425121403573E-07	0.971598898079856	-0.15523871970289
7.6	-0.00368042374388753	0.0075028403538122	3.36755386934168E-06	5.22297701760548E-06	-1.02469651300055E-05	4.71290268838274E-06	0.976295317263633	-0.160334547652868
7.7	-0.00455539319712415	0.00756013906440371	5.80437861471433E-06	1.09656120008105E-05	5.20004311701659E-07	-1.12763189367078E-05	0.976022280737667	-0.164286385317151
7.8	-0.0047747271956623	0.00802687661469671	2.12553004192949E-06	1.01503596319292E-06	-3.23899480660892E-06	8.71185145316768E-06	0.976044641091686	-0.16631644146736
7.9	-0.00415769353093083	0.00901218440667618	2.58478667168058E-06	-2.25162758975655E-06	3.6619886264448E-06	4.13170753807548E-07	0.977950432420713	-0.166115850539426
8	-0.00153202431078416	0.00764158503343469	-2.84362038068924E-06	1.27387770973327E-06	6.92400125314561E-06	-1.72123957341681E-06	0.98656052592153	-0.170595068792398
8.1	-0.00313340141794593	0.00595617426161182	-1.8068331125372E-06	7.29158637546627E-07	-3.69657498985752E-06	-1.31418157782566E-06	0.984625078387796	-0.180000377826333
8.2	-0.00391133658146605	0.00657454409704058	-8.89029156175458E-07	6.32984394647173E-06	4.81746251308394E-06	4.43143202771471E-06	0.982365153510092	-0.182520769326769
8.3	-0.00420233259878054	0.00721022015954071	-6.47181286322698E-07	-1.42498129081206E-05	6.75705691282342E-06	5.53633827162781E-06	0.981738143972108	-0.184850374281654
8.4	-0.00425399294092478	0.00875659527724047	3.81856995926504E-06	-3.38748741590662E-06	-6.97575679553846E-06	-1.31839781877746E-06	0.98191829707261	-0.187306113975129
8.5	-0.00134278038453459	0.00916171262196103	4.67410246385533E-06	6.41418532170904E-07	8.5062602112586E-06	-6.74505155692312E-06	0.982066616918121	-0.191606615727069
8.6	-0.00215974986627683	0.0070438593533293	-3.32938930715271E-06	4.07448733993491E-06	8.53704993944952E-07	1.11205115245792E-05	0.980524108542886	-0.194196701236379
8.7	-0.00312418334224054	0.00771941272799602	2.72067442589461E-06	-1.96586279646549E-06	4.88146959451933E-07	-5.48428608552096E-07	0.980784359566081	-0.196211090595179
8.8	-0.00327171654783745	0.00864552437831007	1.40376589066469E-07	-1.2574901011792E-06	-1.11518712407139E-06	9.80206872899103E-06	0.981260160661684	-0.198491311993211
8.9	-0.00296216933008541	0.0101163177645637	-3.71659204930044E-06	2.26177731637709E-06	4.88773022785807E-06	-1.75428574724727E-06	0.982067025687715	-0.200735467955622
9	0.000106717487132843	0.010600005641474	-1.90522127702068E-06	4.78081166728366E-07	-3.10322274628586E-06	-1.062528116313E-05	0.982898799236985	-0.203157320978251
9.1	0.000303232889050852	0.008473075590226	5.27484645402383E-06	6.62373438649799E-07	9.13287998221712E-07	3.96121103642359E-07	0.983716088179537	-0.206040935785245
9.2	0.000305156334204395	0.00817166972994669	-8.73048850767186E-06	-4.71868323544358E-06	-8.12119292825345E-07	-6.18361074785353E-06	0.983933333198507	-0.209594080523956
9.3	0.000549427224395011	0.00774574357850734	1.1959927909722E-07	6.26585895684475E-06	4.69947489208815E-06	-2.15863921162033E-06	0.98349191253482	-0.213289119492874
9.4	0.00078924152620328	0.00794224224862164	-2.0025479198036E-06	5.90338113558053E-06	-1.06541571951541E-05	7.68343746433603E-06	0.981552936068848	-0.216207205673286
9.5	0.00260231503667542	0.00655167948476702	3.31065679965564E-06	-7.56493812424609E-06	3.74243490702306E-06	-2.70523012332728E-06	0.982459814351295	-0.216658909203145
9.6	0.000431420376229368	0.00475915660229208	4.463150536604E-06	5.69919865446824E-06	-7.50937209473611E-07	7.13416831010648E-06	0.983694191261312	-0.222114147237852
9.7	-0.00086300790097092	0.00554710016136327	-2.58380981196023E-06	-4.01881074689809E-06	3.83448953270529E-06	-7.56302838415353E-06	0.98255482428319	-0.225715601722553
9.8	-0.00149964016581599	0.00643470206008273	-4.77850573154632E-07	-4.27366566921639E-06	6.34247311609754E-06	9.80024696769648E-07	0.981933971405403	-0.227455590762639
9.9	-0.00174757812962524	0.00812105178982446	-2.71820336842002E-06	-6.41003027851664E-07	-8.70198494993812E-06	5.44462159063659E-06	0.983058798415416	-0.226564438913522
10	0.00087544225389366	0.00861971486879699	4.58091060101081E-07	-1.78177021757834E-06	-3.0523293389801E-06	-8.167937554035E-06	0.990970852236305	-0.231670391360938
10.1	0.000104587938021921	0.00682901122139715	2.25352403731318E-06	4.87395177338948E-06	-3.2273067704674E-06	1.00095389646085E-05	0.986828159501286	-0.240325990895116
10.2	-0.00078962265203567	0.00737409337141129	-5.40380158562482E-07	-1.07044602204654E-06	-1.21049977524273E-06	-3.17869115194812E-06	0.983718063283384	-0.241743083427072
10.3	-0.00111922270129508	0.00825449291172576	1.15286159359575E-05	-2.91400780816066E-06	1.02674124858168E-05	-4.86932691209394E-06	0.982659477098542	-0.243130279570767
10.4	-0.000824051885071034	0.00991837853230383	-6.50799270801649E-07	2.18777270865608E-06	3.10144599110568E-06	-2.21491960878865E-06	0.983073614757913	-0.245100089747731
10.5	0.00208859384227933	0.0100597088372456	-6.22730965056198E-06	4.72900417173802E-06	1.59957992482445E-06	4.38821435243396E-06	0.983265014738052	-0.251010674262653
10.6	0.0017593781689929	0.00849367763462514	-7.23975856166038E-06	1.08595581727293E-05	7.14121004433271E-06	4.3515286016247E-06	0.980799988829039	-0.253954936141136
10.7	0.00167971493210739	0.00863823072137207	-3.27585692999398E-06	1.59263856095765E-06	-5.47077211655267E-06	3.2234276392599E-06	0.980978112299181	-0.257466139060675
10.8	0.00150929505297075	0.0088418506089474	-1.96290206801127E-06	5.08990399112812E-06	8.66069803942666E-07	-3.26619071713692E-06	0.979991088465524	-0.261561139445084
10.9	0.00165164476312538	0.0100974790595973	-5.89714866513926E-06	-1.07204804392027E-05	5.062550688741E-06	1.09052983692038E-05	0.979127254494187	-0.264772038648559
11	0.00457514212275368	0.0099883228422412	3.03080090840776E-06	2.64767448325427E-06	7.49726125947445E-07	-1.14385858713516E-05	0.97870589341934	-0.268233325682363
11.1	0.00376781808560628	0.00822097817232963	3.93175321359342E-06	1.4671843298762E-06	2.29170030035119E-07	-7.50420545807142E-06	0.976040838476535	-0.27214214835908
11.2	0.00344704483128015	0.00869466041860243	-4.50506262114137E-06	-1.98210982876715E-06	-7.47918946640844E-06	-4.89660028711565E-06	0.97318597454893	-0.274716964675924
11.3	0.00375896154360572	0.00924327272946257	6.28378132355302E-07	-6.49029335745292E-06	3.93183829109984E-06	1.43506792880795E-05	0.969714663344386	-0.276562249483937
11.4	0.00432441692667063	0.0101643038398507	-5.11906174995731E-06	8.29897036541748E-06	-1.44437711969928E-06	4.14570908466539E-06	0.965337490244016	-0.277340947644679
11.5	0.00731277799915906	0.00931348535401847	4.61576495173105E-06	8.17427854156307E-06	-9.39730338473514E-06	1.64158655142901E-06	0.967728391370114	-0.275818473680173
11.6	0.00635490015422317	0.00679349515581323	-3.8949714483952E-06	1.44558840849066E-06	5.2067887773682E-06	8.23698785423355E-06	0.968162306037368	-0.283439292885467
11.7	0.00555106735663802	0.00672649132839884	2.37014282287989E-06	1.06733064358734E-05	5.19139799618513E-07	-3.71019151962825E-06	0.96474032833361	-0.28809996961941
11.8	0.00532808158339281	0.00701456990119567	1.48998570518633E-06	4.5116514955961E-06	2.32335701223446E-06	4.57919785824828E-06	0.962018583593361	-0.290423346185741
11.9	0.00634476065166625	0.00811576324973565	7.6333746074652E-06	1.06586290994917E-05	3.94072412165956E-06	3.80293954091764E-07	0.963758031088189	-0.289263329924081
12	0.00944299591929076	0.00667291920489606	2.34674830725689E-06	-5.27806673736346E-06	-3.94302228490078E-07	1.78885499334094E-06	0.972025907515109	-0.296617075661361
