# GHZ S RI R 50
0.2	0.000931427217027667	0.00272557411821181	4.78950680295E-06	-2.98605895372158E-06	-1.37124356867755E-05	1.31203481435118E-05	0.999149135934639	-0.00713783661847986
0.3	0.00136741170719769	0.00186937034538157	2.8668767849257E-06	6.62102608235136E-06	-1.66653827511117E-06	-9.31439806242181E-06	0.998941857397345	-0.0100590684781754
0.4	0.00167217848296724	0.00120310678389471	-1.8625081748169E-06	-4.01196204851779E-06	-9.00656329364185E-06	4.40335690090938E-06	0.998655640140256	-0.0128283131208657
0.5	0.00140321296426118	0.000818106794808189	-5.35463441371352E-06	3.26016345070782E-06	-2.1253046353662E-06	6.75179380860715E-06	0.997904096605688	-0.0154110474614059
0.6	0.00179417115727522	0.00088057035478276	-1.39152023172327E-07	2.80439511391539E-06	-5.8119530716603E-07	-1.33948454429494E-07	0.998478225978083	-0.0179776943651681
0.7	0.00205110033752187	0.000478975460684918	8.85250967122347E-08	2.21743674979723E-06	4.89882256935941E-06	-3.40054605225476E-06	0.998237309745023	-0.0210938401306503
0.8	0.00220812241384577	0.000117904771085114	4.52438871981201E-06	8.23896043847895E-07	2.74193181547246E-06	1.99784357559573E-06	0.997992302315826	-0.0233113109206627
0.9	0.00236713208034175	-0.000332671474049266	-1.52634044548994E-07	-4.21320104320449E-06	-3.41455186718603E-06	-3.10495423903596E-06	0.997977936828996	-0.0259199613950074
1	0.00194750558013912	-0.00114947378714918	1.05797913499445E-06	4.28541439838248E-06	3.32185790726908E-06	9.32455659884842E-07	0.997192927881204	-0.0279957853293432
1.1	0.00136928835317288	-0.000909479537608199	9.03092849781029E-06	5.20215219419826E-07	-3.57328216616925E-06	-4.99630595368401E-07	0.996589532104479	-0.0294841838680748
1.2	0.00126283600127429	-0.00128669756485983	3.75608510495745E-06	-1.19688057537177E-06	-4.09032596986675E-06	-2.43574770477281E-06	0.996024725865618	-0.0302988534496667
1.3	0.000694001873887564	-0.00200188294529232	-7.59990905799601E-07	-1.42551664382557E-06	-2.57960760938119E-06	-8.69765813619014E-06	0.996186066928184	-0.0306732403945714
1.4	7.1331494510643E-05	-0.00282780888392314	1.1971427789504E-08	3.44477279974939E-06	-4.27546507307931E-06	-4.12676471081988E-06	0.996416705878994	-0.0322891068239127
1.5	-0.00067412226803992	-0.00322777902934586	-1.29952065814217E-06	4.42636784443873E-06	6.55220848786291E-06	-7.4057103477656E-06	0.996744163975863	-0.0356759870186208
1.6	-0.000490690091238662	-0.00314668069843921	1.62840490449263E-06	-4.8803574972807E-07	4.24081088311014E-06	-5.38791766237453E-06	0.996492194428149	-0.038807347470902
1.7	-0.000487467740290437	-0.00347358352922045	5.2905684468872E-07	3.9534740982127E-06	-8.27743029893388E-06	3.12252375876937E-06	0.996830675189717	-0.0415473848097661
1.8	-0.000610865088455078	-0.00360088544290033	1.82986390993454E-06	1.07813953668652E-06	5.657170693694E-07	-1.75965864500562E-06	0.996825254241075	-0.0445373414859659
1.9	-0.000795596537798477	-0.00392539573488272	3.23202810127458E-06	3.01536714143733E-06	-1.8231981424614E-07	-2.32789535486838E-06	0.996643523971083	-0.0475924254100954
2	-0.0016584315034585	-0.00402830790875079	-1.72403196337896E-07	2.00015723794317E-07	-1.21385617998281E-05	5.40653298492724E-06	0.994209923891167	-0.0508359816478999
2.1	-0.00174386348682144	-0.00347566872621981	6.6785545386185E-07	-1.37869500413714E-06	1.37738354498434E-05	4.96638756792039E-06	0.993749295575491	-0.0511247228771176
2.2	-0.00178134482341135	-0.00353445345483379	1.64281201060724E-06	-1.51246673042093E-06	2.68722979442581E-06	-6.19645657341957E-06	0.994431310936622	-0.0531548971715596
2.3	-0.00203884833308898	-0.0036400079661467	-1.68152229556449E-06	-3.42215362856973E-06	-1.78355654273629E-06	-4.58497538900375E-06	0.994505708289288	-0.0549213615676051
2.4	-0.00230623436301743	-0.00387586102772481	-1.19675867010023E-06	-4.39333559261237E-06	3.03922714798709E-06	1.08734531717002E-06	0.994810000532	-0.0581769812317171
2.5	-0.00328741571515006	-0.00426963506478146	5.36484966601202E-06	5.66654502909876E-06	-2.62636964879981E-06	1.61151870276005E-05	0.994201411565883	-0.0607652970574728
2.6	-0.00408776196098054	-0.00354633199399034	-2.27683692955538E-06	2.70517351229376E-06	4.3851144265223E-07	-4.30491874424748E-06	0.993982156550718	-0.0634813816279001
2.7	-0.00429885997429185	-0.00297969978468606	-2.39887742919659E-06	-3.63360628475435E-06	2.15414051144357E-06	-2.56422832804155E-06	0.99328581531995	-0.0662688994169932
2.8	-0.00422869358559161	-0.00247325031240137	3.99219584524727E-06	2.3126829261743E-06	9.81510832050734E-06	-6.74297714804656E-07	0.993363230809195	-0.0677798244121466
2.9	-0.0039012611711658	-0.00234058241246807	1.28559848362147E-05	7.29426415006555E-07	2.45450677483728E-06	-1.16908554715119E-05	0.993381393975323	-0.0695211272563616
3	-0.00406410047902468	-0.00231207000310522	-3.85066671214649E-06	1.03817986359693E-06	-4.13732382448107E-06	-1.60422916619201E-06	0.993383642009829	-0.0719445694229435
3.1	-0.00360740125251473	-0.00192622034363302	4.79020783336853E-06	-9.82301615261855E-06	1.06655438084465E-05	2.42526430460821E-06	0.993239122354771	-0.0735378899258199
3.2	-0.00330842864727991	-0.00218154616131537	-5.34884526029475E-06	-7.41036961713137E-06	1.56062676319933E-05	5.41103081093439E-06	0.993396239507276	-0.0750098657106278
3.3	-0.00325159360643722	-0.00248261382968825	-8.7896131955012E-06	2.52115224247586E-06	-8.55254083888532E-06	-1.75952583637947E-06	0.993751445361102	-0.0779591838873104
3.4	-0.0033787598112734	-0.00290590501090541	9.07768491123836E-06	-7.53208946013492E-06	-7.35422018424409E-06	4.21173855143197E-06	0.994628061274627	-0.0798986312259111
3.5	-0.00420830867705054	-0.00322747520882489	3.30578068484755E-07	-5.3230787598291E-06	-4.38074914810575E-06	-8.94295612884594E-06	0.994756901533598	-0.0837998081015221
3.6	-0.00445634927527563	-0.00268832234059308	4.06125569756908E-06	4.90645462117473E-06	-7.12307664411616E-06	8.97618877533085E-06	0.993833918086569	-0.0859411021101163
3.7	-0.00451753211751883	-0.00267807464122505	1.53817480417597E-06	-4.52127896721864E-06	-5.08535065177878E-06	-6.59582668460987E-06	0.994270687330018	-0.0882261882076785
3.8	-0.00469989917330493	-0.00269257712467893	7.29139825743114E-06	-5.17671124542754E-06	-5.8727812206544E-06	-2.43307585466447E-06	0.994717178375813	-0.0905326108647541
3.9	-0.00488458008626667	-0.0028389580740265	-4.0296411383823E-06	-3.59219207529482E-07	-2.53365851273836E-06	1.12755034583197E-06	0.995207740953044	-0.0949131950617325
4	-0.00578538712336117	-0.00284272431927678	-3.38168687060522E-06	-8.84501605757224E-08	1.18726158145835E-06	8.66606664732121E-06	0.992886944963351	-0.0975052445377576
4.1	-0.00590487359755681	-0.00190844024573761	-2.8872263084725E-06	-3.86762681600146E-06	5.86687737633148E-06	3.05409001545412E-06	0.992371513942118	-0.0974544416858638
4.2	-0.0057087019630336	-0.00164100544940035	-7.66743161460231E-07	-2.15954360708679E-06	5.70583922372304E-06	-1.82648451976183E-06	0.992512978728397	-0.0998083443183417
4.3	-0.00561836023912271	-0.00150686702507699	-5.20554304401496E-07	3.23408211781681E-06	2.12469130834593E-06	1.78665829849522E-06	0.99266573221542	-0.101810516077721
4.4	-0.00562890124017662	-0.00160705862447167	2.56575099040158E-06	3.4498001123545E-06	7.16996007161654E-06	3.93383684986275E-06	0.992391056499771	-0.104247201922813
4.5	-0.0064371787723059	-0.001658761758502	-6.47336492949376E-06	-2.56661757621169E-07	-8.57440847856778E-06	-2.14899094784402E-06	0.992083780677952	-0.10579554460538
4.6	-0.0067381588076707	-0.000704700784431025	-9.9251923287779E-06	-9.27700237471463E-06	3.25096732645411E-06	-2.7225742392197E-06	0.99273460033421	-0.108303165797431
4.7	-0.00663547398388628	-0.00024467543125261	1.20276774360299E-07	1.86884036367776E-06	6.09325658190785E-06	-6.72629028437684E-06	0.993060289104616	-0.110548657226316
4.8	-0.00656436054263793	0.00018144738926019	-6.4120392402176E-06	2.06400923377972E-06	8.23514988327079E-07	-1.27685359773414E-05	0.993016025779179	-0.11307679300175
4.9	-0.00627257392719873	0.000391475785695706	-3.45732367665183E-06	8.14750998514348E-06	5.35957783524289E-07	9.39580896389371E-06	0.99314761273426	-0.114955031347173
5	-0.00649547790618644	0.00052802095460536	9.6836278593871E-06	-4.04245928376407E-06	-6.96722846803234E-06	3.56570266860119E-06	0.993560143840452	-0.116920442571457
5.1	-0.00578170911637434	0.00117422592812338	-3.60375593985773E-07	-3.26290130662556E-06	-3.88218829874606E-06	-1.80686616401982E-06	0.993929564424827	-0.118644824681377
5.2	-0.00509526677610592	0.000863512037486318	-1.06088400189534E-06	-4.50209897078286E-06	8.800119125711E-06	5.61198325112712E-06	0.994170542577775	-0.121268036591703
5.3	-0.00485592515193822	0.0004485074484484	2.27786239088595E-06	6.81791557944405E-06	8.81290883838196E-06	3.16243038201627E-06	0.994268511878731	-0.124063896735254
5.4	-0.00489192893409791	1.36046766602688E-05	2.72399685077174E-06	-3.14542395462302E-06	-2.68428413576911E-06	1.47090152030368E-07	0.994697584665728	-0.12736020469618
5.5	-0.00587329894009916	0.000132465768585202	2.10239895701018E-06	9.36687122132654E-06	-3.93257086281298E-06	-5.06490231078583E-06	0.994272639539426	-0.131556036927322
5.6	-0.00546360186867648	0.00119978896247787	-5.87794172950308E-06	-1.14210035717034E-06	4.89043280897401E-06	1.95496215876859E-06	0.993214018745888	-0.13370666074705
5.7	-0.00501949058354676	0.0012252996444277	3.35059765232168E-06	-1.42570141730345E-06	-5.06364290448743E-06	-4.31288650625453E-06	0.993532570111002	-0.136065834830887
5.8	-0.00486322084713572	0.00119781414185769	-2.05982303778329E-06	-4.76628380208143E-06	9.50524443146535E-07	-5.8394260732575E-07	0.994093008242716	-0.13893068794523
5.9	-0.00471311761831286	0.000962499879420164	-3.89401459513432E-06	6.23735241055139E-07	3.87798207228605E-06	1.25224115275681E-06	0.994232628154757	-0.143220849799661
6	-0.0058431495826563	0.000361477087438334	-5.94346710124237E-06	5.06050601040512E-06	-1.48734120602464E-06	1.97790301834147E-07	0.990495143732767	-0.146620680207694
6.1	-0.00663276542837717	0.00158314028683364	-5.93721188742311E-06	-4.71487403353024E-06	-4.01646315896189E-06	4.29247586705021E-07	0.989552442963233	-0.145615724763805
6.2	-0.00668722498809619	0.00227784052322184	2.82644515435032E-06	3.13884230107257E-06	1.05547116356298E-06	7.26322077897974E-07	0.989643230663798	-0.146695082499198
6.3	-0.00645178921694206	0.0028918650343477	1.64782927984459E-06	-7.49923751064452E-07	-1.34649133916028E-07	1.38055500017325E-06	0.989403771300434	-0.148512540364884
6.4	-0.00601214522176122	0.0028497441432042	-5.20010527521963E-06	-5.63927426612155E-06	3.82696852805379E-06	6.93212291534782E-06	0.98881363643943	-0.150891969196537
6.5	-0.00645872072851756	0.00296150909107438	9.09834671948679E-06	-2.35390963136573E-07	-7.34701742029474E-06	-9.12072889530381E-07	0.988182653035678	-0.151887096029033
6.6	-0.00561678264362319	0.00350259869211146	-1.49623992633962E-06	4.67512774796959E-07	3.39845459205191E-06	-9.42493239485017E-06	0.990562409231742	-0.154674229560653
6.7	-0.0052926011115526	0.00325323468605249	4.98373496990713E-08	7.78955745800851E-06	-4.98003842844729E-07	-6.1157435936573E-06	0.990766782030835	-0.158483718051248
6.8	-0.00517172502684557	0.00336928962010162	4.26857117158727E-06	1.66095334963132E-06	2.11066178621424E-07	-5.25970713886227E-06	0.990426547628836	-0.161625414166359
6.9	-0.00492399639936026	0.00325804499871553	-7.58442828197325E-07	2.49768893485675E-07	5.78159843230427E-06	-2.6983580698378E-06	0.990168679557967	-0.164787712642508
7	-0.00589952868934783	0.00348798945241083	8.0529947856564E-06	-4.78755897878087E-06	4.33482231924437E-07	-3.03450061304897E-06	0.988169498453888	-0.167340188341002
7.1	-0.00527733700407976	0.00497389576685309	3.86775618090817E-06	2.04629181488372E-06	7.89469315835303E-07	7.26227814271629E-06	0.987707687396266	-0.167933948231778
7.2	-0.00448818648439315	0.0051638778244022	-2.45221796421698E-06	3.71332299601893E-06	-1.34626523512313E-06	-3.84210645942987E-06	0.987797584693843	-0.169518706694142
7.3	-0.00408367445117496	0.00527102145338663	3.45431323492627E-06	-5.02905336203447E-07	-2.46485586900932E-06	-1.92152050027807E-06	0.987723458784852	-0.171123083629526
7.4	-0.00363919822233766	0.00504471249855697	-6.22712896314239E-06	-2.701995579885E-06	3.79116693324184E-06	2.41164398297169E-07	0.989110430188566	-0.173876539878734
7.5	-0.00455924323423517	0.00432671030494164	6.77003264768093E-06	-6.50425420170598E-06	-2.49051041294687E-06	8.15549791414361E-07	0.988765780434016	-0.180640640691149
7.6	-0.00489183973753594	0.00558496879028006	3.52156652458099E-06	5.20726242544664E-06	-1.02581775059507E-05	4.99365113499881E-06	0.985470307881768	-0.183760816622071
7.7	-0.00465658493774465	0.00580359929145394	6.09458337927427E-06	1.09482196183538E-05	2.84542388648197E-07	-1.13968316656697E-05	0.984807505144179	-0.187144380425931
7.8	-0.00432169509984646	0.00578541388229759	2.1675132650815E-06	9.76946620049069E-07	-3.07448088259582E-06	8.86340670407417E-06	0.984236101845103	-0.19123836564432
7.9	-0.00394473829786377	0.00538295198196606	2.54740763539192E-06	-2.33583898513655E-06	3.70158185666833E-06	3.22379552477525E-07	0.983058456077082	-0.196434062289554
8	-0.0047962599137422	0.00549572486214642	-2.80514136747253E-06	1.35027106694317E-06	6.86816718285969E-06	-1.90897274690829E-06	0.977342622809153	-0.200133894824669
8.1	-0.00353552104697932	0.00627752524245358	-1.78682763436906E-06	7.64291876061001E-07	-3.71334744945391E-06	-1.2345208184186E-06	0.976486525743877	-0.198679785241478
8.2	-0.00283749098323104	0.00587269586911252	-7.64113433628221E-07	6.33730057832783E-06	4.8964124401303E-06	4.33049398788504E-06	0.976986889976267	-0.200440245741858
8.3	-0.00248107077350093	0.0056197941471716	-9.25766022531875E-07	-1.42050819249663E-05	6.85067766910434E-06	5.39111045822344E-06	0.976495231369528	-0.203116150693016
8.4	-0.00216274691077241	0.00519494407089841	3.7388322263136E-06	-3.44279128660164E-06	-6.9687479612101E-06	-1.18362099166655E-06	0.975378692793767	-0.205729695358262
8.5	-0.00323083102062041	0.0050370935261174	4.67158928570521E-06	5.70801466382895E-07	8.38492809836454E-06	-6.85328858326504E-06	0.974216611915396	-0.207412684239728
8.6	-0.00275951775205243	0.00647550288068367	-3.25162918286566E-06	4.13007769353334E-06	1.05430593865575E-06	1.10920245843505E-05	0.974557330566957	-0.209715015396651
8.7	-0.00186385705518038	0.00662286531679669	2.67272704559987E-06	-2.01116929108808E-06	4.75765651240399E-07	-5.55838707130914E-07	0.974315975643073	-0.212603351457733
8.8	-0.00115617498738169	0.0066176065441834	1.15625683165106E-07	-1.25240603541317E-06	-9.22125943498614E-07	9.76283681737158E-06	0.973756577964011	-0.215062472634619
8.9	-0.000295294377919545	0.0061348112726955	-3.64714882292447E-06	2.30521020169551E-06	4.81693537543884E-06	-1.82170965399449E-06	0.97355674666194	-0.217259529877969
9	-0.000616008245270733	0.00532815917526938	-1.88657658061781E-06	5.0333059740272E-07	-3.24138097584452E-06	-1.05148431246939E-05	0.973029063754898	-0.219936449293173
9.1	-8.7357354873558E-05	0.00552620028574212	5.247180151831E-06	5.67374655976465E-07	9.13305310596761E-07	3.77593185852326E-07	0.971973154012303	-0.222051143371617
9.2	0.00028869218979744	0.00477144601101572	-8.72315295654862E-06	-4.53669922120518E-06	-9.02091618590003E-07	-6.11285825473608E-06	0.97085391859872	-0.224115678049482
9.3	0.000187324801673326	0.00426437597124104	2.05173694177948E-07	6.20407782655448E-06	4.62450329420549E-06	-2.2029680408296E-06	0.970267440032201	-0.225713734786394
9.4	0.000109149504379675	0.00374905134643025	-1.91442752583792E-06	5.88355076756037E-06	-1.04786764720494E-05	7.75713668212825E-06	0.970397883314329	-0.228067514668688
9.5	-0.000891405231016666	0.00399203793842971	3.15995034153652E-06	-7.5818855887648E-06	3.67463175697544E-06	-2.7561734271889E-06	0.969454532890989	-0.232100287395506
9.6	-0.000183633911498097	0.00489222203027567	4.51855335319494E-06	5.54991987671188E-06	-6.08591818506716E-07	7.06607681031001E-06	0.967837263057085	-0.234058468201994
9.7	0.000330155128385352	0.00465634355312064	-2.6158258308467E-06	-3.92094703931532E-06	3.65591127739954E-06	-7.52421872791666E-06	0.967701088163669	-0.236030040144343
9.8	0.000493075103203043	0.00448469507904819	-5.4005723570062E-07	-4.20527822998272E-06	6.2682495401777E-06	8.6372330844751E-07	0.96813729497216	-0.238419161708309
9.9	0.000676158065118672	0.00414419259941066	-2.68679077566162E-06	-5.80743771873582E-07	-8.4633375533752E-06	5.5183363683657E-06	0.967629105313619	-0.242214875017381
10	-0.000502418728421749	0.00389472834438529	4.18665430804954E-07	-1.7454463261074E-06	-3.10704525281605E-06	-7.91981568550457E-06	0.962732545377317	-0.243533533246445
10.1	-0.000325248435358065	0.00515605182929569	2.24488861020908E-06	4.74501159903227E-06	-3.06852838652677E-06	9.81243197540344E-06	0.963482693219856	-0.241290238690176
10.2	0.000179222567939731	0.0053722443621048	-5.37828860352265E-07	-1.04405498525598E-06	-1.21104580559234E-06	-3.10348367422728E-06	0.964615058819247	-0.242821563071962
10.3	0.000618992536185457	0.00558040744509172	1.126185991567E-05	-2.94411903358448E-06	1.00117544015415E-05	-4.84809554851679E-06	0.964428750220549	-0.245244678706299
10.4	0.00128993423588056	0.00525758518473504	-6.21194541997023E-07	2.13987166960786E-06	3.01330885352919E-06	-2.18217440281272E-06	0.9629648158532	-0.248118244196781
10.5	0.000624553925374713	0.00497617762821972	-6.08400577624438E-06	4.62414352580953E-06	1.5650321726759E-06	4.28793162325077E-06	0.961020986516923	-0.249345820937356
10.6	0.00107729136766877	0.00561864289412719	-7.07374808171576E-06	1.0660070242417E-05	7.00916586879609E-06	4.2504540266551E-06	0.960920891956921	-0.251795932593253
10.7	0.00130066478405677	0.00572274386200208	-3.20125732699584E-06	1.56580340768823E-06	-5.34487583703199E-06	3.16641410761862E-06	0.959188805317843	-0.254210856244488
10.8	0.00175497446891576	0.00620203126417678	-1.91439917942205E-06	4.97269842720836E-06	8.44092948730299E-07	-3.19075761279485E-06	0.958087412430844	-0.254893441604598
10.9	0.00257470527916079	0.00617846020549539	-5.72629895008678E-06	-1.04766509194982E-05	4.91140458955873E-06	1.0654803130878E-05	0.957833746904543	-0.25568376082534
11	0.00222270607222811	0.00612443786533443	2.95332360795412E-06	2.60787422103102E-06	7.93662949948361E-07	-1.11944058439586E-05	0.9574074294509	-0.256087535247356
11.1	0.0034162907869566	0.00702920203084856	3.84436892277904E-06	1.45342167458487E-06	2.56009519466381E-07	-7.3482401217175E-06	0.958294417949116	-0.256266610055946
11.2	0.00458141160821708	0.00658121896277514	-4.39828582331847E-06	-1.9656683669351E-06	-7.29280093182464E-06	-4.83525384714798E-06	0.959078108031172	-0.257657958724179
11.3	0.00541126896496738	0.00590594322606609	6.6769770884109E-07	-6.35331948863702E-06	3.73673213382203E-06	1.40905262716179E-05	0.960137694314497	-0.259496642608925
11.4	0.00602663109486825	0.00490790964415356	-5.11891641535815E-06	8.10788081670893E-06	-1.46287455908997E-06	4.0616863449726E-06	0.961350945043919	-0.262825215972184
11.5	0.00516813870502038	0.0042130631209583	4.51128254957392E-06	8.0766803109534E-06	-9.268319204187E-06	1.57470503872469E-06	0.959532552741794	-0.26851644982861
11.6	0.0058028598220833	0.00461351025438232	-3.82582973799768E-06	1.39471664838468E-06	5.05650722738863E-06	8.10299812089362E-06	0.957010051317802	-0.270551493121678
11.7	0.00646448355618563	0.00385704245571909	2.22791567923812E-06	1.0484635066201E-05	5.42167492122133E-07	-3.63257530846277E-06	0.957003961602215	-0.273769377476485
11.8	0.00687363668450611	0.00299932904081732	1.41770872578013E-06	4.44636232566659E-06	2.23554599287613E-06	4.52115171588888E-06	0.956933395535153	-0.278451112547483
11.9	0.00687758482145754	0.00153839872825483	7.41317468028814E-06	1.0532093281301E-05	3.86820665214535E-06	4.05257140834043E-07	0.955241502898793	-0.284000723737285
12	0.00520484454816805	0.000853897462280069	2.33950497718984E-06	-5.12613589355417E-06	-4.01690801907168E-07	1.74118847501223E-06	0.94865470400874	-0.286083061134042
