# GHZ S RI R 50
0.2	6.22132302574047E-05	0.001199827499087	4.81755299121725E-06	-2.98117478312422E-06	-1.3808106640478E-05	1.31235473812144E-05	1.00188819070679	-0.00549531177307501
0.3	0.000722069865072058	0.00105195369244594	2.8602000538942E-06	6.65783296180565E-06	-1.64693690244944E-06	-9.35937088538569E-06	1.002455269217	-0.00819911989403376
0.4	0.0011505796148823	0.00139532309703233	-1.86464030146179E-06	-4.03894463617603E-06	-9.06761076749626E-06	4.40941769541086E-06	1.00374703673054	-0.010686005442713
0.5	0.00293079149900124	0.000775876850603652	-5.38116694941889E-06	3.27965641353868E-06	-2.13335298101262E-06	6.78808606643003E-06	1.00474563041437	-0.0160795470327683
0.6	0.0019388133734598	-0.00110681266651291	-1.43145333259208E-07	2.81473940303811E-06	-5.83208990757977E-07	-1.35170210402897E-07	1.00265278689341	-0.0192179138867491
0.7	0.000927844416860829	-0.000861309810542444	8.42221481759711E-08	2.22914779447143E-06	4.93157897836777E-06	-3.4076916005315E-06	1.00250257760958	-0.0211029382188307
0.8	0.000464406231231566	-0.000565836545949643	4.55216477979938E-06	8.38946262072308E-07	2.75556173435658E-06	2.01674762304597E-06	1.00276274113017	-0.0228890736082504
0.9	-0.000289217924521826	0.000230411602035061	-1.45746201347687E-07	-4.24760498853925E-06	-3.43620901202385E-06	-3.13667529625387E-06	1.00306384161647	-0.0245222003180293
1	0.00120922782664612	0.00218440266919197	1.06866732060096E-06	4.32683702552792E-06	3.35414484925843E-06	9.41154711405663E-07	1.00549638751945	-0.0254645530419835
1.1	0.00244636990401362	-7.03126668479151E-05	9.1084876428465E-06	5.13261296431224E-07	-3.60434046158463E-06	-4.99380963738723E-07	1.00581603441558	-0.0302626000002905
1.2	0.00132119235690024	-0.00110394714975448	3.7862601658672E-06	-1.21236608540176E-06	-4.12849124176332E-06	-2.45061353474343E-06	1.00453242414528	-0.0318672215454064
1.3	0.000336189132641206	-0.0020879066044483	-7.69635884080865E-07	-1.43522300626609E-06	-2.62176829830909E-06	-8.7619043884575E-06	1.00419718126136	-0.0336110186874048
1.4	-0.000840813933056938	-0.00274726111543889	2.3473956344253E-08	3.46835189997849E-06	-4.31846088603313E-06	-4.14088507864499E-06	1.00277524894728	-0.0361562851423652
1.5	-0.000195680754787457	-0.00366825476134092	-1.29540989520606E-06	4.45738348477935E-06	6.57247425008959E-06	-7.46963707309504E-06	1.00407674670014	-0.0397890968585282
1.6	-0.00205512347401729	-0.00459036641347221	1.63867349925247E-06	-4.95702044363293E-07	4.2569079020187E-06	-5.43703427130784E-06	1.00260642173718	-0.0443382010287044
1.7	-0.00257057306526186	-0.00345149168388024	5.45287906051835E-07	3.98276529887334E-06	-8.33259370167094E-06	3.17225960292772E-06	1.00279526082893	-0.0463660140642989
1.8	-0.00253258934863484	-0.00262130222019337	1.84801353302565E-06	1.08052390478594E-06	5.6427326766889E-07	-1.77552411097394E-06	1.00277087538002	-0.0486865369014837
1.9	-0.00221515344187779	-0.00150257688207539	3.26442048880396E-06	3.03284003513945E-06	-1.88697375322806E-07	-2.34626185829535E-06	1.00311941892948	-0.0488405979198891
2	0.00011968716482904	-0.00163289951924117	-1.7433137435385E-07	2.02916575396018E-07	-1.22885615921744E-05	5.49721928306317E-06	1.00915416517266	-0.0515996544480533
2.1	-0.000760797306819047	-0.00390935903517558	6.66496186890817E-07	-1.40165641078587E-06	1.39907226527989E-05	4.93045766508789E-06	1.0079913224416	-0.0606357567268181
2.2	-0.00208618603785446	-0.00385764568115973	1.64829401237895E-06	-1.54282682468563E-06	2.66515324379488E-06	-6.28712037591951E-06	1.0052093730655	-0.0638089033798848
2.3	-0.00308649322956835	-0.00356134803458189	-1.72848766525609E-06	-3.44328671790606E-06	-1.8415963414277E-06	-4.61733060427919E-06	1.00367441544363	-0.06560503630243
2.4	-0.00416736508711698	-0.00253322148093551	-1.25097781275928E-06	-4.42845335857859E-06	3.08164239282692E-06	1.07008318511793E-06	1.00291972669192	-0.06841205163651
2.5	-0.00289841654444927	-0.000944341588731061	5.48003935741946E-06	5.65635856745859E-06	-2.46332396795206E-06	1.62939713738653E-05	1.00306459671368	-0.0706124399314823
2.6	-0.00253966739479681	-0.00252178224298662	-2.26556443008277E-06	2.74933229708418E-06	3.96680170662166E-07	-4.34181106040744E-06	1.00278964793674	-0.0743126183096662
2.7	-0.00334075707109467	-0.00275514055031584	-2.4560162695669E-06	-3.63872456374127E-06	2.14540670469526E-06	-2.60748036126451E-06	1.00245196635647	-0.0779255300208059
2.8	-0.00404462790519071	-0.00258112952070628	4.05308741932682E-06	2.28718511442748E-06	9.89232243855382E-06	-7.92001010092382E-07	1.0022211359378	-0.0810931585405384
2.9	-0.00435424761143528	-0.00161321387530427	1.29717139953937E-05	5.65034481198303E-07	2.31979066775577E-06	-1.18198388617232E-05	1.00102229680915	-0.083881551659974
3	-0.00270190689844125	-0.00149841022472784	-3.85767910275045E-06	1.09867309828932E-06	-4.18344400888296E-06	-1.55458852284792E-06	1.00036153809778	-0.0868610865647168
3.1	-0.00353484136996015	-0.0029397408105685	4.68527686045783E-06	-9.9430563891926E-06	1.07585612662299E-05	2.29561069089911E-06	0.999242206572339	-0.0899888142122561
3.2	-0.00433775104175269	-0.00259267035561781	-5.48711477259237E-06	-7.37017565800286E-06	1.57691121172816E-05	5.20802719709074E-06	0.997720255532097	-0.0924916197670302
3.3	-0.00483408396631542	-0.00225264870163553	-8.78298179822942E-06	2.67491617425207E-06	-8.6150242002244E-06	-1.62650401524978E-06	0.99580138209329	-0.0964122698754738
3.4	-0.00529411111176518	-0.00133003244168204	8.95273194222988E-06	-7.70169290721728E-06	-7.28669440691179E-06	4.34719622207223E-06	0.99306090433754	-0.0982107276540591
3.5	-0.00376876536555303	-0.00107613905646719	2.51669029076097E-07	-5.31402362780034E-06	-4.50042763973779E-06	-8.8553708305723E-06	0.992266782828302	-0.0979200187050495
3.6	-0.00487968157656981	-0.00269763242442049	4.12682116086646E-06	4.85084967476916E-06	-7.000778940357E-06	9.07087824246047E-06	0.993083064987087	-0.101648873385403
3.7	-0.00632357970947243	-0.00197491057509765	1.46948568523473E-06	-4.54135389958056E-06	-5.18077178340402E-06	-6.5153910678496E-06	0.991094284753103	-0.104922728880869
3.8	-0.00699803410014567	-0.00075640435648549	7.19651701877707E-06	-5.27535807916211E-06	-5.89630776060947E-06	-2.33866400187113E-06	0.988870680261563	-0.105936222663623
3.9	-0.00684635464840609	0.00109078191467871	-4.02052183427611E-06	-3.04917848343254E-07	-2.51010150062566E-06	1.15704093601141E-06	0.988192766723375	-0.105732143348922
4	-0.00410187656610386	0.00169582786560471	-3.38549451521175E-06	-4.62857756191912E-08	1.29644412080803E-06	8.65816524597262E-06	0.993990332226358	-0.106534124892241
4.1	-0.0041590548337624	-0.00038788510808108	-2.95219497518894E-06	-3.81473625857078E-06	5.91556530913101E-06	2.95011859758509E-06	0.992230452174719	-0.114119759571988
4.2	-0.00499126193908962	-0.000498494465492068	-8.0145345827695E-07	-2.13885360876962E-06	5.65462106878457E-06	-1.9188802374449E-06	0.988802043223852	-0.116762583172166
4.3	-0.00549662589214139	-0.000211620481704611	-4.63668941500329E-07	3.22854987042285E-06	2.14543814967179E-06	1.7428907241952E-06	0.987348768081971	-0.118204884839856
4.4	-0.00591690167166904	0.000758218667814275	2.614857177596E-06	3.38961762992525E-06	7.20721451452641E-06	3.79085701667117E-06	0.986498203973916	-0.120110951467106
4.5	-0.00393565707474616	0.00135765145036481	-6.43041009214987E-06	-1.19416601105822E-07	-8.55533057804638E-06	-1.9536969954301E-06	0.98583080817537	-0.123797248595862
4.6	-0.00453667046835079	-0.00084198007079445	-9.97097496886771E-06	-8.98639683698315E-06	3.16267502112815E-06	-2.74779368167363E-06	0.982200495421078	-0.126262319383514
4.7	-0.00590150639961904	-0.000750369439242403	1.47873058126937E-07	1.84336794339269E-06	5.9115242415226E-06	-6.73628285764247E-06	0.980852311239849	-0.126876011101335
4.8	-0.00682455313798545	-0.00017141441345384	-6.29989098272464E-06	2.13084846965172E-06	6.27226642414101E-07	-1.26169796702129E-05	0.979566475177343	-0.128490520810761
4.9	-0.00736392753350774	0.00118890940536198	-3.29043715471905E-06	8.08968265411518E-06	6.6789541456811E-07	9.26215711408102E-06	0.977899217397376	-0.129466462783991
5	-0.00540407451768887	0.00169668875841545	9.45933610664661E-06	-4.11120749076837E-06	-6.79646888664028E-06	3.60386144799593E-06	0.976703746347866	-0.129778756756265
5.1	-0.00646316091996781	0.000314851929840462	-3.88749925153768E-07	-3.20249983290648E-06	-3.83404553158958E-06	-1.73434133659654E-06	0.975751968881517	-0.130084381055836
5.2	-0.00721015917228295	0.00138452968776683	-1.08817806769025E-06	-4.41568945658993E-06	8.7082918172842E-06	5.42928226990864E-06	0.97477670538949	-0.130931684695626
5.3	-0.00698000383275327	0.00243403015839333	2.30836033258106E-06	6.67643479070818E-06	8.69269057337391E-06	3.01721893455856E-06	0.974002031757087	-0.132164682096935
5.4	-0.00624005696532244	0.00374373712045118	2.63520468265549E-06	-3.11306398099873E-06	-2.62938105796915E-06	1.73804440864278E-07	0.972514673569102	-0.133684782738518
5.5	-0.00309293022459467	0.00310820403558138	2.10859552865446E-06	9.12646812036278E-06	-3.86800450090981E-06	-4.91781681114721E-06	0.972892126669957	-0.132777767728627
5.6	-0.00494132197133858	0.00041221365525415	-5.75946100197489E-06	-1.10367119100534E-06	4.79439507377269E-06	1.90224372752037E-06	0.974034709070765	-0.136036391265362
5.7	-0.0069193866548671	0.00131428206896119	3.28005621101728E-06	-1.40563280614816E-06	-4.97329326869205E-06	-4.21397025614827E-06	0.972287557025221	-0.137944370171306
5.8	-0.00792030038696169	0.00275346260061972	-2.02317883553793E-06	-4.66677573179538E-06	9.30485185050865E-07	-5.73103788283669E-07	0.970953412433612	-0.137840430289956
5.9	-0.00856655242147023	0.00542975327980535	-3.82059542268465E-06	6.01460497857438E-07	3.79993314996521E-06	1.23831225890779E-06	0.971390958766681	-0.134984114052739
6	-0.00496949012885828	0.00829065060992297	-5.88282001086655E-06	4.99316756972113E-06	-1.47052785525946E-06	1.93236296758806E-07	0.980321525387447	-0.135856381364205
6.1	-0.00320787974712622	0.00582199132090631	-5.87272323547182E-06	-4.61864740743307E-06	-3.95601118175464E-06	4.41675247083733E-07	0.979159724584383	-0.143999063662227
6.2	-0.00335891724062711	0.00490141405276238	2.78708301193153E-06	3.07269316091972E-06	1.0391876764971E-06	7.09588405737572E-07	0.976673845286193	-0.145407817334464
6.3	-0.00377340414128842	0.00416321328149665	1.61580535952886E-06	-7.38029999210768E-07	-1.30254681836854E-07	1.35475332035649E-06	0.975496250794384	-0.146630407900419
6.4	-0.00432762932303314	0.00470255457424279	-5.10946131441701E-06	-5.54355747949461E-06	3.75962507051393E-06	6.81387684858862E-06	0.975793964636004	-0.147447966173826
6.5	-0.00229909466821969	0.0035940459248804	8.92683419471331E-06	-2.69196391311935E-07	-7.21314867245081E-06	-8.64117750371978E-07	0.975647016950065	-0.154239562810488
6.6	-0.00492449705905177	0.00198533397127698	-1.45935632129633E-06	4.54682788624692E-07	3.32132711102391E-06	-9.18755767942329E-06	0.968849709130814	-0.154109618519283
6.7	-0.0059580480957013	0.00331199756254671	3.62635069526352E-09	7.60152168720804E-06	-4.50628653041207E-07	-5.97076406632687E-06	0.968425877757335	-0.151792078589239
6.8	-0.00632610787729061	0.0042553187777854	4.15734824800743E-06	1.65964726262624E-06	2.51184926968935E-07	-5.13833421500609E-06	0.968803735627533	-0.151474438717331
6.9	-0.00640490649422692	0.00632498618519508	-7.4474176443995E-07	2.36800786697101E-07	5.68514559180373E-06	-2.58252093739908E-06	0.969308288959911	-0.150613402262512
7	-0.00237748601456374	0.00658674329855197	7.93416827366663E-06	-4.59876387457334E-06	4.57187480564579E-07	-2.96546931053143E-06	0.973151682966409	-0.151592255814683
7.1	-0.00409914577307094	0.00324881548035674	3.76148050032466E-06	2.05278476772423E-06	6.81058006802485E-07	7.12141187274136E-06	0.971732714001103	-0.155924566341313
7.2	-0.00613556063438147	0.00407175115844573	-2.45359574941047E-06	3.60586926299858E-06	-1.26724968135156E-06	-3.78360617346729E-06	0.969556262827664	-0.156872293276142
7.3	-0.00739116246812917	0.00528115722545409	3.3917592598658E-06	-4.45893761963782E-07	-2.38925205104561E-06	-1.91639792022932E-06	0.96688670834011	-0.157757703041757
7.4	-0.00876633667302108	0.0078954499843263	-6.04199358529196E-06	-2.72507199471285E-06	3.69807249351566E-06	2.88438069107295E-07	0.961631616191397	-0.156511563851919
7.5	-0.00546787276027219	0.0109903468985007	6.75095963455728E-06	-6.1749472543322E-06	-2.44581977582137E-06	7.35045289142391E-07	0.964291595076283	-0.148021099674204
7.6	-0.0048586697404213	0.00879983867768112	3.32325560549849E-06	5.20753268330374E-06	-1.02078691656657E-05	4.63726524191463E-06	0.970672872422787	-0.153013277964122
7.7	-0.00548904037862325	0.00929478262734962	5.71695413120812E-06	1.09299447206984E-05	5.72028969119916E-07	-1.12079572672575E-05	0.970788144196332	-0.156445500652121
7.8	-0.00520270374139349	0.00998807280546633	2.10792626097591E-06	1.02104267431129E-06	-3.26881526246188E-06	8.64478658329746E-06	0.971554915772768	-0.157793704574919
7.9	-0.00388316366290678	0.0111284648141753	2.58716811886976E-06	-2.22307571466871E-06	3.64108913859376E-06	4.35796498265393E-07	0.975000918715445	-0.156481466981674
8	-4.58492475877294E-05	0.00925858039618757	-2.84633942628226E-06	1.24994385057264E-06	6.92045182280088E-06	-1.66619832995065E-06	0.986996766052516	-0.161387097494587
8.1	-0.00207951528574597	0.00612081470262025	-1.80909549812599E-06	7.17846087078037E-07	-3.68487663011791E-06	-1.33425034696315E-06	0.985434237475495	-0.173745800860654
8.2	-0.00327449328403675	0.00671235532326857	-9.23213455209393E-07	6.31850488352106E-06	4.78802064025278E-06	4.45364552572132E-06	0.982780917464309	-0.176377701770375
8.3	-0.00370029356933878	0.00733270650087585	-5.67334117737088E-07	-1.42459219964725E-05	6.72260979192238E-06	5.57112447759131E-06	0.982569835496494	-0.178658986016193
8.4	-0.00383673421244129	0.00916481277023655	3.8371353056855E-06	-3.36824944007937E-06	-6.97039033226537E-06	-1.35519094487001E-06	0.983436206648004	-0.181264158134864
8.5	0.000292033660039654	0.00945848758763923	4.66947506023675E-06	6.61730781450054E-07	8.5326431712854E-06	-6.70502872148437E-06	0.984088341354078	-0.186422701388398
8.6	-0.000996109335183077	0.00576775788440501	-3.35063920378473E-06	4.05265616209446E-06	7.89172362235522E-07	1.1118111599791E-05	0.982062064364088	-0.189133978609998
8.7	-0.0029694774877061	0.00623417538424681	2.73383768978152E-06	-1.94911092313146E-06	4.91749932402291E-07	-5.45473011962278E-07	0.98243354977839	-0.19088278052668
8.8	-0.00392164049312187	0.00738765728060569	1.48740083503762E-07	-1.25799636773395E-06	-1.18040382442403E-06	9.80587829855732E-06	0.983141391471117	-0.192946714051456
8.9	-0.00429894842955577	0.00974565780926786	-3.73854639602539E-06	2.24342280564063E-06	4.90900422809186E-06	-1.72756375380047E-06	0.984264835831225	-0.194936201678117
9	-0.000293257676724842	0.0112518584479301	-1.91185397283031E-06	4.68232286144071E-07	-3.04919418529002E-06	-1.06647555787365E-05	0.98571763413756	-0.196990117982821
9.1	7.54493676780429E-05	0.0087415745867879	5.28663602217575E-06	6.96158444919928E-07	9.13632403731666E-07	4.02812750996049E-07	0.987620342805751	-0.200024656896871
9.2	0.000284632844399437	0.00865704649562218	-8.73946176895635E-06	-4.78211986381927E-06	-7.83119237485702E-07	-6.21154129703686E-06	0.988715447395843	-0.20432582417068
9.3	0.000858454149505002	0.0080900493474637	9.32618546219203E-08	6.29126932810098E-06	4.72738633669764E-06	-2.14710712515932E-06	0.988561210666804	-0.209065733464567
9.4	0.00115687224019427	0.00832294429607072	-2.03080930994916E-06	5.91621548976667E-06	-1.071835171412E-05	7.67091299531958E-06	0.986002245457493	-0.212453391454027
9.5	0.00387899839042444	0.00625323301555424	3.35566654001422E-06	-7.56941496491465E-06	3.76539231388843E-06	-2.69461126480598E-06	0.987361277815135	-0.21221332408999
9.6	0.000659776222044236	0.00333777772118014	4.45298834731823E-06	5.74591022367829E-06	-7.90371435367764E-07	7.16042044249303E-06	0.989268732302428	-0.218693560135858
9.7	-0.00158738455116212	0.00431752727740596	-2.57798757717525E-06	-4.04979015840756E-06	3.88714914196253E-06	-7.58191716776656E-06	0.987827207991532	-0.222767101881003
9.8	-0.00293944446769354	0.00567369609560281	-4.61880026587085E-07	-4.29721927792244E-06	6.37016600720507E-06	1.0122239761576E-06	0.986845756265309	-0.224398958117521
9.9	-0.00375692843315711	0.0084208847786762	-2.7303131770341E-06	-6.57854384894345E-07	-8.77731901251223E-06	5.43269549004499E-06	0.988157623196595	-0.222177541863381
10	-9.72898462312262E-06	0.0099155836085156	4.68687291574927E-07	-1.79441630977668E-06	-3.04544477283972E-06	-8.24583168249702E-06	0.999264196436324	-0.227909022948717
10.1	-0.000644679918797232	0.00775461672058054	2.26206241490463E-06	4.91321394832734E-06	-3.26714736577014E-06	1.00774039105062E-05	0.993983092064404	-0.238817508901584
10.2	-0.00142276362668645	0.00867995195813889	-5.42351891581662E-07	-1.07816720215982E-06	-1.21379705690051E-06	-3.20105402700315E-06	0.990296680992807	-0.239858307184647
10.3	-0.00147727489089936	0.00978265177672139	1.16057434332305E-05	-2.91439923168259E-06	1.03396444400674E-05	-4.88399419091997E-06	0.989478663823071	-0.241000702952998
10.4	-0.000941597830732897	0.011999896651534	-6.5820689565671E-07	2.20145168951112E-06	3.12523627274454E-06	-2.22534399842149E-06	0.990475140267827	-0.242938149889724
10.5	0.00354009631651722	0.0121737387372808	-6.26392555080733E-06	4.75587363548003E-06	1.60845082916025E-06	4.41385128368421E-06	0.990793197052245	-0.250038443201596
10.6	0.00358681166484863	0.00969782758765437	-7.28789376687162E-06	1.09033287108394E-05	7.17048800960652E-06	4.38120264127036E-06	0.987794372008599	-0.25247131073445
10.7	0.00372782650925756	0.00922317530322017	-3.29593175500427E-06	1.59549772830963E-06	-5.50525803135911E-06	3.23118988328784E-06	0.988636651613651	-0.256135868166929
10.8	0.00346144080566243	0.00858801976173772	-1.98154213646093E-06	5.11646295815316E-06	8.75759766276772E-07	-3.28379880915455E-06	0.988079187246999	-0.261207715530907
10.9	0.00312294535991099	0.00962456497529288	-5.92461813332334E-06	-1.07898512183891E-05	5.08482955583616E-06	1.09751483415978E-05	0.986921223697692	-0.26530902065564
11	0.00676572989950441	0.00913194688198051	3.04747165398392E-06	2.66237213165412E-06	7.54153812795815E-07	-1.1501735387914E-05	0.986358240654968	-0.269485986784995
11.1	0.00501281021240528	0.00602285634464045	3.95433779368888E-06	1.4750243979149E-06	2.29490677346696E-07	-7.54697342055839E-06	0.98317366309811	-0.274510935833244
11.2	0.00361824956185931	0.00642864267041241	-4.53323181110382E-06	-1.98951797641178E-06	-7.5274442351261E-06	-4.91828565654447E-06	0.979626387142422	-0.277896797405454
11.3	0.00302994957664042	0.00728724783358645	6.19911233733853E-07	-6.52762559799364E-06	3.98021719695164E-06	1.44234113294082E-05	0.975089600584335	-0.280395558250118
11.4	0.00290986965027429	0.00907656991347794	-5.11922771269457E-06	8.35090697839222E-06	-1.43940525985541E-06	4.16855807934157E-06	0.969015253474642	-0.2812889237211
11.5	0.00674481166371922	0.00863036309844633	4.64477818176422E-06	8.19938708053802E-06	-9.43121171837573E-06	1.6608360867481E-06	0.971915271441355	-0.278131377826575
11.6	0.00500596890905756	0.00545260974575933	-3.91243877244885E-06	1.46030374473524E-06	5.24903105519938E-06	8.26993377883453E-06	0.972737314712912	-0.28725276620346
11.7	0.0033939905837118	0.00604088318279536	2.41083233372152E-06	1.07200835365609E-05	5.11688492962333E-07	-3.7300856554495E-06	0.968225248367263	-0.292263201870597
11.8	0.00277658563532214	0.00733284841463962	1.50948731072508E-06	4.52749569890326E-06	2.34676275414212E-06	4.59296638013766E-06	0.964522740082234	-0.293964654198828
11.9	0.00371639870335109	0.0101241618492	7.68244900635741E-06	1.06903004439745E-05	3.95767524070643E-06	3.75419968122918E-07	0.965771340403176	-0.290306782629507
12	0.00944073313609969	0.00920235443785229	2.35206138025718E-06	-5.31975608819984E-06	-3.9330811276781E-07	1.80214552394329E-06	0.978540810884781	-0.298331465258181
