# GHZ S RI R 50
0.2	0.000704533973095744	0.00240386404690824	4.79644988481682E-06	-2.98518784006048E-06	-1.37358875733635E-05	1.31222526914197E-05	0.999678874755354	-0.00687115699903573
0.3	0.00115727199420435	0.00169529536778339	2.86531776876549E-06	6.63052877868233E-06	-1.66168796191395E-06	-9.32605861245189E-06	0.999646484976915	-0.00969506860117778
0.4	0.00146900955749752	0.00132543592254904	-1.86326128568794E-06	-4.01915879935014E-06	-9.02283737197575E-06	4.40539136659499E-06	0.999840827932325	-0.0123118461735003
0.5	0.00176272713209318	0.00084787307899265	-5.36132458154956E-06	3.2656559566658E-06	-2.12690468759811E-06	6.76143544721956E-06	0.999751485539964	-0.0157028544636081
0.6	0.00168555593426573	0.00043043966279071	-1.4025761544949E-07	2.80715617923009E-06	-5.81731308578198E-07	-1.34282865146127E-07	0.999695510575959	-0.0186021539384093
0.7	0.00161816767548635	0.000279213021575925	8.74023788896004E-08	2.22068380781933E-06	4.90780326110789E-06	-3.40268670331508E-06	0.999450328095459	-0.0215964829771543
0.8	0.00163709360299462	0.000121264500759104	4.53215177175676E-06	8.27792778684839E-07	2.7458404573262E-06	2.00292130680967E-06	0.999192158452045	-0.0238615299520668
0.9	0.00156171756240586	2.04591839430467E-05	-1.51138998660713E-07	-4.22271375620706E-06	-3.42085343743878E-06	-3.11340465088804E-06	0.99897192272642	-0.0262395245789924
1	0.00170557444209934	-5.02793541039277E-05	1.06155819446597E-06	4.29638790990104E-06	3.33069939941073E-06	9.34251822169568E-07	0.998830437963858	-0.0276851244323691
1.1	0.00155516688265955	-0.000531457200123162	9.05098556749401E-06	5.17388142743274E-07	-3.58134730858826E-06	-4.99157064069096E-07	0.998630175508141	-0.0297505067922602
1.2	0.00115214423366827	-0.00103928885438687	3.76375978388355E-06	-1.20127544450086E-06	-4.10044524344571E-06	-2.43916314816401E-06	0.998142503502927	-0.0306776279415185
1.3	0.000508249809350573	-0.00182943933629292	-7.62706768195506E-07	-1.42786686142048E-06	-2.59190969605428E-06	-8.71364181746697E-06	0.998490686416763	-0.0315711536616826
1.4	-0.000294210299030491	-0.00263209073165175	1.56142698988319E-08	3.45051334355353E-06	-4.28694564653499E-06	-4.12916036025974E-06	0.998346095716286	-0.0337354130150737
1.5	-0.000698008827088935	-0.00311438709687137	-1.29793945802984E-06	4.43383231767361E-06	6.555937328055E-06	-7.4216344160482E-06	0.9990738271418	-0.0372651662323227
1.6	-0.00110210953535688	-0.00318671407902846	1.63103725643994E-06	-4.89904428497987E-07	4.24516138626501E-06	-5.40019004461109E-06	0.998523997368255	-0.0410628761473361
1.7	-0.00117529428132803	-0.00304882758961226	5.33097322943743E-07	3.96127991220417E-06	-8.2922734578042E-06	3.13516219779159E-06	0.998627354375185	-0.0437474021081561
1.8	-0.00122095342760364	-0.0029008876606791	1.83462158963554E-06	1.07885328294543E-06	5.65413920170441E-07	-1.763834516514E-06	0.998396530861951	-0.0465079179089104
1.9	-0.00126479443692482	-0.00281702839359988	3.24015927025913E-06	3.02011372439909E-06	-1.83792031689931E-07	-2.33264612744788E-06	0.998174901113802	-0.0485120014873743
2	-0.00122805435021698	-0.00290117854922008	-1.72957983743814E-07	2.00762807624985E-07	-1.21798422200859E-05	5.42863968992454E-06	0.998368773249517	-0.051230120247066
2.1	-0.00154594021192169	-0.00309535362086603	6.67618149999179E-07	-1.38475353746883E-06	1.38311843133105E-05	4.95806062743145E-06	0.998004006123809	-0.054145696804307
2.2	-0.00187553292682278	-0.00307824553448761	1.64446238732636E-06	-1.52022437247969E-06	2.6822789030669E-06	-6.21992920004599E-06	0.997746828340091	-0.0566555096611165
2.3	-0.00226669096113657	-0.00310037979084854	-1.69319464946592E-06	-3.42824129544465E-06	-1.7978889428174E-06	-4.59409062849191E-06	0.99729118249463	-0.0585338569985545
2.4	-0.00273708328220069	-0.00305596026934339	-1.20999895536404E-06	-4.40366675404688E-06	3.05060523574551E-06	1.08384231387428E-06	0.997138676046428	-0.0615755682738536
2.5	-0.00311430804168119	-0.00295269424061542	5.39568135371095E-06	5.66652016967629E-06	-2.58722502400574E-06	1.61664669215112E-05	0.99686531265656	-0.0637209543294082
2.6	-0.00366317092281748	-0.00289638525293685	-2.27493356474239E-06	2.7171876787699E-06	4.28307248939623E-07	-4.31575774341833E-06	0.99697610353238	-0.0666862050872433
2.7	-0.00406991370118292	-0.00253428842380442	-2.41408631134236E-06	-3.6364701499306E-06	2.15292294552917E-06	-2.57606958488995E-06	0.996612385884278	-0.0698124683595718
2.8	-0.00425127678202964	-0.00211459638188113	4.00926707750484E-06	2.30724018279871E-06	9.83879027952804E-06	-7.04281482350789E-07	0.996688296493448	-0.0719625319847764
2.9	-0.00415660054961621	-0.00173196386954196	1.28908136967944E-05	6.86855631929184E-07	2.42029573789117E-06	-1.17287144939069E-05	0.996301954374133	-0.0740875249121738
3	-0.00387820687456878	-0.00162198989156812	-3.85309752447474E-06	1.05465814301626E-06	-4.15035388333454E-06	-1.59104992811001E-06	0.996134066015492	-0.0766103560409095
3.1	-0.00383121857530156	-0.00163792216567969	4.76246730442079E-06	-9.85531220710855E-06	1.06906815297957E-05	2.39085977311683E-06	0.995806812308675	-0.0787861238229053
3.2	-0.00379978747557787	-0.00163566998002854	-5.38561446247726E-06	-7.39958163250535E-06	1.5649468684563E-05	5.35690012615363E-06	0.995417850406984	-0.0807529506738519
3.3	-0.00385534248817132	-0.00172125134594367	-8.78724905793761E-06	2.56234427214045E-06	-8.56878244221879E-06	-1.72363020418627E-06	0.994954367103934	-0.0841268062879895
3.4	-0.00407133328571751	-0.00176908613550412	9.04220923752251E-06	-7.57701596230545E-06	-7.33465092870807E-06	4.24791324938809E-06	0.994539922132262	-0.086025176198544
3.5	-0.00426869933808034	-0.00188125406502297	3.09603782452363E-07	-5.31887771865887E-06	-4.41090274718687E-06	-8.91676434444721E-06	0.99438936913188	-0.0884484158737002
3.6	-0.00478073577971189	-0.00187625237572139	4.07739181635292E-06	4.8914544540825E-06	-7.09066303799752E-06	8.99900248309181E-06	0.994188442617412	-0.0912309251107473
3.7	-0.00516818694314599	-0.00157765986248375	1.52004263877947E-06	-4.52592283498748E-06	-5.10958714838102E-06	-6.57396157933726E-06	0.993685395807246	-0.0939951568100861
3.8	-0.00540223214699224	-0.00123287174480734	7.2652593055614E-06	-5.20149007573543E-06	-5.87781913792756E-06	-2.40797245851337E-06	0.992970671398523	-0.0958432102645762
3.9	-0.00545570965508328	-0.000856596195550224	-4.02615688718659E-06	-3.45470580396297E-07	-2.52699000537552E-06	1.13462546756805E-06	0.992707394916969	-0.098410557019728
4	-0.00533013904706562	-0.00069297215179497	-3.38269603865216E-06	-7.85762327458503E-08	1.21287871447163E-06	8.66451616162453E-06	0.993065194096279	-0.0995180552986218
4.1	-0.0054569996455186	-0.000589959468598216	-2.90426859152577E-06	-3.85464608680062E-06	5.88018096204337E-06	3.02791922842515E-06	0.992964354713666	-0.101686106588913
4.2	-0.00549911571791831	-0.000382542670813588	-7.75837767235329E-07	-2.1545197455982E-06	5.69345727246027E-06	-1.85066098436626E-06	0.992398717950266	-0.104340903203159
4.3	-0.00550474085841246	-0.00024847938080038	-5.05909323074831E-07	3.2334275265213E-06	2.13059211796089E-06	1.77572558681523E-06	0.992253169903069	-0.106364339144582
4.4	-0.00564174351329176	-0.000147358818875462	2.57980530966685E-06	3.43554996225477E-06	7.18297833748027E-06	3.89805940162642E-06	0.991929568055825	-0.108724200293744
4.5	-0.00573923752636918	-6.0114264545839E-05	-6.46601905388256E-06	-2.18478312158001E-07	-8.57525097621149E-06	-2.09594235268553E-06	0.991879676903184	-0.110975964387774
4.6	-0.00624621495244259	1.88114477349812E-05	-9.94572311454096E-06	-9.19983844687854E-06	3.22784125237754E-06	-2.73186507703655E-06	0.991535602178236	-0.113894516802129
4.7	-0.00659941686633991	0.000452693977402691	1.28451197416001E-07	1.86280816037268E-06	6.04468688619739E-06	-6.73435748646087E-06	0.991386814026362	-0.116045586696632
4.8	-0.00680993859924225	0.000956859616782361	-6.3841456080491E-06	2.0855724582987E-06	7.65967336154137E-07	-1.27342841093254E-05	0.990867258419094	-0.118648738130063
4.9	-0.00678562101841408	0.00149572635280112	-3.4098396171898E-06	8.13799604320753E-06	5.76762465333402E-07	9.36439867721912E-06	0.990170829902484	-0.120487501156688
5	-0.00645834784536491	0.00180202346166124	9.62272749156948E-06	-4.0688849567114E-06	-6.92041487583825E-06	3.58183331093557E-06	0.989834663862181	-0.121828561980548
5.1	-0.00624956446857148	0.00200544534376153	-3.6980054983493E-07	-3.24658701711741E-06	-3.8703771782135E-06	-1.78531367928241E-06	0.989796572812314	-0.123148052736358
5.2	-0.00585751889677173	0.00218058518236059	-1.07044911061107E-06	-4.47835871172187E-06	8.77823225403075E-06	5.55853629982402E-06	0.989440000289073	-0.125282342856078
5.3	-0.00550292629974306	0.00215309352184333	2.28942189686963E-06	6.77844524307954E-06	8.78182884957893E-06	3.11879666467434E-06	0.989066756490569	-0.127456697129565
5.4	-0.00531318672919857	0.00209414242166611	2.69795306688443E-06	-3.13771398807934E-06	-2.66900799559434E-06	1.55725775888521E-07	0.98884214717459	-0.129981918132515
5.5	-0.00525328111265503	0.00196319975957944	2.10597231009744E-06	9.29808880528368E-06	-3.91518596732944E-06	-5.02230765344797E-06	0.988879920838812	-0.132311127556817
5.6	-0.0056361386961575	0.00206741649263802	-5.84590711160503E-06	-1.1312234587252E-06	4.86454642054923E-06	1.94028791418086E-06	0.988882310673498	-0.135032276547766
5.7	-0.00587449067706208	0.00252102062897424	3.33151827326456E-06	-1.42113801449318E-06	-5.04061898958107E-06	-4.28542723132076E-06	0.988425671183773	-0.137595280442497
5.8	-0.00596280395828188	0.00301287434877727	-2.05138064942817E-06	-4.73903542736376E-06	9.44988344247314E-07	-5.81313137407132E-07	0.988006567645884	-0.13960195102503
5.9	-0.00597868691011633	0.00362947261602196	-3.87379465724442E-06	6.18399568672863E-07	3.85686180985274E-06	1.24766950912192E-06	0.987642823376488	-0.141246867643993
6	-0.00570340547313946	0.00410070223104083	-5.92825095496595E-06	5.04377810169211E-06	-1.48314020846946E-06	1.96674700421424E-07	0.988071075664474	-0.142544702837645
6.1	-0.00566699563412548	0.00430138865663104	-5.92294860899884E-06	-4.687220271758E-06	-4.00071133639296E-06	4.34414991796467E-07	0.988207113119788	-0.144175026646459
6.2	-0.00555659143304923	0.00450576248252696	2.81719739148995E-06	3.11940072527249E-06	1.05137003821726E-06	7.21240043521034E-07	0.988180327373663	-0.145725149360083
6.3	-0.00540877598111391	0.00450623363568198	1.63850013510062E-06	-7.47182079211579E-07	-1.32889295843855E-07	1.3733158904936E-06	0.98791422507681	-0.147950991660313
6.4	-0.00543226440465476	0.00445026069994518	-5.17524235725306E-06	-5.61170686871141E-06	3.80881956533739E-06	6.89837256211434E-06	0.987436377107163	-0.150168794476052
6.5	-0.00539845928736013	0.00430204802184132	9.05180583650748E-06	-2.46741342379756E-07	-7.3109549378403E-06	-8.97308790500439E-07	0.987128589939924	-0.153220345289637
6.6	-0.00563029347688924	0.00448692939198847	-1.48589923431438E-06	4.64045943570328E-07	3.37616818918602E-06	-9.35888482319026E-06	0.986389592320631	-0.155704274521617
6.7	-0.00549889796298817	0.00484421448914008	3.62240947500491E-08	7.73785926660919E-06	-4.84265295343868E-07	-6.07593669529814E-06	0.985973397013239	-0.157844018337564
6.8	-0.00535337998982113	0.00511193470141188	4.23836621088527E-06	1.661506484581E-06	2.22947978078932E-07	-5.22708477534572E-06	0.98546299409549	-0.160043402763546
6.9	-0.00523135297460191	0.0054596840458354	-7.54866432709568E-07	2.46271499537054E-07	5.75652743305591E-06	-2.6672298604981E-06	0.984945759576866	-0.161927991776573
7	-0.0049421016415853	0.00565565256911211	8.01881434842382E-06	-4.73714523838234E-06	4.39309186700097E-07	-3.01544299394727E-06	0.984571614229373	-0.163561098458913
7.1	-0.00514195840043953	0.00592743987486905	3.83725558241911E-06	2.04781301180543E-06	7.58829009809168E-07	7.2215299992331E-06	0.984041890652343	-0.165395317484033
7.2	-0.00505799167363732	0.00649897642860628	-2.45307952917666E-06	3.68250318554023E-06	-1.32334377668297E-06	-3.82566709069187E-06	0.983302839601591	-0.167171157665257
7.3	-0.00490658021726263	0.00694167114640276	3.437087197992E-06	-4.86389343664282E-07	-2.44350853979092E-06	-1.92061544979845E-06	0.982029503764979	-0.168982195845814
7.4	-0.00486008814570873	0.00731877055648378	-6.17574413712944E-06	-2.70854905077329E-06	3.76535650200149E-06	2.54363543988628E-07	0.980478658645447	-0.170955614139571
7.5	-0.00465675643990876	0.0075613192079248	6.76448696156556E-06	-6.40918493228031E-06	-2.47759854023622E-06	7.92313317479896E-07	0.979700743605692	-0.172266323259922
7.6	-0.00480486294105382	0.0076530333667163	3.46538957589807E-06	5.21034667092273E-06	-1.02493303894452E-05	4.89192479343064E-06	0.97959359652348	-0.175288552521978
7.7	-0.00487832531169941	0.00798214600240171	5.98880188225686E-06	1.09492553909031E-05	3.67918143931862E-07	-1.13487475657522E-05	0.979196092671323	-0.178264334329137
7.8	-0.0046445994426934	0.00812354351402441	2.15150694202567E-06	9.90114735783817E-07	-3.1318826867514E-06	8.80514769614808E-06	0.979131944232502	-0.18114993531642
7.9	-0.00425423650673202	0.00813272848078507	2.55955517827562E-06	-2.30432948701952E-06	3.685431739551E-06	3.54893796209885E-07	0.979454585472351	-0.18388784907464
8	-0.00383967640609528	0.00794813675145497	-2.81872612133334E-06	1.3214486913794E-06	6.88713008221518E-06	-1.83852031780673E-06	0.980222947988813	-0.187193187953305
8.1	-0.00371299209346564	0.00802825042787643	-1.79360436092689E-06	7.51753122231845E-07	-3.70681439197209E-06	-1.26246620935586E-06	0.979577821730807	-0.190643842194563
8.2	-0.00328389294539967	0.00819926362915739	-8.07776264222218E-07	6.33241916687731E-06	4.86689907794665E-06	4.36445227307644E-06	0.979190003347095	-0.193012206002559
8.3	-0.00284087235768331	0.00821225710382167	-8.25638485215653E-07	-1.42150661153827E-05	6.81425308205893E-06	5.44081426957148E-06	0.978792165809923	-0.195799331620721
8.4	-0.00252051571102156	0.00825031843895423	3.76711430231909E-06	-3.42160361870189E-06	-6.96950455769809E-06	-1.23276242650845E-06	0.97827614530591	-0.198594196575358
8.5	-0.00217092428670749	0.00811756688129374	4.67251329567393E-06	5.95345675208179E-07	8.427179623886E-06	-6.81575281640137E-06	0.977663060290486	-0.201659626130015
8.6	-0.00233346040983555	0.00820743552288509	-3.27767276037467E-06	4.11001367539183E-06	9.85005485498822E-07	1.10993481007774E-05	0.976962897078911	-0.204384823709719
8.7	-0.00209877134581924	0.00862379309138493	2.6885312460538E-06	-1.99476995737632E-06	4.79915987539293E-07	-5.53083213538334E-07	0.976556915847533	-0.206988720849525
8.8	-0.00159630526285805	0.00893288093502548	1.24268532932707E-07	-1.25371026305164E-06	-9.89533853209609E-07	9.77286331904163E-06	0.976091512543079	-0.209279085450008
8.9	-0.000916532179345821	0.00901513988659885	-3.67016898605988E-06	2.28931861693742E-06	4.84004572037777E-06	-1.79761223138157E-06	0.976112476902566	-0.21129175736648
9	-0.000108568206857565	0.00864143530473862	-1.89194661396887E-06	4.9454329407375E-07	-3.19305777500527E-06	-1.0546978321894E-05	0.97615101358232	-0.213701097249748
9.1	0.000256488742739666	0.00805612175028773	5.25401718657519E-06	6.00448305368137E-07	9.12796932389401E-07	3.83896837939429E-07	0.976000987643086	-0.216097910930229
9.2	0.00060283540485666	0.00749401166208735	-8.72346066187899E-06	-4.59759528780542E-06	-8.71194168146193E-07	-6.13544036805951E-06	0.975606324469998	-0.218984800581839
9.3	0.000694857934001447	0.00685725892922386	1.77666132163576E-07	6.22380688555397E-06	4.6485041162534E-06	-2.18867572139032E-06	0.975099895588888	-0.22183529039315
9.4	0.000559448895080272	0.00635759103907456	-1.94101728911227E-06	5.88915523673718E-06	-1.05311630348444E-05	7.73424758349052E-06	0.974142665666938	-0.224909391288467
9.5	0.00026330646217683	0.00600409369208468	3.20891805424555E-06	-7.57248967946096E-06	3.69555846000265E-06	-2.7377469121838E-06	0.973492394723827	-0.227547502719781
9.6	-0.00037276986589936	0.00610283797858775	4.49977639870227E-06	5.60141818343137E-06	-6.57459052798831E-07	7.08979864478971E-06	0.97274295318585	-0.230974253227371
9.7	-0.000597758228025223	0.00650205872042988	-2.60655525728754E-06	-3.95481036368572E-06	3.71608142695781E-06	-7.54041584247007E-06	0.971750349499083	-0.233610033067859
9.8	-0.000725227056171599	0.00687213115677571	-5.20726951168726E-07	-4.22931684810557E-06	6.29532949278003E-06	9.00951402040219E-07	0.971248303217778	-0.235566571904087
9.9	-0.000757798561144872	0.00735901405421952	-2.69764108803004E-06	-6.00458482479788E-07	-8.54289650527514E-06	5.49571710868365E-06	0.970922825720058	-0.236960677564867
10	-0.00060355757228347	0.00768438887050987	4.32110049658652E-07	-1.75853058158852E-06	-3.09027798913094E-06	-8.00713879768674E-06	0.971450792435233	-0.239110423848339
10.1	-0.000659400723599984	0.00817790125405237	2.25125002592577E-06	4.78884138562852E-06	-3.1175682791711E-06	9.88398246110185E-06	0.970226402834737	-0.241370085538427
10.2	-0.00022162683623222	0.00873490423150749	-5.39197631639295E-07	-1.05265408531344E-06	-1.21238429444514E-06	-3.12814655154914E-06	0.969488014628544	-0.242486089997653
10.3	0.000375869315398427	0.00898914911337506	1.13490570567736E-05	-2.93554603977918E-06	1.00950884247221E-05	-4.85622600591783E-06	0.968980890373215	-0.244017954829997
10.4	0.000965397915298443	0.00901164380925207	-6.31659166476243E-07	2.15599505250008E-06	3.04363403605188E-06	-2.19268378301343E-06	0.968521675579383	-0.245873615057386
10.5	0.00144192936978086	0.00876366217502548	-6.1339226980642E-06	4.66154077315852E-06	1.57756332685223E-06	4.32301678350774E-06	0.968202343210514	-0.248728466179873
10.6	0.00150421526789194	0.00870438760177446	-7.13095282693008E-06	1.07271411910169E-05	7.05359743471463E-06	4.28532639188712E-06	0.967474545314564	-0.251478257642256
10.7	0.00174239945148826	0.00881667348298366	-3.22712630756645E-06	1.57397571259E-06	-5.38869075176278E-06	3.18421534067309E-06	0.966782432107095	-0.254653945619586
10.8	0.00214842323918811	0.00900604984380673	-1.93344598927895E-06	5.01296026825014E-06	8.53111088222834E-07	-3.21683054359271E-06	0.965960608335406	-0.257067921417912
10.9	0.00251422891654913	0.00916481531595167	-5.7842295186794E-06	-1.0564977673054E-05	4.96227533281979E-06	1.07452790631175E-05	0.96531877359613	-0.259401607877553
11	0.00308104914812002	0.0091129866804442	2.97944246538749E-06	2.62118815943428E-06	7.78617176751652E-07	-1.12765440915446E-05	0.964533637876313	-0.261749871166235
11.1	0.00334163909126511	0.009235146682095	3.8722753692848E-06	1.459381504948E-06	2.5008947238784E-07	-7.39894627720065E-06	0.962934114290203	-0.263822698033548
11.2	0.00403356746086221	0.00936392155132358	-4.43281429947179E-06	-1.97356417252642E-06	-7.35230321414956E-06	-4.85971217828768E-06	0.961336320094089	-0.265511260996803
11.3	0.00491190788391522	0.00913337790422639	6.57605084445265E-07	-6.39975718027328E-06	3.79597385598406E-06	1.41813547777489E-05	0.96004385777222	-0.266905038085375
11.4	0.00555963391855809	0.00865142395118836	-5.12121893176809E-06	8.1706269584627E-06	-1.45779201632907E-06	4.08949505948405E-06	0.958504543287721	-0.26863128394175
11.5	0.00598687340095139	0.00787340046304497	4.53885811035046E-06	8.11026502098297E-06	-9.30985614531792E-06	1.58969637543018E-06	0.958175440200237	-0.2706064730824
11.6	0.00597052822858561	0.00724822407365585	-3.85143679568767E-06	1.40852978564333E-06	5.10062767182344E-06	8.15506087437038E-06	0.957007815344679	-0.2745213052678
11.7	0.00613369884273061	0.0067484860413656	2.26827670098502E-06	1.05534650740887E-05	5.37466161966731E-07	-3.6595087006746E-06	0.955431275071265	-0.277726354792565
11.8	0.00628752214583225	0.00618349650178948	1.43878837007892E-06	4.47013973044635E-06	2.26192378290235E-06	4.54314109874082E-06	0.954363651314324	-0.280542241911769
11.9	0.00631924733171593	0.00561902365537757	7.47270708325724E-06	1.05824411600491E-05	3.8914834612067E-06	4.01713234936183E-07	0.954624356064606	-0.282027648222691
12	0.00615692601351201	0.00481967812100573	2.35242149225261E-06	-5.17440785202529E-06	-4.02641548421798E-07	1.75700670727171E-06	0.95593307242356	-0.285774941071174
