# GHZ S RI R 50
0.2	0.000608114139540239	0.00248140233326876	4.79695376135531E-06	-2.98526989003213E-06	-1.37374896945109E-05	1.31228690622654E-05	0.999659116052187	-0.0067655720748575
0.3	0.0010716044254079	0.0017899993997953	2.86501364970052E-06	6.63128510723518E-06	-1.66107211281654E-06	-9.3269324963066E-06	0.999634032194417	-0.00952662847907872
0.4	0.00141242240007552	0.00143867603360029	-1.86294777533458E-06	-4.01963035184704E-06	-9.02392022841553E-06	4.40470241043656E-06	0.999847280239505	-0.0120942991353818
0.5	0.00172460344006503	0.00095835110578723	-5.3620716974643E-06	3.26494845662508E-06	-2.12806558577856E-06	6.76138987951509E-06	0.999763472161319	-0.015438703947316
0.6	0.00167256658388477	0.000572231119479492	-1.40789726385747E-07	2.80731885905592E-06	-5.81745430094837E-07	-1.34400211685819E-07	0.999764238984278	-0.0182924663710599
0.7	0.00165506269692972	0.000422122265197547	8.69997387596677E-08	2.22084090852368E-06	4.90874041307635E-06	-3.40200068780212E-06	0.999561555872366	-0.0212995206467544
0.8	0.00171053221592115	0.000252398311885647	4.53225329369531E-06	8.28684266141478E-07	2.74562211490936E-06	2.00354616786335E-06	0.999325212991688	-0.0235809145863528
0.9	0.00166869252242981	0.000142672471804569	-1.50368451631804E-07	-4.22298984732174E-06	-3.42047982750171E-06	-3.11421906672516E-06	0.999127820856774	-0.0259704122581539
1	0.00183097868167075	4.21172272487816E-05	1.06078640414663E-06	4.29686963577959E-06	3.33072947155129E-06	9.34962320970723E-07	0.999001405586212	-0.0274180329891534
1.1	0.0016493788519765	-0.000380701459502251	9.05214139930189E-06	5.19631735955169E-07	-3.58173404955045E-06	-5.00086458282679E-07	0.998862854110283	-0.0293705060863684
1.2	0.00129078454645826	-0.000758380479923719	3.76516317897765E-06	-1.20051727861797E-06	-4.10088420920654E-06	-2.4410387318437E-06	0.998571197802231	-0.0301179635301767
1.3	0.000742319833787898	-0.00139962501607558	-7.62484970420305E-07	-1.4288038916498E-06	-2.5896362367761E-06	-8.71854832742496E-06	0.999196976425838	-0.0307689079210744
1.4	6.70093834819213E-05	-0.00214361563142857	1.38819501448581E-08	3.45239991255026E-06	-4.28719654193003E-06	-4.13357136315828E-06	0.999290528317313	-0.0327781069958221
1.5	-0.000288925460344657	-0.0027270855767279	-1.30099303477559E-06	4.43542289047926E-06	6.56331091736748E-06	-7.42194026072758E-06	1.00005279059726	-0.0363894169730179
1.6	-0.00068673352736791	-0.00291811587590993	1.63195528700863E-06	-4.89285101610326E-07	4.24962719218995E-06	-5.40027623444746E-06	0.999399991414537	-0.0403587892279113
1.7	-0.00078072193353185	-0.00292939427177133	5.31448233484065E-07	3.96279579553859E-06	-8.29637449226843E-06	3.13235794971306E-06	0.999376296237986	-0.0432424555649839
1.8	-0.000876958364375457	-0.00290576551222201	1.8346808608178E-06	1.07990910262679E-06	5.66299031665415E-07	-1.76408659837549E-06	0.99903737033247	-0.0461716088089452
1.9	-0.000988158912665382	-0.00292871588548051	3.24001355339456E-06	3.02206148557408E-06	-1.83040051324414E-07	-2.33335261842343E-06	0.998740224848941	-0.048343076155073
2	-0.00108453004680404	-0.00309857354543021	-1.73042095577671E-07	2.00771540682022E-07	-1.21838583857881E-05	5.42723289379978E-06	0.998761731389008	-0.051258102516285
2.1	-0.0015192860574442	-0.0032490656730112	6.68039728682702E-07	-1.38486610961292E-06	1.38326767881015E-05	4.96195494407482E-06	0.998247842408106	-0.0541409182750061
2.2	-0.00189835023986995	-0.00318380346198913	1.64508131224447E-06	-1.52026690939975E-06	2.68393796271729E-06	-6.22080585256585E-06	0.997968898746581	-0.0566590857143498
2.3	-0.00231032110031632	-0.00315605846471036	-1.6932090787945E-06	-3.42921110504677E-06	-1.797800353725E-06	-4.5953389222636E-06	0.997493159712199	-0.0585604534454066
2.4	-0.00276853962833723	-0.00307911235971409	-1.21005200554944E-06	-4.40468527585763E-06	3.051218762783E-06	1.08422482440584E-06	0.997326385814898	-0.0616235446348963
2.5	-0.00316878200158684	-0.00300215872349972	5.39673077235346E-06	5.66779316524519E-06	-2.58801263991785E-06	1.61698279256576E-05	0.997021719027824	-0.0638079517256596
2.6	-0.00379292986617611	-0.00288785645675402	-2.27525677127041E-06	2.71795503598918E-06	4.28105325545418E-07	-4.31675654593169E-06	0.997084930397997	-0.066797728444705
2.7	-0.00422680809332162	-0.00243591023560316	-2.41510902946987E-06	-3.63672447594486E-06	2.15288659926538E-06	-2.57687936405549E-06	0.996652092486309	-0.0699321557377846
2.8	-0.00438753705065894	-0.00191093566756792	4.01028778826772E-06	2.30664901223787E-06	9.83988926363694E-06	-7.06543963642764E-07	0.996698200636341	-0.0720398891824428
2.9	-0.00421305105562513	-0.001460923681576	1.28923945720314E-05	6.83761894078457E-07	2.41767755728435E-06	-1.17305942109525E-05	0.996367962912204	-0.0741226600645657
3	-0.00387777982314776	-0.00134187973600778	-3.8534344992651E-06	1.05581345782459E-06	-4.15141681879413E-06	-1.5902355733764E-06	0.996313942862262	-0.0766467404844495
3.1	-0.0037491955478174	-0.0013157156693808	4.760327215027E-06	-9.85875370089678E-06	1.06935465043837E-05	2.38798870897221E-06	0.996117080278352	-0.0788504875276986
3.2	-0.00361205604095774	-0.00134252825296042	-5.38930648911166E-06	-7.39943333072917E-06	1.56547770824555E-05	5.3528480444949E-06	0.995853106162713	-0.0808902923276601
3.3	-0.00359216923348082	-0.00148766181034006	-8.78863473178675E-06	2.565934545164E-06	-8.57154466381333E-06	-1.7212064517239E-06	0.995485950435378	-0.0843329231378684
3.4	-0.00374860632015484	-0.00161757812467874	9.04259344170608E-06	-7.58202600747106E-06	-7.33554076417149E-06	4.25141202940834E-06	0.995165408836723	-0.0862863101233707
3.5	-0.003960218734429	-0.00183457213720148	3.07995414413488E-07	-5.32110884820239E-06	-4.41557358830227E-06	-8.918899003655E-06	0.99510541482025	-0.0888413131990658
3.6	-0.00448190573441826	-0.00183758348855611	4.0809082747326E-06	4.89163471299224E-06	-7.08967031765697E-06	9.00525908466791E-06	0.994865803484018	-0.0917236265732799
3.7	-0.00483344505116694	-0.00158485819353384	1.51865448520397E-06	-4.5281164799065E-06	-5.11411325462541E-06	-6.57406060252713E-06	0.994347362727661	-0.0945580250343939
3.8	-0.00504506583802025	-0.00131486502631826	7.26521962960419E-06	-5.20653412045878E-06	-5.88084094545941E-06	-2.40604195352393E-06	0.993611301242554	-0.0965154772926496
3.9	-0.00509901678759613	-0.00105178449232672	-4.02758450565038E-06	-3.43337929742719E-07	-2.52713458840034E-06	1.13637873961929E-06	0.993300684205801	-0.0992684804038404
4	-0.00509230548642416	-0.00102573341998175	-3.38330308302146E-06	-7.62029728663694E-08	1.21918824313331E-06	8.66507355441398E-06	0.993389825855896	-0.100613692657316
4.1	-0.00536495897279009	-0.000912283793343414	-2.90689904429064E-06	-3.85278780950869E-06	5.88232087332358E-06	3.02405911407243E-06	0.993031498987471	-0.102716491935409
4.2	-0.0055101215465285	-0.000681365374733783	-7.77216060499156E-07	-2.15393004405529E-06	5.6920293552407E-06	-1.85431086888726E-06	0.992311792581503	-0.105337950409721
4.3	-0.00561053498037328	-0.000491276248253731	-5.03816984714437E-07	3.23342050616663E-06	2.13149806188399E-06	1.77420128751303E-06	0.992006100801251	-0.107281341564648
4.4	-0.00580088592134531	-0.000309322614403625	2.58137381032072E-06	3.43346852723376E-06	7.184042218688E-06	3.89321724901801E-06	0.991562691359016	-0.109499794012489
4.5	-0.00596716188621489	-0.000161140040563099	-6.46479617423763E-06	-2.15549863121336E-07	-8.57443475140908E-06	-2.09168982216532E-06	0.991433257512379	-0.111537782260767
4.6	-0.00648909263093631	9.50200654032598E-05	-9.94811404809276E-06	-9.19463945684813E-06	3.22632137776694E-06	-2.73280323120992E-06	0.991170756611107	-0.114251027033334
4.7	-0.00675395857529749	0.000634626136871367	1.29174166440395E-07	1.86248390164675E-06	6.04111893774354E-06	-6.73577725397984E-06	0.991097232891215	-0.116307628618891
4.8	-0.00686335777148907	0.00118666207851345	-6.38222556014927E-06	2.08762004779694E-06	7.61010774844007E-07	-1.27323191195478E-05	0.990643642313737	-0.118853877742026
4.9	-0.00673466216692734	0.00172003006925612	-3.40629996445861E-06	8.13745808073213E-06	5.79884769049944E-07	9.36222052566195E-06	0.990007260162683	-0.120664320976294
5	-0.00639534169266519	0.00197046066461138	9.61983268428552E-06	-4.07099003732061E-06	-6.91814059447561E-06	3.58323136602651E-06	0.989724888297875	-0.12200038589405
5.1	-0.0061531782443989	0.0022205873332727	-3.70841045056341E-07	-3.24593099494809E-06	-3.87035001496678E-06	-1.78370942249559E-06	0.989734939385953	-0.123331876797151
5.2	-0.00569277902453306	0.00236762821823866	-1.0717073751883E-06	-4.47709718498388E-06	8.77828218528206E-06	5.55451604754949E-06	0.989394487832259	-0.125485850439502
5.3	-0.00531084022609261	0.00228930875166029	2.29074871095577E-06	6.77612619824434E-06	8.78052461951418E-06	3.11557019975969E-06	0.988997525831915	-0.127645708260171
5.4	-0.00511019449295572	0.00217761148638381	2.69666395440507E-06	-3.13729772906734E-06	-2.66823577179432E-06	1.56137669870907E-07	0.988765582431181	-0.130093352188974
5.5	-0.0051254164812221	0.0020063778988518	2.10670789563418E-06	9.29600262959375E-06	-3.91503783041025E-06	-5.02083752972167E-06	0.98883840314021	-0.132416833092827
5.6	-0.00546417528996433	0.00221877540740695	-5.84438485379212E-06	-1.12983281875105E-06	4.86346024581096E-06	1.93883565994755E-06	0.988790470053103	-0.13509357019861
5.7	-0.00555836826786325	0.002648312946318	3.32997666458477E-06	-1.42094020305856E-06	-5.03903798965529E-06	-4.28306909407853E-06	0.988356082128037	-0.137610721926744
5.8	-0.00553400933587398	0.00300945021168038	-2.05054541130879E-06	-4.73650241273674E-06	9.44475251234297E-07	-5.81057976616164E-07	0.98793912376521	-0.139664294947885
5.9	-0.0054895523513856	0.00339865032073268	-3.87142888921822E-06	6.18061242779207E-07	3.8545248346043E-06	1.24687132432299E-06	0.987524002254944	-0.141464317564688
6	-0.00539075687144393	0.00353781689731182	-5.92343800081404E-06	5.03897341400996E-06	-1.48186211138416E-06	1.9640039111688E-07	0.987538685601581	-0.142926674075533
6.1	-0.00571979790146613	0.00371458464882734	-5.91562584628612E-06	-4.68557512329243E-06	-3.99731627548982E-06	4.32302403288432E-07	0.987384794133646	-0.144207462635229
6.2	-0.00587130195634255	0.00409085676684933	2.81333902413635E-06	3.11889009847391E-06	1.05019577556937E-06	7.21361912458586E-07	0.987337902061886	-0.145457885580336
6.3	-0.00580213991453124	0.00439400561160166	1.6381468137605E-06	-7.45790592518547E-07	-1.33676676914645E-07	1.37254783896796E-06	0.987216989591374	-0.147411344353475
6.4	-0.00567793535397023	0.00453772454995981	-5.17036606417395E-06	-5.61241346028885E-06	3.80375710306337E-06	6.89788212058005E-06	0.987007432163611	-0.149553040523795
6.5	-0.00556451665700656	0.00442020146216734	9.04904326362352E-06	-2.41402514232681E-07	-7.30808647995441E-06	-9.01268805417495E-07	0.986841307612627	-0.152547482209745
6.6	-0.00566649297446196	0.00466532804942943	-1.4859837703823E-06	4.63256367362336E-07	3.38051540583043E-06	-9.35626560968609E-06	0.986427112877541	-0.155124497033127
6.7	-0.0054668722148325	0.00495219930500506	3.36485857463748E-08	7.73737371966643E-06	-4.82213636857286E-07	-6.07570701376282E-06	0.986055438080951	-0.157521886093399
6.8	-0.00532312766535313	0.00518609097851429	4.2376169238748E-06	1.66227228995627E-06	2.24060146388488E-07	-5.22655640017085E-06	0.98546845908832	-0.159862789570679
6.9	-0.00518386672293231	0.00550113561419543	-7.54794639928198E-07	2.46136247383432E-07	5.75608561738444E-06	-2.66608891145026E-06	0.984884741427462	-0.161833416576759
7	-0.00502346404138984	0.00564288248608551	8.01778368330453E-06	-4.73542815131059E-06	4.39535062103641E-07	-3.01482790933289E-06	0.984347250060256	-0.16351212226888
7.1	-0.00524104593994046	0.00610978976206597	3.83625067966881E-06	2.04772892174835E-06	7.58005066906332E-07	7.22006190179982E-06	0.98379846850471	-0.165185805696481
7.2	-0.00504052415215548	0.00675883574887139	-2.4529074225279E-06	3.6814128748418E-06	-1.32264506976809E-06	-3.82493798375817E-06	0.983146899143807	-0.166899461477341
7.3	-0.00476758695822064	0.00723207917892688	3.43637912176754E-06	-4.85757684330904E-07	-2.44266159002589E-06	-1.92054899104912E-06	0.981967094855008	-0.168649318320909
7.4	-0.00455792287018876	0.0075836979802394	-6.17407142732188E-06	-2.70970026370768E-06	3.76469424103241E-06	2.55286998213498E-07	0.980615281034961	-0.170553502345484
7.5	-0.00431527959711493	0.00765029334091779	6.76557247086782E-06	-6.40835367845841E-06	-2.47777082465408E-06	7.91972766528572E-07	0.979998260525336	-0.17214090753418
7.6	-0.00447263370919763	0.00777972913429955	3.46450750352704E-06	5.20967281002849E-06	-1.02478936970402E-05	4.89051252097785E-06	0.979679719685527	-0.175141675218414
7.7	-0.00446362520178654	0.00805726957913461	5.98605317190959E-06	1.09473385531373E-05	3.6918617754897E-07	-1.13459748648363E-05	0.979302715213963	-0.178068694060792
7.8	-0.00422038797148585	0.00809218792547274	2.15088109546977E-06	9.90057742289834E-07	-3.13187959173705E-06	8.80266792779961E-06	0.979246894154072	-0.181062457152116
7.9	-0.00389002530302305	0.00797801890231392	2.55877736264676E-06	-2.30396700366217E-06	3.68457949135449E-06	3.54540611816726E-07	0.979497196473824	-0.184088999123279
8	-0.00368641759575486	0.00769029712751111	-2.81691193051974E-06	1.32185413735965E-06	6.88320522441694E-06	-1.84016766862305E-06	0.979858624836596	-0.187692416899644
8.1	-0.00361449835812356	0.00790184838920891	-1.79213306275072E-06	7.5157882736473E-07	-3.70436445798874E-06	-1.26076397719236E-06	0.978946750225339	-0.190856260444147
8.2	-0.00320887261792053	0.00804541721058704	-8.06491267102365E-07	6.32779228779264E-06	4.86374717107794E-06	4.36067777426474E-06	0.978547832113195	-0.19317740739028
8.3	-0.00284906448789465	0.00805306479920402	-8.2576713526622E-07	-1.42043070710079E-05	6.80940390069758E-06	5.43635292649137E-06	0.978061632417749	-0.195929397784971
8.4	-0.00258587847738553	0.00811170749334281	3.76413190826717E-06	-3.4187409246013E-06	-6.96381762054731E-06	-1.2319173583137E-06	0.977434967753068	-0.198622484095002
8.5	-0.00241804655736478	0.00799600281196108	4.66876854255279E-06	5.96040093174008E-07	8.42237227625394E-06	-6.80842542576436E-06	0.976726861458475	-0.201452188038638
8.6	-0.00261263523017436	0.00838132106706239	-3.27653112969115E-06	4.10674005184275E-06	9.8196757389303E-07	1.10926565610603E-05	0.976136864964067	-0.20395030985474
8.7	-0.00222542129015149	0.00895636047512468	2.68716863179127E-06	-1.99296437933832E-06	4.79710306189344E-07	-5.52633199105718E-07	0.97583733354477	-0.206426480215542
8.8	-0.00154375015894032	0.009326980934284	1.24452024879995E-07	-1.25280966707734E-06	-9.90949674610359E-07	9.7658385454088E-06	0.975492551869817	-0.208615984165573
8.9	-0.000660623535503932	0.00936120774004131	-3.66807089022125E-06	2.28649561872854E-06	4.83691605436403E-06	-1.79481394048255E-06	0.975666279324861	-0.210561444343279
9	0.000171899464301718	0.00881003845647174	-1.89093973570579E-06	4.93316977659408E-07	-3.18593503018634E-06	-1.05415731325203E-05	0.97588898046387	-0.212975819613137
9.1	0.000552179772471653	0.00820814845568638	5.25085274626391E-06	6.02568144483174E-07	9.12116820846229E-07	3.84111632790034E-07	0.975873786420336	-0.215435366119549
9.2	0.000914678571115628	0.0075343183976309	-8.7164937032055E-06	-4.60013167192912E-06	-8.67336904729906E-07	-6.132826549857E-06	0.975560552310728	-0.218360742603497
9.3	0.000923509616659105	0.00681428852900598	1.73146114590931E-07	6.22134541000652E-06	4.64813440139129E-06	-2.18444470864003E-06	0.97509417298603	-0.221166632104766
9.4	0.00070278423029671	0.00629282005309754	-1.94586445197066E-06	5.88586193798899E-06	-1.05354557064443E-05	7.72266947119825E-06	0.974250258084401	-0.224115679012118
9.5	0.000222905994771998	0.00596617244010771	3.21587333928472E-06	-7.56995230698461E-06	3.69818944099765E-06	-2.7345501110334E-06	0.973714066060911	-0.226818665715457
9.6	-0.000368037143625467	0.00629235891620278	4.49518534482208E-06	5.60507705203463E-06	-6.63249853039405E-07	7.08923894855513E-06	0.972928728075828	-0.230107761707809
9.7	-0.000429043671496287	0.0067372734444002	-2.60285469485202E-06	-3.95709017965818E-06	3.7228933712315E-06	-7.53679581086367E-06	0.972075874244058	-0.23259992352975
9.8	-0.00039249923063409	0.00705765436669806	-5.16443043315691E-07	-4.22993505324828E-06	6.29454764137112E-06	9.07363419235827E-07	0.971787636776082	-0.234512819640426
9.9	-0.000268899101455141	0.00735150532042228	-2.69732745394058E-06	-6.03235367924351E-07	-8.54934077644739E-06	5.4877187238829E-06	0.971696163487343	-0.236108425608206
10	-0.000243988078024035	0.00736567500977322	4.33837853935452E-07	-1.75797224548441E-06	-3.08204790414185E-06	-8.00965511602688E-06	0.971952507938132	-0.238529939744538
10.1	-0.000497857866059111	0.00783401583609525	2.24491553905473E-06	4.79221576027711E-06	-3.1311689156639E-06	9.880429541233E-06	0.970748849926494	-0.240538864913294
10.2	-0.00023441689907451	0.00840059294389212	-5.37941776349402E-07	-1.05385082787288E-06	-1.2084898925769E-06	-3.13115448469276E-06	0.970163743821477	-0.241686932152634
10.3	0.00023258653260403	0.00879322587728697	1.13608157022475E-05	-2.92311001443912E-06	1.01084175567194E-05	-4.8467478247444E-06	0.969756670930644	-0.243263153140137
10.4	0.000860237551955122	0.00893953353130514	-6.34459593381507E-07	2.15710080018546E-06	3.04845783571715E-06	-2.19126823127829E-06	0.969392242065665	-0.245206562980953
10.5	0.00128493574151271	0.00869474204607566	-6.14400847623772E-06	4.65921021808948E-06	1.57445340545277E-06	4.32836092679464E-06	0.969090838276589	-0.248071886050982
10.6	0.00137508586571863	0.00876942716775241	-7.14685435394162E-06	1.07320024108955E-05	7.05712452481003E-06	4.29537971080157E-06	0.968499438541837	-0.250955657292067
10.7	0.0016386093898176	0.00889820433512225	-3.23103089598315E-06	1.57336092866787E-06	-5.39556128081742E-06	3.18369045354667E-06	0.96769757738944	-0.254298878122271
10.8	0.00207924930494361	0.00914791996064171	-1.93795767789978E-06	5.01574412865169E-06	8.55701766202035E-07	-3.21884834745323E-06	0.966786144158575	-0.256687904368245
10.9	0.00252452481515744	0.00930917137589497	-5.78199140414928E-06	-1.05760737806063E-05	4.95933722281507E-06	1.0756007170454E-05	0.966145897193101	-0.258998084647083
11	0.00298291363369873	0.00920340751950468	2.98000611737739E-06	2.62525778494138E-06	7.86852245372433E-07	-1.12848587437528E-05	0.965353554061047	-0.261391942808332
11.1	0.00326820294630855	0.00952654007475409	3.87472191754137E-06	1.46296537708337E-06	2.54757713493288E-07	-7.40514891829309E-06	0.963779670172398	-0.263418098542658
11.2	0.00409800535225851	0.00971663320277516	-4.4355985978617E-06	-1.97788861426437E-06	-7.35599995193314E-06	-4.86829132122627E-06	0.962270609068907	-0.265082024570292
11.3	0.00512390224940104	0.00949319844897827	6.62153856287725E-07	-6.40537285522885E-06	3.79083520315491E-06	1.41970247634146E-05	0.961122279805676	-0.266452581287719
11.4	0.00592979958716659	0.00892514193554799	-5.13256310396664E-06	8.17589901771265E-06	-1.46226715291687E-06	4.09291472007807E-06	0.959865448249685	-0.26816398803342
11.5	0.00628983831800008	0.00800211794147461	4.54101792200044E-06	8.12362185639593E-06	-9.32338172234375E-06	1.58722422116827E-06	0.959695928425999	-0.270507832564438
11.6	0.00631207676353559	0.00746418438609933	-3.85662291708843E-06	1.40901275517801E-06	5.10425175977339E-06	8.1667277733211E-06	0.958377274752831	-0.274463218872526
11.7	0.00659387071324034	0.00691116514764458	2.26775432745071E-06	1.05668822425326E-05	5.39242793510125E-07	-3.66375276596544E-06	0.956868851089158	-0.277694991170575
11.8	0.00683258639006942	0.00623850042413444	1.43962108026445E-06	4.47613769604655E-06	2.26378575886576E-06	4.54941496670841E-06	0.955925334078828	-0.280655580962805
11.9	0.00694259998964827	0.00542590093306941	7.48438623824798E-06	1.0596576168639E-05	3.89701852126428E-06	4.01863565456298E-07	0.956383189931164	-0.282689427909005
12	0.00650465811546551	0.00446960192316838	2.352442637371E-06	-5.18118274783225E-06	-4.02218288720213E-07	1.75911310061694E-06	0.957078232669794	-0.286874329155176
