# GHZ S RI R 50
0.2	0.000888683454717562	0.00268218497487098	4.79128183035992E-06	-2.98561003188157E-06	-1.37185867324959E-05	1.31200904511143E-05	0.999288074612024	-0.00698880709370039
0.3	0.00137191372806975	0.00189111935519816	2.86628956927303E-06	6.62319122917749E-06	-1.66513701324376E-06	-9.31698503479607E-06	0.99914564490288	-0.00988258925937126
0.4	0.00167059960791914	0.00129121621935903	-1.86237158465071E-06	-4.01371777743532E-06	-9.01054813212404E-06	4.4031273620321E-06	0.998968311388601	-0.0125746294870113
0.5	0.00158881350227424	0.000994951549974252	-5.3567407573447E-06	3.26183022428895E-06	-2.12585487143591E-06	6.75477629790236E-06	0.998539914974175	-0.0153159585223653
0.6	0.00198969095952726	0.00081444447083691	-1.39129335822265E-07	2.80487490288788E-06	-5.81296479102973E-07	-1.33961649050105E-07	0.998911232934719	-0.018169526334045
0.7	0.00210787967576414	0.00039189731667621	8.82429154250967E-08	2.21791236938163E-06	4.90030792360359E-06	-3.40059273636753E-06	0.998547091746529	-0.0212273680052507
0.8	0.00217425404653309	4.75076792275384E-05	4.52556629708961E-06	8.25070959676049E-07	2.74233755512261E-06	1.99900171369423E-06	0.998249689444568	-0.0234049594865946
0.9	0.00215834039411667	-0.000350372081076301	-1.51509173329249E-07	-4.2150495393622E-06	-3.41513783412746E-06	-3.10724937412967E-06	0.998108767042656	-0.0258901065437163
1	0.00170473708795173	-0.00074042055966952	1.0578785934086E-06	4.28866033777433E-06	3.32402636315311E-06	9.33775219654335E-07	0.997510626428418	-0.0275199986841292
1.1	0.00146622735314966	-0.00053055422296411	9.03726050641906E-06	5.20760953082545E-07	-3.57578169387165E-06	-5.00052859066901E-07	0.997316576396934	-0.0291363572383731
1.2	0.00138515935302837	-0.000880065404333917	3.7591651820593E-06	-1.19792863531601E-06	-4.09374031127109E-06	-2.43769173496521E-06	0.996983267387941	-0.0299473460342054
1.3	0.00105829174240862	-0.00156757503761794	-7.61107718530449E-07	-1.42670888187737E-06	-2.58441270791924E-06	-8.70547324770277E-06	0.997615550348334	-0.0305724646686949
1.4	0.000549498477831962	-0.0026130098324748	1.39937229662409E-08	3.4476206251361E-06	-4.28141910064256E-06	-4.12768707384633E-06	0.997847853464396	-0.0327967260821741
1.5	-8.4965460942138E-05	-0.0031743802628129	-1.29763763139837E-06	4.42926552124684E-06	6.55119319791359E-06	-7.41304772897211E-06	0.997995304115109	-0.0363891881557664
1.6	-0.000231153032080173	-0.00345497442222995	1.62882421213381E-06	-4.88843916688388E-07	4.24031958879676E-06	-5.39155695828034E-06	0.99729098731048	-0.0398362186961377
1.7	-0.00053771088463652	-0.00365248201936008	5.30481496357777E-07	3.95470241954493E-06	-8.27937106567354E-06	3.12621700186266E-06	0.997214076234404	-0.0424327747202824
1.8	-0.000813437308026671	-0.00361934819040401	1.83065658897278E-06	1.07789204382611E-06	5.65355462895925E-07	-1.76028437085773E-06	0.996897602530954	-0.0452235651074828
1.9	-0.0011188436049255	-0.00366619722527727	3.23232017493538E-06	3.01524891059034E-06	-1.82475755798164E-07	-2.32795356597423E-06	0.996335881095607	-0.0477098601346124
2	-0.00157754723023765	-0.00341250992779351	-1.72601230776529E-07	2.00024469029289E-07	-1.21477640616207E-05	5.40268292477795E-06	0.994879634563194	-0.0499324665997912
2.1	-0.00148193671854591	-0.00327263091379484	6.68330779837099E-07	-1.38005256946605E-06	1.37872155098126E-05	4.96954512734747E-06	0.995077499627283	-0.0513648670661518
2.2	-0.00168113216657451	-0.00343454616243601	1.6434303288859E-06	-1.51395902241958E-06	2.68710920805115E-06	-6.20134081871459E-06	0.995303448449242	-0.0537644709089106
2.3	-0.00209022251506126	-0.00356813873226587	-1.68330639838377E-06	-3.42354443965792E-06	-1.78569637678164E-06	-4.58696038611592E-06	0.995046097803161	-0.0555527625988969
2.4	-0.00264669995071105	-0.00368342286054376	-1.19837974426035E-06	-4.39563568522301E-06	3.04122191393693E-06	1.08733653929558E-06	0.995024158193939	-0.0586232069085041
2.5	-0.00353653516650816	-0.00345678415999497	5.37044542872743E-06	5.66699217848949E-06	-2.62001681347119E-06	1.61250668481317E-05	0.99444532055542	-0.0607337827143856
2.6	-0.00384409521345768	-0.00281331554694197	-2.27651239340366E-06	2.70616486245089E-06	4.37500060225656E-07	-4.30569771180562E-06	0.994463594286006	-0.0632475721059132
2.7	-0.00387371319777298	-0.00242413349593934	-2.39947101961206E-06	-3.63490008301675E-06	2.15496456255563E-06	-2.56494923010282E-06	0.994202766605288	-0.0659545883767769
2.8	-0.00379995344440842	-0.00217305186842726	3.99449773741725E-06	2.31423554147813E-06	9.82102907819599E-06	-6.74299194963505E-07	0.994591529349337	-0.06779408452143
2.9	-0.0036815812434462	-0.00207590045044744	1.28665147251842E-05	7.27380972643697E-07	2.45409298335167E-06	-1.1700798088568E-05	0.994586838909413	-0.0698461942081101
3	-0.00361434235384098	-0.0018692642351488	-3.85225644468328E-06	1.04083613907335E-06	-4.14049866674811E-06	-1.60289341846071E-06	0.994604569879445	-0.0723817701436814
3.1	-0.00316740506107924	-0.00191123475502474	4.78940724443566E-06	-9.83010681251895E-06	1.06722704874934E-05	2.42286543013121E-06	0.994524500554665	-0.0743041742000243
3.2	-0.00310085434431668	-0.00223571857714317	-5.35667763999476E-06	-7.41273334746789E-06	1.56203094018203E-05	5.406397203688E-06	0.994574931153967	-0.0761333018567989
3.3	-0.00322774056731859	-0.00255156955902058	-8.79385818736422E-06	2.53054966903252E-06	-8.56029372725945E-06	-1.75345543391015E-06	0.994684408245609	-0.0794637569580977
3.4	-0.00362348900899604	-0.00284918240433366	9.07215013327662E-06	-7.54793347277269E-06	-7.35225665923004E-06	4.22363572202198E-06	0.994962153022586	-0.0817225046972259
3.5	-0.00423070883983592	-0.00280992184848125	3.24341059963476E-07	-5.32142978886176E-06	-4.38934650972626E-06	-8.93451899197719E-06	0.994482641415659	-0.0849646707963634
3.6	-0.00446420213443745	-0.00269859045887747	4.06398092764417E-06	4.90416487142432E-06	-7.11803112933858E-06	8.98013254406884E-06	0.994024202903557	-0.0870747097339782
3.7	-0.00492674849562686	-0.00265964710623768	1.53503511132731E-06	-4.5232776524231E-06	-5.09128294771428E-06	-6.59319283562915E-06	0.994133085642503	-0.0896137833384087
3.8	-0.00540713644482967	-0.00239320940504242	7.28719114465531E-06	-5.18334599763895E-06	-5.87518546009543E-06	-2.42803503559719E-06	0.994000955023437	-0.0917269493997638
3.9	-0.00575545568109334	-0.0019608350030805	-4.02868614566441E-06	-3.56730806048011E-07	-2.53225724805947E-06	1.12872280657546E-06	0.993899506029292	-0.0950850572862921
4	-0.00591451580281764	-0.00125254696681645	-3.38328298179946E-06	-8.90752299010022E-08	1.18633348007768E-06	8.67040064337509E-06	0.993206262765989	-0.0960499179439046
4.1	-0.00542782466068296	-0.000872416804146763	-2.89282021883434E-06	-3.86917489331061E-06	5.87470354308843E-06	3.05266927232616E-06	0.993857947417275	-0.0974867758439803
4.2	-0.00525183001331209	-0.00093582970080051	-7.69275937439766E-07	-2.16031512365565E-06	5.70806287587921E-06	-1.83303951845377E-06	0.993744568147576	-0.100395278868052
4.3	-0.00527578058250037	-0.000983312461395622	-5.17987361820924E-07	3.23685557706222E-06	2.12782546309638E-06	1.78599961566852E-06	0.993803884246422	-0.102591471106261
4.4	-0.00554990865534055	-0.00102619960955859	2.57194968597231E-06	3.45071466639936E-06	7.18140476912444E-06	3.93050841084509E-06	0.993550303580253	-0.105105718888181
4.5	-0.00597641157041641	-0.000613746133244935	-6.4806441854258E-06	-2.4336072365769E-07	-8.58784210140401E-06	-2.1332567290144E-06	0.993594269939022	-0.107187429125953
4.6	-0.00594197127520506	-0.000278376821483552	-9.94347153089114E-06	-9.25535308246942E-06	3.2449544326393E-06	-2.72905935245229E-06	0.993547321492923	-0.110254519386955
4.7	-0.00604416425393582	-0.000111236078363598	1.23260826556601E-07	1.86795157021221E-06	6.08009339491707E-06	-6.73366787461645E-06	0.993466577495315	-0.112411675969667
4.8	-0.00619186896433319	0.000130647687659246	-6.40678808232784E-06	2.07191899875485E-06	8.05878036692792E-07	-1.27647722827361E-05	0.993179089533406	-0.114948295104364
4.9	-0.00628593633587676	0.000368900437933913	-3.44503458501406E-06	8.15013436550152E-06	5.48911121883412E-07	9.39253039889484E-06	0.992943701398051	-0.116867100064444
5	-0.00627323949640373	0.00083589652127389	9.66811175424122E-06	-4.05532429621919E-06	-6.95494694463461E-06	3.57437247949626E-06	0.99293798615819	-0.118663241386791
5.1	-0.00575949291908727	0.000939479737018136	-3.63040874942158E-07	-3.25876145112215E-06	-3.87937638008681E-06	-1.80109196723714E-06	0.992963569823367	-0.120215150349849
5.2	-0.00560857537235907	0.000863176616146741	-1.06331322954326E-06	-4.49742325776364E-06	8.79669045263697E-06	5.60059857465786E-06	0.992904706143823	-0.122477516760481
5.3	-0.00549913448108881	0.00092204740800071	2.28260656676764E-06	6.81177993083081E-06	8.81045224860236E-06	3.15263129839332E-06	0.993032942066007	-0.124927190986002
5.4	-0.00543456944076411	0.000973265415243777	2.71736038894414E-06	-3.14749206858482E-06	-2.68226475647874E-06	1.51101555841754E-07	0.993401607690138	-0.128249162616975
5.5	-0.00541305824905855	0.00138526524296323	2.11087215741013E-06	9.34577719855956E-06	-3.93169893515315E-06	-5.04974316499343E-06	0.992850985648756	-0.131724413635955
5.6	-0.00500993662588984	0.00130000579411355	-5.86963579777298E-06	-1.13870628118618E-06	4.88381552172515E-06	1.95066155854051E-06	0.992485374036221	-0.134167210354057
5.7	-0.00530310382955665	0.00117711629919255	3.34632982875779E-06	-1.42535953503838E-06	-5.05960228496618E-06	-4.30619033203367E-06	0.992338522002653	-0.136898594891377
5.8	-0.00572240995115917	0.00139142626836223	-2.05895615891019E-06	-4.76014421249457E-06	9.492453573666E-07	-5.83570311478532E-07	0.99216241609054	-0.139458376710725
5.9	-0.0062284662652729	0.00187251094899147	-3.88968666308564E-06	6.21381856190664E-07	3.87289324339496E-06	1.25237794985856E-06	0.99158068404333	-0.142151823860677
6	-0.00673850874568296	0.00300826081776051	-5.95397061436269E-06	5.05940282188154E-06	-1.48892255796577E-06	1.96517346954486E-07	0.990732953832682	-0.143237070510864
6.1	-0.00608129977116136	0.00401910650636585	-5.95104550187833E-06	-4.71411175397044E-06	-4.02143022177742E-06	4.3470785807437E-07	0.991649890080819	-0.144635947467762
6.2	-0.00545481773660354	0.00422767494003895	2.83394350524251E-06	3.13532869204502E-06	1.05743498712125E-06	7.24756001995869E-07	0.991694299195507	-0.146835063069142
6.3	-0.00495892679825092	0.00403292151806859	1.64644267896312E-06	-7.53023819171602E-07	-1.32061185038776E-07	1.3808243891224E-06	0.991235033367719	-0.14948781341947
6.4	-0.00498909501857348	0.00362370849547462	-5.20885299802543E-06	-5.63225613348909E-06	3.83746400006423E-06	6.92723748918459E-06	0.990314138966059	-0.151926471221961
6.5	-0.004993777510621	0.00377381851045653	9.10115104009685E-06	-2.6114268670477E-07	-7.35239057828478E-06	-8.91698218595685E-07	0.990255841007071	-0.154393378326185
6.6	-0.00472290655514233	0.00346546924687765	-1.49238283532167E-06	4.70750841081808E-07	3.36706784593335E-06	-9.41779804712022E-06	0.989882661853733	-0.157833751188415
6.7	-0.00484838066347124	0.00342911943737295	6.22476296649126E-08	7.7715073689675E-06	-5.06688818531586E-07	-6.10083424270223E-06	0.989021680412426	-0.160333489012891
6.8	-0.00489001058010068	0.00354262714517019	4.25988289478753E-06	1.65320674026503E-06	2.05891402643509E-07	-5.24737097228208E-06	0.988372617092684	-0.162725799168089
6.9	-0.00511665419428291	0.00370554809649575	-7.56611642047482E-07	2.49577897389485E-07	5.76724998530639E-06	-2.69511238972042E-06	0.987694982819801	-0.1650929548087
7	-0.00514707639464831	0.00458734109050554	8.03227988936808E-06	-4.7803157510498E-06	4.3107500598109E-07	-3.02773611864122E-06	0.986742781537363	-0.16677180022023
7.1	-0.00450893284093984	0.00469370856263003	3.85892045861351E-06	2.04049707135984E-06	7.8921447439404E-07	7.24463981157105E-06	0.98637048012283	-0.168668316918466
7.2	-0.00456198445788746	0.00463764927019409	-2.44556584518295E-06	3.70527805178297E-06	-1.34409023056087E-06	-3.83280711665705E-06	0.985572026575253	-0.170726141777521
7.3	-0.00485384033864094	0.00477635868733755	3.44561732479869E-06	-5.03988865744598E-07	-2.46016969044462E-06	-1.91522784048528E-06	0.984418873375729	-0.172803087350781
7.4	-0.0054947179115901	0.00497392028894415	-6.21001678426603E-06	-2.68284499630977E-06	3.7785242163665E-06	2.3432828762733E-07	0.983211607623755	-0.1758324564546
7.5	-0.00630514198259979	0.00608847098850886	6.73020980274715E-06	-6.46650734825045E-06	-2.47592277610035E-06	8.10881461312069E-07	0.980580678097629	-0.178463341816454
7.6	-0.00582194471997107	0.0071207877169766	3.49741171579702E-06	5.18912856296099E-06	-1.02194085105084E-05	4.95489547297368E-06	0.97970345781978	-0.180245483214181
7.7	-0.00559884718709249	0.00761979406737869	6.05082319963107E-06	1.09111351305715E-05	3.01693889684246E-07	-1.1347542506186E-05	0.979320044152531	-0.183195853879952
7.8	-0.00502356434161532	0.00790689188668109	2.15585032616377E-06	9.77138047555761E-07	-3.07934971949669E-06	8.81763751827773E-06	0.979005284925823	-0.186329207865205
7.9	-0.00439272876116339	0.00798536410786079	2.54312870893778E-06	-2.3161851575804E-06	3.68289697348309E-06	3.33263532763878E-07	0.978353071258056	-0.189473364928737
8	-0.00331301241460669	0.0082559214071408	-2.8068616647435E-06	1.33072211427475E-06	6.86413980984336E-06	-1.86421798670673E-06	0.977783983103662	-0.191026747696527
8.1	-0.00218559590904942	0.00741048499475988	-1.78962085562424E-06	7.5722377579234E-07	-3.70811739689627E-06	-1.24890234840663E-06	0.978791668157832	-0.19386622710785
8.2	-0.00193263283631368	0.00669361780720651	-7.83448896974919E-07	6.33417260659424E-06	4.88252848843979E-06	4.3449698129381E-06	0.978655287888913	-0.196948108954079
8.3	-0.00184326992177723	0.00624372457851559	-8.84052552272998E-07	-1.42081455485485E-05	6.8350038051536E-06	5.41136880964904E-06	0.9779708665197	-0.200082526485104
8.4	-0.00205313677375261	0.00600650382445032	3.75145657161479E-06	-3.43537469864819E-06	-6.97133098781497E-06	-1.20381970326746E-06	0.977009692027493	-0.20290056993353
8.5	-0.00209398954680286	0.00654273009216739	4.67435392188743E-06	5.75638656108652E-07	8.39736609572128E-06	-6.85018192935796E-06	0.9763483646193	-0.205598130467293
8.6	-0.00148684144988031	0.00638286163009371	-3.25617648086178E-06	4.12193046447257E-06	1.03541204832261E-06	1.10861798767322E-05	0.975635572823144	-0.208594819001728
8.7	-0.00149823630313568	0.00610386326173192	2.67652158253017E-06	-2.00376094938789E-06	4.76926169556994E-07	-5.54435839292806E-07	0.97483729906038	-0.211228807670574
8.8	-0.00160528248418837	0.00609393034448346	1.19243176423789E-07	-1.25227507605144E-06	-9.50328603876276E-07	9.76175620345383E-06	0.974024259056886	-0.213399645529476
8.9	-0.00177831185894389	0.0061896160294864	-3.65769125384804E-06	2.29790057755689E-06	4.82751147979658E-06	-1.81063665293933E-06	0.973683997409969	-0.215254337622728
9	-0.00166853958008248	0.00689344382922959	-1.889106207906E-06	5.00654960112974E-07	-3.22686011193031E-06	-1.05296649977934E-05	0.973224981630639	-0.217326263773437
9.1	-0.000740364301128546	0.00689734567712131	5.25097043986447E-06	5.79927333927243E-07	9.13327214985887E-07	3.80048444838306E-07	0.972853931971678	-0.21912146200818
9.2	-0.000162869884919754	0.00662837657894772	-8.73037157857526E-06	-4.55899985746832E-06	-8.93393533406621E-07	-6.12474664257404E-06	0.972497758451862	-0.221508733392994
9.3	0.000401550516786046	0.00623479727010458	2.02049740312713E-07	6.21435712533165E-06	4.6333087920514E-06	-2.20399826248016E-06	0.972244657148101	-0.224093027670656
9.4	0.000658479049901192	0.0055994854479843	-1.91202773526009E-06	5.88847841943196E-06	-1.0480582212695E-05	7.7685276778473E-06	0.971479319016914	-0.227527821878921
9.5	0.000854817391398474	0.00556659097093875	3.15901895402239E-06	-7.56746597862056E-06	3.67009002402884E-06	-2.74949011733323E-06	0.96977451542911	-0.230197156424333
9.6	0.0010533983192658	0.00475187406429471	4.50392400465341E-06	5.55740301060199E-06	-6.24165686576394E-07	7.06132029753395E-06	0.969081495429855	-0.23266020751842
9.7	0.000522040262827357	0.00431022780940185	-2.60818848704223E-06	-3.92716968549679E-06	3.67229349841474E-06	-7.51810950347541E-06	0.968345863626471	-0.23518974138058
9.8	-0.000115193461560083	0.0042762530525558	-5.31554665323937E-07	-4.20688469918396E-06	6.26724435099436E-06	8.76597823965583E-07	0.967747910934959	-0.237396391007869
9.9	-0.000856195575246414	0.00468300314497601	-2.68435417874978E-06	-5.89090394344602E-07	-8.47884532800127E-06	5.49039217162847E-06	0.966236581001718	-0.239109355880846
10	-0.00111063700497556	0.00589554689041364	4.27196877909252E-07	-1.74839673032066E-06	-3.08188769448933E-06	-7.95442394020637E-06	0.965554473094949	-0.238648496262966
10.1	-0.00048450403155626	0.00633139803166484	2.24496324227257E-06	4.7627630970088E-06	-3.09199198152194E-06	9.83808864971459E-06	0.966359363330735	-0.240218561943594
10.2	-0.000251898548270302	0.00653220028650219	-5.3776436770236E-07	-1.04663756262104E-06	-1.21010601690547E-06	-3.11075115043517E-06	0.965875598018399	-0.241858473108524
10.3	-6.07110431184796E-05	0.00677039968673021	1.12830915976853E-05	-2.93129412741085E-06	1.0034036300791E-05	-4.84000921449754E-06	0.965015867860355	-0.243568816888208
10.4	-3.07050411172507E-05	0.00710368542596525	-6.27049367098121E-07	2.14322843640424E-06	3.02446577314024E-06	-2.18059172408372E-06	0.963726600132947	-0.245178997584262
10.5	0.00045935522487126	0.00815210671367306	-6.10100807611335E-06	4.63408969120015E-06	1.56770730090422E-06	4.2993893408466E-06	0.96311615053681	-0.246785499227882
10.6	0.00170986372352159	0.0083087428254844	-7.08986422134454E-06	1.06627829547342E-05	7.0113230867309E-06	4.26070080538655E-06	0.9625061485024	-0.24886322892485
10.7	0.00270972677573441	0.00814335800687547	-3.20843553903873E-06	1.56188759310791E-06	-5.35789433039767E-06	3.16060865718007E-06	0.96225760302456	-0.250936708386868
10.8	0.00351095343639112	0.00759909661581659	-1.92778336922773E-06	4.97951666986123E-06	8.51875281290564E-07	-3.1958567268016E-06	0.962177271101372	-0.252982254013456
10.9	0.003651239129188	0.00708934128515713	-5.72958070348754E-06	-1.05141259369758E-05	4.91210932212505E-06	1.06917621170626E-05	0.961863561371871	-0.255090452327428
11	0.00410695441568033	0.00735114680830571	2.95942929405419E-06	2.61359653307996E-06	7.96052411090178E-07	-1.12181212794516E-05	0.961321321041986	-0.256417247639095
11.1	0.00496037803291893	0.00667366948860776	3.84994759662301E-06	1.45811233826797E-06	2.6075526622592E-07	-7.36038519691129E-06	0.961259477955922	-0.257977147495062
11.2	0.00515190210816841	0.00597201950610094	-4.40642384781152E-06	-1.97142830713026E-06	-7.30566055867805E-06	-4.84800375745271E-06	0.960899346422693	-0.259980891569205
11.3	0.00522783823684442	0.00536538344052671	6.66788885570176E-07	-6.36716762656177E-06	3.74991849544849E-06	1.41193186248097E-05	0.960664018865563	-0.262347921552078
11.4	0.00493949036213271	0.00489235019691764	-5.11155207140834E-06	8.12685163892568E-06	-1.45779425958215E-06	4.0693111502343E-06	0.959531916808172	-0.265844039219087
11.5	0.00493722819759247	0.00509971863194158	4.50804949734416E-06	8.0700639070823E-06	-9.26088386251461E-06	1.57385804252958E-06	0.957179338343714	-0.268229580727258
11.6	0.00528828144388532	0.00434888634212792	-3.83160281943894E-06	1.39247337340399E-06	5.05415982214831E-06	8.11733447218514E-06	0.95644050612225	-0.270937478265237
11.7	0.00483179417588643	0.00376603001973971	2.22971884047607E-06	1.05019556211816E-05	5.43665747966603E-07	-3.63835117453987E-06	0.955393028354828	-0.274678732958456
11.8	0.00430352336556168	0.00373686217824364	1.42007328951686E-06	4.4506979328037E-06	2.23877530354516E-06	4.5254010476472E-06	0.953786598956824	-0.278348970370679
11.9	0.00392743381148724	0.00428175504653151	7.4042997697008E-06	1.05422930778153E-05	3.86876444090707E-06	4.09301779940356E-07	0.951794081492635	-0.280076270187733
12	0.00462118207268317	0.00545137613875852	2.36212128421472E-06	-5.13323086455208E-06	-4.08267857857099E-07	1.7448278583834E-06	0.951296167520198	-0.279302326527372
