# GHZ S RI R 50
0.2	0.000899845747724885	0.00232825000059249	4.79409419796017E-06	-2.98480037500939E-06	-1.37284001138431E-05	1.3119358337932E-05	0.999670407448151	-0.00694325967877614
0.3	0.00133828234571918	0.00157512964624501	2.86557223019865E-06	6.62713839820914E-06	-1.6630332691218E-06	-9.32180752014878E-06	0.999598457409443	-0.00987949066371748
0.4	0.00160319213948513	0.0011014633811355	-1.86306368498686E-06	-4.01679051612279E-06	-9.01747966315673E-06	4.40483569758025E-06	0.999612995632404	-0.0126127196102327
0.5	0.00175967522273426	0.000715420706445605	-5.3591363514121E-06	3.26498824684871E-06	-2.12554195979325E-06	6.7592409276505E-06	0.999280987463761	-0.0158249806090419
0.6	0.00187279479653941	0.000286231694665499	-1.39276148903357E-07	2.80613249831605E-06	-5.81553952735146E-07	-1.34039367073761E-07	0.999211983337052	-0.0186269135594378
0.7	0.00178059603896508	-2.30677419176967E-05	8.80516890510357E-08	2.21945763965074E-06	4.90408674953415E-06	-3.40238916092144E-06	0.99889299403661	-0.0214615669041652
0.8	0.00172456644862747	-0.000258277955800079	4.52952886074699E-06	8.26197834986023E-07	2.74460907400395E-06	2.00102074931385E-06	0.998695167542497	-0.0235427489178538
0.9	0.00156710444867879	-0.000447882030896452	-1.51534503903976E-07	-4.21974358447341E-06	-3.41883132311107E-06	-3.110821967597E-06	0.998671446871792	-0.0258784001549202
1	0.00142338335566925	-0.000500599896949032	1.06042295390251E-06	4.29382462718062E-06	3.32851879487193E-06	9.34035723168912E-07	0.998559941924244	-0.027540739073736
1.1	0.00137261393075621	-0.00073112566859284	9.04661159068663E-06	5.1731053938892E-07	-3.5796109967458E-06	-4.98984389076048E-07	0.998243035283412	-0.0297907863180504
1.2	0.00108026573225019	-0.00134116894480832	3.76151515483555E-06	-1.20083452038707E-06	-4.09824879088306E-06	-2.43748780855515E-06	0.997444318855358	-0.0309501775076304
1.3	0.000474210540580342	-0.00226556587079446	-7.62441882893918E-07	-1.42680124187589E-06	-2.59164981683524E-06	-8.70748082298632E-06	0.997400482925055	-0.0319672820475456
1.4	-0.000341476986300261	-0.0032485112973699	1.67803925359932E-08	3.44805887087485E-06	-4.28531154668728E-06	-4.12476694703402E-06	0.99699370492022	-0.034187234765354
1.5	-0.000811218066689314	-0.00367229349974877	-1.2946629822103E-06	4.4310167638419E-06	6.54701577004456E-06	-7.41915455631167E-06	0.997335519214693	-0.0375322091070522
1.6	-0.0011004863691577	-0.00382859866111801	1.62928863742489E-06	-4.90205543876242E-07	4.23869322577202E-06	-5.39712707911655E-06	0.996796862047746	-0.0407539444751153
1.7	-0.00126857125059525	-0.00370649257677594	5.33629507612381E-07	3.95732479858128E-06	-8.28346115346897E-06	3.1343318891646E-06	0.997167615909224	-0.0430285455414623
1.8	-0.00134394098575955	-0.00351440171104874	1.83305024239662E-06	1.07769453948223E-06	5.64730366458538E-07	-1.76227894730778E-06	0.997248571318586	-0.0456345606564193
1.9	-0.0014332471608839	-0.00341212162886697	3.23721033506509E-06	3.01727874997944E-06	-1.83655565388273E-07	-2.33048952853048E-06	0.997126124880612	-0.0477763886185211
2	-0.00141669739498192	-0.00330856153852712	-1.72840305702944E-07	2.004859162865E-07	-1.21685456821846E-05	5.41855978644712E-06	0.99690250442166	-0.0502609722236907
2.1	-0.0014923858749341	-0.00358136684407847	6.67975611716448E-07	-1.38343681096637E-06	1.38190269789107E-05	4.96277783227452E-06	0.996823716154115	-0.0527927604919158
2.2	-0.00189447861889501	-0.00373504039003284	1.6442306936295E-06	-1.51861747988905E-06	2.6836089887163E-06	-6.21520225635634E-06	0.996634532313877	-0.0552597368958692
2.3	-0.00242742829356178	-0.00379546664434565	-1.69070302450672E-06	-3.42680547241874E-06	-1.79484455479494E-06	-4.59196960574646E-06	0.996223240643999	-0.0570265161507905
2.4	-0.00306223024010187	-0.00370366134221344	-1.20700888546876E-06	-4.40095708975294E-06	3.04781683621094E-06	1.08448058048331E-06	0.996152000927809	-0.0600679727097752
2.5	-0.00358063788235163	-0.00328707090200797	5.38794274411046E-06	5.66546455277069E-06	-2.59528295494474E-06	1.61522491748371E-05	0.995702553935162	-0.0622789476912473
2.6	-0.00377429932596845	-0.00301806345163255	-2.2751076324059E-06	2.71324486453904E-06	4.31200367641149E-07	-4.31189009272199E-06	0.995665344341148	-0.0650068662674667
2.7	-0.00392113285627692	-0.00278489272286923	-2.40865992920055E-06	-3.63614180032914E-06	2.15386868028921E-06	-2.57199653637843E-06	0.995376083138064	-0.0678767316880106
2.8	-0.00399318925654707	-0.00258817500971189	4.00427063915103E-06	2.31072669554085E-06	9.83411768884329E-06	-6.92158878473801E-07	0.995646591259366	-0.0698720268639944
2.9	-0.00396319981271547	-0.0023806692801129	1.28856745187652E-05	7.0417539833507E-07	2.43546857273697E-06	-1.17215952101E-05	0.995473340385736	-0.0719663333039587
3	-0.0036942432650632	-0.00221689718378072	-3.85452966372236E-06	1.04920387190702E-06	-4.1480471432549E-06	-1.59688495776085E-06	0.995376315124291	-0.0745354075746254
3.1	-0.00347496405430082	-0.00244110681340323	4.77711823585028E-06	-9.84997340526078E-06	1.06888238693118E-05	2.40635508774401E-06	0.995077317554106	-0.0765452083358385
3.2	-0.00356907017249063	-0.00264466564447906	-5.37704494558859E-06	-7.4098491925676E-06	1.56474487832188E-05	5.38098692987784E-06	0.994871875914903	-0.078384171001786
3.3	-0.00376823012826117	-0.0028108267550256	-8.79564049382314E-06	2.55187070555889E-06	-8.57124347895041E-06	-1.73620700364401E-06	0.994696407049982	-0.0817257438563146
3.4	-0.00414450151668107	-0.00286638239609435	9.05829769728679E-06	-7.57242927980755E-06	-7.34547283641709E-06	4.24268254748069E-06	0.994599423233981	-0.0838791559477844
3.5	-0.00437906396001097	-0.00279039774279637	3.13921174384268E-07	-5.32242568825389E-06	-4.4071744752904E-06	-8.92650968821037E-06	0.994144599579029	-0.0866969400622624
3.6	-0.00469771783553392	-0.00295053806961033	4.07513351296941E-06	4.89790575291045E-06	-7.10285950373875E-06	8.99743088842435E-06	0.993870409781292	-0.0890690103793737
3.7	-0.00528226449001195	-0.00286511747496528	1.52543529491801E-06	-4.52791058896579E-06	-5.10727368106354E-06	-6.58371389623779E-06	0.993788811489247	-0.0917630451224983
3.8	-0.00580659909839377	-0.002506793635122	7.27587640643397E-06	-5.20051116873566E-06	-5.88124297828797E-06	-2.41473458418149E-06	0.993470285357341	-0.0938617053406473
3.9	-0.00609945614334282	-0.00189582575776704	-4.0293481363589E-06	-3.48051160475314E-07	-2.52976161730677E-06	1.13414294362303E-06	0.993375113925713	-0.0969474781590671
4	-0.0058616853089774	-0.00126460664790905	-3.38481291881791E-06	-8.12048220174563E-08	1.20705578760442E-06	8.67101613850294E-06	0.993449515659627	-0.0983161856980458
4.1	-0.00554353871418853	-0.00126020160211422	-2.90391208228565E-06	-3.86030142439223E-06	5.88310896587647E-06	3.03511157585335E-06	0.99330177981997	-0.100693792765582
4.2	-0.00560743110840829	-0.00129787668869316	-7.7509231403349E-07	-2.15676774734486E-06	5.69927028083293E-06	-1.84852878377847E-06	0.992411635606352	-0.103466268099886
4.3	-0.005776831595772	-0.00119430166043511	-5.08338752447912E-07	3.23541391015797E-06	2.13097850106181E-06	1.77835682579054E-06	0.992035677236328	-0.105403991437743
4.4	-0.00606247676036808	-0.000929397655942268	2.57925764072486E-06	3.43946713140992E-06	7.18513404152179E-06	3.90526772321991E-06	0.991579853817118	-0.107686871642528
4.5	-0.00602404961585578	-0.000396665434495124	-6.47045272732439E-06	-2.2219866892136E-07	-8.5801346776844E-06	-2.10214844857739E-06	0.991403941518287	-0.10989007859352
4.6	-0.00596899148792669	-0.000378609269587188	-9.94688494464678E-06	-9.20790263101952E-06	3.23038369362322E-06	-2.73191877904981E-06	0.990859194170818	-0.112699692057863
4.7	-0.00613668022399636	-0.00024894149524591	1.27621722803055E-07	1.86346207650615E-06	6.04976077308812E-06	-6.73368003822631E-06	0.990681729060938	-0.114585621131136
4.8	-0.0063221438063495	-1.4674904818787E-05	-6.38727056611783E-06	2.08256718566047E-06	7.73456098030934E-07	-1.27377103795691E-05	0.990349728303004	-0.116995180033778
4.9	-0.00642037054737773	0.000336237787624091	-3.41691110521184E-06	8.13916279750889E-06	5.70568041318165E-07	9.36883791678799E-06	0.990031557389011	-0.118818729319756
5	-0.00608044176025159	0.000703104948246345	9.63183904965182E-06	-4.06600335875491E-06	-6.92735689160363E-06	3.58021713357029E-06	0.989950300856601	-0.120526993942667
5.1	-0.00578796555573486	0.000506930554427898	-3.68305523572834E-07	-3.24916796599294E-06	-3.8722430225583E-06	-1.78872775968395E-06	0.989839559505069	-0.121987428786332
5.2	-0.0057946579353168	0.000501714614920405	-1.06896068521528E-06	-4.48314450263608E-06	8.7833557226754E-06	5.5686185981775E-06	0.989669758324595	-0.124131745312289
5.3	-0.0057304414903511	0.000652979668298427	2.28924091532303E-06	6.78777498678389E-06	8.79123113889892E-06	3.126499423525E-06	0.989634181022772	-0.126527250457448
5.4	-0.00560359906104343	0.000893278651818969	2.70225630759111E-06	-3.14246361753078E-06	-2.67314660329554E-06	1.55859639364991E-07	0.989645860032411	-0.129671026544655
5.5	-0.00514177101936318	0.00112446599039189	2.11495672496041E-06	9.30809953413701E-06	-3.92346170300664E-06	-5.025806197649E-06	0.989104652492214	-0.132611592684764
5.6	-0.00506327933249745	0.000676971089202286	-5.85087427118284E-06	-1.12924936251833E-06	4.86916322022106E-06	1.93940045638843E-06	0.988778962380789	-0.135067510721562
5.7	-0.00555876905351791	0.000678350960290764	3.33363523924948E-06	-1.42338419737178E-06	-5.04601713548999E-06	-4.28705455551502E-06	0.988431460623469	-0.137529231917531
5.8	-0.00604951510445122	0.00100026999897026	-2.05433408487749E-06	-4.74220277284893E-06	9.45571488441486E-07	-5.82038165032576E-07	0.988181253170481	-0.13964468592975
5.9	-0.00658105173171383	0.00169603985568992	-3.87666170255767E-06	6.19192480510629E-07	3.85987356621578E-06	1.24828426559872E-06	0.987897721498048	-0.14162211088931
6	-0.00657079994717153	0.00286690841559164	-5.93775274420958E-06	5.04697311374404E-06	-1.48500778413018E-06	1.96200323904992E-07	0.988252864059276	-0.143082855012232
6.1	-0.0060773629003516	0.00325270099418184	-5.93394777513342E-06	-4.69709738458976E-06	-4.00857918790884E-06	4.34776480845006E-07	0.988285931880983	-0.145276273331336
6.2	-0.00592017512398187	0.00342021490649519	2.82398940640996E-06	3.12521839463461E-06	1.0537845276764E-06	7.22476533527039E-07	0.987660346926345	-0.146937009298264
6.3	-0.00573772637133149	0.00349500257950684	1.64156710869228E-06	-7.49762290655243E-07	-1.32354332572695E-07	1.37633970533508E-06	0.987069142714945	-0.148908597572711
6.4	-0.00569591960583832	0.00353297293846606	-5.19128384068982E-06	-5.61906545941025E-06	3.82309290505894E-06	6.90969374727455E-06	0.986604459834325	-0.15091454959183
6.5	-0.00515883316979782	0.00353782034834281	9.07263504528627E-06	-2.61201621524924E-07	-7.32946003698124E-06	-8.88198757829621E-07	0.98665474352338	-0.154029441704343
6.6	-0.00514322519909678	0.00300136717519053	-1.48723977266326E-06	4.68330932644384E-07	3.35952580119054E-06	-9.38226165779302E-06	0.985692477704765	-0.156915842996011
6.7	-0.00533751668803117	0.00309049309466868	5.51384662170068E-08	7.74530426252156E-06	-4.99561050261882E-07	-6.08067054017673E-06	0.985148152496524	-0.158870971119292
6.8	-0.00540752709676243	0.00333840283440909	4.24462090486574E-06	1.65273570869848E-06	2.11079329109412E-07	-5.23060721889678E-06	0.984825011503983	-0.160941551297299
6.9	-0.00550924231288115	0.00383312791362066	-7.54694915616693E-07	2.47868205512454E-07	5.75365786268721E-06	-2.67973631107642E-06	0.98456513871074	-0.162890847967728
7	-0.00485351788860984	0.0045446506937626	8.01641025897464E-06	-4.75514925926896E-06	4.34228771841893E-07	-3.01852656710356E-06	0.984393421694104	-0.164688357223279
7.1	-0.00450198183870092	0.00414913985470704	3.84522829387626E-06	2.04129496170247E-06	7.75300585237976E-07	7.22645497315374E-06	0.983841182708409	-0.166840535480155
7.2	-0.00479893706889763	0.00415660581146023	-2.44565781591501E-06	3.69135904820672E-06	-1.3339028629142E-06	-3.82516629715512E-06	0.982958761447876	-0.168634279378472
7.3	-0.0052381119323411	0.00443097379473301	3.43735828699339E-06	-4.96297814227967E-07	-2.45008179854233E-06	-1.91465295580948E-06	0.98172854768217	-0.170410394539295
7.4	-0.00594841074916671	0.00503393644747786	-6.18494244834717E-06	-2.68792426336622E-06	3.76628639246991E-06	2.41759618923992E-07	0.980221567835288	-0.172631033634157
7.5	-0.00601113406066524	0.00642929357800046	6.73279225502294E-06	-6.42374792004096E-06	-2.47139210120265E-06	7.99815337213409E-07	0.978846690780907	-0.173809067436941
7.6	-0.00535822931023848	0.0068523168298458	3.47168178495901E-06	5.19170001566619E-06	-1.02174385090766E-05	4.90800638828073E-06	0.979202280871165	-0.176345618284772
7.7	-0.00515316206413359	0.00715908658785578	6.00018747459724E-06	1.09148235584722E-05	3.43080121993835E-07	-1.13270274389298E-05	0.979055416714734	-0.179548295285029
7.8	-0.00465264680181625	0.00727304064330976	2.14882791627566E-06	9.84212631483028E-07	-3.1096322858009E-06	8.79253562018347E-06	0.978940865850407	-0.182712375001193
7.9	-0.00402130301736744	0.00735336240306932	2.55079051714449E-06	-2.30239118107662E-06	3.67752940532662E-06	3.49355094996866E-07	0.978753115896729	-0.185547460116625
8	-0.00264753499211042	0.00704637166705684	-2.81348478764314E-06	1.31897710170071E-06	6.87431785639917E-06	-1.83506919886403E-06	0.979628748946412	-0.188072144381775
8.1	-0.00224125474346087	0.0058622744946629	-1.79264456232142E-06	7.51214387012997E-07	-3.70464855853587E-06	-1.26199626521282E-06	0.979540011878741	-0.192011566129892
8.2	-0.00245574455739562	0.00528974401065733	-8.05061579685403E-07	6.33205907182662E-06	4.86817477903756E-06	4.3619549345578E-06	0.978787845825593	-0.194877850604178
8.3	-0.00274084457157426	0.00510934098242188	-8.36072731581975E-07	-1.421433425957E-05	6.81818946696112E-06	5.43576093703875E-06	0.977892827339371	-0.197730044710853
8.4	-0.00310784022527843	0.00544330942431097	3.76381796710201E-06	-3.42530353347873E-06	-6.97076998437629E-06	-1.22598790878939E-06	0.976985432311361	-0.200290367417807
8.5	-0.00259255040671154	0.00613453912149558	4.67260856302388E-06	5.88752421399917E-07	8.4163764710963E-06	-6.82640666355359E-06	0.97636705024464	-0.203033440344173
8.6	-0.00223605676178272	0.0057231087857393	-3.27039394475691E-06	4.11108285651519E-06	9.9773461292917E-07	1.10903397671866E-05	0.975614801758337	-0.20569120745474
8.7	-0.00244549728700063	0.00567022151592569	2.68506678113548E-06	-1.99547721087261E-06	4.79142657371034E-07	-5.53070530277584E-07	0.975181657060698	-0.208074929039907
8.8	-0.0026410822126194	0.00592765571488738	1.23668536370626E-07	-1.25317478014036E-06	-9.84846993937329E-07	9.76869815133338E-06	0.974796295768635	-0.210172467459094
8.9	-0.00277164145354099	0.00648894959501946	-3.6701777671453E-06	2.28976790394725E-06	4.84016362970966E-06	-1.79813548321536E-06	0.974860535841064	-0.212007701350004
9	-0.00199138668056961	0.00735461301164876	-1.89313612135658E-06	4.95549335198205E-07	-3.19897954137288E-06	-1.05534594408227E-05	0.974874300777445	-0.214026440867246
9.1	-0.000979282761850328	0.00705909506793364	5.25823750906912E-06	5.98002394134687E-07	9.1368395142567E-07	3.83678897865922E-07	0.975003863360472	-0.215988907471936
9.2	-0.00029460343890704	0.00676213390410861	-8.73384434503024E-06	-4.5945753936733E-06	-8.76555888135509E-07	-6.13961606592605E-06	0.974946632369393	-0.218650497965157
9.3	0.000372095922388805	0.00628390402176782	1.84792066070784E-07	6.22715917245727E-06	4.64868742343159E-06	-2.19517165476607E-06	0.974742707910569	-0.221495086331393
9.4	0.000778611829590499	0.00573230511288255	-1.93149486902912E-06	5.89303693559918E-06	-1.05195658047219E-05	7.75255135585043E-06	0.973835931653274	-0.224847100758022
9.5	0.0014472343155974	0.00528706918172088	3.19036111772774E-06	-7.5689751855279E-06	3.68561974429973E-06	-2.74132089232625E-06	0.97274424490707	-0.227218527793823
9.6	0.00127830914556689	0.00407362810721107	4.49575781921076E-06	5.58573930376072E-06	-6.49512431317313E-07	7.07586572060621E-06	0.97241930176349	-0.230271226569839
9.7	0.000576064594917409	0.00366511989353842	-2.60245918969494E-06	-3.94539052934967E-06	3.70533436580351E-06	-7.52568998320445E-06	0.971729482958449	-0.233030804592897
9.8	-0.000126349069847428	0.00367219851006731	-5.19622977212973E-07	-4.21986855101763E-06	6.2812888830449E-06	8.98853213630851E-07	0.971283792120651	-0.235242996363951
9.9	-0.000803438681469458	0.00423384479637879	-2.69086176135323E-06	-6.00357863672132E-07	-8.52510732198807E-06	5.47826506498291E-06	0.970424912064165	-0.236703594275721
10	-0.000521884581222983	0.00510659006700968	4.33907169293841E-07	-1.7548391655286E-06	-3.07328037023608E-06	-7.99766541176762E-06	0.971141695345648	-0.237580842712691
10.1	-0.000360261447729907	0.0048776615242933	2.24456178910742E-06	4.7864665289673E-06	-3.12404419745814E-06	9.87168241143234E-06	0.971002792453493	-0.240412425193157
10.2	-0.000729994856554458	0.00504646904612779	-5.38024610334441E-07	-1.05195763926178E-06	-1.20927913491604E-06	-3.12583740969963E-06	0.970041569527192	-0.24222512475186
10.3	-0.00102677122095133	0.00560211689854204	1.13383155593419E-05	-2.92727750849727E-06	1.00865517005491E-05	-4.8464829281207E-06	0.969024981947834	-0.244110591082216
10.4	-0.0010862476677194	0.00659253154537476	-6.31696769910643E-07	2.15332126917294E-06	3.04094107595458E-06	-2.18912243648882E-06	0.967855010642858	-0.246058075250435
10.5	1.33097534011826E-05	0.00776313651274302	-6.12645245492615E-06	4.65673721088725E-06	1.57614055946602E-06	4.3179061305133E-06	0.966986518784273	-0.248542971965337
10.6	0.00118781736492706	0.00769732370677285	-7.11596042098214E-06	1.0709127916636E-05	7.04167411365952E-06	4.27619828286138E-06	0.965929473280771	-0.250676544651676
10.7	0.00211218173184572	0.00756369198477688	-3.22135035174178E-06	1.57045066256111E-06	-5.37914452280607E-06	3.17728603067653E-06	0.965658366824226	-0.25293574920859
10.8	0.00279726030141608	0.00714379002023897	-1.93154844055966E-06	5.00325893043653E-06	8.52595631360019E-07	-3.21072928888699E-06	0.965477920400738	-0.255161593305943
10.9	0.00301659303434933	0.00700980852602791	-5.76977991903239E-06	-1.05525939734118E-05	4.94893982604066E-06	1.07321698025204E-05	0.965185708780272	-0.25732197061391
11	0.00408314005480957	0.00713632073625303	2.97575542078357E-06	2.61966949457402E-06	7.81557593875414E-07	-1.12655731548386E-05	0.964849150059583	-0.258757486539466
11.1	0.0046945303574958	0.0061137635820485	3.86862098705703E-06	1.4580878118087E-06	2.49995055945677E-07	-7.39201163950788E-06	0.964786942085384	-0.260529920224649
11.2	0.00472396171230382	0.00548718435687689	-4.42891559288256E-06	-1.97136188149937E-06	-7.34597611922986E-06	-4.85460220214906E-06	0.964393786721806	-0.262715704741932
11.3	0.00469726073709595	0.00506201134414686	6.55203100478112E-07	-6.39404423425144E-06	3.79645556664142E-06	1.41672211230166E-05	0.96387830747473	-0.265187140783376
11.4	0.00446909951817352	0.00494727144125188	-5.10971485233586E-06	8.16675748485194E-06	-1.45311034070633E-06	4.08667648459314E-06	0.962346137347583	-0.268476366967718
11.5	0.00503643638429992	0.00501042893224486	4.53736522166311E-06	8.09061484469161E-06	-9.29053037215904E-06	1.59494657983849E-06	0.96076927148874	-0.270526060589071
11.6	0.00515066614484389	0.00396195165074968	-3.8440320578107E-06	1.40636038473325E-06	5.09205729701091E-06	8.13912074254283E-06	0.960189599672412	-0.274131613710657
11.7	0.00458001536838286	0.00354224609526085	2.26582874565259E-06	1.05372867664966E-05	5.36311851033605E-07	-3.65402215630533E-06	0.958863243175898	-0.278213365704844
11.8	0.00412883631316834	0.00375368457428935	1.4377325183042E-06	4.46360503162618E-06	2.25973637927792E-06	4.53632989918002E-06	0.957131451019	-0.28192813641598
11.9	0.00415929795007992	0.00460436084165254	7.46202163867218E-06	1.05659945278381E-05	3.88561988139329E-06	4.00877755472337E-07	0.95566621279167	-0.283500405442304
12	0.00576146845101078	0.00526197670372238	2.35532902869623E-06	-5.16789470260755E-06	-4.03958182784769E-07	1.75516745078537E-06	0.956350659210817	-0.284430969772321
