# GHZ S RI R 50
0.2	0.00120030681729922	0.0026077373775235	4.78782705398763E-06	-2.98574039986887E-06	-1.37071257192035E-05	1.31181451683997E-05	0.998971276362368	-0.00750363325683634
0.3	0.00161899280838262	0.00173668941759674	2.86750079990561E-06	6.61838565756573E-06	-1.66812956751952E-06	-9.31121549328221E-06	0.998724551214375	-0.0105427075115753
0.4	0.00180910479240763	0.00104784512823605	-1.86296103698311E-06	-4.01048083905767E-06	-9.00318612890874E-06	4.40431564246988E-06	0.998404283876414	-0.0133007924257397
0.5	0.00152048884586027	0.000820490879745445	-5.35282059070834E-06	3.26230340766707E-06	-2.12217220912704E-06	6.75226325666709E-06	0.998044586450056	-0.015930934455849
0.6	0.00194070375556335	0.00075543573669542	-1.37414074329453E-07	2.80366588396865E-06	-5.8110780456186E-07	-1.3355778523257E-07	0.998572549162656	-0.0190872440429462
0.7	0.00205005713211646	0.000353995557351021	8.96701544271948E-08	2.21663965954468E-06	4.89536331867437E-06	-3.40199147028252E-06	0.998040081312667	-0.0223847564702609
0.8	0.00212102661707706	3.13629265727431E-05	4.52329317501848E-06	8.21379058908905E-07	2.74201082227215E-06	1.99582004879589E-06	0.997525562039649	-0.0246887332504124
0.9	0.00213425745632368	-0.000434003426072702	-1.54414943912612E-07	-4.21170383473702E-06	-3.41474292645967E-06	-3.10241446580698E-06	0.997051012156663	-0.0272574777995309
1	0.00151370429139632	-0.00095962437012361	1.05958590352884E-06	4.28391155482414E-06	3.32145533770307E-06	9.30783779014796E-07	0.995958305611174	-0.0286403916462002
1.1	0.00118327702142478	-0.000736655014635198	9.02731278828858E-06	5.14784343590774E-07	-3.57202087327686E-06	-4.9735437011162E-07	0.995714587244384	-0.029983871389207
1.2	0.00100804396670133	-0.0012668632913009	3.75302071779999E-06	-1.19849412251349E-06	-4.08932955539507E-06	-2.43168587000206E-06	0.99519146838296	-0.0309487543163777
1.3	0.00048489925371892	-0.00215462829097294	-7.60763588380127E-07	-1.42366547550342E-06	-2.58593951992194E-06	-8.68834091577606E-06	0.995527853479189	-0.0319257746870963
1.4	-0.000236951888640137	-0.00324791705242274	1.68241625073882E-08	3.44106072405708E-06	-4.27670768999675E-06	-4.11629909025539E-06	0.995523946078912	-0.0345167722874734
1.5	-0.00101221265302882	-0.00345714094281768	-1.29166875929609E-06	4.42223556029318E-06	6.53320966895791E-06	-7.40484178502806E-06	0.995741283189236	-0.0379127232570988
1.6	-0.000933765848516041	-0.00336593081661058	1.62594054501714E-06	-4.8912139722758E-07	4.23016113061549E-06	-5.38578288608295E-06	0.995487207038151	-0.0412162626075709
1.7	-0.00101610640098335	-0.00336151893258764	5.31750402661708E-07	3.9491278925602E-06	-8.26669082351028E-06	3.1261677441116E-06	0.995627144594231	-0.0436110281669404
1.8	-0.00109760320585716	-0.00325022628885507	1.82889109187794E-06	1.07588025106494E-06	5.63984732885881E-07	-1.75840094948524E-06	0.99547345582149	-0.0461779515816195
1.9	-0.00131481074599086	-0.00333061205200055	3.22950883109347E-06	3.01054514344798E-06	-1.83059918564995E-07	-2.32511832789726E-06	0.994909302052445	-0.0484930303514951
2	-0.00182553385243671	-0.00298417987372887	-1.72352960255369E-07	1.99765805862805E-07	-1.21309138878127E-05	5.3962341936673E-06	0.99341122236015	-0.0501339386963558
2.1	-0.00159011243808735	-0.00274885091656366	6.67778964194036E-07	-1.37826370417002E-06	1.37696592702145E-05	4.96609274227276E-06	0.99415060691989	-0.0513742374735818
2.2	-0.00168356903246557	-0.00291521727430976	1.64194222189043E-06	-1.51170314288137E-06	2.68576142829147E-06	-6.19327867589978E-06	0.994497112791186	-0.0538878035210263
2.3	-0.00198924858182619	-0.00309919946876345	-1.67985062611976E-06	-3.42026238529721E-06	-1.78161652733322E-06	-4.5823595023434E-06	0.994195284087691	-0.0557001128638195
2.4	-0.00248705838143419	-0.00336546453901689	-1.19432811767728E-06	-4.3914607993417E-06	3.03715107049441E-06	1.0879971885037E-06	0.994064510127732	-0.058667498642794
2.5	-0.00351475523259827	-0.00322744242994058	5.36143582396249E-06	5.66554358895832E-06	-2.62903272199065E-06	1.6108235456758E-05	0.993549092465619	-0.06044672158665
2.6	-0.00380574650055621	-0.00254712081002507	-2.27639279228764E-06	2.70197148952475E-06	4.40268839197984E-07	-4.30137428299255E-06	0.993882317911046	-0.0628214536068658
2.7	-0.00378773912397126	-0.00222877725536549	-2.39387061299243E-06	-3.63387600186794E-06	2.15543539017939E-06	-2.56059556680278E-06	0.993884295695796	-0.0654792879440212
2.8	-0.00372954645055529	-0.00211343513822826	3.98852414924534E-06	2.31690841966034E-06	9.81365877772554E-06	-6.62449141408974E-07	0.994427732291578	-0.0673687122969408
2.9	-0.00376624258493619	-0.00214124050468735	1.28557170067987E-05	7.43646020168584E-07	2.4675125183337E-06	-1.16886349852547E-05	0.99434004307605	-0.0694288573131611
3	-0.00395009897238187	-0.00183933461415322	-3.85046804775422E-06	1.03486869566521E-06	-4.13496546295381E-06	-1.60706822453391E-06	0.994205592618802	-0.0717683595861014
3.1	-0.00355486014427997	-0.00171919063005449	4.79945374379813E-06	-9.81280769008065E-06	1.06577070119582E-05	2.43660443942897E-06	0.994078477184616	-0.0735423461953335
3.2	-0.00353348049630749	-0.00190086074211496	-5.33835183190044E-06	-7.4142032866555E-06	1.55947223251168E-05	5.42759588158944E-06	0.994024285544053	-0.0752656519139168
3.3	-0.0036374869621787	-0.00209470463257346	-8.78959559425106E-06	2.51176907647451E-06	-8.5483706616895E-06	-1.76745625237221E-06	0.99405577047853	-0.0784721426049074
3.4	-0.00402390546497051	-0.00234327651429756	9.07794081407843E-06	-7.52392041226091E-06	-7.35339382194184E-06	4.20592485040125E-06	0.994278735033706	-0.0806253998004334
3.5	-0.00468510161608471	-0.00214799510739366	3.33732065440964E-07	-5.31571880946742E-06	-4.36883254275272E-06	-8.93392686634266E-06	0.993798868221285	-0.0836422811827117
3.6	-0.0047808896964424	-0.00192447325730254	4.05062936385813E-06	4.90789764923068E-06	-7.12957524335826E-06	8.95802254792287E-06	0.993651766920666	-0.0857392100850339
3.7	-0.00513725640282513	-0.00188291762006791	1.54300956435196E-06	-4.51700203729426E-06	-5.07447330015273E-06	-6.59872582677564E-06	0.993792667914572	-0.0884560438149829
3.8	-0.00555319741874965	-0.00167424696245494	7.29315011132974E-06	-5.16596622165462E-06	-5.86697428882008E-06	-2.43819212408301E-06	0.993501055563247	-0.0906140013889922
3.9	-0.00594253569034351	-0.00133072815723477	-4.02558473206935E-06	-3.6430879605324E-07	-2.53292445057375E-06	1.1231497626903E-06	0.993036780770741	-0.0937498517955506
4	-0.00622077390608052	-0.000519285556958366	-3.38095922603853E-06	-9.64855200051514E-08	1.16645358391655E-06	8.66756729719627E-06	0.992357886783135	-0.0937389222039997
4.1	-0.00564063149788937	-5.76235392780857E-05	-2.88302912904592E-06	-3.87414476823311E-06	5.86557880907636E-06	3.06463433480402E-06	0.993817930217604	-0.0950259711613318
4.2	-0.00540913286838108	-0.000116781904297598	-7.64146943137705E-07	-2.16126324432853E-06	5.71011986043674E-06	-1.81955950912072E-06	0.993931958949219	-0.0980819129651212
4.3	-0.00538646102399058	-0.000188222722484892	-5.25373647034906E-07	3.23469632796111E-06	2.12303942906793E-06	1.79042965973166E-06	0.994098425321455	-0.100296854296819
4.4	-0.00568689526207295	-0.000320619795236042	2.56323120210368E-06	3.45676986436111E-06	7.17112312528947E-06	3.94788657837142E-06	0.994000058003684	-0.102722089796362
4.5	-0.00627084759151557	0.000166303598961363	-6.48276582234125E-06	-2.58547284225525E-07	-8.58643849901513E-06	-2.15413233309852E-06	0.994567504748138	-0.104731934147898
4.6	-0.00620301614610459	0.000605436795164457	-9.93014231991817E-06	-9.2801164418741E-06	3.25212005490652E-06	-2.72398951174652E-06	0.994962255149492	-0.108226118996672
4.7	-0.00627899206235612	0.000830846970817052	1.19789343567731E-07	1.86940604576758E-06	6.09686909829643E-06	-6.72650453441041E-06	0.995081303568	-0.110735557055007
4.8	-0.00637123077149436	0.00108944278825082	-6.41597972394711E-06	2.06205887389962E-06	8.29708390870304E-07	-1.27741386906383E-05	0.994934635627348	-0.113605590194793
4.9	-0.00646322848047386	0.00127503354752363	-3.46271244288952E-06	8.15317299281552E-06	5.33483154794835E-07	9.40374418366755E-06	0.99471310214775	-0.115779314263631
5	-0.00651537201103993	0.00184839986994946	9.68535379424244E-06	-4.04635615580066E-06	-6.96828666972347E-06	3.56870018485095E-06	0.994710966659877	-0.117576831169164
5.1	-0.00587702797294193	0.0019978082123328	-3.5869421346679E-07	-3.26289569456138E-06	-3.8810438943708E-06	-1.80873716148193E-06	0.99490301310971	-0.119241418135139
5.2	-0.00564100001542038	0.0019061392264954	-1.05793675249564E-06	-4.50455529778919E-06	8.7992176512002E-06	5.62059360197105E-06	0.994821094025394	-0.121624442066786
5.3	-0.0054516639641145	0.00190328082176208	2.27600737225702E-06	6.8246767166858E-06	8.81833352665045E-06	3.16977667837078E-06	0.994979580010037	-0.12404902534428
5.4	-0.00541758389339961	0.00181599617734827	2.72583722973055E-06	-3.14915414180023E-06	-2.68684326966936E-06	1.47910278888435E-07	0.995509174450008	-0.127400091384958
5.5	-0.00552581647351564	0.0023246652686116	2.10440412187938E-06	9.36327897553452E-06	-3.93276223219589E-06	-5.0621610011109E-06	0.995164830827534	-0.130821994652642
5.6	-0.00506154950160109	0.00226272945630662	-5.87908450906342E-06	-1.14730701304656E-06	4.89056255872218E-06	1.95964895277826E-06	0.995278097499985	-0.133575275876
5.7	-0.00531083441741824	0.00216237059572552	3.35449200503855E-06	-1.42514701522395E-06	-5.06591399333132E-06	-4.31970352539072E-06	0.995166238364135	-0.13675879333796
5.8	-0.00564359179851842	0.00230834603799925	-2.05973959124846E-06	-4.77157913551841E-06	9.51653084277524E-07	-5.84086965530364E-07	0.994740523990288	-0.139601122698322
5.9	-0.00618243686521064	0.002526933175732	-3.89740216545956E-06	6.1982532465266E-07	3.87926717076382E-06	1.25743019371547E-06	0.993524042085834	-0.142181549267476
6	-0.00704261648163252	0.00359334354492017	-5.97158391152187E-06	5.06195952443882E-06	-1.49203362649645E-06	1.95094414753846E-07	0.992671222510857	-0.141977670629422
6.1	-0.00656415893079254	0.00464058461184566	-5.95928772203685E-06	-4.73152484382826E-06	-4.03106825976991E-06	4.31177759527394E-07	0.994545775026151	-0.143305265526427
6.2	-0.0061565803452402	0.00494876752828408	2.83707957386296E-06	3.14548044628389E-06	1.05907709002291E-06	7.27529230356905E-07	0.994841653214365	-0.145691520372102
6.3	-0.00578192529804485	0.0049146154471135	1.65100541080136E-06	-7.53074372048942E-07	-1.33777716205399E-07	1.3838699969246E-06	0.994499803881567	-0.148568794189296
6.4	-0.00592652369053957	0.00463242922354673	-5.21579314196782E-06	-5.65153517832452E-06	3.83968211093302E-06	6.94827200499674E-06	0.993616744004757	-0.151157326196241
6.5	-0.0059446989134172	0.00519667949308014	9.12921312289943E-06	-2.55524616663486E-07	-7.37428303152307E-06	-8.99614382669179E-07	0.994252752316825	-0.153947723923329
6.6	-0.00539922363425679	0.00511997346034516	-1.49702317442301E-06	4.71994912444703E-07	3.37865577942682E-06	-9.44623285555833E-06	0.993830335276597	-0.158400969149569
6.7	-0.0052012338368153	0.00522199794334264	6.29131627110949E-08	7.79589429777263E-06	-5.08648145630388E-07	-6.11995091456548E-06	0.992766106338718	-0.161237389183389
6.8	-0.00492779713761953	0.00525417175010892	4.27431725223893E-06	1.65759035841601E-06	2.0526505372273E-07	-5.26469642398029E-06	0.992051951774467	-0.163890197776802
6.9	-0.00511015247650908	0.00519599701965137	-7.59074960063312E-07	2.50821701084174E-07	5.78561906923275E-06	-2.70730851252847E-06	0.991131884169528	-0.166409043120278
7	-0.00521136660406743	0.00624840382264283	8.05486397170903E-06	-4.80265941231598E-06	4.30018827437319E-07	-3.03807680697773E-06	0.990268043075474	-0.167701737869963
7.1	-0.00436318641473353	0.00637495209856106	3.87276731742678E-06	2.04411091864712E-06	7.97173245096702E-07	7.2671662559585E-06	0.990413126699765	-0.169981711689271
7.2	-0.00423388705403005	0.00632056983569139	-2.45097515416085E-06	3.71953562574401E-06	-1.35147776795913E-06	-3.84464169980198E-06	0.989648827903485	-0.172600431580144
7.3	-0.00424570633599352	0.00632578817201843	3.45758942908712E-06	-5.08907430828913E-07	-2.47076534305362E-06	-1.91992043752386E-06	0.988392003684262	-0.175300643367088
7.4	-0.00471797492622345	0.00610354460653632	-6.23769382212868E-06	-2.68500685632399E-06	3.79350614001652E-06	2.30215573192216E-07	0.986695581485501	-0.179204696986802
7.5	-0.00573004640305922	0.00694983028295862	6.74347326486725E-06	-6.50110053893023E-06	-2.48344912587902E-06	8.17974251797169E-07	0.982794295706129	-0.181664470639926
7.6	-0.00521782206256632	0.00770064543086123	3.51916470697102E-06	5.2037445695539E-06	-1.02512415871509E-05	4.99023668889355E-06	0.982211392287915	-0.183122486791116
7.7	-0.00524039192626341	0.00795604025327017	6.09650072151589E-06	1.09433343227751E-05	2.80781690252151E-07	-1.13938895037208E-05	0.981699655720086	-0.186333392518128
7.8	-0.0049509953733425	0.00812417416802667	2.16638484640924E-06	9.76069313996127E-07	-3.07143124650151E-06	8.85866223276986E-06	0.981057471335153	-0.189480841953416
7.9	-0.00480782666162083	0.00827619456916007	2.54584416809644E-06	-2.3300210306209E-06	3.69583514391387E-06	3.25366200220973E-07	0.979742763578274	-0.192175709983765
8	-0.00386219857542518	0.00901913400755383	-2.81266437929069E-06	1.34046259749008E-06	6.88115642175077E-06	-1.88382464646164E-06	0.979772004209813	-0.192644457495224
8.1	-0.00273446466098557	0.00840165000547882	-1.79319813661648E-06	7.63883200319385E-07	-3.72240167636448E-06	-1.24364433119019E-06	0.981353310080909	-0.196276705557736
8.2	-0.00244613144525885	0.00787920818093233	-7.67922429280318E-07	6.35273778982687E-06	4.9072067571943E-06	4.34268420698773E-06	0.98077850171989	-0.19991991348569
8.3	-0.00229769515158641	0.00752151512205538	-9.27079184348952E-07	-1.4236521573364E-05	6.86553895169542E-06	5.40337766233402E-06	0.979586048135673	-0.203294252216446
8.4	-0.00261697774141513	0.00728689123312247	3.74936312597649E-06	-3.45322662851391E-06	-6.98918850974768E-06	-1.18632661420546E-06	0.978193914881031	-0.206174003152105
8.5	-0.00278673766736371	0.00821428325192287	4.68688079989856E-06	5.60739559377609E-07	8.39255206599074E-06	-6.89471287951728E-06	0.977395824864645	-0.209035304174197
8.6	-0.00197162874718083	0.00824109796903101	-3.24527494555816E-06	4.14159219938561E-06	1.08089756845642E-06	1.11003909530431E-05	0.976224120760471	-0.212363812522703
8.7	-0.00177016969165033	0.00809157083970726	2.67173798194058E-06	-2.01714341898859E-06	4.75272078629401E-07	-5.57067857359741E-07	0.975002468749798	-0.215059389199363
8.8	-0.0015986415290494	0.00802205224631257	1.14188763551926E-07	-1.25396758584581E-06	-9.10948297130101E-07	9.77503554479368E-06	0.97385884414935	-0.217251666618583
8.9	-0.00169274350627033	0.00782182964765358	-3.65082213884231E-06	2.31505325355983E-06	4.82358884691962E-06	-1.83233916517044E-06	0.973221857703592	-0.219109860262884
9	-0.00174715987018106	0.00849726947953321	-1.88740565142796E-06	5.09407741568572E-07	-3.27578072465669E-06	-1.05182003464962E-05	0.972425946968756	-0.221164590033516
9.1	-0.000856916589256889	0.00847418609535033	5.25222607265501E-06	5.57071540004488E-07	9.14753430131905E-07	3.76006388477185E-07	0.971736385247548	-0.222853256423234
9.2	-0.000316940755948931	0.00832093973948941	-8.74641575442103E-06	-4.51969612174855E-06	-9.19316985536799E-07	-6.11844310724862E-06	0.971177984897733	-0.225158837472486
9.3	0.000370244382460708	0.00799782479577728	2.29661847441139E-07	6.2096330266796E-06	4.62062191042849E-06	-2.22332236833989E-06	0.97077780384154	-0.22788006595483
9.4	0.000637006182243236	0.00724707641426434	-1.88230876193665E-06	5.89203706447605E-06	-1.04339276608487E-05	7.81096865556053E-06	0.969590598970031	-0.231743791087454
9.5	0.000827442741213161	0.00741456980355006	3.11826186190478E-06	-7.56991169863247E-06	3.65114658221663E-06	-2.76223731575994E-06	0.967196450566128	-0.234161326990525
9.6	0.0011533608155049	0.00659949809900814	4.5207238100627E-06	5.52863218763282E-06	-5.92372558255355E-07	7.05241680360625E-06	0.966393245615776	-0.236623674677108
9.7	0.000766171820863029	0.00618688887154696	-2.62120860371785E-06	-3.90871792781304E-06	3.63235567375528E-06	-7.52148514784721E-06	0.965222856094907	-0.239275953091938
9.8	0.000338213083500541	0.0060129191681417	-5.49645457387889E-07	-4.19572465417376E-06	6.25823125905903E-06	8.46182625139269E-07	0.964066267936026	-0.241458332599099
9.9	-0.000410857251063088	0.00608577486161131	-2.67959244082751E-06	-5.75695770611281E-07	-8.43153923201744E-06	5.51257984258168E-06	0.961849479653411	-0.242736352349534
10	-0.000821999601118746	0.00728441014118583	4.19783733285014E-07	-1.74513657676649E-06	-3.10185845569252E-06	-7.92164501331211E-06	0.961724640104369	-0.241470651151377
10.1	-0.000203640895176029	0.00753246630665698	2.25734642542704E-06	4.74165043792425E-06	-3.04612928299674E-06	9.82413468368077E-06	0.96242106864009	-0.244030837336215
10.2	-8.30488294816284E-05	0.00759474247056661	-5.40187226665119E-07	-1.04143793846101E-06	-1.21846757034816E-06	-3.09679206086507E-06	0.961025240210157	-0.245725684343984
10.3	-2.98714008793034E-05	0.00763505318668097	1.12356712829924E-05	-2.96338611386532E-06	9.98363106823574E-06	-4.86130213421261E-06	0.959504615711711	-0.247069342229676
10.4	-0.000411631389432024	0.00775989561842256	-6.17833233506703E-07	2.13852215002443E-06	3.00749604148543E-06	-2.18384407569865E-06	0.957930850654028	-0.247970703487626
10.5	-0.000395742281304122	0.0091199029343319	-6.06723589534747E-06	4.6440658451047E-06	1.57936048227687E-06	4.28187788077936E-06	0.957859890092868	-0.249309827926414
10.6	0.000669915394055536	0.0096191716814853	-7.02643755823941E-06	1.06570700274757E-05	7.00601061192777E-06	4.22024408920907E-06	0.95712807925886	-0.251447355329652
10.7	0.0017053538643631	0.00984837831021843	-3.1925867013191E-06	1.56858024238215E-06	-5.32942250871272E-06	3.17003266414482E-06	0.957069966971455	-0.253330694240932
10.8	0.0026141437054274	0.00948005622499059	-1.90467653967069E-06	4.97031086189461E-06	8.38266985307209E-07	-3.18863310346881E-06	0.957025831674277	-0.255526610232115
10.9	0.00268415181368068	0.00904615839528004	-5.74722104378183E-06	-1.04623018796938E-05	4.93287780057721E-06	1.06421386763601E-05	0.956638345421342	-0.257669208381267
11	0.00312166433522018	0.00981773207122512	2.95787785638725E-06	2.59419749250066E-06	7.54833788667745E-07	-1.11810565616895E-05	0.955921205915322	-0.259109740155948
11.1	0.0042608470878052	0.00940124295459112	3.8386179456833E-06	1.44179582800489E-06	2.39611580541563E-07	-7.33182225020502E-06	0.955117127646131	-0.260712609652575
11.2	0.00481603285315649	0.00891310856051136	-4.3932636158962E-06	-1.95389165816653E-06	-7.28732052093603E-06	-4.81265500429345E-06	0.954073926761355	-0.262213696147415
11.3	0.00534581930092205	0.00824606672633769	6.52180626625468E-07	-6.34353035316323E-06	3.76187028642086E-06	1.4057047404779E-05	0.953429311159248	-0.263868630810055
11.4	0.005268719990072	0.00749021440397968	-5.07613509230359E-06	8.10415121612763E-06	-1.44442889484401E-06	4.05589117196343E-06	0.951797087731143	-0.26671432121221
11.5	0.00539567603531753	0.00770868457176375	4.49838817044802E-06	8.0266508425551E-06	-9.21602442744229E-06	1.57936359080301E-06	0.949329531511795	-0.267744857736033
11.6	0.00597340205282143	0.00668759089116912	-3.81435173769815E-06	1.38922360405773E-06	5.0383337883202E-06	8.07932289204684E-06	0.949215258272895	-0.270164208373034
11.7	0.00561752877608351	0.0058243401656767	2.22688457004487E-06	1.04574456927396E-05	5.39237972163221E-07	-3.62372428437755E-06	0.948029710305081	-0.273561517550005
11.8	0.00505661546388576	0.00540870418578681	1.41635419806383E-06	4.43082764431546E-06	2.23158062710391E-06	4.50477242184443E-06	0.946311685104848	-0.276516787702021
11.9	0.00435376252359139	0.00560364043856575	7.37048844949952E-06	1.04888137901995E-05	3.84988349025265E-06	4.06372497845032E-07	0.94459455614849	-0.277092500772772
12	0.00479869962488661	0.00701034888739502	2.35491319397859E-06	-5.10642142989653E-06	-4.07729117498523E-07	1.7360404907769E-06	0.946236885803901	-0.275435858623273
