# GHZ S RI R 50
0.2	0.000993064990887301	0.00255340850566601	4.79137640799997E-06	-2.98525262309325E-06	-1.37191436742522E-05	1.31189790393066E-05	0.999175138697447	-0.00722641035952294
0.3	0.00144279871548097	0.0017577761775646	2.86603616718815E-06	6.62326415241756E-06	-1.66479160591255E-06	-9.31700184488329E-06	0.999011487860102	-0.0101377962369499
0.4	0.00171138748651628	0.00115409222277781	-1.86239661875759E-06	-4.01375389281303E-06	-9.01062883184316E-06	4.40318573653593E-06	0.99886710146499	-0.0128198555447994
0.5	0.00151124864605792	0.000786899964100034	-5.35677427042936E-06	3.26138940281016E-06	-2.1262111463885E-06	6.75442667157092E-06	0.998552763912456	-0.0155613660309835
0.6	0.00174107144581668	0.000785779573500593	-1.39531511211046E-07	2.80529983749043E-06	-5.8137029608037E-07	-1.34061631391315E-07	0.999124945088167	-0.0185352553755406
0.7	0.00190046425374587	0.000534975326128763	8.81865965111957E-08	2.2185407362564E-06	4.90181360021798E-06	-3.40137183595191E-06	0.998806950048816	-0.0218376652796029
0.8	0.00206293933420241	0.000296093737576599	4.52713025702593E-06	8.25029855988746E-07	2.74338984593224E-06	1.99947578114005E-06	0.998424141917959	-0.0242117126157823
0.9	0.00224329522253231	-6.5829054943792E-05	-1.52499004740513E-07	-4.21632732459809E-06	-3.41689550901233E-06	-3.10745252482687E-06	0.998079017559443	-0.0268234084432406
1	0.0019876997840821	-0.000802645529403946	1.05930144151447E-06	4.28840177642501E-06	3.32439900017469E-06	9.32708028978275E-07	0.997137684387496	-0.0284061272151627
1.1	0.0014304729910541	-0.000874049369329255	9.03533442614935E-06	5.19475133490241E-07	-3.57505769327895E-06	-4.9947924262358E-07	0.996767007221095	-0.029738971085193
1.2	0.00107838146791897	-0.00139074397682378	3.75741259948432E-06	-1.1974309535123E-06	-4.0918867013564E-06	-2.43650653337283E-06	0.996268655419959	-0.0305488390977799
1.3	0.000277472141951085	-0.00214204541155408	-7.60260472362477E-07	-1.42582191561078E-06	-2.58074775550565E-06	-8.6996407677243E-06	0.996533736891224	-0.0311244183404734
1.4	-0.000499074529184329	-0.00283990314757543	1.2357194379527E-08	3.44546565730417E-06	-4.27678591388221E-06	-4.12712053711453E-06	0.99681818543038	-0.0330552686644131
1.5	-0.00116326211479565	-0.00305190055963427	-1.29995400659162E-06	4.42785833407618E-06	6.55440658608992E-06	-7.40820793037757E-06	0.997663306982753	-0.0365213551567282
1.6	-0.00099709299465969	-0.00276235522538189	1.62967641950597E-06	-4.88271570261079E-07	4.24445922196987E-06	-5.39164546289754E-06	0.997754564400532	-0.0401663973191575
1.7	-0.000814722076468978	-0.00285099920148359	5.29678363513285E-07	3.95778111734279E-06	-8.28642534471799E-06	3.12602307548621E-06	0.998105240112597	-0.0430655296294625
1.8	-0.000765088977736825	-0.00289454876341907	1.83230099445166E-06	1.07930887245715E-06	5.66244181462762E-07	-1.76195128765578E-06	0.998072555427769	-0.0460001866706069
1.9	-0.000828085283403582	-0.00317398734495184	3.23676255982287E-06	3.01920558233541E-06	-1.82793426866368E-07	-2.33108005243657E-06	0.997920321822177	-0.0486941376849415
2	-0.00151033359847911	-0.00332265596311748	-1.72686228120034E-07	2.00395727276091E-07	-1.21595972698052E-05	5.41775952676117E-06	0.996407805573537	-0.0516151789241074
2.1	-0.00169530703832365	-0.00286109040383327	6.68226454486876E-07	-1.38153055869938E-06	1.38011593269331E-05	4.96707239232878E-06	0.996302614502298	-0.0527715004100815
2.2	-0.00171853889565966	-0.00280996026815826	1.64456179936369E-06	-1.51597071030858E-06	2.68777042064483E-06	-6.20829043504099E-06	0.99681734098819	-0.0551688902785186
2.3	-0.00186751474798395	-0.00289172078899179	-1.68645998208517E-06	-3.42689977296597E-06	-1.78937966452763E-06	-4.59162208688736E-06	0.99672554040112	-0.057147185817785
2.4	-0.00203983949194969	-0.0031836463289843	-1.20195110406249E-06	-4.40076758001891E-06	3.04565409600135E-06	1.08734341799213E-06	0.996832854807476	-0.0603901779125664
2.5	-0.00288783693262609	-0.00370656634108069	5.38116731727114E-06	5.67265107789917E-06	-2.61583622637809E-06	1.6150087753197E-05	0.996484419825993	-0.0627367803033749
2.6	-0.00382174858175032	-0.00325702504151843	-2.27822164712347E-06	2.71289772366199E-06	4.34588979122979E-07	-4.31368493918646E-06	0.996650318680231	-0.0657100125644122
2.7	-0.00422027333290074	-0.00271785111639707	-2.40793792178065E-06	-3.63784314851472E-06	2.15528122727113E-06	-2.57183658848283E-06	0.996151779648639	-0.0688112480112838
2.8	-0.00429199546642712	-0.00218711118075471	4.00313769341668E-06	2.31176285280708E-06	9.8333511254438E-06	-6.88975979362746E-07	0.99622749055603	-0.0707079556269875
2.9	-0.00409427822666129	-0.00197485381258834	1.28807872031487E-05	7.10002504701726E-07	2.44013473817886E-06	-1.17163030484475E-05	0.995954228126758	-0.0726832848213776
3	-0.00432180002583914	-0.001882300294037	-3.85413298630293E-06	1.04669443370782E-06	-4.14603906261227E-06	-1.59887454777993E-06	0.995750638998252	-0.0750764069365605
3.1	-0.00409374514677037	-0.00136009991044904	4.77851219377869E-06	-9.84224430896921E-06	1.06816105318796E-05	2.40947791710516E-06	0.995487170251205	-0.0769023661924787
3.2	-0.00382085106586744	-0.00131944679448375	-5.36703715908544E-06	-7.40763371261215E-06	1.56303423994246E-05	5.38809814930931E-06	0.995304074624051	-0.0785898076753886
3.3	-0.00367885167940645	-0.00141632771611655	-8.79098890136984E-06	2.53950467981695E-06	-8.56183197545802E-06	-1.744608796567E-06	0.995209983983944	-0.0816733202227629
3.4	-0.00369801831829719	-0.00169996605009765	9.06615557169507E-06	-7.55281326250336E-06	-7.34861547083862E-06	4.22782900247115E-06	0.995527810621249	-0.0834813391415919
3.5	-0.00436238245161536	-0.00198051039035732	3.21761002794836E-07	-5.32400945613243E-06	-4.39591603908651E-06	-8.9363216190001E-06	0.995736395272732	-0.0867722533252178
3.6	-0.00466287234574212	-0.00142718109731287	4.0707928842418E-06	4.901612596483E-06	-7.11100108911415E-06	8.99117171233752E-06	0.99520581595894	-0.0894298625452827
3.7	-0.00462121284888684	-0.00124874416883066	1.5301513109613E-06	-4.52554967401313E-06	-5.09929465571719E-06	-6.58828860735674E-06	0.995125255911747	-0.0921537325510539
3.8	-0.00460973527487132	-0.00123513338096884	7.28217227341706E-06	-5.19162919263988E-06	-5.8782753171324E-06	-2.42188239008172E-06	0.994858736020308	-0.0943800539444764
3.9	-0.00465083731442655	-0.0014616165988965	-4.03025210962457E-06	-3.51787628250672E-07	-2.53154819441828E-06	1.13220582690812E-06	0.994725106478119	-0.0980114530305916
4	-0.00545375853762435	-0.00164117904476782	-3.38292630962334E-06	-8.22942490488281E-08	1.2034876005314E-06	8.66665723716011E-06	0.993110081189804	-0.0995721246262221
4.1	-0.00577161366659603	-0.000811459805817379	-2.89666722073873E-06	-3.8615084807195E-06	5.87488594570194E-06	3.04091602748997E-06	0.99314303815527	-0.0999952212853382
4.2	-0.00560070908331645	-0.000428067769454399	-7.71807189168681E-07	-2.15746305442469E-06	5.70081782033903E-06	-1.83988760979888E-06	0.993251414271987	-0.102582906258703
4.3	-0.00542787069042481	-0.000290245789444324	-5.12688047450959E-07	3.23464035647217E-06	2.1285223114765E-06	1.78118217557482E-06	0.993347114092601	-0.104730586463498
4.4	-0.00540448128813527	-0.000487801516639093	2.57384049348215E-06	3.44303698106088E-06	7.17859316455801E-06	3.91573258284905E-06	0.993067854236357	-0.107191060771732
4.5	-0.00622853646673058	-0.000719423284047859	-6.47315353538589E-06	-2.3805450483622E-07	-8.57931789384816E-06	-2.12407955618735E-06	0.993084431864767	-0.108955039605522
4.6	-0.00689589598619438	0.000123354395320438	-9.94790542304091E-06	-9.24390850093965E-06	3.24157722718137E-06	-2.7308676013617E-06	0.993718267026395	-0.111998688442646
4.7	-0.0070171872935944	0.000803907828866184	1.25764694715017E-07	1.86757080676348E-06	6.07031776828752E-06	-6.74109032053391E-06	0.993862414239244	-0.11466693474883
4.8	-0.00699388313035591	0.00145089344335624	-6.40218721439973E-06	2.08272374959147E-06	7.83579273922847E-07	-1.27641759636772E-05	0.993481619048731	-0.117571575484035
4.9	-0.00667102249677454	0.00184031923623975	-3.42773275489802E-06	8.15343350895765E-06	5.66961985221006E-07	9.38753714252992E-06	0.992994187959282	-0.119621558076399
5	-0.00678585259307389	0.00205190007792202	9.65673972070125E-06	-4.07100597525411E-06	-6.94558421209759E-06	3.5853763115761E-06	0.992887837464095	-0.121208910892216
5.1	-0.00613656527912029	0.00283138361348868	-3.70064350550475E-07	-3.2563341275935E-06	-3.88142410716515E-06	-1.7916174689765E-06	0.993113436093496	-0.122821081581076
5.2	-0.00524572058186093	0.00271212878721254	-1.07268749285927E-06	-4.49040356673913E-06	8.80080575428594E-06	5.57449449172449E-06	0.992858763567344	-0.125369403262876
5.3	-0.00477327572642534	0.00225451096976982	2.29342338853221E-06	6.79614708543078E-06	8.80316926884024E-06	3.12896496320416E-06	0.992423433938287	-0.127794826273507
5.4	-0.00472622860631946	0.00167171790664779	2.70773750545203E-06	-3.14496341797995E-06	-2.67676908425812E-06	1.54436057114541E-07	0.992447361138491	-0.130427277739249
5.5	-0.00574149473428993	0.00159075840954568	2.11613486536828E-06	9.33434803649346E-06	-3.93163258860611E-06	-5.0413387525226E-06	0.992464675140781	-0.133653520092528
5.6	-0.00570685429756301	0.00274462672869672	-5.86559198604255E-06	-1.12839894538911E-06	4.88201943277076E-06	1.94108992252419E-06	0.992035974258908	-0.136207837054882
5.7	-0.00522862255257427	0.00312374316296618	3.33955284810968E-06	-1.42890074702088E-06	-5.05986090831605E-06	-4.29222534197651E-06	0.991966476908469	-0.138888801785595
5.8	-0.0048179621487454	0.00324071448378134	-2.0638495820783E-06	-4.74958479204296E-06	9.46850028731195E-07	-5.84287678856797E-07	0.991858013489549	-0.141576109832939
5.9	-0.00440601445211266	0.00293567736985695	-3.88167596683497E-06	6.28716759151909E-07	3.86895794737612E-06	1.24186681021017E-06	0.991254608870226	-0.144851098666913
6	-0.00529321258577315	0.0020333636961598	-5.91896999836467E-06	5.05652365328083E-06	-1.4829697926384E-06	1.99700491797688E-07	0.988380626288568	-0.14670950598156
6.1	-0.00638630525342803	0.00285578232964445	-5.92612196264466E-06	-4.68851453455644E-06	-4.00239989747996E-06	4.35109787449669E-07	0.988160916480993	-0.145835576534742
6.2	-0.00672066393321789	0.00356307658533574	2.82001761745933E-06	3.12300084104326E-06	1.05245625274092E-06	7.22102878178278E-07	0.988491691081728	-0.146839370847938
6.3	-0.0066607613049985	0.00421815987167078	1.64059444227255E-06	-7.48368714512706E-07	-1.32905546340952E-07	1.37516007370407E-06	0.988412991614043	-0.148738562937756
6.4	-0.00637930578356508	0.00431283970849653	-5.18238770830035E-06	-5.61538387759349E-06	3.81507917118034E-06	6.90381564761283E-06	0.987857173655547	-0.151070309062455
6.5	-0.00692316939865807	0.00454709867404166	9.06387598806382E-06	-2.38857870540204E-07	-7.31970957029202E-06	-9.05111265416885E-07	0.98752626840193	-0.1526133172996
6.6	-0.00625805427782427	0.00553563240398541	-1.49036190517705E-06	4.65477807510447E-07	3.38611360780945E-06	-9.38714024196526E-06	0.989156646516014	-0.155671715191092
6.7	-0.00558405537016738	0.00565436219286333	4.51166912531813E-08	7.7615220675328E-06	-4.92644305722271E-07	-6.0939999376018E-06	0.989001644384098	-0.159236153305753
6.8	-0.0051233233063691	0.00577859964610881	4.2533964640258E-06	1.65880703323256E-06	2.14400686970991E-07	-5.24241258369028E-06	0.988360690979824	-0.162155056451725
6.9	-0.00470133756610411	0.00556458580066948	-7.5627856666032E-07	2.48496402359705E-07	5.76562921656883E-06	-2.68621691495384E-06	0.987683392749312	-0.164807220964344
7	-0.00560774306252979	0.00555834368841807	8.02743286685621E-06	-4.76581760707687E-06	4.33773642546391E-07	-3.02352490720895E-06	0.986001464732879	-0.166544395680079
7.1	-0.00534908533666809	0.0071299939619363	3.85034777477386E-06	2.04370114534244E-06	7.76763594048543E-07	7.2357846611558E-06	0.985864982701349	-0.167260787872072
7.2	-0.00439560815232682	0.00771212826114359	-2.45056585544224E-06	3.69541777959326E-06	-1.33414073243951E-06	-3.83098811580276E-06	0.985837455734404	-0.168992325187094
7.3	-0.00352826186201972	0.007909567195302	3.444225825403E-06	-4.93335636148163E-07	-2.45242095077926E-06	-1.92092738105899E-06	0.985375351786778	-0.170766800943702
7.4	-0.0025976390250224	0.00744475134853638	-6.20084259616509E-06	-2.71028206996167E-06	3.77889946122908E-06	2.50514258674891E-07	0.985752188284778	-0.173388912621132
7.5	-0.00316758228258267	0.00604816111566957	6.77589515821092E-06	-6.4638242046862E-06	-2.48708681741159E-06	8.04672115019247E-07	0.984999923598828	-0.178535614025493
7.6	-0.00395101646133925	0.00649155866299811	3.49943341595712E-06	5.21346329119892E-06	-1.02636499445085E-05	4.95229505660743E-06	0.982606988479682	-0.181574503412688
7.7	-0.00419765834714883	0.00657375569164671	6.0550646598861E-06	1.09586764457821E-05	3.20345225016358E-07	-1.13867593960057E-05	0.981810211498816	-0.18470639265208
7.8	-0.00431274183344989	0.00656633822700963	2.16286579634114E-06	9.82922590557103E-07	-3.09960751647869E-06	8.84725084789002E-06	0.98122938427591	-0.188076381460249
7.9	-0.00442288633103063	0.00630119671356478	2.55278681395611E-06	-2.3257169512262E-06	3.69746658322046E-06	3.33994912999799E-07	0.980474765283814	-0.192099681510143
8	-0.00558865473587569	0.00675191573758997	-2.80874591387257E-06	1.34076156089994E-06	6.87244592251915E-06	-1.8860828649251E-06	0.976905101135567	-0.19514741676254
8.1	-0.00479600519537969	0.00827356207489743	-1.78737314358628E-06	7.5932506074559E-07	-3.7075364339153E-06	-1.24273405690446E-06	0.976269048731219	-0.194966555771908
8.2	-0.00378223589844887	0.00858107540593573	-7.79878047126142E-07	6.32696773718777E-06	4.8785336396775E-06	4.33776919507469E-06	0.976638974082508	-0.196747611491658
8.3	-0.00296026543079784	0.00860657296423881	-8.81657849687696E-07	-1.41873375912396E-05	6.82454374735839E-06	5.40394497166379E-06	0.976302920314525	-0.199348211783404
8.4	-0.00228533499583268	0.00817353748768863	3.74598058082854E-06	-3.42657928204585E-06	-6.95699570472541E-06	-1.20527955914079E-06	0.975496260282525	-0.20197343123819
8.5	-0.00317397032290362	0.00779704783425178	4.66589137849202E-06	5.84064909572138E-07	8.39789524943805E-06	-6.82270782324486E-06	0.974609679789174	-0.2041089003157
8.6	-0.00298725256432693	0.00935703089179703	-3.26079572637501E-06	4.11657520180313E-06	1.02049223197855E-06	1.10847230283628E-05	0.974684279711897	-0.206623658708214
8.7	-0.00182754940482347	0.0099179042481409	2.67642003943696E-06	-2.00168390246935E-06	4.77002644650462E-07	-5.53987445760578E-07	0.974386898850741	-0.209491998159236
8.8	-0.000566548910461501	0.00998448277712285	1.19059265863253E-07	-1.25116300674825E-06	-9.48876385656336E-07	9.75308866604154E-06	0.973845895878208	-0.211942291258729
8.9	0.000814445755860531	0.00916597545446052	-3.65001735144458E-06	2.29441082284547E-06	4.81770222593001E-06	-1.80839458568457E-06	0.973734975252702	-0.214120763762019
9	0.000697353010939417	0.0076724616947897	-1.88484672975114E-06	4.98085004499654E-07	-3.21146938265665E-06	-1.05062341099172E-05	0.973384289270327	-0.216867787647355
9.1	0.000781379728072369	0.00742620173494611	5.23695641786612E-06	5.82665060866601E-07	9.10664586999441E-07	3.79804406919105E-07	0.972406219498185	-0.219147041392611
9.2	0.000868645716740233	0.00660827823658232	-8.69697998323861E-06	-4.55981796534598E-06	-8.8068022251647E-07	-6.10804355207151E-06	0.97137378383732	-0.221361250253337
9.3	0.000509379531189635	0.00605020148788479	1.84043324148479E-07	6.1988294120867E-06	4.62750839330947E-06	-2.18525451009798E-06	0.970810157021551	-0.223211979927567
9.4	0.000100361748225329	0.0055716006116121	-1.9334082342174E-06	5.87209854192372E-06	-1.0497251025283E-05	7.71427658631097E-06	0.970731136050055	-0.225694760317477
9.5	-0.00128700028984488	0.00582819731620208	3.19136934932905E-06	-7.56583023691902E-06	3.68521284727722E-06	-2.73951940374734E-06	0.970059827414499	-0.229413094358918
9.6	-0.0010648625815499	0.00731037226394506	4.50036968224245E-06	5.57481950924515E-06	-6.38701736605323E-07	7.07127022084636E-06	0.968687244140316	-0.231961720687942
9.7	-0.000346260570229621	0.00771130590894227	-2.60605786343198E-06	-3.93692127084713E-06	3.68913687718363E-06	-7.52359908356405E-06	0.968235110906075	-0.234132745924108
9.8	0.000235754183594236	0.00779882963904725	-5.27232544666766E-07	-4.21507698892352E-06	6.27735754952054E-06	8.86021625825747E-07	0.968422201220407	-0.236270786593357
9.9	0.000812604144792568	0.00735099145138158	-2.6903279172275E-06	-5.90972100836504E-07	-8.49920526044936E-06	5.50113490992471E-06	0.968280811758212	-0.239247028646793
10	-0.000215132692367773	0.00680999466726464	4.25328876639243E-07	-1.74914403814466E-06	-3.09117526329328E-06	-7.95226185220125E-06	0.965327105839212	-0.241247399940919
10.1	-0.000287859795186655	0.00812569448994615	2.23932383916727E-06	4.76328283204905E-06	-3.1008013888122E-06	9.83134874233948E-06	0.965222025702326	-0.2406435122826
10.2	0.00049993524149944	0.00853808022820936	-5.36652523792178E-07	-1.0481246161703E-06	-1.20653273551975E-06	-3.11462041650882E-06	0.965678469763129	-0.24195354007088
10.3	0.00132723712063977	0.00850917520678882	1.1302091813197E-05	-2.92354402952471E-06	1.00532853445902E-05	-4.83626661014432E-06	0.96552154918119	-0.243909994788815
10.4	0.00209257346803609	0.00763982622639216	-6.28991093112488E-07	2.14603432757357E-06	3.02990205237805E-06	-2.18229692513328E-06	0.964833328185119	-0.246248290865762
10.5	0.00102371517084066	0.0067395846682175	-6.11792830486675E-06	4.63271107279394E-06	1.56393442430288E-06	4.30880156685824E-06	0.964226016066061	-0.248255475778539
10.6	0.000525500863799742	0.00738482658900739	-7.12026853675381E-06	1.06945536538517E-05	7.03245607683891E-06	4.27933664087067E-06	0.964169224538256	-0.251756076511445
10.7	0.000321415353733853	0.00801959087706299	-3.21836327047458E-06	1.56894225501713E-06	-5.37416382963988E-06	3.1742491597031E-06	0.962663586897593	-0.254958293128879
10.8	0.000771256346912908	0.00900793108582905	-1.92955012047853E-06	4.99659443888585E-06	8.51813730622174E-07	-3.20649117099045E-06	0.961630910204885	-0.256354258293541
10.9	0.00162489062489904	0.00931877257280654	-5.75383725908571E-06	-1.05352103221052E-05	4.93447581216715E-06	1.07140586901256E-05	0.961324806425451	-0.257963616279885
11	0.00125390513701076	0.00946665722646848	2.96721331437989E-06	2.61971545196414E-06	7.96436499998679E-07	-1.12463209566562E-05	0.96066636492825	-0.25982825530606
11.1	0.00225819138247146	0.0110181688428895	3.86094790864889E-06	1.46185254079942E-06	2.60778478062981E-07	-7.38117122029132E-06	0.959715078646814	-0.261026401668429
11.2	0.00395693185313536	0.0112620240458206	-4.4182958827228E-06	-1.97748360513885E-06	-7.32512174495924E-06	-4.86239803512401E-06	0.958872822191498	-0.262215725512486
11.3	0.00562329101619424	0.0107888312340425	6.73327336250659E-07	-6.38450332692187E-06	3.75005668563474E-06	1.41615972024259E-05	0.958637670903032	-0.263126052455824
11.4	0.0069503198708924	0.00952203498190409	-5.14509847472479E-06	8.14546803990005E-06	-1.47073396207091E-06	4.08075397473457E-06	0.958989760419314	-0.264963050689375
11.5	0.00646024109399138	0.00826844892368441	4.52621998513709E-06	8.12061662464766E-06	-9.31547329959784E-06	1.57407435974083E-06	0.958406525188804	-0.269232448277404
11.6	0.00706172750418052	0.00846753625240838	-3.84919134528128E-06	1.40098441040293E-06	5.08222318024079E-06	8.15356820815915E-06	0.956398161690873	-0.272080367162749
11.7	0.00812706158129993	0.00748148260870074	2.24241585866515E-06	1.05471175204456E-05	5.45005914528756E-07	-3.65437005662149E-06	0.955882362369935	-0.274974040837555
11.8	0.00883087369902499	0.00593696437527391	1.42800599304336E-06	4.47135120534443E-06	2.2505991522468E-06	4.54618330103326E-06	0.95599885711957	-0.278619349761006
11.9	0.00886696815312186	0.00353512350938831	7.46394636369423E-06	1.05886362513435E-05	3.89115289821083E-06	4.04936559670262E-07	0.956628380640582	-0.283155346816022
12	0.00605809376230056	0.00204091701379517	2.34882669430749E-06	-5.15875331206278E-06	-4.02517790239672E-07	1.75191455980856E-06	0.9530598252217	-0.287137692433984
