# GHZ S RI R 50
0.2	0.000767462547415926	0.00259352222072	4.7930406968789E-06	-2.98569473762778E-06	-1.37243178344044E-05	1.31215780896667E-05	0.999497919828425	-0.00687858222452517
0.3	0.00121702719585197	0.00180062270620727	2.86599341034905E-06	6.62597874634433E-06	-1.66391994144756E-06	-9.32045404541539E-06	0.999388691989575	-0.00974065480100079
0.4	0.00155671493739626	0.00126426863020309	-1.86273932842789E-06	-4.01559057341384E-06	-9.01477527783654E-06	4.40404601558867E-06	0.999317632174284	-0.0124740679824979
0.5	0.00155612846630743	0.000791999842060257	-5.35812918937117E-06	3.26215720204703E-06	-2.12679141775567E-06	6.75608657222644E-06	0.998688958113837	-0.0154229213607787
0.6	0.00174420355398572	0.00063602773601739	-1.40051326430827E-07	2.80581470284675E-06	-5.81458519180123E-07	-1.3418957455185E-07	0.998933683446244	-0.0179083786227421
0.7	0.00187340014841972	0.000311565775550371	8.77267055330491E-08	2.21907708757648E-06	4.9036930676168E-06	-3.40110332002061E-06	0.998777685519689	-0.0208395698260506
0.8	0.0019589201765135	1.42689917328331E-05	4.52811819545547E-06	8.26371539726054E-07	2.74361612446938E-06	2.00068392709086E-06	0.998645597445333	-0.0229910103779503
0.9	0.00201069094190636	-0.000272860505764243	-1.51320807831361E-07	-4.21791509289758E-06	-3.4172365891855E-06	-3.10958986006084E-06	0.998758898572198	-0.0254752217070603
1	0.00186844857868542	-0.000786008951935803	1.05897755073218E-06	4.29107583199615E-06	3.3260924868899E-06	9.33959023829664E-07	0.998451428809074	-0.0275483893160742
1.1	0.00145729572073045	-0.000832813216205675	9.04183048993227E-06	5.20595476089745E-07	-3.57760380792046E-06	-5.00135255505556E-07	0.99789122803295	-0.0294612863777172
1.2	0.00126925091520478	-0.00124333247325615	3.76072895307678E-06	-1.19864828301108E-06	-4.09564327649573E-06	-2.43852850519858E-06	0.997274728217366	-0.0303623891748698
1.3	0.000683156760965319	-0.00198113966806178	-7.61192463049817E-07	-1.42714951124526E-06	-2.58438379649557E-06	-8.70799294022712E-06	0.997372250774657	-0.0308600581724796
1.4	9.71077419713276E-06	-0.00278133978331447	1.27933420222277E-08	3.4485809666398E-06	-4.28116382084728E-06	-4.13032650314545E-06	0.997402208319676	-0.0324737229126185
1.5	-0.000574090646253407	-0.00329932482461778	-1.30010519892609E-06	4.43123781622923E-06	6.55777727080384E-06	-7.41462788848304E-06	0.997827323996799	-0.0359041696284297
1.6	-0.000656641150353214	-0.00334499490499737	1.63010784400565E-06	-4.88900916810688E-07	4.24442274130222E-06	-5.39472284441956E-06	0.997364132409796	-0.0391402227094763
1.7	-0.000721252043013581	-0.00354551827379524	5.30789580391768E-07	3.95784359689631E-06	-8.28600399225404E-06	3.12845537495018E-06	0.997699707168767	-0.0418340432541563
1.8	-0.000848651390312496	-0.00357840141755541	1.83229756351682E-06	1.07875769559536E-06	5.65776863545266E-07	-1.76184304949649E-06	0.99769774784594	-0.0447848585446972
1.9	-0.00096407583056045	-0.00373821534298805	3.23644702959922E-06	3.01829745049035E-06	-1.8299470109405E-07	-2.33061377938951E-06	0.997649329199528	-0.0475632505593645
2	-0.00146076759127707	-0.0039103266997624	-1.72652805712382E-07	2.00417405367769E-07	-1.21585408881482E-05	5.41946329115818E-06	0.996143689188309	-0.0510081856435956
2.1	-0.00168104888344474	-0.00366476477812395	6.67732598570887E-07	-1.38160394154363E-06	1.3801361933512E-05	4.96230472849988E-06	0.99539685557307	-0.0522051406023212
2.2	-0.00185872726259746	-0.00371465051324913	1.64373738436905E-06	-1.51633473128092E-06	2.68504461485149E-06	-6.20828583734813E-06	0.995740870424519	-0.0542906522536574
2.3	-0.00221458120041917	-0.00377898204172187	-1.68755927575413E-06	-3.42531955908948E-06	-1.79096738882931E-06	-4.58971214915098E-06	0.995695483199865	-0.0560654201338487
2.4	-0.00257117302865555	-0.0038471687218573	-1.20377691724056E-06	-4.39832171806757E-06	3.04497344877171E-06	1.0852895962837E-06	0.99594198233442	-0.0593141527448211
2.5	-0.00326384292965048	-0.00406098119816653	5.37974621423664E-06	5.66606316464372E-06	-2.60667469575929E-06	1.61393673651237E-05	0.995413040224121	-0.0619793371893622
2.6	-0.00399742952943449	-0.00360363947663532	-2.27587764192119E-06	2.71129788338336E-06	4.33320828682844E-07	-4.31045162312036E-06	0.995114504242517	-0.0648597407530127
2.7	-0.00430639355386948	-0.00309545006690027	-2.40688729559959E-06	-3.6346970552935E-06	2.15319142242956E-06	-2.57037321799951E-06	0.994364789032891	-0.0677786632780218
2.8	-0.00432371049985953	-0.00256417480918371	4.00072937261711E-06	2.30926687182066E-06	9.82611695568681E-06	-6.90514996551474E-07	0.994339429341962	-0.0694255091693137
2.9	-0.00399683484551541	-0.0022993717730705	1.28722706581304E-05	7.07454307004919E-07	2.4366146241664E-06	-1.17088451373535E-05	0.994276592144996	-0.0712338169004451
3	-0.00390793074121402	-0.00232263759572054	-3.8524243238583E-06	1.04625455443578E-06	-4.14421689273968E-06	-1.59814405003579E-06	0.994292315408112	-0.073769459620762
3.1	-0.00358759664522545	-0.00214654466514568	4.77697812768515E-06	-9.84213389266995E-06	1.06811527214152E-05	2.40800826352188E-06	0.994073291361888	-0.0755794113843553
3.2	-0.00337921730411844	-0.0023817414514806	-5.36963511147655E-06	-7.40659807510956E-06	1.5633110978235E-05	5.38386900701812E-06	0.994084730221985	-0.0772261863144826
3.3	-0.00339249214278364	-0.00265117963633788	-8.79114157934163E-06	2.5434809751746E-06	-8.56372202367317E-06	-1.74131244123198E-06	0.994200848784827	-0.0803360557580538
3.4	-0.00355260386414671	-0.0029461640285643	9.06358555853343E-06	-7.55810310555488E-06	-7.34744878695049E-06	4.23189017167868E-06	0.994701978410658	-0.0822857119222038
3.5	-0.00414231893525815	-0.0032760211030937	3.19283342183953E-07	-5.32467317206857E-06	-4.40054956241538E-06	-8.93510988261E-06	0.994759121243582	-0.0858587219646747
3.6	-0.00454599028869206	-0.00295342264115225	4.07322598949748E-06	4.89969597743278E-06	-7.10672116200388E-06	8.99474030525627E-06	0.993878592862553	-0.0881979445043457
3.7	-0.00476087152785847	-0.00285254031319998	1.5282552198955E-06	-4.52592051221833E-06	-5.10166232466653E-06	-6.5858914555328E-06	0.994041954153462	-0.0905185583401231
3.8	-0.00499673637697252	-0.00272366013897876	7.27999966173218E-06	-5.19354679504409E-06	-5.87860859016692E-06	-2.41984951111422E-06	0.994267302099323	-0.0926660170895307
3.9	-0.00512023215612906	-0.00265505444216776	-4.03026442526581E-06	-3.50938144265838E-07	-2.53127251043917E-06	1.13271881498426E-06	0.994783734057974	-0.0966422469004112
4	-0.00564568312095145	-0.00267128065220693	-3.38331373050875E-06	-8.13032471024662E-08	1.20617823264278E-06	8.66723175807228E-06	0.993264842926657	-0.0994213108774589
4.1	-0.00584344983685773	-0.00201389605173938	-2.89780738746757E-06	-3.86076638414561E-06	5.87585122856478E-06	3.03932108094469E-06	0.992321909243437	-0.100110350939412
4.2	-0.00575004953772141	-0.00172900894047944	-7.72347384083445E-07	-2.1573714165937E-06	5.70062265408832E-06	-1.84130667474918E-06	0.992092871907537	-0.10242074243258
4.3	-0.00569570236384257	-0.00154364624421847	-5.11871387968353E-07	3.23485970217818E-06	2.12903737830256E-06	1.7806839279499E-06	0.992092824174702	-0.104393221701136
4.4	-0.00568837123322116	-0.00149257011203293	2.57480915951157E-06	3.44156351606536E-06	7.17910125329926E-06	3.912417017274E-06	0.991720995655183	-0.106855825947385
4.5	-0.00612416013593055	-0.00154219187080773	-6.46880367514171E-06	-2.36086125751783E-07	-8.57405730244245E-06	-2.12023684002489E-06	0.99117801598148	-0.108676027330857
4.6	-0.00646089917120168	-0.000929387719623023	-9.93753679247997E-06	-9.23741076573479E-06	3.23917044974509E-06	-2.72790210502321E-06	0.991285256961419	-0.11105007357813
4.7	-0.00647075265593933	-0.000548867983780197	1.24803181432046E-07	1.86583016210777E-06	6.06750981034164E-06	-6.73187118307235E-06	0.991388880756819	-0.113091807087304
4.8	-0.00649982598654394	-0.000156745489171635	-6.39709266700193E-06	2.07616806283716E-06	7.91610713588095E-07	-1.2750603747382E-05	0.991156817221698	-0.115496927368499
4.9	-0.00628671882369807	0.000144410028977866	-3.43175000039217E-06	8.14175195637438E-06	5.57635837176636E-07	9.37828756196395E-06	0.991059767421559	-0.117260064780342
5	-0.00630769494621693	0.000217804131835386	9.65372791806154E-06	-4.05544001496579E-06	-6.94424425411154E-06	3.57362719535203E-06	0.991261622813989	-0.11909177554894
5.1	-0.00584256612187357	0.000670088504567144	-3.65892076303839E-07	-3.25520007164322E-06	-3.87733533360843E-06	-1.79550204029E-06	0.991405880901261	-0.120670953747224
5.2	-0.00531614663885665	0.000484754432040828	-1.06714125835578E-06	-4.49023861882355E-06	8.79157614528684E-06	5.58295505543649E-06	0.991473896892686	-0.123121736415213
5.3	-0.00512195904282456	0.000200180049354835	2.28563188708016E-06	6.79757118693381E-06	8.79834861698204E-06	3.13808631893522E-06	0.991387740961632	-0.125794952252978
5.4	-0.00510544904876563	-4.43391225759759E-05	2.71056917982903E-06	-3.14210045549163E-06	-2.67671073616345E-06	1.5183511282047E-07	0.991491568401834	-0.128872340250967
5.5	-0.00573436775983464	-6.94911006409736E-05	2.10814296324405E-06	9.33500390399285E-06	-3.92698781870598E-06	-5.04400618210526E-06	0.991059315659483	-0.132564577549152
5.6	-0.00565052272497099	0.000719569234164236	-5.86266134222659E-06	-1.13293908377192E-06	4.8787395215291E-06	1.9445298909312E-06	0.990003006836237	-0.134690058036631
5.7	-0.00546410620181853	0.000904195263698909	3.33980564646408E-06	-1.42487614887777E-06	-5.05348956977574E-06	-4.29592193441225E-06	0.990076885436787	-0.136790599106552
5.8	-0.00545160525658382	0.0011170516367205	-2.05742767241327E-06	-4.75122789778663E-06	9.47396036677653E-07	-5.82972318088293E-07	0.990531519563233	-0.139178738241373
5.9	-0.00533222100910758	0.0013464681801154	-3.88368892225033E-06	6.2347682360369E-07	3.86835350506311E-06	1.24763568205627E-06	0.990982747037563	-0.142695541528412
6	-0.00580089752444895	0.0011351535045713	-5.92876266195226E-06	5.05540248282689E-06	-1.48443446655981E-06	1.98498724994745E-07	0.988570240530665	-0.146271839226441
6.1	-0.00622904628588365	0.00203942398812239	-5.92938300781531E-06	-4.69650040610325E-06	-4.00662300819164E-06	4.33296860756117E-07	0.987368913404991	-0.146069239259637
6.2	-0.00608432833055568	0.00253110687605924	2.82256718926079E-06	3.12738830918785E-06	1.05351823310282E-06	7.23217093130245E-07	0.987307825887848	-0.147157403902045
6.3	-0.00579427130667252	0.00285605911449902	1.64260092844996E-06	-7.49376995128571E-07	-1.33006405900025E-07	1.37687760093256E-06	0.987008098631441	-0.148986828036839
6.4	-0.00540710583541342	0.00271773783100235	-5.19040369507297E-06	-5.62001848625813E-06	3.82197620952869E-06	6.91043282427388E-06	0.986438996224015	-0.151287215691349
6.5	-0.00569217539525657	0.00246540926820448	9.06920147214709E-06	-2.43841749805756E-07	-7.3245966116441E-06	-9.01747022058927E-07	0.985443930521346	-0.152778083749237
6.6	-0.00534441807230193	0.00275962285409971	-1.49058831210407E-06	4.66102401096042E-07	3.38380751865789E-06	-9.39070561181961E-06	0.986938210980071	-0.15485359673886
6.7	-0.00526457869961282	0.0026147921073975	4.70290351729008E-08	7.76139116777486E-06	-4.94138736610652E-07	-6.0937844662201E-06	0.98713804980797	-0.157978573933946
6.8	-0.00531349035856927	0.0028402597187083	4.25248285467261E-06	1.6579744109907E-06	2.13836937292778E-07	-5.24110864813204E-06	0.986847002274913	-0.160691403327934
6.9	-0.00509335979164376	0.00301413333571525	-7.56076355231606E-07	2.48238593739017E-07	5.76426844224815E-06	-2.68398035122935E-06	0.986741830789234	-0.163385502441048
7	-0.00561321282078107	0.00309354670182385	8.03086138277391E-06	-4.76272795444811E-06	4.35264635241818E-07	-3.02376411109215E-06	0.985226727659972	-0.165969045639273
7.1	-0.00537293016362564	0.0041922008713975	3.8523157986105E-06	2.04432965069054E-06	7.77735922864194E-07	7.23909377701164E-06	0.984426710326056	-0.166718190751863
7.2	-0.00490821097592476	0.00448490093014946	-2.44910007714708E-06	3.69766974526812E-06	-1.33659240445124E-06	-3.83116772077494E-06	0.984253284228611	-0.168038736272486
7.3	-0.00476366680282441	0.00477172150585014	3.44308680294728E-06	-4.96278525691849E-07	-2.45361782251942E-06	-1.91836810521192E-06	0.983865499879037	-0.169341232488046
7.4	-0.0045519943584568	0.00500075946331006	-6.19809692753297E-06	-2.70152643971681E-06	3.77579275715279E-06	2.46425389974869E-07	0.984652882488278	-0.171308544807846
7.5	-0.00499594612676259	0.004754755095843	6.76054462607794E-06	-6.45918383722036E-06	-2.48266425859016E-06	8.05364791165039E-07	0.984967616379924	-0.176517505435721
7.6	-0.00519662224186722	0.00581117202177199	3.49429207537501E-06	5.20031846493199E-06	-1.02387150108126E-05	4.94642413429433E-06	0.982587019998389	-0.179814543707149
7.7	-0.00483983098341047	0.00615294916011628	6.04032010329053E-06	1.09321121217665E-05	3.19621048636264E-07	-1.1359126498876E-05	0.982199366300599	-0.182958686301397
7.8	-0.00433894134381815	0.00613939239945295	2.15758627213329E-06	9.81600402272729E-07	-3.09627459722925E-06	8.82603500919709E-06	0.982082236330478	-0.186790316005742
7.9	-0.00376136527276508	0.00573209822511681	2.55023132766483E-06	-2.31969832696885E-06	3.69084028621474E-06	3.36341074974465E-07	0.981675958089227	-0.191631061021076
8	-0.00416705374033801	0.00536660817751849	-2.80709754329508E-06	1.33723981408449E-06	6.8673068404941E-06	-1.87881211315288E-06	0.977563934384982	-0.19605289465044
8.1	-0.00338400288933017	0.00585087923483624	-1.78737479192234E-06	7.57417050996953E-07	-3.70499081439927E-06	-1.24561152623996E-06	0.97614596219981	-0.195541324746844
8.2	-0.002856445682385	0.00553675752784277	-7.84954355044684E-07	6.32787353445738E-06	4.8763440442542E-06	4.34257429242757E-06	0.976546440490097	-0.197108033974526
8.3	-0.00256725117566602	0.00536807342334701	-8.75285324672618E-07	-1.41969392339936E-05	6.8263105473742E-06	5.41077740496428E-06	0.976298755161959	-0.19964324431448
8.4	-0.002202313262758	0.0051598763587079	3.7486234023197E-06	-3.42863545990437E-06	-6.96150645698905E-06	-1.20643732497882E-06	0.975554708059587	-0.202246796705977
8.5	-0.00276232996523834	0.00480409584158568	4.66612636445309E-06	5.85291945596637E-07	8.40030805654255E-06	-6.82114498280566E-06	0.974576034721581	-0.204225181140034
8.6	-0.00262379380768691	0.00577962266156835	-3.26526234543289E-06	4.11516867979195E-06	1.01158323706098E-06	1.10890998840687E-05	0.974870426238897	-0.206421020612646
8.7	-0.00204404779573131	0.0059705788132847	2.68027119099092E-06	-2.00024259831943E-06	4.77893250800979E-07	-5.53861632820615E-07	0.974836684230041	-0.209180346817407
8.8	-0.00157401248186597	0.00613081809150216	1.20642745167619E-07	-1.2522919823038E-06	-9.61241018420667E-07	9.76186497785854E-06	0.974513889510607	-0.211565888466609
8.9	-0.000808613094472759	0.00605535835730774	-3.65830202569423E-06	2.29293197375159E-06	4.82703526823049E-06	-1.8046804861546E-06	0.974580236767285	-0.213674111042701
9	-0.000653636648811796	0.00542876263064183	-1.88972008030852E-06	4.9659299916527E-07	-3.20411937070439E-06	-1.05339982562909E-05	0.9744829089208	-0.216243106636227
9.1	-9.39099795958483E-05	0.00545145064329004	5.25109613521754E-06	5.88363313556265E-07	9.12906695293343E-07	3.8157129687864E-07	0.973955834465122	-0.218505962698572
9.2	0.000385261927157095	0.00467791361097317	-8.71988627436387E-06	-4.57498755842059E-06	-8.81390653423612E-07	-6.12529468395222E-06	0.973208070949517	-0.220917404606023
9.3	0.000334170807531484	0.00405315309159809	1.84541047920853E-07	6.21472015882118E-06	4.63936248871897E-06	-2.19087603596164E-06	0.972724071805976	-0.222868916710255
9.4	0.000297418550315463	0.00355615216653883	-1.93659909726876E-06	5.88597381904805E-06	-1.05196908102075E-05	7.73418900777895E-06	0.972768849088743	-0.225268354581034
9.5	-0.000472287335042088	0.00342585996814794	3.19415081827615E-06	-7.58177830363204E-06	3.69107983770106E-06	-2.74641401624192E-06	0.972306827991049	-0.229126499840626
9.6	-0.000245746113428943	0.00404312207748867	4.50827168122375E-06	5.57981128061017E-06	-6.36516684379409E-07	7.08027118068411E-06	0.970944909093636	-0.23161870132756
9.7	-4.66143337811112E-05	0.00393536149969926	-2.60892716837763E-06	-3.94033090999752E-06	3.69178240362355E-06	-7.53105252738534E-06	0.970755149101186	-0.233772796456483
9.8	-0.000113674969895467	0.0039761779726039	-5.27144335421187E-07	-4.21901119010175E-06	6.28299007044966E-06	8.87684502815112E-07	0.971204297440685	-0.236088840380181
9.9	4.6837125981787E-06	0.00406104180397048	-2.69362018130903E-06	-5.92327662125449E-07	-8.51125824643115E-06	5.50623204957097E-06	0.971168307931473	-0.23948419680692
10	-0.000696065952757761	0.00392359916704645	4.25453361770742E-07	-1.75176575981397E-06	-3.09780252967909E-06	-7.9627896601522E-06	0.967455566124949	-0.241667201389676
10.1	-0.000650564970930357	0.00502746987362971	2.24378183365545E-06	4.76841874742749E-06	-3.10120267111629E-06	9.84466261228843E-06	0.967548485412917	-0.240163211393441
10.2	-0.000173648177710236	0.00541054949770771	-5.37770963628333E-07	-1.04915943652972E-06	-1.20938460837765E-06	-3.11786822021033E-06	0.968594125394589	-0.241570356857419
10.3	0.000315181283451759	0.00577571811328284	1.13124815840839E-05	-2.93392371775799E-06	1.00611009027223E-05	-4.847923615389E-06	0.96860940227359	-0.244004704795827
10.4	0.00117076370848754	0.00574392213696677	-6.27255463184822E-07	2.14799505086084E-06	3.02962643293225E-06	-2.18666046544524E-06	0.96749992920104	-0.247075956829012
10.5	0.00111771882835517	0.00531371023208124	-6.11195166805123E-06	4.63584362929017E-06	1.56677680566564E-06	4.30594384641588E-06	0.965530833861812	-0.248975703329704
10.6	0.00156341872681632	0.00560351960196825	-7.11307431016064E-06	1.06897533153781E-05	7.02919516892989E-06	4.27485615263419E-06	0.965243286932756	-0.251419992719219
10.7	0.00166528476928157	0.0054740813960417	-3.21485855493207E-06	1.56804763964815E-06	-5.36819822587337E-06	3.1722068268037E-06	0.963372549967846	-0.254356220234918
10.8	0.00216565807416289	0.00582871343635126	-1.92680300662275E-06	4.99048125518786E-06	8.50533659781866E-07	-3.20254212060183E-06	0.962555397358878	-0.255161134227486
10.9	0.00294232896239884	0.0058503530724374	-5.74370428442449E-06	-1.0522443538874E-05	4.92539782843687E-06	1.07008632862892E-05	0.962293884591624	-0.256316139996231
11	0.00291619952208346	0.00546905918113271	2.96382257558232E-06	2.61889016954977E-06	8.00433609404615E-07	-1.12372199055729E-05	0.961890294454851	-0.257144771401402
11.1	0.00367193782781062	0.0059802396939267	3.85942318314163E-06	1.46000245466131E-06	2.58518862071438E-07	-7.37752573729997E-06	0.962522232822873	-0.257768530246596
11.2	0.00448632396463713	0.00555954523774698	-4.4164792790765E-06	-1.97284308041726E-06	-7.32325311053024E-06	-4.85354161955637E-06	0.9630301358497	-0.259494956782637
11.3	0.00504949553570536	0.00505036495336927	6.66642745965085E-07	-6.37851937695188E-06	3.75945074293985E-06	1.4143407039239E-05	0.963669651780805	-0.261530931470831
11.4	0.00554497479187365	0.00438774900780663	-5.13022847176934E-06	8.14015797432414E-06	-1.46471245761859E-06	4.07697512665989E-06	0.964377928155703	-0.264727540451939
11.5	0.00497109983865091	0.00365020710642857	4.53020549189631E-06	8.10403838415588E-06	-9.3009517394832E-06	1.58352675452566E-06	0.963043093409372	-0.270163744990757
11.6	0.00526722459461242	0.00394820682194342	-3.84021671099598E-06	1.40340662818072E-06	5.08342816808045E-06	8.13179808358274E-06	0.960506379122207	-0.2728673048122
11.7	0.00574387328240868	0.00347033924700432	2.24910850617482E-06	1.05234031609438E-05	5.40013902103051E-07	-3.64756067529144E-06	0.960153562605229	-0.276212861310231
11.8	0.00614167867752482	0.00295810780363865	1.42876548773258E-06	4.46159723775836E-06	2.24982963367986E-06	4.53563805023454E-06	0.959932916976941	-0.280712300588438
11.9	0.00656579425373567	0.00198105200640886	7.45767662558501E-06	1.05706620480684E-05	3.88581877331702E-06	4.02793174630194E-07	0.959177390210882	-0.285895415256205
12	0.00538520612429694	0.0010338262168263	2.34277440929976E-06	-5.15575749288301E-06	-4.00827331621505E-07	1.75059973419791E-06	0.953188106234333	-0.288941074227776
