# GHZ S RI R 50
0.2	0.00113977492687289	0.00273387936408447	4.78714495873096E-06	-2.98597564779106E-06	-1.37047189185691E-05	1.31184506995291E-05	0.998760945384093	-0.00753503831040746
0.3	0.00149218177436262	0.00179336819977174	2.86682701982542E-06	6.61822690425013E-06	-1.66731729869512E-06	-9.31081004466602E-06	0.998472301781411	-0.0104630486182107
0.4	0.0017030714971538	0.00109219905593258	-1.86226317541346E-06	-4.01040567692365E-06	-9.00304759792305E-06	4.40273081069203E-06	0.998166333762671	-0.0131563463970635
0.5	0.00129724968478872	0.000727572266767476	-5.35305598893675E-06	3.25947949486653E-06	-2.12447211368704E-06	6.7500389443333E-06	0.997668235781093	-0.0156523083813322
0.6	0.00161953767228423	0.000919396629094041	-1.38948243430519E-07	2.80392372495919E-06	-5.811043589056E-07	-1.3388821968205E-07	0.998484093824387	-0.0185477523423709
0.7	0.00189332315103552	0.000605004849140698	8.87460997097304E-08	2.21711185674823E-06	4.89776717098502E-06	-3.40057819298059E-06	0.998151874405841	-0.0219849491328248
0.8	0.00208903211803989	0.00028666708260487	4.52386341373843E-06	8.23205585668668E-07	2.74180414425621E-06	1.99721642324991E-06	0.997679656477516	-0.0244079206145176
0.9	0.00229711956510659	-0.000195351221068924	-1.53251577676528E-07	-4.21243022937509E-06	-3.41442114608138E-06	-3.10388097115525E-06	0.997238378455557	-0.0270825946820018
1	0.00182962260842769	-0.00112799982278727	1.05826511243163E-06	4.28390769549406E-06	3.32094359614019E-06	9.31680418055249E-07	0.995980011797456	-0.0286904565625122
1.1	0.00112522359060156	-0.000952016532365574	9.02667184048037E-06	5.19604542895281E-07	-3.571609778073E-06	-4.9924980678868E-07	0.995533749883207	-0.029713109204569
1.2	0.000917534963684599	-0.00141929262693718	3.75374950496454E-06	-1.19614242226434E-06	-4.08778803519572E-06	-2.43422823697053E-06	0.99512960378137	-0.0305104442271158
1.3	0.000199908842499038	-0.00226722256197251	-7.59459557116279E-07	-1.42434274575348E-06	-2.5780032695765E-06	-8.69060190375554E-06	0.995399617026197	-0.031198861908741
1.4	-0.000614016554332203	-0.00309189959051851	1.22970615584959E-08	3.44182181320563E-06	-4.2722063007405E-06	-4.12281400753154E-06	0.99561674812942	-0.0332327709916987
1.5	-0.00147767677897685	-0.00318627716008721	-1.29873838111264E-06	4.42309881372092E-06	6.54771380609032E-06	-7.400079368905E-06	0.996238985022044	-0.0365353608438803
1.6	-0.00113508328320186	-0.00273156435996865	1.62793728234214E-06	-4.87518164786353E-07	4.24046866017869E-06	-5.38512506922295E-06	0.996470882227568	-0.0398827925060784
1.7	-0.000885676928734703	-0.00287335697938179	5.28027576498929E-07	3.95348620639624E-06	-8.27797178470137E-06	3.12030587052502E-06	0.996901938798717	-0.0426800002526186
1.8	-0.000822116874618715	-0.00296349335022082	1.8298794161533E-06	1.07878359916263E-06	5.66260943809021E-07	-1.7597948852601E-06	0.996919422840085	-0.0455651515141821
1.9	-0.000928262087538738	-0.00333409941628437	3.23197983187202E-06	3.01688452863424E-06	-1.81759400135573E-07	-2.3284690312296E-06	0.996692094564795	-0.0483716297482961
2	-0.00183073849660507	-0.00341024440611495	-1.72526951185987E-07	2.00000019295542E-07	-1.21438583185975E-05	5.40316337017024E-06	0.994575149315304	-0.0510520498978817
2.1	-0.00188315617506182	-0.0027549778534669	6.68728052213867E-07	-1.37891669026145E-06	1.37768170328937E-05	4.97445950451995E-06	0.994740844777712	-0.0514891726500624
2.2	-0.00180668472015055	-0.00275460029287963	1.64434047662545E-06	-1.5123101556386E-06	2.69164777616811E-06	-6.19789816896112E-06	0.995573207534279	-0.0538233280369044
2.3	-0.00192609631911175	-0.0028949839642016	-1.68047418895873E-06	-3.42510829293895E-06	-1.78188277974654E-06	-4.5886578510882E-06	0.995600299227676	-0.0557878547569235
2.4	-0.0021015936618271	-0.00328587867238238	-1.19478696762267E-06	-4.39756018452502E-06	3.04088244450462E-06	1.09020579347977E-06	0.995758732312228	-0.0590009747947071
2.5	-0.00316729099259447	-0.00383273165582608	5.36757440976216E-06	5.67564021020327E-06	-2.6380504994994E-06	1.61312569115344E-05	0.995378139344928	-0.0612175286972022
2.6	-0.0040515132149009	-0.00314242299583864	-2.2805105619166E-06	2.70735306389546E-06	4.40724833847077E-07	-4.30965463029109E-06	0.995702795545317	-0.0639843543091196
2.7	-0.00429128007670028	-0.00260819686978428	-2.40035085436161E-06	-3.63893584824928E-06	2.157747758413E-06	-2.56648141731838E-06	0.995389045333413	-0.0669928566648795
2.8	-0.00428449964896612	-0.00217404627548092	3.99647917107578E-06	2.31711052748926E-06	9.82796079762148E-06	-6.71581053046206E-07	0.995631133019296	-0.0688435823021935
2.9	-0.00411878904732711	-0.00209396503947656	1.28726807867813E-05	7.33688545860928E-07	2.46073495127933E-06	-1.17055779151386E-05	0.99548497529871	-0.0708132971195287
3	-0.00451764201291536	-0.00195532822892162	-3.85498228860193E-06	1.03916953342234E-06	-4.14184619635485E-06	-1.60618301606913E-06	0.995338207895064	-0.0731795406085544
3.1	-0.00417106254309392	-0.00133945162507109	4.79526169519313E-06	-9.8306587788097E-06	1.06741448756413E-05	2.42844425197514E-06	0.995182475583078	-0.0749105707870502
3.2	-0.00386320214481765	-0.00136335735821159	-5.35170062852289E-06	-7.41656575358345E-06	1.56169243155968E-05	5.41723384789228E-06	0.995139988430954	-0.0765674352564974
3.3	-0.00372560201843059	-0.00151669635335672	-8.79586144668443E-06	2.52183158417102E-06	-8.55812773706959E-06	-1.76171811519075E-06	0.995235742625951	-0.0796361462590429
3.4	-0.00379581224836808	-0.00188605856871847	9.08359503671931E-06	-7.53659284850034E-06	-7.35895884027297E-06	4.2141971994278E-06	0.995801563195372	-0.0815562812185828
3.5	-0.00464723917335196	-0.00209645244649615	3.30818188115961E-07	-5.32575645437646E-06	-4.38283302076509E-06	-8.94752294574176E-06	0.995963665128888	-0.0851281040734004
3.6	-0.00481782947579186	-0.00140904774962532	4.06369824454444E-06	4.9097700457049E-06	-7.12800231385668E-06	8.98172310175939E-06	0.995406748310781	-0.0876141328707939
3.7	-0.00471240137067875	-0.00131693134998915	1.53869122237772E-06	-4.52472007388531E-06	-5.08985214833778E-06	-6.59989611327418E-06	0.995561603887507	-0.090345699551393
3.8	-0.00473158467122822	-0.00138272233395079	7.29505166927008E-06	-5.18235877428152E-06	-5.87756232470933E-06	-2.43314068747811E-06	0.995458487876286	-0.0927425513657652
3.9	-0.00487019373004327	-0.00167510823655329	-4.03209821789432E-06	-3.57968684702118E-07	-2.5347137346521E-06	1.12911821116301E-06	0.995260584507947	-0.0966738099338233
4	-0.00587003638900183	-0.00171655534043294	-3.38374429356248E-06	-8.77262820137316E-08	1.18996836276184E-06	8.67101415331642E-06	0.993142932300561	-0.0980092510094993
4.1	-0.00602024364719719	-0.000727989909875345	-2.89094065733231E-06	-3.86906575097525E-06	5.87231871851386E-06	3.05365393250822E-06	0.993588992664301	-0.0980152700348486
4.2	-0.00577630314145446	-0.000413923904275338	-7.68412577197502E-07	-2.16044772835605E-06	5.70833859594795E-06	-1.83077265023141E-06	0.993944558452171	-0.100733624112035
4.3	-0.00561273028272906	-0.000321242676926417	-5.18929814411183E-07	3.2363176648263E-06	2.12702400831268E-06	1.78645061108198E-06	0.994109446206627	-0.102962688521825
4.4	-0.00564771917196054	-0.000574204826829557	2.56968066193405E-06	3.450886204717E-06	7.17761651063816E-06	3.93260241260843E-06	0.993865619032699	-0.105430159615057
4.5	-0.00667144848555414	-0.000669373714130219	-6.48092272922139E-06	-2.50950749050386E-07	-8.586096378742E-06	-2.14347191495172E-06	0.994064016679479	-0.10704123143472
4.6	-0.00714879281882203	0.000389309975287777	-9.94817216140084E-06	-9.2734229239848E-06	3.2507310579192E-06	-2.72982942495436E-06	0.995047876036371	-0.110241515288632
4.7	-0.00711138572449043	0.00102845229669823	1.23308647886432E-07	1.87056441615038E-06	6.08901862989581E-06	-6.74265347326876E-06	0.995346875278067	-0.113090238491595
4.8	-0.00700491280358339	0.00158709542449237	-6.41501570157651E-06	2.07737829849079E-06	8.01968179792281E-07	-1.27831159709011E-05	0.99511183342479	-0.116147907349768
4.9	-0.00669323618425793	0.00183485633224921	-3.44439824092528E-06	8.16285843539188E-06	5.55503707217788E-07	9.40436458813045E-06	0.994781644806456	-0.118376211964544
5	-0.00696462074157078	0.00211233090709407	9.68051103303841E-06	-4.06847530521971E-06	-6.96340712407717E-06	3.58486836972204E-06	0.994777336458466	-0.120176182890972
5.1	-0.00614616421133822	0.00293561632893833	-3.67974440013294E-07	-3.26297109578753E-06	-3.88740986639771E-06	-1.79844043385182E-06	0.995073975547115	-0.121963980134489
5.2	-0.00523894791812722	0.00270160974261293	-1.07114827826797E-06	-4.50017211547316E-06	8.81368775321581E-06	5.59271543948898E-06	0.994892830401762	-0.124671354947279
5.3	-0.00479869328649124	0.00218906964958536	2.2932316089362E-06	6.81233750800365E-06	8.81958411843508E-06	3.14220683861595E-06	0.994587729950729	-0.127257915509782
5.4	-0.0048283695145096	0.0015294870641856	2.71602615458545E-06	-3.15100113950878E-06	-2.68329564459656E-06	1.53297046852613E-07	0.994791538318214	-0.130219110049348
5.5	-0.006008547272546	0.00164154861768419	2.12165015862477E-06	9.35735845096454E-06	-3.94150517662115E-06	-5.05368143725953E-06	0.99459947556692	-0.133880230971378
5.6	-0.00568696192535371	0.00286163470525942	-5.8781966019067E-06	-1.1298317335957E-06	4.89267384545872E-06	1.94440402353472E-06	0.99406277948638	-0.136427241429082
5.7	-0.00512562581991089	0.00305879255888915	3.34623052094588E-06	-1.4325059937015E-06	-5.07120104460894E-06	-4.30019765438577E-06	0.994056814399172	-0.139289832864494
5.8	-0.00473410513029634	0.00300831254789005	-2.06954831008109E-06	-4.75857530817482E-06	9.48587467211192E-07	-5.85774772460107E-07	0.993894075552022	-0.142271871143315
5.9	-0.00445744070285899	0.00246523599425003	-3.88828928559635E-06	6.31612938599342E-07	3.87640564950319E-06	1.24230223019021E-06	0.992916698021999	-0.145932106217316
6	-0.00582247269258841	0.00159639960426201	-5.92762893842756E-06	5.0638319533065E-06	-1.48512997706371E-06	1.99978269861845E-07	0.989289798955679	-0.14733053025132
6.1	-0.00692433514204485	0.00272494064914228	-5.93679800284087E-06	-4.69883009587566E-06	-4.01030896034916E-06	4.35184035820035E-07	0.989508303235209	-0.146059016053176
6.2	-0.00725654333327586	0.00351170897533646	2.82612036661581E-06	3.12956259355652E-06	1.05471996382071E-06	7.2360754916717E-07	0.989936040343447	-0.14721505997218
6.3	-0.00718344288633515	0.00426402253246372	1.64389360974284E-06	-7.5034518454603E-07	-1.32860072006079E-07	1.37810632213052E-06	0.9898067791538	-0.149198443081988
6.4	-0.00692333405620076	0.00437759343939366	-5.19480741865769E-06	-5.62514199545444E-06	3.82513156382073E-06	6.91665207437076E-06	0.989134167026529	-0.151568374954759
6.5	-0.00749064434787254	0.00492900125867862	9.08586038628725E-06	-2.42626217268469E-07	-7.33784954905419E-06	-9.04741445546363E-07	0.989149786808212	-0.15285562874153
6.6	-0.00643356669666314	0.00592957369238003	-1.49360502794689E-06	4.68267044422091E-07	3.3844365454932E-06	-9.41442821581662E-06	0.991155918705691	-0.156589879075406
6.7	-0.00563612786816582	0.00590685064282888	5.63206010527321E-08	7.7787305110112E-06	-5.02458642681252E-07	-6.10685714537416E-06	0.990828507232821	-0.160572130995489
6.8	-0.00511003495274565	0.00589476755060256	4.26456299293117E-06	1.65542323204077E-06	2.0655257555108E-07	-5.25328543298516E-06	0.990055735994335	-0.163746786602452
6.9	-0.0047975413229365	0.00549543010392511	-7.5728410294864E-07	2.50208769120713E-07	5.77198928537927E-06	-2.70075323358175E-06	0.989154324543304	-0.166665179575104
7	-0.00593418407706957	0.00576453203662426	8.03391603007901E-06	-4.78858477942108E-06	4.29304193802153E-07	-3.0298505138311E-06	0.987160408914198	-0.168269560753491
7.1	-0.00529578132955839	0.00742562403748846	3.86097588383709E-06	2.03994518853699E-06	7.91900631982749E-07	7.24696537494131E-06	0.987237078119859	-0.168996255456167
7.2	-0.00422116143751076	0.00780715460309502	-2.44716830739589E-06	3.70650649308025E-06	-1.34409745558631E-06	-3.83465436341546E-06	0.987245350732036	-0.170978127077646
7.3	-0.00333718874485488	0.00782374555506989	3.44879846919645E-06	-5.01577105730458E-07	-2.46058114710594E-06	-1.9187782419678E-06	0.986804310663428	-0.173036547905362
7.4	-0.00252819382245544	0.00710348356200835	-6.21828564449569E-06	-2.69925302260728E-06	3.78599066473068E-06	2.41398224909844E-07	0.987161534372346	-0.176296774506139
7.5	-0.00353541543800284	0.00580122099221835	6.76287332342994E-06	-6.49290178984432E-06	-2.48733466909311E-06	8.13562173145629E-07	0.985336362395151	-0.181991467912121
7.6	-0.00410537361852719	0.00652519027463552	3.5159925060864E-06	5.20605572237905E-06	-1.02545816640585E-05	4.98394505048586E-06	0.982553833899064	-0.184333369357884
7.7	-0.00426456082612201	0.00654166229218523	6.08701562305012E-06	1.09462054490905E-05	2.89541937641418E-07	-1.13917551632433E-05	0.981747932114993	-0.187408490641399
7.8	-0.00436628882494808	0.00645862381768651	2.16590110030203E-06	9.77221577699699E-07	-3.07613052237163E-06	8.85716775070752E-06	0.980963928300966	-0.190856153583374
7.9	-0.00457707908119385	0.00614636706819046	2.54580130216121E-06	-2.33232220023619E-06	3.69762783565613E-06	3.23660800809484E-07	0.979648676244259	-0.194938271178546
8	-0.00577503380626018	0.00693523136036086	-2.80326660454768E-06	1.34582519083218E-06	6.86214419206823E-06	-1.89971074611426E-06	0.975413926439853	-0.197005996157628
8.1	-0.00461823292141264	0.00827874313359503	-1.78509034369067E-06	7.62143597567494E-07	-3.70786046895963E-06	-1.23543804641945E-06	0.975520436767344	-0.196576296846236
8.2	-0.00365753103905412	0.00833001842340547	-7.67392018240736E-07	6.32561803819069E-06	4.88465949143101E-06	4.32646115385331E-06	0.975869967535059	-0.198696784093727
8.3	-0.00298906716228616	0.00821695730181032	-9.09011694384641E-07	-1.41770955851715E-05	6.83107100523482E-06	5.38729139326323E-06	0.975232678753261	-0.201421002607752
8.4	-0.00258949112307041	0.00769456318787907	3.73703560994579E-06	-3.4309168120549E-06	-6.95415617879519E-06	-1.19174846152842E-06	0.974078165991688	-0.20395327688838
8.5	-0.00379519287145134	0.00772521052972768	4.66482626126152E-06	5.75030736201633E-07	8.38118929290525E-06	-6.83531928163791E-06	0.973117712436905	-0.205804534513127
8.6	-0.00326688390875056	0.00946714048468376	-3.24930580941368E-06	4.12058936128672E-06	1.04398905961856E-06	1.10740714848052E-05	0.973164382099669	-0.208359905944466
8.7	-0.00201348249507703	0.00990537441356189	2.6693775416574E-06	-2.00518923005125E-06	4.75332917039561E-07	-5.54403248227687E-07	0.972697368489892	-0.211176677113602
8.8	-0.000777603202229544	0.00985039063003063	1.16533970965683E-07	-1.24984528253791E-06	-9.29165512210625E-07	9.74285622599411E-06	0.972030734124358	-0.21351076004844
8.9	0.000405963098192057	0.00890180274465173	-3.64188141249359E-06	2.29747760509463E-06	4.80892354300737E-06	-1.81392983628841E-06	0.971817093284947	-0.215565038123019
9	-3.51936478071909E-05	0.00772277528271542	-1.88215738472832E-06	5.00769585060222E-07	-3.22600614308185E-06	-1.04905109248265E-05	0.971313913332763	-0.218150984619725
9.1	0.000271538349809639	0.00773339132749899	5.23153647283502E-06	5.72656013533501E-07	9.10216166728187E-07	3.77720730009722E-07	0.970273122192496	-0.220174179707325
9.2	0.000503371052894615	0.0070076351475534	-8.69295873877445E-06	-4.53885370050064E-06	-8.89875230473701E-07	-6.09827552773367E-06	0.969283997797777	-0.222181149090125
9.3	0.000350535135281959	0.0064776994677097	1.94330288051442E-07	6.18945864905603E-06	4.61702572337737E-06	-2.18994164912438E-06	0.968824985802071	-0.223969125462531
9.4	3.34059793480768E-05	0.00586338190248874	-1.91986788005453E-06	5.86654315305999E-06	-1.04672205336394E-05	7.72129613665121E-06	0.968742151429972	-0.226655608976041
9.5	-0.00129269388871264	0.00631289735617795	3.16881575837879E-06	-7.55707649974036E-06	3.67186131062888E-06	-2.74170344244049E-06	0.967555497316882	-0.230340519622723
9.6	-0.000685435172033525	0.00761098513067635	4.4978569472589E-06	5.55282371681327E-06	-6.25328648652469E-07	7.05387786554607E-06	0.966162234632795	-0.232448458846591
9.7	8.5433092598115E-05	0.0077183038903104	-2.60414231359481E-06	-3.9227410939185E-06	3.66914402039413E-06	-7.50793960089299E-06	0.965770353800463	-0.234544392387691
9.8	0.00063859421096261	0.00755341319226516	-5.30577368205828E-07	-4.20235140777983E-06	6.26033293362507E-06	8.76235867379048E-07	0.965862814765528	-0.236748731905962
9.9	0.00101043889194419	0.00683269120685805	-2.68207211496897E-06	-5.86356969450528E-07	-8.46580406027895E-06	5.49149648970429E-06	0.965165395834051	-0.239779349694043
10	-0.000328926423068044	0.00645336524217901	4.23717700182232E-07	-1.74292544795646E-06	-3.08057040554425E-06	-7.92372118775037E-06	0.96181510663065	-0.240636556464406
10.1	-0.000242812171595038	0.00771161058133844	2.23147425531902E-06	4.74964994362506E-06	-3.09400054826761E-06	9.80129795561733E-06	0.962526127368062	-0.239891394507157
10.2	0.000376026651227519	0.00792657137784214	-5.34878704059216E-07	-1.04523227712296E-06	-1.20237686483088E-06	-3.10593955448528E-06	0.962954545813096	-0.241444464932636
10.3	0.000932079316206707	0.00784764153183226	1.12701202647461E-05	-2.91164343883364E-06	1.00255195629719E-05	-4.81918229653231E-06	0.962549515509748	-0.243392676804266
10.4	0.00132414940487205	0.00705665466521532	-6.28409783056556E-07	2.13940169470637E-06	3.02233306065062E-06	-2.1741545156927E-06	0.961555002589999	-0.245432494647832
10.5	1.8753618791056E-05	0.00676194371904903	-6.10640743271641E-06	4.61705716466434E-06	1.55703478031759E-06	4.29946449721711E-06	0.961152565847905	-0.246860593314872
10.6	-0.000119324106890037	0.00774323922505341	-7.10787573689969E-06	1.06642738242015E-05	7.01274753383028E-06	4.27219288513046E-06	0.961277567446782	-0.250186539856918
10.7	9.20417013253339E-05	0.00842751474447273	-3.21170526179054E-06	1.56277828648938E-06	-5.36345213504102E-06	3.16261146705433E-06	0.96025249508414	-0.252986868287941
10.8	0.00056110449740224	0.00924160234138977	-1.92823751403331E-06	4.9821654987099E-06	8.51976639087755E-07	-3.19751829304695E-06	0.959181660062982	-0.254664198620289
10.9	0.00140595126168035	0.00933494615861011	-5.7290734245151E-06	-1.05171011855401E-05	4.91141252648195E-06	1.06946449151753E-05	0.959205551634885	-0.256094244260739
11	0.000921688338551926	0.00979851219640717	2.95839480149871E-06	2.6174689954535E-06	8.06605517857286E-07	-1.12224781375663E-05	0.958642299511992	-0.257678341248039
11.1	0.00229897557035272	0.0113072093975817	3.85110747351604E-06	1.46298274267208E-06	2.68341987982588E-07	-7.3651461575922E-06	0.958075194161846	-0.258729452120009
11.2	0.00407191722665481	0.0113475483437582	-4.40658015566332E-06	-1.97920248852594E-06	-7.30361873620855E-06	-4.86197849527582E-06	0.95754802637415	-0.25990892423166
11.3	0.00567821121420744	0.0106944970366187	6.81189756623715E-07	-6.37160061776912E-06	3.72281001517042E-06	1.41404690875212E-05	0.957626906766895	-0.261016392809778
11.4	0.0068107219120868	0.00926841843758042	-5.14744634059424E-06	8.1259843373025E-06	-1.47365868754327E-06	4.07241642040766E-06	0.958089217421878	-0.26332518614867
11.5	0.00615775761986635	0.00828735867436859	4.50901325026598E-06	8.1091288781636E-06	-9.298622624096E-06	1.5615012280586E-06	0.956841451473568	-0.267492765140029
11.6	0.00699823129254294	0.00843330616548012	-3.84321856754072E-06	1.3920455632488E-06	5.05881282090781E-06	8.1441979847102E-06	0.955113356541256	-0.269841460669406
11.7	0.00796792758754966	0.00729726145872675	2.21997401934246E-06	1.05311949130739E-05	5.50299999556382E-07	-3.64656796520398E-06	0.954821222493172	-0.272838462360534
11.8	0.00847944673851442	0.00574976353840805	1.41795951410455E-06	4.46581669792288E-06	2.23896736049536E-06	4.5418981183868E-06	0.954820499553688	-0.276653377326575
11.9	0.00827415435088322	0.00350570758288029	7.43138063013285E-06	1.05786965968885E-05	3.88242415203953E-06	4.10370916318766E-07	0.954820558493658	-0.281118533167968
12	0.00563104179667305	0.00270009599250531	2.35636380949159E-06	-5.14106814209784E-06	-4.05981700424048E-07	1.74689772652919E-06	0.951236929962754	-0.283451214877177
