# GHZ S RI R 50
0.2	0.00100310870842975	0.00253096134862214	4.791606238378E-06	-2.98526609731696E-06	-1.37198909015989E-05	1.31191813470006E-05	0.999307345405631	-0.00715533736588852
0.3	0.00147033413203432	0.00175271301272791	2.8663828926827E-06	6.62346645534467E-06	-1.66517329434293E-06	-9.31736444009567E-06	0.999170455628373	-0.0101077769311055
0.4	0.00170760117312513	0.00119032977044049	-1.86283147734796E-06	-4.01416084677769E-06	-9.01153120998582E-06	4.40418969874981E-06	0.99905278445271	-0.012789658893298
0.5	0.00169508801085997	0.000938166437970368	-5.35681568474382E-06	3.26389293681154E-06	-2.1243846752233E-06	6.75658461307184E-06	0.998890873323118	-0.0157064918365572
0.6	0.00200157675777277	0.000633425673263659	-1.38422397132235E-07	2.80501859236886E-06	-5.81352955819307E-07	-1.33819200746126E-07	0.999127473299646	-0.0188699058759406
0.7	0.00199132579488696	0.000271898555268408	8.8692867469988E-08	2.21812878373509E-06	4.90014919603538E-06	-3.40192500150884E-06	0.998636136851603	-0.02199096134354
0.8	0.00199465363235639	-6.16970666147481E-06	4.52653153751333E-06	8.24291621991244E-07	2.74322871399734E-06	1.99879335099019E-06	0.998215479261736	-0.0242193192572282
0.9	0.00188392711856771	-0.000339955600854993	-1.52434195194297E-07	-4.2160389190566E-06	-3.41662016978356E-06	-3.10728253137097E-06	0.997833730651179	-0.0266536272372166
1	0.00145235788488766	-0.000500677132185675	1.0596194637598E-06	4.28966574348588E-06	3.32538107307232E-06	9.32978990195515E-07	0.997186647254423	-0.0278962592914585
1.1	0.00135816088822698	-0.00044974195407501	9.03862449339455E-06	5.17067479599866E-07	-3.57644369195407E-06	-4.98628784538523E-07	0.99715639781994	-0.0295499445962289
1.2	0.00115117817852327	-0.000906961818882096	3.75862678559208E-06	-1.19955637757802E-06	-4.09478007859908E-06	-2.4359013289675E-06	0.996764094133102	-0.0304584082379946
1.3	0.000767064250904363	-0.00168209159445891	-7.61870943354686E-07	-1.42601120338588E-06	-2.5893962413564E-06	-8.70249218844177E-06	0.997387047848576	-0.0314187032858591
1.4	0.000161388548046954	-0.00279067976583686	1.69204258625595E-08	3.44633956887776E-06	-4.28335318486162E-06	-4.12252665217545E-06	0.997418791289357	-0.0341070553222444
1.5	-0.000401518136530746	-0.0032371926298146	-1.29346086497393E-06	4.42811343184506E-06	6.54203941986494E-06	-7.41461548864239E-06	0.997652266412584	-0.0376944579497577
1.6	-0.000635272873822783	-0.00348150923351088	1.62796377459034E-06	-4.89682498808484E-07	4.23553517721181E-06	-5.392327814176E-06	0.996983818316438	-0.0412921782487702
1.7	-0.000909995685134167	-0.0034435279053043	5.32483760272052E-07	3.95376866519367E-06	-8.27635101972526E-06	3.13007581215063E-06	0.996891332032699	-0.0437053237619071
1.8	-0.00108837112739884	-0.00328982183133184	1.83100330925493E-06	1.07693876383078E-06	5.64479830677333E-07	-1.76039658820177E-06	0.996581834062362	-0.0462840407668319
1.9	-0.0013488178638588	-0.0032211538751049	3.23277135464519E-06	3.01393455397398E-06	-1.83120602744273E-07	-2.32760276945338E-06	0.9959389037286	-0.0483269578487481
2	-0.00153563058381322	-0.0028486063699315	-1.72662070368063E-07	2.00067424025871E-07	-1.2151454973242E-05	5.40333316110405E-06	0.995324700994276	-0.0498994966366346
2.1	-0.00140634169426763	-0.00296813162195498	6.68142049280983E-07	-1.38096208253666E-06	1.37956713482348E-05	4.96683979570303E-06	0.995970185049401	-0.0521847363213308
2.2	-0.00170574000391934	-0.00314070683609395	1.64322585402178E-06	-1.51511170759574E-06	2.68513022382596E-06	-6.20427703909267E-06	0.995871455974584	-0.0548636770726844
2.3	-0.00216452142153263	-0.00326995166267856	-1.68494757799284E-06	-3.42362255705451E-06	-1.78779749934767E-06	-4.58724211341361E-06	0.99534369674668	-0.0566906968984923
2.4	-0.00283585733714816	-0.00334275039647858	-1.20013020454606E-06	-4.39640264209959E-06	3.04237808043239E-06	1.08663036807783E-06	0.995045186088515	-0.0596074931002921
2.5	-0.00364631581468852	-0.00285262691196576	5.37478941400004E-06	5.66575882139842E-06	-2.61245481242748E-06	1.61307320518708E-05	0.994543948188775	-0.0613237412925248
2.6	-0.00375784173174347	-0.00234351840161891	-2.27557987344543E-06	2.7071000215341E-06	4.35912509762938E-07	-4.30600087578368E-06	0.994810694543476	-0.0637486478189573
2.7	-0.00376283449950402	-0.00205533637568268	-2.40031317146726E-06	-3.6349804785466E-06	2.15483949406364E-06	-2.56558779407249E-06	0.994843950871114	-0.0664245419954274
2.8	-0.00373734282035002	-0.00192970256594345	3.9957373612611E-06	2.31453463738665E-06	9.82357695771346E-06	-6.75249211996179E-07	0.99540849818223	-0.0684391573187154
2.9	-0.00377990904663961	-0.00182656549272962	1.28712266960191E-05	7.257773074189E-07	2.45327641952538E-06	-1.17053428632046E-05	0.995320970299858	-0.0705953048264519
3	-0.00363230351577369	-0.00148808926229202	-3.85245794066738E-06	1.04199604842255E-06	-4.1414431132156E-06	-1.6019857394279E-06	0.995317211506216	-0.0730329023866709
3.1	-0.00326035214052075	-0.00167096604465775	4.78920110699054E-06	-9.8309950102758E-06	1.067308892633E-05	2.42246179182777E-06	0.995295526825315	-0.0750951122915481
3.2	-0.00331450087396091	-0.00190826219097724	-5.35814395369248E-06	-7.4129407263901E-06	1.56226940898678E-05	5.40518184967218E-06	0.995216519977281	-0.0771214137832966
3.3	-0.0034861142249249	-0.00214469242610682	-8.7937026479459E-06	2.53310993543448E-06	-8.56129594074047E-06	-1.7512205544751E-06	0.995081793517018	-0.080642769498207
3.4	-0.0039599639329218	-0.0023251027740895	9.06694339531857E-06	-7.55151194384177E-06	-7.34901260858031E-06	4.22681075234011E-06	0.994903308078833	-0.0829837499980604
3.5	-0.00437902035619796	-0.00208794637864712	3.22571578871846E-07	-5.31797303722725E-06	-4.38902463193267E-06	-8.92727528452163E-06	0.99419401211841	-0.0856496462315802
3.6	-0.00459715180564899	-0.00220357048531218	4.06246300668249E-06	4.90269363689811E-06	-7.11600703217165E-06	8.9769127099383E-06	0.994189993026514	-0.0879334553396882
3.7	-0.00521101962693524	-0.00212955459801318	1.53409726027914E-06	-4.52259290255586E-06	-5.09119267450196E-06	-6.59116974946771E-06	0.994017204268236	-0.0907972647632848
3.8	-0.0057844859429753	-0.00176430213394365	7.28393180347814E-06	-5.18362067544235E-06	-5.87411882105887E-06	-2.42596889838764E-06	0.993371613028293	-0.0928476695156332
3.9	-0.00621065239582307	-0.00111733934341799	-4.02677788717158E-06	-3.56249837804062E-07	-2.53095383740182E-06	1.12837506881461E-06	0.992711504890989	-0.0954866944474648
4	-0.00603422237469021	-0.000126776874033639	-3.38321609731776E-06	-9.01228218523643E-08	1.18363237512023E-06	8.6706676856664E-06	0.992986795324932	-0.0952609114094806
4.1	-0.00538429432124805	-5.3834878028228E-05	-2.89430566928046E-06	-3.86873174339601E-06	5.87627302490139E-06	3.05123766416482E-06	0.994309971144792	-0.0975732671924626
4.2	-0.00531387194651295	-0.000198256178685755	-7.69927079525377E-07	-2.15964495671052E-06	5.70636508449813E-06	-1.83479592310302E-06	0.993923930839088	-0.100745186838887
4.3	-0.0054370906482541	-0.00023402493001843	-5.16905916891548E-07	3.23626646834014E-06	2.12786803323176E-06	1.78495683673686E-06	0.993821253974951	-0.102928197725942
4.4	-0.00584483065350968	-0.000143695315451027	2.57295310001284E-06	3.4497110008249E-06	7.18234508939771E-06	3.92797780986927E-06	0.993564673963371	-0.105297263415885
4.5	-0.00603039806424838	0.000585747307915134	-6.48075097924743E-06	-2.37018393977277E-07	-8.58975436299443E-06	-2.12481551932005E-06	0.993987576637176	-0.107540990676321
4.6	-0.00581914221997225	0.000671931378458918	-9.94562297484116E-06	-9.23931975809789E-06	3.24006893776598E-06	-2.73033474656196E-06	0.993754251693311	-0.11095913467062
4.7	-0.0059473679241796	0.000778136469806961	1.2446001272782E-07	1.86638296946346E-06	6.0705906162645E-06	-6.73254367403059E-06	0.993618136670113	-0.113163984322581
4.8	-0.00609891153153072	0.000936749669110367	-6.40102911125407E-06	2.07392912195678E-06	7.98311197542138E-07	-1.27559981260917E-05	0.993316501357023	-0.115866512334074
4.9	-0.00631301621309553	0.00115316625627677	-3.43808701853729E-06	8.14743981903442E-06	5.54268657553898E-07	9.38669256860662E-06	0.992875294314321	-0.117938954533096
5	-0.00613171899697777	0.00172899261317364	9.65541243221668E-06	-4.05918030388582E-06	-6.94528070485116E-06	3.57650588044203E-06	0.992629478370041	-0.119603568010938
5.1	-0.00574731429744973	0.00153154886710832	-3.63614953002533E-07	-3.2550211093006E-06	-3.87559437233632E-06	-1.79791996827986E-06	0.992556403623836	-0.121115929090603
5.2	-0.00581767095859025	0.00158193844494955	-1.06310224844429E-06	-4.49314264154035E-06	8.7896134177429E-06	5.59400742655666E-06	0.992265929005281	-0.123252743780613
5.3	-0.00572264342939246	0.00181786995720707	2.28251649726456E-06	6.80600678518796E-06	8.80447140138607E-06	3.14807170184031E-06	0.992305268362524	-0.125467147462557
5.4	-0.0056252931226293	0.00202356321864388	2.71334626708083E-06	-3.14636758192995E-06	-2.67993990742939E-06	1.52461233081993E-07	0.992578703240697	-0.128647875270782
5.5	-0.00516583673558448	0.00252191766930316	2.10999220018138E-06	9.33103203699508E-06	-3.92697705706806E-06	-5.0410796977951E-06	0.992162822775159	-0.131464348782897
5.6	-0.00491879177778949	0.00189812589984953	-5.86334023244929E-06	-1.13968961902104E-06	4.87821416991722E-06	1.95047419028614E-06	0.992447967058106	-0.134237153670921
5.7	-0.00555525726523271	0.00183810169279358	3.34421784066216E-06	-1.42340749601849E-06	-5.05468893383754E-06	-4.30433116829601E-06	0.992009169982765	-0.137283292430677
5.8	-0.00616324964320221	0.00218065243978812	-2.05579902149421E-06	-4.7571155643695E-06	9.48697943858345E-07	-5.82806211469427E-07	0.991287555611124	-0.139652419624586
5.9	-0.00694982501733337	0.0028973667992775	-3.8870049320385E-06	6.17477293876096E-07	3.86859255042059E-06	1.25471516584693E-06	0.990088740724185	-0.141190868129573
6	-0.00721823983756774	0.00473206533090155	-5.96331016346628E-06	5.05337386135034E-06	-1.48980251106196E-06	1.94570191307348E-07	0.990993234533325	-0.140453697510793
6.1	-0.00612198939734263	0.005532950052573	-5.95337851267497E-06	-4.71902196371452E-06	-4.02415134801801E-06	4.33715731261716E-07	0.993184896443796	-0.142974492759847
6.2	-0.00539275111068626	0.00563731527645463	2.83434043339524E-06	3.13671775118813E-06	1.05765018277722E-06	7.25137733925284E-07	0.99341890970073	-0.145599098503398
6.3	-0.00485834877143087	0.00525311676880718	1.64689077276772E-06	-7.52790557287519E-07	-1.32387763963314E-07	1.38103211714589E-06	0.993080149196567	-0.148666021663719
6.4	-0.00507479598976404	0.00481562356012356	-5.20895358800025E-06	-5.63678978748563E-06	3.83645024748615E-06	6.93180745110251E-06	0.992264702300984	-0.151254865432057
6.5	-0.00477722625617888	0.0050617208810163	9.10802984107003E-06	-2.6646455746984E-07	-7.35856799193426E-06	-8.88250141143706E-07	0.992836561023125	-0.154912380643345
6.6	-0.00476051597528078	0.00447153112433221	-1.49174132235357E-06	4.71463880626928E-07	3.3609590819068E-06	-9.41728538960586E-06	0.990966751226598	-0.159091536500275
6.7	-0.00493045608870072	0.00465805698183589	6.25861936654131E-08	7.76896957117131E-06	-5.06805266719213E-07	-6.0988208647481E-06	0.989541654070813	-0.161094514991957
6.8	-0.00489148389494841	0.0047618525593275	4.2588776668513E-06	1.65383574671218E-06	2.06950473741937E-07	-5.24651333201988E-06	0.988715404288578	-0.16323437226246
6.9	-0.00527415855969821	0.00500583192901212	-7.56706665295665E-07	2.49419827144885E-07	5.76815327530004E-06	-2.69394802299284E-06	0.98773937491738	-0.165197732468953
7	-0.0048020560674825	0.00617188331435776	8.03204999280082E-06	-4.77949015158498E-06	4.31238147931836E-07	-3.02750805996544E-06	0.987465370521833	-0.166257972567545
7.1	-0.00423747015219778	0.00563099446818526	3.85768867511644E-06	2.04134551209018E-06	7.86888900762329E-07	7.24373051597083E-06	0.987355786236593	-0.169001762039518
7.2	-0.00461448664535647	0.00560851668899455	-2.44683298316053E-06	3.70449427335319E-06	-1.34281775711017E-06	-3.83329587724612E-06	0.986122820450517	-0.171523280034613
7.3	-0.00504203559550778	0.00580223059582239	3.44599049018853E-06	-5.03761935116377E-07	-2.46025414599098E-06	-1.91560964407953E-06	0.984308090337878	-0.17409229723114
7.4	-0.00599919340394448	0.00609512121405291	-6.20910919312755E-06	-2.67909683920608E-06	3.77733527102617E-06	2.32527097531326E-07	0.981426292943058	-0.177433465218433
7.5	-0.00660286366746799	0.00792381546269189	6.72348546218314E-06	-6.45348153069025E-06	-2.47265369762868E-06	8.08420313512712E-07	0.977393178163083	-0.177469753372471
7.6	-0.00562932347944287	0.0085940636017615	3.48887581137456E-06	5.19107193750216E-06	-1.0220713958673E-05	4.9390607590451E-06	0.978114129047768	-0.178501410700453
7.7	-0.00542364979618902	0.00903965771651392	6.03630557298085E-06	1.09154875913109E-05	3.15082663388008E-07	-1.13442428267198E-05	0.977969368710659	-0.181303178300099
7.8	-0.0048170639681725	0.00919734509641366	2.15389687825336E-06	9.7975084370775E-07	-3.09030780337715E-06	8.81088243524858E-06	0.977860119173485	-0.184047183127015
7.9	-0.00437900574383573	0.00937792310308508	2.54614933651069E-06	-2.30996482971343E-06	3.6801609527731E-06	3.40175633227379E-07	0.97733422842561	-0.186015689786411
8	-0.00265133489136798	0.00965078495661854	-2.81329827098502E-06	1.32353230060242E-06	6.87573936757607E-06	-1.84541106159034E-06	0.97983598540072	-0.186673050213267
8.1	-0.00189326928542522	0.008232109524424	-1.79372384174879E-06	7.5563336490929E-07	-3.71217641871809E-06	-1.25677845638938E-06	0.981594144915001	-0.192207410331363
8.2	-0.00197526239119666	0.00758983981882273	-7.90909130251185E-07	6.34137662762739E-06	4.88426009942201E-06	4.35544780758781E-06	0.980689005589072	-0.196171783008024
8.3	-0.00208594491817425	0.00721166075419531	-8.71939415275107E-07	-1.42248906777956E-05	6.83767605420267E-06	5.42373986930182E-06	0.979524503487081	-0.199582027065531
8.4	-0.00263413168570189	0.00722610959929175	3.7597787061196E-06	-3.4375049113973E-06	-6.98075567872903E-06	-1.21116225823133E-06	0.978362191029409	-0.20245796306846
8.5	-0.0022090090715384	0.00828753349175985	4.68117168712318E-06	5.74665295356527E-07	8.40660179031131E-06	-6.86305922163145E-06	0.977790614790708	-0.205699571511934
8.6	-0.00160517484230469	0.0075827085219978	-3.25717902039885E-06	4.12465618796111E-06	1.03786177613476E-06	1.10918275111049E-05	0.976291388648994	-0.209009513289756
8.7	-0.00191620129006407	0.00739824799801874	2.67835599771293E-06	-2.0044712231799E-06	4.77284377646101E-07	-5.5467422716872E-07	0.975105093556329	-0.211396833375274
8.8	-0.00214711845634225	0.00751393422509703	1.19725345295092E-07	-1.25322498887353E-06	-9.54103608461349E-07	9.76915453169186E-06	0.974134431357864	-0.213312234070405
8.9	-0.00259198172813643	0.00784515041394612	-3.66261054857183E-06	2.30015136803433E-06	4.83380290957413E-06	-1.81208994456712E-06	0.973774876792551	-0.214863482359812
9	-0.00212287983038147	0.00918313479025031	-1.89052778335389E-06	5.01932484794494E-07	-3.23436069841522E-06	-1.05373943278892E-05	0.973518639250928	-0.216545549093273
9.1	-0.000985773958908174	0.00901149571633392	5.25563274122407E-06	5.8074346249008E-07	9.14122330346253E-07	3.80440026493039E-07	0.973696569496843	-0.218238357944436
9.2	-0.000206831780135598	0.00896106897222096	-8.74354583031905E-06	-4.56215063367445E-06	-8.96640543028143E-07	-6.13261580599768E-06	0.973877539216429	-0.220995050474426
9.3	0.000778779714763673	0.00850210339535047	2.08790674025732E-07	6.2219102552527E-06	4.63679632977689E-06	-2.21158959578481E-06	0.973784728504803	-0.224406300888493
9.4	0.00116474810480424	0.00765022576507643	-1.90271658594971E-06	5.89518030964983E-06	-1.04727954508996E-05	7.79141331624833E-06	0.972268714789551	-0.228724482157442
9.5	0.00185854695653574	0.00742466305590278	3.1495442011385E-06	-7.56482206420492E-06	3.66477441338216E-06	-2.75090560750046E-06	0.96998219155037	-0.230631459951843
9.6	0.00166951340022774	0.00585449028209784	4.50519888838379E-06	5.55748129193289E-06	-6.23311970102019E-07	7.06225482873351E-06	0.969637366912458	-0.233594908709196
9.7	0.000736316467856579	0.005452759554367	-2.61091785937561E-06	-3.92781405364472E-06	3.67083055647934E-06	-7.52286690052243E-06	0.968299579624591	-0.236496853700417
9.8	-8.65826023193465E-05	0.00544301627810765	-5.33789421008401E-07	-4.20766231199969E-06	6.26923684476911E-06	8.73682369099029E-07	0.966930491775985	-0.238563760401178
9.9	-0.00116051966628692	0.00598214965116674	-2.68397777429893E-06	-5.89475209145742E-07	-8.47887762360229E-06	5.48841390413014E-06	0.964819286916044	-0.239009350572984
10	-0.00100018333292704	0.00760692273285145	4.29238489370176E-07	-1.75076458221985E-06	-3.08037484625052E-06	-7.96916498796657E-06	0.966787562604952	-0.237913710695813
10.1	-0.000459221960288369	0.00743595022983492	2.25234301793293E-06	4.76854760982792E-06	-3.08904788278936E-06	9.85621597361001E-06	0.967031460847933	-0.242136862423677
10.2	-0.000606155323684225	0.00764601893276115	-5.39323980494171E-07	-1.04713381109461E-06	-1.21436063923924E-06	-3.11260890249687E-06	0.96511162813494	-0.2438026264689
10.3	-0.000712589487365367	0.00796133721245589	1.12901577728579E-05	-2.94341555283157E-06	1.00384131586577E-05	-4.8526828079762E-06	0.963556070411207	-0.244962292335231
10.4	-0.00114836633246583	0.00868680244744479	-6.26192332370614E-07	2.14665868621219E-06	3.0268550211378E-06	-2.18599022639226E-06	0.962295505145466	-0.245674954393859
10.5	-0.000246025996045324	0.0105088465975516	-6.10031241393049E-06	4.65500915535639E-06	1.57976777267902E-06	4.30268433410807E-06	0.962561820122705	-0.247576158437025
10.6	0.00126677913684168	0.0106583740739473	-7.07032892411508E-06	1.06822414003907E-05	7.02327064119473E-06	4.24768654668097E-06	0.961585633864172	-0.249582191353858
10.7	0.00270274745736035	0.0105871655650578	-3.20754710152354E-06	1.56790562952658E-06	-5.35551294574616E-06	3.17094249577313E-06	0.962123629950418	-0.251562154809179
10.8	0.00372640868813391	0.00965383840167372	-1.92151998686919E-06	4.98671194862931E-06	8.47534363700325E-07	-3.19986562034634E-06	0.962453579626272	-0.254461376855484
10.9	0.00353515631597314	0.00903500919737158	-5.7566122456594E-06	-1.0514869242582E-05	4.93856009244143E-06	1.06943031912635E-05	0.961942171117035	-0.257296428015798
11	0.00440942591115586	0.00959364656076152	2.9670589695692E-06	2.60705532823816E-06	7.68052267016814E-07	-1.12240740108669E-05	0.961199591874112	-0.259320258049462
11.1	0.00509053765767555	0.00837254669903197	3.85241545636679E-06	1.45108854912869E-06	2.47437466271349E-07	-7.36053507947652E-06	0.960025897251532	-0.261672493901799
11.2	0.00504723214380857	0.00781231487259685	-4.41034672194652E-06	-1.96440425522367E-06	-7.31478651898537E-06	-4.83659123593414E-06	0.95852388114882	-0.263660792853815
11.3	0.00511481861602802	0.00728048409228414	6.54788198082616E-07	-6.36957627195011E-06	3.77746589857127E-06	1.41147072383556E-05	0.957219268805082	-0.265768720188698
11.4	0.00465108586398034	0.00694256982452641	-5.08945411980221E-06	8.13635203933909E-06	-1.4471565319574E-06	4.07134134028491E-06	0.954579065848933	-0.268670814245891
11.5	0.00524215213929517	0.00743363326440487	4.51057272565254E-06	8.0520622569472E-06	-9.24450206558237E-06	1.58239393955761E-06	0.952329289937466	-0.268553302540808
11.6	0.00546431785146343	0.00598466869646153	-3.82973999451992E-06	1.39433073997174E-06	5.05751848590803E-06	8.11215863545857E-06	0.952714273861314	-0.271740736816408
11.7	0.00459800832279485	0.00540999384140008	2.24071887598376E-06	1.04989058927449E-05	5.39769186984976E-07	-3.63869135826487E-06	0.950945795268544	-0.275451930586678
11.8	0.00373066268864841	0.00556313007263466	1.42478384018194E-06	4.44683331285187E-06	2.24318211598896E-06	4.52050814709455E-06	0.948632003459028	-0.278045688440168
11.9	0.00301577813980494	0.00677711365489531	7.39943832055642E-06	1.05267351012357E-05	3.86425967068136E-06	4.07317887890906E-07	0.946869808751176	-0.277145337394383
12	0.00487935922606474	0.00869875384603929	2.36640650417728E-06	-5.13433481588465E-06	-4.09529294046279E-07	1.7454427447362E-06	0.95138256290782	-0.275485167680024
