# GHZ S RI R 50
0.2	0.000739485226796347	0.00180055112768157	4.80159367402306E-06	-2.98317090299722E-06	-1.37542045773602E-05	1.31191491425576E-05	1.00052735827682	-0.00650418810296593
0.3	0.0012571446565189	0.00124223988900173	2.86381159702617E-06	6.63660002969461E-06	-1.65793796032574E-06	-9.33335496628301E-06	1.00066534051245	-0.00945469847070196
0.4	0.00157666522218634	0.000969837825262385	-1.86362881895032E-06	-4.02335885737442E-06	-9.03233828098074E-06	4.40641556507784E-06	1.00101669031711	-0.0122374926792646
0.5	0.00212098999001592	0.000449053658508245	-5.36571070281318E-06	3.26902261789225E-06	-2.1281278951315E-06	6.76755752917402E-06	1.00084730498158	-0.0160977355445358
0.6	0.0018423206379547	-0.000339273543473624	-1.40577457309286E-07	2.8089626909392E-06	-5.82097091137108E-07	-1.34417286523169E-07	1.00016255734135	-0.0187777231693193
0.7	0.00147386790566203	-0.000448905401760338	8.69423070699519E-08	2.22266245496049E-06	4.91295243972017E-06	-3.40449908379586E-06	0.999983497281045	-0.0212252483885888
0.8	0.00130839651111947	-0.000485564209146226	4.53706852670509E-06	8.29881812345824E-07	2.74843750176146E-06	2.00588550847621E-06	1.00004774110913	-0.0231468252542564
0.9	0.0010786803443493	-0.000355493004064304	-1.50356301843236E-07	-4.22864144165494E-06	-3.42489412117136E-06	-3.11855382291035E-06	1.00035603327326	-0.0253116090517856
1	0.00151751709094671	-7.39395133530071E-05	1.0633828641436E-06	4.3034859335061E-06	3.33622933910854E-06	9.35747094068522E-07	1.00104107274953	-0.0272142868684829
1.1	0.00164254298517566	-0.00103414981633975	9.06434779348061E-06	5.15754342682627E-07	-3.58671229542544E-06	-4.98940829437744E-07	1.00048624085644	-0.0304087623632732
1.2	0.000938718038498738	-0.0019574643711647	3.76774808174201E-06	-1.20396735078507E-06	-4.10607266624088E-06	-2.44061121602264E-06	0.999012394579748	-0.0318866302725877
1.3	-0.000157945840470397	-0.00298762940325745	-7.63970910722052E-07	-1.42863967718672E-06	-2.59799680382363E-06	-8.71931473769627E-06	0.998111306869589	-0.0329958534619648
1.4	-0.00125351822643933	-0.00364849080402693	1.77459565651091E-08	3.45251886323546E-06	-4.29198928838684E-06	-4.12893472431673E-06	0.997240295276865	-0.0348013447531547
1.5	-0.00138642925980898	-0.00403907746853821	-1.29548678668799E-06	4.43826517429344E-06	6.55521459777539E-06	-7.43246940906731E-06	0.998150876680084	-0.0380779689746592
1.6	-0.0019013056980499	-0.00409566678778872	1.63225370591495E-06	-4.9194491711737E-07	4.2444415048288E-06	-5.40974466101451E-06	0.997788908568478	-0.0412935694049096
1.7	-0.00188755583745929	-0.00364658090676156	5.37619625844001E-07	3.96583422761165E-06	-8.29984983462327E-06	3.14721379383204E-06	0.998691928599269	-0.0434531214249037
1.8	-0.00172594672257693	-0.00329426225685559	1.83840409768649E-06	1.07881652499694E-06	5.64659906439929E-07	-1.76703900933687E-06	0.999246548827099	-0.0460464437657572
1.9	-0.00148794269228128	-0.00303782440791144	3.24845680926327E-06	3.02336771183789E-06	-1.85861805365596E-07	-2.33687503306315E-06	0.999841728314453	-0.0480049336976483
2	-0.000936449432208994	-0.00332444005806762	-1.73222076902938E-07	2.01463668745314E-07	-1.22068984908082E-05	5.45487815338303E-06	1.00101797531624	-0.0515832989625534
2.1	-0.00140047336623146	-0.00398626848013783	6.67009068367104E-07	-1.38950218655E-06	1.38757100957914E-05	4.94751257623609E-06	0.999972495824836	-0.0554069505109099
2.2	-0.00198659300003602	-0.00401604637828285	1.64547157959348E-06	-1.5270376674858E-06	2.67671338114076E-06	-6.24000451713523E-06	0.999275613118509	-0.0577816228466584
2.3	-0.00256088238532414	-0.00394363551351888	-1.70430322614128E-06	-3.43244431055408E-06	-1.81170480563445E-06	-4.60072084730643E-06	0.998798075497271	-0.0595352957220671
2.4	-0.00310091108850206	-0.00362865657657908	-1.2230870720286E-06	-4.4100733486333E-06	3.05964048418434E-06	1.07883505538833E-06	0.998823549488564	-0.0627143657897223
2.5	-0.00304873154919803	-0.00336992284637994	5.41928334560758E-06	5.6621623370871E-06	-2.55003856601689E-06	1.62002194152186E-05	0.998516723815936	-0.065491985230613
2.6	-0.00349223407335363	-0.0037282492501674	-2.27204820269613E-06	2.72680564255821E-06	4.18761174726314E-07	-4.32349660471481E-06	0.998060665279028	-0.0687982327113069
2.7	-0.00406378891327785	-0.0035267995365209	-2.4267767960825E-06	-3.63652741407499E-06	2.15018719909199E-06	-2.58543951749652E-06	0.997253172517938	-0.0719733185050116
2.8	-0.00437162811712618	-0.00310598883926489	4.02140463841632E-06	2.30090137133836E-06	9.85268282990803E-06	-7.29963968328605E-07	0.997018646914948	-0.0739797617343814
2.9	-0.0042498162756029	-0.00260649123285831	1.29113931877831E-05	6.55340792047698E-07	2.39424681727274E-06	-1.17519678250214E-05	0.996551325669508	-0.0759410318017908
3	-0.00368926546337171	-0.00266354343904535	-3.85588443084931E-06	1.06488347681322E-06	-4.15958619979067E-06	-1.58371356860619E-06	0.996277272790862	-0.0785366153325021
3.1	-0.00385269079395073	-0.00296326752458765	4.74724175973381E-06	-9.88176061530594E-06	1.07129781293785E-05	2.36998536189782E-06	0.995588724241645	-0.080600708674908
3.2	-0.00402902810318073	-0.00293598375034758	-5.41240935812573E-06	-7.3969279807928E-06	1.5686356961686E-05	5.3251584412748E-06	0.99500831719057	-0.0823375687733435
3.3	-0.00421045810929835	-0.00289198161445361	-8.79117450622725E-06	2.58961566028434E-06	-8.58418038620094E-06	-1.70229682262065E-06	0.994423891974489	-0.08553955712619
3.4	-0.00438414844464443	-0.00268370135214391	9.02837648123683E-06	-7.60911500792768E-06	-7.32881874694161E-06	4.27233930220542E-06	0.993945501039204	-0.0873053467850715
3.5	-0.00419268888193255	-0.0028635217599884	2.96055039680261E-07	-5.32331325636238E-06	-4.43698515596856E-06	-8.91144616338692E-06	0.993854598726905	-0.0897548152571219
3.6	-0.00481045502472805	-0.00317979958658407	4.09417931153264E-06	4.88369774574036E-06	-7.07075625270138E-06	9.02566113822388E-06	0.993444572597711	-0.0925947105040423
3.7	-0.00538557778652487	-0.00290549329150896	1.5073179080934E-06	-4.53297604811722E-06	-5.13210845605777E-06	-6.56227690902045E-06	0.993016494270715	-0.0952211240984563
3.8	-0.0057423983296417	-0.0024700892234583	7.25203701550741E-06	-5.22549853022697E-06	-5.88727566316513E-06	-2.39093683236638E-06	0.992628979715083	-0.0971213043156232
3.9	-0.00575593288407041	-0.00189411695708027	-4.02865604199036E-06	-3.33589276698438E-07	-2.52452808598981E-06	1.14257573392782E-06	0.992978844327248	-0.100072187671378
4	-0.00529890086901808	-0.00187131903861493	-3.38484862190772E-06	-6.68043923085409E-08	1.24381653459605E-06	8.66509034869517E-06	0.993543884830224	-0.102960634942023
4.1	-0.00566290540893325	-0.00205425118178919	-2.9187550161204E-06	-3.84256968720934E-06	5.89086858260691E-06	3.00438673341203E-06	0.991535738094151	-0.105849043355671
4.2	-0.00595370066601383	-0.00175128088579622	-7.8352383293886E-07	-2.14987648704939E-06	5.68195437521305E-06	-1.87112567096369E-06	0.989892477367845	-0.107996530268634
4.3	-0.00608195890003489	-0.0013635389178169	-4.9294439561945E-07	3.23140818621678E-06	2.1347691509087E-06	1.76542012424569E-06	0.989204892830457	-0.109573092972106
4.4	-0.00609195757831646	-0.000837654269189219	2.58901574500738E-06	3.41928076613037E-06	7.18602008017109E-06	3.86262706974198E-06	0.988548847492151	-0.111738930092801
4.5	-0.00555330908397774	-0.000701203808009374	-6.44858747326977E-06	-1.9248229999406E-07	-8.55922218764533E-06	-2.05635756774346E-06	0.987685799105279	-0.114096136955746
4.6	-0.00592772733881316	-0.000988634828026468	-9.94270900123893E-06	-9.13806223690919E-06	3.20858824282351E-06	-2.7332772489061E-06	0.986500262930908	-0.116215715927734
4.7	-0.00626990733423691	-0.000722362246596949	1.33468079416505E-07	1.85614737821441E-06	6.0045890251238E-06	-6.72932208391971E-06	0.986182768038473	-0.117691092964006
4.8	-0.00650747762340984	-0.000312406821632938	-6.35574590307332E-06	2.0959319357908E-06	7.27862905463176E-07	-1.26913268593275E-05	0.985687820810094	-0.119787069546904
4.9	-0.00642522185032129	0.000284581817477435	-3.37532526741866E-06	8.1159167065846E-06	5.99288234862863E-07	9.32710748762545E-06	0.985209517867193	-0.121267945412243
5	-0.00575226782438526	0.000279425457189069	9.57552571250888E-06	-4.07278034610252E-06	-6.88508989683093E-06	3.58200187872742E-06	0.985071211026746	-0.122715146933668
5.1	-0.00582593286956822	6.55472993263593E-05	-3.74698357322784E-07	-3.23380707680987E-06	-3.85944249581171E-06	-1.7712015621811E-06	0.984842017825762	-0.123937662999596
5.2	-0.0057202803254483	0.000170038391880582	-1.07523266541667E-06	-4.45931568950014E-06	8.75600345283219E-06	5.52021036458211E-06	0.984577947049886	-0.125944442536371
5.3	-0.00559773505581285	0.000223251560659214	2.29341984233684E-06	6.7467647946078E-06	8.75262827134348E-06	3.08917828076816E-06	0.984154265707092	-0.128260725841743
5.4	-0.00539485015864768	0.000471891741918303	2.68046556924214E-06	-3.12859406971664E-06	-2.65691904212496E-06	1.59753751577749E-07	0.983595859985338	-0.130793271989164
5.5	-0.00490980032499514	0.000117481622297403	2.10753466925864E-06	9.2534545520937E-06	-3.90344728626894E-06	-4.99488210164532E-06	0.983354878628609	-0.133096603773941
5.6	-0.00557766521933286	-7.81763743737463E-05	-5.82097011168489E-06	-1.11957942559916E-06	4.8449187478655E-06	1.92611994764525E-06	0.982720804166247	-0.135386077703154
5.7	-0.00604349649045127	0.000418139616003354	3.31484300780206E-06	-1.41733914627132E-06	-5.02080596354747E-06	-4.26127336840908E-06	0.982297172529316	-0.137101795045607
5.8	-0.00631750877142746	0.00105203060114759	-2.04367943895819E-06	-4.71637383756956E-06	9.4040496527526E-07	-5.78981697099224E-07	0.982438771435967	-0.138490769482812
5.9	-0.0063391254751378	0.00205924698837088	-3.85795832879025E-06	6.1556460061567E-07	3.84095074405109E-06	1.24285154006242E-06	0.983363326434577	-0.140080797512427
6	-0.00544039156836188	0.00250183398172094	-5.90356850514536E-06	5.02839825295588E-06	-1.47755089368205E-06	1.96763492302199E-07	0.984336521278076	-0.14368456241433
6.1	-0.00557242779613219	0.00217933003180019	-5.89839230446497E-06	-4.66482460602099E-06	-3.98301714405165E-06	4.33738705864679E-07	0.982157914423869	-0.145815320681535
6.2	-0.00584069152387177	0.00237610882109541	2.80403450303248E-06	3.1066440907611E-06	1.04658610168508E-06	7.18406543029513E-07	0.981005672153065	-0.146369243836416
6.3	-0.00588441204123091	0.00268227130513738	1.63220269456071E-06	-7.43207477679409E-07	-1.33110020880261E-07	1.36761465267956E-06	0.980445982514198	-0.147447190904668
6.4	-0.00556565789620681	0.00298057298730936	-5.15323194747387E-06	-5.5909526860976E-06	3.79185536617617E-06	6.87215411321961E-06	0.980423467314215	-0.149121828858954
6.5	-0.00494540813218369	0.00226447838048178	9.00766027553331E-06	-2.4485802543479E-07	-7.27521717462281E-06	-8.93479572075098E-07	0.979461516203373	-0.152248984323238
6.6	-0.0055510278392889	0.00196564496204124	-1.47884628033075E-06	4.60301546573218E-07	3.36799390149109E-06	-9.3085070786939E-06	0.978740001760076	-0.153084203605613
6.7	-0.00581272434147827	0.00227961106796357	2.61272401243495E-08	7.70051537764222E-06	-4.74134436712134E-07	-6.04719792912701E-06	0.979229575951505	-0.154459030328856
6.8	-0.00595318782253586	0.0028479947796188	4.21572464371052E-06	1.66033231763897E-06	2.30127728022498E-07	-5.20203776313945E-06	0.979514643329376	-0.156137912194484
6.9	-0.00559575028821349	0.00375156927128699	-7.51881172163819E-07	2.4358717132784E-07	5.73537832576497E-06	-2.64311120645972E-06	0.980123949807489	-0.157654990778595
7	-0.00455457518707318	0.00358226272313777	7.99820375191116E-06	-4.69683357366436E-06	4.45348204719468E-07	-3.00191642194456E-06	0.980479530455533	-0.16014784729869
7.1	-0.0050523434209514	0.00337161329704061	3.81807927910288E-06	2.0500305081059E-06	7.37821232357398E-07	7.19709077501569E-06	0.979318146381834	-0.161704576912622
7.2	-0.00532095983208555	0.00386334723901062	-2.45335201091108E-06	3.6626484547627E-06	-1.30873378836868E-06	-3.81487075510258E-06	0.978741447634896	-0.162542323282657
7.3	-0.00559061971302619	0.00450396898280592	3.42480662917457E-06	-4.74906126836944E-07	-2.42847808924825E-06	-1.9197898778612E-06	0.977952760462323	-0.163309954702554
7.4	-0.00569907773338261	0.0056347024741981	-6.13888559799196E-06	-2.71860137610491E-06	3.74785786918945E-06	2.66648869228962E-07	0.977565047059718	-0.163700558943134
7.5	-0.00464202632024647	0.00622873741031699	6.76958757305037E-06	-6.35411447600716E-06	-2.47220971241431E-06	7.77846114551866E-07	0.979869910329219	-0.165065405878083
7.6	-0.00456320419987208	0.00601437254846578	3.43057756306528E-06	5.2091922948753E-06	-1.02383397575495E-05	4.82967171486851E-06	0.980475536820376	-0.169657287280089
7.7	-0.00437557384323445	0.00619597104758206	5.91659171358176E-06	1.09451311230431E-05	4.22600164422266E-07	-1.1312137542626E-05	0.980530703672099	-0.173135615105667
7.8	-0.00396191183461706	0.00610101461746686	2.14070548418201E-06	9.99164769891696E-07	-3.17126284715476E-06	8.76589093242654E-06	0.980933953251843	-0.176610557629667
7.9	-0.00324828780920048	0.00591654650166464	2.56895494489928E-06	-2.28578014380014E-06	3.67755757741097E-06	3.75816804072232E-07	0.98180286768674	-0.180194235905577
8	-0.0026396645624156	0.00456776480809007	-2.82398227379148E-06	1.30681794431268E-06	6.89306043202309E-06	-1.80342043086216E-06	0.982033671195922	-0.186002678465858
8.1	-0.00327390310403711	0.00418787292263282	-1.79583272600936E-06	7.42379570278465E-07	-3.69765425343136E-06	-1.27956757844881E-06	0.978990156004512	-0.188774774303721
8.2	-0.00351607520750062	0.00431669227910396	-8.39845376888697E-07	6.32503789760047E-06	4.84202317084714E-06	4.38718546571456E-06	0.978226868022688	-0.190048085205309
8.3	-0.00366282184626579	0.00464990712414811	-7.53804017983951E-07	-1.42178167070011E-05	6.78611072719118E-06	5.47466766728139E-06	0.977884775074965	-0.192135283277645
8.4	-0.00342012612313186	0.0054159658261086	3.78235373944659E-06	-3.40410700854351E-06	-6.96322376618297E-06	-1.26441501821247E-06	0.977606067639557	-0.194479462390006
8.5	-0.00248580012442548	0.00517786417398156	4.6651023230802E-06	6.18452032526943E-07	8.45377398149315E-06	-6.76665719445549E-06	0.976967844558165	-0.197140241165107
8.6	-0.00297399815988153	0.00502436336075697	-3.30183720314369E-06	4.0898098312262E-06	9.18382887779714E-07	1.11037081065226E-05	0.976848509926621	-0.19904781903074
8.7	-0.00308262578997335	0.00551713165755139	2.70240886561961E-06	-1.97992859388436E-06	4.83581234287357E-07	-5.50569404819631E-07	0.977334755930563	-0.201392273765302
8.8	-0.00297104965158841	0.00616074278976702	1.31850305788398E-07	-1.25466896695281E-06	-1.04866308654993E-06	9.78021331420662E-06	0.977680004487365	-0.203674758180374
8.9	-0.00231518279496755	0.00702890473229404	-3.68988863920673E-06	2.27215446995824E-06	4.85899186293388E-06	-1.77281753565589E-06	0.978382551472383	-0.205758269245796
9	-0.000754313835087052	0.00683124799769878	-1.89937624085133E-06	4.83851052309369E-07	-3.13445214706874E-06	-1.05911222942079E-05	0.979096632325143	-0.208189907813247
9.1	-0.000212698473522878	0.00609069197082038	5.2670757598133E-06	6.33686454303838E-07	9.13398148369477E-07	3.90556851576801E-07	0.979517784736726	-0.210794317606301
9.2	0.000303990349129693	0.0054003911531636	-8.72587270463515E-06	-4.6628549152872E-06	-8.38849551307595E-07	-6.16070100883659E-06	0.979392168590086	-0.213849000350895
9.3	0.000427476311673841	0.00472794845557453	1.42314858110413E-07	6.24554523133212E-06	4.67661357851541E-06	-2.16911430868586E-06	0.979007791795873	-0.216528996378955
9.4	0.000663190326237213	0.00447790561077029	-1.98276253215687E-06	5.89768148941833E-06	-1.06132322933714E-05	7.69784440530977E-06	0.97862695663823	-0.21901885407259
9.5	0.000955651235793095	0.00349848575345262	3.26767582711227E-06	-7.58454633688079E-06	3.72729148462149E-06	-2.72687782706147E-06	0.979303496323762	-0.22205114086472
9.6	0.000123474888701857	0.00313927740241578	4.48932278059257E-06	5.64874160467645E-06	-6.97522523799858E-07	7.11628551673591E-06	0.978873492938646	-0.226051270502642
9.7	-0.000305635879774591	0.0033139661268589	-2.59707637788012E-06	-3.98489082284501E-06	3.77064637840593E-06	-7.55289895094298E-06	0.978518125820526	-0.228878688753516
9.8	-0.000673290967130174	0.00369921315663876	-5.00902082205074E-07	-4.25144128099833E-06	6.31945911646927E-06	9.38144657670274E-07	0.978940171161475	-0.23116121717013
9.9	-0.000583225147651381	0.00448607765568123	-2.70994337647392E-06	-6.17649891532457E-07	-8.6196166221497E-06	5.48341477464697E-06	0.979982231842543	-0.233505381806716
10	0.000103644765196831	0.00423005762286513	4.40749656317234E-07	-1.76789111874691E-06	-3.08208678142784E-06	-8.06695544890546E-06	0.980118631392869	-0.238089478741927
10.1	-0.000491661524620001	0.00413233308431114	2.24823179531635E-06	4.8231256635288E-06	-3.16743758778857E-06	9.92933526413646E-06	0.978037650779806	-0.23997005231045
10.2	-0.000773355171507348	0.00464304207613326	-5.39247917411336E-07	-1.06070826854092E-06	-1.21016275133535E-06	-3.15088512173986E-06	0.97779637324596	-0.24144332272864
10.3	-0.000760805955827827	0.00545096362129349	1.14300947083794E-05	-2.92890797703586E-06	1.017228936688E-05	-4.86502835900225E-06	0.977559590350535	-0.24394057561049
10.4	7.61754088811219E-05	0.00639498941999656	-6.37611696787549E-07	2.16934972564177E-06	3.06517455127375E-06	-2.20417338065632E-06	0.976917502543678	-0.247404453379582
10.5	0.00143745841237361	0.0059460254431993	-6.1672157610535E-06	4.68289307400544E-06	1.58387229275421E-06	4.34578383963815E-06	0.974788834249238	-0.251320388138021
10.6	0.00151310005907431	0.00545786145149176	-7.17401965454823E-06	1.07801095941569E-05	7.0886316240911E-06	4.31151564319787E-06	0.973331337964359	-0.253752044865549
10.7	0.00154882919009813	0.00541710505285222	-3.24418796512605E-06	1.5823814772352E-06	-5.41716877020122E-06	3.20119650004731E-06	0.972001756916239	-0.256678915314165
10.8	0.00167719929293579	0.00578745721135806	-1.94094008925616E-06	5.039072208778E-06	8.55968074455694E-07	-3.23341320350625E-06	0.970858169115425	-0.258468211711505
10.9	0.00241948975156482	0.00639856352471113	-5.81873134412521E-06	-1.06134489271409E-05	4.99284967073754E-06	1.07951115000366E-05	0.970585394363345	-0.260120682031477
11	0.00366566224984048	0.00572527326284598	2.99614689413457E-06	2.63444705609792E-06	7.79730556540889E-07	-1.1337281294308E-05	0.970389575255215	-0.261622190526963
11.1	0.00361635743436902	0.00530030805553509	3.89694352098186E-06	1.46387220075566E-06	2.43538900649804E-07	-7.44332211686889E-06	0.970318767267355	-0.263111166717117
11.2	0.00385513593515949	0.00516693223571797	-4.46177335800759E-06	-1.97714081319336E-06	-7.40311742410133E-06	-4.87476900842946E-06	0.970106214702286	-0.265221320537273
11.3	0.00409726104670683	0.00513918527142767	6.47528406460526E-07	-6.43459855112335E-06	3.84576230684568E-06	1.42474675823907E-05	0.969628798636613	-0.267414137196763
11.4	0.00462325193917498	0.005310697603142	-5.1301904738507E-06	8.21972655436276E-06	-1.45696692112205E-06	4.11195213899106E-06	0.968901285226505	-0.269928057536907
11.5	0.00538924196478338	0.00436573930975978	4.58175729109339E-06	8.14722944831931E-06	-9.35983884162306E-06	1.61821369889748E-06	0.969180716393294	-0.273822660119644
11.6	0.00502499276753131	0.00386416989937364	-3.86748378992152E-06	1.42835677665715E-06	5.15391125254311E-06	8.18226776667355E-06	0.967226831204165	-0.278591200707659
11.7	0.00508730784292806	0.00380613939302029	2.31559911054349E-06	1.05985586630404E-05	5.27683912443594E-07	-3.67965785755543E-06	0.965901173751815	-0.282545749785513
11.8	0.0054870425190228	0.00385859270615168	1.46154279850303E-06	4.48844699719441E-06	2.28920441873369E-06	4.55901415387343E-06	0.965080326407085	-0.286654169217826
11.9	0.00653623773191568	0.00372802041509078	7.56054567351368E-06	1.06215912458216E-05	3.91783451054069E-06	3.89506066539616E-07	0.965312036685523	-0.290438640422858
12	0.0073106523166593	0.00206400463021474	2.33735490785421E-06	-5.22291003167924E-06	-3.94882960983681E-07	1.77112109915022E-06	0.963261996230491	-0.296415604482098
