# GHZ S RI R 50
0.2	0.000832408369380655	0.00279405839965713	4.78981249446015E-06	-2.98663864283459E-06	-1.37130434647609E-05	1.31224662880839E-05	0.999141134345583	-0.00713624261844798
0.3	0.00122433221852074	0.0019043608797546	2.86712386754023E-06	6.62202800450894E-06	-1.66655208968857E-06	-9.31575134721513E-06	0.9989310131238	-0.0100090719307935
0.4	0.00153422161469925	0.00130202742224185	-1.86294787412278E-06	-4.01285132657574E-06	-9.00855843454139E-06	4.40439380554816E-06	0.998734363091015	-0.0127427616400118
0.5	0.0013911803279097	0.000847022821158949	-5.3548590584584E-06	3.26114446997847E-06	-2.12476600820425E-06	6.75279438718126E-06	0.998006698342796	-0.0155029267112956
0.6	0.00167374869958529	0.000843292841415186	-1.39258110798965E-07	2.80462727556555E-06	-5.81239885635818E-07	-1.33979317465131E-07	0.998455194581666	-0.0180030941202145
0.7	0.0019104581283284	0.000470503283078057	8.84510617580179E-08	2.21777454559136E-06	4.89969513376207E-06	-3.40086568354344E-06	0.998255342424922	-0.0210997049966015
0.8	0.0020408820213419	0.000107204903232673	4.52518596356014E-06	8.24177616834827E-07	2.74237124654052E-06	1.9982862380018E-06	0.998004426560676	-0.0233388017501671
0.9	0.00212461505745643	-0.000284373652709829	-1.52585968026601E-07	-4.21424140118721E-06	-3.4153293781027E-06	-3.10578807023441E-06	0.997963208134594	-0.0258994787112833
1	0.00181231535712518	-0.000939017830926121	1.05876286127829E-06	4.28665978927179E-06	3.32300686059768E-06	9.32402785930918E-07	0.99734128078866	-0.0279189760105396
1.1	0.00130168240138809	-0.000766108610926118	9.0335746387759E-06	5.18963832099273E-07	-3.57437468726114E-06	-4.99218919772685E-07	0.99678656046118	-0.0295091421657927
1.2	0.00124911941041788	-0.00107611715251057	3.75714378291804E-06	-1.19809986623723E-06	-4.09227588830862E-06	-2.43572778906976E-06	0.996355603172559	-0.0303132752643285
1.3	0.000803592951093045	-0.00182277332871825	-7.60724425189027E-07	-1.42576617176734E-06	-2.58336318734835E-06	-8.69985546001515E-06	0.996650204832303	-0.0308380534429853
1.4	0.000169589253205831	-0.00273062815123767	1.3230605750467E-08	3.44547425481142E-06	-4.27784663157296E-06	-4.1260504922574E-06	0.996730470460252	-0.0325793318842922
1.5	-0.000563852699390228	-0.00321931577052918	-1.29841428837098E-06	4.42697128794155E-06	6.55061114717651E-06	-7.40788872876873E-06	0.996938253279137	-0.0359689796868076
1.6	-0.000555706881892582	-0.00320720163381223	1.62829950784773E-06	-4.88358670420285E-07	4.23971400134432E-06	-5.38873864650039E-06	0.996449399473654	-0.0391219442836093
1.7	-0.000628059368081729	-0.00348817494419314	5.29790434651209E-07	3.9531040874426E-06	-8.2762635264334E-06	3.12392358099762E-06	0.996633521679029	-0.0418222768933976
1.8	-0.000801496443130126	-0.00357209664816245	1.82977001928376E-06	1.07763319555329E-06	5.65305105029994E-07	-1.75948217026213E-06	0.996472916309748	-0.0447525948414904
1.9	-0.00100063688693158	-0.00379043097293223	3.23139724665277E-06	3.01442851877586E-06	-1.8240917727502E-07	-2.32730465595046E-06	0.996185412785462	-0.0475618585177008
2	-0.00168259032882391	-0.0038604549848938	-1.72409177306478E-07	2.0000174408843E-07	-1.21385341710803E-05	5.40576831798401E-06	0.99417312561586	-0.050658444758006
2.1	-0.00178871527740662	-0.00345174829044647	6.67591412265901E-07	-1.37873770340257E-06	1.37739767081561E-05	4.96383504945221E-06	0.99367378511851	-0.0513194499273015
2.2	-0.0018764326810299	-0.00352887400683605	1.64235144725534E-06	-1.51248985578121E-06	2.68592805100297E-06	-6.19595567981798E-06	0.994209860678374	-0.0533588822869338
2.3	-0.00219345640880703	-0.00364230047735028	-1.68160488555654E-06	-3.42142294487324E-06	-1.78374343405827E-06	-4.58404521195507E-06	0.994197627760844	-0.0550972681795748
2.4	-0.00255534536141446	-0.00380123083023484	-1.19697353241868E-06	-4.39261364653703E-06	3.03889472681813E-06	1.08692744606933E-06	0.994413713195721	-0.0582561025422395
2.5	-0.00343254715062764	-0.00401355529532254	5.36457915576928E-06	5.66463397922753E-06	-2.62353228058726E-06	1.61123130839691E-05	0.993844535875337	-0.0606912246239731
2.6	-0.00411823071121639	-0.00335684300735912	-2.27617991115077E-06	2.70448994538854E-06	4.38318020422086E-07	-4.30377464737462E-06	0.993702011754813	-0.0633378448198888
2.7	-0.0042951259824598	-0.00283949298872538	-2.39829349987836E-06	-3.6329693685077E-06	2.15379870099195E-06	-2.56365834251025E-06	0.993127495085952	-0.0661359624551844
2.8	-0.00424541149892248	-0.00238364440414546	3.99165300333702E-06	2.31234547023382E-06	9.81374628341777E-06	-6.74246657735155E-07	0.993244707862861	-0.0677453475047017
2.9	-0.00395579362734113	-0.00221962565819885	1.28547261084265E-05	7.28185587723643E-07	2.45319381310216E-06	-1.16898732290287E-05	0.993252175908129	-0.0695453007586624
3	-0.00399692976601241	-0.00218186753312275	-3.8497824469099E-06	1.03858039131317E-06	-4.13679442578933E-06	-1.60328769595457E-06	0.993297344917001	-0.0720109453758698
3.1	-0.00357356492424702	-0.00193247297391616	4.78831352143035E-06	-9.82220621468823E-06	1.0664322112147E-05	2.42360330748448E-06	0.993180224444518	-0.0737261078664805
3.2	-0.00333305764538095	-0.00222007035262045	-5.34975603446124E-06	-7.40844998523842E-06	1.56056223636704E-05	5.40724524897485E-06	0.99330032036972	-0.0753293639266092
3.3	-0.00334227865302001	-0.00254330640229201	-8.78773193247297E-06	2.52338279747089E-06	-8.55193706962942E-06	-1.75680566686902E-06	0.993553451750483	-0.0783947329083525
3.4	-0.00355578804937386	-0.00291980416108505	9.07249265022286E-06	-7.53379573517539E-06	-7.35075548159611E-06	4.21358663571132E-06	0.994208725036835	-0.0803768027844317
3.5	-0.00430154322498287	-0.00317570333250632	3.29258260554173E-07	-5.32064538786324E-06	-4.3806429421954E-06	-8.93778840955035E-06	0.994215994795895	-0.0840125389280201
3.6	-0.00461142454771851	-0.00275096767923152	4.06033544860191E-06	4.90456073154241E-06	-7.12008596278754E-06	8.97386347243135E-06	0.993397667927073	-0.0861570374363541
3.7	-0.00478442621492757	-0.00269314478597171	1.5372465674594E-06	-4.52004772284892E-06	-5.08445709937083E-06	-6.59329044565181E-06	0.993717021561461	-0.0884306001980183
3.8	-0.00503505252693711	-0.00260422817997119	7.28844190649131E-06	-5.17532988761885E-06	-5.87083208145457E-06	-2.43181810623402E-06	0.99402144183833	-0.0905891518961559
3.9	-0.00522580477195158	-0.00256699517075176	-4.02794770195354E-06	-3.59518645292081E-07	-2.53274383526106E-06	1.12680668715811E-06	0.994448416116014	-0.0945795948237743
4	-0.00586413304566933	-0.00243911612728273	-3.38138266648903E-06	-8.94385942916184E-08	1.18461227296915E-06	8.66570339902512E-06	0.992744871490168	-0.0968442085897072
4.1	-0.00588280349084925	-0.00168454021113944	-2.88701387976945E-06	-3.86784272420684E-06	5.86674377242951E-06	3.05448300877739E-06	0.992433470550024	-0.0972091621407732
4.2	-0.00570391148841272	-0.00148499415144853	-7.66614001988029E-07	-2.15960154505273E-06	5.70598002908464E-06	-1.82614227062873E-06	0.992563848936681	-0.0996406779054655
4.3	-0.00564147662163502	-0.001388974199878	-5.20823416875675E-07	3.23428905581767E-06	2.12472458617131E-06	1.78694406289058E-06	0.992760646647719	-0.101687965440142
4.4	-0.00570709118412212	-0.00144865236158399	2.56620819237202E-06	3.45051186833227E-06	7.17131456960232E-06	3.93470562964747E-06	0.992541474401273	-0.104151794006885
4.5	-0.00634662570772851	-0.0014143132550532	-6.474225250047E-06	-2.55019120408223E-07	-8.57601587413547E-06	-2.14703703694677E-06	0.992313993326799	-0.105865392041458
4.6	-0.00659420066641092	-0.000662524510962772	-9.92491508958233E-06	-9.27439904472716E-06	3.25015027490304E-06	-2.72258721097939E-06	0.992787296596976	-0.108425742733214
4.7	-0.00654871259462754	-0.000292630762035053	1.2019189203362E-07	1.86854854732668E-06	6.09252824550371E-06	-6.7250101058316E-06	0.993063739244336	-0.110620482891475
4.8	-0.00655440990268693	6.36513050550107E-05	-6.41153355574974E-06	2.06294887497223E-06	8.25035990106487E-07	-1.2766903199847E-05	0.992983282077285	-0.113149587069582
4.9	-0.00638481242090672	0.000293777557615489	-3.45802700400086E-06	8.1466148574375E-06	5.34866003466142E-07	9.39528624492066E-06	0.993031742497322	-0.115031746119584
5	-0.00653303956309742	0.0004885083931931	9.68176088271863E-06	-4.04082267888896E-06	-6.96593475044929E-06	3.56437776401422E-06	0.993354302420653	-0.116943568436519
5.1	-0.00593293470672605	0.00100937966933783	-3.59414092977463E-07	-3.26232840287147E-06	-3.88089864000228E-06	-1.80755046483977E-06	0.993659757072255	-0.118613161194491
5.2	-0.0053778438323813	0.000791442955829458	-1.05948659308647E-06	-4.50199591055642E-06	8.79769689257355E-06	5.61401547731343E-06	0.993869923432426	-0.121148861749439
5.3	-0.00516458026380745	0.000497810413822031	2.27635886555517E-06	6.81838755482675E-06	8.81218037919901E-06	3.16434939835247E-06	0.99400413974921	-0.123893919465423
5.4	-0.00517592063611019	0.000193953910818686	2.72400375031879E-06	-3.14514965432548E-06	-2.68415981743075E-06	1.469637747762E-07	0.994388234624489	-0.127206561778948
5.5	-0.00589117415641677	0.00032991617876551	2.09980056139223E-06	9.36398519801046E-06	-3.93018003787354E-06	-5.06389604964625E-06	0.993970845648708	-0.131177954766117
5.6	-0.00558575038494097	0.0011243033546839	-5.87666404932347E-06	-1.14449569075623E-06	4.88893434324267E-06	1.95682127900189E-06	0.993074827534359	-0.133419550068599
5.7	-0.00534966261220008	0.00117956274852598	3.35109896568361E-06	-1.42431222189104E-06	-5.0617814718405E-06	-4.31483918798481E-06	0.993279500072374	-0.135810665882283
5.8	-0.0053517224323966	0.00127572137975397	-2.05777167519621E-06	-4.76723242460457E-06	9.50788971240481E-07	-5.83535411584236E-07	0.993696620010348	-0.138525949918345
5.9	-0.00534720323568026	0.00133817828156481	-3.89488411487164E-06	6.21347246405428E-07	3.87766255758796E-06	1.25484775763454E-06	0.993805701759708	-0.14231096677201
6	-0.00615123910315083	0.00123759352911747	-5.9511634612065E-06	5.06109988007988E-06	-1.48864608260244E-06	1.97084016450902E-07	0.991079121176366	-0.145302139630679
6.1	-0.00648287407010728	0.00236574648817658	-5.94244447379544E-06	-4.71834824403973E-06	-4.01974836008244E-06	4.29884475671479E-07	0.990581427295632	-0.145035025034415
6.2	-0.00626342031972461	0.00286707463891336	2.82906479279525E-06	3.14008198651603E-06	1.05633149782397E-06	7.26502764204314E-07	0.990754223906141	-0.146492089828726
6.3	-0.00594803091886206	0.00315991136150066	1.64845851316071E-06	-7.50770801578873E-07	-1.343286760945E-07	1.38129722800304E-06	0.990484691750375	-0.148650075846132
6.4	-0.00566717714460008	0.00297650722327881	-5.20417317502582E-06	-5.64155982558012E-06	3.83048491107221E-06	6.93541440572301E-06	0.989813426246364	-0.151105486901408
6.5	-0.00602783554246439	0.00301734342081529	9.10341866077247E-06	-2.40621272932572E-07	-7.35173034920894E-06	-9.08479729599936E-07	0.989216561647975	-0.152561228147402
6.6	-0.00542454239323189	0.00335042443375982	-1.49615790772156E-06	4.68143317962511E-07	3.39492693157074E-06	-9.42695017192882E-06	0.990866418817504	-0.155366046728652
6.7	-0.00523799826901416	0.00315069881207098	5.08441394976541E-08	7.78957608025672E-06	-4.98795770776781E-07	-6.11569891476456E-06	0.990869568580081	-0.158864193802891
6.8	-0.00521106027038192	0.00325777578505148	4.26868353140734E-06	1.66103831080739E-06	2.11116557757039E-07	-5.2598609900275E-06	0.990449278207725	-0.161879431861413
6.9	-0.00511171731390413	0.00325719395205535	-7.58527339028186E-07	2.49759702597319E-07	5.7822776390786E-06	-2.69836500210712E-06	0.99009190683102	-0.164881901940711
7	-0.00581637145685934	0.00359776980976842	8.05368478056452E-06	-4.78820195681713E-06	4.33460070320018E-07	-3.03480840035787E-06	0.988381316794904	-0.167356503968841
7.1	-0.00529795644360428	0.00473806836144891	3.86817038525247E-06	2.04629659366978E-06	7.89850247298886E-07	7.26285531013999E-06	0.987822175719877	-0.168350801223202
7.2	-0.00475325419289832	0.0049073738086436	-2.45189131019595E-06	3.71400734007041E-06	-1.34694449307961E-06	-3.84224753822894E-06	0.987631272399576	-0.170096196299153
7.3	-0.00456954062185542	0.00505685291087409	3.45416942966348E-06	-5.0411192472687E-07	-2.46554678933586E-06	-1.92068012365838E-06	0.987179010464572	-0.17186763901055
7.4	-0.00445404384257803	0.00503368649969182	-6.22646418882247E-06	-2.69707556017704E-06	3.78988350233592E-06	2.3870016294128E-07	0.987740947402632	-0.174614377411088
7.5	-0.00526614969124857	0.00486679877133276	6.76236210332906E-06	-6.49860998321851E-06	-2.48789762861676E-06	8.15059619091922E-07	0.986914231889366	-0.180158114011568
7.6	-0.00537647895637907	0.00612696452667009	3.51813100729204E-06	5.20434775501897E-06	-1.0252060600831E-05	4.98822488546127E-06	0.984212912012773	-0.182981563836737
7.7	-0.00505347606406411	0.00646198782698309	6.08813138336677E-06	1.09423497745363E-05	2.868853346105E-07	-1.13892493582131E-05	0.983679001832055	-0.186191279888444
7.8	-0.00457685256759147	0.00650369687939434	2.16570210855868E-06	9.77051894432323E-07	-3.07553388206278E-06	8.85632579856577E-06	0.983268835895595	-0.190065996577886
7.9	-0.00408841817173752	0.00616480124969829	2.54718544856118E-06	-2.33261775329312E-06	3.69886743791543E-06	3.24543155823785E-07	0.982361899312802	-0.194855238329554
8	-0.00437652995223921	0.00620736118463144	-2.80713439333836E-06	1.34718487128807E-06	6.87141114424255E-06	-1.9012112475934E-06	0.978120878359469	-0.198281617062705
8.1	-0.00325730162805839	0.00656055151664654	-1.78825225989318E-06	7.63849929639165E-07	-3.71490407408589E-06	-1.23708936277874E-06	0.977491697835101	-0.198062236840463
8.2	-0.002662943922998	0.00607978651497356	-7.66261900299915E-07	6.34074207349669E-06	4.89806304111191E-06	4.33430663751316E-06	0.977830703671532	-0.200155253555564
8.3	-0.0023694570440241	0.00575924003555477	-9.23540590695454E-07	-1.42143623231337E-05	6.8539951501804E-06	5.39592201646733E-06	0.977315725911537	-0.203002716185546
8.4	-0.00217084887777292	0.00538367430768284	3.7422866888121E-06	-3.44548772556173E-06	-6.9746536820591E-06	-1.18512684559312E-06	0.976250977623194	-0.205747562887813
8.5	-0.00293113222654422	0.00531075648244877	4.67519553276914E-06	5.69282404949215E-07	8.38814480386747E-06	-6.86169856339396E-06	0.975155859811282	-0.207784199375346
8.6	-0.00252445374727418	0.00630858440760119	-3.25214410808877E-06	4.13243628137693E-06	1.05696652797182E-06	1.10963957256586E-05	0.975178512818255	-0.210268144788022
8.7	-0.00189306296965516	0.00636941425648184	2.6739330288847E-06	-2.01230913665334E-06	4.75969343582046E-07	-5.56139138773013E-07	0.974761510843246	-0.213130245000144
8.8	-0.00143065789762466	0.0063890823085192	1.15695070084833E-07	-1.25321064935665E-06	-9.226801841046E-07	9.76910907682646E-06	0.974093246182427	-0.215545400065988
8.9	-0.000845299885508914	0.00613118267659354	-3.65011174587108E-06	2.30772423827149E-06	4.82100227016741E-06	-1.82393947515932E-06	0.973825004958368	-0.217670540010204
9	-0.000983167312696555	0.00572962527831612	-1.88784053800071E-06	5.04554950613935E-07	-3.24854813912979E-06	-1.05216963693884E-05	0.973330511554079	-0.220211508057335
9.1	-0.000331056833627464	0.00589306134466331	5.25184770498816E-06	5.65884047927953E-07	9.14222534468205E-07	3.77570439603292E-07	0.972483951613217	-0.222329881120883
9.2	0.000170525380444077	0.00523159320518394	-8.73460719932148E-06	-4.53532355364747E-06	-9.07010272643368E-07	-6.11818462347979E-06	0.971537113945813	-0.224615016832276
9.3	0.000245451890357768	0.00467106852464758	2.11610868614485E-07	6.20914853700463E-06	4.62621360766775E-06	-2.20951025979075E-06	0.970925308741607	-0.226581995950207
9.4	0.000231406727516668	0.00408612120194779	-1.90761347415262E-06	5.88880816920583E-06	-1.04734093724379E-05	7.77449034277912E-06	0.970680764248208	-0.229217963611721
9.5	-0.000507546522972691	0.00418338009410687	3.15263715253697E-06	-7.58394804351622E-06	3.67169352608096E-06	-2.75924299270835E-06	0.969524569937213	-0.23289482910112
9.6	-3.75493679327246E-05	0.00466790119143101	4.52261545986524E-06	5.54826035020149E-06	-6.04555791755843E-07	7.0676953606626E-06	0.968001107735604	-0.23503799001766
9.7	0.000171646669198151	0.00441248360298252	-2.61908060612679E-06	-3.92019970298688E-06	3.65184588181964E-06	-7.52853156687315E-06	0.967576363752065	-0.237123208063043
9.8	8.30852474941213E-05	0.00431504909321638	-5.42946491360594E-07	-4.20552553682099E-06	6.26973366512225E-06	8.5965807009727E-07	0.967625574363456	-0.239403414827449
9.9	1.23776850318088E-05	0.00425906985015062	-2.68711691031347E-06	-5.79792586650725E-07	-8.46169555803149E-06	5.52164750877465E-06	0.966830812093654	-0.242557262475499
10	-0.000872296139262081	0.00440943730950545	4.18556386863518E-07	-1.74686186538793E-06	-3.11130857408651E-06	-7.9250218614191E-06	0.962978396665765	-0.243529445992596
10.1	-0.000588402586310836	0.00551848814230639	2.25072978363912E-06	4.7458814237108E-06	-3.06127358730934E-06	9.82144040811979E-06	0.963537110907291	-0.242109637265308
10.2	-8.40729879443581E-05	0.00577666585264268	-5.38961828193886E-07	-1.0438049330254E-06	-1.21431569999411E-06	-3.10311064272655E-06	0.964274716419135	-0.243527100493163
10.3	0.000347243962780299	0.00599797774724452	1.12604648470186E-05	-2.95310440970486E-06	1.00087805768201E-05	-4.85626038497441E-06	0.963934492223186	-0.245697324939386
10.4	0.000852884804777803	0.00578244498558368	-6.19941325678291E-07	2.14047584640661E-06	3.01227741453945E-06	-2.18425584649915E-06	0.962429375398512	-0.248353781979632
10.5	0.000649839723400716	0.00585569659260738	-6.08000725949766E-06	4.63092801653744E-06	1.56960942168339E-06	4.28684723058402E-06	0.960855681878185	-0.249514855213017
10.6	0.00132253146545723	0.00632034115684431	-7.06345138504342E-06	1.06615487714056E-05	7.0098437429147E-06	4.24382349589475E-06	0.960623009546585	-0.251777773627763
10.7	0.0017676257304998	0.00626977424110554	-3.1995697412738E-06	1.5668542183056E-06	-5.34179709031029E-06	3.16800522437777E-06	0.959234951203763	-0.254138789703705
10.8	0.00216712417917134	0.00645065021485974	-1.91134765546071E-06	4.97200235069807E-06	8.42260840329893E-07	-3.19012362587271E-06	0.957955979119001	-0.2552605262074
10.9	0.00288383098857145	0.00625566723719656	-5.73176513241601E-06	-1.04724263282488E-05	4.91704665371553E-06	1.0651028004327E-05	0.95788463417999	-0.256264585456141
11	0.00273747264175343	0.00618918627251035	2.95428311266978E-06	2.60448939977209E-06	7.84343129035417E-07	-1.11907227296519E-05	0.957342604580701	-0.256886086068564
11.1	0.00374237526385796	0.00667156707616342	3.84326316117766E-06	1.45016044003795E-06	2.51118341112705E-07	-7.34449452906806E-06	0.957879376085608	-0.257375213181015
11.2	0.00461142636718641	0.006160110529145	-4.39736361390564E-06	-1.96163524678696E-06	-7.29235326513185E-06	-4.82775276698489E-06	0.958283360244115	-0.258886133170153
11.3	0.0051979058471025	0.00550048084452922	6.61884225594679E-07	-6.35025888394242E-06	3.74664311910669E-06	1.40792775845763E-05	0.958924898616476	-0.260818598528451
11.4	0.00554196139406547	0.00468346328214844	-5.10518547122514E-06	8.10608260575035E-06	-1.45701269738436E-06	4.05956205373666E-06	0.959414698459804	-0.264048795663313
11.5	0.00488217042768567	0.00420539464690527	4.50928709278725E-06	8.06272376217982E-06	-9.25427517375219E-06	1.57753845667906E-06	0.957485783657974	-0.268796017601146
11.6	0.00535664772581452	0.00437402626750188	-3.82166775842283E-06	1.39445827614945E-06	5.05389535480266E-06	8.093572486145E-06	0.955286296856864	-0.270929712593005
11.7	0.00571968419217947	0.00374496824825572	2.22996188566071E-06	1.04736469120977E-05	5.40193015488467E-07	-3.62929365459712E-06	0.954943818189778	-0.274083153704702
11.8	0.00589784665997044	0.00318209310693292	1.41755470787758E-06	4.44069512324114E-06	2.23446281568966E-06	4.5151212587062E-06	0.954477974660159	-0.278277962900983
11.9	0.0058586920478497	0.00231270451429128	7.40114432028462E-06	1.05186062419729E-05	3.86274924906603E-06	4.05315392988416E-07	0.952773230963271	-0.282629494194227
12	0.00488845963143725	0.00205422264469521	2.34184544521863E-06	-5.12143777236518E-06	-4.02716086871722E-07	1.73987719492376E-06	0.94793948214056	-0.284025981315195
