# GHZ S RI R 50
0.2	0.000605176690846971	0.00178003941361162	4.80389217208912E-06	-2.98293975857139E-06	-1.3761928955975E-05	1.31199680351901E-05	1.00046098119571	-0.00650010663054086
0.3	0.00109660170306294	0.001279159592399	2.86288029366541E-06	6.64000929651173E-06	-1.65572300680247E-06	-9.33742643825231E-06	1.00062905314671	-0.0093215966962049
0.4	0.00140189367226516	0.00116080032448016	-1.86351032353727E-06	-4.02613279021188E-06	-9.03862962306945E-06	4.40627341612636E-06	1.00120470295798	-0.0119045219917986
0.5	0.00217033945246264	0.000651501324283789	-5.36850494785278E-06	3.27053332312774E-06	-2.12937866585322E-06	6.77091894600551E-06	1.00155733332385	-0.0160076488387547
0.6	0.0017242504886259	-0.000262240453056277	-1.41311319336091E-07	2.80994863583151E-06	-5.8227581392911E-07	-1.34607599691964E-07	1.00080260085158	-0.0190720433181523
0.7	0.00128781754395812	-0.000226280248957532	8.62666999609002E-08	2.22385908644132E-06	4.91663994426783E-06	-3.40469439238152E-06	1.00056952865136	-0.0217049198955041
0.8	0.00113363258685688	-0.000173882616286662	4.5397799908496E-06	8.3181447138025E-07	2.74961945545218E-06	2.00803883661191E-06	1.00047577426628	-0.023811368486243
0.9	0.000853446725622553	6.8988135656862E-05	-1.49386923211854E-07	-4.23207503643914E-06	-3.42683977052223E-06	-3.12194035026735E-06	1.00039737375538	-0.0259296067626286
1	0.00151685568464714	0.00065284675381261	1.06436674292621E-06	4.30740218854505E-06	3.33927160881077E-06	9.36587639738095E-07	1.00108201866845	-0.0271590686629105
1.1	0.00182032910328826	-0.000569116596079874	9.07095982969801E-06	5.15792558342502E-07	-3.58933960128066E-06	-4.99170414494512E-07	1.00101028317561	-0.03017577839771
1.2	0.00102432117599972	-0.00143232546918281	3.77092263865865E-06	-1.2048110465012E-06	-4.10937799840592E-06	-2.44280432844988E-06	1.00000887908127	-0.0314477046971891
1.3	-5.91757596257083E-06	-0.00238396687888511	-7.64674918655872E-07	-1.42995013546498E-06	-2.60039768636305E-06	-8.72731639990523E-06	0.999739188917071	-0.0326777374061512
1.4	-0.00112386732612163	-0.00299575941225244	1.76820652482341E-08	3.4552906926473E-06	-4.29534113622649E-06	-4.13234626400336E-06	0.998989176741234	-0.0348209937314214
1.5	-0.00111284601835639	-0.00339456780552547	-1.2978355612921E-06	4.44076164976447E-06	6.56204547293299E-06	-7.43517487251307E-06	1.00022406211946	-0.038184100456703
1.6	-0.00182871875968422	-0.00354139154803425	1.63395446816378E-06	-4.91509994258112E-07	4.25106217143744E-06	-5.41225510492467E-06	0.999832130723356	-0.0421498634179832
1.7	-0.00181457622468674	-0.00298909996409197	5.3642821944179E-07	3.97016588846459E-06	-8.30980580091718E-06	3.14680824113079E-06	1.00035135357118	-0.0446052211608282
1.8	-0.00163729712916641	-0.00264768401572349	1.83992665838677E-06	1.08053087984676E-06	5.65824521482121E-07	-1.76865932915986E-06	1.00051923281167	-0.0472322997553273
1.9	-0.00143943622948232	-0.00233692920180483	3.25014754006062E-06	3.02769671204496E-06	-1.84975019535263E-07	-2.33916433606587E-06	1.00079270902629	-0.0486835410108083
2	-0.000641980758724735	-0.00261286433595717	-1.73626932611214E-07	2.01669063882124E-07	-1.22297338460971E-05	5.45554308993777E-06	1.00321803175089	-0.0516445088366491
2.1	-0.00129492101785236	-0.0035565917677203	6.67969362626952E-07	-1.3919445890412E-06	1.38998875831447E-05	4.95419265088897E-06	1.00258545003537	-0.0568781676147535
2.2	-0.00204521743543236	-0.00346730916982838	1.64746301461895E-06	-1.52970740394124E-06	2.67894522979077E-06	-6.24982818467306E-06	1.00142121028563	-0.0597413126326402
2.3	-0.00264767029227054	-0.00330276918778569	-1.70772129335235E-06	-3.43695689752456E-06	-1.81560024381003E-06	-4.60689942731931E-06	1.00056051891849	-0.0616645086588221
2.4	-0.00325414015970686	-0.00288420597029312	-1.22658194262386E-06	-4.41689235959523E-06	3.06502223112373E-06	1.07957107166807E-06	1.00020896065256	-0.0646676743663131
2.5	-0.00299305876495861	-0.00237866318007022	5.43298773956291E-06	5.66773740872241E-06	-2.54193581355875E-06	1.62300976170568E-05	1.00017764516795	-0.0669109847318241
2.6	-0.0033060951044722	-0.0029851694006037	-2.27322058302439E-06	2.73263473866435E-06	4.15929924356072E-07	-4.33019983004686E-06	1.00024715526732	-0.0703276494564558
2.7	-0.00393968815365767	-0.00286192029887451	-2.4335992829616E-06	-3.64033306844532E-06	2.15149986390468E-06	-2.59130317982229E-06	0.999871348859816	-0.0738091678966367
2.8	-0.00437722615404301	-0.00250716533928711	4.03073794037598E-06	2.3005183670152E-06	9.86872308432526E-06	-7.41774179685045E-07	0.999771477432701	-0.076415982077746
2.9	-0.00446050580884367	-0.00189521571872566	1.29340917012978E-05	6.36545758731687E-07	2.38015943478326E-06	-1.17753983028232E-05	0.998996886831302	-0.0788076597513007
3	-0.00379222359753852	-0.00177193883874023	-3.85793821019311E-06	1.07371867502588E-06	-4.16724564920221E-06	-1.57714134119881E-06	0.998520251509728	-0.0814545770402437
3.1	-0.00412602309809126	-0.00211455644431029	4.73306572985687E-06	-9.89799953272534E-06	1.0725565753334E-05	2.35246439544882E-06	0.997787310008025	-0.0838864694281991
3.2	-0.00434749934621284	-0.00185263382652857	-5.4298156752258E-06	-7.39174765774139E-06	1.57067319266432E-05	5.29942477266572E-06	0.996899586222568	-0.0859195303365497
3.3	-0.00446321936189968	-0.00165927750340188	-8.79045805038641E-06	2.60860384072472E-06	-8.59198307787402E-06	-1.68591543763929E-06	0.995889366970935	-0.0893658850746754
3.4	-0.00460200292490873	-0.00130053684833839	9.01274461522366E-06	-7.63039812261866E-06	-7.32037920124664E-06	4.28933160735968E-06	0.994706918666912	-0.091102064232325
3.5	-0.00408153537548602	-0.00133590823457065	2.86747260579173E-07	-5.32123370845465E-06	-4.45016761355933E-06	-8.89947373440074E-06	0.994569270868422	-0.0925858343169585
3.6	-0.00470819317874745	-0.00189581318205148	4.10112973113337E-06	4.87826066021429E-06	-7.05859696805868E-06	9.03586932997193E-06	0.994871651258871	-0.0959481528323278
3.7	-0.00532493329660837	-0.00151954075076972	1.49982285648109E-06	-4.53599503316255E-06	-5.14372411611032E-06	-6.55429925948194E-06	0.993858014185611	-0.0991726931468774
3.8	-0.00561033957631594	-0.00101400414954846	7.24142963017172E-06	-5.23823455502686E-06	-5.89093395578754E-06	-2.37973643801333E-06	0.992532511134848	-0.101010488549019
3.9	-0.00554765545765637	-0.000336959735376809	-4.02732720009132E-06	-3.26739913870935E-07	-2.52144972434473E-06	1.14623606077981E-06	0.991972882532739	-0.102888274044336
4	-0.00464595569168439	-0.000294113479457278	-3.38535942534124E-06	-6.22112751804055E-08	1.25575029986486E-06	8.66447464463585E-06	0.993902593391651	-0.104228814851091
4.1	-0.00501464343148461	-0.00100110852167875	-2.9274645868094E-06	-3.83618938932313E-06	5.89781849171899E-06	2.99132496986641E-06	0.99272509082351	-0.108391105453932
4.2	-0.00552377227962575	-0.000855249643694679	-7.88048677743827E-07	-2.1471397978602E-06	5.67517425506092E-06	-1.88317364590945E-06	0.990661948791813	-0.111010485349534
4.3	-0.00585215922747095	-0.000560702635474193	-4.85954707584153E-07	3.23056515110409E-06	2.13719967613394E-06	1.75997117000765E-06	0.989615879918205	-0.11261009325152
4.4	-0.00614654439450349	-1.29468222983769E-05	2.59481710541255E-06	3.41330788518589E-06	7.19132194362202E-06	3.84770197304571E-06	0.988872195006871	-0.114489136236056
4.5	-0.00557483909622129	0.000303415441184318	-6.44840538118513E-06	-1.75775775226726E-07	-8.56364040215968E-06	-2.03399302161634E-06	0.988565133628802	-0.116952957576229
4.6	-0.00622497172654974	-0.000212223397717791	-9.95853526875563E-06	-9.10686597848548E-06	3.1995245054296E-06	-2.73936497896271E-06	0.987229477952405	-0.119578266598707
4.7	-0.00689547834667365	0.000310770204420765	1.37611614331932E-07	1.85461416293138E-06	5.98527107394679E-06	-6.73855683270953E-06	0.986742311841891	-0.121228890741169
4.8	-0.00724129210270974	0.00101093840034214	-6.34736831033113E-06	2.10928791710753E-06	6.98423225672788E-07	-1.26858360987552E-05	0.985990427952786	-0.123538871646801
4.9	-0.0072156016239408	0.00193691443998941	-3.35277084919417E-06	8.12032176485955E-06	6.22868167575102E-07	9.32069784962994E-06	0.984962864545387	-0.125101863724375
5	-0.00619033664221392	0.00224717766521764	9.55107031287267E-06	-4.09515944175539E-06	-6.86561112135191E-06	3.59722982300172E-06	0.984353655439645	-0.126041243483369
5.1	-0.00631258086617784	0.00194826126897741	-3.81189346166764E-07	-3.22752731774282E-06	-3.85683417979017E-06	-1.75971304473882E-06	0.984065016334779	-0.127041421908607
5.2	-0.00614603402531159	0.00236436978027356	-1.08241037819354E-06	-4.44985817945825E-06	8.75273016581706E-06	5.49361994662806E-06	0.983413153980929	-0.128797634432718
5.3	-0.00574821506552952	0.00259059564575634	2.30312369619936E-06	6.73056290254607E-06	8.74386613993031E-06	3.06619244835653E-06	0.982705190486075	-0.13060962784247
5.4	-0.00530889391627851	0.00290685748505862	2.6677969016819E-06	-3.12782587494025E-06	-2.65087344324759E-06	1.65293582598455E-07	0.981881657075124	-0.132557895982248
5.5	-0.00423276984400461	0.00246816666108119	2.11373041566133E-06	9.22167086457483E-06	-3.89816108517228E-06	-4.97390816239115E-06	0.982151452593397	-0.133584553374408
5.6	-0.00508206870002785	0.00173130218565218	-5.80756729940637E-06	-1.11334472632409E-06	4.83436563864262E-06	1.918525510445E-06	0.982598413637986	-0.136500669644719
5.7	-0.00563496349871141	0.00230191739180399	3.30607235526538E-06	-1.41660942001808E-06	-5.0124578808958E-06	-4.24753443755725E-06	0.981711191614563	-0.138874793311964
5.8	-0.00575770636708183	0.00284030843101062	-2.04152621314863E-06	-4.70221269116297E-06	9.37459422266805E-07	-5.78090291247406E-07	0.980883909000557	-0.140246139449708
5.9	-0.00581321219857932	0.00359824268445024	-3.84569357699223E-06	6.13707243856265E-07	3.82878676600578E-06	1.23880873739863E-06	0.980570425360089	-0.140500254713407
6	-0.00469633906475223	0.00395977684366353	-5.89323950300516E-06	5.0139012483474E-06	-1.47437170789508E-06	1.95498796168857E-07	0.98323374369466	-0.141883849112837
6.1	-0.00517217120028752	0.00276485438548511	-5.88397780857965E-06	-4.65091923463059E-06	-3.97234692370764E-06	4.33629948094844E-07	0.981899078495424	-0.145250355110619
6.2	-0.00629145658664878	0.00293871327523096	2.79422807373829E-06	3.09702272202785E-06	1.0430137349681E-06	7.16260876740574E-07	0.980358741046545	-0.145748267096967
6.3	-0.00689765747412984	0.00366177679298579	1.62749037151868E-06	-7.39391849276349E-07	-1.33833287873016E-07	1.36302571396896E-06	0.97980040137209	-0.146464942485055
6.4	-0.00685910127976989	0.00468978026003213	-5.13259921069868E-06	-5.58350599869778E-06	3.77300070644442E-06	6.85961584500079E-06	0.980268264879228	-0.147587671874369
6.5	-0.00569643363558453	0.00454352218842152	8.99048909905151E-06	-2.42134931972091E-07	-7.26107538645637E-06	-8.93591285071037E-07	0.980666258065855	-0.151919955842875
6.6	-0.00632142500361476	0.00435505567897922	-1.47477060056141E-06	4.58343944083535E-07	3.36222039227151E-06	-9.28019167259335E-06	0.978524187410043	-0.153735902858653
6.7	-0.00622212103046512	0.00505023183986258	1.81220694225412E-08	7.67939753922668E-06	-4.6660241215077E-07	-6.03108147340331E-06	0.978422028465844	-0.154726095165966
6.8	-0.00601099401668124	0.00555240378958204	4.2034103029336E-06	1.6616280845888E-06	2.36135084731747E-07	-5.18913757273017E-06	0.978352186624367	-0.156219689809735
6.9	-0.00566897732673318	0.0064721126947389	-7.50524559398609E-07	2.42215635308071E-07	5.7259107101664E-06	-2.63094736025522E-06	0.978355734417014	-0.157156064916343
7	-0.0040268927685991	0.00645551984157263	7.98129174674258E-06	-4.67764404074243E-06	4.46765233369629E-07	-2.99366832041143E-06	0.979545500011437	-0.158551823357538
7.1	-0.0047247555729797	0.00568397167320945	3.80379423414315E-06	2.04989320878093E-06	7.24645663730457E-07	7.17721121152609E-06	0.978918127924087	-0.160993314980582
7.2	-0.00506794969055279	0.00642718040511753	-2.45410392948667E-06	3.64822261327275E-06	-1.29781186562788E-06	-3.80742987214259E-06	0.977999168383805	-0.16234708391731
7.3	-0.00502731607847012	0.00710461501673427	3.41794473091202E-06	-4.66725967070536E-07	-2.4189394624221E-06	-1.9204211495801E-06	0.976584844399295	-0.16367222520602
7.4	-0.00495392020843772	0.00805223332755587	-6.11847341408371E-06	-2.72387930066093E-06	3.73811232635163E-06	2.73300283565765E-07	0.974304845762509	-0.164314274185872
7.5	-0.00334033514194968	0.0085645256464437	6.77282630255415E-06	-6.31217632417825E-06	-2.4679435741381E-06	7.66907022423641E-07	0.975583670062152	-0.162561198342819
7.6	-0.00343197445178744	0.00721911518163726	3.40701154086954E-06	5.21802322363554E-06	-1.024817076587E-05	4.7850673926349E-06	0.977980759794049	-0.166973678553612
7.7	-0.0040114206333811	0.00716920716785257	5.87780866792733E-06	1.09594348192322E-05	4.59604634160853E-07	-1.13054199728569E-05	0.977618703367113	-0.170589299657805
7.8	-0.00422931223950354	0.00732021529984119	2.13602265503723E-06	1.0050165056652E-06	-3.19591370428783E-06	8.74955225621315E-06	0.977476619516898	-0.17313174099181
7.9	-0.00393849113001137	0.00776585060822931	2.57401696791766E-06	-2.27354074472925E-06	3.67153379217278E-06	3.88718719486671E-07	0.978495613217185	-0.174466459744772
8	-0.00276110738945929	0.00684262618305522	-2.83076031988564E-06	1.29428607880719E-06	6.90326948089191E-06	-1.77243560191434E-06	0.982956086523391	-0.178738574950863
8.1	-0.00375841685559798	0.00635622297589916	-1.79904978330433E-06	7.37856378742334E-07	-3.69646156651872E-06	-1.29068009128915E-06	0.981058115444756	-0.184859016642916
8.2	-0.0040231967153653	0.00687790138978631	-8.55020066689194E-07	6.32262241463257E-06	4.83116008114599E-06	4.39856916722479E-06	0.979582534748762	-0.187081401343861
8.3	-0.00408498922476443	0.00735214255629764	-7.16570832550832E-07	-1.42161753936209E-05	6.77012667768708E-06	5.49095948183557E-06	0.97890317703102	-0.189428608968968
8.4	-0.00399150985586587	0.00835431231970364	3.79294028695583E-06	-3.39493971872799E-06	-6.96214690426627E-06	-1.28386161991091E-06	0.978631498971772	-0.191780122979283
8.5	-0.0024591913289165	0.00856653004567938	4.66647673985361E-06	6.25350803528841E-07	8.46742429229121E-06	-6.75795891136498E-06	0.978344423613831	-0.195127041852604
8.6	-0.00300348919011227	0.00797959467640968	-3.30711682610987E-06	4.08268478503644E-06	8.99861057729877E-07	1.1100502663994E-05	0.977438978353507	-0.1974342934792
8.7	-0.00310984184881887	0.00880731361781775	2.70535563645056E-06	-1.97416216588961E-06	4.84483098172831E-07	-5.49477134647515E-07	0.977648639198952	-0.199580893149631
8.8	-0.00261223017605348	0.00953594323427736	1.34177888513441E-07	-1.25432025967278E-06	-1.06680500754827E-06	9.7774562014307E-06	0.977944346978924	-0.201799954306899
8.9	-0.0017472984090552	0.0102468550555746	-3.69352438724429E-06	2.2678227700101E-06	4.86220537647858E-06	-1.76688137381302E-06	0.978632362636098	-0.203930676157186
9	0.000326662846583745	0.00992493215530404	-1.89764345018938E-06	4.82499212950093E-07	-3.12646593430978E-06	-1.05816565237727E-05	0.979312083807889	-0.206414691265772
9.1	0.000541088541999635	0.00843442464866073	5.25861248382597E-06	6.4080333622822E-07	9.11503168351336E-07	3.91391466423383E-07	0.979732888525667	-0.209137390707157
9.2	0.000648841692906407	0.00785805795157744	-8.70957678643674E-06	-4.67285366821918E-06	-8.27756688162843E-07	-6.15608457478815E-06	0.979665889755349	-0.212289815248598
9.3	0.000667281392128005	0.00729211419469682	1.33270726675963E-07	6.24066351059144E-06	4.67590668363883E-06	-2.16066279444063E-06	0.979234045338587	-0.21535487108394
9.4	0.000667819869603582	0.00720184004750515	-1.98712520667802E-06	5.88783862280746E-06	-1.06086861717128E-05	7.67561790682915E-06	0.97802088245469	-0.21803859505489
9.5	0.00129718817195502	0.0063247864818327	3.28198901393611E-06	-7.5592072092466E-06	3.72699544122175E-06	-2.71060612221191E-06	0.9785559001343	-0.219606584188706
9.6	-4.86661646125036E-05	0.00578224504859279	4.46664998661607E-06	5.66378545012011E-06	-7.24034790547913E-07	7.11136750004928E-06	0.978929320414706	-0.224023210487926
9.7	-0.000528179907052077	0.00645510922462568	-2.58464147256081E-06	-3.99522061715258E-06	3.79762301177362E-06	-7.54313002245566E-06	0.978134196164934	-0.227052097984531
9.8	-0.00061395509484145	0.00699969838147519	-4.87033071994468E-07	-4.25480706529768E-06	6.3188931761466E-06	9.59435968697058E-07	0.977960613742076	-0.228872141896711
9.9	-0.000428615901212585	0.00778697833195556	-2.70802213275943E-06	-6.29180320063684E-07	-8.64477496400511E-06	5.44858607495663E-06	0.978940798222145	-0.229362441968509
10	0.000904488766200918	0.00757187913804019	4.50379952300191E-07	-1.77018378339406E-06	-3.05087415205209E-06	-8.10198768998854E-06	0.983216335143743	-0.233755632394016
10.1	9.63940149705927E-05	0.00667207940467402	2.23932813004949E-06	4.84290803252682E-06	-3.20652427379917E-06	9.9459941784877E-06	0.980397249381115	-0.239326978660965
10.2	-0.000527102495875546	0.00714176124097543	-5.37243915332605E-07	-1.06481404221402E-06	-1.20330392638879E-06	-3.16188096598386E-06	0.978518808049688	-0.240811157776704
10.3	-0.000723904132033363	0.00787513124680869	1.14701501303124E-05	-2.89785306686111E-06	1.02155979662511E-05	-4.8433421277892E-06	0.977775971988063	-0.242440251462944
10.4	-0.00032597027700323	0.0089190114846581	-6.47889884730466E-07	2.17546737023248E-06	3.08499119860594E-06	-2.20169117838164E-06	0.977917810524667	-0.244576575070032
10.5	0.00123377133416799	0.00878704657635678	-6.20561438901635E-06	4.69410713558701E-06	1.58349481386796E-06	4.36967514000191E-06	0.977928693608105	-0.249276506503822
10.6	0.000868708545539411	0.0081799998647619	-7.22341600156072E-06	1.08117584184042E-05	7.11018216954086E-06	4.34231337118706E-06	0.976444989340844	-0.252500831209922
10.7	0.000799736084562657	0.00857520501740909	-3.26284304095221E-06	1.58379403145226E-06	-5.44938893165156E-06	3.20624738640052E-06	0.975972040343521	-0.256134719178471
10.8	0.000885318293660487	0.00910139013253892	-1.95855744399778E-06	5.06395760209065E-06	8.65140946193151E-07	-3.24992196923447E-06	0.974965397879837	-0.259446353525297
10.9	0.00136040062857476	0.0100780373514522	-5.84931207281423E-06	-1.06776948365913E-05	5.01852229421675E-06	1.08601458607483E-05	0.974373730261216	-0.262176869089231
11	0.00316422069911753	0.0100092336495066	3.01177441433334E-06	2.64436049448654E-06	7.7513549128696E-07	-1.138979485137E-05	0.973934990839202	-0.265241099643604
11.1	0.00299609866459747	0.00953850404962409	3.9126972467767E-06	1.47041279396996E-06	2.45578650487054E-07	-7.47376985097787E-06	0.971807509666951	-0.268256504147477
11.2	0.00350703878063827	0.0100012365763882	-4.48139238894878E-06	-1.98681359183031E-06	-7.43537755213125E-06	-4.89795802574811E-06	0.969671957530303	-0.270364804734969
11.3	0.00445096630076974	0.0102330742281216	6.49167339055764E-07	-6.46461122096698E-06	3.86664554548063E-06	1.43127995513458E-05	0.967339048611282	-0.271858084712996
11.4	0.0054477180166783	0.0103426463711854	-5.14288406608916E-06	8.25729271112431E-06	-1.45889844104703E-06	4.12970031577595E-06	0.964717044603942	-0.272905825351825
11.5	0.00722513249768685	0.00918055248121216	4.5894222618452E-06	8.17495557141379E-06	-9.38899680457158E-06	1.61612893791328E-06	0.966331287450689	-0.273597381654244
11.6	0.00683872566842949	0.00764750226523316	-3.88770152956041E-06	1.43143902238325E-06	5.17079196223808E-06	8.22716854040648E-06	0.96591589606878	-0.279687527739753
11.7	0.00678272146222569	0.00721242368745631	2.32739215007719E-06	1.06525383969386E-05	5.30371657975548E-07	-3.69839872735467E-06	0.963539584405292	-0.283828130634077
11.8	0.00696697500813375	0.00679154614046243	1.47090198914273E-06	4.50760794987605E-06	2.30231057961148E-06	4.57797063695551E-06	0.961904137590855	-0.28671310870288
11.9	0.0077088270992711	0.006533303759013	7.59156031261068E-06	1.0657792696887E-05	3.93222950402193E-06	3.89640177081472E-07	0.963466782697553	-0.287723749398863
12	0.00877401436819482	0.00482803522310825	2.35011281736926E-06	-5.24945137390368E-06	-3.97163114312028E-07	1.78017727230514E-06	0.967789367525367	-0.294674636399009
