# GHZ S RI R 50
0.2	0.000851617210796831	0.00264300316582745	4.79147904352739E-06	-2.98591685504527E-06	-1.37190249880375E-05	1.31212359012918E-05	0.999325437666401	-0.00704201527176885
0.3	0.00124777166008463	0.00178986273253514	2.86626462312073E-06	6.6242534730663E-06	-1.6647854373078E-06	-9.31833343776351E-06	0.999172203611854	-0.00991093599178705
0.4	0.00152925509510516	0.00125405122191352	-1.86283848993538E-06	-4.01473823905928E-06	-9.01283930557979E-06	4.40423189378143E-06	0.999092388302524	-0.0126051847690607
0.5	0.00155079645719596	0.000828531496468412	-5.35693593376797E-06	3.26273253345814E-06	-2.12534973608676E-06	6.75568808686787E-06	0.998591455357315	-0.0155820285083796
0.6	0.00175061303188115	0.000606294700648864	-1.39447924779562E-07	2.80527882845405E-06	-5.81369028260976E-07	-1.34043368007071E-07	0.998798371975397	-0.018236098638821
0.7	0.00183080519408146	0.00025154029721964	8.80702485643608E-08	2.2185469912627E-06	4.90199567532393E-06	-3.40111712033918E-06	0.998538576622787	-0.0212207470373793
0.8	0.0018592728341755	-6.88042798896119E-05	4.52710848827813E-06	8.25626422960599E-07	2.74318413392609E-06	1.99986516872066E-06	0.998290186499675	-0.023390842685421
0.9	0.00178430856596258	-0.000369001322289231	-1.51486449690173E-07	-4.2169201265446E-06	-3.41658458148682E-06	-3.10869874749243E-06	0.99821156853418	-0.0258177467359399
1	0.00152130197591852	-0.000663898670689224	1.05898230965662E-06	4.2905100751267E-06	3.32570961147371E-06	9.33737708917055E-07	0.997842915077764	-0.0275573075588671
1.1	0.0012668902390847	-0.000634996194335315	9.04065853507058E-06	5.19465317304509E-07	-3.57717455466394E-06	-4.99647972599436E-07	0.997501658163605	-0.029404982942189
1.2	0.00115878004642912	-0.00102671668115552	3.7600346431032E-06	-1.19919214023294E-06	-4.095578621674E-06	-2.43746540321344E-06	0.997051552405094	-0.0303427279617628
1.3	0.000759619493051977	-0.00185382858944864	-7.6167470973803E-07	-1.42663562328679E-06	-2.58761476661511E-06	-8.70570736802687E-06	0.997392485930631	-0.0311839717781386
1.4	8.40022680175974E-05	-0.00289058927842124	1.50485712394842E-08	3.44741700734485E-06	-4.28243545244841E-06	-4.12613745566938E-06	0.997257438710958	-0.0333369086016362
1.5	-0.000541790486090444	-0.00340191572112427	-1.2967141475081E-06	4.42936213828404E-06	6.54948922468228E-06	-7.41407611811502E-06	0.997426146779667	-0.0367453727281641
1.6	-0.000751495182101617	-0.00354433132340836	1.62886238559787E-06	-4.89173630674086E-07	4.2396806616842E-06	-5.3927334159684E-06	0.996769336059358	-0.0399839679621001
1.7	-0.000946640814893791	-0.00362678649337086	5.3126101791438E-07	3.95521481445697E-06	-8.28008791983507E-06	3.12815786305352E-06	0.996916116994582	-0.0424488855982681
1.8	-0.00112704804952552	-0.00355571495254303	1.83117174054049E-06	1.0778472072818E-06	5.65218953656165E-07	-1.76071318949335E-06	0.996765873620446	-0.045175331832766
1.9	-0.00132151741083311	-0.00356534221313751	3.23336396416069E-06	3.01606272945567E-06	-1.82591746578239E-07	-2.328643056492E-06	0.996432716493463	-0.0475352483201731
2	-0.00161081539465416	-0.00345966117671875	-1.7267590263755E-07	2.00169441719766E-07	-1.21542730669669E-05	5.40768035199082E-06	0.995418860217485	-0.0500664381312649
2.1	-0.00164526385405241	-0.00343600170233488	6.68195636746421E-07	-1.38090450135068E-06	1.37951777368768E-05	4.96740685039218E-06	0.995306336919891	-0.0517642238226531
2.2	-0.00189850438024627	-0.0035853444802419	1.64373213173684E-06	-1.51509519915412E-06	2.68655024508932E-06	-6.20485229111403E-06	0.995465266751886	-0.0540825177936707
2.3	-0.00235502706397614	-0.00369894276806128	-1.68512881865599E-06	-3.42467758408962E-06	-1.78791393360456E-06	-4.58861838323811E-06	0.995214766614859	-0.0558522763645868
2.4	-0.00293057071667884	-0.00372528784433739	-1.2005756446911E-06	-4.39739997508771E-06	3.04313853482198E-06	1.08677620986241E-06	0.995222158482258	-0.0589122254167721
2.5	-0.0036573521376804	-0.00348667763901216	5.37495871559887E-06	5.66715719144758E-06	-2.61456731770699E-06	1.61327873373445E-05	0.994716150024583	-0.0610935365344836
2.6	-0.00399513156690688	-0.00297703843229655	-2.27666848408314E-06	2.70819895719823E-06	4.36256187961074E-07	-4.30786247893578E-06	0.994723342884477	-0.0636862934956373
2.7	-0.00408404880422035	-0.0026181626301147	-2.40222598770631E-06	-3.6358509637997E-06	2.15506263203414E-06	-2.56718877022747E-06	0.994436990656242	-0.0664884987623048
2.8	-0.0040700005554575	-0.0023445656061087	3.99767605316614E-06	2.31356764054808E-06	9.82585021921494E-06	-6.7927100051609E-07	0.99474356963475	-0.0683531489941371
2.9	-0.00393887834120327	-0.00217472048274529	1.28731803681568E-05	7.21185208501184E-07	2.44933564071298E-06	-1.17077726208537E-05	0.994714424162157	-0.0703649770024036
3	-0.00377878099732083	-0.00203143885697652	-3.85353023748866E-06	1.04307017130111E-06	-4.14311211717909E-06	-1.60172836631774E-06	0.994771325936653	-0.0729207271380703
3.1	-0.00341825332662201	-0.00210707835520149	4.78705193766398E-06	-9.83789202326504E-06	1.06793190363249E-05	2.41879301011471E-06	0.994667456480093	-0.0749040384005495
3.2	-0.00337033927794035	-0.00240645960905736	-5.36396977635731E-06	-7.41321250137053E-06	1.56315955154271E-05	5.39953619104078E-06	0.994661134007569	-0.0767832746711379
3.3	-0.00351714376525	-0.00269813407797961	-8.79585893241815E-06	2.53775383644904E-06	-8.56517669689563E-06	-1.74824668779711E-06	0.994680534980768	-0.08014840817741
3.4	-0.00389658236380503	-0.00292769826497894	9.06921884705011E-06	-7.5566601939284E-06	-7.35125813438668E-06	4.23017410671377E-06	0.994847270060743	-0.0823635866389679
3.5	-0.00439692166459896	-0.00294211212355378	3.2133704953802E-07	-5.32303850317107E-06	-4.39570706126594E-06	-8.93435446059649E-06	0.994457439656184	-0.0855297632115045
3.6	-0.0047127220790495	-0.00287099248275691	4.06885331876821E-06	4.90297174053913E-06	-7.11411592337633E-06	8.98826413866195E-06	0.993969699169188	-0.0877784174182902
3.7	-0.00517917854562701	-0.0027985015307356	1.53191453619238E-06	-4.52565093771495E-06	-5.09774106273934E-06	-6.59094808359502E-06	0.994019255759866	-0.0903225623857859
3.8	-0.00564696927569368	-0.0025172576795292	7.28456010361459E-06	-5.19006424234036E-06	-5.8782357122023E-06	-2.42391154264113E-06	0.993880583566386	-0.092428347082468
3.9	-0.00594792854833777	-0.00206514870069217	-4.02979628838986E-06	-3.53844474675189E-07	-2.53196050840057E-06	1.13082178387575E-06	0.993885020451057	-0.0957685765534761
4	-0.0060247422628114	-0.00149379143385742	-3.38446536326706E-06	-8.59511477713942E-08	1.19479928663863E-06	8.67211241982063E-06	0.993349593131595	-0.0971593314717908
4.1	-0.00571305656072272	-0.00118533534037807	-2.89704708020836E-06	-3.8664002593208E-06	5.87826806788826E-06	3.04672741945079E-06	0.993489092035541	-0.0987631280262542
4.2	-0.00563255149756163	-0.00117492221961033	-7.71432859355286E-07	-2.15943450529531E-06	5.705938615721E-06	-1.83874784301541E-06	0.993152921618065	-0.101535836962642
4.3	-0.00569993706843123	-0.00111781369536347	-5.1455989942919E-07	3.23697663589323E-06	2.12940586854206E-06	1.7835603777777E-06	0.99308284748302	-0.10363573418445
4.4	-0.00593274108870048	-0.00100810094697119	2.57520645082013E-06	3.44698286922563E-06	7.18408111617337E-06	3.92147475264428E-06	0.9927503804645	-0.106080819415305
4.5	-0.00616936079535928	-0.000593353526213378	-6.47726450628252E-06	-2.35860654291524E-07	-8.58542075469987E-06	-2.12229641828404E-06	0.992631773350769	-0.108161538510913
4.6	-0.00612937224069026	-0.000299837094956932	-9.94559121996521E-06	-9.24018181331139E-06	3.24033480047439E-06	-2.73029217214786E-06	0.992485023436395	-0.111019019073972
4.7	-0.00616945596162772	-0.000145808117349719	1.24817083731663E-07	1.86661183666959E-06	6.07018130122165E-06	-6.73455796255372E-06	0.992449529840631	-0.113098846766055
4.8	-0.00628536827538191	4.80425561726378E-05	-6.40060769224806E-06	2.07601233470505E-06	7.94336529411607E-07	-1.27567059204289E-05	0.992179973230267	-0.115632900774529
4.9	-0.00635006074672233	0.000278216645951914	-3.43528884542314E-06	8.14705284892346E-06	5.56754925034032E-07	9.385007215467E-06	0.991937839371395	-0.117558599295449
5	-0.00626352446352472	0.000618212297881593	9.6568228296373E-06	-4.05935261188364E-06	-6.94631953545601E-06	3.57671552672225E-06	0.991921121037168	-0.119386380402398
5.1	-0.00586004951007269	0.000673282166942385	-3.65242223798986E-07	-3.25598794578112E-06	-3.87777394703577E-06	-1.79675996936908E-06	0.991898575183787	-0.120956596809987
5.2	-0.00571593053865281	0.000595217706443607	-1.06611458237891E-06	-4.49288605478826E-06	8.79408158023297E-06	5.58885235201789E-06	0.991808094352081	-0.123251356548487
5.3	-0.00562758147227003	0.000617196966753446	2.28625949172318E-06	6.80357462894886E-06	8.80499827575013E-06	3.14228136231966E-06	0.991834350026432	-0.125772327399422
5.4	-0.0055847507269653	0.000674389531794213	2.71181314247124E-06	-3.1461725921648E-06	-2.67916089480686E-06	1.53085833448386E-07	0.991996436699625	-0.129058155196811
5.5	-0.00555996186246502	0.000961301360000521	2.11352201060605E-06	9.33392638030651E-06	-3.92993329021572E-06	-5.04182632053257E-06	0.991398871875333	-0.132414945334048
5.6	-0.00535147477917654	0.000924938157000196	-5.8639278913242E-06	-1.13407836632236E-06	4.87964616572891E-06	1.94572285272123E-06	0.990864965940326	-0.13480123842711
5.7	-0.00565436798068931	0.000916474029347472	3.34160532844096E-06	-1.4254064467788E-06	-5.05582451399619E-06	-4.29843059642137E-06	0.990637256043127	-0.137307736327192
5.8	-0.00606190588017005	0.00120004960554693	-2.05817370518877E-06	-4.75350688042248E-06	9.47857838993375E-07	-5.83200732208902E-07	0.990496894835244	-0.139637353934013
5.9	-0.00650917902241584	0.00178495341204032	-3.88521679820322E-06	6.21457736858536E-07	3.86881321315269E-06	1.25021142672334E-06	0.990166790037864	-0.142121227302301
6	-0.00680881765925147	0.00283295463699371	-5.94587888091016E-06	5.05657381604117E-06	-1.48732085818047E-06	1.96903863575541E-07	0.989566673586705	-0.143620131350993
6.1	-0.00626231290970491	0.0037012656571395	-5.94454969708385E-06	-4.70658825208354E-06	-4.01615184881238E-06	4.35136122756248E-07	0.990021867325337	-0.144995215373138
6.2	-0.00572037476409779	0.00391264434088634	2.83050134482887E-06	3.13133084866316E-06	1.05613721522604E-06	7.23819764374196E-07	0.989989388115854	-0.14694792659335
6.3	-0.00529646387818216	0.0037867608048889	1.64460493209301E-06	-7.5203833071251E-07	-1.3200992950977E-07	1.37922751974759E-06	0.989543095381974	-0.149399507179749
6.4	-0.00525556552880885	0.00347945099270544	-5.20322607485297E-06	-5.6263999777201E-06	3.8332624442131E-06	6.91998299747353E-06	0.988778154544806	-0.151765579294754
6.5	-0.00515845776511657	0.00348021729368234	9.08926738093456E-06	-2.60967061966829E-07	-7.3428103482681E-06	-8.90400889735571E-07	0.988548500038453	-0.154339264580858
6.6	-0.004976369489288	0.00317100413717349	-1.49066424609674E-06	4.69771061197734E-07	3.36541916052934E-06	-9.40526226114354E-06	0.988232348991319	-0.157413437192751
6.7	-0.0051064418820694	0.00311890225160764	5.99303874669546E-08	7.76298074919928E-06	-5.04366355750208E-07	-6.09427310344487E-06	0.987583721400002	-0.159889692505387
6.8	-0.00520133085930075	0.00325607867790629	4.25499698013815E-06	1.6527296691345E-06	2.07197623950229E-07	-5.2418824345044E-06	0.987014965106043	-0.16227165674127
6.9	-0.0053754895668219	0.00352305879435561	-7.55926009124272E-07	2.49095736101752E-07	5.76226565942864E-06	-2.69063899189842E-06	0.986472618737794	-0.164567403146513
7	-0.00529071339608913	0.00424515617008497	8.02605686311517E-06	-4.77280239816657E-06	4.3171164901944E-07	-3.02460825758777E-06	0.9856218025884	-0.166433277535555
7.1	-0.0048282335787912	0.00436047567286814	3.85454374460645E-06	2.03995395975906E-06	7.85870452826559E-07	7.23808023553971E-06	0.985059829170692	-0.168250858169579
7.2	-0.00489933931945642	0.00437865311352064	-2.44451852826004E-06	3.70077550386289E-06	-1.34139123769688E-06	-3.82955107988897E-06	0.984256096544959	-0.170152391054072
7.3	-0.00522586569467869	0.00458880519831841	3.44208404021176E-06	-5.02084381462393E-07	-2.45674986503634E-06	-1.91412346813005E-06	0.983055536488522	-0.172065495086796
7.4	-0.00583439467137001	0.00497210953190591	-6.20038850200031E-06	-2.68317671001857E-06	3.77351792398003E-06	2.36329621320767E-07	0.981820208345535	-0.174653644499868
7.5	-0.00637792974311025	0.00611853835807031	6.72920808454285E-06	-6.45266069328442E-06	-2.47399339921719E-06	8.07520616107782E-07	0.979806175607743	-0.177000980468862
7.6	-0.00583393860011588	0.00710565994698926	3.48882409959814E-06	5.18710251805913E-06	-1.02135686286721E-05	4.93998454397462E-06	0.979072927672143	-0.178959108187417
7.7	-0.00541444477513797	0.00754439066914518	6.03171940969781E-06	1.09068027800702E-05	3.14662252956613E-07	-1.1335316986123E-05	0.978909048501197	-0.181805026695138
7.8	-0.00475327429912336	0.00762950678952942	2.1526060905196E-06	9.7917840139465E-07	-3.08851362754662E-06	8.80560743743026E-06	0.978850597764267	-0.185043424293873
7.9	-0.00410096945263801	0.00750869351534583	2.54501922701297E-06	-2.31108151396141E-06	3.68022515712407E-06	3.38468858363638E-07	0.978476828713491	-0.188409555605678
8	-0.00316246996872738	0.00742609522206862	-2.80750833927587E-06	1.32721678277344E-06	6.8641799066888E-06	-1.85605623749995E-06	0.97787898313681	-0.190736213844599
8.1	-0.00235681394063221	0.00659788926796282	-1.78938421038381E-06	7.54930691009655E-07	-3.70469842283737E-06	-1.25204186945043E-06	0.978176532962656	-0.193490228309736
8.2	-0.00226022910421351	0.0059353059417942	-7.90397279412973E-07	6.32963877777681E-06	4.8746655001549E-06	4.34818831938197E-06	0.977910873176789	-0.196318923158383
8.3	-0.0023253393830156	0.00558124621691964	-8.66432586904311E-07	-1.42022706445242E-05	6.82511689441556E-06	5.41699239430121E-06	0.977183412175052	-0.199292132179813
8.4	-0.00257393619627576	0.00553392143243642	3.75363699212994E-06	-3.42949861274062E-06	-6.96672204063484E-06	-1.21121829949393E-06	0.976226240108216	-0.201976569282481
8.5	-0.0025580383246325	0.00601996376607908	4.67063074123177E-06	5.81367725483477E-07	8.40095824902417E-06	-6.834875904894E-06	0.975499526741483	-0.204538886675094
8.6	-0.00212812427046714	0.00597995556103466	-3.26116406081984E-06	4.11549733764058E-06	1.0183504093795E-06	1.10836085346198E-05	0.974908559550657	-0.207252221218192
8.7	-0.00213593176088772	0.00586217998129309	2.6790077631499E-06	-1.99941086728375E-06	4.77662728482907E-07	-5.53624290309762E-07	0.974328347626549	-0.209761797013877
8.8	-0.00222827764607434	0.00598645564746639	1.21090849691928E-07	-1.25206693025791E-06	-9.64731088087501E-07	9.76010291870898E-06	0.973728469789625	-0.211847590497201
8.9	-0.0023050328584611	0.00627674859396037	-3.66139066877964E-06	2.2928319105157E-06	4.83062287487396E-06	-1.80382349489142E-06	0.973628069805017	-0.213610322055821
9	-0.00196815011753434	0.00697050091240212	-1.89034788885204E-06	4.97749323807282E-07	-3.21076619048145E-06	-1.05372839789957E-05	0.973511603382715	-0.215616073871043
9.1	-0.000947123794731759	0.00699195774369934	5.25297564722034E-06	5.8825003627137E-07	9.13250461421462E-07	3.81649660856473E-07	0.973497852035958	-0.217511413456573
9.2	-0.000179808074669228	0.00663145141592454	-8.72924465897251E-06	-4.57403493765582E-06	-8.85322059930569E-07	-6.12970954619992E-06	0.973359997510209	-0.220104355424239
9.3	0.000433049766447353	0.00606512460566513	1.93470061047601E-07	6.21828359052076E-06	4.63911034118025E-06	-2.19880535487046E-06	0.97314138939597	-0.222851579363532
9.4	0.000699732775787625	0.00536054665374754	-1.92198630908203E-06	5.88885259741592E-06	-1.0498131088516E-05	7.75699483392904E-06	0.972390239798367	-0.226229969909902
9.5	0.00087818162796856	0.00510300937676233	3.17419852459404E-06	-7.56857722454933E-06	3.67771929548589E-06	-2.74571685713927E-06	0.970976447169265	-0.229024008948641
9.6	0.000927164154004906	0.00432194808323335	4.50038615081039E-06	5.5690464800334E-06	-6.34710563888563E-07	7.06717136416126E-06	0.970233356653197	-0.231676178824793
9.7	0.00040463495271227	0.00389628250497253	-2.60520397824545E-06	-3.93437803600827E-06	3.68600914064785E-06	-7.5200091406563E-06	0.969536893758251	-0.234210779390654
9.8	-0.000231214556153239	0.00385955659776896	-5.26077439843596E-07	-4.21179067353673E-06	6.27217290407062E-06	8.8640257849204E-07	0.969071808663009	-0.236410381991132
9.9	-0.000892464171581968	0.00427453899435434	-2.68682772199193E-06	-5.9373274557664E-07	-8.49736902158201E-06	5.48485306518426E-06	0.967908232302907	-0.238212869766774
10	-0.00108312637904854	0.0052207360706905	4.29584328668754E-07	-1.7503095385287E-06	-3.07779637748567E-06	-7.96833436431074E-06	0.96721999745777	-0.238457421245342
10.1	-0.000708489755406941	0.00557265860348575	2.24219377811386E-06	4.77095810115864E-06	-3.10686090178582E-06	9.84620995160757E-06	0.967659368622438	-0.239903162040277
10.2	-0.000656510233593642	0.00580704856023088	-5.37298378113281E-07	-1.04874466287848E-06	-1.20817298174776E-06	-3.11655931566422E-06	0.96728355913431	-0.241537250008256
10.3	-0.000623032188337329	0.00620187506097527	1.13047203479328E-05	-2.92506705976802E-06	1.00554671228218E-05	-4.83818176203951E-06	0.966504678788246	-0.243382862945999
10.4	-0.000538927693505486	0.00678607124650769	-6.29401336465383E-07	2.14667187887521E-06	3.03109649558522E-06	-2.18271612747636E-06	0.965279445063411	-0.245252273726179
10.5	4.58559793394356E-05	0.0077746255805709	-6.1115246742837E-06	4.6382175093725E-06	1.56820681834998E-06	4.30611913813251E-06	0.964289412237842	-0.247147739118595
10.6	0.001323015112855	0.00795924646365166	-7.10421111277278E-06	1.06765716953989E-05	7.02052501455152E-06	4.26952589081183E-06	0.963692151984403	-0.249225804471956
10.7	0.00240262897699599	0.00774730393018489	-3.21355215404162E-06	1.56403884298133E-06	-5.36648602648386E-06	3.16505896426197E-06	0.963485785178066	-0.251455690834995
10.8	0.00315695519133635	0.00723419083652672	-1.93051266926305E-06	4.98693550407338E-06	8.53056507685897E-07	-3.20060852463299E-06	0.963278777337399	-0.253497584364038
10.9	0.00338632103587086	0.00682559440130866	-5.73878342662083E-06	-1.05285420564407E-05	4.92016474192474E-06	1.07065120939712E-05	0.962995683177269	-0.255535335458766
11	0.00393231988657818	0.00690503575631625	2.96368880245072E-06	2.61732538403676E-06	7.97123713332389E-07	-1.12342106223329E-05	0.962533064846558	-0.256864104972938
11.1	0.00466508425648069	0.00624782459609355	3.85618468606759E-06	1.45997885802032E-06	2.60337798650021E-07	-7.37202482581427E-06	0.962569206365134	-0.258394964651605
11.2	0.00485347437931018	0.00556535964489127	-4.41375689588264E-06	-1.97344114193617E-06	-7.3181971290021E-06	-4.8538000184742E-06	0.962314551127727	-0.260468468479161
11.3	0.00489064942257577	0.00499650104967478	6.65787314335619E-07	-6.37664447879689E-06	3.75975200287874E-06	1.41387140639638E-05	0.962060722194841	-0.262895124162108
11.4	0.00464701067384139	0.00461544525559984	-5.11659985346403E-06	8.1389156801018E-06	-1.45884158284075E-06	4.07510517220936E-06	0.960982928339495	-0.26631473231339
11.5	0.00468365715469314	0.00468869206417661	4.51693781786022E-06	8.08269245123949E-06	-9.27599927347823E-06	1.57807711926162E-06	0.958950257790721	-0.268977852456216
11.6	0.00491181834696061	0.00405072412827712	-3.83706860297908E-06	1.39668003909484E-06	5.06646476371663E-06	8.12783679661505E-06	0.957964636879293	-0.271883799016487
11.7	0.00451715623952026	0.00359556966522975	2.23888432747712E-06	1.05165539826478E-05	5.42474369587083E-07	-3.64413613192482E-06	0.956919651080413	-0.275587961263657
11.8	0.00411841532872392	0.00366839462574455	1.42458421624786E-06	4.45684829219072E-06	2.24459216641566E-06	4.53124153904968E-06	0.955472898799008	-0.279273028379811
11.9	0.00397345224182433	0.00423743150122201	7.42368820235312E-06	1.05580702668928E-05	3.87620414778489E-06	4.08024465040558E-07	0.953879851559207	-0.281241670693354
12	0.00487419392129137	0.00505359418192341	2.36089110747149E-06	-5.14633478396409E-06	-4.0705425385703E-07	1.7488213755233E-06	0.953243102042999	-0.281410055521007
