# GHZ S RI R 50
0.2	0.00112137012038948	0.00268180631228166	4.78823054873489E-06	-2.98590539015516E-06	-1.37083404301657E-05	1.31189655475925E-05	0.99895331207399	-0.00743049035325345
0.3	0.00152430511678692	0.00178986179249304	2.86709321730518E-06	6.61932660856383E-06	-1.66732608040892E-06	-9.31229389798091E-06	0.99871271680921	-0.0103994450010584
0.4	0.00173937192927405	0.00111846207589417	-1.86268440262009E-06	-4.01118737452914E-06	-9.00479979479782E-06	4.4037209551513E-06	0.998442773790528	-0.0131164170509424
0.5	0.00146518599669775	0.000813284237732373	-5.35365715633137E-06	3.26141099265966E-06	-2.12354661394109E-06	6.75212709060806E-06	0.998041124492986	-0.0157561392114159
0.6	0.00181505894384079	0.000803637889610763	-1.38303555098174E-07	2.80403069749621E-06	-5.81150830681461E-07	-1.3375741512196E-07	0.998620393665136	-0.0187683658295373
0.7	0.00197220119310801	0.000440954179055547	8.905027586414E-08	2.21713362990245E-06	4.89737758551545E-06	-3.40129913066165E-06	0.998192808121339	-0.0220747305260422
0.8	0.00207870888666352	0.000120415259653809	4.52414834475195E-06	8.22815370977505E-07	2.7421185516002E-06	1.99704850366718E-06	0.99772415223206	-0.0244064252524232
0.9	0.00214044581750903	-0.000327793850709716	-1.53424305845278E-07	-4.21287348643866E-06	-3.41490028171953E-06	-3.10408500509217E-06	0.997299165007042	-0.026989074697884
1	0.00162403830104301	-0.000946864450904578	1.05894454255405E-06	4.28510888303569E-06	3.32202228916863E-06	9.31681425772721E-07	0.996250307225089	-0.0284666114740766
1.1	0.00118580749489277	-0.000777170547105413	9.02942809359758E-06	5.17406717337822E-07	-3.5727767609857E-06	-4.98465455016318E-07	0.995951297888423	-0.0297677236369196
1.2	0.00101248545484804	-0.00126641005010043	3.75453019255736E-06	-1.1977805440582E-06	-4.08989378723253E-06	-2.43362160524107E-06	0.995514113781319	-0.030675831220647
1.3	0.000462305978555039	-0.00214593603983002	-7.60524089581175E-07	-1.4244214763638E-06	-2.58377211338267E-06	-8.69223146361609E-06	0.995883801058199	-0.0315902932087875
1.4	-0.000282920962149143	-0.00317423218748504	1.52041715358275E-08	3.44249609230892E-06	-4.27653551513428E-06	-4.12002867749827E-06	0.995947942289199	-0.0340210531393184
1.5	-0.00109055249960127	-0.00340745680558225	-1.29461026263772E-06	4.42393795705605E-06	6.54046761335189E-06	-7.4054666681555E-06	0.996277144230035	-0.0374365572057977
1.6	-0.00101519504086247	-0.00322358081420179	1.627131357071E-06	-4.88717203784696E-07	4.23502791359987E-06	-5.38721172308368E-06	0.996084628167888	-0.0407758727634696
1.7	-0.00104164018416725	-0.00324581070383067	5.30734518404088E-07	3.9517313348655E-06	-8.27282473120974E-06	3.12527617715988E-06	0.996258004418829	-0.0433071899949144
1.8	-0.00111449552109224	-0.00315881990972266	1.82974141043756E-06	1.07704883125195E-06	5.64814420717773E-07	-1.75934621314482E-06	0.996098777457032	-0.0459661073181936
1.9	-0.00129292545062082	-0.00326225236100649	3.23118668108042E-06	3.01326613652639E-06	-1.82742079503994E-07	-2.32677683807062E-06	0.995631786065456	-0.0483693487079837
2	-0.00185523362943581	-0.00303140159183654	-1.72450163001967E-07	1.99911121391524E-07	-1.21384558689561E-05	5.40076390396617E-06	0.994049254836457	-0.0503709112493001
2.1	-0.00169809205586571	-0.00267742327167557	6.68091007556367E-07	-1.37887939203273E-06	1.37758241185544E-05	4.96844173965681E-06	0.994538886813163	-0.0514143493160283
2.2	-0.00170862763979199	-0.00279708043916398	1.64294448781414E-06	-1.51236414448325E-06	2.68772188295708E-06	-6.1963354091042E-06	0.995049542152843	-0.05383578618493
2.3	-0.0019439895795812	-0.00298885023347702	-1.68067505711977E-06	-3.4224961340596E-06	-1.78242957170095E-06	-4.58532208589983E-06	0.994887283807954	-0.0556982762098149
2.4	-0.00234453621831238	-0.00329433173999026	-1.19511066369861E-06	-4.39443037834766E-06	3.03919466509697E-06	1.0887474868191E-06	0.994876376372317	-0.0587573301968981
2.5	-0.00334148488262757	-0.00337469697264997	5.36517408386233E-06	5.66961296414693E-06	-2.63106398605371E-06	1.61196179424226E-05	0.994427504382061	-0.0607097582753277
2.6	-0.00382914391963065	-0.00273281186950795	-2.2780750393637E-06	2.70452350701418E-06	4.40211549215186E-07	-4.30511456186045E-06	0.99474672335468	-0.0632382788004242
2.7	-0.00390715740705544	-0.00235094102013035	-2.39696021451061E-06	-3.63620078822731E-06	2.15647326446274E-06	-2.56338260115531E-06	0.994639086580459	-0.0660442534233062
2.8	-0.00387492680698677	-0.00213103686549071	3.99245194719E-06	2.31695361919166E-06	9.82065529142845E-06	-6.67054522888526E-07	0.995061522829657	-0.0679605861187156
2.9	-0.00383934303785253	-0.00211416869908741	1.28643706904328E-05	7.38008164828724E-07	2.46354301696297E-06	-1.16973555664365E-05	0.99493899475353	-0.0700295217623672
3	-0.00406116130716977	-0.00189784691181436	-3.85249808928661E-06	1.03734654916524E-06	-4.13841775024889E-06	-1.60618242068792E-06	0.994793695476826	-0.0724369587059222
3.1	-0.00372086302918714	-0.00165861458325085	4.79659395809015E-06	-9.82207433099638E-06	1.0666083962003E-05	2.43170223347872E-06	0.994625871464015	-0.0742645787123445
3.2	-0.00363222726785335	-0.00179909618131978	-5.34616091557036E-06	-7.41478150339216E-06	1.56068760981762E-05	5.42034479256189E-06	0.994526315311381	-0.0760168123569715
3.3	-0.00369301599792225	-0.00198704447668577	-8.79222998589357E-06	2.5186590537568E-06	-8.55365056239829E-06	-1.7627939199669E-06	0.994515008520513	-0.0792180883393797
3.4	-0.00401190124728718	-0.00225796633372247	9.07789569462458E-06	-7.53242184448638E-06	-7.35441037214252E-06	4.21194782064199E-06	0.99476447970274	-0.0813014376362473
3.5	-0.00473777839293273	-0.00219174432294367	3.30970800867844E-07	-5.31948616621458E-06	-4.37679323368107E-06	-8.93748932891482E-06	0.994446132255952	-0.0844565835525277
3.6	-0.00491852142978552	-0.00180596575786528	4.05696953226549E-06	4.90740335699932E-06	-7.1263432921343E-06	8.96899797307225E-06	0.994101942031254	-0.086673007934963
3.7	-0.00515274293069233	-0.00168769725605711	1.54001085037813E-06	-4.52017003841991E-06	-5.08196852213879E-06	-6.59742467120595E-06	0.994181625943361	-0.0893163855054438
3.8	-0.00543788033640717	-0.00150387667291009	7.29202287087095E-06	-5.17349597707939E-06	-5.87108154436229E-06	-2.43466725945028E-06	0.993938019616554	-0.0914406954236872
3.9	-0.00571267979768612	-0.00129892123938109	-4.02776733661116E-06	-3.61325838092766E-07	-2.5332379728083E-06	1.12566398571826E-06	0.993631438837128	-0.0947036784836158
4	-0.00614504489966489	-0.000742597447282415	-3.38223672415268E-06	-9.29494601919071E-08	1.17601038351858E-06	8.66934964890529E-06	0.992667325408868	-0.0951324668618104
4.1	-0.00577358591110645	-0.000106177585598099	-2.88687369244441E-06	-3.87237728764324E-06	5.86927129486804E-06	3.0601632248569E-06	0.993829852000614	-0.0960253656496911
4.2	-0.00546860622754892	-2.85745792377544E-05	-7.66206098023396E-07	-2.16127579512285E-06	5.71032147367998E-06	-1.82493913884118E-06	0.994156079600713	-0.0989645783529366
4.3	-0.00531914633247095	-8.07494400418931E-05	-5.2246478452629E-07	3.23624481376884E-06	2.12543184138749E-06	1.78898900354755E-06	0.994454697169208	-0.101279176599263
4.4	-0.00547744363322652	-0.000316404569241663	2.56734791522663E-06	3.45483174232611E-06	7.17670750384893E-06	3.94127378949578E-06	0.99436552849414	-0.103873298898643
4.5	-0.00615494371079539	-0.000123858103352941	-6.4834692611016E-06	-2.5324928757719E-07	-8.58885626984267E-06	-2.1472524408447E-06	0.994751996118174	-0.10592514366774
4.6	-0.00632020856363606	0.000401800873737497	-9.94094931547984E-06	-9.27514071976975E-06	3.25098895049352E-06	-2.72752652124169E-06	0.995205861963461	-0.109378412803221
4.7	-0.00642935593180341	0.000710779947067364	1.21679229602296E-07	1.86991472738818E-06	6.09225908903334E-06	-6.73479394110372E-06	0.995280245741264	-0.112022705685361
4.8	-0.00653179293593799	0.00104717644562091	-6.41516723333453E-06	2.06966048980159E-06	8.15710528067771E-07	-1.27780028976303E-05	0.994988548320974	-0.114953011139793
4.9	-0.0065555543349055	0.00127232952074003	-3.45346830611335E-06	8.15759612952732E-06	5.44379042610787E-07	9.40361333009984E-06	0.994619362468632	-0.117120101815718
5	-0.00669846792970879	0.00175653379287152	9.68138908358766E-06	-4.05675946062694E-06	-6.96473718719699E-06	3.57620706777558E-06	0.994518595069935	-0.1188854995789
5.1	-0.0060660782439287	0.00214733765434427	-3.62845322964624E-07	-3.2624377471629E-06	-3.88334320348108E-06	-1.80379854337219E-06	0.994657716838818	-0.120542747027571
5.2	-0.00562722999137352	0.00205970264029152	-1.06378613758495E-06	-4.5020375351569E-06	8.80471614422018E-06	5.60731720258691E-06	0.994494029244096	-0.122989784439492
5.3	-0.00535594738795591	0.00191781641313906	2.28381811318487E-06	6.81835342128951E-06	8.81815581571028E-06	3.15668805485031E-06	0.994458146930624	-0.125454812906691
5.4	-0.00534273337493449	0.0016659892845475	2.72066730019717E-06	-3.14994452200125E-06	-2.68488889851996E-06	1.50666700988258E-07	0.994812374893681	-0.128662613412366
5.5	-0.00579164408954817	0.00201578511560223	2.11229578905117E-06	9.35781038953134E-06	-3.93597884180599E-06	-5.05661274532922E-06	0.994480285860865	-0.132121475465389
5.6	-0.00547264649413372	0.00237613592171506	-5.87758759426661E-06	-1.1394550962066E-06	4.89056254952863E-06	1.95261831608457E-06	0.99431015782694	-0.134789368291323
5.7	-0.00553680409993164	0.00244756745113451	3.3504462624318E-06	-1.42826864934841E-06	-5.06771513718604E-06	-4.31054462937137E-06	0.994164720181228	-0.137792390462924
5.8	-0.00569152968061911	0.00266442814648971	-2.06409809276319E-06	-4.76554319680366E-06	9.50236078392255E-07	-5.84829053440594E-07	0.993819757970098	-0.140562610739885
5.9	-0.00594914611956207	0.00286412573128941	-3.8936356307568E-06	6.25123113912631E-07	3.87828414351506E-06	1.25078551144867E-06	0.99280028185203	-0.143354307230234
6	-0.00674336536515724	0.00351818024713602	-5.95375490163183E-06	5.06601310346609E-06	-1.48957671370808E-06	1.97607404380408E-07	0.99131161417117	-0.143746746635927
6.1	-0.00647153908366212	0.00464090188587379	-5.95470308197247E-06	-4.71499941584086E-06	-4.02315063820662E-06	4.35738020891761E-07	0.992734770561545	-0.144371746353516
6.2	-0.00597550557068053	0.00495870387003873	2.83538853458935E-06	3.13650867153556E-06	1.05794460090248E-06	7.25002033263363E-07	0.993188207936022	-0.146564376263986
6.3	-0.00555938986088411	0.00484442505165254	1.64705731038638E-06	-7.53278198287299E-07	-1.32128213992334E-07	1.38132961005531E-06	0.992839738230298	-0.149421731698103
6.4	-0.0056733477945206	0.00443095763163109	-5.20949993366191E-06	-5.63453787932366E-06	3.83755162055702E-06	6.92968411153151E-06	0.991756892850162	-0.152023920584531
6.5	-0.00603824533511796	0.00483747924709587	9.10615674319629E-06	-2.56629023883232E-07	-7.35587065297464E-06	-8.9593488944146E-07	0.991832887999093	-0.154241618090701
6.6	-0.00553111099496547	0.00510477424514574	-1.49419557706624E-06	4.70731566094655E-07	3.37416760279494E-06	-9.42695449068713E-06	0.991970426341637	-0.158098698399796
6.7	-0.00523562718727352	0.00520665921144348	6.15200686218923E-08	7.78210952835761E-06	-5.06741858893185E-07	-6.10920507259975E-06	0.991116644188874	-0.161055974145529
6.8	-0.00494444080798154	0.00525125411960706	4.26658253365067E-06	1.6552430520856E-06	2.05602507443455E-07	-5.25541312490478E-06	0.990367039440556	-0.163720509868112
6.9	-0.00499724653401774	0.00511908264316625	-7.57713906937336E-07	2.50260016681753E-07	5.77535099448463E-06	-2.70156596143808E-06	0.989451433610185	-0.166254172073801
7	-0.00542716239174495	0.00587353658973583	8.04042945651969E-06	-4.79126285125777E-06	4.29959049801468E-07	-3.03205972084773E-06	0.988218764026372	-0.167635864471949
7.1	-0.00475816677062685	0.00647382503381296	3.86424037366708E-06	2.04156751347106E-06	7.92711866484178E-07	7.25299687900469E-06	0.988213861295091	-0.169352642100512
7.2	-0.00439836972114286	0.00658850738939557	-2.44815464806386E-06	3.71047209233841E-06	-1.34643918484655E-06	-3.83756865347647E-06	0.987624553295222	-0.171659974273899
7.3	-0.00420151427726249	0.00663175407453561	3.45094695961772E-06	-5.04768966082834E-07	-2.4639753952296E-06	-1.91818995661744E-06	0.9865511769326	-0.17405024009422
7.4	-0.00434698805372819	0.00634153126284134	-6.22261770221682E-06	-2.68887709504911E-06	3.78630293102542E-06	2.35113486322284E-07	0.985409469675638	-0.177564883709696
7.5	-0.00535099618925161	0.00658751103948086	6.74513564083377E-06	-6.48676294157146E-06	-2.48213024795783E-06	8.14167199567208E-07	0.982275131175603	-0.18087947693457
7.6	-0.00527663527498326	0.00740077979096802	3.51125874326856E-06	5.20021885243267E-06	-1.02428817512505E-05	4.97693463945523E-06	0.980942357214157	-0.182618694196037
7.7	-0.00530429504743529	0.00772148784205175	6.07938321100825E-06	1.09348627255992E-05	2.90280180750935E-07	-1.13793383372123E-05	0.980357242513774	-0.185577784313901
7.8	-0.00505800663424806	0.00790657586217676	2.16301764578683E-06	9.76872043213705E-07	-3.07577454230735E-06	8.84571205777369E-06	0.979805079035164	-0.188649310500529
7.9	-0.00489224580252387	0.00792676591810682	2.54514730651957E-06	-2.3263098792473E-06	3.69238765800777E-06	3.27509439736862E-07	0.978791965524161	-0.1917042721473
8	-0.0045642939588681	0.00867712123267459	-2.80831543218635E-06	1.33859350718848E-06	6.87059906331072E-06	-1.88137059881891E-06	0.977559797909826	-0.192722373582034
8.1	-0.00339825592214684	0.00869170708177871	-1.78978961815469E-06	7.6111203157933E-07	-3.71356438983741E-06	-1.24326833469574E-06	0.978752807447489	-0.194982600207942
8.2	-0.00277925207886954	0.00839783935891388	-7.73494583031075E-07	6.33854192189627E-06	4.89200143226887E-06	4.33912228587009E-06	0.978694713216299	-0.197968557984139
8.3	-0.00230855674054833	0.00808538791498878	-9.05410259010062E-07	-1.42093875561939E-05	6.84430949436521E-06	5.40214647118956E-06	0.977970692583766	-0.20109359423205
8.4	-0.0022560677977287	0.00764959640661486	3.74720299031454E-06	-3.43999265466238E-06	-6.97279183231459E-06	-1.19521096797614E-06	0.97690739448517	-0.203941138090757
8.5	-0.0026694886675804	0.00807110251159513	4.67659253195066E-06	5.70650630002814E-07	8.3926419651982E-06	-6.86184167448642E-06	0.976178526216359	-0.20661691758065
8.6	-0.00204443768738629	0.00846722843809271	-3.25073529515806E-06	4.12879071306083E-06	1.05379432111857E-06	1.10887427914835E-05	0.975453459792269	-0.209765101287004
8.7	-0.00160705677179276	0.00842058292381205	2.67293040677971E-06	-2.00902665346133E-06	4.75910344520694E-07	-5.5539071523709E-07	0.974508718149773	-0.212563850931867
8.8	-0.00120370135561676	0.00832528318992214	1.16660523838241E-07	-1.25220637310058E-06	-9.30191086548386E-07	9.76126305749737E-06	0.973513472624057	-0.214835890940146
8.9	-0.000967387344318654	0.00791568807616427	-3.65058360905985E-06	2.30397220981644E-06	4.82065510212879E-06	-1.81943914174914E-06	0.97300425911333	-0.216762682610025
9	-0.00116219392437106	0.00800125342987317	-1.88623224984036E-06	5.03906463569802E-07	-3.24454942115117E-06	-1.05127799111472E-05	0.97232271661274	-0.218981312822374
9.1	-0.000525252895225272	0.00801261009294935	5.2448189814636E-06	5.69418281352742E-07	9.12773578859573E-07	3.77836475197979E-07	0.971554202185542	-0.220789365531123
9.2	-9.25166039189842E-05	0.00769719610480622	-8.72375524175534E-06	-4.53788607098171E-06	-9.01709022274955E-07	-6.11360202877074E-06	0.970900715337483	-0.22304100552475
9.3	0.000300366018476954	0.00730145691823056	2.10184950515673E-07	6.20425808680887E-06	4.62298555155743E-06	-2.20681761858044E-06	0.970516706245785	-0.225508129953708
9.4	0.000346091485444419	0.00660926145559594	-1.90253157677899E-06	5.88257177082863E-06	-1.04570631396731E-05	7.77000007618714E-06	0.969728577217106	-0.228990862926827
9.5	8.9142159102827E-06	0.00681394018480673	3.14562968770106E-06	-7.56450257254182E-06	3.66279762911126E-06	-2.75186279302078E-06	0.967844509452387	-0.231904109516384
9.6	0.000295979784346623	0.00670418728168633	4.50913760862152E-06	5.54470167105149E-06	-6.11698522572611E-07	7.0558711850145E-06	0.966856960601712	-0.234362303321359
9.7	0.000182816353548894	0.00652999776039899	-2.61302096226834E-06	-3.91849217983804E-06	3.6546698340799E-06	-7.51772084413779E-06	0.965926722959039	-0.236873422761592
9.8	-3.3399698161687E-05	0.0064795500339635	-5.39655005530792E-07	-4.20135872108863E-06	6.26244672548604E-06	8.62772612532019E-07	0.965161123716598	-0.239060365301445
9.9	-0.000464190190216187	0.0065007805182213	-2.6820327901594E-06	-5.82035586316303E-07	-8.45441203125394E-06	5.50256562929816E-06	0.963476184951944	-0.240847472799337
10	-0.00109736028995672	0.00739925494827884	4.22562570702196E-07	-1.74562382255915E-06	-3.09237921530003E-06	-7.93107612584586E-06	0.962333814119191	-0.240307495412988
10.1	-0.000503876522896676	0.00818589113280935	2.24787109352337E-06	4.7487602047514E-06	-3.0692119072149E-06	9.82178924340674E-06	0.963011247637058	-0.241611716585375
10.2	7.89459861705755E-05	0.0083949468770826	-5.38171196620726E-07	-1.04357051055818E-06	-1.21215382623879E-06	-3.10221724796265E-06	0.96242302420385	-0.24311303640317
10.3	0.000574901107592355	0.00829660091764099	1.1254020084324E-05	-2.94036899690309E-06	1.00051001145719E-05	-4.8431264146741E-06	0.961485800809249	-0.244650195125363
10.4	0.00060001365645776	0.00794121846878043	-6.23274786071384E-07	2.13916491362822E-06	3.01532470682665E-06	-2.17910952447071E-06	0.960242145764709	-0.245986507452801
10.5	0.000254531245389437	0.00853884442301498	-6.08672432251281E-06	4.63081045499579E-06	1.56835687392958E-06	4.29065957720628E-06	0.960084866567688	-0.247411057165289
10.6	0.000890589631007252	0.00905326162899514	-7.06947752917826E-06	1.0655844487037E-05	7.00634910504587E-06	4.2478302844189E-06	0.959745759252642	-0.249848931086388
10.7	0.00158069616847344	0.00931316518863638	-3.20263163986769E-06	1.56358573251187E-06	-5.34757261146737E-06	3.16275174592185E-06	0.959406485105846	-0.252146998229457
10.8	0.00232745873718898	0.00923161725632919	-1.91987458590387E-06	4.97548422557509E-06	8.47276898460281E-07	-3.19284147371829E-06	0.959155691608283	-0.254215967957422
10.9	0.00256402383326751	0.0089237208295936	-5.73295702898141E-06	-1.04946999631126E-05	4.9167217745134E-06	1.06729440659316E-05	0.958815625632084	-0.25627467213445
11	0.00265973688600635	0.00948001250785899	2.95735600027982E-06	2.60724022781102E-06	7.85253505139276E-07	-1.12024349806157E-05	0.958130395855962	-0.257889087461942
11.1	0.00372747883006209	0.00963205489654624	3.84448252841511E-06	1.45399087758328E-06	2.56908776818944E-07	-7.34875934299214E-06	0.957354274877267	-0.259429008755906
11.2	0.00456440698369521	0.0093139769236907	-4.39970643034101E-06	-1.96794201559127E-06	-7.29466700571859E-06	-4.83975154941358E-06	0.956429128840353	-0.260946202722842
11.3	0.00531867682335141	0.00867173797205796	6.67245663724463E-07	-6.35781467626807E-06	3.74134737679108E-06	1.40997448857406E-05	0.955915058163204	-0.262583135967299
11.4	0.00554905118371628	0.0077610575432392	-5.10957390256257E-06	8.1147033655405E-06	-1.45810461098144E-06	4.06377826176589E-06	0.954875967657426	-0.26531656341259
11.5	0.00537866770343754	0.00760633047190513	4.50065472830636E-06	8.06425865390957E-06	-9.25281059489073E-06	1.5687497742003E-06	0.952827467885249	-0.26743085813349
11.6	0.00593534520149668	0.00704803747628112	-3.82820587263449E-06	1.38944968388108E-06	5.04557317384229E-06	8.11100588762316E-06	0.952068515291116	-0.269894224497774
11.7	0.00597723751947163	0.00620819264978255	2.22160331651383E-06	1.04922966677139E-05	5.45112427192609E-07	-3.63427760132878E-06	0.95111419984364	-0.273122603218695
11.8	0.00576206882407701	0.00552145086274361	1.41592836049516E-06	4.44704072666517E-06	2.23375363071855E-06	4.52216517240253E-06	0.949953462125408	-0.276303899598412
11.9	0.00521509181812766	0.00502863334564888	7.39093786799925E-06	1.05323970274148E-05	3.86385950684345E-06	4.10376117063629E-07	0.948743449510062	-0.27803244682368
12	0.0046667938180621	0.00572583573201256	2.36091118823857E-06	-5.12167444844315E-06	-4.08625055535977E-07	1.74116034959066E-06	0.948707909258951	-0.277664080719287
