# GHZ S RI R 50
0.2	0.000598637139801628	0.00204816712175295	4.80201166729544E-06	-2.98360487607765E-06	-1.37552821445021E-05	1.31208648445157E-05	1.00023468894936	-0.00650332912949384
0.3	0.001158674337892	0.00152870301095112	2.86361870511239E-06	6.637126822007E-06	-1.65753317815996E-06	-9.33396933547523E-06	1.00036585046329	-0.00931819143533454
0.4	0.00151539957242285	0.00128139134111614	-1.86307012310753E-06	-4.02367141895099E-06	-9.03307202163289E-06	4.40516375681461E-06	1.00077328283044	-0.011918560930634
0.5	0.0020462347298283	0.000807378641323466	-5.36664754572085E-06	3.26779577997741E-06	-2.12983618226861E-06	6.76721178576393E-06	1.00095629926007	-0.0156246435081484
0.6	0.00181598025194056	0.000142434266809797	-1.41287814754757E-07	2.80910043922008E-06	-5.82099335127876E-07	-1.34570972185268E-07	1.00058854986388	-0.0186483445048369
0.7	0.00156830555221686	0.000100456078535336	8.64355292935727E-08	2.22277937291238E-06	4.91394877978056E-06	-3.40351901947325E-06	1.00036348895667	-0.0214512403409695
0.8	0.00153395463648587	7.64405103114047E-05	4.53696352980388E-06	8.30826191982514E-07	2.74806498951507E-06	2.0064793054579E-06	1.00023540017555	-0.0236327094819488
0.9	0.00143309402262425	0.000150279200087872	-1.49682068404137E-07	-4.22854019104443E-06	-3.42429887016022E-06	-3.11900406743752E-06	1.00014762368179	-0.0259119568548021
1	0.00187743867084766	0.000310606773896659	1.0625825594646E-06	4.30309131640645E-06	3.33565251428523E-06	9.36139183715516E-07	1.00041674513778	-0.0273082202352181
1.1	0.00190092237303027	-0.000580227213274134	9.06323627472299E-06	5.18449666959612E-07	-3.58618302794042E-06	-4.99976286397419E-07	1.0002753531432	-0.0298203486513878
1.2	0.00122392218131498	-0.00125944872434624	3.76879647613096E-06	-1.20240205380979E-06	-4.10549784751603E-06	-2.4428124998895E-06	0.999516521812048	-0.0308351137687021
1.3	0.000308331010303336	-0.00199805811680071	-7.63430862005224E-07	-1.42979743117245E-06	-2.59372418992706E-06	-8.7250780617014E-06	0.999614874399481	-0.0316403121610084
1.4	-0.000563275491904309	-0.00256837598287862	1.50228320617457E-08	3.45493120399799E-06	-4.2916993239991E-06	-4.13520344402247E-06	0.999453539205764	-0.0336131816372755
1.5	-0.000695296210269391	-0.00306640649556439	-1.30050854946439E-06	4.43994791457668E-06	6.5664912307381E-06	-7.43116189607606E-06	1.0006442776104	-0.0372374264886236
1.6	-0.0012274374018162	-0.00321096817376188	1.63379217743355E-06	-4.90658598164007E-07	4.25250178554851E-06	-5.40906940933424E-06	1.00020518964398	-0.0413382027418436
1.7	-0.00124966449494942	-0.00293233509849571	5.34610321361964E-07	3.96860852405468E-06	-8.30735095387296E-06	3.14210056401498E-06	1.00048019321446	-0.0441063601051292
1.8	-0.00119281368687994	-0.00272524650180275	1.83856387621541E-06	1.08054685980406E-06	5.66098505088838E-07	-1.76750532032031E-06	1.00043037193617	-0.0469322311811665
1.9	-0.00110177954201327	-0.00257736910137195	3.24805118384918E-06	3.02596045410101E-06	-1.84778390691331E-07	-2.33773992264377E-06	1.00052145237074	-0.0488413249548662
2	-0.000781953958557949	-0.00284453212518116	-1.73334380529513E-07	2.01421979508624E-07	-1.22111163285875E-05	5.45057134168794E-06	1.00163752146531	-0.0520214644313041
2.1	-0.00133155807970694	-0.00330119611455557	6.67642967334847E-07	-1.38931260224511E-06	1.38745433273072E-05	4.95372780418313E-06	1.00093404757055	-0.0559690279372139
2.2	-0.00181700608407414	-0.00319092990035308	1.6462844537624E-06	-1.52635472642379E-06	2.67979839977001E-06	-6.23911319901429E-06	1.00027855695284	-0.0586240203108964
2.3	-0.00223860323386464	-0.00310460654821476	-1.70276309780527E-06	-3.43376668468872E-06	-1.80957886842341E-06	-4.60225062906408E-06	0.99968700701996	-0.0605733168783933
2.4	-0.00266074468678432	-0.00292494583155573	-1.22103199643381E-06	-4.41202688888361E-06	3.05994193695615E-06	1.08082233372515E-06	0.999505523726569	-0.0637098959460397
2.5	-0.00272197222690992	-0.00286115114212564	5.41989897817077E-06	5.66736388335331E-06	-2.55791440801302E-06	1.62078410014119E-05	0.999334200391006	-0.0661200211945454
2.6	-0.00338045303338573	-0.00317452379936562	-2.27364313872397E-06	2.72786039870597E-06	4.196473751219E-07	-4.32566244572353E-06	0.9992723583322	-0.0694815829145213
2.7	-0.00404162955838895	-0.0028244550135334	-2.42776684220224E-06	-3.63814871955714E-06	2.15116595447447E-06	-2.58652444015687E-06	0.998659111176502	-0.0728395837017879
2.8	-0.00436144547074859	-0.00227331778790447	4.02313691586108E-06	2.30120789416377E-06	9.85611036067681E-06	-7.31488520061766E-07	0.998487955600612	-0.0751184243130384
2.9	-0.00424278603890035	-0.00171223537528845	1.29152207602229E-05	6.51255144791595E-07	2.39103082857485E-06	-1.17560460826138E-05	0.997884070052746	-0.0772855938486443
3	-0.00378677328768579	-0.00166742619016924	-3.85538994995702E-06	1.06722708443744E-06	-4.16068579143835E-06	-1.58128594986486E-06	0.997567366516366	-0.079852890462756
3.1	-0.00394624817293335	-0.00173460177540736	4.7405649360129E-06	-9.88203526209185E-06	1.07117214871851E-05	2.36341647435393E-06	0.997026561813699	-0.0821425432715357
3.2	-0.00395649417907899	-0.00156138057296981	-5.41409627591915E-06	-7.39189003751506E-06	1.56836228977428E-05	5.31595363157427E-06	0.99638362312555	-0.0841184493060488
3.3	-0.00396760376765001	-0.00150348017239694	-8.78697170007924E-06	2.59215180283321E-06	-8.58174790641635E-06	-1.69829004099953E-06	0.99563501781988	-0.0874845089303702
3.4	-0.00404214358306878	-0.00139742473126813	9.02260055385612E-06	-7.60915876848579E-06	-7.32473588011454E-06	4.27308262465181E-06	0.99490392339598	-0.0892068318415263
3.5	-0.00394219154502814	-0.00162806490799391	2.94997977000123E-07	-5.3212840987861E-06	-4.43682599294271E-06	-8.90717705921751E-06	0.994925645408865	-0.0913129377174141
3.6	-0.00458712587451568	-0.00178480026881125	4.09355787199556E-06	4.88203315848689E-06	-7.06805785827302E-06	9.02394720387057E-06	0.994786585149903	-0.094480654039531
3.7	-0.00498729730954668	-0.00139730109075434	1.50640906388756E-06	-4.53191678763128E-06	-5.13144607518352E-06	-6.55993473270626E-06	0.993962872163593	-0.0973953384413551
3.8	-0.0051279257366338	-0.0010160937080882	7.24921169187245E-06	-5.22441635305459E-06	-5.88555617541282E-06	-2.38964488146964E-06	0.992990506879981	-0.0991907477716184
3.9	-0.00503198893113892	-0.000659765848780912	-4.02707428841243E-06	-3.33327446887426E-07	-2.52349328889712E-06	1.14220551772176E-06	0.992733122019955	-0.10155895186075
4	-0.00473248378303078	-0.000812510847926971	-3.38371810252683E-06	-6.71904855268697E-08	1.2423589717892E-06	8.66236690287723E-06	0.993518732142601	-0.103205353976317
4.1	-0.00521603689520086	-0.000914836017724003	-2.91796618888424E-06	-3.84218578648221E-06	5.88966635148499E-06	3.00438269265491E-06	0.992559216989211	-0.105955450098404
4.2	-0.00543699416417917	-0.000570770029460739	-7.8335156257345E-07	-2.14985634120567E-06	5.6818876098509E-06	-1.87067717286522E-06	0.991396871172901	-0.108423370117252
4.3	-0.00547846605792363	-0.00030871810678694	-4.93282591640647E-07	3.2317696862132E-06	2.13488472317703E-06	1.76582341561665E-06	0.99091391814197	-0.110259915324196
4.4	-0.00554079088939102	-6.55343487892117E-05	2.58937355169698E-06	3.42113376916936E-06	7.18810668346027E-06	3.86554829881025E-06	0.990389165744287	-0.11249217802513
4.5	-0.00539608548153676	-0.000142818215754197	-6.45428962724855E-06	-1.93196878869877E-07	-8.56663877626306E-06	-2.05890298478054E-06	0.990022537394032	-0.114837064188484
4.6	-0.00619293227066961	-0.000251136642186225	-9.95470458995284E-06	-9.14571626686736E-06	3.21141502944358E-06	-2.73670287379506E-06	0.989235130752057	-0.117503280046114
4.7	-0.00672003345737906	0.00033014801806155	1.3422142108747E-07	1.85815557630345E-06	6.00903010275806E-06	-6.73872035523954E-06	0.988882593556126	-0.119449995950498
4.8	-0.00697198271049654	0.00102215811603221	-6.36200719145275E-06	2.10123757227346E-06	7.2285364248616E-07	-1.27060890774483E-05	0.98815005138095	-0.121885865667333
4.9	-0.00683233247235722	0.00177548144266396	-3.37398389530036E-06	8.12722804319501E-06	6.05888536746027E-07	9.3372628429635E-06	0.987208726024024	-0.123519968355038
5	-0.00623950404447618	0.00194709981752126	9.58011926622253E-06	-4.08479930212132E-06	-6.88781106900406E-06	3.5912048172168E-06	0.986705422676759	-0.124592042175685
5.1	-0.00621152371731921	0.0021070691207122	-3.7741068047431E-07	-3.23528167292562E-06	-3.86292272472434E-06	-1.7691754016517E-06	0.986543412885269	-0.125718363846753
5.2	-0.00576057889591279	0.00238866827498524	-1.07872994565193E-06	-4.46044933117714E-06	8.76344353923141E-06	5.51654064606904E-06	0.985993986551009	-0.127694545617937
5.3	-0.00533098763976077	0.00235845831544582	2.2981027810216E-06	6.74739871116106E-06	8.75705035352504E-06	3.08489651761616E-06	0.985290293706087	-0.129661584998495
5.4	-0.0050344242047476	0.00234032631044009	2.67955908126783E-06	-3.13034635004748E-06	-2.65732595112028E-06	1.60961675627004E-07	0.984680127282469	-0.131659424893932
5.5	-0.00481337082856144	0.00189609691007011	2.10910694547917E-06	9.25465821947889E-06	-3.9047397642143E-06	-4.9951629504557E-06	0.984967706426304	-0.133348668483117
5.6	-0.00556759133190346	0.00199999624210651	-5.82375158416443E-06	-1.11973352677911E-06	4.84729656275277E-06	1.92671124171056E-06	0.985019155873789	-0.13606232155324
5.7	-0.00579047855498564	0.00269179772861967	3.31616511916442E-06	-1.41892191894679E-06	-5.02447139197374E-06	-4.26214286359588E-06	0.98440692382083	-0.138342334897275
5.8	-0.00571750854651649	0.00328551590251399	-2.04663506955812E-06	-4.7171464748577E-06	9.40478792191156E-07	-5.7963388313418E-07	0.983976106793265	-0.139960788705648
5.9	-0.0054619085388958	0.00394929653652953	-3.85752056791502E-06	6.17955422971517E-07	3.8416691259103E-06	1.24044485502562E-06	0.983963571101115	-0.141166754501562
6	-0.00473079775005655	0.00393722662994884	-5.89935513771192E-06	5.02928849288965E-06	-1.47696321665855E-06	1.97346429494556E-07	0.984917816687836	-0.143163323114506
6.1	-0.00518832389230611	0.00356208302242556	-5.89742272707036E-06	-4.65975274831852E-06	-3.98075322852046E-06	4.35301840772768E-07	0.983941589554677	-0.144951358799629
6.2	-0.00557881391199087	0.00382963463587331	2.80301272711873E-06	3.10326593946275E-06	1.04604609718832E-06	7.17482169413488E-07	0.983441614460258	-0.14577654091711
6.3	-0.00568368205233669	0.0041372119787923	1.63065385559857E-06	-7.42774265783193E-07	-1.32803282001335E-07	1.36642122911208E-06	0.983187584526241	-0.147304365736424
6.4	-0.00555377165789711	0.00442843599450081	-5.14760412341672E-06	-5.58770860460503E-06	3.78701072713958E-06	6.86751814525096E-06	0.983095310455578	-0.149155198700739
6.5	-0.00531659809378357	0.00400707123896057	9.00426689604606E-06	-2.40239168736743E-07	-7.27192846616342E-06	-8.9678409352518E-07	0.982547953998011	-0.152416221942023
6.6	-0.00586229599798262	0.00430209388961141	-1.47883665531276E-06	4.59356584381898E-07	3.37276868743853E-06	-9.3048082061986E-06	0.981632505272046	-0.154020340528687
6.7	-0.00572003960164933	0.00484799711886481	2.12373505093479E-08	7.70084931635288E-06	-4.70313110447277E-07	-6.04774828388123E-06	0.981582494969888	-0.155715872259664
6.8	-0.00554324342991901	0.00529878474170297	4.21579615492964E-06	1.66294978169211E-06	2.32945871030191E-07	-5.20309302778566E-06	0.981299625715361	-0.157574463892682
6.9	-0.00514418303246022	0.00588016156645415	-7.52137269419027E-07	2.43515589393671E-07	5.73747787953177E-06	-2.64278524984417E-06	0.981134430733688	-0.159029290344031
7	-0.00452345368904363	0.00562217805874129	7.99546207552458E-06	-4.69670371029679E-06	4.44818448856273E-07	-3.00119126632724E-06	0.981203542548548	-0.160733292745837
7.1	-0.00519631945705115	0.00587049921021087	3.81497718572176E-06	2.05002070916879E-06	7.3493239329914E-07	7.19279252236098E-06	0.980479047222566	-0.162336727187483
7.2	-0.0051181834396374	0.00673951920715476	-2.454774516921E-06	3.65926942968917E-06	-1.3054853040346E-06	-3.81403551618169E-06	0.979849330266598	-0.163606501516613
7.3	-0.00480668953847703	0.00739544899334439	3.42483680639087E-06	-4.71796388570612E-07	-2.42648649092519E-06	-1.92173569367772E-06	0.9787359138152	-0.164860560382565
7.4	-0.00435655264987281	0.00801539035217077	-6.138596587019E-06	-2.72527629248114E-06	3.74897207958985E-06	2.70217999018738E-07	0.977529765124042	-0.165794673709878
7.5	-0.00344060020439953	0.0077502945697735	6.78033862975094E-06	-6.35342925553948E-06	-2.47483040944472E-06	7.76371349679783E-07	0.978628788972688	-0.166618904957868
7.6	-0.00394416758847675	0.00722034427552099	3.43241826684841E-06	5.21794481248276E-06	-1.0254537375548E-05	4.83073720684095E-06	0.979083487046666	-0.170696989234829
7.7	-0.00425926133389218	0.00742651983014082	5.92476327660785E-06	1.0960845680435E-05	4.23460218846132E-07	-1.13282296246271E-05	0.978674932682219	-0.173865051699405
7.8	-0.0042441006619734	0.00754619144633024	2.14363738670547E-06	9.99529832292176E-07	-3.17166275374473E-06	8.77754251258599E-06	0.97875549008778	-0.176657770277565
7.9	-0.0039168493067995	0.00756838474633665	2.56921386533869E-06	-2.28940943713845E-06	3.68062209248423E-06	3.73385924184733E-07	0.979692931320483	-0.179329970215913
8	-0.00375635875040553	0.0069493365486986	-2.8239177258084E-06	1.30943831256213E-06	6.89397449203561E-06	-1.80935228098461E-06	0.980999825229804	-0.183943232375332
8.1	-0.00426220348108234	0.007441920457835	-1.79490629700925E-06	7.44196659620089E-07	-3.69868485614653E-06	-1.27559209778281E-06	0.979081781285982	-0.187391337317665
8.2	-0.00385356169196483	0.00806722321596271	-8.33567509255073E-07	6.32231954048324E-06	4.84338415682872E-06	4.38031332740327E-06	0.978599077845213	-0.189045977889938
8.3	-0.0033177358026039	0.00840229127982229	-7.61972067881122E-07	-1.42061430253275E-05	6.78413465545806E-06	5.46616928866487E-06	0.978487287337812	-0.191408091280706
8.4	-0.00267142673753247	0.00873344145691487	3.77927758671099E-06	-3.40259556481751E-06	-6.95894355441832E-06	-1.26231703573841E-06	0.978381700191213	-0.194024184070728
8.5	-0.00196846542848633	0.00817766875422427	4.66493528684617E-06	6.166046529449E-07	8.45043862934796E-06	-6.76932043686953E-06	0.977908883127274	-0.197124279596498
8.6	-0.0025778222192586	0.00832377055248503	-3.29747014041553E-06	4.09134369247719E-06	9.27325460632857E-07	1.10996722201104E-05	0.9774774614896	-0.199497348142341
8.7	-0.00227391833868069	0.00909772904290655	2.69881733867117E-06	-1.98135973515804E-06	4.82746556422122E-07	-5.5070531718401E-07	0.977577554377009	-0.202013595500409
8.8	-0.00151069136159958	0.00963566804974576	1.30349365396774E-07	-1.2536222113803E-06	-1.03694334547748E-06	9.77207669512246E-06	0.977571460922464	-0.20437466104093
8.9	-0.000321293756799878	0.00983340437618218	-3.68191873616573E-06	2.27390779904873E-06	4.85009264642936E-06	-1.77677717342615E-06	0.978001194819345	-0.206526796401812
9	0.00101147141438231	0.00879520722050578	-1.89453192730366E-06	4.85604832779677E-07	-3.14328249981508E-06	-1.05634651710614E-05	0.978458438303088	-0.209170125508196
9.1	0.00102275372197186	0.00775556000268784	5.25375930556994E-06	6.27223844586744E-07	9.11344159085938E-07	3.88695822166006E-07	0.978483148011277	-0.211911925849813
9.2	0.00111134510754025	0.0069903693647789	-8.70619204186237E-06	-4.64628634298063E-06	-8.40039398893106E-07	-6.14457731465874E-06	0.978095455739807	-0.214947455796446
9.3	0.000830896800379907	0.0063277725530662	1.43943998313401E-07	6.23128359947631E-06	4.6652895857677E-06	-2.1656390833507E-06	0.977563607257783	-0.217669147934944
9.4	0.000566331265654434	0.00608214350245517	-1.97805318182424E-06	5.88599444522587E-06	-1.05908616641535E-05	7.68354399541408E-06	0.976893912184907	-0.220219548353682
9.5	0.000138279624834392	0.0054893544068579	3.26494519832401E-06	-7.57098552225741E-06	3.72212660528525E-06	-2.72111901353684E-06	0.977311892277249	-0.222924256876892
9.6	-0.000920522580591338	0.00602525555008665	4.48359211050428E-06	5.64591981746067E-06	-6.99657468270599E-07	7.1103262481282E-06	0.976807866651885	-0.226926849176927
9.7	-0.000993990130352828	0.00684029978000556	-2.59556961395098E-06	-3.9831802254498E-06	3.76937948795609E-06	-7.54905662929529E-06	0.976056557335479	-0.229643500159911
9.8	-0.000859950636778402	0.00745486989715854	-5.01371845478258E-07	-4.24941135983418E-06	6.31671853389913E-06	9.36675562957623E-07	0.976070682787672	-0.231558780532245
9.9	-0.000410085228133484	0.00804760254783491	-2.7080298767787E-06	-6.16584639310313E-07	-8.61188657800148E-06	5.48116937349317E-06	0.976945241812046	-0.233137670168517
10	9.7484941310035E-05	0.0077173686926868	4.40660409358419E-07	-1.76646971456098E-06	-3.07857827241998E-06	-8.06118863563887E-06	0.978083261223544	-0.237354226637464
10.1	-0.000429869278589371	0.00808426961755729	2.24607066377904E-06	4.81966859749756E-06	-3.16595864973441E-06	9.92148835603756E-06	0.975799682890153	-0.239939452500757
10.2	-6.07643300478367E-05	0.00881237603061633	-5.38451140114901E-07	-1.05992527681619E-06	-1.20814451010548E-06	-3.14844220784835E-06	0.975189696387285	-0.240980902172358
10.3	0.000643036292069531	0.00922365231118409	1.1422277724321E-05	-2.91798611714331E-06	1.01669862378399E-05	-4.85334010966184E-06	0.975083059404317	-0.242739911374583
10.4	0.00166105627979866	0.00925342979475667	-6.40310111121307E-07	2.16750871639895E-06	3.06684145409236E-06	-2.19898003725295E-06	0.975168298548422	-0.245249288079882
10.5	0.00232929815902087	0.00811729929590146	-6.17623676069192E-06	4.67658752472262E-06	1.5786819576141E-06	4.34981883976911E-06	0.974691973525313	-0.249251309615267
10.6	0.00164690630040133	0.00783912049290885	-7.19271951212423E-06	1.07779681762342E-05	7.08774864132971E-06	4.32354318199501E-06	0.973713632410382	-0.252399625005368
10.7	0.00138782769244319	0.00818228135051844	-3.24930398937552E-06	1.57960956542972E-06	-5.42644461639262E-06	3.19709179295699E-06	0.972646001333595	-0.256017278858253
10.8	0.00145128209797175	0.00884478258939527	-1.94916919781687E-06	5.04256458829654E-06	8.60800044362255E-07	-3.23611747430766E-06	0.971319462280822	-0.258657368603351
10.9	0.00212173133602059	0.00949320237539014	-5.81724307404632E-06	-1.06307272093786E-05	4.9902321850774E-06	1.08119506294542E-05	0.970757082252316	-0.261023415636742
11	0.00291518289276262	0.00910013216634022	2.99636420974432E-06	2.63720175036522E-06	7.85588838561885E-07	-1.13425377726883E-05	0.970068817250113	-0.263853321533963
11.1	0.00281089435204965	0.00952850704690997	3.89601260254737E-06	1.46842792506978E-06	2.51792553699084E-07	-7.44435976801088E-06	0.968099993851252	-0.266198767393952
11.2	0.00366376990541281	0.0100318769379361	-4.46080089255418E-06	-1.98412126089522E-06	-7.39929037427731E-06	-4.88698458765055E-06	0.966251013151718	-0.267963636610207
11.3	0.00485592791638656	0.0101200767510197	6.57874736994268E-07	-6.43816979822931E-06	3.82659999594061E-06	1.4263487058479E-05	0.964587348219551	-0.269085167057741
11.4	0.0060578145974862	0.00977781662906108	-5.14726143474063E-06	8.2190156237499E-06	-1.46454087656214E-06	4.11329776727833E-06	0.963202071500274	-0.270150904942879
11.5	0.00679432471891057	0.00837270394075989	4.57069531449645E-06	8.16284266246239E-06	-9.37103065125991E-06	1.60231247046609E-06	0.964252252788972	-0.272709058298433
11.6	0.00654785536160008	0.00781771988306977	-3.87577943078095E-06	1.42309072592618E-06	5.14585081997854E-06	8.20385925721395E-06	0.96269218269957	-0.277645195498951
11.7	0.00704181273033343	0.007396167118191	2.30153891353935E-06	1.0618417143829E-05	5.34578407739554E-07	-3.6843460599644E-06	0.960946529902925	-0.280990967048719
11.8	0.00761838458785956	0.00661652207563767	1.45688915798221E-06	4.49642961265815E-06	2.28552590901709E-06	4.56829791999178E-06	0.960237167875974	-0.283956081300423
11.9	0.00817679236963926	0.00539839299999619	7.55186149758265E-06	1.06396232955519E-05	3.9202119385676E-06	3.95062805524574E-07	0.961738592092094	-0.286437458220018
12	0.00747725685360782	0.00329551848488653	2.3473600837445E-06	-5.22131422594812E-06	-3.9809294957086E-07	1.77126003393839E-06	0.962578319285381	-0.293325045260699
