# GHZ S RI R 50
0.2	0.00094188135424849	0.00228780235824809	4.79428134256621E-06	-2.98481594216581E-06	-1.37290054023275E-05	1.31195381975604E-05	0.999535423770315	-0.0071472229142817
0.3	0.00136971484371576	0.00154604068382726	2.86573611879061E-06	6.62727169742184E-06	-1.66320234355269E-06	-9.32202700136713E-06	0.999446530088955	-0.0100868698060849
0.4	0.00161263886024162	0.00109254903675674	-1.86331933714575E-06	-4.01689122145214E-06	-9.01769622250831E-06	4.40541961270001E-06	0.999508444766655	-0.0127756626292597
0.5	0.00173748844504042	0.000691622900350464	-5.3590136490325E-06	3.26545992113998E-06	-2.12508696196085E-06	6.75955044601621E-06	0.999404797431335	-0.0160279268466144
0.6	0.00174156953911402	0.000340107462180845	-1.39190560982131E-07	2.80631705290999E-06	-5.81595743027078E-07	-1.34028370869973E-07	0.999456578674581	-0.0190948986880283
0.7	0.00166040134395217	0.000155142869056143	8.82443848135764E-08	2.21973295148741E-06	4.9044327669422E-06	-3.40322325989666E-06	0.999089505318901	-0.0221809899327606
0.8	0.0016665428875813	-3.59465975345515E-06	4.53032415749859E-06	8.25624638205319E-07	2.74532123520461E-06	2.00089486826919E-06	0.998733711499998	-0.0244591540021133
0.9	0.00160919686900409	-0.000166983981898676	-1.52627657011224E-07	-4.22023227673223E-06	-3.420050436035E-06	-3.11034034264621E-06	0.998395802414637	-0.0268783130485788
1	0.00158572787675679	-0.000347018630098354	1.06191436081892E-06	4.29322451972465E-06	3.32868561042365E-06	9.32790259463731E-07	0.997966807824654	-0.0282593786392628
1.1	0.00140195629333391	-0.000764556684618902	9.04440107875706E-06	5.14862679653167E-07	-3.57881160210808E-06	-4.97939593328346E-07	0.997702665538586	-0.0302103593868012
1.2	0.000942235262257339	-0.00143763808738348	3.7598464289326E-06	-1.20099637363883E-06	-4.09705838920066E-06	-2.4358500936635E-06	0.99696786181824	-0.0312833130799605
1.3	0.000126579972051912	-0.00236577087215547	-7.62154271253816E-07	-1.42599626570344E-06	-2.59097197006154E-06	-8.70272841283631E-06	0.99696516643724	-0.0323308354841038
1.4	-0.000812856632495536	-0.00318177703439054	1.6656679092458E-08	3.4462688049589E-06	-4.2829485553914E-06	-4.12276782048783E-06	0.996651002557012	-0.03460477129759
1.5	-0.00128781448589647	-0.00342472798124213	-1.29488225546515E-06	4.42922864224444E-06	6.54581301584862E-06	-7.41548517340637E-06	0.997407859300676	-0.0379696673443923
1.6	-0.00147577904094893	-0.00329337961314674	1.62927849823875E-06	-4.89865128173931E-07	4.23944947899073E-06	-5.39598034570265E-06	0.997222436443936	-0.0415494651183743
1.7	-0.00141088794059346	-0.00307121582177887	5.33290723540199E-07	3.95786450687372E-06	-8.28479692578196E-06	3.13387009053295E-06	0.997583780531782	-0.0440603389313889
1.8	-0.00132993298340623	-0.00289458917939042	1.83340067508548E-06	1.07796561653948E-06	5.6489355822535E-07	-1.76262828066256E-06	0.997589796764249	-0.0466954047531019
1.9	-0.00131734742732352	-0.00286881138296068	3.23821889923746E-06	3.01800291516855E-06	-1.83789839718069E-07	-2.33113153258174E-06	0.99747067379286	-0.0487161037554716
2	-0.00135876670790913	-0.002903014446978	-1.72846950752316E-07	2.0058406490787E-07	-1.21709536111644E-05	5.42288503182534E-06	0.997480819103327	-0.0511707759321269
2.1	-0.00156302041628787	-0.00304205934385551	6.67704594692192E-07	-1.38370672293352E-06	1.38213209153781E-05	4.9599313183633E-06	0.997475806807657	-0.0538405751724998
2.2	-0.00186007148233692	-0.00306148123831162	1.64414741661223E-06	-1.51888580260965E-06	2.68304967234464E-06	-6.215841994659E-06	0.997327876696509	-0.0564281440100151
2.3	-0.00222465501768808	-0.003103847194454	-1.69104322609475E-06	-3.42712228886585E-06	-1.79524688747684E-06	-4.59241445960053E-06	0.996872849237618	-0.0583136524357133
2.4	-0.002668363732153	-0.00313034916558403	-1.20736163474544E-06	-4.40194383854599E-06	3.04853352213722E-06	1.08467600184964E-06	0.996710991796033	-0.0613295072587491
2.5	-0.00315359947098452	-0.00306112566682216	5.3904210515741E-06	5.66708607306919E-06	-2.59483836778605E-06	1.61584302248008E-05	0.996441012594324	-0.0633817142566263
2.6	-0.00364364922194683	-0.00294132693503477	-2.27545668327179E-06	2.71492254515156E-06	4.3039725980227E-07	-4.31382736969865E-06	0.996672695871452	-0.0662852610406419
2.7	-0.00398841233221204	-0.00264997128294013	-2.41080014168461E-06	-3.63662982221328E-06	2.15376002938446E-06	-2.57368146248662E-06	0.996416876251086	-0.0693703129521267
2.8	-0.00416380626286426	-0.00234256923387283	4.00616739532827E-06	2.30964732177563E-06	9.83618277787045E-06	-6.96329276351808E-07	0.996586549328463	-0.0715151980451051
2.9	-0.0041639228858794	-0.00207190482170387	1.28868856812428E-05	6.98326531911625E-07	2.43027190354395E-06	-1.17235184403575E-05	0.996182577300675	-0.0736441604613963
3	-0.00406109244274105	-0.00190677761666509	-3.85322154940979E-06	1.05081898810292E-06	-4.14793730663228E-06	-1.59457501908021E-06	0.995900392983208	-0.0760712406512496
3.1	-0.00400486747920104	-0.00183369093563516	4.77101560248735E-06	-9.84706232599201E-06	1.0684594000446E-05	2.40107299431161E-06	0.995505252864953	-0.0780766166297758
3.2	-0.00401592442268356	-0.00177923568827887	-5.3750918289786E-06	-7.40345275628996E-06	1.56379190497875E-05	5.37355092797226E-06	0.995082835361897	-0.0798906554493516
3.3	-0.00406832859448587	-0.00178978197519115	-8.78798965987006E-06	2.5504588424569E-06	-8.56414559462853E-06	-1.73401331551617E-06	0.994659762267296	-0.0831213709490658
3.4	-0.00426613758543828	-0.00180566017985645	9.05045319426838E-06	-7.56398533828854E-06	-7.33887901650101E-06	4.23767330119348E-06	0.994354529276829	-0.0849659330611375
3.5	-0.00449149250370626	-0.00182068930895867	3.15709598580323E-07	-5.31777449508922E-06	-4.39997594123898E-06	-8.92061439667336E-06	0.994213910288792	-0.0874152338044336
3.6	-0.00485304917426845	-0.00177288033013332	4.07066648363228E-06	4.89561664503811E-06	-7.10049448083895E-06	8.98871553338347E-06	0.99415418941064	-0.0901173435353524
3.7	-0.00518457910594293	-0.00155118892808812	1.52560929353138E-06	-4.52386346811775E-06	-5.10122576039296E-06	-6.58006304773796E-06	0.993807445621231	-0.0929873783567568
3.8	-0.0054231838384417	-0.00127681827305661	7.2718865852824E-06	-5.1933790713492E-06	-5.8754409180163E-06	-2.41502837137657E-06	0.993140659462707	-0.0949808370565276
3.9	-0.00553569620605512	-0.000960892242559126	-4.02610171302679E-06	-3.49688787488287E-07	-2.52836252743582E-06	1.13208016109649E-06	0.992761154696671	-0.0976823947450506
4	-0.00551492303004463	-0.0007173843674038	-3.38232388630595E-06	-8.23667170351021E-08	1.20305097372847E-06	8.66515030211977E-06	0.992886197668621	-0.0985173151595906
4.1	-0.00554367935596675	-0.000568611312928834	-2.89975577109823E-06	-3.85818316272276E-06	5.8767175660898E-06	3.03497241781326E-06	0.993074671289007	-0.10057546359258
4.2	-0.00558114357666155	-0.000409955027496886	-7.73319659284386E-07	-2.15536765158244E-06	5.6954664423727E-06	-1.84401154732631E-06	0.992490288037623	-0.103328221104641
4.3	-0.00561719643178916	-0.000284469110429252	-5.09815288355091E-07	3.23257039593704E-06	2.12826819856002E-06	1.77819222092554E-06	0.992270231855246	-0.105308676770365
4.4	-0.00579505228851015	-0.000192348494926437	2.57514459597263E-06	3.43886426068569E-06	7.17754323879591E-06	3.90748311591107E-06	0.991952679171458	-0.107562484608727
4.5	-0.00599408225784212	-5.33827113620108E-06	-6.46727042091027E-06	-2.27231302221236E-07	-8.57448009748418E-06	-2.1079822646521E-06	0.992108659814018	-0.109701406407381
4.6	-0.00640335082357662	0.000173879645309677	-9.9389730139748E-06	-9.21407577200427E-06	3.23199570416126E-06	-2.72923320160635E-06	0.992000488926537	-0.112795534782421
4.7	-0.0067104685230507	0.000613063884448081	1.26624144624746E-07	1.86366873376193E-06	6.05384664520598E-06	-6.73090832012164E-06	0.991940973287741	-0.115095929466349
4.8	-0.00687802413542395	0.00111932505639668	-6.38908385474575E-06	2.08062516484531E-06	7.7815169654981E-07	-1.27395603368776E-05	0.991517949782609	-0.117828256096108
4.9	-0.0068268978237195	0.00162335002567956	-3.41894629018139E-06	8.13973881593931E-06	5.68898285451295E-07	9.37034461253548E-06	0.990917584374716	-0.119780524703151
5	-0.00651946323991963	0.00198300424852854	9.63239324842063E-06	-4.06472326536229E-06	-6.92784298559446E-06	3.57929727063485E-06	0.990660005492791	-0.121202016696332
5.1	-0.00617549121247998	0.00215647784376255	-3.67817147477511E-07	-3.2488947329491E-06	-3.87160777077671E-06	-1.78908736086579E-06	0.990706802551077	-0.122619597463127
5.2	-0.00577772086183237	0.00224403992738918	-1.0679942122815E-06	-4.4821673128294E-06	8.78025495596095E-06	5.5685589704933E-06	0.990368862587737	-0.1248406672539
5.3	-0.0054380603670718	0.00218546892640242	2.28647237861509E-06	6.78526277869263E-06	8.78642935146474E-06	3.12730852233015E-06	0.990033262901942	-0.127049967890447
5.4	-0.00526893696145641	0.00209735103443399	2.70232662389764E-06	-3.138931436616E-06	-2.67153742822058E-06	1.54240879589172E-07	0.989915074018526	-0.129662420758833
5.5	-0.00523576033881367	0.00207746146887778	2.10463612541108E-06	9.30734153286566E-06	-3.91700746521337E-06	-5.02828065288846E-06	0.989953197461421	-0.132109234120218
5.6	-0.00542459059796522	0.00215056033510791	-5.85030820825959E-06	-1.13432427351255E-06	4.86783822680651E-06	1.943691950934E-06	0.990098178992713	-0.134887539967209
5.7	-0.0055936046996504	0.00248149035263973	3.33497846333418E-06	-1.42121714331781E-06	-5.04357127910219E-06	-4.29101781852099E-06	0.989738765016898	-0.137635728139908
5.8	-0.00564471874664848	0.00281502188621531	-2.05178616518685E-06	-4.74376338158873E-06	9.45981360171803E-07	-5.81544107757057E-07	0.989279983704976	-0.139866599328599
5.9	-0.00571741797186226	0.00315053201800339	-3.87670843492984E-06	6.17686224103705E-07	3.85921006332733E-06	1.2496930700596E-06	0.988634386212025	-0.141706124588396
6	-0.0057932295746355	0.00344058128895779	-5.93528172455313E-06	5.04244066265651E-06	-1.48413628943142E-06	1.95725880161943E-07	0.988679422385367	-0.142616531601339
6.1	-0.00604675389693465	0.00361951474076453	-5.92383545965156E-06	-4.69663376802092E-06	-4.00456670551644E-06	4.31172611315269E-07	0.988968155841433	-0.144097813839271
6.2	-0.00632715565379263	0.00395677797028034	2.81699935501316E-06	3.12518948616344E-06	1.05172045589196E-06	7.22961685380344E-07	0.988758829183776	-0.145516829533554
6.3	-0.00637754311014787	0.00431382476831106	1.64105094871239E-06	-7.46493829552651E-07	-1.3432415346606E-07	1.37474372801364E-06	0.988467571775767	-0.147488697531255
6.4	-0.00635620070321008	0.00456060102485618	-5.17726828260204E-06	-5.62315948323125E-06	3.80803503722516E-06	6.91035249850153E-06	0.988166823194404	-0.149584445341319
6.5	-0.00613738151594491	0.00472992628281873	9.0669678678452E-06	-2.42107955816149E-07	-7.32259005925486E-06	-9.02871257058699E-07	0.988401077203017	-0.152690254241856
6.6	-0.0060226089845221	0.00493628158490708	-1.4883955679165E-06	4.6486521889839E-07	3.38163818977676E-06	-9.37476112093522E-06	0.987909032852554	-0.155841772948484
6.7	-0.00572264746632197	0.00526472776739502	3.83439219311319E-08	7.75015396492905E-06	-4.86654654333364E-07	-6.08546928052244E-06	0.987437842589172	-0.158281112194806
6.8	-0.00542137256362481	0.00549257099464122	4.24566070354205E-06	1.66243762809907E-06	2.2123574645308E-07	-5.2353607122927E-06	0.986959281046179	-0.160641994804409
6.9	-0.00523224259640486	0.00574333452210043	-7.55935336945526E-07	2.47024335468058E-07	5.76429693346083E-06	-2.6742129866891E-06	0.986438505075309	-0.16265943393236
7	-0.00493739385292765	0.00606379028799115	8.02866997037652E-06	-4.74912481691648E-06	4.38280424008137E-07	-3.02041320549795E-06	0.986098162190894	-0.164173038246271
7.1	-0.00486115855439291	0.00629199299005758	3.8443385371534E-06	2.04872018067261E-06	7.642016893531E-07	7.23217195740001E-06	0.985876550898954	-0.166137349584376
7.2	-0.00467538003060912	0.00672120808555469	-2.45480183868968E-06	3.6897008538929E-06	-1.32763169186796E-06	-3.83090713874011E-06	0.985224624267536	-0.168143935929285
7.3	-0.00443075601254386	0.0070336448539814	3.44251029388002E-06	-4.89245538241788E-07	-2.44871423032712E-06	-1.92235196039684E-06	0.984032339248693	-0.170168654720949
7.4	-0.00432350742967298	0.00718874199748849	-6.18901440505473E-06	-2.70895299868035E-06	3.77241984571947E-06	2.52058569509259E-07	0.982545822462685	-0.172527464721323
7.5	-0.00423557538278925	0.00729596840300887	6.76957138337659E-06	-6.4267769282978E-06	-2.48100837957268E-06	7.96121450751891E-07	0.981358792285369	-0.174093271088777
7.6	-0.00432695697420242	0.00719469165519091	3.47589087919419E-06	5.21640312712984E-06	-1.02629021018463E-05	4.90924183398281E-06	0.981364089098906	-0.177104983693857
7.7	-0.00457507641368194	0.00729786629174891	6.01084819078144E-06	1.09635710494804E-05	3.57258462985989E-07	-1.13701567612926E-05	0.980883419229422	-0.180403157718857
7.8	-0.00456845462410165	0.00738844724448155	2.15642969610874E-06	9.89410834312783E-07	-3.127378754014E-06	8.82424626497563E-06	0.980503446147508	-0.183403922559572
7.9	-0.00443157241704598	0.00747537226537406	2.56046919235332E-06	-2.31082922250643E-06	3.69124708606249E-06	3.50897211506529E-07	0.980327288806661	-0.18603766189131
8	-0.00403051395733487	0.00753041280509498	-2.82089998881801E-06	1.32560317744348E-06	6.89370936814122E-06	-1.8470046457008E-06	0.981025409641312	-0.188695125956841
8.1	-0.00382981899147921	0.00760009712681819	-1.79528762830986E-06	7.5438469359008E-07	-3.7128653888353E-06	-1.26074853813806E-06	0.980676713918398	-0.192293719763628
8.2	-0.00351935744083789	0.00773420703409356	-8.01691931734181E-07	6.34097787771579E-06	4.8776514981281E-06	4.36430330994413E-06	0.980024935655807	-0.194958293397271
8.3	-0.00322840807875292	0.00780867650715941	-8.44017293569928E-07	-1.42285099518131E-05	6.82789893018432E-06	5.43794225360052E-06	0.979239881288457	-0.197811469723097
8.4	-0.00307683165396987	0.00796971719757242	3.76618363605838E-06	-3.42946397838458E-06	-6.97735980327647E-06	-1.22505027233038E-06	0.978399527819166	-0.200512704095781
8.5	-0.00282195201385526	0.00821393169033091	4.67801142673158E-06	5.88834759602839E-07	8.4251138979355E-06	-6.83525254401725E-06	0.977703579515084	-0.203456398745691
8.6	-0.00271594398458251	0.00846564275090822	-3.27239255098768E-06	4.11870878163868E-06	1.0058250934435E-06	1.11049610051676E-05	0.976900368791971	-0.20627389833417
8.7	-0.00234848768527185	0.0088788874283726	2.68602333055572E-06	-2.00065982874465E-06	4.79102015959392E-07	-5.54222587878541E-07	0.976360876115658	-0.208901659434959
8.8	-0.00175490466095693	0.00914509416979583	1.21943840754998E-07	-1.2543418199422E-06	-9.71419125525467E-07	9.77782570171998E-06	0.975801556115754	-0.211226706358033
8.9	-0.00107558948418776	0.00911903621169934	-3.66665378683667E-06	2.29680702960152E-06	4.83772946038956E-06	-1.80721068631368E-06	0.975699877255712	-0.213288103461623
9	-0.000367293925692556	0.00880916611787324	-1.89108180055478E-06	4.98456179114672E-07	-3.21490491001437E-06	-1.05412641637112E-05	0.975513993644401	-0.215699054390627
9.1	6.2185617268613E-05	0.00821819626190803	5.25359753204752E-06	5.89991459481055E-07	9.13270765848906E-07	3.81995322766597E-07	0.975108043976536	-0.217959552258361
9.2	0.000370114836833874	0.00770830983726586	-8.72759435528414E-06	-4.57974599070196E-06	-8.81806022095077E-07	-6.13097228073293E-06	0.974540084281419	-0.220616297948172
9.3	0.000539538909256129	0.00718195224686384	1.88522841163244E-07	6.21971354983132E-06	4.64182477691836E-06	-2.19553569713256E-06	0.973982571228537	-0.223303435968377
9.4	0.000516750613682583	0.0067022723492254	-1.92871343140632E-06	5.88814467492823E-06	-1.05088110396907E-05	7.74755550010082E-06	0.972948284994034	-0.226406159820459
9.5	0.00037267821704374	0.00647383205942142	3.19065429619138E-06	-7.56953135996189E-06	3.68591887285475E-06	-2.74150565095082E-06	0.972018248096147	-0.228913759972728
9.6	1.50732032522358E-05	0.00642656376629342	4.50214537094162E-06	5.58613454415242E-06	-6.45237150201764E-07	7.08055016669223E-06	0.971319485937479	-0.232170138002829
9.7	-0.000113038974963744	0.00664893758981997	-2.60829649500976E-06	-3.94501245485958E-06	3.69951658869162E-06	-7.53428847966976E-06	0.970308783457382	-0.234832069187876
9.8	-0.000155984611080896	0.00682812953175305	-5.25567973611116E-07	-4.22159745720919E-06	6.28610004222984E-06	8.90964765092727E-07	0.969714759752463	-0.236822264434035
9.9	-0.000196116181941377	0.00703607405373444	-2.69315518206809E-06	-5.96101459788814E-07	-8.51991580841358E-06	5.49526092147974E-06	0.96914265584041	-0.238199963747479
10	-0.000160126623823603	0.00723246155335493	4.30170530696159E-07	-1.75538046307877E-06	-3.08927221523179E-06	-7.98963413593343E-06	0.96975098917703	-0.239917199335494
10.1	-0.000264315237197719	0.00742836713466792	2.25057825974186E-06	4.77978449470283E-06	-3.10650939930724E-06	9.87005088196979E-06	0.968794309726827	-0.242623976836799
10.2	-0.000174809846434003	0.00776418840973987	-5.39086284896015E-07	-1.05060899499993E-06	-1.21267025537053E-06	-3.12234392569997E-06	0.967637296150392	-0.244052594592091
10.3	4.51289074591325E-05	0.00802321552831827	1.13288267876759E-05	-2.93953425769528E-06	1.007538374188E-05	-4.85621390447054E-06	0.966684348667247	-0.245577283915474
10.4	0.000292825839358617	0.00817974557777479	-6.29020284584363E-07	2.15317218893107E-06	3.03726182769855E-06	-2.19167129455123E-06	0.965924260419248	-0.247218781165661
10.5	0.000530374468312988	0.00829345975618325	-6.12119398878409E-06	4.66159026936874E-06	1.57983799938658E-06	4.31576187809246E-06	0.965642045201716	-0.249939344237636
10.6	0.000662468897371416	0.00848910504496611	-7.10692054175681E-06	1.07213386248199E-05	7.04925552998775E-06	4.27009232016962E-06	0.964883740350912	-0.252727679094171
10.7	0.000935769443030428	0.00885363990393255	-3.2203675285839E-06	1.57579059980673E-06	-5.37669349900866E-06	3.18642840658671E-06	0.964181017816846	-0.255681552012404
10.8	0.00142668537511432	0.00919883438522696	-1.92420446883072E-06	5.00802528092156E-06	8.47752826076551E-07	-3.21316985543785E-06	0.963436864407263	-0.258008246040269
10.9	0.00186486076559909	0.00948631877157701	-5.78851121524659E-06	-1.05428177059814E-05	4.96795867818947E-06	1.07238414204164E-05	0.962885066227716	-0.260166435597838
11	0.00255666242039594	0.00973462240988979	2.97813574031047E-06	2.61362123906941E-06	7.63752621548822E-07	-1.12604986724299E-05	0.962203960896737	-0.262316446026065
11.1	0.00315664170232459	0.00987388271588467	3.86715033656093E-06	1.45306986772668E-06	2.42336726440156E-07	-7.38663940947029E-06	0.960699110360247	-0.264273328963123
11.2	0.00401988548703551	0.00994243872534552	-4.42662547473071E-06	-1.96695240974838E-06	-7.34319013910814E-06	-4.84601831479222E-06	0.959134977039232	-0.265793722887048
11.3	0.0050060903849471	0.0096354807304677	6.52858477911659E-07	-6.38910758614248E-06	3.79744551463293E-06	1.41547894826799E-05	0.957848435498339	-0.267066944658843
11.4	0.00570986618962303	0.0090474283515939	-5.10824567873675E-06	8.15936844050011E-06	-1.45318217753462E-06	4.08328533493854E-06	0.956288558162925	-0.26871928255097
11.5	0.00623054558214167	0.00833746680572157	4.53288752009238E-06	8.09214528865576E-06	-9.29047387207981E-06	1.5901381832692E-06	0.955828748390643	-0.270275746210167
11.6	0.00644625194504742	0.00753402983637212	-3.84396083025092E-06	1.40560261859212E-06	5.09028381232007E-06	8.13932487725024E-06	0.955047685137786	-0.273962492634185
11.7	0.00662218422164827	0.00682063917213389	2.26276245305745E-06	1.05349365981303E-05	5.37014257321398E-07	-3.65290008486057E-06	0.953609494010057	-0.277246110039393
11.8	0.00671717207415399	0.00609967251887578	1.43573081441877E-06	4.46248246715602E-06	2.257415594058E-06	4.5354548961774E-06	0.952511008476049	-0.28008149153658
11.9	0.0067229206559974	0.0053880102729658	7.45835700639376E-06	1.05627412421113E-05	3.88415199333972E-06	4.0106531804477E-07	0.95278898777881	-0.28159933188427
12	0.00650046818688771	0.00480136120200965	2.35050387078489E-06	-5.1627643721046E-06	-4.02784432093919E-07	1.75326725800195E-06	0.954311047662061	-0.284639247597037
