# GHZ S RI R 50
0.2	0.000975291078177707	0.00278934917056582	4.78859133995403E-06	-2.98652406819398E-06	-1.3709102772926E-05	1.31212498932047E-05	0.998898476959798	-0.0074007024295308
0.3	0.00133534736999518	0.00187062342879279	2.867174896421E-06	6.62042010018442E-06	-1.66710120184196E-06	-9.31371428142071E-06	0.998647127083235	-0.0102868269359947
0.4	0.00157897975532705	0.00125664068579057	-1.86287861297311E-06	-4.0120034409847E-06	-9.00664021624049E-06	4.40419822779763E-06	0.998452756230427	-0.0129539357139662
0.5	0.00137958294538144	0.000857654363289469	-5.35401990633996E-06	3.26134273942806E-06	-2.12390558101339E-06	6.75233884421487E-06	0.998012098347721	-0.015683445048122
0.6	0.00163260664662588	0.000884458528030948	-1.38859919057866E-07	2.80432708908102E-06	-5.81192004500145E-07	-1.33884832225448E-07	0.998587209286387	-0.0185454122853729
0.7	0.00184591478793997	0.000570342744776891	8.87319134316789E-08	2.21753754505103E-06	4.89875260873426E-06	-3.40116032485536E-06	0.99826423998534	-0.0218788100709698
0.8	0.00198929478685276	0.000246467876966961	4.52488572168633E-06	8.23484598548027E-07	2.74239393139433E-06	1.99772953619664E-06	0.997816287625691	-0.0242702092271451
0.9	0.00207648716158463	-0.000163690737372661	-1.53175050377215E-07	-4.21376774741361E-06	-3.41540947506462E-06	-3.10496449207733E-06	0.997403718342127	-0.0268643672958342
1	0.00171243423839113	-0.000802888162820505	1.0592760037379E-06	4.28582112725894E-06	3.32263437546524E-06	9.31730579445241E-07	0.99644378268974	-0.0284123416256309
1.1	0.0012100091551316	-0.000693062069965298	9.03096717168839E-06	5.17575726065973E-07	-3.57338312513537E-06	-4.98582546705774E-07	0.996117038275784	-0.0296943153608491
1.2	0.00108270495010735	-0.0010856942923296	3.75550728017858E-06	-1.19806395635577E-06	-4.09093257444919E-06	-2.43427760596771E-06	0.995848519880379	-0.0305081511132393
1.3	0.00057966532323281	-0.0019330186409401	-7.6065670394662E-07	-1.42489413048974E-06	-2.58397060314556E-06	-8.69498116242972E-06	0.996341719721414	-0.031344193468306
1.4	-0.000174700369527798	-0.00290305180933453	1.43876167874836E-08	3.44350611692296E-06	-4.27680315731296E-06	-4.12225305913677E-06	0.996417809152942	-0.0335748656027138
1.5	-0.000988151733191932	-0.00319767267153509	-1.29663346487765E-06	4.42480545842535E-06	6.54518341977905E-06	-7.40530769093779E-06	0.996784116698692	-0.0369537818938398
1.6	-0.000960107996548631	-0.00299689161137462	1.62777548959288E-06	-4.88322993718131E-07	4.23806775073335E-06	-5.38740529493332E-06	0.996532974441043	-0.040382441309211
1.7	-0.000954146664121883	-0.00308733031092559	5.29880005985818E-07	3.95276977878495E-06	-8.27549633645763E-06	3.12394974055105E-06	0.996627372439746	-0.0430869059041519
1.8	-0.0010444668398352	-0.00307095824835502	1.82982979037677E-06	1.07757066520195E-06	5.65240592236354E-07	-1.75952096955661E-06	0.996348145785446	-0.0458622505633887
1.9	-0.0012204771841115	-0.0032177267544784	3.23122131708324E-06	3.01431753124201E-06	-1.82380282186003E-07	-2.32719863845262E-06	0.995873855546914	-0.048305532775838
2	-0.00181427566566168	-0.00312923663551482	-1.72476696705481E-07	1.99960966234073E-07	-1.21407329512284E-05	5.40246368542416E-06	0.994317799322759	-0.0506317811878133
2.1	-0.00180665746355487	-0.00273069141593019	6.68001014024997E-07	-1.3789165766429E-06	1.37760873761178E-05	4.96754908330808E-06	0.994486383318426	-0.051662722693058
2.2	-0.00181383756801929	-0.00278873018622014	1.64296971654826E-06	-1.51239278242998E-06	2.68775651494671E-06	-6.19644552866712E-06	0.995020125725435	-0.0539989632838163
2.3	-0.00203316339688951	-0.00294908055513814	-1.68084213187411E-06	-3.42269545437223E-06	-1.78262232833659E-06	-4.58559677141068E-06	0.994895605604722	-0.0558671429101298
2.4	-0.00237901797255834	-0.00322160783473022	-1.19550867849691E-06	-4.39477808105483E-06	3.03955828682304E-06	1.08865725537229E-06	0.994926228938535	-0.0589316796674543
2.5	-0.00329475640842107	-0.00340950812930657	5.36600303846298E-06	5.66966066457028E-06	-2.63009202335879E-06	1.61210580219182E-05	0.994540213758261	-0.0609408134418039
2.6	-0.00390912566463482	-0.00281700315826558	-2.27813669923327E-06	2.70525340248334E-06	4.39770923664997E-07	-4.3058952398963E-06	0.994872448034219	-0.0635590565045616
2.7	-0.0040600626378388	-0.00238987386023114	-2.39834550270583E-06	-3.63610935194192E-06	2.15610260124189E-06	-2.56438403528717E-06	0.994699967164876	-0.0664923100955088
2.8	-0.00406403633188215	-0.00208188660770345	3.99369254601739E-06	2.31553615279704E-06	9.82115729261343E-06	-6.71039820660031E-07	0.995011384039492	-0.0684592806105028
2.9	-0.0039784268068923	-0.00198963829481428	1.2864480574527E-05	7.31675497321235E-07	2.45774963528136E-06	-1.16983358388926E-05	0.994832904742899	-0.0705409619650006
3	-0.00417862666404969	-0.00182638062053175	-3.85168218157492E-06	1.03917851149022E-06	-4.13889216356409E-06	-1.60400207149097E-06	0.994676939813849	-0.0729888458098975
3.1	-0.00387594974420761	-0.00150791485299549	4.79055490175646E-06	-9.82382320124964E-06	1.06664094649298E-05	2.42541825985869E-06	0.994477929840952	-0.0748446680949073
3.2	-0.00372080038167887	-0.00161321892081349	-5.34940213888676E-06	-7.41049231026394E-06	1.56072189001527E-05	5.41063424316894E-06	0.994359196836704	-0.0765938374946524
3.3	-0.00372801668873322	-0.00180107988505913	-8.7889969803759E-06	2.52253414674395E-06	-8.55263148660273E-06	-1.7580838500122E-06	0.994329077241285	-0.0797549148099268
3.4	-0.00397585890275298	-0.00208299630736987	9.07257822815898E-06	-7.53397363907243E-06	-7.35083799556063E-06	4.21370200364283E-06	0.994589931566479	-0.0817258837375666
3.5	-0.0046875451240686	-0.00213201161085828	3.29563691635307E-07	-5.31894756807196E-06	-4.37857897659808E-06	-8.93531555315762E-06	0.99445724688659	-0.0848570895399719
3.6	-0.00493325985070223	-0.00167638511616364	4.05841735119071E-06	4.90530753640767E-06	-7.12211499851452E-06	8.97076556823501E-06	0.994057609645685	-0.0871748121498682
3.7	-0.00507282796323719	-0.00151596874856381	1.53808719315556E-06	-4.51980928723703E-06	-5.08329984869091E-06	-6.59428181343243E-06	0.994096864072704	-0.0897707531022904
3.8	-0.00525239980295551	-0.00136736618498992	7.28877207253707E-06	-5.17444793998931E-06	-5.87042589902577E-06	-2.43235025593081E-06	0.993870382101531	-0.0918578104718716
3.9	-0.00542434636459443	-0.0012758325976927	-4.02715013851171E-06	-3.60185133190609E-07	-2.53248813846028E-06	1.12614166593584E-06	0.993673007213489	-0.0951505470007219
4	-0.00591558735978272	-0.000970319034474835	-3.38161421723963E-06	-9.13644534602062E-08	1.17979477257593E-06	8.667098927859E-06	0.992635046385948	-0.095921995841168
4.1	-0.00574842564635241	-0.000311729272196045	-2.88715921161265E-06	-3.86989962417566E-06	5.86814812759244E-06	3.05693515971033E-06	0.993503772862733	-0.0966571764471262
4.2	-0.00547597617812309	-0.000180133107276146	-7.66541616188687E-07	-2.16036352682931E-06	5.7079651851786E-06	-1.82589065326374E-06	0.9938770583306	-0.099489657187296
4.3	-0.00533221087496779	-0.000219719382561751	-5.21518635999881E-07	3.23540470611164E-06	2.12523301090377E-06	1.78793530216333E-06	0.994196304015746	-0.101778381295218
4.4	-0.00546674806790252	-0.000478710564451411	2.56722715379353E-06	3.45322866963354E-06	7.17522883022435E-06	3.9385970314791E-06	0.994109917618374	-0.104337888162006
4.5	-0.00621744794892738	-0.000451169121608671	-6.48112083285034E-06	-2.53276123836292E-07	-8.58571215033672E-06	-2.14663303025482E-06	0.994432120266199	-0.106299111580394
4.6	-0.00660234557690474	0.000160167682862711	-9.93858432921191E-06	-9.27575084785669E-06	3.25108816034006E-06	-2.7267706681659E-06	0.995001514610925	-0.109593742577913
4.7	-0.00676411680749719	0.000597366976779029	1.21533521508798E-07	1.86997655838611E-06	6.09296593465687E-06	-6.73449591637689E-06	0.995148864657455	-0.112245317574186
4.8	-0.00687453261117338	0.00105642864471895	-6.41555120115737E-06	2.06971690989273E-06	8.15878539044476E-07	-1.27787206714147E-05	0.994852748549306	-0.115167741206592
4.9	-0.00682585240303574	0.00138573225849618	-3.45321351582598E-06	8.15783563407085E-06	5.44734677976577E-07	9.40372185841416E-06	0.994468855104761	-0.117283185545163
5	-0.00695721265858903	0.00184081142892246	9.68179059527159E-06	-4.05647789370736E-06	-6.96505202993288E-06	3.57602089696843E-06	0.994401742712299	-0.118970355398838
5.1	-0.00631175309394488	0.00240965204764958	-3.63080160961884E-07	-3.26270566295495E-06	-3.88380090335453E-06	-1.80371804646374E-06	0.994625542235859	-0.12059373407003
5.2	-0.00569102533520223	0.00235220390920814	-1.06428860128691E-06	-4.50195935274308E-06	8.80540576560007E-06	5.60640009914105E-06	0.994515715518102	-0.12306836833239
5.3	-0.00531351356150477	0.00212286658725946	2.28414292543993E-06	6.81750797850045E-06	8.81755230531885E-06	3.15567441540205E-06	0.994445277703163	-0.125551598617701
5.4	-0.00526003531465861	0.00176462178750088	2.72036206551562E-06	-3.14907006092425E-06	-2.68434563534834E-06	1.5041581741122E-07	0.994746742932865	-0.12863760943209
5.5	-0.00585363821852792	0.00196207005942712	2.10976089236002E-06	9.35834123242355E-06	-3.93459732853887E-06	-5.05765395071172E-06	0.99455970179024	-0.13205588449626
5.6	-0.00561725571986853	0.00256438358729843	-5.87755435744775E-06	-1.13990189084567E-06	4.89046023898314E-06	1.95299887309406E-06	0.994331340613938	-0.134737631389843
5.7	-0.00548259669024149	0.00271882224776639	3.35020311031927E-06	-1.42786621454601E-06	-5.06685904619719E-06	-4.31047555789366E-06	0.994237474751786	-0.13768489545465
5.8	-0.0054449700894463	0.00288040147865368	-2.06339711141724E-06	-4.76497130065878E-06	9.50135919822766E-07	-5.84662478005636E-07	0.993975752134433	-0.140499221639949
5.9	-0.00548472067799679	0.00291075627696888	-3.89298129752667E-06	6.25136885628717E-07	3.87768812646156E-06	1.25046590673153E-06	0.993084388434746	-0.143502070347143
6	-0.00626118501871756	0.00305973814190885	-5.94888383441392E-06	5.06492774056976E-06	-1.48867689877303E-06	1.97939830395343E-07	0.991209331799985	-0.144461312696349
6.1	-0.00640247644535767	0.00402008980898494	-5.94871354176224E-06	-4.71146226667289E-06	-4.01955453023849E-06	4.34842084568455E-07	0.992075269512109	-0.144744868363461
6.2	-0.00620045385612539	0.00439481927973541	2.8317977820186E-06	3.13506299503393E-06	1.05678324444512E-06	7.24829166647064E-07	0.992441804387201	-0.146652433204996
6.3	-0.00598285207226949	0.00450243734977096	1.64637341174445E-06	-7.51886418787967E-07	-1.32788994523432E-07	1.38034219185717E-06	0.992116826109378	-0.149227359771552
6.4	-0.00605136780727872	0.00431600278829071	-5.20364868867888E-06	-5.63426559734701E-06	3.83175237297905E-06	6.92797260431933E-06	0.991198221381607	-0.151672523180349
6.5	-0.00646639051604189	0.00475266543055333	9.10072445003251E-06	-2.4931048247957E-07	-7.35061506968447E-06	-9.01164156930501E-07	0.991216434429958	-0.153646502104398
6.6	-0.00587309097895304	0.00528956423654127	-1.49441653102972E-06	4.69237139938838E-07	3.38263098086239E-06	-9.42230750817761E-06	0.991894678608047	-0.157255154066039
6.7	-0.00541684458374217	0.00538145932779273	5.55673776313383E-08	7.78277291699411E-06	-5.02105111796958E-07	-6.11007681585853E-06	0.991308758799883	-0.160491920735783
6.8	-0.00507802896670253	0.00541173524912223	4.26629134761793E-06	1.65804443937811E-06	2.08756007336822E-07	-5.25614287364291E-06	0.990577591303051	-0.163350007863761
6.9	-0.00501932732859642	0.00525002781610893	-7.57948218490882E-07	2.49968230281036E-07	5.77748576806016E-06	-2.69947228293657E-06	0.989686229669617	-0.166006831896633
7	-0.0055912115870785	0.00578533085537368	8.04304396854865E-06	-4.78874928151731E-06	4.31136166540444E-07	-3.03220980593388E-06	0.9882983179325	-0.167576587753697
7.1	-0.00504943622617832	0.00669121350218007	3.86383106849043E-06	2.04319596193585E-06	7.90077350193491E-07	7.25395456887005E-06	0.988224352842966	-0.169069667523015
7.2	-0.00448865104968223	0.00694341046280589	-2.44991468210547E-06	3.70981392095965E-06	-1.34498523752922E-06	-3.83848591917281E-06	0.987795215001692	-0.171291013442423
7.3	-0.00408377749211667	0.00700892514108454	3.45165170536573E-06	-5.03011238898342E-07	-2.46327566216006E-06	-1.9197343527753E-06	0.986880420520429	-0.173599311731448
7.4	-0.00391583233149196	0.00664869260089018	-6.22230044573886E-06	-2.69481766582903E-06	3.78726294949305E-06	2.38301346910772E-07	0.98613505490293	-0.176925026245648
7.5	-0.00479291429430598	0.00638693752036653	6.7568022348102E-06	-6.48823822438151E-06	-2.48524292263419E-06	8.13124851329814E-07	0.983688997984249	-0.180835727808755
7.6	-0.00506679870308261	0.00709703396181659	3.51355295512434E-06	5.20617764912742E-06	-1.0254175887928E-05	4.97953053908214E-06	0.9819034395886	-0.183082119686739
7.7	-0.00522178463177843	0.00738013350398136	6.08405555730154E-06	1.09457586499767E-05	2.91655104267375E-07	-1.13900367807889E-05	0.981112691515092	-0.186140732403584
7.8	-0.00512223133461482	0.00761578898699992	2.16511285260761E-06	9.77593874112446E-07	-3.0778719087117E-06	8.85420124680836E-06	0.980398947248946	-0.189275468793544
7.9	-0.00500257885851651	0.00765122106888381	2.54684883250032E-06	-2.32957254000748E-06	3.69620941109678E-06	3.26488217698323E-07	0.979420165259699	-0.192544871004929
8	-0.00501134726088477	0.00837864118808769	-2.80878696172352E-06	1.34236420797907E-06	6.87318646076935E-06	-1.88967829153506E-06	0.977555970175728	-0.194124888920788
8.1	-0.00387553188475798	0.00882590314316258	-1.7892888052776E-06	7.62618993164442E-07	-3.71482220459601E-06	-1.24032860050575E-06	0.978274102040186	-0.195729149509499
8.2	-0.00306244283868165	0.00866464815453781	-7.69771018798166E-07	6.33906971104552E-06	4.89461230193426E-06	4.33629118784847E-06	0.978409245424505	-0.198435925551108
8.3	-0.00244841128180536	0.00838420492974287	-9.12663351797235E-07	-1.42091854139039E-05	6.84718545082201E-06	5.39875923909058E-06	0.977828892063227	-0.201501243193252
8.4	-0.00220954498332924	0.00789548529881981	3.74532232760099E-06	-3.44154098775007E-06	-6.97289490152798E-06	-1.19182459266881E-06	0.976839818580153	-0.204367025839862
8.5	-0.00275073226723785	0.00804508493018326	4.67632200169429E-06	5.6999717458962E-07	8.39112559052268E-06	-6.86243239547651E-06	0.976041090730894	-0.20696204973759
8.6	-0.002254571422048	0.00875134106620763	-3.25073140967487E-06	4.13061552851881E-06	1.05646984729477E-06	1.10915361971295E-05	0.975512482171015	-0.209988850118582
8.7	-0.00159646819199159	0.00884835999497739	2.67278628967431E-06	-2.01072356072224E-06	4.7579936929019E-07	-5.55746312453046E-07	0.97470350308606	-0.212883481819106
8.8	-0.000944823872091466	0.00875673328162784	1.15912818972442E-07	-1.25248338976414E-06	-9.24365952983517E-07	9.76343520568292E-06	0.973762453032782	-0.215298284670571
8.9	-0.000395928040426568	0.00819417172111736	-3.64850079494898E-06	2.30653595728753E-06	4.81883387782721E-06	-1.82293596318126E-06	0.973257396037996	-0.217408658855004
9	-0.000585099428302212	0.00778859819187096	-1.88542863250317E-06	5.04915346382052E-07	-3.25005710906858E-06	-1.05080369836713E-05	0.972509252487257	-0.219884848756235
9.1	-0.00015913872256495	0.00769575571134376	5.24345705174507E-06	5.65692993895435E-07	9.12724466937526E-07	3.77095369457648E-07	0.97147810374564	-0.221883198101693
9.2	0.000112339972341822	0.00723218204857314	-8.72155242514273E-06	-4.53117572569961E-06	-9.04315001085054E-07	-6.11000913130767E-06	0.970525224072666	-0.224091502502122
9.3	0.000225120146733463	0.00681022906917275	2.11251628150797E-07	6.20115452231284E-06	4.6202862046322E-06	-2.20659996098294E-06	0.969949243045973	-0.22629935460278
9.4	8.41896604991637E-05	0.0062308319033891	-1.90306412439703E-06	5.88052704170075E-06	-1.04554773067076E-05	7.76583973088512E-06	0.96925500249969	-0.229372738922087
9.5	-0.000568150949475964	0.0064967793895101	3.1481044802326E-06	-7.56644792919864E-06	3.66454222276217E-06	-2.75209764444171E-06	0.967660466872891	-0.232402475328026
9.6	-0.000296093854041387	0.00690223184828649	4.51179082800923E-06	5.54561798757839E-06	-6.10441150192841E-07	7.05835248191625E-06	0.966509121599997	-0.234786690148626
9.7	-0.000146285397658081	0.00691916790583087	-2.61453273810832E-06	-3.91881632578641E-06	3.65380935735588E-06	-7.52032652159432E-06	0.965662347264264	-0.237115819780607
9.8	-0.000126260384349232	0.00692355755902484	-5.40691376693962E-07	-4.20232925947035E-06	6.26424929639072E-06	8.61658663749717E-07	0.965089608588655	-0.239209326299268
9.9	-0.000262797948727719	0.00684843399351802	-2.68330396291947E-06	-5.81255578723716E-07	-8.45566043346399E-06	5.50790330904859E-06	0.963772169485837	-0.241205390554246
10	-0.000971253068701341	0.00738522056141422	4.21217846745084E-07	-1.7458154953409E-06	-3.09812580392646E-06	-7.92817371456897E-06	0.962102014119855	-0.241272106690932
10.1	-0.000500073082482922	0.00835941286884873	2.24822350667937E-06	4.74692118556832E-06	-3.06626261083902E-06	9.81960947666399E-06	0.962559395356124	-0.241902592601091
10.2	0.000228288607203061	0.00860838697510968	-5.38181732234002E-07	-1.04349867636433E-06	-1.2122046300821E-06	-3.10201766885792E-06	0.962313011267548	-0.24325523497486
10.3	0.000868083733903618	0.00847062406111608	1.12551716451972E-05	-2.94113117152161E-06	1.0006038349518E-05	-4.84405444138886E-06	0.961621110261459	-0.244818020667895
10.4	0.00110948726283858	0.00791581915006135	-6.23116250900153E-07	2.13945993353754E-06	3.01541843508599E-06	-2.17966083034608E-06	0.960568871113503	-0.246310928013246
10.5	0.000564134076720927	0.00804093679835942	-6.08814345241328E-06	4.62957133112581E-06	1.56739931224648E-06	4.29125071701817E-06	0.96035854120268	-0.247794599427482
10.6	0.000878599203698116	0.00856697304622062	-7.0752095115015E-06	1.06598110016331E-05	7.00903804026046E-06	4.25139640090382E-06	0.960208151738884	-0.250434536955378
10.7	0.00128948566156147	0.00887552131449421	-3.20419116796619E-06	1.56464468656702E-06	-5.3501352099485E-06	3.16480892628173E-06	0.95956007473805	-0.253030838312784
10.8	0.00185719626062108	0.00906662818343706	-1.91956722981311E-06	4.97782277338287E-06	8.46930250156157E-07	-3.19426073382966E-06	0.958948773127427	-0.255001344945599
10.9	0.00221120656615804	0.00896369716926892	-5.73667964643585E-06	-1.04949817964445E-05	4.92035237835913E-06	1.0673469951675E-05	0.958484425045914	-0.25689231258171
11	0.00216448564857564	0.00944322797889195	2.95800732144273E-06	2.60737364300744E-06	7.84428877044356E-07	-1.12041397511988E-05	0.957733298683227	-0.258527518900833
11.1	0.00322598886217862	0.0100243900703172	3.8455634830733E-06	1.45365362040587E-06	2.55716847133171E-07	-7.3503973436071E-06	0.956854030293267	-0.259923274543429
11.2	0.0043356004421022	0.00986691888565864	-4.40068465906047E-06	-1.96741653831979E-06	-7.2965765195808E-06	-4.83910227648167E-06	0.955922156100932	-0.261306012359016
11.3	0.00535807342893039	0.00923920944663404	6.6680103888276E-07	-6.35847227156988E-06	3.74282966063552E-06	1.41007860268938E-05	0.955493051070987	-0.262742664417956
11.4	0.00588956140830163	0.00822131008265522	-5.11213546841294E-06	8.11495056636434E-06	-1.45920673950564E-06	4.06413575424854E-06	0.954786585004629	-0.265171387757489
11.5	0.00563753553676609	0.00775878453112438	4.50326808548629E-06	8.06989387582412E-06	-9.25909563387934E-06	1.56933685377034E-06	0.953122048082589	-0.267771427613509
11.6	0.00620592632188734	0.00740994782215378	-3.82921888563464E-06	1.39108126149134E-06	5.04980874906375E-06	8.11253909381883E-06	0.951978104629187	-0.270263020949749
11.7	0.00653375137040672	0.0065090988531386	2.22405173928096E-06	1.04939656592234E-05	5.44526662525272E-07	-3.63510693176702E-06	0.951109546976157	-0.273312601376075
11.8	0.00655038609390592	0.00556440619310278	1.4168336971886E-06	4.4478834774406E-06	2.23485758885184E-06	4.52291890617814E-06	0.950241652594228	-0.27653418146611
11.9	0.00615838228443603	0.00453112784410906	7.39852031108692E-06	1.05343142368325E-05	3.8658015305867E-06	4.09031946133839E-07	0.949509209194399	-0.278945241766072
12	0.00494109866541001	0.00459950422385022	2.35564196763435E-06	-5.12358605308888E-06	-4.0686655658428E-07	1.74142000801487E-06	0.948466148603218	-0.279670258465914
