# GHZ S RI R 50
0.2	0.000528319008890607	0.00168560329030413	4.80531414995612E-06	-2.98292399555843E-06	-1.37666202370461E-05	1.31208934443604E-05	1.00083754707787	-0.00625451533546588
0.3	0.00103616149323144	0.00119744039544444	2.86292161884008E-06	6.64199028477652E-06	-1.65517948342649E-06	-9.33996752909112E-06	1.00106634102311	-0.00911217715335676
0.4	0.00137734956872364	0.00110967106542807	-1.86398319924969E-06	-4.02746003995107E-06	-9.04161572986459E-06	4.40740545350642E-06	1.00168024269188	-0.0118026046124211
0.5	0.00228601010854595	0.000530912755956581	-5.36943143304891E-06	3.27184984711041E-06	-2.12918687687238E-06	6.77272648583636E-06	1.00176083100691	-0.01611292495901
0.6	0.00179087616867347	-0.000555880550694624	-1.41317914707378E-07	2.8103843920695E-06	-5.82366683806737E-07	-1.34625271006221E-07	1.00065962447125	-0.0188082928356538
0.7	0.00126271195756189	-0.00058049857259208	8.61812511644164E-08	2.22431658020038E-06	4.91780031524675E-06	-3.40516088061358E-06	1.00052538839007	-0.0210713924059833
0.8	0.00100594830350257	-0.000551312573809034	4.54088412001558E-06	8.32360710772456E-07	2.75017793760931E-06	2.00875572844362E-06	1.0006596809896	-0.0229409836227099
0.9	0.000598408284836796	-0.000234024458958892	-1.48966667870307E-07	-4.23357925054511E-06	-3.42769551514935E-06	-3.12342048742776E-06	1.00100238224939	-0.0249372148798339
1	0.00133897635002833	0.000549879282619963	1.0647208763028E-06	4.30973976943583E-06	3.34099764946466E-06	9.37247885066156E-07	1.00224586421963	-0.0266281581094459
1.1	0.00179331561587472	-0.000735461012893258	9.07633404745679E-06	5.15062232113233E-07	-3.59149974519388E-06	-4.99054338090385E-07	1.00191523839446	-0.0303120001288593
1.2	0.00104865022529148	-0.00167100038439761	3.7728051248407E-06	-1.20645085795361E-06	-4.11236783327868E-06	-2.4431920654895E-06	1.00053255981647	-0.0318559863691137
1.3	4.82810115386693E-05	-0.00274662311361548	-7.65638025219713E-07	-1.4303646574438E-06	-2.60523108363782E-06	-8.73067958155157E-06	0.999770619484488	-0.033216868830191
1.4	-0.00110788447451901	-0.0034690303451749	1.95228834274725E-08	3.45659029163416E-06	-4.29916187234138E-06	-4.13163171035899E-06	0.998610342646704	-0.035207384627466
1.5	-0.00105896697777243	-0.00401229173151791	-1.29529876618577E-06	4.44296436488701E-06	6.55912877250424E-06	-7.44175904475431E-06	0.999505360535927	-0.0384819317878012
1.6	-0.00197495349369107	-0.00431595846053376	1.6337862957438E-06	-4.92824755711329E-07	4.24745725339091E-06	-5.41620306921073E-06	0.998790498495144	-0.0419105955500281
1.7	-0.00213064307914347	-0.00369093286876441	5.39346706968879E-07	3.96978493784191E-06	-8.3075214783205E-06	3.15292351738527E-06	0.999512732285524	-0.0439834146353575
1.8	-0.00202834441126213	-0.00321037992897711	1.84053383383975E-06	1.07923153634049E-06	5.64605295315765E-07	-1.76892655471561E-06	0.999899489667468	-0.0464856384302953
1.9	-0.00178652500640428	-0.00269968690901523	3.25157145930635E-06	3.02572862761502E-06	-1.86232015621688E-07	-2.33890617293697E-06	1.00041119182672	-0.0479164096278193
2	-0.000709450030079953	-0.002929150986719	-1.73538715114655E-07	2.01783504099698E-07	-1.22281730477512E-05	5.46264489019053E-06	1.00296440827469	-0.051240963770187
2.1	-0.0012834310143082	-0.00408363827235431	6.6707782128001E-07	-1.39248968854003E-06	1.39041753536834E-05	4.94517225165579E-06	1.0018742212573	-0.0565095256228873
2.2	-0.00210784875966778	-0.00411611486452526	1.64636822916086E-06	-1.53083482595045E-06	2.67453566438342E-06	-6.25160268623881E-06	1.00060009836165	-0.0590755362608404
2.3	-0.00284775117260976	-0.00397944864989571	-1.71002889456576E-06	-3.43538164556001E-06	-1.818740711124E-06	-4.60512935399521E-06	0.999837942940039	-0.0608090857575371
2.4	-0.00358976997914899	-0.00341681079331141	-1.22965432104406E-06	-4.41487916012104E-06	3.06509895282899E-06	1.07696829267894E-06	0.999662469787983	-0.0638489525472782
2.5	-0.00317387240336995	-0.0026783301370661	5.43395888596757E-06	5.66108868587692E-06	-2.5296390358273E-06	1.62232813897743E-05	0.999494215727202	-0.06643376503526
2.6	-0.00328910392323974	-0.00335380838944637	-2.27078901713644E-06	2.73205280565578E-06	4.13871757983945E-07	-4.32793564476712E-06	0.999133446496965	-0.0697991213668442
2.7	-0.00385371152953923	-0.00332859684094456	-2.43361940047839E-06	-3.63766913156198E-06	2.14953119192777E-06	-2.5907348728924E-06	0.998538277860119	-0.0731160507820162
2.8	-0.00426864005798216	-0.00304866793009558	4.02954308671556E-06	2.29822652078373E-06	9.86387728631119E-06	-7.44399861784846E-07	0.998343008062422	-0.0755127983031735
2.9	-0.00430422537086776	-0.00244649338039595	1.29285437594838E-05	6.33327281923177E-07	2.37643678692035E-06	-1.17707564329323E-05	0.99768380811319	-0.0777712485488899
3	-0.00342926284859346	-0.00244773258850752	-3.85681583036971E-06	1.07360274315778E-06	-4.16616262704641E-06	-1.57650631388352E-06	0.997287077012463	-0.0805385442766594
3.1	-0.00377164810453049	-0.0031126248656218	4.73199856944451E-06	-9.89865919209817E-06	1.07259649292711E-05	2.3512739125066E-06	0.996432145142736	-0.0828940736110171
3.2	-0.0041520679317537	-0.0030334459093835	-5.432408183515E-06	-7.39101117563197E-06	1.57098030021986E-05	5.29564388193576E-06	0.995600002933727	-0.0848245770344775
3.3	-0.00446058579691709	-0.00291672726552543	-8.79035462284259E-06	2.61228415460406E-06	-8.59352538552782E-06	-1.68275606927968E-06	0.994683965094996	-0.0882159851106011
3.4	-0.00475467252898371	-0.00248706871403372	9.00953252742115E-06	-7.63497947405997E-06	-7.31867067132757E-06	4.29297048596436E-06	0.993609450268288	-0.0900243918971769
3.5	-0.00416282143239941	-0.00249315571429553	2.84181557766451E-07	-5.32124285006192E-06	-4.45433934034419E-06	-8.89711851303162E-06	0.99327153870503	-0.0917222694033243
3.6	-0.00488038618695453	-0.00322035140980366	4.10309450808611E-06	4.87563330196192E-06	-7.05324051076203E-06	9.03834882624554E-06	0.993231759948173	-0.0947345190986881
3.7	-0.00573342489170678	-0.00285449693227961	1.49757225057405E-06	-4.53581275515475E-06	-5.14563010609795E-06	-6.55085352205904E-06	0.992450486387047	-0.097533051740156
3.8	-0.00622797273563658	-0.00218637131006639	7.23821053904424E-06	-5.23962976993554E-06	-5.89055715875529E-06	-2.37727097753217E-06	0.991613307502707	-0.0992315618856412
3.9	-0.00621743899223189	-0.00118613281451405	-4.02688289010262E-06	-3.2590207990923E-07	-2.52090438025886E-06	1.14658991491934E-06	0.991703610298682	-0.101354469434495
4	-0.00502031874844724	-0.000927354419015228	-3.38550542290489E-06	-6.14721256689134E-08	1.25769740242811E-06	8.6645383522675E-06	0.993806866836395	-0.103714952579169
4.1	-0.00520626732651202	-0.00174068272322556	-2.92832101387427E-06	-3.83562416716752E-06	5.89853890953497E-06	2.99011730872991E-06	0.991839966494823	-0.108081253046614
4.2	-0.0056784649014409	-0.00165037231761924	-7.8849723184497E-07	-2.14712584357926E-06	5.67517456614245E-06	-1.88434688074183E-06	0.989592177061658	-0.110416504056904
4.3	-0.00598519541579337	-0.00133093416028878	-4.85168037785153E-07	3.23093275290811E-06	2.13780947497394E-06	1.75955928031903E-06	0.988617423274757	-0.111936945276249
4.4	-0.00619201341794649	-0.000649950326648908	2.59610050851089E-06	3.41189362017332E-06	7.1924212441325E-06	3.84423948103173E-06	0.987873113032991	-0.113977677281173
4.5	-0.00522508231598058	-0.000288915928745282	-6.44463878427172E-06	-1.72920542057696E-07	-8.55940628315633E-06	-2.02912853739024E-06	0.987061521592571	-0.116690890867877
4.6	-0.00560741941537643	-0.00115099787735186	-9.95093398622388E-06	-9.09874114331744E-06	3.19671873541178E-06	-2.73731860877693E-06	0.985145449724368	-0.118861126709646
4.7	-0.0062569540721549	-0.000969367813849345	1.37215453001692E-07	1.85297821442694E-06	5.9809189505931E-06	-6.73165719692502E-06	0.984541366086431	-0.120034296520153
4.8	-0.00672213498144917	-0.000517710934775864	-6.34199692840802E-06	2.1051675341729E-06	7.01958686318861E-07	-1.26734726211068E-05	0.983858886118277	-0.121945005625778
4.9	-0.00685908519762731	0.000327987195019478	-3.3536612379825E-06	8.11045768672953E-06	6.17378751459509E-07	9.3117104295841E-06	0.983113366625943	-0.123262920522922
5	-0.00578043088702578	0.00053783118978048	9.54626013083503E-06	-4.08391715604252E-06	-6.86268397285792E-06	3.58859190603384E-06	0.982734034086713	-0.124431705383465
5.1	-0.0060925907773649	-6.14691965791349E-05	-3.78454514521598E-07	-3.22607793050763E-06	-3.85336682334348E-06	-1.76178136719032E-06	0.98230732673439	-0.125399392000668
5.2	-0.00627483381716618	0.000310220957759156	-1.07886882425798E-06	-4.44878014696703E-06	8.7453059789173E-06	5.49744927053024E-06	0.981911607082717	-0.127063887417939
5.3	-0.00613742124317169	0.000698063160925991	2.29832364212337E-06	6.7299647505491E-06	8.73938629232244E-06	3.07062288583437E-06	0.981492209118967	-0.12912465730487
5.4	-0.00574992118625974	0.00131910290800794	2.66867920684014E-06	-3.1258699068647E-06	-2.65036105916721E-06	1.64005427457983E-07	0.980719281394563	-0.131516304721253
5.5	-0.00434941404019742	0.000934299618320539	2.11031119567258E-06	9.22008355691928E-06	-3.89564310754355E-06	-4.97392022332996E-06	0.980545502629099	-0.133018018678779
5.6	-0.00523841184439189	-0.000133279783945332	-5.80500929090732E-06	-1.11459090818314E-06	4.83195024911863E-06	1.91918087185042E-06	0.98037268022956	-0.135559894636217
5.7	-0.00615189492795501	0.00034973471442315	3.30547951035933E-06	-1.41467841254654E-06	-5.00881828136744E-06	-4.24814091967162E-06	0.979593855802812	-0.137362581466245
5.8	-0.00668483451970093	0.00111831553330736	-2.03863103376771E-06	-4.70273849943834E-06	9.37659867549432E-07	-5.77490709073336E-07	0.979305373444256	-0.138404865083086
5.9	-0.00698454676316867	0.00254180985460081	-3.84755226169507E-06	6.11698821223287E-07	3.82955606785883E-06	1.2415298338658E-06	0.980031479921646	-0.138818499666761
6	-0.00534808313029865	0.00371703385941428	-5.89895266318582E-06	5.01853406349082E-06	-1.47577727558559E-06	1.95651518576351E-07	0.983271054476947	-0.141748282870408
6.1	-0.0049686102646046	0.00265109881062273	-5.89193398246883E-06	-4.65264947826497E-06	-3.97601426966391E-06	4.35946992260238E-07	0.981133840407698	-0.145843887837001
6.2	-0.00540936764011853	0.00250490614408685	2.79944061836901E-06	3.09764027975246E-06	1.04459502513259E-06	7.16074911793645E-07	0.979243803429898	-0.146564972572327
6.3	-0.00571225326298296	0.00265659585517189	1.62795227109863E-06	-7.41722301581519E-07	-1.32464786608249E-07	1.36422592498292E-06	0.978353730789533	-0.147414849160561
6.4	-0.00567833784821383	0.00324974216997485	-5.14204227761893E-06	-5.57976329003182E-06	3.78338803512601E-06	6.85818515842695E-06	0.97850675358212	-0.148583190793202
6.5	-0.00444325118460741	0.00259183327408006	8.9887372937008E-06	-2.53317842398722E-07	-7.26102003769292E-06	-8.84383915422929E-07	0.978029396034925	-0.152756004156737
6.6	-0.00549006529231014	0.00181084374914324	-1.47358626413703E-06	4.59357894321413E-07	3.35248270048352E-06	-9.27807708447575E-06	0.975593024555133	-0.15339806553154
6.7	-0.00595694601329126	0.002358995234274	2.2704191208658E-08	7.67373605292108E-06	-4.69868159199313E-07	-6.0263644717239E-06	0.975872743613916	-0.153714710978428
6.8	-0.00617109392613896	0.00300151751895886	4.20020488551596E-06	1.65872005483762E-06	2.34171550500519E-07	-5.18456763412727E-06	0.976248586877685	-0.154847845917368
6.9	-0.00598383861676158	0.00428002744322202	-7.49836244773029E-07	2.41942050013777E-07	5.72070802409528E-06	-2.62812630338794E-06	0.976887968553031	-0.155709220409863
7	-0.00394431842687078	0.00433604114232411	7.9796322111101E-06	-4.67238554351775E-06	4.47764250945674E-07	-2.99216599953812E-06	0.978355512863934	-0.157832950049439
7.1	-0.00466209185997201	0.00306718652086122	3.80352557403132E-06	2.04956752524521E-06	7.24844603286531E-07	7.17653503410384E-06	0.977117108586438	-0.160292162465963
7.2	-0.00548356035131218	0.00352159348138526	-2.45199865170984E-06	3.64823028888161E-06	-1.29898327541806E-06	-3.80590096560823E-06	0.976077311040768	-0.161188208068342
7.3	-0.00612507456960879	0.00425737231212837	3.41551200123356E-06	-4.685802833047E-07	-2.41863124678353E-06	-1.91769986609897E-06	0.974786744285915	-0.162015691418783
7.4	-0.00675304918469661	0.00582601540645693	-6.11307524259047E-06	-2.71628505438949E-06	3.73382943655135E-06	2.70326111521667E-07	0.972996028838262	-0.162029773393663
7.5	-0.00504801913675316	0.0073364344203962	6.75852735720572E-06	-6.30509653611977E-06	-2.46348994640833E-06	7.66858830499538E-07	0.975326708694404	-0.160459899691952
7.6	-0.00469882887185329	0.00646808548476345	3.40129648091847E-06	5.20615078949075E-06	-1.0225375064173E-05	4.77783973430316E-06	0.977792970817418	-0.165249899643883
7.7	-0.0048274610999971	0.00671246954524587	5.86316708423795E-06	1.09356555733873E-05	4.60087119349022E-07	-1.12800172344203E-05	0.97777449223244	-0.168891314939776
7.8	-0.00451155155171463	0.00692640735717079	2.13112048778493E-06	1.00413600109439E-06	-3.19418346469476E-06	8.72997537055378E-06	0.978081469739075	-0.171769780880016
7.9	-0.00359878671635764	0.00726895277700867	2.57224755822463E-06	-2.26772634600738E-06	3.6656403139649E-06	3.91539561770169E-07	0.979486412511716	-0.173807271962033
8	-0.00170198102194595	0.00577087236034594	-2.82972438585891E-06	1.29018233453126E-06	6.89927537121863E-06	-1.76360551543918E-06	0.983455631026119	-0.179101784250069
8.1	-0.00270840414078419	0.00436082076935172	-1.79944749125767E-06	7.35555820763118E-07	-3.69398854831467E-06	-1.29467803826539E-06	0.980792906227641	-0.184864261472412
8.2	-0.00332978307736004	0.00444222677461254	-8.62273756722562E-07	6.32348718339742E-06	4.82766928649221E-06	4.40518543809242E-06	0.979412425369353	-0.186656842568304
8.3	-0.00372131369561036	0.00478874696796712	-7.04534739643325E-07	-1.4226248466886E-05	6.7697906617638E-06	5.50056515479213E-06	0.978991074228794	-0.188836445122241
8.4	-0.00376695700551121	0.00594212306573988	3.79718593960852E-06	-3.39543042123374E-06	-6.96629932400121E-06	-1.28811470616724E-06	0.978954707956118	-0.191198788086002
8.5	-0.00184215936118258	0.00606449140989622	4.66675174193787E-06	6.28530452980669E-07	8.47314510065364E-06	-6.7533542646697E-06	0.978688037678604	-0.194530180152116
8.6	-0.0024334872451097	0.00479503450003606	-3.31360431903173E-06	4.08017062293177E-06	8.86231845226395E-07	1.11061368921381E-05	0.978007045977317	-0.196647708388395
8.7	-0.00312911491149186	0.00518053016666539	2.71035408182142E-06	-1.9718815184911E-06	4.85658399207666E-07	-5.49226284630844E-07	0.978477696055012	-0.198791527773264
8.8	-0.00343822577038418	0.00592887569741808	1.36247297479748E-07	-1.25558598699779E-06	-1.0829605804721E-06	9.78729073787904E-06	0.978960792583659	-0.201039162810265
8.9	-0.0032441145934595	0.0072901659530797	-3.70307536776707E-06	2.26533582795855E-06	4.87277760091505E-06	-1.76168511607132E-06	0.979759323158634	-0.203173429220791
9	-0.000979205982911267	0.00779182035126782	-1.90281050307534E-06	4.80322443964967E-07	-3.11532334289123E-06	-1.06112222894115E-05	0.980567281724224	-0.20551062756636
9.1	-0.000398071399129948	0.00654195172466514	5.27267389662978E-06	6.48770591336412E-07	9.13612019956014E-07	3.93562064858965E-07	0.981304122244954	-0.208173922315606
9.2	1.6185510997594E-05	0.00608013271985112	-8.73089400037028E-06	-4.69193261158191E-06	-8.25891128990265E-07	-6.17396613006955E-06	0.98144120462364	-0.211456862276739
9.3	0.000325991440634907	0.0055218978277517	1.31417234805309E-07	6.25711882865319E-06	4.68896384215294E-06	-2.16469241416744E-06	0.98109280613723	-0.214588390233834
9.4	0.000685794738402751	0.00548067438436191	-1.9925009893889E-06	5.90192222601268E-06	-1.06351305210985E-05	7.69321665638009E-06	0.980076329211129	-0.217257981126978
9.5	0.00192094665567343	0.00422661755481859	3.28698422619436E-06	-7.57648963623367E-06	3.7343078162368E-06	-2.71751529297885E-06	0.980898161976251	-0.219092522531349
9.6	0.000541747434200346	0.00287350362370049	4.47628213245175E-06	5.67103745291886E-06	-7.22175945923657E-07	7.12317029027763E-06	0.981304208448087	-0.223645082164423
9.7	-0.000465615247429741	0.00311312634148915	-2.58952316785407E-06	-4.00000606329817E-06	3.80056902185043E-06	-7.55489950978832E-06	0.980736660261641	-0.226806688463974
9.8	-0.00119877441665986	0.00368340665606632	-4.88855091777212E-07	-4.26076718605791E-06	6.3281896069459E-06	9.59138158148267E-07	0.980776705995524	-0.228905556385429
9.9	-0.00147352704512619	0.00503788232979951	-2.71299147463322E-06	-6.29377642656431E-07	-8.65813752690629E-06	5.46105921502357E-06	0.981817470696662	-0.229853891738103
10	0.000193584180509381	0.00536557619056007	4.49449797622375E-07	-1.77390899781633E-06	-3.06459371013999E-06	-8.11394398683404E-06	0.985320650006939	-0.234466719084563
10.1	-0.000365877161950125	0.00442432138913433	2.24861511916276E-06	4.84735103207112E-06	-3.19905297248097E-06	9.9647225329988E-06	0.98257814457037	-0.239170310668555
10.2	-0.00100447862606239	0.00490223050966584	-5.39346364284617E-07	-1.06539785776896E-06	-1.20906439388645E-06	-3.16414506661512E-06	0.981287925909613	-0.24068064981896
10.3	-0.00127366857122806	0.00582199562079892	1.14762239243754E-05	-2.91739016336183E-06	1.02176695462153E-05	-4.86278367385021E-06	0.980771215018393	-0.242827769372383
10.4	-0.000736241740528256	0.00735866074568921	-6.44487906112225E-07	2.17730510993885E-06	3.08239397869501E-06	-2.2076018608093E-06	0.98050772086163	-0.245787284272361
10.5	0.00164856097045982	0.00744484759928077	-6.19543794791079E-06	4.69950991103845E-06	1.58837389894375E-06	4.36482146091439E-06	0.979103677878273	-0.250535391680626
10.6	0.00189665188429934	0.00634063571091894	-7.20925720999616E-06	1.08082827958828E-05	7.10758761411992E-06	4.33333959701808E-06	0.977155773125569	-0.252883779469664
10.7	0.00204612290641542	0.00614335165546675	-3.25890246687551E-06	1.5841406630121E-06	-5.44249319054545E-06	3.20630129868766E-06	0.976560575391972	-0.255903820855198
10.8	0.00208703519621026	0.00615891874426349	-1.95440095661552E-06	5.0594155193847E-06	8.62887318581175E-07	-3.24684545713198E-06	0.975719759431644	-0.258615285662835
10.9	0.00245294189233336	0.00691398096692138	-5.84421651479961E-06	-1.0665133730897E-05	5.01436899669139E-06	1.08474898337184E-05	0.975236550595866	-0.260976359942775
11	0.00455880090374037	0.00641695268760034	3.00995276724585E-06	2.6432201316897E-06	7.75705552077391E-07	-1.13836998371505E-05	0.975037319104595	-0.263053473246329
11.1	0.00415150482314005	0.00501582029295468	3.9127803177529E-06	1.46786718555352E-06	2.41217644350667E-07	-7.47244941188721E-06	0.974379489790487	-0.265461202193468
11.2	0.00384579526959993	0.0048954985107867	-4.48157664315086E-06	-1.98151145519786E-06	-7.43729121031506E-06	-4.88851386342361E-06	0.973495719227007	-0.268019332275915
11.3	0.00371676479493178	0.00505777755757652	6.40439512840822E-07	-6.46095676218211E-06	3.88228887605923E-06	1.42979172822726E-05	0.972132163771334	-0.270560809482694
11.4	0.00390603504895529	0.00575918484138082	-5.12657203897041E-06	8.25667716138406E-06	-1.45178698186787E-06	4.12784524589204E-06	0.969861870887437	-0.272961936591247
11.5	0.00565962708350712	0.00511308479834573	4.59814538493426E-06	8.15951512728839E-06	-9.37717537960269E-06	1.62973159741311E-06	0.970599546182337	-0.274806065455863
11.6	0.00496980766146708	0.00369366678503154	-3.87953229469322E-06	1.43624560434144E-06	5.17785931827167E-06	8.20609001427163E-06	0.969653194328655	-0.280776261241433
11.7	0.00439409554300448	0.00376714364037585	2.34040229236106E-06	1.06315794270393E-05	5.23682246015161E-07	-3.69323136443085E-06	0.967456519839185	-0.285306573431144
11.8	0.00434232187440782	0.00428608243111467	1.4744810771183E-06	4.49874418149277E-06	2.30469809897944E-06	4.56791953278718E-06	0.965586947143512	-0.288978692632932
11.9	0.00541294867273964	0.0052875012867448	7.59233307166748E-06	1.06386785878198E-05	3.92803470609956E-06	3.85668308473706E-07	0.965768791318073	-0.290668178765453
12	0.00788869287566374	0.00409061066397081	2.34294556211706E-06	-5.24848072716899E-06	-3.94997733293879E-07	1.7794209564114E-06	0.967715913697103	-0.296599637169112
