# GHZ S RI R 50
0.2	0.00115585919998477	0.00262380902438829	4.78752615832128E-06	-2.98569928947244E-06	-1.37061635738079E-05	1.31178030545409E-05	0.999024382935453	-0.00738234395673681
0.3	0.00153537349574851	0.00170602506329282	2.86695427774595E-06	6.61845914521449E-06	-1.66740983428276E-06	-9.31114479530121E-06	0.99876945081448	-0.0103829659734335
0.4	0.00175562783160784	0.000992486041914893	-1.86250263502541E-06	-4.01047253071324E-06	-9.00318818476653E-06	4.40327649009989E-06	0.998419041277213	-0.0131840789217588
0.5	0.00140507869169904	0.000655909364977711	-5.35301080211609E-06	3.26038144531773E-06	-2.12376301877367E-06	6.75077169139793E-06	0.997711136666767	-0.015742407463529
0.6	0.0018021264443535	0.000702392188392289	-1.38409244001808E-07	2.80380380492494E-06	-5.81099435991268E-07	-1.33771031484223E-07	0.998284391690991	-0.0184446879447488
0.7	0.00199470158505604	0.000280611141387364	8.90264839868996E-08	2.21687235475997E-06	4.89681965011211E-06	-3.40086816502292E-06	0.997947435641103	-0.0215888700163509
0.8	0.00209494926349325	-7.80638117405325E-05	4.5234483037782E-06	8.22762389321964E-07	2.74167042096643E-06	1.99678888154643E-06	0.997626104548921	-0.023790089757667
0.9	0.00218508143578753	-0.000549849290018841	-1.53250260367753E-07	-4.21209312920653E-06	-3.41415628431703E-06	-3.10362401462395E-06	0.997499914896663	-0.0263698469633024
1	0.00164133818318888	-0.00130642953287425	1.05816406573941E-06	4.28430668667534E-06	3.32117595688448E-06	9.31902925620694E-07	0.996595224867861	-0.0282893944452827
1.1	0.00113038998912893	-0.00107138371134597	9.02818710716173E-06	5.18611950503239E-07	-3.57224434073251E-06	-4.98904344162233E-07	0.996009787261544	-0.0298081219316186
1.2	0.000997838293089378	-0.00163474248101513	3.75393895009521E-06	-1.19713904986398E-06	-4.08884045996962E-06	-2.43360113071851E-06	0.9952649869964	-0.0308627626097996
1.3	0.000332722120731155	-0.00259334188115127	-7.60021496642804E-07	-1.42417097385285E-06	-2.58128824585201E-06	-8.69028830190411E-06	0.995132761866439	-0.0316658763472285
1.4	-0.000488659418964963	-0.00356625256533885	1.40668810939375E-08	3.44171671937151E-06	-4.27420411737294E-06	-4.12049844627509E-06	0.99501612411561	-0.0336566386615651
1.5	-0.00133523877480534	-0.00374380965176328	-1.29566602989791E-06	4.42331700614684E-06	6.54195082173647E-06	-7.40330039325069E-06	0.995265523875904	-0.0368474463160827
1.6	-0.00109778961395531	-0.00348161422182943	1.62707387625887E-06	-4.88468035976803E-07	4.23541628175936E-06	-5.38625624030321E-06	0.9952638783314	-0.0397133742773372
1.7	-0.00104085731614769	-0.0035911717239335	5.30125813893904E-07	3.95145987984745E-06	-8.27254295553527E-06	3.1238250336961E-06	0.99583644583473	-0.0421259291426729
1.8	-0.00106800863197959	-0.00356643332148769	1.8295107067285E-06	1.07736560931512E-06	5.65127464793528E-07	-1.75921086905283E-06	0.996040647314306	-0.0448580016840675
1.9	-0.00119266357818257	-0.00378130100435785	3.23131046261581E-06	3.01407562761793E-06	-1.82501342794652E-07	-2.32713625527572E-06	0.995919910789473	-0.0476550672230404
2	-0.00189994710957421	-0.00370183833579195	-1.72419714582403E-07	1.99928986663813E-07	-1.21374530741075E-05	5.40223030983114E-06	0.993791645261668	-0.0503273498615771
2.1	-0.00178464433930387	-0.00325096131255515	6.68256382147938E-07	-1.37866623898039E-06	1.37739638124497E-05	4.97022723765202E-06	0.993869923291284	-0.0507727184528696
2.2	-0.00180508021416321	-0.00339630673303758	1.64331735047068E-06	-1.51228164786211E-06	2.68885396067688E-06	-6.19656459535874E-06	0.99457749591821	-0.0529505729673955
2.3	-0.00207465297276514	-0.00356153940714407	-1.68078918917848E-06	-3.42300163518028E-06	-1.78252044518648E-06	-4.58598452106914E-06	0.994624581027716	-0.0547374108831813
2.4	-0.00242003392475617	-0.00383025311633691	-1.19539451360259E-06	-4.39452500819262E-06	3.03936486136325E-06	1.08862090754318E-06	0.994882078357736	-0.0579348506517647
2.5	-0.00342915805862585	-0.00404104950755208	5.36442030391097E-06	5.66993045776276E-06	-2.63254837725542E-06	1.61187661403826E-05	0.994348647189492	-0.0603180501944124
2.6	-0.00398181951864162	-0.00332666089800676	-2.27852002628706E-06	2.70481979479563E-06	4.40457413269183E-07	-4.30572086489092E-06	0.994378226231101	-0.0629387295897066
2.7	-0.00405489086009495	-0.00293731212039749	-2.39753478129098E-06	-3.6364192075023E-06	2.15650854340858E-06	-2.56385407338445E-06	0.99399781060389	-0.0657399112338792
2.8	-0.00399602456241765	-0.00268022014976455	3.99286106969083E-06	2.31672658542083E-06	9.8211076205702E-06	-6.67943839092895E-07	0.994276505739099	-0.0674576782686385
2.9	-0.00386528583760548	-0.00269138955464479	1.28645517764774E-05	7.38353743885562E-07	2.46388514892434E-06	-1.16974736736679E-05	0.994236533329451	-0.0693897033973961
3	-0.00413718172331746	-0.00258305109179139	-3.85368499948207E-06	1.03683414423178E-06	-4.13914493499333E-06	-1.60742350700829E-06	0.994084436833629	-0.0718508732933862
3.1	-0.00374539469454377	-0.00228030342941504	4.79879697010653E-06	-9.82542133145508E-06	1.06698483564398E-05	2.43308484859373E-06	0.993809806142743	-0.0734670801909749
3.2	-0.00361567613633027	-0.00249024539133423	-5.34745487378709E-06	-7.41779703534288E-06	1.56119209123177E-05	5.42346301871092E-06	0.993814337385546	-0.0749408898214547
3.3	-0.00366808723389193	-0.00270264354232993	-8.79610959085183E-06	2.51818364545293E-06	-8.55672219766168E-06	-1.76491418098496E-06	0.99405837470822	-0.077913304619618
3.4	-0.00391211711220865	-0.00300533540393362	9.08520737682924E-06	-7.53380378504116E-06	-7.35975609532611E-06	4.21202421938204E-06	0.994770787056629	-0.0799398328439004
3.5	-0.00469328050646675	-0.0030684994541052	3.31641238948995E-07	-5.32452909685526E-06	-4.38036371764634E-06	-8.94629164181575E-06	0.994654729663937	-0.0836571221063942
3.6	-0.00481794911677005	-0.0026004406860321	4.06090943727763E-06	4.90978165594202E-06	-7.12906167534907E-06	8.97681874372825E-06	0.993965309204613	-0.0857220217528042
3.7	-0.00496518846820504	-0.00260290421990068	1.5401704515098E-06	-4.52321010219043E-06	-5.08623150873674E-06	-6.60058885173756E-06	0.994420776234224	-0.0881687159697544
3.8	-0.00524625846360979	-0.0025406696264898	7.29600604541932E-06	-5.17860030019799E-06	-5.87566025561877E-06	-2.43513595678192E-06	0.994733295311842	-0.0905331672263762
3.9	-0.00551857627365107	-0.00248892619062731	-4.03125359184655E-06	-3.59769280440175E-07	-2.53480774785173E-06	1.12775811938986E-06	0.994957905598609	-0.0946835369635925
4	-0.00619326825501179	-0.0021416194665643	-3.38350552062084E-06	-8.99112501938941E-08	1.18429317521651E-06	8.67131781176656E-06	0.993050688556249	-0.0965379940812444
4.1	-0.00597151053471192	-0.00135159722615977	-2.88900468268106E-06	-3.87107852990036E-06	5.87112797114383E-06	3.05729114401865E-06	0.993159409650465	-0.0969324913836607
4.2	-0.00571872042557329	-0.00123852222710458	-7.67247899753163E-07	-2.1609999113399E-06	5.70968598864675E-06	-1.8276840287805E-06	0.993242190725873	-0.0995796205991015
4.3	-0.00563251338471528	-0.00120128342447152	-5.20865322625883E-07	3.23611029446202E-06	2.12603047795164E-06	1.78776753621431E-06	0.993343103111779	-0.101694690996773
4.4	-0.00573111344531858	-0.00133668913302903	2.56772857822464E-06	3.45229220992976E-06	7.17535422547117E-06	3.93658029438444E-06	0.993084075326637	-0.104190045930754
4.5	-0.00646193019598125	-0.00119880455445104	-6.47944258926937E-06	-2.54021893316094E-07	-8.58326255439822E-06	-2.14716084224048E-06	0.993019146570749	-0.105962892942595
4.6	-0.00657799745840665	-0.0004507966846005	-9.93729672108477E-06	-9.2757827413196E-06	3.25104914404931E-06	-2.72637055021483E-06	0.993545089958889	-0.108901887698426
4.7	-0.00654696921306705	-0.000135918268052931	1.21587858916166E-07	1.86972492254693E-06	6.09190741686747E-06	-6.73383552354281E-06	0.993731354170029	-0.111322212646483
4.8	-0.00656740697441499	0.000205935338680318	-6.41401806026585E-06	2.06966584312902E-06	8.14899871614966E-07	-1.27759761404887E-05	0.99359332044831	-0.114011938547946
4.9	-0.00644141398703884	0.000403528419257371	-3.45275291745519E-06	8.15541947600808E-06	5.44037268622278E-07	9.40120115566184E-06	0.993595005093861	-0.116036603660167
5	-0.00661616434584623	0.000726722462531128	9.68342821980429E-06	-4.05495385612592E-06	-6.96635787214023E-06	3.5749822521871E-06	0.993844975644003	-0.118049622558641
5.1	-0.00587001121492436	0.00117406045216067	-3.63518832783451E-07	-3.26333489191788E-06	-3.88479945724836E-06	-1.80365484514604E-06	0.99407568567752	-0.119809674219407
5.2	-0.00535952646401019	0.000886210643205786	-1.06526391003569E-06	-4.50249750126403E-06	8.80782996447908E-06	5.6057357514726E-06	0.994174132034056	-0.122399167316723
5.3	-0.00517042875840154	0.000608588216254895	2.28572123985022E-06	6.81827944440123E-06	8.81961357207832E-06	3.15468077564473E-06	0.994267222440267	-0.125168183375675
5.4	-0.00519801506888158	0.000312994393482683	2.72079256632368E-06	-3.15049622483541E-06	-2.68520142233547E-06	1.50856250655049E-07	0.994675257925025	-0.128647028116917
5.5	-0.0058554375527885	0.000621915277942003	2.1170025730011E-06	9.36240981009673E-06	-3.9401310702061E-06	-5.05805564924197E-06	0.994054405859085	-0.132764716406668
5.6	-0.00532650217399139	0.00125521727309337	-5.87868972102668E-06	-1.13467400834996E-06	4.89230230620651E-06	1.94866898304335E-06	0.993191453412921	-0.135053080712153
5.7	-0.0051304474159997	0.0011540124639789	3.34866438926571E-06	-1.4300523794948E-06	-5.06917664241029E-06	-4.30617719380644E-06	0.993314923949396	-0.137654700862547
5.8	-0.00517825021049332	0.00113929811919888	-2.06607314392484E-06	-4.76295830599243E-06	9.49625923467858E-07	-5.85169930748139E-07	0.993520232281641	-0.140546833232765
5.9	-0.00531053928287749	0.00101448403593664	-3.89204699246854E-06	6.27890454861761E-07	3.87811946862502E-06	1.24749231080621E-06	0.993135872280305	-0.144399881910766
6	-0.00642818309884989	0.000978841979267605	-5.94172121931424E-06	5.06539064366101E-06	-1.48756837117823E-06	1.9876115421832E-07	0.990071872699109	-0.146693882362941
6.1	-0.00681169039497591	0.00210504849997483	-5.94596272020604E-06	-4.70950589617299E-06	-4.01777889624758E-06	4.34556600113721E-07	0.989781369810744	-0.146443809139311
6.2	-0.00685388559799426	0.00264064492885577	2.8312267080918E-06	3.13510051734097E-06	1.05661743062566E-06	7.24880568172359E-07	0.989559503696179	-0.147821969407118
6.3	-0.00669332505451384	0.00312177987662177	1.64652139598153E-06	-7.52050508702698E-07	-1.3273692248864E-07	1.3805032795453E-06	0.98901474551216	-0.14970909823596
6.4	-0.00648080481760533	0.00313450650396734	-5.20587834323758E-06	-5.63211074111028E-06	3.83451749382209E-06	6.92636040613818E-06	0.988213886239747	-0.151886022487247
6.5	-0.00668190954732248	0.00354936514394443	9.09905632803913E-06	-2.51388930469704E-07	-7.34952487730258E-06	-8.99290358580504E-07	0.988061675130073	-0.153232624444463
6.6	-0.00578329598410885	0.0038492749667848	-1.49428157858129E-06	4.70250373575814E-07	3.37695011958959E-06	-9.42553385317107E-06	0.989624151435379	-0.156516889446419
6.7	-0.00545793919196619	0.00368579233067611	6.32495940841345E-08	7.78176119993677E-06	-5.08079878424738E-07	-6.10882958085101E-06	0.989475439814697	-0.159913058768064
6.8	-0.00524219559692505	0.00376969748203056	4.26641317070524E-06	1.65295590667186E-06	2.03179923569806E-07	-5.25437487132313E-06	0.989116506652656	-0.162793339134977
6.9	-0.00510385579936977	0.00368098326716288	-7.57332259764311E-07	2.5045832576873E-07	5.7721355633297E-06	-2.70277875880645E-06	0.988746571976258	-0.165680308602008
7	-0.00569745406746918	0.004251717702905	8.03867887109683E-06	-4.79205650381218E-06	4.29397471963758E-07	-3.03177665449551E-06	0.987175059994538	-0.167753441681397
7.1	-0.0048280482530871	0.0051724366580587	3.8654618994649E-06	2.03993982483604E-06	7.96105263733645E-07	7.25316291031172E-06	0.986963988335969	-0.168813076308715
7.2	-0.00425613754353377	0.00512169805141532	-2.44594039294841E-06	3.71148512676836E-06	-1.34840308897014E-06	-3.83651711296331E-06	0.986826492424882	-0.170624370765685
7.3	-0.00404318909073116	0.00509223434439366	3.45000954386212E-06	-5.05841942426753E-07	-2.46408834489624E-06	-1.91691931544691E-06	0.986485849085008	-0.172467712605117
7.4	-0.00398646936899434	0.00481329044374473	-6.22245471895168E-06	-2.68983138170103E-06	3.78639816979791E-06	2.35646833183971E-07	0.987054457130394	-0.175584522082552
7.5	-0.00500258209422053	0.00464631948979493	6.74797016503097E-06	-6.49559463082046E-06	-2.48391300332246E-06	8.16044829512847E-07	0.985589811200362	-0.181092685698293
7.6	-0.00501897981184726	0.00562453852422888	3.51610145733769E-06	5.19732322388371E-06	-1.02389193861651E-05	4.98637748864556E-06	0.98328887759349	-0.183707137417866
7.7	-0.00498378794320774	0.00578445167130818	6.08658716646519E-06	1.09294818176408E-05	2.82147473289111E-07	-1.13784514342991E-05	0.982609462994381	-0.187132635183163
7.8	-0.0047795207161509	0.00587644541636942	2.16370670417799E-06	9.75275698502715E-07	-3.06925750855824E-06	8.8478567006648E-06	0.981838705929618	-0.19084287876995
7.9	-0.00450192318952136	0.00574331795565868	2.54337294996033E-06	-2.32955800318921E-06	3.69367322655066E-06	3.23743912909976E-07	0.980468603224915	-0.195075270261877
8	-0.00462380592020018	0.00621327625503374	-2.80375425194992E-06	1.34290924938688E-06	6.86206419374737E-06	-1.89294165830693E-06	0.976483269295815	-0.197180385735289
8.1	-0.00334125309347496	0.0063752485335451	-1.7869841389457E-06	7.61487894642929E-07	-3.70983864021209E-06	-1.23895527580732E-06	0.976580176571327	-0.197219584273565
8.2	-0.00286323517997819	0.00585533681759708	-7.70258388847149E-07	6.3330808999024E-06	4.88928157730395E-06	4.33321813375492E-06	0.976741297228585	-0.199470928420508
8.3	-0.00267862085483006	0.00558168820706107	-9.10842595192645E-07	-1.41976856139409E-05	6.84120106021714E-06	5.39488292066932E-06	0.976010239964372	-0.202217230822931
8.4	-0.00265731721797905	0.00530417249478169	3.74116660783047E-06	-3.43782185075744E-06	-6.96526741987839E-06	-1.19041749659681E-06	0.974828729872209	-0.204733950384769
8.5	-0.00338947812384648	0.00567844780477974	4.67026743620258E-06	5.72003757657798E-07	8.38482152238202E-06	-6.84917842410037E-06	0.973914465868629	-0.206613631134019
8.6	-0.00265173324508026	0.00660294000612015	-3.25048259558775E-06	4.12504192660294E-06	1.04869774824603E-06	1.10826228365808E-05	0.973933083874658	-0.20918675749824
8.7	-0.00200136197057622	0.0065405486646724	2.67195029589732E-06	-2.00743800355483E-06	4.75776102294724E-07	-5.55005107294581E-07	0.973517873932295	-0.211988117847229
8.8	-0.00156729328935906	0.00645714196406696	1.16752351788675E-07	-1.25150337133057E-06	-9.30895476331089E-07	9.75578039241339E-06	0.972910142707637	-0.21436687852507
8.9	-0.0011566057192453	0.00608790026920905	-3.64856369051086E-06	2.30117378817317E-06	4.81762273763331E-06	-1.81665085865305E-06	0.972643891356425	-0.216486071535656
9	-0.00145209689690181	0.00591332473171507	-1.88621473251913E-06	5.02221831630448E-07	-3.23505935343667E-06	-1.05130447826396E-05	0.971990099338135	-0.218928352269079
9.1	-0.00075884822919571	0.00607050061187127	5.24393183581925E-06	5.71382239257603E-07	9.12510967139045E-07	3.78142870689753E-07	0.971000257157366	-0.220756735255781
9.2	-0.000348577127713204	0.00558756302258237	-8.7165820655873E-06	-4.5417252212778E-06	-8.97112395815452E-07	-6.11136294929913E-06	0.970068813106518	-0.222664486724281
9.3	-0.000125662377723733	0.0052554608749993	2.0245031471291E-07	6.20160795343897E-06	4.62353420798015E-06	-2.20009307709984E-06	0.969666406280316	-0.224412894206169
9.4	3.58930172375668E-05	0.00474403115451509	-1.9127208807852E-06	5.87897253874262E-06	-1.04701502462418E-05	7.75136577760949E-06	0.969576632746969	-0.227137071742322
9.5	-0.000354013880276627	0.00498851016740446	3.15638496209759E-06	-7.56687777812418E-06	3.66865395066745E-06	-2.74995436145442E-06	0.968285943407938	-0.230603986595534
9.6	0.000410663412859478	0.00512501088124479	4.50531258891669E-06	5.54657972147719E-06	-6.15716383710189E-07	7.05457164546328E-06	0.96719994650326	-0.232636912540311
9.7	0.000610417833119651	0.00465290537361214	-2.60799953961877E-06	-3.91923964998072E-06	3.66032097242208E-06	-7.51070311755522E-06	0.966994055343829	-0.234889168804474
9.8	0.000513889559616305	0.00438142926833154	-5.34319769582526E-07	-4.20074132325321E-06	6.25947465762554E-06	8.70216647878056E-07	0.967111243338651	-0.237323637355284
9.9	0.000322584944242156	0.00413830494835804	-2.68183187355296E-06	-5.84450761191009E-07	-8.46020267380541E-06	5.49579685500894E-06	0.966104776935564	-0.240415499297852
10	-0.000586638938844306	0.00441462572981992	4.22895770026176E-07	-1.74376927091953E-06	-3.08605387222872E-06	-7.92477158376486E-06	0.962836308948511	-0.240704060388338
10.1	-0.000189112588117935	0.00518119407241693	2.23810772513608E-06	4.74885690893108E-06	-3.08339704488231E-06	9.80896433829479E-06	0.963986654851457	-0.240137126374602
10.2	5.31105671620347E-05	0.00518610442112656	-5.36380562304213E-07	-1.04448852020742E-06	-1.20683240748401E-06	-3.10428184754806E-06	0.964411304671646	-0.242001896230205
10.3	0.000170437416701379	0.00530076423517948	1.12620064011671E-05	-2.92705777338314E-06	1.00150550826048E-05	-4.83212833072725E-06	0.963785383052723	-0.244289413027236
10.4	0.000308387727468128	0.00521132255278061	-6.24841544606919E-07	2.13884648980391E-06	3.01706234250311E-06	-2.17708296673867E-06	0.96222690863168	-0.246667877923908
10.5	-0.000240170058502573	0.00562737030960582	-6.09107318281869E-06	4.62044888190447E-06	1.56167653089985E-06	4.2913125914749E-06	0.960752180627866	-0.248127846565514
10.6	0.000537669388029729	0.00628076892587926	-7.08458858583352E-06	1.0653606273662E-05	7.00531050637623E-06	4.25756279594639E-06	0.960638284383898	-0.250365030777163
10.7	0.000993863541200452	0.00648704260448415	-3.20455817578329E-06	1.56237202732757E-06	-5.35108925113144E-06	3.16091082489546E-06	0.95956803168947	-0.252564079299765
10.8	0.00156959633564557	0.00679033523918291	-1.92187302067932E-06	4.97441962173913E-06	8.48579075942447E-07	-3.19232045448002E-06	0.958855603683545	-0.253740559935309
10.9	0.0022227745416491	0.00669563584128539	-5.72421655926909E-06	-1.04970064930048E-05	4.90799833407867E-06	1.06746192751027E-05	0.959033234552319	-0.254892413458327
11	0.0022822415137795	0.00705679887803139	2.95602768653622E-06	2.612421326774E-06	7.99276403682866E-07	-1.12083903813964E-05	0.958792719325887	-0.255493630590506
11.1	0.00364753262717308	0.00740102971557787	3.84767817975372E-06	1.45740934259192E-06	2.60866758579952E-07	-7.35613633284282E-06	0.959614286134783	-0.256144034904789
11.2	0.00460283484363844	0.00679881885212824	-4.40277867993248E-06	-1.97098468799185E-06	-7.2992624477565E-06	-4.84612030235995E-06	0.960210221924471	-0.257777657877588
11.3	0.00523481212057067	0.00609684083349098	6.70959005425638E-07	-6.36212191087052E-06	3.73692744462757E-06	1.41119460892724E-05	0.960948016069276	-0.259861880571039
11.4	0.00553116831337121	0.0052107183880861	-5.12296986657359E-06	8.11904594773588E-06	-1.46357206001107E-06	4.0669885958862E-06	0.961378709441649	-0.263491691906585
11.5	0.00504282404489834	0.00491670805198599	4.51075268101576E-06	8.07997183236214E-06	-9.27129125419829E-06	1.57307868082257E-06	0.959224059199224	-0.267970812885993
11.6	0.00576220845501628	0.00477189664891774	-3.8309813084467E-06	1.39316505960045E-06	5.05544562146406E-06	8.11557268624081E-06	0.957655083390406	-0.270217980832117
11.7	0.00603161711666292	0.00392300915036521	2.22660876035503E-06	1.05004032205703E-05	5.44477875899538E-07	-3.63747992351893E-06	0.957437893452141	-0.273889152020732
11.8	0.00605724613555217	0.00325884003511584	1.41893868965945E-06	4.45221449406557E-06	2.23780880298164E-06	4.5272054074151E-06	0.956787037451925	-0.278471128601004
11.9	0.00605382035252205	0.00245716589115401	7.41850598041627E-06	1.05457668905016E-05	3.87237606059895E-06	4.06759910490154E-07	0.955158093115588	-0.283003389307699
12	0.00508893436767112	0.00259939424736998	2.35122161331805E-06	-5.13120533741191E-06	-4.05009691070015E-07	1.74350697566554E-06	0.950447063956827	-0.283361601554217
