# GHZ S RI R 50
0.2	0.000798906637697764	0.00178988756691831	4.80153435899906E-06	-2.98293667632651E-06	-1.37541703203419E-05	1.31183374183849E-05	1.00031475129195	-0.00669281383178901
0.3	0.00132344591677733	0.00127053161376107	2.86373042527209E-06	6.63621356266104E-06	-1.65795067360236E-06	-9.33283722409103E-06	1.00043377998779	-0.00962837665205101
0.4	0.00160191156689788	0.00102284873560338	-1.86351463675704E-06	-4.02321782524409E-06	-9.03202389313569E-06	4.40615039456628E-06	1.00081786389592	-0.0123028486599611
0.5	0.00213763557840635	0.000604233836464302	-5.36578221905727E-06	3.2695429750901E-06	-2.12780171530971E-06	6.76805283470427E-06	1.0010619100724	-0.0161300276124092
0.6	0.00186706479392477	-0.000174370047679742	-1.40230331027693E-07	2.80888903682728E-06	-5.82094668582518E-07	-1.34341948738176E-07	1.00051905276037	-0.0193030883652211
0.7	0.00148441975356237	-0.000210722960607702	8.71627065264969E-08	2.22257486488969E-06	4.91243583963758E-06	-3.40487229661959E-06	1.0001814379162	-0.0220380357599344
0.8	0.00136214521351498	-0.000191502526161011	4.5370385033767E-06	8.293293122929E-07	2.74859467542593E-06	2.00550879589929E-06	1.00001684679363	-0.0241559114326678
0.9	0.00116582697594242	-7.52027034158994E-05	-1.50962962467322E-07	-4.22842004190204E-06	-3.42518511418832E-06	-3.11790953967206E-06	0.99988350716023	-0.0263739344680633
1	0.00158418632154472	0.000254362852072015	1.06409976375792E-06	4.30287318997099E-06	3.33608901763485E-06	9.35023417966485E-07	1.0001942621466	-0.027675535970001
1.1	0.0017711064086942	-0.00077772647703981	9.06223358580695E-06	5.14136031241756E-07	-3.58592428771985E-06	-4.98228934476995E-07	1.0000143338302	-0.0304716481969018
1.2	0.000975052458546795	-0.00172347131660808	3.76661110221345E-06	-1.20389873354494E-06	-4.10509991892627E-06	-2.43963866332428E-06	0.998845390968153	-0.031804012963318
1.3	-0.000143796279056305	-0.00271576032565682	-7.63862226602291E-07	-1.42821831734177E-06	-2.5978723376783E-06	-8.71687416667632E-06	0.998392735948044	-0.0330140722379587
1.4	-0.00126686236548123	-0.00335375160059267	1.8037008904058E-08	3.45158584999036E-06	-4.29118510700485E-06	-4.1274529611397E-06	0.997727908433986	-0.0352133551690786
1.5	-0.00138867102259616	-0.00361770166332491	-1.2953828005313E-06	4.43682974050486E-06	6.55370573530732E-06	-7.42977874571788E-06	0.998902649792248	-0.0385794809817261
1.6	-0.00189241427784576	-0.00361377825345298	1.63223621300419E-06	-4.91509053445999E-07	4.2453949176064E-06	-5.40826593462564E-06	0.998729492849757	-0.0423608463309908
1.7	-0.00183347602824331	-0.00307464718330375	5.36814229686933E-07	3.96627463097927E-06	-8.30120465630215E-06	3.14569406255203E-06	0.99933942879288	-0.0447416124278108
1.8	-0.00163193600420221	-0.00271142030825574	1.83844993901391E-06	1.07920953891354E-06	5.64984832779326E-07	-1.76715303220444E-06	0.999596263670242	-0.0473077785862471
1.9	-0.00143493843501402	-0.0024508790874764	3.24800883469819E-06	3.02391935718198E-06	-1.85490449150053E-07	-2.33692995624009E-06	0.999854417901663	-0.0489381189025695
2	-0.000854643731668891	-0.00261169097387638	-1.73332924065815E-07	2.0141941251336E-07	-1.22109949635604E-05	5.45048573403195E-06	1.0015382809303	-0.0517161485235822
2.1	-0.00130064725711453	-0.00330807887391575	6.67463651386106E-07	-1.38983144175648E-06	1.38792952284656E-05	4.95150345912094E-06	1.00116288168854	-0.0561532538772914
2.2	-0.00187735790684533	-0.00326052927350673	1.64601152462311E-06	-1.52713105597641E-06	2.67809171027412E-06	-6.24092490564104E-06	1.00030642524562	-0.0589272559298556
2.3	-0.00236415095183078	-0.00317194839562742	-1.70392773366616E-06	-3.4334929098887E-06	-1.8111062640799E-06	-4.60202735008736E-06	0.999593850241515	-0.0608249268244294
2.4	-0.00287512369152864	-0.00293200308647803	-1.22224107374047E-06	-4.41197374579137E-06	3.06040172629844E-06	1.08009801196909E-06	0.999340175973955	-0.0638650781284648
2.5	-0.00283750090632374	-0.00262704517794304	5.4218414466581E-06	5.66578426365746E-06	-2.55282194048526E-06	1.62090703390037E-05	0.999227444534349	-0.0661322878869196
2.6	-0.00321717051520714	-0.00306987641637641	-2.27299299893635E-06	2.72788172938689E-06	4.18975150434944E-07	-4.32523599415393E-06	0.999281016479575	-0.0694462077897185
2.7	-0.0037966659437415	-0.00293065593489755	-2.42753747846203E-06	-3.63837487622992E-06	2.1513829205083E-06	-2.58640482365616E-06	0.998870963754935	-0.0727931912484966
2.8	-0.00417252104123269	-0.00261755390776044	4.02352478594922E-06	2.30222615257788E-06	9.85801057193901E-06	-7.30151363373836E-07	0.998811224133121	-0.075229757494046
2.9	-0.00426355158763471	-0.00214967090829987	1.29184908107843E-05	6.52924517266957E-07	2.39301620633454E-06	-1.17588136954838E-05	0.998083357456197	-0.0775277576500849
3	-0.00383776484051702	-0.00202674724994897	-3.85576965186177E-06	1.06708660716493E-06	-4.16093386051311E-06	-1.58166195472184E-06	0.997536341888176	-0.0800732582366697
3.1	-0.00411176399627498	-0.00221902705662515	4.74277413166905E-06	-9.880667870106E-06	1.07108933840972E-05	2.36588137640769E-06	0.996761071521371	-0.0822733301041099
3.2	-0.00432403934431378	-0.00196587838211767	-5.41180560175488E-06	-7.39317679273483E-06	1.56815696204279E-05	5.32023531867567E-06	0.995920437183998	-0.0840982360937267
3.3	-0.00443420386252476	-0.00176475234761225	-8.78697837797386E-06	2.58981140625896E-06	-8.58071712345747E-06	-1.70027298679069E-06	0.99504865062785	-0.0873442096196307
3.4	-0.0045735985639918	-0.00146935915726079	9.02177468623368E-06	-7.6069077144277E-06	-7.32387369836848E-06	4.27159115895476E-06	0.994152449109387	-0.0890155054563235
3.5	-0.00427215459122012	-0.00146652236468869	2.95869765474173E-07	-5.31841155090445E-06	-4.43275786847442E-06	-8.90332117968672E-06	0.994021054313495	-0.0907759196272903
3.6	-0.00479833277679735	-0.00181388690234466	4.09002486522979E-06	4.882159061569E-06	-7.06959563057729E-06	9.01777553061397E-06	0.994202601887149	-0.0938762662774534
3.7	-0.00531068384847877	-0.00146133401138271	1.50757755174893E-06	-4.53053962143938E-06	-5.12831811525883E-06	-6.56030409061797E-06	0.993430980606167	-0.0969333061139498
3.8	-0.00555437513119025	-0.00101264506730006	7.2488596223942E-06	-5.22182707942758E-06	-5.8838642038002E-06	-2.3904116448697E-06	0.992379504372189	-0.0987785449059244
3.9	-0.00552337545603559	-0.000451582687239937	-4.0256342490859E-06	-3.34228388173564E-07	-2.52293083984286E-06	1.1411859636811E-06	0.991960478677593	-0.100927276520404
4	-0.0049011558394871	-0.000342714563833142	-3.38332899979323E-06	-6.8860725977042E-08	1.23793441213359E-06	8.6620718948149E-06	0.993308373876524	-0.102157753036423
4.1	-0.00514787005649842	-0.000746942313598551	-2.91734518869848E-06	-3.84220844294101E-06	5.88891338280079E-06	3.00478049107221E-06	0.992524376678066	-0.105607335811683
4.2	-0.00545397342155541	-0.000568946285895385	-7.82846063062871E-07	-2.14910483785408E-06	5.67988245705714E-06	-1.86941789243787E-06	0.990953536365907	-0.108200728493823
4.3	-0.00561496284729603	-0.000340531574570912	-4.9379625198776E-07	3.22996751101433E-06	2.13335078639508E-06	1.76541216936027E-06	0.990232813039505	-0.109906374299851
4.4	-0.00580683101063371	-8.78409269420527E-07	2.58707041290618E-06	3.42049821195604E-06	7.18362010999613E-06	3.86627350158014E-06	0.989674299882831	-0.11195785838646
4.5	-0.00547590029621145	0.000167439253744992	-6.45182563983692E-06	-1.93263585945115E-07	-8.56332918777961E-06	-2.05830458382503E-06	0.989496481595826	-0.114398738054223
4.6	-0.00612200816748134	-0.000199892515627135	-9.94702487867069E-06	-9.13986909275136E-06	3.20931191077869E-06	-2.73454571162688E-06	0.988500647051171	-0.117213021005951
4.7	-0.00676135728163501	0.000293717911266575	1.33745592343364E-07	1.85696551207007E-06	6.00649752952889E-06	-6.73304868067708E-06	0.988103218581034	-0.119075884111128
4.8	-0.00710150312141866	0.000974358710571068	-6.35912267144978E-06	2.09863763078226E-06	7.2543644186267E-07	-1.26991797139845E-05	0.987423797841134	-0.121487894241179
4.9	-0.00707088037343181	0.00180876937343002	-3.37401121881808E-06	8.12355479507895E-06	6.04134478158158E-07	9.33377292457638E-06	0.986537081071231	-0.123121132481588
5	-0.00626746486865497	0.00214301974473009	9.57498614172495E-06	-4.08245174661036E-06	-6.88412969302674E-06	3.58916246914031E-06	0.986067317014018	-0.124179606919297
5.1	-0.00623813428501924	0.00200843407845685	-3.76190316092548E-07	-3.23355355487356E-06	-3.86016973510851E-06	-1.76936636544835E-06	0.985903426302343	-0.125277046310816
5.2	-0.00598186617035519	0.00232626717287058	-1.07663610417129E-06	-4.45914650293638E-06	8.75800704144935E-06	5.51772833888357E-06	0.985382462042499	-0.127161060748639
5.3	-0.00559151450607743	0.00245710075191467	2.29565692750104E-06	6.74652422349534E-06	8.75418462482312E-06	3.08669499127152E-06	0.984810080449605	-0.129093957221865
5.4	-0.00522574919440911	0.00263839409080928	2.67890675808179E-06	-3.12975188570237E-06	-2.65675689334829E-06	1.60997750080849E-07	0.984246767361859	-0.13123567134688
5.5	-0.00449684700638952	0.00230604908805078	2.10770643826702E-06	9.24787585694441E-06	-3.90196589632258E-06	-4.99146094724766E-06	0.984492503751979	-0.132751456370297
5.6	-0.00517081860528049	0.00184443617023278	-5.8202288928154E-06	-1.12138250728918E-06	4.84398133871039E-06	1.92755572403849E-06	0.984852003559942	-0.135623971872342
5.7	-0.00561489823861211	0.00237709485440522	3.31542606055236E-06	-1.41725817394327E-06	-5.02114930528204E-06	-4.26229233813892E-06	0.984195540445731	-0.13809240918234
5.8	-0.00570171581567946	0.002899375218989	-2.04399828010023E-06	-4.71590727061301E-06	9.40295986264792E-07	-5.7903521793359E-07	0.983596835795499	-0.139745154773129
5.9	-0.00570315948878999	0.00355539091472814	-3.85595058901171E-06	6.14720567536115E-07	3.83870621360335E-06	1.24268692276283E-06	0.983323480954799	-0.140613609664643
6	-0.00490972108868062	0.00384238657134035	-5.90645672517636E-06	5.0233683482011E-06	-1.4774930767424E-06	1.9565011192252E-07	0.985101399849693	-0.142098429753508
6.1	-0.00532830694514008	0.00303646725610041	-5.89616706721648E-06	-4.66476800520729E-06	-3.98215116564415E-06	4.32928423002233E-07	0.984074224262045	-0.144892672756624
6.2	-0.00620005861209289	0.00323448716053506	2.80088109505162E-06	3.1054845470489E-06	1.04557396815023E-06	7.18287196164666E-07	0.982829346362809	-0.145624890370718
6.3	-0.00664785634092257	0.00380774407070934	1.6314645800238E-06	-7.41360486403338E-07	-1.34051924384213E-07	1.3664166770222E-06	0.982270200320766	-0.146690044098367
6.4	-0.00663435117318777	0.00456162638345884	-5.14466627948946E-06	-5.59489583689256E-06	3.78229839840796E-06	6.87400146253277E-06	0.982410524440952	-0.148085460946363
6.5	-0.00583626049305517	0.00448645564367842	9.01132823474037E-06	-2.40043274880703E-07	-7.27758474670102E-06	-8.97796489205756E-07	0.982614278982316	-0.151896874170728
6.6	-0.00628217589742175	0.00448633281681301	-1.47881874758225E-06	4.5973901999928E-07	3.37075207096933E-06	-9.30619415064698E-06	0.981068377261908	-0.153885953318225
6.7	-0.00611407641980859	0.00514271395104203	2.13027518029339E-08	7.70043337738121E-06	-4.70339981549746E-07	-6.04741771241338E-06	0.981026231645761	-0.155194357580804
6.8	-0.00582156476737893	0.00562587273754942	4.21565455805078E-06	1.66362862690892E-06	2.3373657125608E-07	-5.20319265778031E-06	0.981017665390801	-0.156878738156544
6.9	-0.00542888390744385	0.00634860980566361	-7.52339835464826E-07	2.43361985441963E-07	5.73923021098712E-06	-2.64175793653196E-06	0.981061836420169	-0.158142688054466
7	-0.0041795278811518	0.00636061160332965	7.99936619036524E-06	-4.69608634353144E-06	4.45777214522262E-07	-3.00205917641809E-06	0.981862463414746	-0.159650951384605
7.1	-0.00465119799170584	0.00590728970038166	3.81594993548689E-06	2.05205353557113E-06	7.33031848403017E-07	7.196039444688E-06	0.981390211338629	-0.161878013618538
7.2	-0.00480691519180225	0.00656102239736734	-2.4571426876366E-06	3.66050855675154E-06	-1.30507629175682E-06	-3.81644630335345E-06	0.98066852140157	-0.163340762147418
7.3	-0.00465487593385179	0.00712283241108987	3.42702345478552E-06	-4.71514880203153E-07	-2.42765901529084E-06	-1.92332363190652E-06	0.979521598710548	-0.164790461178406
7.4	-0.00447526581123316	0.00777697438621465	-6.14136377439778E-06	-2.72554098087494E-06	3.75047920200484E-06	2.69832361737232E-07	0.977876255605972	-0.165946039021238
7.5	-0.00330692348815912	0.00796169389046975	6.78223881690786E-06	-6.34835720709456E-06	-2.47469381779434E-06	7.74865616112062E-07	0.978810578025499	-0.165633598890682
7.6	-0.00355203800284419	0.00685063011433245	3.42940491825206E-06	5.2245726527627E-06	-1.02656741812306E-05	4.82362534234877E-06	0.980441259382015	-0.170067752231783
7.7	-0.00420424503193628	0.00683417899155726	5.92238034476968E-06	1.09747133945133E-05	4.31737760869933E-07	-1.13379957593442E-05	0.979911518238705	-0.173833533207196
7.8	-0.00446372120523714	0.0070488971529778	2.14462181245567E-06	1.00172746343358E-06	-3.17995224926691E-06	8.78218709105433E-06	0.979580445805499	-0.176588102092614
7.9	-0.00424331700891592	0.00745789853000372	2.57302139740925E-06	-2.28760493669046E-06	3.68195746089322E-06	3.77714317524446E-07	0.980182897024459	-0.178419157171606
8	-0.00337578023595384	0.00691146896905349	-2.8305475186815E-06	1.30563185107207E-06	6.9073774986537E-06	-1.79809259458086E-06	0.983157207423801	-0.18228163681562
8.1	-0.0040165574307566	0.00675785276222878	-1.79943036270488E-06	7.4373084537267E-07	-3.70488029536541E-06	-1.28233584132799E-06	0.981503375976763	-0.187334742052775
8.2	-0.00401811886831086	0.00729041808157829	-8.39120418313941E-07	6.33361772272456E-06	4.84967574350907E-06	4.39156552484859E-06	0.980325041257149	-0.189467095911885
8.3	-0.00384052492977521	0.00771693854929838	-7.57168433737793E-07	-1.42315117897943E-05	6.79372697370381E-06	5.47873902982033E-06	0.979723636521149	-0.191886155867876
8.4	-0.00356569742357929	0.00844551996757178	3.7871646688215E-06	-3.40846989659155E-06	-6.97211694921287E-06	-1.2659951433231E-06	0.979377511899565	-0.194382688194884
8.5	-0.00237230070234195	0.0085295436124859	4.67324883263402E-06	6.14393958433273E-07	8.45999955043312E-06	-6.78665266065193E-06	0.978984597260554	-0.197672281497731
8.6	-0.00273864684466611	0.0081744694812767	-3.29877889733473E-06	4.09716807892225E-06	9.33838588846993E-07	1.11105208754457E-05	0.9781727843372	-0.20019583930022
8.7	-0.00267631098661384	0.00884622624697886	2.70124920622158E-06	-1.9843814471082E-06	4.83123123305994E-07	-5.51465594259734E-07	0.978194980014163	-0.202617786315455
8.8	-0.00212405975130615	0.00939974890234796	1.30141440847801E-07	-1.25533714850698E-06	-1.035350434199E-06	9.78545111362042E-06	0.978221679973066	-0.205022621472971
8.9	-0.00126010567681239	0.00980923400982976	-3.68674879896305E-06	2.27962855259993E-06	4.85711108058533E-06	-1.78230930472711E-06	0.978593520764459	-0.207299159533414
9	0.000351645259839055	0.00930722196067452	-1.89646703241547E-06	4.88330640491309E-07	-3.1590492859262E-06	-1.05737737117035E-05	0.978829698013217	-0.209917107135129
9.1	0.000476677807488502	0.0080301780733941	5.25959429646181E-06	6.23554882903004E-07	9.12585634698731E-07	3.88342868537752E-07	0.978717510674784	-0.212531002843195
9.2	0.000494435271166597	0.00749610092389021	-8.71947947821787E-06	-4.64314397529022E-06	-8.46532815634159E-07	-6.15018662042569E-06	0.978257256321176	-0.215421555785346
9.3	0.000459418092142862	0.00705693161189143	1.5184735879984E-07	6.23628232197759E-06	4.66646150683225E-06	-2.1732664369202E-06	0.977697049433395	-0.218188263667963
9.4	0.000474156648234806	0.00696076593334104	-1.96859235678196E-06	5.89087003120547E-06	-1.05805852400657E-05	7.7034782235329E-06	0.976650056949172	-0.220887019649978
9.5	0.000848310810114997	0.00632769559875704	3.25297663558512E-06	-7.56820438359241E-06	3.7155704720218E-06	-2.72317624648696E-06	0.976862970569387	-0.22286481901327
9.6	-0.000174530038872322	0.00604084303767613	4.48370781117404E-06	5.64039568762507E-06	-6.95767217151437E-07	7.10647300265464E-06	0.976878229747654	-0.227022235985274
9.7	-0.000496346721661849	0.00663094442047674	-2.59636740486901E-06	-3.98000355199805E-06	3.76379950806764E-06	-7.54742715658549E-06	0.976046514834473	-0.229999917488625
9.8	-0.000521046967785328	0.0071142720644872	-5.02931147164977E-07	-4.24652609131663E-06	6.31317121050078E-06	9.3330315270598E-07	0.975808202525725	-0.231966144163722
9.9	-0.00031804123142852	0.00775557381823786	-2.70570274331912E-06	-6.16383901599633E-07	-8.60534587918501E-06	5.47560829154527E-06	0.976377085847149	-0.232953659303664
10	0.000642800991947892	0.00762923857029631	4.41896678309251E-07	-1.76683698014566E-06	-3.07476928444176E-06	-8.06596936838452E-06	0.979199658664183	-0.236773353588844
10.1	9.73701403275134E-05	0.00714691806181572	2.24952316365694E-06	4.82100935261429E-06	-3.16276824090854E-06	9.92800304548878E-06	0.976787708902254	-0.241253844751773
10.2	-0.000150026418343152	0.0075824946342725	-5.39226404328125E-07	-1.05968380516119E-06	-1.21040267322594E-06	-3.14798842084112E-06	0.975185799119259	-0.242682214953884
10.3	-5.78090198392081E-05	0.00806152888169017	1.14205247659965E-05	-2.92556117754599E-06	1.01639383921744E-05	-4.8601164643784E-06	0.97440972536673	-0.244377999860127
10.4	0.000395689819057702	0.00860370759673017	-6.38990365582008E-07	2.1686142280924E-06	3.06623658121588E-06	-2.2017902415723E-06	0.974199834658559	-0.246563243520344
10.5	0.00142139642045981	0.00824933793950107	-6.17147989286121E-06	4.68839027459555E-06	1.58625671568265E-06	4.34918734159943E-06	0.973867467013434	-0.25072765643666
10.6	0.000925169290255793	0.00780454781223582	-7.17436651738093E-06	1.07866575065591E-05	7.09283265332186E-06	4.31156684439498E-06	0.972411340427239	-0.253795300455191
10.7	0.000732766877918743	0.00828835727709341	-3.24717736869567E-06	1.58397674874048E-06	-5.42214140907175E-06	3.20438463684289E-06	0.971665357315701	-0.257083860332381
10.8	0.000840043264853857	0.00894807361798816	-1.94232402663859E-06	5.04683956259116E-06	8.56297444460716E-07	-3.23828905103263E-06	0.970622698920863	-0.25986850693061
10.9	0.00136092682796538	0.00985019058850587	-5.83816313036779E-06	-1.06261035329565E-05	5.01105134493055E-06	1.08088203839145E-05	0.970057554182575	-0.26222518120824
11	0.00282525978202648	0.0098833290903349	3.002362465484E-06	2.63134830635777E-06	7.61966963589296E-07	-1.13459880200349E-05	0.969564548645961	-0.26482651989681
11.1	0.00289410190772831	0.00970839481575293	3.89836434483749E-06	1.46125917312423E-06	2.38295777525368E-07	-7.44422969017826E-06	0.967711131364676	-0.267310640458825
11.2	0.00357122336261873	0.010115020311426	-4.46405804679802E-06	-1.97616915474982E-06	-7.40750082109399E-06	-4.87371055786754E-06	0.965854153465302	-0.269104382224344
11.3	0.0046073480301587	0.010205008923089	6.45213252363948E-07	-6.43846608108236E-06	3.85384072586852E-06	1.42538344082465E-05	0.963999314604961	-0.270420540098498
11.4	0.00561611879704215	0.0100905577836004	-5.12454902802779E-06	8.2259812667049E-06	-1.45387922800665E-06	4.11415391830995E-06	0.961920704116526	-0.271625472832004
11.5	0.00700459338850227	0.00899128942613097	4.57580824515402E-06	8.14305445611761E-06	-9.35381827728085E-06	1.61393575675016E-06	0.962940994669395	-0.272865900743496
11.6	0.00681613436725406	0.00773392120303178	-3.87107520574767E-06	1.42578604101403E-06	5.14975407039934E-06	8.19175645028475E-06	0.962287002902443	-0.278220103537668
11.7	0.0069278730572942	0.00720024659201849	2.31390142338395E-06	1.06082255620067E-05	5.29388077687313E-07	-3.68255720226229E-06	0.960274620195426	-0.282083689276013
11.8	0.00717958476203667	0.00659442628381622	1.46220664957246E-06	4.49002899524497E-06	2.29017017481487E-06	4.56059691842732E-06	0.958917034740955	-0.285073454250359
11.9	0.00780896191479356	0.00594721019078132	7.55518015275816E-06	1.06169181408437E-05	3.91570583033567E-06	3.89798587317465E-07	0.960148484831863	-0.286730848106838
12	0.0081232832063217	0.00440628367839547	2.34410679554924E-06	-5.22034620144329E-06	-3.97143524734087E-07	1.77075285241714E-06	0.962744994516296	-0.29252944927668
