# GHZ S RI R 50
0.2	0.000882450538935085	0.00239305497040951	4.79415304690427E-06	-2.98507433041346E-06	-1.37284055320976E-05	1.31203005091099E-05	0.999654827566008	-0.00694231890976374
0.3	0.00135212660803769	0.00164805006584278	2.86590168261587E-06	6.62706060057412E-06	-1.66347721883987E-06	-9.32180737907351E-06	0.999587260464519	-0.00987851189140714
0.4	0.00163650897533316	0.00115846627861017	-1.86317461126824E-06	-4.01660290614756E-06	-9.01704947119715E-06	4.40507851815522E-06	0.999593071241701	-0.0126131765737024
0.5	0.00176326932420034	0.000762535806564396	-5.35894492225805E-06	3.26482991572162E-06	-2.12549704766645E-06	6.75896405138392E-06	0.999264788325938	-0.0157879516266357
0.6	0.00187610782750214	0.000380852151097562	-1.39278469553999E-07	2.80611661605168E-06	-5.8155054499396E-07	-1.3403925850879E-07	0.999258108541603	-0.0186069553686291
0.7	0.00181532691381043	9.26278169525209E-05	8.81044577906789E-08	2.21943341058773E-06	4.9039556782085E-06	-3.40247381530526E-06	0.998946784965206	-0.021496354736012
0.8	0.00179652862718309	-0.00013540354001682	4.52944579683179E-06	8.25964886007296E-07	2.74462856457119E-06	2.00083934643697E-06	0.998731623373362	-0.0236234965168333
0.9	0.00169643770960728	-0.000344689972257933	-1.51844182662242E-07	-4.21947302019085E-06	-3.41885654978353E-06	-3.11037251041835E-06	0.998669222415539	-0.026008279768575
1	0.00156464162224031	-0.000500493714358303	1.06058653783859E-06	4.29317052886786E-06	3.3281370693012E-06	9.33672356221977E-07	0.998455886820615	-0.027688099862312
1.1	0.00143641818803799	-0.000748371891995165	9.04524841384278E-06	5.16968919953593E-07	-3.57908015711292E-06	-4.98804381380877E-07	0.998106328022167	-0.0298536996672138
1.2	0.00112356430153044	-0.00135104092712272	3.76091825007536E-06	-1.20070706943146E-06	-4.09765548141806E-06	-2.43705046116647E-06	0.997340576274506	-0.0309809272248191
1.3	0.000497652064463287	-0.00226101624634991	-7.62330835595228E-07	-1.42661797193305E-06	-2.5912447728748E-06	-8.70634762640758E-06	0.997358437056547	-0.0319804679080074
1.4	-0.000308417580165363	-0.00322779360527842	1.67113899145677E-08	3.44784976243217E-06	-4.2849699260153E-06	-4.12460089464749E-06	0.99706508571011	-0.0342270104211185
1.5	-0.000837896402548064	-0.00366061631250955	-1.29459881328535E-06	4.43107199160274E-06	6.54694154463337E-06	-7.41932015286494E-06	0.99745329535605	-0.0376689404732157
1.6	-0.00114490628779574	-0.00373580706926296	1.62930743127401E-06	-4.90335462321856E-07	4.23845384746423E-06	-5.3975993475996E-06	0.996917572312156	-0.0409690637124609
1.7	-0.00131724032934565	-0.00359023059050079	5.34161172787183E-07	3.95730904545162E-06	-8.2831609267444E-06	3.13547277648587E-06	0.997194856862984	-0.0433192048343509
1.8	-0.00141293512430199	-0.00335377141078774	1.83320736494024E-06	1.07731871060976E-06	5.64381246352303E-07	-1.76234053363421E-06	0.997164986611534	-0.0459256769056013
1.9	-0.00148826310120029	-0.0032072508226951	3.23779551989914E-06	3.01619510681265E-06	-1.84270245980236E-07	-2.33027640897517E-06	0.996982747847049	-0.0480599000886185
2	-0.00150632297221617	-0.00307157942923644	-1.72720108322675E-07	2.00498074277654E-07	-1.21633350235654E-05	5.42169164857179E-06	0.996571822670083	-0.050552387712456
2.1	-0.00152784227033281	-0.00319950568940987	6.67385536164053E-07	-1.38296834321586E-06	1.38139828445205E-05	4.95763859328051E-06	0.996439583254723	-0.0528117502434141
2.2	-0.00178135155185787	-0.00332607911597681	1.64337528158938E-06	-1.51806615094866E-06	2.68192005949163E-06	-6.21262885067148E-06	0.996392432063863	-0.0551744727826355
2.3	-0.00219226125898794	-0.00343678122787344	-1.68996623768967E-06	-3.42535380071273E-06	-1.79405777916382E-06	-4.59002207228743E-06	0.996086097511577	-0.0569405325984953
2.4	-0.00272782809310908	-0.00345798276607167	-1.20621998241651E-06	-4.39926009545988E-06	3.04651032911231E-06	1.08425042805169E-06	0.996077411316768	-0.0600123077743652
2.5	-0.00327959936554479	-0.0032443973794605	5.38517241654503E-06	5.66422912910707E-06	-2.59674046432584E-06	1.61460718117442E-05	0.995646150821333	-0.0622573790096121
2.6	-0.00362299265066058	-0.0029956347569653	-2.27477991185386E-06	2.71216417362218E-06	4.31613650317158E-07	-4.31057128635192E-06	0.995603500163135	-0.0650128164218056
2.7	-0.00383260535192767	-0.00271814711810028	-2.40752233014884E-06	-3.63511281583313E-06	2.15335897554228E-06	-2.5709324749879E-06	0.995248010377207	-0.0678973047730794
2.8	-0.00391108059779034	-0.00247340674794674	4.0023426648076E-06	2.31012028528908E-06	9.82998653234731E-06	-6.90930957401294E-07	0.995446414223791	-0.0698625515838704
2.9	-0.00385604831154608	-0.00228179362422222	1.28789917066096E-05	7.05571463111962E-07	2.43582100439201E-06	-1.17152715119243E-05	0.995211888272468	-0.0719340047157354
3	-0.00368274768940893	-0.00217099012378852	-3.85264933552115E-06	1.04793159427161E-06	-4.1455229256191E-06	-1.59678802786116E-06	0.995036475845013	-0.0744832415951578
3.1	-0.00352733454522619	-0.00229615156909924	4.77591235286235E-06	-9.84319352439907E-06	1.06819419641084E-05	2.40672782003384E-06	0.994659098123038	-0.0764620345933744
3.2	-0.00360679346009456	-0.00244996904231338	-5.37164272043822E-06	-7.40599416476667E-06	1.56354543177946E-05	5.38089143634917E-06	0.994374325524138	-0.078246341474404
3.3	-0.00379518567343632	-0.00259528900339133	-8.79001663769577E-06	2.54715080182129E-06	-8.56439548048985E-06	-1.73770957290811E-06	0.99413317854887	-0.0815001308727209
3.4	-0.00416076240032133	-0.00266691798072214	9.05521393573441E-06	-7.56285480534652E-06	-7.34210929153569E-06	4.23628595293443E-06	0.994028035406251	-0.0835305448353705
3.5	-0.00450894624302139	-0.00262503865166853	3.16292447825406E-07	-5.31917507582296E-06	-4.4003239502319E-06	-8.92342547742703E-06	0.993626614563106	-0.0863336243710014
3.6	-0.00489858109966876	-0.00260436502088847	4.07045331543309E-06	4.89641849314719E-06	-7.10198525590452E-06	8.98863904390914E-06	0.993233529267173	-0.0886536975647001
3.7	-0.00539325791006846	-0.00239946240552027	1.52668996672777E-06	-4.52383367419122E-06	-5.10014010875469E-06	-6.58160442764825E-06	0.99310711351197	-0.0911631152183515
3.8	-0.00579999665347314	-0.00200954182394569	7.2741917329256E-06	-5.19189237905233E-06	-5.87541717540607E-06	-2.41697816324395E-06	0.992838392619307	-0.0930608858306735
3.9	-0.00600174831514033	-0.00146734203243141	-4.02663466533757E-06	-3.5101032186719E-07	-2.52912214953107E-06	1.13146608273736E-06	0.99287243480359	-0.0960177836338846
4	-0.00587260366274002	-0.000922425181653318	-3.38270813059467E-06	-8.39116279298864E-08	1.19926934527076E-06	8.66677629110481E-06	0.992883417004812	-0.0972838890020833
4.1	-0.00559832835626201	-0.000715179412787658	-2.89835817354232E-06	-3.86150176427903E-06	5.87696898298454E-06	3.0399006954733E-06	0.992956014362038	-0.0992007095030274
4.2	-0.00547221038917225	-0.00063939853348105	-7.72488831003188E-07	-2.15717615474839E-06	5.70012402300537E-06	-1.84169228984784E-06	0.992576532438746	-0.101870049194271
4.3	-0.00541430193775692	-0.000597417166670216	-5.1178674909593E-07	3.23476746192085E-06	2.12900716821981E-06	1.78058222759449E-06	0.992604937008738	-0.103961021190939
4.4	-0.0055393864963808	-0.000565583596977444	2.57580816769413E-06	3.4422695610152E-06	7.18138824791973E-06	3.91284674525925E-06	0.992367248284652	-0.106506184548809
4.5	-0.00562913124234772	-0.000360225076034022	-6.47114662310311E-06	-2.29774834218519E-07	-8.57894757882765E-06	-2.11246101323569E-06	0.99223955101409	-0.108867601512464
4.6	-0.00580673904328953	-0.000360546930315015	-9.9407132338205E-06	-9.22296536607029E-06	3.23481582548045E-06	-2.72943474633224E-06	0.991815767151179	-0.111822694880964
4.7	-0.00609005006323829	-0.000198124481959517	1.25818149053129E-07	1.86456327663182E-06	6.05967810526168E-06	-6.73112472593786E-06	0.991626576998453	-0.113889457992541
4.8	-0.00635500536192825	9.4195728729473E-05	-6.39268148758092E-06	2.07777842853588E-06	7.8568988484972E-07	-1.27439323131826E-05	0.99120327860609	-0.116383397398387
4.9	-0.00647488411126696	0.000475617734018574	-3.42621141993843E-06	8.14031214218315E-06	5.62240040722769E-07	9.37430905978878E-06	0.990787032805334	-0.11820095728551
5	-0.00627791890568533	0.000848223173756988	9.64166313649404E-06	-4.05928139942199E-06	-6.93505071180961E-06	3.57578639650348E-06	0.990657450096209	-0.119828496067944
5.1	-0.00599424684968319	0.000892190725571238	-3.65873280187604E-07	-3.25158887763908E-06	-3.8732960063824E-06	-1.7930785378707E-06	0.990590405648795	-0.121242943298205
5.2	-0.00583775682564004	0.000945809301312916	-1.06614917672138E-06	-4.48658620781144E-06	8.78422433759615E-06	5.57860902741768E-06	0.990445605749951	-0.123409635865592
5.3	-0.00567845635912505	0.00101586862621281	2.2850646277511E-06	6.79323221807426E-06	8.79345101434275E-06	3.13517068469699E-06	0.990400245667199	-0.125810417607226
5.4	-0.0055680508268952	0.00110507833695471	2.70678867481465E-06	-3.14179707115474E-06	-2.67487220495285E-06	1.53454980886235E-07	0.990465429188647	-0.128895876231505
5.5	-0.00541083266988637	0.00124805543041749	2.10828980863595E-06	9.31881853316782E-06	-3.92247740182319E-06	-5.03418032902621E-06	0.990065814995155	-0.131927789049608
5.6	-0.00548283440200059	0.00112092041339029	-5.85622115560416E-06	-1.13433716050941E-06	4.87294490278107E-06	1.94467703645341E-06	0.989717310728399	-0.134433754200259
5.7	-0.00592261290539071	0.001317494533191	3.33813777444275E-06	-1.42311873064952E-06	-5.04925662398378E-06	-4.29462982969641E-06	0.98942900385912	-0.136896055634123
5.8	-0.00632795455810605	0.00181845005289108	-2.05517453007496E-06	-4.74898839783337E-06	9.46988766989847E-07	-5.82424616187869E-07	0.989300845295286	-0.139040459332073
5.9	-0.00665548298236583	0.00266183775862335	-3.88202747184627E-06	6.20154419471848E-07	3.86526530406761E-06	1.24991545444103E-06	0.989180929766137	-0.141185791485657
6	-0.00651499705080138	0.00379455551282189	-5.94162542588569E-06	5.0549041413192E-06	-1.48645988567816E-06	1.97077548141741E-07	0.989309557831546	-0.142830902988304
6.1	-0.00582174118168657	0.00439003097456405	-5.94086750979738E-06	-4.69856243617706E-06	-4.01175391877977E-06	4.36806795407133E-07	0.989561894891725	-0.144703175258268
6.2	-0.00520567022583921	0.00443490080172796	2.82772842297575E-06	3.12588475570308E-06	1.05493458119621E-06	7.22409034811774E-07	0.989371714220779	-0.146666769123914
6.3	-0.00480523587550816	0.00406052540895717	1.6418551691628E-06	-7.5108895711971E-07	-1.31584912311647E-07	1.37703961060553E-06	0.988788732391251	-0.149177951696731
6.4	-0.0049055628721887	0.00364471987487961	-5.19425928864114E-06	-5.61738496360408E-06	3.82648910182737E-06	6.9087404745784E-06	0.987858631774451	-0.151486244793818
6.5	-0.0049071938999175	0.00348871599879213	9.0718498503257E-06	-2.59319492399577E-07	-7.32860059803035E-06	-8.89617650505095E-07	0.987319130265976	-0.154171848766558
6.6	-0.00508698305178286	0.00328304752975196	-1.48798833013611E-06	4.67618983757788E-07	3.36604246412729E-06	-9.38332362296183E-06	0.986572350029117	-0.156600045986464
6.7	-0.0052413316803645	0.00349036818933345	5.04708752462215E-08	7.74961940489601E-06	-4.96148858867973E-07	-6.08433502677906E-06	0.986154819512888	-0.158521686194752
6.8	-0.00525898160381788	0.00376951453784622	4.24649399982088E-06	1.65628427936808E-06	2.14236630541128E-07	-5.23396831509049E-06	0.985859885262517	-0.160601710299568
6.9	-0.00529464916707112	0.00415202159477751	-7.55352226678787E-07	2.47650553215698E-07	5.75907873192501E-06	-2.67863051637859E-06	0.985591407586414	-0.162637354759966
7	-0.00495304171939542	0.00468951631814958	8.02413799676016E-06	-4.7543186845802E-06	4.36026811438531E-07	-3.02032485031268E-06	0.985158551624262	-0.16448558179972
7.1	-0.00475491543746494	0.0046466028235614	3.846696048048E-06	2.04470660360946E-06	7.71956769023405E-07	7.23167635953326E-06	0.984570842708459	-0.166381477412347
7.2	-0.0049029005316205	0.00481330695005234	-2.44952267680464E-06	3.69254156577479E-06	-1.33262381689313E-06	-3.82863569263047E-06	0.983804874766246	-0.168123087409771
7.3	-0.00516953211201445	0.00511022510191987	3.44047146973551E-06	-4.94421141683839E-07	-2.45079706431689E-06	-1.91782796690687E-06	0.982701676124032	-0.169895684775992
7.4	-0.0056640587935967	0.00556627816348495	-6.18985419256463E-06	-2.69581264309011E-06	3.77036898495953E-06	2.44980935756313E-07	0.981529684582689	-0.172206136711534
7.5	-0.00589128392083475	0.00650199828338405	6.74663646578621E-06	-6.43253413883174E-06	-2.4759380975146E-06	8.00347756647451E-07	0.980306268853486	-0.174195138815496
7.6	-0.00565959139649242	0.00704078941262581	3.47832222537917E-06	5.19923894071304E-06	-1.0232684965212E-05	4.91800668485338E-06	0.980006738813421	-0.176979712524985
7.7	-0.00555263048095433	0.00751311325587443	6.01348568868893E-06	1.09293011131757E-05	3.39350827959866E-07	-1.1344519840397E-05	0.979665993277284	-0.18007627778091
7.8	-0.00506961164637831	0.00777557485215287	2.15268653893106E-06	9.84544817436175E-07	-3.10957589265792E-06	8.80781771786279E-06	0.979551711363538	-0.183170512413617
7.9	-0.00440680317505264	0.00784841925545359	2.55280785657164E-06	-2.30835774298456E-06	3.68372356340077E-06	3.46620231402292E-07	0.979504308253274	-0.186215930467968
8	-0.00344595300781599	0.00778073484071031	-2.81441611822155E-06	1.32415481454812E-06	6.87851046797903E-06	-1.8463620771463E-06	0.979495435968183	-0.188838271100692
8.1	-0.0028739448102146	0.00714992067358477	-1.79284519038155E-06	7.53478319892089E-07	-3.70797432493748E-06	-1.25885257439549E-06	0.979398110372058	-0.191944775882855
8.2	-0.00263064048860241	0.00686030670756487	-8.00451969225982E-07	6.33576310375453E-06	4.87397793146688E-06	4.36022477632671E-06	0.979109128141223	-0.19441738953761
8.3	-0.00239864069148892	0.00667750973606728	-8.462898789695E-07	-1.4220153692829E-05	6.82502178324433E-06	5.43348738100401E-06	0.978684406883125	-0.197252731026014
8.4	-0.00231286263606711	0.00665439737001877	3.7631203189546E-06	-3.4285988702515E-06	-6.97380154391246E-06	-1.22241644720519E-06	0.978083451769313	-0.200061486946318
8.5	-0.00193644352481739	0.00680341647683017	4.67488338674313E-06	5.87965398233771E-07	8.41869002689629E-06	-6.83143915587713E-06	0.977501897602296	-0.203015289609927
8.6	-0.00174413318569823	0.00646744223821501	-3.27125111759484E-06	4.11551139290321E-06	1.00289840494605E-06	1.10983866909213E-05	0.97685537529006	-0.205876853058021
8.7	-0.00184282600779054	0.00638543736244905	2.68567342332388E-06	-1.99855856801463E-06	4.79126592315483E-07	-5.53757285270097E-07	0.976359640284309	-0.208550829787173
8.8	-0.00190605849312048	0.0065314266023495	1.22742299955271E-07	-1.25388515710693E-06	-9.7763702235297E-07	9.77425205552748E-06	0.975788147032059	-0.210861887156749
8.9	-0.0018739762887357	0.00680575309474877	-3.66886222232538E-06	2.29319761395997E-06	4.83944705066781E-06	-1.80246105830436E-06	0.975635935113662	-0.212869198762945
9	-0.00135214318753553	0.00719751053358322	-1.89283996513987E-06	4.96870043605454E-07	-3.20635264328968E-06	-1.05515067782498E-05	0.975386363982937	-0.215110526124753
9.1	-0.000671464787796504	0.00694137571123894	5.2582676399406E-06	5.9371395648482E-07	9.1391462323606E-07	3.82909693666133E-07	0.975111626233971	-0.217179948437066
9.2	-0.000170602934228021	0.0066226537705572	-8.73514443252102E-06	-4.58679338702042E-06	-8.80997570522329E-07	-6.13741234328266E-06	0.974720706932424	-0.219810648498663
9.3	0.000258776737699778	0.00617947099921389	1.88647708731952E-07	6.22577424900556E-06	4.64636734788498E-06	-2.19763060332448E-06	0.97435184369439	-0.222527331522849
9.4	0.000469865094535992	0.00567360324568439	-1.9288429588151E-06	5.89450026973331E-06	-1.05168034841692E-05	7.75830494392788E-06	0.973551166061165	-0.225793398123121
9.5	0.000680635023359838	0.00534850867530832	3.18632216151457E-06	-7.57687478379826E-06	3.68591596835398E-06	-2.74627353780665E-06	0.972506208947294	-0.22856787495581
9.6	0.000414228531366191	0.00470647420658259	4.50661956043742E-06	5.58319330321783E-06	-6.40024225853707E-07	7.08154023397492E-06	0.971841171937708	-0.23169873033699
9.7	-0.000146267996552515	0.00458558229619892	-2.61057393654171E-06	-3.94339935559928E-06	3.69500271752736E-06	-7.53632786195783E-06	0.971023308663878	-0.234427663979995
9.8	-0.000732068014854487	0.00479588705709823	-5.28149906087395E-07	-4.22134482676967E-06	6.28674406882554E-06	8.87147041467138E-07	0.970508753350312	-0.236665162696914
9.9	-0.00124226986143953	0.00546737954548363	-2.6936928141128E-06	-5.94079936788672E-07	-8.51602414409862E-06	5.50189173372488E-06	0.969580478591548	-0.238359587856325
10	-0.00110848096002833	0.00644384556368011	4.28704223690223E-07	-1.75552830045346E-06	-3.09537247675976E-06	-7.98623156405648E-06	0.96937542084939	-0.23935016576093
10.1	-0.000707695158127953	0.00687316501402203	2.25463880840157E-06	4.77693048065582E-06	-3.09687359969505E-06	9.87133357354005E-06	0.969044424848162	-0.241155521347768
10.2	-0.000300759431817379	0.00724338918870165	-5.3988464221462E-07	-1.04956479314127E-06	-1.2152291255392E-06	-3.1196321178206E-06	0.968525310834174	-0.242540739762995
10.3	0.000145476203199037	0.00745216288442806	1.13158065958852E-05	-2.94675350623424E-06	1.00618392019247E-05	-4.86056762107421E-06	0.967867392830821	-0.244365949774249
10.4	0.000488255074377721	0.00765335416837181	-6.26962777304796E-07	2.15041303662152E-06	3.03172094371819E-06	-2.19014643037246E-06	0.966814026744419	-0.246410833795487
10.5	0.00117072149406298	0.00800525541033045	-6.11101494552721E-06	4.65276310732548E-06	1.57659722673487E-06	4.30839534232796E-06	0.965850121572475	-0.248741089748132
10.6	0.00184042267028075	0.00783943708840529	-7.10024162791868E-06	1.06968009095577E-05	7.03337218998287E-06	4.26645676272683E-06	0.964931063564557	-0.25086020240497
10.7	0.00241522760445107	0.00773354303156921	-3.21616140890248E-06	1.56963166511972E-06	-5.37024172826489E-06	3.1751407000067E-06	0.964446583838009	-0.253176086141869
10.8	0.00292085658981236	0.00748021949609129	-1.92714977142105E-06	4.99652794383135E-06	8.50340205474352E-07	-3.2062886723904E-06	0.964026621920559	-0.255232554221904
10.9	0.00314604810148042	0.00735570931062991	-5.76202618620311E-06	-1.05348864686977E-05	4.94252561201902E-06	1.07142902372239E-05	0.963627107209624	-0.257246775026443
11	0.00382270328431296	0.00738886498147943	2.97080618251709E-06	2.61591870538843E-06	7.81629637995465E-07	-1.12478849348754E-05	0.963090653280095	-0.258723559628553
11.1	0.00429896902837403	0.00683350360421611	3.86251841265291E-06	1.456343795456E-06	2.5054288293071E-07	-7.38067025300504E-06	0.962714829306513	-0.260322720372057
11.2	0.00451284451443497	0.0064238941393197	-4.42138543109039E-06	-1.96905912829071E-06	-7.33317299211703E-06	-4.84822765907229E-06	0.962126173485725	-0.262260049405788
11.3	0.00469752240067612	0.00601740379973202	6.56434304278908E-07	-6.38346292354127E-06	3.78523526648026E-06	1.41456569959221E-05	0.961589084073523	-0.264441951752007
11.4	0.00466800966814433	0.00573495052682262	-5.10744241139777E-06	8.15180297562676E-06	-1.45356390290262E-06	4.07988130788909E-06	0.960309923412645	-0.267445052746554
11.5	0.00494612044051442	0.0055899824241881	4.52995220856545E-06	8.08362704165121E-06	-9.28131841645834E-06	1.59022283644309E-06	0.958801916184012	-0.269895648858882
11.6	0.00501240255320601	0.00489455052996298	-3.83876439821388E-06	1.40402435774966E-06	5.08414123270807E-06	8.12816563789732E-06	0.957741310910565	-0.273274469987681
11.7	0.00472900506530582	0.00451657944153606	2.25890957350626E-06	1.05210356637295E-05	5.3658400334611E-07	-3.64797606727301E-06	0.956460615152075	-0.276894043628187
11.8	0.00450381043422876	0.00447887118607269	1.43300142830371E-06	4.45716542163397E-06	2.25363738616998E-06	4.53021602941269E-06	0.955046224821349	-0.280373796347435
11.9	0.00447705210076856	0.00478319332231779	7.44434911551523E-06	1.05526740477408E-05	3.87907983187861E-06	4.02252621904039E-07	0.953777979311578	-0.28219784939436
12	0.00514359058603485	0.00509349601391266	2.35301483858782E-06	-5.15459231560178E-06	-4.04083095665258E-07	1.75088739651827E-06	0.953476545616762	-0.283314608300918
