# GHZ S RI R 50
0.2	0.000667781408123789	0.00269519738848007	4.79338537059875E-06	-2.98601711340239E-06	-1.37252307681701E-05	1.31228760776423E-05	0.999458200343451	-0.00681267502464962
0.3	0.00110851014682657	0.00190014878157229	2.86592849812052E-06	6.6267526567771E-06	-1.66360413816772E-06	-9.32142237259665E-06	0.999353328236519	-0.00960889482324897
0.4	0.00145794055673809	0.00141259796303234	-1.86271977823695E-06	-4.01628415368681E-06	-9.01634787440701E-06	4.40403331043702E-06	0.999343001146574	-0.0122695674995203
0.5	0.00156481923532958	0.000947892081590825	-5.35870807101381E-06	3.26255435415979E-06	-2.12698794139432E-06	6.756854478921E-06	0.998821958914595	-0.0152858548701958
0.6	0.00175017523396776	0.000716785683953488	-1.40218596733136E-07	2.80589516803067E-06	-5.81469090451984E-07	-1.34227559179063E-07	0.999004918561965	-0.0178214406686823
0.7	0.00186856748380108	0.000380795843978866	8.75043044948329E-08	2.21916939314758E-06	4.90422324540987E-06	-3.40073237457592E-06	0.998832471887034	-0.020755053012311
0.8	0.0019358300159638	6.38028650965925E-05	4.5282222584451E-06	8.26994178584134E-07	2.74348565837347E-06	2.00113097656275E-06	0.998666937948888	-0.022920391879376
0.9	0.0019094676825146	-0.000207901059623031	-1.50638659171403E-07	-4.21832426337726E-06	-3.41703479513301E-06	-3.11043693270396E-06	0.998707104371666	-0.0253553508328046
1	0.00177053963699654	-0.000528147303701369	1.05868381879732E-06	4.29209878813088E-06	3.32667486527033E-06	9.345530717542E-07	0.998492407716882	-0.0272300294374449
1.1	0.00149362448756841	-0.000534215095392149	9.04406008329864E-06	5.21282118780239E-07	-3.5784678950228E-06	-5.00480516855282E-07	0.998145837131896	-0.0291233559527028
1.2	0.00140228904356582	-0.000823706405204191	3.76228267220559E-06	-1.19897397425585E-06	-4.09718216199324E-06	-2.43967175589384E-06	0.997816658535169	-0.0299187945130763
1.3	0.00104780936297373	-0.00150407832497288	-7.61683985008331E-07	-1.42788975290433E-06	-2.58625636011777E-06	-8.7126183275186E-06	0.998329403487186	-0.0304708330749444
1.4	0.000478841950132386	-0.00242913576416878	1.32321223912296E-08	3.45021681885074E-06	-4.2837148526432E-06	-4.13175049450299E-06	0.998410001836982	-0.0323147511355907
1.5	-7.71413027470903E-05	-0.00309418775620182	-1.30023287875501E-06	4.43237290698779E-06	6.55905862115577E-06	-7.41671418348281E-06	0.998659152027002	-0.0358378228028121
1.6	-0.000347756262139115	-0.00336245962113671	1.63028778730587E-06	-4.88848802111353E-07	4.24513736735535E-06	-5.39496832877145E-06	0.997855363661966	-0.0392580661398636
1.7	-0.000592000628854647	-0.00358489471191756	5.304352886355E-07	3.95782378802153E-06	-8.28613857425335E-06	3.12767993511662E-06	0.997860674116946	-0.0419689184062887
1.8	-0.000846922465090792	-0.00360186080983694	1.83193727606632E-06	1.07877101099193E-06	5.65857016764251E-07	-1.76153969393478E-06	0.997572490908446	-0.0448887373657026
1.9	-0.00107229510706148	-0.00366125335723455	3.23482649917134E-06	3.01799855719802E-06	-1.82470316151501E-07	-2.3299189505189E-06	0.997230916411071	-0.0474226831980373
2	-0.00143349064594685	-0.00368560798002505	-1.72724841132361E-07	2.0030684347297E-07	-1.21594482637035E-05	5.41288516559965E-06	0.996079255651007	-0.050411703311378
2.1	-0.00161000131833074	-0.00360532565985553	6.6805562914784E-07	-1.38146747544692E-06	1.38003885305031E-05	4.96551190568026E-06	0.995558909632423	-0.0520601995039467
2.2	-0.0018714411179252	-0.00369120180349587	1.643832147594E-06	-1.51590960193445E-06	2.68582799521617E-06	-6.20722664084366E-06	0.995702679721075	-0.054275199043678
2.3	-0.00231257920970236	-0.00375955824318448	-1.68662614532885E-06	-3.42517016748301E-06	-1.78978434432333E-06	-4.58941701872528E-06	0.99549954858745	-0.0560391006437982
2.4	-0.00281891028803577	-0.00375125361502059	-1.202572932518E-06	-4.39808979729817E-06	3.04435003779035E-06	1.08589527107382E-06	0.995582192904484	-0.059161925604064
2.5	-0.00347844853981712	-0.00364819597969648	5.37820058594647E-06	5.66606526932194E-06	-2.60863849012422E-06	1.6136797733247E-05	0.995063945089978	-0.0615453312882868
2.6	-0.00397708713160003	-0.00317951109422849	-2.27591813356092E-06	2.70991840596498E-06	4.34312406289532E-07	-4.30908437864328E-06	0.994906399349395	-0.0642738651821401
2.7	-0.00417226375171055	-0.00273164671915376	-2.40499223706276E-06	-3.63485822072817E-06	2.15372509043327E-06	-2.56901116583782E-06	0.994394298597552	-0.0671494675224863
2.8	-0.00417334230097878	-0.00230802470333738	3.99958000099977E-06	2.31050958731539E-06	9.82556775190674E-06	-6.86947401172578E-07	0.994526719051119	-0.0689599120953851
2.9	-0.00392835344606669	-0.00204469168394566	1.28724151250212E-05	7.10308164005141E-07	2.43925238925886E-06	-1.17085813059078E-05	0.994474494389704	-0.0709205741826255
3	-0.0037086806352489	-0.00197737728141787	-3.85219414685014E-06	1.04600670307861E-06	-4.14384724860237E-06	-1.59821479814472E-06	0.99454169005767	-0.073520457016909
3.1	-0.00335338630619878	-0.00199831659118727	4.77781085112211E-06	-9.84094972478615E-06	1.06801889214126E-05	2.40909004228421E-06	0.994405676215441	-0.0754961635354805
3.2	-0.00321772576538669	-0.002298076342809	-5.36948516978355E-06	-7.40708153772039E-06	1.56333910191955E-05	5.38473994287323E-06	0.994425287661626	-0.0773291086410011
3.3	-0.00330295533792167	-0.00261702048204608	-8.79165867619182E-06	2.54430539461704E-06	-8.56452458038283E-06	-1.74084397146492E-06	0.994480069608126	-0.0806292912100669
3.4	-0.00359470189270116	-0.00289037788391461	9.06174508693816E-06	-7.56060084379576E-06	-7.34645412868919E-06	4.23388508416282E-06	0.994741819045221	-0.0827375111712698
3.5	-0.00409860878039831	-0.00307226938162992	3.18344009521603E-07	-5.32282395268224E-06	-4.40036557972483E-06	-8.93124151079646E-06	0.994538058735477	-0.0860031001331633
3.6	-0.00450027238070943	-0.0029448561984423	4.07181899089143E-06	4.89940201182344E-06	-7.10672789723576E-06	8.99215428254195E-06	0.993878099693705	-0.0883047430802334
3.7	-0.00489404184666359	-0.0028418008607603	1.52853129139323E-06	-4.52543811804933E-06	-5.1006951659125E-06	-6.58582726823753E-06	0.993911112166383	-0.0907173449216877
3.8	-0.00526803371061763	-0.00259512301789036	7.27934269763321E-06	-5.19251626354713E-06	-5.87773982261826E-06	-2.41984351552467E-06	0.993883433203685	-0.0927678065910184
3.9	-0.00546630299530987	-0.00226908132268938	-4.02905921926838E-06	-3.51613898300626E-07	-2.53077570255041E-06	1.13191240984436E-06	0.994127624602725	-0.0962686851931312
4	-0.00564747032354378	-0.00197193112364523	-3.38348126166088E-06	-8.32484048391623E-08	1.20128473861312E-06	8.66847199046857E-06	0.993359723365807	-0.0982794299019984
4.1	-0.0055645680197448	-0.00159558693085643	-2.89791173507717E-06	-3.86258552241796E-06	5.87706340114703E-06	3.04150418554159E-06	0.992996629121479	-0.0996286415879124
4.2	-0.00550282679619531	-0.00150158840746738	-7.72208435961395E-07	-2.15802662860332E-06	5.70232335924E-06	-1.84088988062616E-06	0.992688824014194	-0.102205739703862
4.3	-0.00554561736089089	-0.00142013293356586	-5.12673345435736E-07	3.23576287174718E-06	2.12934484200446E-06	1.78166025316452E-06	0.992656049458659	-0.104256432197053
4.4	-0.00571203753148704	-0.00134288794258627	2.57545939802968E-06	3.44385762472408E-06	7.18204300755457E-06	3.91586947060623E-06	0.992309163642733	-0.106705457343893
4.5	-0.00601986877019491	-0.00114805166298946	-6.47281531821909E-06	-2.34671493944412E-07	-8.57981008193533E-06	-2.11946673594286E-06	0.991975770674	-0.108697053847897
4.6	-0.00621374219810808	-0.000772809884211256	-9.94117064476845E-06	-9.2367723958749E-06	3.23911067578812E-06	-2.72905213099768E-06	0.991842503534472	-0.111273946194948
4.7	-0.00631319026061923	-0.000499237126261465	1.24798227254755E-07	1.86601465751002E-06	6.06816814893904E-06	-6.73247669209349E-06	0.991824290860729	-0.113244313969253
4.8	-0.00643941446908534	-0.00017390936887542	-6.398300795378E-06	2.07556216177939E-06	7.93523589352363E-07	-1.27523159747199E-05	0.991533287906393	-0.115633449188079
4.9	-0.00640562942987684	0.000158292629149903	-3.43364149015544E-06	8.14337213266975E-06	5.56594309919152E-07	9.38072235769902E-06	0.991321938332261	-0.117403188832631
5	-0.006318103402888	0.000420252465083135	9.65376555688784E-06	-4.05591428991871E-06	-6.94424483144575E-06	3.57398204762473E-06	0.991386545338452	-0.119149404379867
5.1	-0.00591839944382768	0.00065312535014466	-3.64927069079361E-07	-3.25508171598647E-06	-3.87655013801911E-06	-1.79649793974297E-06	0.991436412272457	-0.120646349517116
5.2	-0.00561195602895635	0.000587540525191324	-1.06556735421092E-06	-4.49116790514345E-06	8.79049292231158E-06	5.58693464576431E-06	0.991439071924757	-0.122932146566552
5.3	-0.00545113941841622	0.000524978124091882	2.28428925964818E-06	6.80027030653296E-06	8.80002907611552E-06	3.14163521679372E-06	0.991449554304118	-0.125461061443765
5.4	-0.0053702146268201	0.000497624076569998	2.7113439591854E-06	-3.14317084013504E-06	-2.67755585389699E-06	1.51955863807851E-07	0.991591246709791	-0.128594181239647
5.5	-0.00551705907914066	0.000617114205605903	2.10744921308533E-06	9.332533744111E-06	-3.9258665305381E-06	-5.04271009393502E-06	0.991128229523303	-0.131991699617347
5.6	-0.00538449925282264	0.00086592622045887	-5.86171932605307E-06	-1.13570396475627E-06	4.87747020010362E-06	1.94676358981669E-06	0.990422227771397	-0.134278435773434
5.7	-0.00549250137302	0.000936692372110799	3.34073606235261E-06	-1.42352235942353E-06	-5.0520360818509E-06	-4.29854703215855E-06	0.990317995102666	-0.13660134970919
5.8	-0.00572305142402789	0.00119352646663854	-2.05539111864259E-06	-4.75240607196251E-06	9.47708927092058E-07	-5.82575298623433E-07	0.990432089450701	-0.138932357499122
5.9	-0.00591949844075988	0.00167052673586847	-3.8841673004315E-06	6.2045110085982E-07	3.8673747113587E-06	1.25064600404624E-06	0.990493667742546	-0.141799049447314
6	-0.0061640273789565	0.00220494273822612	-5.93986664654011E-06	5.05384432283738E-06	-1.48606537380405E-06	1.97089703701691E-07	0.989341497277369	-0.144319003981121
6.1	-0.00598630611869837	0.00298846850814014	-5.93619970407017E-06	-4.70260534783067E-06	-4.01149296529632E-06	4.33527104939644E-07	0.988995374368086	-0.145245864860229
6.2	-0.00561189865641282	0.00326610861603844	2.82589144129492E-06	3.12950092702324E-06	1.05464807656372E-06	7.23605526090386E-07	0.988891479127658	-0.146867290987873
6.3	-0.00526628784797652	0.00329108464626823	1.64357537663328E-06	-7.50360072561851E-07	-1.32728137709023E-07	1.37790096530883E-06	0.988498651182774	-0.149046365576437
6.4	-0.00510905844989793	0.00307668886561957	-5.19542081620323E-06	-5.62426856161228E-06	3.82596126104098E-06	6.91592721389907E-06	0.987854392108852	-0.151325123847471
6.5	-0.00514743556901023	0.0029336926894821	9.07902361241886E-06	-2.51371451396884E-07	-7.33340885919633E-06	-8.96879323061359E-07	0.987277989643166	-0.153489149619008
6.6	-0.00498194910959592	0.00284705077119935	-1.49042503571505E-06	4.67495483173345E-07	3.37608298442663E-06	-9.3952548659293E-06	0.987605505656375	-0.156002510307305
6.7	-0.00507162611806547	0.00276341171448519	5.07258229898956E-08	7.76046511733593E-06	-4.96988004002046E-07	-6.09283929041571E-06	0.987316170173962	-0.158665916001663
6.8	-0.00519931094072343	0.00294367686643495	4.25212785236024E-06	1.65672659431432E-06	2.12613302189745E-07	-5.2402567852767E-06	0.986841234739937	-0.161159347259383
6.9	-0.00524196823866552	0.00322323049576639	-7.55950499916091E-07	2.48299615973976E-07	5.76321222671108E-06	-2.68434559046777E-06	0.986467603833384	-0.163585332324763
7	-0.00535166464898444	0.00365400433410409	8.02866220004599E-06	-4.7635730751438E-06	4.34597851970946E-07	-3.02337732193395E-06	0.985388855891237	-0.165797807360498
7.1	-0.00506596698924375	0.00413598118922548	3.8518115375229E-06	2.04320964255294E-06	7.7881269543336E-07	7.23734866008886E-06	0.984640386068233	-0.167217507595255
7.2	-0.00496274889235273	0.00430490498094378	-2.44763662453048E-06	3.69757021071688E-06	-1.33733032148542E-06	-3.83004685112203E-06	0.984056173049725	-0.168848655070116
7.3	-0.00512442863216393	0.00458494819893485	3.44196653308233E-06	-4.9800117191221E-07	-2.45403748370275E-06	-1.91657682400824E-06	0.98316021182602	-0.170474732107167
7.4	-0.00542140923322876	0.00498033674613979	-6.19640628726082E-06	-2.69297922167718E-06	3.7732810585631E-06	2.42246087693495E-07	0.982705178904667	-0.172697219462694
7.5	-0.00584282584750273	0.0055924690212237	6.74467175187452E-06	-6.449644232706E-06	-2.47751681838649E-06	8.04888671710711E-07	0.981827731464908	-0.176066730738317
7.6	-0.00567738967970365	0.0065890829716792	3.48789810199751E-06	5.19379591569459E-06	-1.02253578640444E-05	4.9366063520771E-06	0.980434439569434	-0.178722309232148
7.7	-0.00533674729786637	0.00706822346792269	6.02945322173073E-06	1.09185143505311E-05	3.21851664462049E-07	-1.13434473950427E-05	0.980090536893436	-0.181692457147125
7.8	-0.00473623054374724	0.00723918165122992	2.15389337333703E-06	9.80904884459548E-07	-3.09484455928671E-06	8.81127598605575E-06	0.979969884091848	-0.185093359132766
7.9	-0.00400577111314873	0.00708966158671059	2.5478315575467E-06	-2.31329767290663E-06	3.68402430813483E-06	3.39088134650848E-07	0.979743354358986	-0.188989156441568
8	-0.0034757151247044	0.00686650353771117	-2.80795916616215E-06	1.33041286576998E-06	6.86648829998445E-06	-1.86307723550524E-06	0.977970313147686	-0.192302370120158
8.1	-0.00267027658124838	0.00651970237298636	-1.78883467315191E-06	7.55622303138456E-07	-3.7047939320269E-06	-1.25026575275429E-06	0.977540670155734	-0.193900414989545
8.2	-0.00233748644786512	0.00598489872539265	-7.89609060167683E-07	6.32930233439135E-06	4.87484047549714E-06	4.34732831385176E-06	0.977633727743821	-0.196213167192532
8.3	-0.00220158342823857	0.00566111756227247	-8.67003639679434E-07	-1.42024812662476E-05	6.82544653542589E-06	5.41681841129018E-06	0.977230460295035	-0.199052122602665
8.4	-0.0021469109095899	0.00551093008951355	3.75306597129287E-06	-3.42916849956485E-06	-6.96587300651662E-06	-1.21087101353924E-06	0.976474225484046	-0.201782544382345
8.5	-0.00227217487375677	0.00553565730959144	4.66942710537945E-06	5.83908632884955E-07	8.40326398693443E-06	-6.82883126580443E-06	0.975681215635314	-0.204225971980366
8.6	-0.00203137233326595	0.00579044093910651	-3.26459938720348E-06	4.11526702143828E-06	1.01274401699772E-06	1.10882808731413E-05	0.975435054746652	-0.206761820116379
8.7	-0.00185065746889595	0.0057740106690284	2.68072728119829E-06	-1.99952306066244E-06	4.78024663403646E-07	-5.53729516186154E-07	0.975082640586372	-0.209410296519202
8.8	-0.00174288385357124	0.00590889420355038	1.21218599429921E-07	-1.25247061414498E-06	-9.6573377082481E-07	9.763248252035E-06	0.974585271383271	-0.211675514729834
8.9	-0.00147500793006105	0.00607303452433644	-3.66134796836228E-06	2.29301074024504E-06	4.83061578942513E-06	-1.80404283250863E-06	0.974522580613559	-0.213657997488934
9	-0.00114412716853901	0.00617385124752484	-1.89042850181121E-06	4.97213109111155E-07	-3.20776412053837E-06	-1.05378536219634E-05	0.974367580208822	-0.215979712800938
9.1	-0.000383066264427689	0.00610396458889569	5.25300577945888E-06	5.88800927185259E-07	9.13226940951672E-07	3.81750258555428E-07	0.97407049614253	-0.218109201011798
9.2	0.000178406588233671	0.00555180774626634	-8.72652229162338E-06	-4.57578041441121E-06	-8.8343066031981E-07	-6.12896598995833E-06	0.973596032356363	-0.220656533563958
9.3	0.000421326770440651	0.00497546855939184	1.89277074797233E-07	6.21795102025631E-06	4.64024280140338E-06	-2.19552437217602E-06	0.973190499374579	-0.22304302258573
9.4	0.000502994172947534	0.00443410683298653	-1.92916524042991E-06	5.88845490034154E-06	-1.05099657298461E-05	7.74753555809073E-06	0.972720100650971	-0.225893029173972
9.5	0.000289848876196024	0.0042291421222477	3.18526744794956E-06	-7.57497545082129E-06	3.68486866401054E-06	-2.74565777575068E-06	0.971790969567339	-0.229003804392876
9.6	0.000320918619502376	0.00405740277056787	4.50380879109074E-06	5.57669102328004E-06	-6.37543269787651E-07	7.07497331326485E-06	0.970822183140463	-0.231590508803614
9.7	6.04640367615508E-05	0.00384023302169907	-2.60680357003042E-06	-3.93897530038669E-06	3.69161265199614E-06	-7.52658433317985E-06	0.970324860863784	-0.233917355925859
9.8	-0.000360816150186587	0.00391672194395636	-5.25706324201526E-07	-4.21656414609743E-06	6.27890390012828E-06	8.88800595251977E-07	0.970235937974229	-0.236086719603728
9.9	-0.000686141378270313	0.00431340840261418	-2.69069819753288E-06	-5.94151564744764E-07	-8.50846943117022E-06	5.49388260099456E-06	0.969623064201469	-0.238422755988768
10	-0.000970373954962956	0.00487284353476478	4.28345874231872E-07	-1.75184905977065E-06	-3.08678579898962E-06	-7.97095903921645E-06	0.967865314990534	-0.239574285927437
10.1	-0.000695700308799393	0.00556518524488361	2.24362801111283E-06	4.77214548011755E-06	-3.10637261907107E-06	9.84982389430214E-06	0.968064307470434	-0.239811331521025
10.2	-0.000377111823078863	0.00591123353433147	-5.37603015644444E-07	-1.04937924913977E-06	-1.20884626341497E-06	-3.11843910977139E-06	0.968335607062737	-0.241240438972599
10.3	-5.18300833497622E-05	0.00629533357504563	1.13127064191359E-05	-2.92784875915395E-06	1.00624380459161E-05	-4.84227022524557E-06	0.968000456476859	-0.243255571392537
10.4	0.000456469090234578	0.00661031741052466	-6.29284178724188E-07	2.14791376909222E-06	3.03221594572565E-06	-2.1844725178199E-06	0.966963230806185	-0.245588948398167
10.5	0.000958323025012861	0.00689650003880551	-6.11517820308637E-06	4.63733547118838E-06	1.56705868935682E-06	4.30804835797133E-06	0.965711182400326	-0.247533856249939
10.6	0.00185041536565948	0.00696977789657206	-7.11491380391932E-06	1.06829991222056E-05	7.02491913180483E-06	4.2762100434688E-06	0.965238095110463	-0.249773245675126
10.7	0.00249669249641013	0.00672928117778885	-3.21617962158228E-06	1.56478097007316E-06	-5.37094846783253E-06	3.16671422596604E-06	0.964375612156611	-0.252272078307569
10.8	0.00295745981371493	0.00651679112039631	-1.93133527309664E-06	4.98911871341906E-06	8.53416080965452E-07	-3.20200818780967E-06	0.963529135404872	-0.254078912809883
10.9	0.00344314249934751	0.00627974754830309	-5.73925793063953E-06	-1.05311067661894E-05	4.92045797011474E-06	1.07090582438489E-05	0.963341921811315	-0.25572111676139
11	0.00377494845412303	0.00610090091145657	2.96370036985859E-06	2.61937237069321E-06	8.0173625344628E-07	-1.12377773820974E-05	0.962828614548442	-0.256922219397705
11.1	0.00441286912439772	0.00587710690794996	3.85804044013571E-06	1.46119039324321E-06	2.61325430040967E-07	-7.37586467773328E-06	0.96300371601763	-0.258147635842663
11.2	0.00479249637196442	0.00532212137902932	-4.4154655175393E-06	-1.97425942602677E-06	-7.32101386732833E-06	-4.85577634061669E-06	0.962980908352928	-0.260121673991421
11.3	0.00500616517383135	0.00481001146593238	6.6679087993649E-07	-6.37845084351794E-06	3.75907918639941E-06	1.4143381218505E-05	0.963028729645997	-0.262425388103233
11.4	0.00506014222948451	0.00437154809763464	-5.12324907565537E-06	8.13971656225438E-06	-1.461686984698E-06	4.07610313069526E-06	0.962609503708031	-0.265695145927918
11.5	0.00489706206653667	0.00408479039425442	4.52148170399571E-06	8.09313610585943E-06	-9.28754544366554E-06	1.57887841711786E-06	0.960960866136965	-0.269456391579624
11.6	0.00508522575341147	0.00381062638149527	-3.83905196579929E-06	1.39925798414301E-06	5.07334278846759E-06	8.13113769707784E-06	0.959285640573788	-0.272377792223331
11.7	0.00501138400381575	0.00337664910637007	2.24254571970203E-06	1.05203254622185E-05	5.41751385921724E-07	-3.64578578574019E-06	0.958425072858735	-0.275929549753239
11.8	0.00491531260058247	0.00324699984655308	1.42597058254211E-06	4.45895382486243E-06	2.24641479305085E-06	4.53326658785789E-06	0.957398759994817	-0.279904500412092
11.9	0.00502677892881132	0.00323754662971498	7.43633705515097E-06	1.05642281888068E-05	3.88011708317408E-06	4.06369944712953E-07	0.956147443210795	-0.28310662758974
12	0.00509242592746851	0.00326740827947234	2.35374218099217E-06	-5.15052576367224E-06	-4.04567091060555E-07	1.7496700096745E-06	0.953327990062331	-0.284638856333626
