# GHZ S RI R 50
0.2	-0.00651922233864829	0.0105246742821415	0	0	0.957846548206911	0.0581766502272639	0	0
0	0	0.0201866455030641	0.00462695956141662	0	0	-0.370507879010745	0.911050846321011
0.957846548206911	0.0581766502272639	0	0	0.0211742896176867	0.0423413978275535	0	0
0	0	0.569677841351569	-0.753954999417502	0	0	0.00164374436680116	-0.0314469178910674
0.3	0.00686323192214443	-0.0100031582250987	0	0	0.0337209993445102	-0.965133412134124	0	0
0	0	-0.00535106738599148	0.00162119272415625	0	0	-0.134028455479433	-0.974219692017548
0.0337209993445102	-0.965133412134124	0	0	-0.0140418098580171	0.00451943974581835	0	0
0	0	-0.92198436908274	-0.202357795996221	0	0	-0.0325931642965309	-0.0173736927362839
0.4	-0.00880445997815333	0.00785932854013971	0	0	0.948546141211387	0.0623572108081417	0	0
0	0	-0.0393988810992867	0.00079927623314269	0	0	-0.666867199579431	-0.726034584204524
0.948546141211387	0.0623572108081417	0	0	-0.0342544244574225	-0.0140380111201119	0	0
0	0	-0.234848804532108	-0.895906191264458	0	0	0.0214604574274647	0.0197379455693985
0.5	0.0112271873065365	-0.00441635839529016	0	0	0.128237225105602	-0.948888135597976	0	0
0	0	-0.0329421132977975	0.00475424857047026	0	0	0.963989034461529	0.207696742747677
0.128237225105602	-0.948888135597976	0	0	0.036589248277969	0.0166104851402529	0	0
0	0	-0.67907893081044	0.636350385589112	0	0	0.00495338906555241	0.00759475405404026
0.6	-0.0120505263061928	0.001497503138766	0	0	0.955167361421131	0.131976077222346	0	0
0	0	-0.00831480515559609	0.00605775899673543	0	0	0.913169951740003	-0.328921338636515
0.955167361421131	0.131976077222346	0	0	0.00489132315002801	-0.0197450511155981	0	0
0	0	-0.861922873359898	-0.345551118718632	0	0	-0.0054345268593747	-0.0072360759850769
0.7	0.0117788175634746	0.00110742086943006	0	0	0.109830668626692	-0.958037530420273	0	0
0	0	0.0226604952066111	-0.0109278825055292	0	0	-0.612138030885157	0.748246990440379
0.109830668626692	-0.958037530420273	0	0	0.00804214224212434	0.00980011530737121	0	0
0	0	0.0451194774065011	0.920901044792576	0	0	0.00230674955570656	-0.0130062076420334
0.8	-0.0105373606515959	-0.00421603369615377	0	0	0.95579898007714	0.11458649881209	0	0
0	0	0.0442480411470364	-0.0416987034661089	0	0	-0.121430741047672	0.961598634899112
0.95579898007714	0.11458649881209	0	0	-0.0226122947599728	0.0125927591472222	0	0
0	0	-0.812675715945807	0.448302393849272	0	0	0.00654476705728771	0.083391500384294
0.9	0.00774071846864291	0.0070054821834611	0	0	0.146037167979294	-0.941003917177836	0	0
0	0	0.0132904906263681	-0.0275633633791927	0	0	-0.434353366668222	-0.867607843208433
0.146037167979294	-0.941003917177836	0	0	-0.00202503753146109	-0.0621995667843125	0	0
0	0	0.764690595821142	0.52647379793282	0	0	0.0363391364125635	0.0136574985736023
1	-0.00438683740835872	-0.00870319639670807	0	0	0.94423392878836	0.182633009243025	0	0
0	0	-0.0143509362183518	0.0119521349014256	0	0	-0.839586062072878	-0.482807427575037
0.94423392878836	0.182633009243025	0	0	0.00244458288884936	0.0420166422940171	0	0
0	0	-0.127126069973137	0.904184317366483	0	0	0.0030819950122788	0.00187269388567204
1.1	0.00102981969722926	0.00866319282418803	0	0	0.202346382475776	-0.951587133723107	0	0
0	0	-0.011642595647366	0.0350292986825313	0	0	0.958609603448918	-0.0508490686233558
0.202346382475776	-0.951587133723107	0	0	0.00312415251051403	0.00181064766522389	0	0
0	0	0.871083398619985	-0.260614279271469	0	0	0.00841576469592589	0.0431810480141593
1.2	0.00161974344164676	-0.00701915798521168	0	0	0.961632199601414	0.20311140908624	0	0
0	0	0.00862782086171097	0.0643855955318594	0	0	0.773084990948956	-0.556257550688919
0.961632199601414	0.20311140908624	0	0	0.0534393742086923	-0.000371909574399552	0	0
0	0	0.615611420386079	0.673199592417524	0	0	0.00664328242500646	0.100460884991567
1.3	-0.00347958813482523	0.00377388168853626	0	0	0.205334334207003	-0.945617383444389	0	0
0	0	0.0160939302440391	0.0186576359450307	0	0	-0.355570082287719	0.885892099789961
0.205334334207003	-0.945617383444389	0	0	-0.0549269590411846	0.000848772038833746	0	0
0	0	0.322537265289122	-0.861843429189425	0	0	0.0400790704463548	0.014939702341585
1.4	0.00414893073483198	-2.14396641167148E-05	0	0	0.927518808988783	0.233201522605245	0	0
0	0	-0.0132605643711299	-0.0441276697391762	0	0	0.181041858401133	0.939814044328932
0.927518808988783	0.233201522605245	0	0	0.0169176285377136	0.00837848690282129	0	0
0	0	0.901238895488994	-0.0851758019378135	0	0	0.0443762895573471	-0.00612736567868823
1.5	-0.00322753040063205	-0.00302137248206085	0	0	0.270250083167641	-0.925586759312023	0	0
0	0	-0.0381381918471052	-0.0567666120352825	0	0	-0.677527909211522	-0.676162424871071
0.270250083167641	-0.925586759312023	0	0	0.0328008984391621	-0.0327792111809842	0	0
0	0	-0.463857531694362	-0.768786478882565	0	0	0.0332389974999253	0.0527798069476697
1.6	0.00109988851922364	0.00476500941386099	0	0	0.940386153530683	0.293687071134114	0	0
0	0	-0.0361327979243277	-0.0200566161351201	0	0	-0.939465184122628	-0.182318423313536
0.940386153530683	0.293687071134114	0	0	-0.0520715886796929	-0.0264981981813818	0	0
0	0	0.49712612270812	-0.756730431452682	0	0	0.00096221220128315	0.0532092138771721
1.7	0.00165718696691126	-0.00486102420734716	0	0	0.288119409143943	-0.945593623010381	0	0
0	0	0.0157234464931258	0.0059032016391026	0	0	0.885699027198363	-0.346200074778165
0.288119409143943	-0.945593623010381	0	0	-0.0011850195406578	0.00556181005487565	0	0
0	0	-0.902342625558075	-0.109373268923783	0	0	0.0398933663329559	-0.0303862418719817
1.8	-0.00429425908083514	0.00317873529197431	0	0	0.919323172615392	0.28903208875799	0	0
0	0	0.0456338507878794	0.0376972493101003	0	0	0.572390110903748	-0.748123009441122
0.919323172615392	0.28903208875799	0	0	0.0067137407928575	0.0655472940867148	0	0
0	0	-0.312506294421708	-0.849630579838936	0	0	0.0274517444150754	-0.0339054673531381
1.9	0.00620362243436516	-4.50212929350167E-05	0	0	0.318208057687345	-0.89548102948283	0	0
0	0	0.0529828545106127	-0.0039739812584538	0	0	-0.0813371353726288	0.942333529149508
0.318208057687345	-0.89548102948283	0	0	0.00966395830596671	0.0090714754725992	0	0
0	0	-0.614054484233222	0.647439151785355	0	0	0.0410904782269527	0.0236367327037048
2	-0.00663769595466024	-0.00401190430372509	0	0	0.891965419946638	0.348614793910574	0	0
0	0	0.015316648281372	-0.0050415358036154	0	0	0.458980818985073	0.832370034357491
0.891965419946638	0.348614793910574	0	0	-0.0500578954959138	-0.0329984787505328	0	0
0	0	-0.845020548628586	-0.26241181622498	0	0	-0.0530921467509604	-0.0209083854521253
2.1	0.00532466554897689	0.00820036885015637	0	0	0.363592151146707	-0.898372413732858	0	0
0	0	-0.0289841248263157	0.00795042439565241	0	0	-0.830629319952569	-0.450934568744022
0.363592151146707	-0.898372413732858	0	0	0.0705421693025327	0.0163259209069424	0	0
0	0	0.136492634252011	0.878996399613894	0	0	-0.00502001368025111	0.00980419481003293
2.2	-0.00187900981180758	-0.0118042711669782	0	0	0.89853518337236	0.375779637591271	0	0
0	0	-0.0480370824114338	0.0173937118941699	0	0	-0.931848602702697	0.0693597343542555
0.89853518337236	0.375779637591271	0	0	0.0145785498499807	-0.0107959105517624	0	0
0	0	-0.736482599976929	0.506533747066263	0	0	0.0425140076066193	-0.0112164400667423
2.3	-0.00331376356373123	0.013738231791198	0	0	0.385907448248285	-0.889293281310063	0	0
0	0	-0.0304263675535624	0.0195094273179729	0	0	0.73631509349447	-0.555551968116698
0.385907448248285	-0.889293281310063	0	0	0.0579374234017124	-0.0287408894932376	0	0
0	0	0.776012660279125	0.431904652279945	0	0	0.0667113771238257	0.0466021930641748
2.4	0.00951453006408535	-0.0134768147293615	0	0	0.877729759151725	0.398100405026779	0	0
0	0	-0.000554224426468089	0.00117264289475544	0	0	0.3242544060049	-0.867767716574633
0.877729759151725	0.398100405026779	0	0	-0.0968532477249917	0.0139774802482579	0	0
0	0	-0.0392163242781253	0.882409155260524	0	0	0.0471241185630234	-0.049063384694878
2.5	-0.0160066559104383	0.0106770195829217	0	0	0.415323029006802	-0.866334914309953	0	0
0	0	0.0192735619357718	-0.0359932345943241	0	0	0.189282252006826	0.91763618450492
0.415323029006802	-0.866334914309953	0	0	-0.0101201456184848	-0.0269792948676986	0	0
0	0	0.805062073091528	-0.332034489854722	0	0	0.0126304466750854	-0.000673259254159639
2.6	0.0215244352644138	-0.0057282535514086	0	0	0.859559238221684	0.429621849657569	0	0
0	0	0.0181103828689581	-0.0388394091136123	0	0	0.667197975750189	0.653828038962981
0.859559238221684	0.429621849657569	0	0	0.00562231878570209	-0.0334520862080758	0	0
0	0	0.630603252332641	0.597481190560222	0	0	0.0626574820904945	0.01018805628535
2.7	-0.0251424982614527	-0.00102007333075201	0	0	0.444356084687764	-0.853937776204599	0	0
0	0	0.0213701610964017	-0.00968734954417038	0	0	-0.897929497733952	-0.174403938840434
0.444356084687764	-0.853937776204599	0	0	0.00333757598629484	-0.0129814275249749	0	0
0	0	0.276119549414671	-0.835857202568405	0	0	-0.0273063320465191	-0.000912977419345783
2.8	0.025739786492135	0.00871676736611787	0	0	0.843863680629271	0.457928975984704	0	0
0	0	0.00973609132830627	0.0124126476833223	0	0	-0.842956392194033	0.312708269121374
0.843863680629271	0.457928975984704	0	0	0.0041877146903702	0.0638838021811751	0	0
0	0	0.872284970713015	-0.150174035728228	0	0	0.0262914524989948	-0.0638940912502005
2.9	-0.0227086807105691	-0.0164550199877505	0	0	0.474083869710106	-0.82515826217763	0	0
0	0	-0.000210229233083075	0.0363362634544546	0	0	0.567930698630708	-0.70149373448259
0.474083869710106	-0.82515826217763	0	0	-0.053583795472153	0.0340963324127228	0	0
0	0	-0.515760633135537	-0.703417060381926	0	0	-0.040161376907416	-0.0462364972632036
3	0.0168928501047184	0.0233565243513461	0	0	0.816675218637688	0.49831893117383	0	0
0	0	-0.0110652995229111	0.0292265943531987	0	0	0.0915067808556398	-0.92141070915162
0.816675218637688	0.49831893117383	0	0	-0.00686203219226007	-0.017799283356058	0	0
0	0	0.406874493585746	-0.761754390743845	0	0	0.0137860396025074	0.0860701226921976
3.1	-0.0084879890140547	-0.0275921856516483	0	0	0.519040801677393	-0.806874104974787	0	0
0	0	-0.0202602720300933	0.012257331640591	0	0	0.449289032028747	0.807507107811681
0.519040801677393	-0.806874104974787	0	0	0.0387142707418118	-0.0647268653326122	0	0
0	0	-0.870543124649995	-0.0497058991339429	0	0	-0.0755465944802012	0.00639291547995343
3.2	-0.0010197832524626	0.0292722961307778	0	0	0.805623417759534	0.542718820886813	0	0
0	0	-0.0178382470051936	-0.00586093202493199	0	0	0.799597911439294	0.437171998070652
0.805623417759534	0.542718820886813	0	0	0.000713572015458091	0.0253310802464414	0	0
0	0	-0.338587485462282	-0.814935337508417	0	0	-0.0593372762019073	0.00704580413145639
3.3	0.0102470050275998	-0.027055121443853	0	0	0.553862752810689	-0.801689403647242	0	0
0	0	-0.00132532208890397	-0.0236124713708688	0	0	-0.906116638172931	0.051349443024344
0.553862752810689	-0.801689403647242	0	0	0.0622340313054482	0.0242691086982371	0	0
0	0	-0.57479435852878	0.677082130159557	0	0	-0.0276543636117503	-0.107091867476892
3.4	-0.0179021424097465	0.0211643754452388	0	0	0.785147012179819	0.55837935238089	0	0
0	0	-0.00450087090324653	-0.0402674097819013	0	0	-0.732882786929772	0.544772789568428
0.785147012179819	0.55837935238089	0	0	-0.11526346787491	0.00914273921022347	0	0
0	0	-0.858084408630546	-0.221273501824147	0	0	-0.0196986452255546	-0.039767902255302
3.5	0.0231911188635534	-0.0134012233250287	0	0	0.572602513436042	-0.775946409666849	0	0
0	0	0.00775468452159481	-0.0301629304989295	0	0	0.295767400011226	-0.870296898578086
0.572602513436042	-0.775946409666849	0	0	-0.0123734186817567	-0.0536669604303192	0	0
0	0	0.16944845350174	0.843575097046375	0	0	0.0848378345152427	-0.0729788422828597
3.6	-0.0251124248847612	0.00462799760884692	0	0	0.768767277746632	0.582037532100679	0	0
0	0	0.0193526984353735	0.00244536201506347	0	0	-0.212006361576438	-0.89417657920481
0.768767277746632	0.582037532100679	0	0	-0.0340561289614352	0.0606922099588884	0	0
0	0	-0.691747137668869	0.522344978319375	0	0	0.0446367706819639	-0.0318116651343125
3.7	0.0231248514398217	0.00475645880519943	0	0	0.600664727131054	-0.748323685539005	0	0
0	0	0.0137004403899969	0.036138719524763	0	0	0.641061163195827	0.646905897144788
0.600664727131054	-0.748323685539005	0	0	0.118400544946901	0.00676773074089267	0	0
0	0	0.77160913581361	0.407209613013981	0	0	0.0553445997718647	-0.019359666345434
3.8	-0.0181189978077352	-0.0124989161753589	0	0	0.74173853151327	0.619050695724253	0	0
0	0	0.0150236395510373	0.0503349379521655	0	0	0.870813645630942	0.183783723328414
0.74173853151327	0.619050695724253	0	0	-0.0251917855435154	0.0209690485291311	0	0
0	0	-0.013332991181828	0.870563188312668	0	0	-0.0583575518972326	-0.024891372715931
3.9	0.0109319160747036	0.0172404639759022	0	0	0.623540160476169	-0.740499714385578	0	0
0	0	0.0109307001413745	0.01546516056998	0	0	-0.821863244104947	0.329380762199898
0.623540160476169	-0.740499714385578	0	0	-0.0129515823165077	0.0831950975415724	0	0
0	0	0.780551914370025	-0.387053496434728	0	0	0.024721416849065	-0.00580966165672272
4	-0.00214968055443484	-0.0187021950780825	0	0	0.722248018929783	0.631792848791268	0	0
0	0	-0.0168710394074284	-0.0123735979895899	0	0	-0.513042906871685	0.724475625787183
0.722248018929783	0.631792848791268	0	0	0.0504775007801846	-0.0742629018089704	0	0
0	0	0.683997582041164	0.51309484702254	0	0	-0.00469194833425651	0.00954836222398971
4.1	-0.00593058289435572	0.0167333046059466	0	0	0.637441987828024	-0.708814429324925	0	0
0	0	-0.0416307537445989	-0.0353884672356976	0	0	0.0528360513935526	-0.889668642275273
0.637441987828024	-0.708814429324925	0	0	0.0244798882001856	-0.111529686895506	0	0
0	0	0.181514058203019	-0.826550833188676	0	0	0.0265158741945978	0.081390394226029
4.2	0.0123794465615285	-0.0120322762841848	0	0	0.703430686073317	0.648990486803571	0	0
0	0	-0.0489409266867821	-0.0153111372456194	0	0	-0.43354743590866	-0.777700328869405
0.703430686073317	0.648990486803571	0	0	-0.03989374128073	0.0164486194558641	0	0
0	0	0.828780472724514	-0.185609855101692	0	0	-0.011889049584684	-0.041116534108294
4.3	-0.0160958163848719	0.00504587153765323	0	0	0.658093792426971	-0.69639708684641	0	0
0	0	-0.00742274322249205	0.00687479307709539	0	0	0.776511217693875	0.421676894586434
0.658093792426971	-0.69639708684641	0	0	-0.010849222624022	0.0670186359448936	0	0
0	0	-0.533725770092632	-0.670843942277396	0	0	-0.0143612568506607	0.00239718162922722
4.4	0.0162451020112261	0.00319578171623341	0	0	0.679268825667823	0.668112912891026	0	0
0	0	0.0380068509962473	0.00444964676053152	0	0	0.885568267210739	-0.0541705945612856
0.679268825667823	0.668112912891026	0	0	0.00126599603751752	-0.0499308772188132	0	0
0	0	0.344373168836452	-0.770234564221212	0	0	-0.0334412442430708	0.00333168891722359
4.5	-0.012776838531545	-0.0106296562580332	0	0	0.675202808085024	-0.661032509196125	0	0
0	0	0.0645671032096483	-0.00448026823585725	0	0	-0.720337667139243	0.52189918397801
0.675202808085024	-0.661032509196125	0	0	-0.0496258231147946	0.0264224510149309	0	0
0	0	-0.833043619983862	0.0113983290003775	0	0	-0.0856496972275456	0.0617752635193652
4.6	0.00635171407193831	0.0162239242446523	0	0	0.643160074052306	0.690429645168497	0	0
0	0	0.0465263025952706	-0.0249809596989345	0	0	-0.312722561646941	0.842424515613085
0.643160074052306	0.690429645168497	0	0	-0.00386113282439634	0.0138213056686339	0	0
0	0	-0.370660950569892	-0.743252302065408	0	0	-0.0798544223561116	-0.00958543693250945
4.7	0.00172132003709007	-0.0188031166684929	0	0	0.708231904278097	-0.636499473884821	0	0
0	0	-0.0246674996271415	-0.00545036098058278	0	0	-0.190196947848281	-0.872683011188783
0.708231904278097	-0.636499473884821	0	0	0.0655236356066904	-0.0175821480626784	0	0
0	0	-0.523928954925353	0.654325852924497	0	0	-0.0730307587914397	0.0720298481591727
4.8	-0.0103195720193889	0.0179099752929286	0	0	0.636917385843725	0.724629216492595	0	0
0	0	-0.0587452177938022	0.0341569395484005	0	0	-0.606118814972175	-0.634647033859499
0.636917385843725	0.724629216492595	0	0	0.0530151393021339	-0.0183651438150689	0	0
0	0	-0.826751389548718	-0.197492366820889	0	0	-0.00918640310186011	0.0717280774804057
4.9	0.0178521860719131	-0.0127523541544317	0	0	0.730857021092555	-0.629228806410718	0	0
0	0	-0.0398784872573763	0.0584347246975273	0	0	0.853924689763081	0.207274048997641
0.730857021092555	-0.629228806410718	0	0	-0.0806619626363208	-0.0290875271449457	0	0
0	0	0.198672662911337	0.82101587688759	0	0	-0.0834540798174653	0.00377532571101672
5	-0.0225169816465846	0.0046204707471391	0	0	0.618547138937025	0.726416079280085	0	0
0	0	-0.000477338295924115	0.0201123201824192	0	0	0.830976025286749	-0.298169878110301
0.618547138937025	0.726416079280085	0	0	-0.0475898476501809	0.0406300182412975	0	0
0	0	-0.64517462699652	0.533728569016163	0	0	0.0414699170666402	-0.00910071971589486
5.1	0.0240112313973936	0.00530787507257635	0	0	0.727720634754651	-0.60627226159903	0	0
0	0	0.038292551091778	-0.0337661379939777	0	0	-0.533247728627047	0.695635165869837
0.727720634754651	-0.60627226159903	0	0	-0.02170042639013	-0.0414788980857683	0	0
0	0	0.750019890468694	0.344786186776351	0	0	0.0725047881879771	-0.0197169545513839
5.2	-0.0216244079673005	-0.0163975020714814	0	0	0.584209062223077	0.745349844285783	0	0
0	0	0.0159218349471634	-0.0746237403541462	0	0	-0.0784305698043119	0.871861111516602
0.584209062223077	0.745349844285783	0	0	0.0382242905620819	0.0223653954386215	0	0
0	0	0.0154895409243459	0.832440597547472	0	0	0.0267148836164076	0.0664329849290981
5.3	0.0153521279745801	0.0259970943021621	0	0	0.7637803095544	-0.572383935526936	0	0
0	0	-0.0143094141670417	-0.0416099206830986	0	0	-0.412576088622054	-0.770840966657811
0.7637803095544	-0.572383935526936	0	0	-0.0321239169780715	0.0247402695873231	0	0
0	0	0.742853194673093	-0.374606746355179	0	0	-0.0434597738043554	0.0119940645977165
5.4	-0.00622410292409834	-0.0320137402948412	0	0	0.56428307139878	0.76870840082353	0	0
0	0	-0.0313672364117546	0.0144292423703983	0	0	-0.767389547990914	-0.427858882962963
0.56428307139878	0.76870840082353	0	0	0.070502051685485	0.0875457768542286	0	0
0	0	0.657572512534413	0.50951494392698	0	0	-0.00947809284114176	0.0218767879018989
5.5	-0.00464795549580859	0.0344436047967085	0	0	0.779419946040443	-0.561629315743777	0	0
0	0	0.0232527916081958	0.0600041047140173	0	0	0.877050291086906	-0.0448757826140624
0.779419946040443	-0.561629315743777	0	0	-0.00658242006893938	-0.0276522661620707	0	0
0	0	0.157248919626038	-0.81657908062176	0	0	0.0215861010844009	0.0384858550814537
5.6	0.0162269184792423	-0.0318970067118625	0	0	0.547508758918708	0.784915774099362	0	0
0	0	0.0424383801980698	0.0567504919310398	0	0	0.6975567865316	-0.50845379741706
0.547508758918708	0.784915774099362	0	0	0.001862757084036	-0.109404304631649	0	0
0	0	0.799286674345584	-0.202362478507985	0	0	0.0111146343867259	0.117446780857421
5.7	-0.0269740913276885	0.0252983415616657	0	0	0.797887910057911	-0.53908630206081	0	0
0	0	0.020761811230399	-0.00679782314072625	0	0	-0.317439302212072	0.806954845682262
0.797887910057911	-0.53908630206081	0	0	-0.0118543066950348	0.0514822614740703	0	0
0	0	-0.535888552911793	-0.648289689888045	0	0	0.0585896484051989	0.0345393366458007
5.8	0.0338262778687053	-0.0147606235867255	0	0	0.521494152363808	0.797760881301071	0	0
0	0	-0.0219144395057731	-0.0311580419423052	0	0	0.155500096859065	0.85289156155457
0.521494152363808	0.797760881301071	0	0	0.0589568661681008	-0.0273827831346603	0	0
0	0	0.323624712661833	-0.770374365267375	0	0	0.0339568111672963	0.0555189146720729
5.9	-0.0369366563323876	0.00167663438967379	0	0	0.81154218888391	-0.49807099218942	0	0
0	0	-0.0560412161265058	-0.0266116317000373	0	0	-0.584848632327378	-0.637065896406172
0.81154218888391	-0.49807099218942	0	0	-0.0732906410891559	0.0433080428047907	0	0
0	0	-0.826238099607723	0.0597777519346238	0	0	0.0373492758125209	0.0723821910162089
6	0.0355789040000559	0.0112613247934244	0	0	0.481851689722889	0.824952357220517	0	0
0	0	-0.0339129506624805	0.0059711504740788	0	0	-0.84702069216168	-0.194633058505276
0.481851689722889	0.824952357220517	0	0	-0.00313701737062082	0.0237458504264267	0	0
