# GHZ S RI R 50
0.2	-0.00651918481786359	0.0105246270172179	0	0	0.957847475376189	0.0581884236311438	0	0
0	0	0.0201867085183783	0.00462696357755802	0	0	-0.370519614677107	0.911047887037636
0.957847475376189	0.0581884236311438	0	0	0.0211732658762449	0.0423420957849693	0	0
0	0	0.569688002688292	-0.753949344562695	0	0	0.0016444573559188	-0.031446946493252
0.3	0.00686320703655294	-0.0100031096668604	0	0	0.0337385470868385	-0.965136379942578	0	0
0	0	-0.00535101926455663	0.00162122181960369	0	0	-0.134011364319898	-0.974225725085375
0.0337385470868385	-0.965136379942578	0	0	-0.0140421460925281	0.00451899568320891	0	0
0	0	-0.921984135395184	-0.202375191763936	0	0	-0.0325928423265952	-0.0173749663868433
0.4	-0.00880444311095571	0.0078592831288285	0	0	0.948550796328247	0.0623800771471175	0	0
0	0	-0.0393988480924679	0.000799314425272443	0	0	-0.666854322929918	-0.726055075107281
0.948550796328247	0.0623800771471175	0	0	-0.0342542817588518	-0.014039791008396	0	0
0	0	-0.23482910905948	-0.895917551229798	0	0	0.0214597275490011	0.0197392450605858
0.5	0.0112271739179654	-0.00441631565479627	0	0	0.128266020226835	-0.948893868869284	0	0
0	0	-0.0329420937495358	0.00475429018709237	0	0	0.963992618874661	0.207726771554383
0.128266020226835	-0.948893868869284	0	0	0.0365889179526573	0.016612955706694	0	0
0	0	-0.679104155440548	0.636337032829586	0	0	0.00495295983834885	0.00759521543902308
0.6	-0.0120505204501622	0.00149746321736371	0	0	0.955176408072666	0.132010372250628	0	0
0	0	-0.00831480409895879	0.00605779844481439	0	0	0.913194058200482	-0.328894996443179
0.955176408072666	0.132010372250628	0	0	0.00489268301843103	-0.0197452714303939	0	0
0	0	-0.861923354754744	-0.345585278071263	0	0	-0.00543429888027082	-0.00723663564909402
0.7	0.0117788174130028	0.00110745515816363	0	0	0.109869594608811	-0.958051547285415	0	0
0	0	0.0226604801752852	-0.0109278541540604	0	0	-0.612178462972199	0.748237702951347
0.109869594608811	-0.958051547285415	0	0	0.00804154371931956	0.0098010952577155	0	0
0	0	0.0450849246247551	0.920920319829089	0	0	0.00230769842536467	-0.0130065244351041
0.8	-0.0105373570005754	-0.0042160625460547	0	0	0.955817577049875	0.114629877658074	0	0
0	0	0.0442480170198602	-0.0416986927356273	0	0	-0.121474542053242	0.961617093980909
0.955817577049875	0.114629877658074	0	0	-0.0226146676893928	0.01259141631911	0	0
0	0	-0.812714702666698	0.448278905279533	0	0	0.00653782692440156	0.0833961278601442
0.9	0.00774070183520141	0.00700551194243341	0	0	0.146084800252195	-0.941026046866555	0	0
0	0	0.0132904632129783	-0.0275633743350245	0	0	-0.434326875192179	-0.867654359087682
0.146084800252195	-0.941026046866555	0	0	-0.00201970916752579	-0.0622036519662157	0	0
0	0	0.764689878130131	0.52652501397824	0	0	0.0363398673394502	0.0136616081872727
1	-0.00438679995198197	-0.00870324868438185	0	0	0.944260232782384	0.182685763460512	0	0
0	0	-0.0143509692689071	0.0119521011133487	0	0	-0.839593845916882	-0.482866292867625
0.944260232782384	0.182685763460512	0	0	0.00244033710449214	0.0420198509736225	0	0
0	0	-0.127174825232534	0.904211823918556	0	0	0.00308170229257604	0.00187300866365835
1.1	0.00102977471983931	0.00866333263858043	0	0	0.202403686629051	-0.951619108667473	0	0
0	0	-0.011642685688758	0.0350292358077944	0	0	0.958654708903238	-0.0508026369891098
0.202403686629051	-0.951619108667473	0	0	0.00312373880540189	0.0018108962815605	0	0
0	0	0.871135275365991	-0.260581597995999	0	0	0.00841160116889778	0.0431855034177372
1.2	0.00162018622132493	-0.00701934218831058	0	0	0.961671507869916	0.203172079504877	0	0
0	0	0.00862827544413029	0.0643854104333555	0	0	0.773154225606326	-0.556246051636871
0.961671507869916	0.203172079504877	0	0	0.0534448119538084	-0.00036652778430336	0	0
0	0	0.615608224866326	0.673266739185991	0	0	0.00663332842942364	0.100471889547459
1.3	-0.00348018728400999	0.00377403825896194	0	0	0.205396505435471	-0.945663042182747	0	0
0	0	0.0160945285025598	0.0186578318848407	0	0	-0.355638165468241	0.885926281328989
0.205396505435471	-0.945663042182747	0	0	-0.054933536910511	0.000842807797280125	0	0
0	0	0.322602102176431	-0.861877918524311	0	0	0.0400822834526886	0.014945447105629
1.4	0.00414965839497104	-2.14919722458339E-05	0	0	0.927569609648412	0.233266099120462	0	0
0	0	-0.0132601877526555	-0.0441270197843125	0	0	0.181004662489001	0.939887427848856
0.927569609648412	0.233266099120462	0	0	0.0169194295787269	0.00838117099829176	0	0
0	0	0.90130460949192	-0.0851341246634015	0	0	0.0443832100637975	-0.00612381992113434
1.5	-0.00322795771345284	-0.00302140735921837	0	0	0.270318357176101	-0.925643457065557	0	0
0	0	-0.0381382379792268	-0.0567660654334696	0	0	-0.677544679982201	-0.6762490588624
0.270318357176101	-0.925643457065557	0	0	0.0328094485429652	-0.0327809445500281	0	0
0	0	-0.463853204490892	-0.768869139482558	0	0	0.0332386885185652	0.0527912116309094
1.6	0.00110069201813327	0.00476505441345409	0	0	0.940451304090608	0.293758659524458	0	0
0	0	-0.0361331821830387	-0.0200559364720866	0	0	-0.9395357570716	-0.18238063694765
0.940451304090608	0.293758659524458	0	0	-0.0520772852206698	-0.0265076890617832	0	0
0	0	0.497205930762136	-0.756769844466178	0	0	0.000957528636468689	0.0532183365641688
1.7	0.00165643048581787	-0.004860960262325	0	0	0.288190629789308	-0.945668417323288	0	0
0	0	0.0157228356358318	0.00590364477927121	0	0	0.885797965109246	-0.346190860548999
0.288190629789308	-0.945668417323288	0	0	-0.00118536657427228	0.00556303269598469	0	0
0	0	-0.902421750713184	-0.109425802219685	0	0	0.0399040480188969	-0.0303880272104531
1.8	-0.004293967087284	0.00317887967911874	0	0	0.919404365314584	0.289101258514173	0	0
0	0	0.0456335418720801	0.0376971275344472	0	0	0.5724807886939	-0.748174527631744
0.919404365314584	0.289101258514173	0	0	0.00670919817920691	0.0655612739330365	0	0
0	0	-0.312501427635513	-0.849730689726874	0	0	0.0274600676159316	-0.033909906635115
1.9	0.00620333694804719	-4.51834337493317E-05	0	0	0.318277710715449	-0.895567558903978	0	0
0	0	0.0529826608785249	-0.00397425639054719	0	0	-0.0813825395036393	0.942434391271095
0.318277710715449	-0.895567558903978	0	0	0.00966505042672843	0.00907417453686994	0	0
0	0	-0.614147285464736	0.647486873384052	0	0	0.0410974172024703	0.0236451731694115
2	-0.00663738051070117	-0.00401173592526113	0	0	0.892059659321107	0.348685603588193	0	0
0	0	0.0153166071215851	-0.00504189579975645	0	0	0.459007659287846	0.832483962562352
0.892059659321107	0.348685603588193	0	0	-0.0500679880186391	-0.0330097899135741	0	0
0	0	-0.845112064003174	-0.262470947740231	0	0	-0.0531037378311288	-0.0209169048476204
2.1	0.00532430632842494	0.00820021272356362	0	0	0.363662100546665	-0.898476484098561	0	0
0	0	-0.028983978169266	0.00795006437852519	0	0	-0.830722404672176	-0.451013890932286
0.363662100546665	-0.898476484098561	0	0	0.0705587341193143	0.0163334977632733	0	0
0	0	0.136486384220668	0.879111332208643	0	0	-0.00502225828396039	0.00980625398403837
2.2	-0.00187861558791534	-0.0118041333921682	0	0	0.898648560371459	0.375847396055521	0	0
0	0	-0.0480367343529952	0.0173934654728447	0	0	-0.931975061938716	0.0693508903313902
0.898648560371459	0.375847396055521	0	0	0.0145824547089616	-0.0107987455284623	0	0
0	0	-0.736591347706799	0.506587403516365	0	0	0.0425253514962564	-0.0112180915135207
2.3	-0.00331414633346496	0.0137380812877151	0	0	0.385971862124435	-0.889414843002278	0	0
0	0	-0.0304258869575327	0.0195094525892775	0	0	0.736425585871153	-0.555622177773563
0.385971862124435	-0.889414843002278	0	0	0.0579540148325325	-0.0287484399833798	0	0
0	0	0.77611752474113	0.431974590065627	0	0	0.0667285865704904	0.0466164118098452
2.4	0.00951495981133324	-0.0134774951152267	0	0	0.877858875182758	0.398161333037894	0	0
0	0	-0.00055382487563508	0.00117195695063192	0	0	0.324304350497169	-0.867895598380373
0.877858875182758	0.398161333037894	0	0	-0.0968819853466982	0.0139813720680757	0	0
0	0	-0.0392240624651837	0.882539829144629	0	0	0.0471383635856773	-0.0490776095010878
2.5	-0.0160070894983976	0.0106777687761157	0	0	0.415380402171278	-0.866471674124886	0	0
0	0	0.0192742945919526	-0.0359936311380074	0	0	0.189318449557628	0.917776366141697
0.415380402171278	-0.866471674124886	0	0	-0.0101235583201748	-0.0269872756053875	0	0
0	0	0.80518379411792	-0.332091862029504	0	0	0.012634485562849	-0.000673587418239967
2.6	0.0215248723037724	-0.00572907712429349	0	0	0.859704301882766	0.429674696219311	0	0
0	0	0.018111258299803	-0.0388393793298423	0	0	0.667316528431611	0.653920339486816
0.859704301882766	0.429674696219311	0	0	0.00562313124888363	-0.0334627120791445	0	0
0	0	0.630714928625349	0.597565155018046	0	0	0.0626781527637861	0.0101891140110358
2.7	-0.0251429096127417	-0.00101920244306863	0	0	0.444403816179554	-0.854091277663991	0	0
0	0	0.0213709140079118	-0.00968689089976006	0	0	-0.898082340825852	-0.174406152136063
0.444403816179554	-0.854091277663991	0	0	0.00333820694027297	-0.0129855068464996	0	0
0	0	0.276140324110316	-0.83600283432916	0	0	-0.0273149843526131	-0.00091150289881599
2.8	0.025740125512038	0.00871590230495669	0	0	0.844024775603593	0.457970884490304	0	0
0	0	0.00973650993426546	0.0124133775687413	0	0	-0.843085302786139	0.312795946223114
0.844024775603593	0.457970884490304	0	0	0.00419472404294902	0.0639054676053338	0	0
0	0	0.872425573745172	-0.150235570004114	0	0	0.0262954457766413	-0.0639175118581485
2.9	-0.022709014837353	-0.0164546173879918	0	0	0.47412033392294	-0.825325313366308	0	0
0	0	-0.000210336981419416	0.0363367492800547	0	0	0.567990054812849	-0.701644722448973
0.47412033392294	-0.825325313366308	0	0	-0.0535984587253943	0.0341139810753054	0	0
0	0	-0.515887123442192	-0.703509696085039	0	0	-0.0401800178392428	-0.0462477561984693
3	0.0168931118261922	0.0233561548747354	0	0	0.816850364899871	0.498350285002339	0	0
0	0	-0.0110655786731869	0.0292268639490859	0	0	0.0914606425373144	-0.921576790862029
0.816850364899871	0.498350285002339	0	0	-0.00686686314334152	-0.017804384750468	0	0
0	0	0.406893837800707	-0.761913989609391	0	0	0.0138025619715354	0.0860984037764314
3.1	-0.00848812605710856	-0.0275888967446263	0	0	0.519066328292593	-0.807056140247135	0	0
0	0	-0.0202636675301243	0.0122606081313266	0	0	0.449433252712028	0.80761196595713
0.519066328292593	-0.807056140247135	0	0	0.038718967499432	-0.0647505691395594	0	0
0	0	-0.870699539965607	-0.0496439026887243	0	0	-0.0755689777786383	0.00640902694818713
3.2	-0.0010201795673074	0.0292716436296352	0	0	0.805815478131353	0.542736889431147	0	0
0	0	-0.0178386226961231	-0.00586053505201709	0	0	0.799779240008525	0.437172363636323
0.805815478131353	0.542736889431147	0	0	0.000718434900546142	0.0253400778331071	0	0
0	0	-0.338724164941551	-0.815045570905004	0	0	-0.059356553380236	0.00705990418484164
3.3	0.0102475247937195	-0.0270546550068733	0	0	0.553871045353454	-0.801888872743039	0	0
0	0	-0.00132573857527767	-0.023612255498211	0	0	-0.906268398948386	0.0514575346683311
0.553871045353454	-0.801888872743039	0	0	0.0622606915776662	0.0242641330771206	0	0
0	0	-0.574820087494911	0.6772626409253	0	0	-0.0276873254712175	-0.107122684078247
3.4	-0.0179026937358046	0.0211640957779553	0	0	0.785350650419262	0.558377554149624	0	0
0	0	-0.00450125616078373	-0.0402673828655521	0	0	-0.732940883646	0.544957196708311
0.785350650419262	0.558377554149624	0	0	-0.115300877797373	0.00917458059562376	0	0
0	0	-0.858259059481667	-0.221204955260822	0	0	-0.0197152080673407	-0.0397763624411168
3.5	0.0231911638892295	-0.0134009422925095	0	0	0.572590683561161	-0.776156245920531	0	0
0	0	0.00775511106246272	-0.0301632064623014	0	0	0.29569647976045	-0.870484220320853
0.572590683561161	-0.776156245920531	0	0	-0.0123918636578801	-0.0536817991583706	0	0
0	0	0.169593884713042	0.843693434615357	0	0	0.0848464510033541	-0.0730269801033549
3.6	-0.0251128847055914	0.0046279880397728	0	0	0.768982100365025	0.582014406538493	0	0
0	0	0.0193526031848904	0.00244512860434194	0	0	-0.212178524985373	-0.894290247753402
0.768982100365025	0.582014406538493	0	0	-0.0340487296042085	0.0607224014448447	0	0
0	0	-0.691779977486299	0.522536781028898	0	0	0.0446416382500264	-0.0318356549720615
3.7	0.0231251932842535	0.00475639255323264	0	0	0.60063330555334	-0.748542583683288	0	0
0	0	0.0137005843503468	0.0361385272717732	0	0	0.641271357103058	0.64689993016173
0.60063330555334	-0.748542583683288	0	0	0.118440048667171	0.00672983946747256	0	0
0	0	0.77179953012432	0.40714381835378	0	0	0.0553556091214263	-0.0193843788557997
3.8	-0.0181191925658795	-0.0124987751119158	0	0	0.741963409561621	0.619008011475493	0	0
0	0	0.0150239188418558	0.0503349508066188	0	0	0.870978598276943	0.183651917549785
0.741963409561621	0.619008011475493	0	0	-0.0251916688742603	0.0209844020912003	0	0
0	0	-0.01317553341068	0.870696880396895	0	0	-0.0583841684041084	-0.0248775186590959
3.9	0.0109319593051268	0.0172402267891263	0	0	0.623482562696569	-0.740728118188523	0	0
0	0	0.0109309469682516	0.0154654560092367	0	0	-0.821915270075754	0.329590142405117
0.623482562696569	-0.740728118188523	0	0	-0.0129223696784758	0.0832236645537896	0	0
0	0	0.780586654051322	-0.38726293075662	0	0	0.0247262868639641	-0.00582117390586383
4	-0.00214954856082854	-0.0187018633292816	0	0	0.722477569487073	0.63172377798804	0	0
0	0	-0.0168710647374898	-0.0123731033382302	0	0	-0.512957702607127	0.724680605595088
0.722477569487073	0.63172377798804	0	0	0.0504594417423565	-0.0743042369524401	0	0
0	0	0.684197190549505	0.51301822172952	0	0	-0.00468903115696002	0.00955273907140305
4.1	-0.0059308832425279	0.0167328809388693	0	0	0.637359920425943	-0.709044509872691	0	0
0	0	-0.0416311921844133	-0.0353880061170694	0	0	0.0526419386639106	-0.889789351857638
0.637359920425943	-0.709044509872691	0	0	0.0244355419603863	-0.11156829620101	0	0
0	0	0.181349911325711	-0.826692834284741	0	0	0.0265591855626907	0.0813980981128275
4.2	0.01237995453293	-0.0120317941727671	0	0	0.703662830415775	0.648894126874383	0	0
0	0	-0.0489416846297444	-0.0153109943548725	0	0	-0.433780795435974	-0.777682614265979
0.703662830415775	0.648894126874383	0	0	-0.039894661170512	0.0164707297215881	0	0
0	0	0.828827549049646	-0.185828070252225	0	0	-0.0119111174265351	-0.0411202753926549
4.3	-0.0160961768737125	0.00504512209487557	0	0	0.657982556032938	-0.696629829680643	0	0
0	0	-0.00742355826463219	0.006873869486831	0	0	0.776692468975301	0.421523051022608
0.657982556032938	-0.696629829680643	0	0	-0.0108171306285986	0.0670364882864886	0	0
0	0	-0.533945942718039	-0.670775223811852	0	0	-0.0143625077718361	0.00240463971437519
4.4	0.0162455223995827	0.00319658891787855	0	0	0.679500652786432	0.667989264052762	0	0
0	0	0.0380065004841761	0.0044483908041573	0	0	0.88562741489772	-0.0544076834126799
0.679500652786432	0.667989264052762	0	0	0.00124067609392515	-0.0499402228595363	0	0
0	0	0.344199395483366	-0.770388835826086	0	0	-0.0334445443138762	0.00334967646862404
4.5	-0.0127772828919821	-0.0106304837919625	0	0	0.675066918794701	-0.661261850797665	0	0
0	0	0.0645673699326802	-0.00448156996408219	0	0	-0.720243519323094	0.522131384094613
0.675066918794701	-0.661261850797665	0	0	-0.0496170537893715	0.0264530210764688	0	0
0	0	-0.833096687308265	0.0116269216620089	0	0	-0.0856268396675111	0.0618305025077333
4.6	0.00635505502624884	0.0162243603424146	0	0	0.643388153258965	0.690282375559632	0	0
0	0	0.0465249415548733	-0.0249845483977375	0	0	-0.312499147011749	0.842556451748852
0.643388153258965	0.690282375559632	0	0	-0.00385633934265297	0.0138220243799672	0	0
0	0	-0.370891117990611	-0.743184963343954	0	0	-0.0798690985710157	-0.00954388036511069
4.7	0.00171784176123514	-0.0188032229561526	0	0	0.70806896754569	-0.636727683325781	0	0
0	0	-0.0246670939467567	-0.00545421526275148	0	0	-0.190459421466457	-0.872656923812798
0.70806896754569	-0.636727683325781	0	0	0.0655155207524353	-0.0176246059256134	0	0
0	0	-0.523754844866617	0.654501819551218	0	0	-0.0729942486676426	0.0720746544658957
4.8	-0.0103186608431272	0.0179096583017947	0	0	0.637144810746422	0.724448215732392	0	0
0	0	-0.0587448924021205	0.0341561539194156	0	0	-0.606318941332467	-0.634474108482271
0.637144810746422	0.724448215732392	0	0	0.0530065640431801	-0.0183980550895109	0	0
0	0	-0.82682323901114	-0.197246471277164	0	0	-0.00914272400836139	0.0717355424931911
4.9	0.0178514066895245	-0.0127517982982624	0	0	0.730660172672006	-0.629450754428746	0	0
0	0	-0.0398779479823076	0.0584340661033367	0	0	0.853984751230554	0.207010432516961
0.730660172672006	-0.629450754428746	0	0	-0.080678204158628	-0.0290379800350713	0	0
0	0	0.198924392013602	0.820951188653645	0	0	-0.0834502495909195	0.00382649868882291
5	-0.0225163130513489	0.00461981061895106	0	0	0.618759396358145	0.726204454269199	0	0
0	0	-0.000476626417280416	0.0201119822916141	0	0	0.830862150649224	-0.298422790179457
0.618759396358145	0.726204454269199	0	0	-0.0475612295341169	0.0406575748434926	0	0
0	0	-0.64499155575726	0.533917480160242	0	0	0.0414628638589711	-0.00912633268053489
5.1	0.0240106284937119	0.00530852805730528	0	0	0.727495095591993	-0.606475536349071	0	0
0	0	0.0382932145839347	-0.0337660237435543	0	0	-0.533002703806582	0.695772677907987
0.727495095591993	-0.606475536349071	0	0	-0.0217241343504281	-0.0414615518629058	0	0
0	0	0.750095124383642	0.34453249121773	0	0	0.0724862009377406	-0.019761234666464
5.2	-0.021623767286004	-0.0163980444023716	0	0	0.584408507036053	0.745112828330363	0	0
0	0	0.0159221546202546	-0.0746232255191997	0	0	-0.0781463155005526	0.871827858688668
0.584408507036053	0.745112828330363	0	0	0.0382339248092512	0.0223376409316759	0	0
0	0	0.0157548943932162	0.832379927567248	0	0	0.0267541660111435	0.0664068755602475
5.3	0.0153514979628005	0.0259975165402272	0	0	0.763528343219214	-0.572578446441277	0	0
0	0	-0.0143096004165486	-0.0416093530551466	0	0	-0.412786927772463	-0.770639920417835
0.763528343219214	-0.572578446441277	0	0	-0.0321019218002827	0.0247561015477955	0	0
0	0	0.742666830467932	-0.374811975034344	0	0	-0.043444092067923	0.0120196156941531
5.4	-0.00622351709238628	-0.032014051108503	0	0	0.564467077342907	0.768441416513005	0	0
0	0	-0.031367812607814	0.0144295183190271	0	0	-0.767441336190552	-0.427565050055134
0.564467077342907	0.768441416513005	0	0	0.0705429997134138	0.0874804897515956	0	0
0	0	0.657662727150711	0.509247245849346	0	0	-0.00946168394862105	0.0218776657254322
5.5	-0.00464840672087472	0.0344437920451392	0	0	0.779135945742357	-0.561802750516731	0	0
0	0	0.023252179574661	0.0600039329587682	0	0	0.87691834773593	-0.0451494653979887
0.779135945742357	-0.561802750516731	0	0	-0.0065976980489671	-0.0276410133211687	0	0
0	0	0.156967412405301	-0.816519707742169	0	0	0.0216052274246083	0.0384614241076964
5.6	0.0162272255939579	-0.0318970265673861	0	0	0.547670516331593	0.784619414380696	0	0
0	0	0.0424380561786169	0.0567499934625346	0	0	0.697286880065754	-0.508593932466306
0.547670516331593	0.784619414380696	0	0	0.00179380858924866	-0.109371205509972	0	0
0	0	0.799097323413256	-0.202582769299487	0	0	0.0111857175122417	0.117402622377288
5.7	-0.0269800710579706	0.0253016764589474	0	0	0.797576228058439	-0.539236763782544	0	0
0	0	0.0207562017504956	-0.00680089224539102	0	0	-0.317131296640286	0.806908574171317
0.797576228058439	-0.539236763782544	0	0	-0.0118209710735937	0.0514630734777042	0	0
0	0	-0.535993883691121	-0.648006538812186	0	0	0.0585868627460331	0.0344843216027187
5.8	0.0338308181467125	-0.0147645598053696	0	0	0.521629727717054	0.797439401499197	0	0
0	0	-0.0219183928900774	-0.0311621516897213	0	0	0.155727913260036	0.852671501470669
0.521629727717054	0.797439401499197	0	0	0.058915038263666	-0.0274149733225022	0	0
0	0	0.323324922933486	-0.770316697562433	0	0	0.0339750115778411	0.0554695560235935
5.9	-0.0369400789968807	0.0016806295126848	0	0	0.811211357961117	-0.49819780040244	0	0
0	0	-0.056043190774172	-0.0266161674040673	0	0	-0.584904953425082	-0.636749387297185
0.811211357961117	-0.49819780040244	0	0	-0.0732317626277621	0.043324770300033	0	0
0	0	-0.826034068719766	0.0600084056540596	0	0	0.0373743373222697	0.0723216387164728
6	0.0355814746915649	0.0112575184289777	0	0	0.481966588596305	0.824609199268245	0	0
0	0	-0.0339128885658247	0.00596692823610588	0	0	-0.846866389838773	-0.19434368282522
0.481966588596305	0.824609199268245	0	0	-0.00312130713594765	0.0237296437843062	0	0
