# GHZ S RI R 50
0.2	-0.00627270770803263	0.0103355937769332	0	0	0.95786064952767	0.0581944214060823	0	0
0	0	0.0204898489165859	0.00470686662905147	0	0	-0.370509567825782	0.911043429134156
0.95786064952767	0.0581944214060823	0	0	0.0208651310040221	0.0426510116300245	0	0
0	0	0.569677571415562	-0.753947695413508	0	0	0.00133603276558427	-0.0311384322788681
0.3	0.00678273811576537	-0.00986083162514202	0	0	0.0337422785870982	-0.965134387775574	0	0
0	0	-0.00521017146677215	0.00170265355538755	0	0	-0.134005374559701	-0.974219809020534
0.0337422785870982	-0.965134387775574	0	0	-0.0141857554734738	0.00486579050745531	0	0
0	0	-0.921976820042481	-0.202378625114732	0	0	-0.0327360895030186	-0.0170281539681329
0.4	-0.0087883211245238	0.00787272549272613	0	0	0.948549074938836	0.0623821142170146	0	0
0	0	-0.0394180720332944	0.000808263662688321	0	0	-0.666851042321174	-0.726056758647128
0.948549074938836	0.0623821142170146	0	0	-0.0342563683087168	-0.0137435461394007	0	0
0	0	-0.234825645045407	-0.895917508123446	0	0	0.0214572946473458	0.0200357204119773
0.5	0.0111750833870774	-0.00458841295212682	0	0	0.128277384668034	-0.948893384784024	0	0
0	0	-0.0331027567570338	0.00467318340824946	0	0	0.963990748644611	0.2077320479238
0.128277384668034	-0.948893384784024	0	0	0.0366597679851661	0.0168045575581667	0	0
0	0	-0.679107244443651	0.636332746871408	0	0	0.00502395604298985	0.00778625055536245
0.6	-0.0118598391904239	0.00174918616625046	0	0	0.955182656684424	0.132011433587961	0	0
0	0	-0.0085521661874147	0.00586449081463489	0	0	0.913195640901303	-0.328894057891763
0.955182656684424	0.132011433587961	0	0	0.00495431957925023	-0.0196607747759464	0	0
0	0	-0.861923889308174	-0.345586955402282	0	0	-0.00537276229521764	-0.00715207536486959
0.7	0.0114339907072457	0.000924117439680392	0	0	0.109879615518286	-0.958054806578318	0	0
0	0	0.022426933328663	-0.0112203998298145	0	0	-0.61218135999192	0.74824117588333
0.109879615518286	-0.958054806578318	0	0	0.00803138064079244	0.00982978723097279	0	0
0	0	0.045085094533034	0.920924629810969	0	0	0.00229771545082407	-0.0129781268035843
0.8	-0.0101499570941811	-0.00417360719478457	0	0	0.955811572208385	0.114640869829314	0	0
0	0	0.0440639965041909	-0.042029247236656	0	0	-0.12151435710045	0.961622980027801
0.955811572208385	0.114640869829314	0	0	-0.0227100470440831	0.0126415172772893	0	0
0	0	-0.812741711089233	0.44825141112597	0	0	0.00643896250806588	0.0834481554111099
0.9	0.00744017483115517	0.00706497280503709	0	0	0.146072319132532	-0.941023278007012	0	0
0	0	0.0131819703660014	-0.0278477128331165	0	0	-0.434331892459809	-0.867672289024309
0.146072319132532	-0.941023278007012	0	0	-0.00215730529051838	-0.0620614179781463	0	0
0	0	0.764702363409046	0.526537722493333	0	0	0.0362035100449006	0.0138044987349244
1	-0.00422915991061545	-0.00876941626027312	0	0	0.944271040175505	0.18269787017227	0	0
0	0	-0.014370264380842	0.0117897418324721	0	0	-0.839598530848972	-0.482874324058109
0.944271040175505	0.18269787017227	0	0	0.00234404497255686	0.0422810714918793	0	0
0	0	-0.127180203207205	0.90421874589288	0	0	0.00298611147436759	0.00213329081128235
1.1	0.000993758100696253	0.00861693900385582	0	0	0.202409889889438	-0.95162721365803	0	0
0	0	-0.0115891561455577	0.0350371013936996	0	0	0.958663339892051	-0.0507965727091313
0.202409889889438	-0.95162721365803	0	0	0.00315438573013449	0.00215334121005433	0	0
0	0	0.871144572976883	-0.260577940709117	0	0	0.00844204495906528	0.0435286767862851
1.2	0.00165986166373354	-0.00680203705665468	0	0	0.961686168309676	0.203188561586533	0	0
0	0	0.00870386340759048	0.0645688792011883	0	0	0.773158476375679	-0.556228923181095
0.961686168309676	0.203188561586533	0	0	0.0536358876887835	-2.27308710426463E-05	0	0
0	0	0.615592406515862	0.673272698443355	0	0	0.00682109409737904	0.100815353923773
1.3	-0.00361309066335353	0.00347632430136333	0	0	0.205385806940423	-0.94566365681187	0	0
0	0	0.0161275063835949	0.0189615928248661	0	0	-0.355657997071305	0.885938910495343
0.205385806940423	-0.94566365681187	0	0	-0.0546354439962927	0.0011239616729446	0	0
0	0	0.322620927434154	-0.861890540413041	0	0	0.0403824442992996	0.0152272505715416
1.4	0.0043302807861687	0.000286364117887561	0	0	0.927584677161052	0.233275499372035	0	0
0	0	-0.0133479287974669	-0.0438007490666939	0	0	0.181004255956661	0.939916724643189
0.927584677161052	0.233275499372035	0	0	0.017256491810035	0.00860283204254826	0	0
0	0	0.901332154844191	-0.0851310837785682	0	0	0.0447222087252578	-0.00590241731776934
1.5	-0.00345459774693044	-0.00335249599975039	0	0	0.270318253922754	-0.92567646128738	0	0
0	0	-0.0383606229346592	-0.0564695298845399	0	0	-0.677540945645947	-0.676278069208101
0.270318253922754	-0.92567646128738	0	0	0.0331664145095533	-0.0326248167523839	0	0
0	0	-0.463843243490298	-0.768894704500814	0	0	0.0335945566491868	0.0529519116491939
1.6	0.00142648025847492	0.00507689099789624	0	0	0.940450508355511	0.293737528758504	0	0
0	0	-0.0364561255895211	-0.0198158334986	0	0	-0.939542605492997	-0.182401556159955
0.940450508355511	0.293737528758504	0	0	-0.0517254477274258	-0.0264488793427029	0	0
0	0	0.497226700370106	-0.756768321900816	0	0	0.00130973575152596	0.0532773037484618
1.7	0.00126747590664236	-0.00505094281667896	0	0	0.288191052062101	-0.945683211858791	0	0
0	0	0.0153686564336891	0.00604879577954269	0	0	0.885817046039065	-0.346221039763958
0.288191052062101	-0.945683211858791	0	0	-0.000886010638539903	0.00551589967020653	0	0
0	0	-0.902451472897372	-0.109409029903372	0	0	0.0402044265407662	-0.0304378497216361
1.8	-0.00396479364642607	0.00325222716312801	0	0	0.919423878965695	0.289120359109775	0	0
0	0	0.0453252499112496	0.0377247409798416	0	0	0.572473732710994	-0.748201734281518
0.919423878965695	0.289120359109775	0	0	0.00691805052314868	0.0654541259525067	0	0
0	0	-0.31252713960426	-0.849738968153071	0	0	0.0276687894782982	-0.034021737309948
1.9	0.00597644104779804	-9.44660085703275E-05	0	0	0.318275346444191	-0.895584726441564	0	0
0	0	0.0527809094628925	-0.0040539110005377	0	0	-0.0813762996308502	0.94245866277912
0.318275346444191	-0.895584726441564	0	0	0.00978488408736893	0.00895879277892624	0	0
0	0	-0.614156952028648	0.647508449811617	0	0	0.0412188090459225	0.0235296983991597
2	-0.00647988807613334	-0.0039164781673874	0	0	0.892065670878906	0.348673159324452	0	0
0	0	0.0152502991966236	-0.00519702044352494	0	0	0.459018035448916	0.832479220271879
0.892065670878906	0.348673159324452	0	0	-0.0500028995934893	-0.0330917265430708	0	0
0	0	-0.845115966989204	-0.262461071002927	0	0	-0.0530383320980485	-0.0209988892853581
2.1	0.00516390817576808	0.0080403726894754	0	0	0.363667023692518	-0.898504766570918	0	0
0	0	-0.0289130568147986	0.00776024946194567	0	0	-0.830734996405848	-0.451011924102004
0.363667023692518	-0.898504766570918	0	0	0.0706233241687814	0.0162845859919948	0	0
0	0	0.136495041605362	0.879119634007512	0	0	-0.00496072903761113	0.00975800190108334
2.2	-0.00166170162701592	-0.0116297735675729	0	0	0.898668184574975	0.37584015804764	0	0
0	0	-0.0478646662374123	0.0172190820822395	0	0	-0.931996119207672	0.0693673039542362
0.898668184574975	0.37584015804764	0	0	0.0146691571959826	-0.0108450530772848	0	0
0	0	-0.736600833121767	0.506611116230251	0	0	0.0426132257460899	-0.0112654889769877
2.3	-0.00356494810101919	0.0136268404086698	0	0	0.385958254511701	-0.889446157843305	0	0
0	0	-0.030220853601904	0.0193864921262791	0	0	0.736447564460499	-0.555646494760345
0.385958254511701	-0.889446157843305	0	0	0.0580629919585347	-0.0288361432100251	0	0
0	0	0.776147498187561	0.431984469223014	0	0	0.0668406358388565	0.0465325666371605
2.4	0.00971995578625883	-0.0134496967871421	0	0	0.877855141674926	0.398164734385051	0	0
0	0	-0.000380706641264509	0.0011156228308917	0	0	0.324285212527137	-0.867915408090624
0.877855141674926	0.398164734385051	0	0	-0.096786143345261	0.0138344557471255	0	0
0	0	-0.0392008830104049	0.882552176632533	0	0	0.0472344160118817	-0.0492283351476288
2.5	-0.0161056699868682	0.0106757166704364	0	0	0.41537293977921	-0.866485725447083	0	0
0	0	0.0193608555120948	-0.0359847185111031	0	0	0.189333334978072	0.91778622186159
0.41537293977921	-0.866485725447083	0	0	-0.0100743121790488	-0.0271878297972113	0	0
0	0	0.80519021099839	-0.3321071638714	0	0	0.0126850596292931	-0.000874070718944063
2.6	0.0215338952741741	-0.00567564137243193	0	0	0.8597232429924	0.429668288879537	0	0
0	0	0.0180909403035316	-0.0387964078462047	0	0	0.667334721079065	0.653923694631619
0.8597232429924	0.429668288879537	0	0	0.0056139161033656	-0.0336842651513241	0	0
0	0	0.630731896750864	0.597567989702076	0	0	0.0626719738901323	0.00996747671071678
2.7	-0.0251259228347729	-0.0011452139379104	0	0	0.444397825916818	-0.854111537945653	0	0
0	0	0.0212658759494055	-0.0096528262924868	0	0	-0.898095695731733	-0.174392930928622
0.444397825916818	-0.854111537945653	0	0	0.00328455833221659	-0.0131984427942009	0	0
0	0	0.276129333939926	-0.836017197039073	0	0	-0.0273689555169107	-0.00112306844343761
2.8	0.0257252449979002	0.00888111967252035	0	0	0.844034960660196	0.457969830745847	0	0
0	0	0.00959482910389497	0.0123931553664583	0	0	-0.843100510040642	0.312822436051756
0.844034960660196	0.457969830745847	0	0	0.00411531637622159	0.0637152046928499	0	0
0	0	0.872445080245957	-0.150258454426897	0	0	0.0262133619451888	-0.0641127652077308
2.9	-0.0226766094417342	-0.0166455128041949	0	0	0.474106032697788	-0.825337252794339	0	0
0	0	-0.00033399005102419	0.036222426158762	0	0	0.56797795720451	-0.701673550375467
0.474106032697788	-0.825337252794339	0	0	-0.0536974874926825	0.0339545755986496	0	0
0	0	-0.515917041546756	-0.703505486752195	0	0	-0.0402830026795091	-0.0464093001526511
3	0.0168416108095058	0.0236073820361934	0	0	0.816878897599745	0.49833934250357	0	0
0	0	-0.0111324665161636	0.0290127272606826	0	0	0.0914623654522045	-0.921581695183736
0.816878897599745	0.49833934250357	0	0	-0.00697881312944729	-0.0179239291959835	0	0
0	0	0.406897068848373	-0.761917604222352	0	0	0.0136932137946891	0.0859809583574603
3.1	-0.00846223557463665	-0.0279158743452115	0	0	0.519057735359704	-0.807108403279917	0	0
0	0	-0.0202457378631972	0.011973642665187	0	0	0.449457689271265	0.807590863698236
0.519057735359704	-0.807108403279917	0	0	0.0386094307902553	-0.0648241699162207	0	0
0	0	-0.87069506137698	-0.0496137677631968	0	0	-0.0756776394687271	0.00634818625415871
3.2	-0.000976553363577487	0.0296411125953308	0	0	0.805837199144468	0.542732084300475	0	0
0	0	-0.0177223223171273	-0.00615554387327446	0	0	0.799788000935772	0.437146309152199
0.805837199144468	0.542732084300475	0	0	0.000642367031809364	0.0253227995506505	0	0
0	0	-0.338746578753334	-0.815031212659304	0	0	-0.059434249484695	0.00704553870757742
3.3	0.0101352873225589	-0.0274001004181181	0	0	0.553877721520579	-0.801932272974798	0	0
0	0	-0.00112802032675193	-0.0238489339544713	0	0	-0.906272422903515	0.05152255615167
0.553877721520579	-0.801932272974798	0	0	0.0622310530354883	0.0242696152934334	0	0
0	0	-0.574776700907329	0.677309352800354	0	0	-0.0277336010747656	-0.107115173727072
3.4	-0.0177787693329377	0.0214544444368223	0	0	0.785347574077101	0.558342532963648	0	0
0	0	-0.00425388063919065	-0.0403881858090618	0	0	-0.732921087917192	0.544995175815665
0.785347574077101	0.558342532963648	0	0	-0.115296012342213	0.00918904446453258	0	0
0	0	-0.858275668222288	-0.221166856999198	0	0	-0.0197158662517036	-0.0397680769981036
3.5	0.0230895907741054	-0.013677012596162	0	0	0.57255435882488	-0.776192197849168	0	0
0	0	0.00800436171878303	-0.0301442082208788	0	0	0.295655183821231	-0.870534927391919
0.57255435882488	-0.776192197849168	0	0	-0.0123751538579343	-0.0536881967568405	0	0
0	0	0.169651143338267	0.84371508522064	0	0	0.0848652803339394	-0.0730455873815616
3.6	-0.0250113225871113	0.00492350043380953	0	0	0.768991979161071	0.582000602138673	0	0
0	0	0.0195680002656598	0.00260428428544404	0	0	-0.212228117739278	-0.8943010443382
0.768991979161071	0.582000602138673	0	0	-0.034025968740598	0.0607052274043371	0	0
0	0	-0.691770484961058	0.522583704269924	0	0	0.044659541074067	-0.0318604301876202
3.7	0.022992366294821	0.00445357818755294	0	0	0.600627938705727	-0.74860705069907	0	0
0	0	0.0138347286030974	0.036390447859964	0	0	0.64132001284052	0.64688316255172
0.600627938705727	-0.74860705069907	0	0	0.118452583596304	0.00669808026058532	0	0
0	0	0.771839185625387	0.407114525775115	0	0	0.0553605224778321	-0.0194120883038743
3.8	-0.0179438356896759	-0.0122372186713546	0	0	0.741981897139697	0.618983119316047	0	0
0	0	0.0150722851168766	0.0505918639583089	0	0	0.870970034651236	0.183612331362941
0.741981897139697	0.618983119316047	0	0	-0.0252007123367607	0.02097259747553	0	0
0	0	-0.0131391279434533	0.870681242025352	0	0	-0.0583961806415426	-0.0248862134755986
3.9	0.0107633680259587	0.0170576060082042	0	0	0.623471571147705	-0.740748230917036	0	0
0	0	0.0108990498904854	0.0156674594613116	0	0	-0.821902863246251	0.329630105367017
0.623471571147705	-0.740748230917036	0	0	-0.012939978952271	0.0832251522360906	0	0
0	0	0.780571374038563	-0.3873011658306	0	0	0.0247027346960371	-0.00582368333761933
4	-0.00204902736833165	-0.0185610758415179	0	0	0.722513384671924	0.631679788129662	0	0
0	0	-0.0169708877552079	-0.0122713180387888	0	0	-0.512926475899754	0.724698126961902
0.722513384671924	0.631679788129662	0	0	0.0504230055980745	-0.0742936390552249	0	0
0	0	0.684214884876147	0.512988618500168	0	0	-0.00471703390722709	0.00956808582201411
4.1	-0.00597543380195205	0.0165781577597454	0	0	0.637312042979036	-0.709079675423026	0	0
0	0	-0.0417642270834245	-0.0354018856751501	0	0	0.0526169069732685	-0.88979062885812
0.637312042979036	-0.709079675423026	0	0	0.0243988381764838	-0.111541089277622	0	0
0	0	0.181326624427742	-0.826697744789148	0	0	0.0265395803821588	0.0814236885477222
4.2	0.0124164669280397	-0.0118492204099408	0	0	0.703674330044476	0.648856964172705	0	0
0	0	-0.0490567892565657	-0.0154132965652135	0	0	-0.433812732132776	-0.777651084387314
0.703674330044476	0.648856964172705	0	0	-0.0399027657908896	0.0165051480795045	0	0
0	0	0.82880737417759	-0.18586582646409	0	0	-0.0119254140248881	-0.0410867184867113
4.3	-0.0161442032287432	0.00487293520887772	0	0	0.657956573940606	-0.696638760117404	0	0
0	0	-0.00747960218370403	0.00673753515490973	0	0	0.776696887680296	0.421486928885863
0.657956573940606	-0.696638760117404	0	0	-0.0108064322490981	0.0670529269317056	0	0
0	0	-0.533963576713918	-0.670744637128556	0	0	-0.0143559184615326	0.00242325983616128
4.4	0.0162691900075903	0.00332980919124687	0	0	0.679520305354082	0.66794849049993	0	0
0	0	0.0380285810773515	0.00433911599527593	0	0	0.885608648279482	-0.0544388454303671
0.679520305354082	0.66794849049993	0	0	0.00125178999655506	-0.0499527976395609	0	0
0	0	0.344164866103199	-0.770386743543945	0	0	-0.0334280042047473	0.00333832052103152
4.5	-0.0127379206618375	-0.0107470756508919	0	0	0.67502857266894	-0.661270111460101	0	0
0	0	0.0646635588870894	-0.00451520353253122	0	0	-0.720206246400304	0.522139092450226
0.67502857266894	-0.661270111460101	0	0	-0.0496088728807649	0.0264032334307038	0	0
0	0	-0.833072295784888	0.0116529184469024	0	0	-0.0856145565970015	0.0617815129441532
4.6	0.00625189331813079	0.0163747428218408	0	0	0.643399969082002	0.690248306432093	0	0
0	0	0.0466650629179221	-0.0249212611699237	0	0	-0.31245201571024	0.842546013113018
0.643399969082002	0.690248306432093	0	0	-0.0038783706938084	0.0137418619317309	0	0
0	0	-0.370913857475996	-0.743146574830502	0	0	-0.0798902995317503	-0.00961661588476953
4.7	0.00183891271571897	-0.019013124037302	0	0	0.708049627054545	-0.636751383488813	0	0
0	0	-0.024538761983177	-0.00529960791694794	0	0	-0.190472676027186	-0.872615326121597
0.708049627054545	-0.636751383488813	0	0	0.0654510434711484	-0.0177178710356713	0	0
0	0	-0.523716682410607	0.654486905068819	0	0	-0.0730489068433867	0.0719858020388319
4.8	-0.0104177461298175	0.0181557033096402	0	0	0.637170164024485	0.724424909395222	0	0
0	0	-0.0586871376762774	0.0343611112323251	0	0	-0.606313403164804	-0.634449508712068
0.637170164024485	0.724424909395222	0	0	0.0529070564001458	-0.0184821611854204	0	0
0	0	-0.826805798317587	-0.197229374040134	0	0	-0.00923632295663716	0.0716517843258594
4.9	0.0179398690140278	-0.0129921797185176	0	0	0.730603576461543	-0.629461210477343	0	0
0	0	-0.0399193357572261	0.0586345294781579	0	0	0.853958165535596	0.20697012959076
0.730603576461543	-0.629461210477343	0	0	-0.0807942757844508	-0.029092292960436	0	0
0	0	0.19894713580069	0.820910730091455	0	0	-0.0835634580491159	0.00376937851267202
5	-0.0226206652573675	0.004862153132428	0	0	0.618757328023451	0.726163376349072	0	0
0	0	-0.000627714976601959	0.0202642963237969	0	0	0.830847282187364	-0.298449072975
0.618757328023451	0.726163376349072	0	0	-0.0476870072157039	0.040618972151032	0	0
0	0	-0.644969823995689	0.533936134159284	0	0	0.0413304734806926	-0.00916854205189917
5.1	0.0241172718662508	0.00502848248045366	0	0	0.727447848629094	-0.606497400646021	0	0
0	0	0.0380623973733151	-0.0336937104028327	0	0	-0.532980349791818	0.69579636267808
0.727447848629094	-0.606497400646021	0	0	-0.0218622969339464	-0.0414656884828965	0	0
0	0	0.750112218817206	0.344507024790121	0	0	0.0723482737568552	-0.019774062016738
5.2	-0.0216964207413611	-0.0160901941723301	0	0	0.584425092071228	0.745091579423397	0	0
0	0	0.0156655044758078	-0.0746391135730108	0	0	-0.0781351027058149	0.871819310849337
0.584425092071228	0.745091579423397	0	0	0.0381100185991405	0.0223661727121638	0	0
0	0	0.0157646175682592	0.832370692329529	0	0	0.0266320453330832	0.0664348759375564
5.3	0.0153743188319441	0.0257116438519529	0	0	0.763489659497219	-0.57258091045951	0	0
0	0	-0.0145198349099274	-0.0417000980006298	0	0	-0.412795103327958	-0.770600642827149
0.763489659497219	-0.57258091045951	0	0	-0.0321906220032965	0.0248205145578402	0	0
0	0	0.742629655861876	-0.374820662869085	0	0	-0.0435330010348705	0.012085369468736
5.4	-0.00623894638412544	-0.0317918032863077	0	0	0.564480021097516	0.768427678200024	0	0
0	0	-0.0314744433013998	0.0142858196654037	0	0	-0.767434194298329	-0.427530418277369
0.564480021097516	0.768427678200024	0	0	0.0704949150401769	0.0875457580327482	0	0
0	0	0.65766096080931	0.50921381294357	0	0	-0.00951090172765373	0.0219487721374017
5.5	-0.00458419773552201	0.0342522378056886	0	0	0.779089110062789	-0.561818737491024	0	0
0	0	0.0232746126095513	0.0598457594576409	0	0	0.876896340086794	-0.0451724789588472
0.779089110062789	-0.561818737491024	0	0	-0.0066239196317516	-0.0275839619981409	0	0
0	0	0.156941270921759	-0.816504681223537	0	0	0.0215818711169016	0.0385127614817328
5.6	0.0161154054224446	-0.0316795167297809	0	0	0.547705807393863	0.784562754964211	0	0
0	0	0.042576468484496	0.0566197266572678	0	0	0.69726241167181	-0.508579911757089
0.547705807393863	0.784562754964211	0	0	0.00175468752437108	-0.109332388470902	0	0
0	0	0.799070644463723	-0.202579051976993	0	0	0.0111611744603763	0.117426962233488
5.7	-0.0268733705621244	0.025026691288201	0	0	0.797536175018944	-0.539229310865197	0	0
0	0	0.0209763387260204	-0.006874993161283	0	0	-0.317107697178563	0.806901628168222
0.797536175018944	-0.539229310865197	0	0	-0.0118701978556657	0.0514930325788906	0	0
0	0	-0.53599906775277	-0.647983247133227	0	0	0.0585330061721145	0.0345113949085237
5.8	0.033786132177802	-0.0144816410697168	0	0	0.521652973181342	0.797398184408849	0	0
0	0	-0.0216900518473872	-0.0311702266221959	0	0	0.155738327349863	0.85264777364585
0.521652973181342	0.797398184408849	0	0	0.0588254409884248	-0.0273525718814853	0	0
0	0	0.323304020752593	-0.770303027865004	0	0	0.0338917293045376	0.0555286231448215
5.9	-0.0369415912877752	0.0014508200122467	0	0	0.81116328938866	-0.498178923636107	0	0
0	0	-0.0558686529436873	-0.0265654028865691	0	0	-0.584899798016751	-0.636723711288587
0.81116328938866	-0.498178923636107	0	0	-0.0733126009241954	0.0434461714569829	0	0
0	0	-0.82601172941568	0.0600198183668985	0	0	0.0372857609354146	0.0724372967426842
6	0.035576461698621	0.011406891402265	0	0	0.481962169970284	0.824564085642119	0	0
0	0	-0.0338330230783491	0.00605154190073377	0	0	-0.846823281020602	-0.19432577532958
0.481962169970284	0.824564085642119	0	0	-0.00317792180072404	0.0239080529987405	0	0
