# GHZ S RI R 50
0.2	-0.00667384298884399	0.0117917943949531	0	0	0.957722281810749	0.0583650019692788	0	0
0	0	0.0190799227462686	0.00528660252115227	0	0	-0.370663305087635	0.910971785468579
0.957722281810749	0.0583650019692788	0	0	0.0211288857266997	0.0405409315574196	0	0
0	0	0.569802539218901	-0.753843096141173	0	0	0.00162913697799375	-0.0332450446631805
0.3	0.00672153972770336	-0.010521418979614	0	0	0.0340274967477102	-0.965065166684186	0	0
0	0	-0.00586805896219809	0.0017573842236174	0	0	-0.13372419996222	-0.974210845380425
0.0340274967477102	-0.965065166684186	0	0	-0.0145382424289265	0.00335239918587621	0	0
0	0	-0.921875498748733	-0.202628922647324	0	0	-0.0330737439496224	-0.0185499603593256
0.4	-0.00888147609708047	0.00785956966279442	0	0	0.948522145089175	0.0628328090291033	0	0
0	0	-0.0393656734606966	0.000728827301614017	0	0	-0.66650703652392	-0.726368817113493
0.948522145089175	0.0628328090291033	0	0	-0.0348457788270038	-0.0146782702784419	0	0
0	0	-0.23440287061533	-0.896025533366851	0	0	0.0208360243769393	0.0191535085882475
0.5	0.0116576713799649	-0.0041979796542512	0	0	0.128876352667849	-0.948910778531522	0	0
0	0	-0.032486141112155	0.00459324525304429	0	0	0.963974180370431	0.208365240625322
0.128876352667849	-0.948910778531522	0	0	0.0360996944209354	0.0164449640798689	0	0
0	0	-0.67958962528191	0.635979690861374	0	0	0.00446825821610894	0.00738473858936924
0.6	-0.0128061906935889	0.0014039166239808	0	0	0.955363353329092	0.132808742720357	0	0
0	0	-0.00758108309585554	0.00597269446090527	0	0	0.913735979752579	-0.32828373271661
0.955363353329092	0.132808742720357	0	0	0.00468633178255292	-0.0197922850277851	0	0
0	0	-0.861922042549742	-0.346366832669793	0	0	-0.00566672046854024	-0.00729288456146
0.7	0.0126048193136961	0.00084717355431266	0	0	0.11074665372845	-0.958471762724729	0	0
0	0	0.0234866846672385	-0.0108418930915787	0	0	-0.613166198396816	0.748118416501228
0.11074665372845	-0.958471762724729	0	0	0.00800537226441268	0.00975871230432326	0	0
0	0	0.0443096075018908	0.921467353354499	0	0	0.00230462972918684	-0.0130846306893314
0.8	-0.0111633700892085	-0.00371024245647064	0	0	0.956510556098942	0.115531180900363	0	0
0	0	0.0450003577101851	-0.0414869112283558	0	0	-0.122361282380386	0.962249114620824
0.956510556098942	0.115531180900363	0	0	-0.0226130552443429	0.0123552740730009	0	0
0	0	-0.813703897919699	0.447949061582616	0	0	0.00646764428683606	0.0833198556891785
0.9	0.00807345925736426	0.00651384344022928	0	0	0.147005308706783	-0.941989278431874	0	0
0	0	0.0138275415267356	-0.0273204655154583	0	0	-0.434099460289632	-0.868954875405881
0.147005308706783	-0.941989278431874	0	0	-0.00194085399788688	-0.0627337053856647	0	0
0	0	0.765099925634497	0.527719903261152	0	0	0.0363833639874264	0.0133625271956358
1	-0.00451493262441046	-0.00841811238088784	0	0	0.945430639261233	0.183524915511944	0	0
0	0	-0.0141216456462944	0.0121408581738488	0	0	-0.840448498304987	-0.484057766047548
0.945430639261233	0.183524915511944	0	0	0.0021691567310669	0.0416758571183806	0	0
0	0	-0.12791655590985	0.905378361942687	0	0	0.00286553964723738	0.00142176688911876
1.1	0.00115373377522031	0.00868052530462573	0	0	0.203086586208764	-0.953056677661979	0	0
0	0	-0.011729304258402	0.0350852907321497	0	0	0.960210323090997	-0.0505239050264956
0.203086586208764	-0.953056677661979	0	0	0.00265717319964724	0.00143679037554566	0	0
0	0	0.872629425872177	-0.260671979236171	0	0	0.0079384861114588	0.0429585465896263
1.2	0.0012810923038635	-0.00723150981423636	0	0	0.963307203352616	0.203582757586451	0	0
0	0	0.00831275434718898	0.0642502087458794	0	0	0.77453735885178	-0.55720041535403
0.963307203352616	0.203582757586451	0	0	0.0529894300646007	-0.000537915624994442	0	0
0	0	0.61667076941037	0.674475734276816	0	0	0.00601051806359215	0.100673887730339
1.3	-0.00295085165075763	0.00396204907328873	0	0	0.205500775327287	-0.947444735373292	0	0
0	0	0.0157153264256919	0.0183300941772897	0	0	-0.356029101225862	0.887620277780532
0.205500775327287	-0.947444735373292	0	0	-0.0558060464544987	0.000890519608274333	0	0
0	0	0.322940354074063	-0.863519360655356	0	0	0.0395648104961165	0.0150343503557817
1.4	0.00358412230192088	-0.000166923273300497	0	0	0.929333148735498	0.233075354322979	0	0
0	0	-0.0135095791562573	-0.0446014905268297	0	0	0.181905856466538	0.941417082251265
0.929333148735498	0.233075354322979	0	0	0.016364335676729	0.00850060095021428	0	0
0	0	0.902826509673114	-0.0858437894877025	0	0	0.0439021954145416	-0.00604955795934553
1.5	-0.00261961653038406	-0.00290782085770819	0	0	0.26987812355486	-0.927380342059809	0	0
0	0	-0.0382112585469942	-0.0573222445561202	0	0	-0.679292682246207	-0.676652367946105
0.26987812355486	-0.927380342059809	0	0	0.032297803887958	-0.0327505090317685	0	0
0	0	-0.465353283691544	-0.76963164869702	0	0	0.0328920097859657	0.0531079734983934
1.6	0.000436020179064273	0.00478392092302996	0	0	0.942157166273143	0.292998774701985	0	0
0	0	-0.036043225358834	-0.020645168816087	0	0	-0.941049631845644	-0.181429314432717
0.942157166273143	0.292998774701985	0	0	-0.0527066009633255	-0.026152216273571	0	0
0	0	0.496917261405542	-0.758436636031911	0	0	0.000680793738040444	0.0536697237597978
1.7	0.00223663241829125	-0.00506246227960279	0	0	0.287135080145786	-0.947106802664622	0	0
0	0	0.0159336124487594	0.00540175937565677	0	0	0.886270492834875	-0.347814874136072
0.287135080145786	-0.947106802664622	0	0	-0.00141220060977677	0.00591722828414353	0	0
0	0	-0.903554541487383	-0.108272405292308	0	0	0.0396635642563808	-0.030221710644668
1.8	-0.00468440427863417	0.00342993921520566	0	0	0.920505276042623	0.287887066744451	0	0
0	0	0.045908289837064	0.0373750776159764	0	0	0.571776598707027	-0.749611237472302
0.920505276042623	0.287887066744451	0	0	0.00682696208958768	0.0659379902314378	0	0
0	0	-0.314029891827191	-0.849898751694528	0	0	0.0273090682240132	-0.0337383902966279
1.9	0.00646884709519548	-0.00021352584458612	0	0	0.317041745524078	-0.896408102316654	0	0
0	0	0.0532537552996792	-0.00408228575319042	0	0	-0.0799845980654559	0.942926857219788
0.317041745524078	-0.896408102316654	0	0	0.00969439258364706	0.00926840001022955	0	0
0	0	-0.613405417609289	0.648672135827246	0	0	0.0412002332448254	0.0237594772351369
2	-0.0068779699746305	-0.00395105324875765	0	0	0.892647554147299	0.347459880310032	0	0
0	0	0.0155274868514825	-0.00495106223718352	0	0	0.460238878436042	0.83191831257181
0.892647554147299	0.347459880310032	0	0	-0.0501606472269722	-0.0327385213890602	0	0
0	0	-0.845573291484846	-0.261297017737054	0	0	-0.0531597090823023	-0.0206307491231026
2.1	0.00561675252080895	0.00819214556826017	0	0	0.36252606451692	-0.898752656412652	0	0
0	0	-0.0288710063048353	0.00819275292307798	0	0	-0.831136761242602	-0.449934720435267
0.36252606451692	-0.898752656412652	0	0	0.0705602584227882	0.0162605816617898	0	0
0	0	0.137530525707695	0.878805635815498	0	0	-0.00500798353880403	0.00991844560935039
2.2	-0.00221924560355716	-0.0117601235527673	0	0	0.898714715593964	0.374892353614659	0	0
0	0	-0.0480311969064312	0.0177038933974996	0	0	-0.931606941392174	0.0701911265639688
0.898714715593964	0.374892353614659	0	0	0.0145187589318485	-0.0106981903567759	0	0
0	0	-0.735882133945646	0.507104166387957	0	0	0.0424468075316922	-0.0111708161174049
2.3	-0.00301036639753658	0.0136190722388718	0	0	0.385283379298315	-0.889325689661752	0	0
0	0	-0.030497341115748	0.0197950754906351	0	0	0.735784310542681	-0.555860279145388
0.385283379298315	-0.889325689661752	0	0	0.0578588110336652	-0.0286304481105417	0	0
0	0	0.776077353708966	0.431317185952873	0	0	0.0667261922719157	0.046660200222898
2.4	0.00931920442181278	-0.0133294277119563	0	0	0.87772794616212	0.397712198694701	0	0
0	0	-0.000657120779434422	0.00136853629761421	0	0	0.323919495130055	-0.867740206635258
0.87772794616212	0.397712198694701	0	0	-0.0967635865752551	0.0142418472927291	0	0
0	0	-0.038920606511109	0.882285817139614	0	0	0.0471313595211731	-0.0488759221572959
2.5	-0.0159193859302258	0.0106000582549017	0	0	0.415244121492689	-0.866381237570685	0	0
0	0	0.0191854392819726	-0.0359292716337917	0	0	0.189369913049994	0.917623284675938
0.415244121492689	-0.866381237570685	0	0	-0.0100032733297955	-0.0267776249258689	0	0
0	0	0.805035085964025	-0.332112295828204	0	0	0.0127638487093419	-0.000472943853911713
2.6	0.0214668267049482	-0.00576347081130604	0	0	0.859752834252162	0.429803988227767	0	0
0	0	0.0180822769991825	-0.0388941845288318	0	0	0.667323569594796	0.654049871679255
0.859752834252162	0.429803988227767	0	0	0.00580985286906373	-0.0333057283135346	0	0
0	0	0.630723504323227	0.597685484142985	0	0	0.0628798984798327	0.0103705672366191
2.7	-0.025050482280278	-0.000909141464072769	0	0	0.44474102910164	-0.854373497104046	0	0
0	0	0.0214211469384543	-0.00980334830454817	0	0	-0.898438222600784	-0.174633990429217
0.44474102910164	-0.854373497104046	0	0	0.00355088204951028	-0.0128802042627059	0	0
0	0	0.276401268172974	-0.836314735659389	0	0	-0.0271239363470409	-0.00080038634719559
2.8	0.0256206401800842	0.00857717025774688	0	0	0.844617052180193	0.458420732220965	0	0
0	0	0.00986251820669674	0.0123139966444129	0	0	-0.843776063871448	0.312916328153853
0.844617052180193	0.458420732220965	0	0	0.00439747023656725	0.0640793417136851	0	0
0	0	0.873115798557593	-0.150227150491094	0	0	0.0265703011862104	-0.0639283109379388
2.9	-0.0225890987562323	-0.0162783521991585	0	0	0.474606095278017	-0.826270363003001	0	0
0	0	-2.50653091093169E-05	0.03632686249581	0	0	0.568598917040629	-0.702439992939851
0.474606095278017	-0.826270363003001	0	0	-0.0535101027822509	0.0342375161341566	0	0
0	0	-0.516480444738872	-0.704274447914184	0	0	-0.0400717466955358	-0.0463053584046714
3	0.0167466619329422	0.0231197489528814	0	0	0.818142585621425	0.498769320210789	0	0
0	0	-0.0108550939783118	0.0293374706411748	0	0	0.0912595161523358	-0.922868537026209
0.818142585621425	0.498769320210789	0	0	-0.00671622712596786	-0.017843074709201	0	0
0	0	0.407180265713511	-0.763099168586704	0	0	0.0140761971729137	0.0863262431833875
3.1	-0.00826333312931069	-0.0273235126315632	0	0	0.51930856523283	-0.808667808996367	0	0
0	0	-0.0200619123892941	0.0124840050098351	0	0	0.450738182873739	0.808563008647822
0.51930856523283	-0.808667808996367	0	0	0.0388662924800082	-0.0650347584491285	0	0
0	0	-0.872116618802954	-0.0490840963863927	0	0	-0.075672744964612	0.006515436293527
3.2	-0.00132443869563783	0.0290306186881341	0	0	0.807755511373791	0.542650083195884	0	0
0	0	-0.0177086174428606	-0.00555951016894638	0	0	0.801608496518079	0.436931350821361
0.807755511373791	0.542650083195884	0	0	0.00084740449741012	0.0253785408824732	0	0
0	0	-0.34025138416156	-0.815972867436112	0	0	-0.059464376475506	0.00718478989758175
3.3	0.0105788732446368	-0.0268820715775628	0	0	0.553376651097736	-0.804005663945046	0	0
0	0	-0.00130161849741383	-0.0232985088341389	0	0	-0.907600393944037	0.0530204157000984
0.553376651097736	-0.804005663945046	0	0	0.0625484564344095	0.0240983679136156	0	0
0	0	-0.574610458479576	0.679261246254704	0	0	-0.0281086214508119	-0.107391441023529
3.4	-0.0182007086422048	0.0210402283621522	0	0	0.787582800641549	0.557420865678503	0	0
0	0	-0.00459749545766553	-0.0400041312687349	0	0	-0.732746138641507	0.547217339661524
0.787582800641549	0.557420865678503	0	0	-0.115563875378235	0.0096804940620221	0	0
0	0	-0.859846856807325	-0.219680159508912	0	0	-0.0199431397631034	-0.0398039162709035
3.5	0.0234590274888751	-0.0132707500110673	0	0	0.571184092430388	-0.778311487951852	0	0
0	0	0.0075622803405557	-0.0300054859613805	0	0	0.293817659542993	-0.872011809303248
0.571184092430388	-0.778311487951852	0	0	-0.0126823184672906	-0.0537039697719051	0	0
0	0	0.171832749144458	0.844047439935228	0	0	0.0846323683690303	-0.0735714180545945
3.6	-0.0253914573938402	0.00449475751537368	0	0	0.770946497797855	0.58010475249086	0	0
0	0	0.0190902963368686	0.00248677429143491	0	0	-0.214741764082136	-0.894090379065258
0.770946497797855	0.58010475249086	0	0	-0.0337227405877918	0.0609834354760692	0	0
0	0	-0.690634849918367	0.524674487692728	0	0	0.0445080715266161	-0.0320958468054528
3.7	0.0234204982415019	0.00487015023446407	0	0	0.598386671604156	-0.750175445849828	0	0
0	0	0.013437875724081	0.0360619313985209	0	0	0.643067499294226	0.644960978967489
0.598386671604156	-0.750175445849828	0	0	0.118473406998028	0.00605664935128435	0	0
0	0	0.772884497313265	0.404856083819668	0	0	0.0552456679427551	-0.0196921209550077
3.8	-0.0184076494371604	-0.0125582450269439	0	0	0.743251753790116	0.616416936943737	0	0
0	0	0.0148212136228234	0.0501982340602601	0	0	0.870919704713554	0.180988535283526
0.743251753790116	0.616416936943737	0	0	-0.0250116022935864	0.0211101247564544	0	0
0	0	-0.0106292499109314	0.870141393949585	0	0	-0.0584285176792701	-0.0245041961999302
3.9	0.0111630964183507	0.0172552926327865	0	0	0.620669653834163	-0.741496663476618	0	0
0	0	0.0108195369983937	0.0153107401994227	0	0	-0.819992887970535	0.331412582551369
0.620669653834163	-0.741496663476618	0	0	-0.0124240060011649	0.0830807056793237	0	0
0	0	0.778559126128779	-0.388901005134341	0	0	0.0246459839603573	-0.00595357809632415
4	-0.00231249642390396	-0.0187316031964799	0	0	0.722745467328739	0.628909464467477	0	0
0	0	-0.0168731257745438	-0.012509932909899	0	0	-0.510324781919892	0.724657154663253
0.722745467328739	0.628909464467477	0	0	0.0499293745297995	-0.0743077979690351	0	0
0	0	0.684244118379203	0.510482567166697	0	0	-0.00462418473297055	0.00951819282451733
4.1	-0.00579526824200345	0.0168011597962365	0	0	0.634642589003905	-0.708807372013231	0	0
0	0	-0.0415375099824169	-0.0354741979964997	0	0	0.0507770473779365	-0.888005394034604
0.634642589003905	-0.708807372013231	0	0	0.0238865130618866	-0.111222898527052	0	0
0	0	0.179336290303293	-0.825296337247134	0	0	0.0267590012963617	0.0809189301901157
4.2	0.0122381589271343	-0.0121191266801218	0	0	0.702968158847653	0.646350559927521	0	0
0	0	-0.0488024877347184	-0.0153289690902951	0	0	-0.433895492466516	-0.775237428091403
0.702968158847653	0.646350559927521	0	0	-0.0396748351109432	0.0164897495018202	0	0
0	0	0.826622480322954	-0.186595988019486	0	0	-0.011989037547375	-0.0409190451235285
4.3	-0.0159622717787778	0.0051203382936512	0	0	0.655748937629235	-0.695540109452549	0	0
0	0	-0.00730528683547775	0.0069205674345673	0	0	0.775198014910252	0.419801208384138
0.655748937629235	-0.695540109452549	0	0	-0.0106460287473165	0.0667162110490441	0	0
0	0	-0.533263681188073	-0.668671141753282	0	0	-0.0142960969850063	0.0024097124691995
4.4	0.0161525856763391	0.00312491736147268	0	0	0.678162719880227	0.666180301984458	0	0
0	0	0.0380569401134272	0.00453016692657298	0	0	0.883540949829556	-0.0546129968390687
0.678162719880227	0.666180301984458	0	0	0.00121307146614692	-0.0496972716065462	0	0
0	0	0.343107414565221	-0.768720743284754	0	0	-0.0332741102396123	0.00337421085224993
4.5	-0.0127298700396037	-0.0105282994943172	0	0	0.673706762271107	-0.659809441153451	0	0
0	0	0.0645232736065903	-0.00439879942988802	0	0	-0.7187763650224	0.520974716009636
0.673706762271107	-0.659809441153451	0	0	-0.0493682628569661	0.0263611197343618	0	0
0	0	-0.831349474455924	0.0115319535424737	0	0	-0.0852349885046687	0.0615880921419033
4.6	0.00631941292558075	0.0160672146543458	0	0	0.641944628492605	0.689366435560855	0	0
0	0	0.0464029751692671	-0.024926805993111	0	0	-0.312337857170956	0.840946920801841
0.641944628492605	0.689366435560855	0	0	-0.00378544607325917	0.0138010690498149	0	0
0	0	-0.369907315862973	-0.742059148167432	0	0	-0.0795071041735565	-0.00954931623668112
4.7	0.00177808365405024	-0.0186013350681439	0	0	0.707567805117039	-0.635390870209704	0	0
0	0	-0.0248415753836579	-0.00546033627224159	0	0	-0.189635963387118	-0.871638548594827
0.707567805117039	-0.635390870209704	0	0	0.065462662140371	-0.0174806938280586	0	0
0	0	-0.523498862377899	0.653299669788875	0	0	-0.0727990661810385	0.071800096327859
4.8	-0.0104166770787791	0.0177070159597173	0	0	0.636057002208084	0.724309086214801	0	0
0	0	-0.0589043143224973	0.0340796558686432	0	0	-0.605336843832845	-0.634372967231849
0.636057002208084	0.724309086214801	0	0	0.0530394997645258	-0.0182876194062989	0	0
0	0	-0.825971212749258	-0.197680644421138	0	0	-0.00913766243942478	0.0715938714318972
4.9	0.0179490543409769	-0.012560470500407	0	0	0.73078586531921	-0.628756597399177	0	0
0	0	-0.0399769475492332	0.0582979966224019	0	0	0.853530774973225	0.207468805270651
0.73078586531921	-0.628756597399177	0	0	-0.0804790087073471	-0.0291373884609507	0	0
0	0	0.198332853722318	0.820764936816826	0	0	-0.0832914036676546	0.00369006434150809
5	-0.0226000216756081	0.00441954333264299	0	0	0.618495940606157	0.726427553521528	0	0
0	0	-0.00048092260640337	0.0199401535699488	0	0	0.830963975811887	-0.29809492403674
0.618495940606157	0.726427553521528	0	0	-0.0474942821336908	0.0405898047436023	0	0
0	0	-0.645188030020136	0.533657825708429	0	0	0.0415643581457303	-0.00913628896028064
5.1	0.0241071929584404	0.0055316122217227	0	0	0.727689673470886	-0.606640487592731	0	0
0	0	0.0383836979213407	-0.0339323690169814	0	0	-0.533140608547902	0.695933885919855
0.727689673470886	-0.606640487592731	0	0	-0.0216574635098167	-0.0415290311332114	0	0
0	0	0.750271921655063	0.34462555271696	0	0	0.0726015687395407	-0.0198259062556028
5.2	-0.0217490365834742	-0.0166188300763713	0	0	0.584963343674255	0.745102203060576	0	0
0	0	0.0160766265395139	-0.07474712440615	0	0	-0.0777613495551069	0.872167031331483
0.584963343674255	0.745102203060576	0	0	0.0383263948269103	0.02225659983865	0	0
0	0	0.0161537687115614	0.832661043663591	0	0	0.0268806783816919	0.066360623118916
5.3	0.0154921802193679	0.0261805998049933	0	0	0.763200191123878	-0.573486539023784	0	0
0	0	-0.0141412131694482	-0.0416634368076307	0	0	-0.413653536904868	-0.770476241991803
0.763200191123878	-0.573486539023784	0	0	-0.0320667690153997	0.0247623275332396	0	0
0	0	0.74253121621253	-0.375640160805594	0	0	-0.0434417649729766	0.0120370530786679
5.4	-0.00633888993808977	-0.0321586410137725	0	0	0.56556439788101	0.767669092395143	0	0
0	0	-0.0312275376148839	0.0144605702033458	0	0	-0.768085406182465	-0.426507263784469
0.56556439788101	0.767669092395143	0	0	0.0707791367171443	0.0872236215092161	0	0
0	0	0.658415883308218	0.508348546558652	0	0	-0.00942241564554987	0.0218420926400937
5.5	-0.00456816182316909	0.0345933254532893	0	0	0.777874275386983	-0.56298544996665	0	0
0	0	0.023331970998026	0.0601108674255057	0	0	0.876530599844026	-0.0466842250757113
0.777874275386983	-0.56298544996665	0	0	-0.00670370478627795	-0.0276496961886284	0	0
0	0	0.155468483489226	-0.816510561280952	0	0	0.0217038465975954	0.0383080797858907
5.6	0.0161550539794559	-0.0320766646568075	0	0	0.548750942661885	0.782866888708854	0	0
0	0	0.0424414491323912	0.0569020689919696	0	0	0.695650337453516	-0.509543150341462
0.548750942661885	0.782866888708854	0	0	0.00136393025137679	-0.109233894379478	0	0
0	0	0.797984648021416	-0.204006691237695	0	0	0.0116306486810023	0.117107173097285
5.7	-0.0268765000831066	0.0254818944664923	0	0	0.795297883541425	-0.54008169617507	0	0
0	0	0.0207019394909227	-0.0066449362536153	0	0	-0.315022590200239	0.806363064067744
0.795297883541425	-0.54008169617507	0	0	-0.0115244107313432	0.0512991039774485	0	0
0	0	-0.536520880662781	-0.645960612968953	0	0	0.0585960973772534	0.0340808056977002
5.8	0.0337061397024414	-0.0149159528789778	0	0	0.52206030722483	0.794802349189294	0	0
0	0	-0.0220160221191887	-0.0310387342842247	0	0	0.157025254038339	0.850599071814534
0.52206030722483	0.794802349189294	0	0	0.0586102677101837	-0.0276062449650524	0	0
0	0	0.321186279095401	-0.769326963512872	0	0	0.0340807200529684	0.055025364746346
5.9	-0.0368301405954975	0.00178567024973597	0	0	0.808276948684734	-0.498184066143157	0	0
0	0	-0.0561468901906951	-0.0265536117101794	0	0	-0.584364107140095	-0.634139519388465
0.808276948684734	-0.498184066143157	0	0	-0.0727018823223431	0.0432291302219312	0	0
0	0	-0.823753354726388	0.0611558420942669	0	0	0.0374088743949199	0.0717176918609277
6	0.0355199775530843	0.0111861076712201	0	0	0.481385260703097	0.821522147804901	0	0
0	0	-0.0339874659608478	0.00596456500463924	0	0	-0.844456540176401	-0.192798641102412
0.481385260703097	0.821522147804901	0	0	-0.00309520153317133	0.0234834294648629	0	0
