# GHZ S RI R 50
0.2	-0.00651921593417791	0.0105245536722499	0	0	0.957847614701611	0.058188954913051	0	0
0	0	0.0201867495763004	0.00462689237709947	0	0	-0.370520176704341	0.911047843306573
0.957847614701611	0.058188954913051	0	0	0.0211731803656495	0.0423421889606696	0	0
0	0	0.569688513598552	-0.75394916471605	0	0	0.0016444461708314	-0.0314469031664297
0.3	0.00686327024827757	-0.0100030688447254	0	0	0.033739326503498	-0.965136730744183	0	0
0	0	-0.00535097593419566	0.00162115816850105	0	0	-0.134010643865364	-0.974226212024041
0.033739326503498	-0.965136730744183	0	0	-0.0140421966631199	0.00451902161111358	0	0
0	0	-0.921984335081286	-0.202376002204622	0	0	-0.0325928730597499	-0.0173749906337211
0.4	-0.00880451469040516	0.00785927182027846	0	0	0.948551384547578	0.0623810800583423	0	0
0	0	-0.0393988039301275	0.000799253674424861	0	0	-0.666854047447064	-0.726056239443206
0.948551384547578	0.0623810800583423	0	0	-0.0342543221662332	-0.0140398390214171	0	0
0	0	-0.234828368773116	-0.895918397139761	0	0	0.021459694796421	0.0197393494610874
0.5	0.0112272481439293	-0.00441632567208083	0	0	0.128267283836222	-0.948894714087791	0	0
0	0	-0.0329420463278448	0.00475423104406671	0	0	0.963993387683215	0.207728129924019
0.128267283836222	-0.948894714087791	0	0	0.0365889450500454	0.016613118725816	0	0
0	0	-0.679105622439173	0.636336899510907	0	0	0.00495294164225029	0.00759527402907615
0.6	-0.0120505886769536	0.00149750104172321	0	0	0.955177664928191	0.132011833642451	0	0
0	0	-0.00831474686178262	0.00605775148574681	0	0	0.913195856453463	-0.328894291063272
0.955177664928191	0.132011833642451	0	0	0.00489275339084714	-0.0197452713084595	0	0
0	0	-0.861924191663798	-0.345586925791547	0	0	-0.0054342915714564	-0.0072366403284164
0.7	0.011778868940093	0.00110739348635009	0	0	0.109871155484029	-0.958053316237852	0	0
0	0	0.0226605455581386	-0.0109278820324955	0	0	-0.612180727304674	0.748238358760079
0.109871155484029	-0.958053316237852	0	0	0.00804157003214902	0.00980121652352023	0	0
0	0	0.0450837413284231	0.92092223155229	0	0	0.00230776981154395	-0.0130065346575628
0.8	-0.0105373943300505	-0.00421598823388917	0	0	0.955819879109654	0.114631522948664	0	0
0	0	0.0442480840584158	-0.041698698523475	0	0	-0.121476188145262	0.961619400876308
0.955819879109654	0.114631522948664	0	0	-0.0226147738527672	0.0125915015126618	0	0
0	0	-0.812717416299763	0.448278932282685	0	0	0.00653768696099951	0.0833966244050011
0.9	0.00774073852734489	0.00700542930915564	0	0	0.146086553299305	-0.941028865674555	0	0
0	0	0.0132905211239945	-0.0275633531306048	0	0	-0.434327123109924	-0.867657715571522
0.146086553299305	-0.941028865674555	0	0	-0.00201947088427336	-0.0622039262484902	0	0
0	0	0.764691636037802	0.526527712286652	0	0	0.0363401752526385	0.0136618660824048
1	-0.00438685474175085	-0.00870313981568809	0	0	0.944263652189968	0.182687646077522	0	0
0	0	-0.0143509360083358	0.0119521539272402	0	0	-0.839596550436634	-0.482869145743117
0.944263652189968	0.182687646077522	0	0	0.00244038350240148	0.0420203915844274	0	0
0	0	-0.127176369833932	0.904215192786447	0	0	0.00308192261346026	0.00187315361558948
1.1	0.00102985485174112	0.00866314483784629	0	0	0.2024056132446	-0.95162324440646	0	0
0	0	-0.0116426825370833	0.0350293319739824	0	0	0.958659167392226	-0.0508019933834733
0.2024056132446	-0.95162324440646	0	0	0.00312400807433455	0.00181124907399009	0	0
0	0	0.871139523067759	-0.260581999953201	0	0	0.00841196504806802	0.043186130599906
1.2	0.00161972169481593	-0.00701904164829394	0	0	0.961676440739487	0.203173945032527	0	0
0	0	0.0086277528458328	0.0643855591861291	0	0	0.773158606806734	-0.556248610293785
0.961676440739487	0.203173945032527	0	0	0.0534452824490278	-0.000366098479549826	0	0
0	0	0.61561114882582	0.673270620723594	0	0	0.006633423047403	0.100473216663022
1.3	-0.00347957549035842	0.00377372586454467	0	0	0.20539812132775	-0.945668716067695	0	0
0	0	0.0160938090157553	0.0186576429371128	0	0	-0.355640451668126	0.885931615488566
0.20539812132775	-0.945668716067695	0	0	-0.0549344936049944	0.000843324487308259	0	0
0	0	0.322604184210706	-0.861883111182449	0	0	0.0400828462710056	0.0149460999288719
1.4	0.00414896481839924	-2.12764882549482E-05	0	0	0.927575916317595	0.233267594036212	0	0
0	0	-0.0132607313632146	-0.0441275255567682	0	0	0.181006201101321	0.939893849769256
0.927575916317595	0.233267594036212	0	0	0.016919156979284	0.00838183580568271	0	0
0	0	0.901310795178737	-0.0851349905594276	0	0	0.0443837540759415	-0.00612342061981393
1.5	-0.0032276448760045	-0.00302165642774405	0	0	0.270319755866284	-0.925650659904056	0	0
0	0	-0.0381382642740341	-0.0567663438330191	0	0	-0.677550487361193	-0.676253629796911
0.270319755866284	-0.925650659904056	0	0	0.0328098110466949	-0.0327811041059255	0	0
0	0	-0.463857457417132	-0.768874614132212	0	0	0.0332393732500917	0.0527924538873347
1.6	0.00110023940555732	0.00476511335768294	0	0	0.94045971645769	0.29375977390872	0	0
0	0	-0.0361331813211201	-0.0200565960395476	0	0	-0.939543819317857	-0.182380682892621
0.94045971645769	0.29375977390872	0	0	-0.0520786360175349	-0.0265077258047839	0	0
0	0	0.497208867803712	-0.756776884198507	0	0	0.000957420153605473	0.0532193070128859
1.7	0.00165686159806584	-0.00486106402152308	0	0	0.288191135749928	-0.945677719818344	0	0
0	0	0.0157231281204652	0.00590318351436495	0	0	0.885805226618389	-0.346196027231591
0.288191135749928	-0.945677719818344	0	0	-0.00118572287475257	0.00556317667490603	0	0
0	0	-0.902430202394386	-0.109424738731717	0	0	0.0399043896392141	-0.0303887624468988
1.8	-0.0042939396586688	0.00317877528039168	0	0	0.919414367802801	0.289101235887397	0	0
0	0	0.0456336576135132	0.0376971923520636	0	0	0.572483992706759	-0.748183661000977
0.919414367802801	0.289101235887397	0	0	0.00670995886681849	0.0655626739453608	0	0
0	0	-0.312507190638624	-0.849737991437842	0	0	0.0274606051948668	-0.0339107437602855
1.9	0.00620334745084824	-4.50322167917104E-05	0	0	0.318277380939866	-0.895578312198282	0	0
0	0	0.0529827217107656	-0.00397410358472559	0	0	-0.0813794555588851	0.942444565858678
0.318277380939866	-0.895578312198282	0	0	0.00966562816996975	0.00907444909180502	0	0
0	0	-0.614150992236165	0.647496193475456	0	0	0.0410987553155238	0.0236453337528288
2	-0.00663745664290152	-0.00401191854327125	0	0	0.892071414805829	0.348684885259468	0	0
0	0	0.0153165945009052	-0.00504168301301583	0	0	0.459017096901906	0.832490776667295
0.892071414805829	0.348684885259468	0	0	-0.0500690957278902	-0.0330097932644871	0	0
0	0	-0.845122793230438	-0.262469431147138	0	0	-0.0531047959550597	-0.0209167686484161
2.1	0.00532446786872586	0.00820040678510388	0	0	0.363660663280738	-0.898489271856563	0	0
0	0	-0.0289840987796926	0.00795029332577362	0	0	-0.830734945126993	-0.451013812760709
0.363660663280738	-0.898489271856563	0	0	0.0705609617785361	0.0163332679241404	0	0
0	0	0.136493598802965	0.879120673367249	0	0	-0.00502187113127186	0.00980664315360901
2.2	-0.00187885889757677	-0.0118043213427872	0	0	0.898662316429496	0.37584519334066	0	0
0	0	-0.0480369840797904	0.0173936396021961	0	0	-0.931985795386067	0.06935886340343
0.898662316429496	0.37584519334066	0	0	0.0145830285367468	-0.0107988527401948	0	0
0	0	-0.736596372315237	0.506599165487774	0	0	0.0425266260569368	-0.011218851807911
2.3	-0.00331384578453521	0.0137382711157538	0	0	0.385968854397736	-0.889429386383096	0	0
0	0	-0.0304262326610516	0.0195094678249284	0	0	0.736429767306732	-0.55563575487208
0.385968854397736	-0.889429386383096	0	0	0.0579553534785368	-0.0287497057737725	0	0
0	0	0.776131108424639	0.431972982633201	0	0	0.0667315597130141	0.046616614979541
2.4	0.00951453296964051	-0.0134770648879911	0	0	0.877874272790858	0.398157372256866	0	0
0	0	-0.000554127198736366	0.00117250863431371	0	0	0.324299607605913	-0.867910067036373
0.877874272790858	0.398157372256866	0	0	-0.0968842231047338	0.0139834705777411	0	0
0	0	-0.0392155098418981	0.882551560449323	0	0	0.0471385619241379	-0.0490800682737661
2.5	-0.0160066306165779	0.0106773083453277	0	0	0.415375683671699	-0.866487874135952	0	0
0	0	0.0192737524664382	-0.0359933091816478	0	0	0.189331691687083	0.91778609105666
0.415375683671699	-0.866487874135952	0	0	-0.0101245312662157	-0.0269880285764473	0	0
0	0	0.805190376650624	-0.33210564067833	0	0	0.0126347665554398	-0.000674167018477031
2.6	0.0215243829323938	-0.00572855441150589	0	0	0.859721299408028	0.429669019173021	0	0
0	0	0.0181106053656349	-0.0388393502162492	0	0	0.66733392104476	0.653920101379875
0.859721299408028	0.429669019173021	0	0	0.00562224714354253	-0.0334640951064726	0	0
0	0	0.630731096598516	0.597564661212613	0	0	0.0626799873400668	0.0101873820858522
2.7	-0.0251424609413224	-0.00101982714149472	0	0	0.444397097884584	-0.854109049318905	0	0
0	0	0.0213702922789325	-0.00968714045539786	0	0	-0.898096707268438	-0.174395122601811
0.444397097884584	-0.854109049318905	0	0	0.00333769848123584	-0.0129864123840882	0	0
0	0	0.276131549583493	-0.836017895035512	0	0	-0.0273158521864228	-0.000911152972375212
2.8	0.0257398333021581	0.00871663698198711	0	0	0.844043168017303	0.457963116044135	0	0
0	0	0.00973599422943159	0.0124129374079747	0	0	-0.843091171819012	0.312813830158785
0.844043168017303	0.457963116044135	0	0	0.00419668791176154	0.0639063373064964	0	0
0	0	0.872434487310151	-0.150251815113915	0	0	0.0262939034800193	-0.0639206199071806
2.9	-0.0227090683215353	-0.0164549628840675	0	0	0.474111576837056	-0.825344417311436	0	0
0	0	-0.000210431929547572	0.0363362919833563	0	0	0.567984698851722	-0.701663768696167
0.474111576837056	-0.825344417311436	0	0	-0.0535985656409678	0.0341163825192558	0	0
0	0	-0.515906240902902	-0.703509379144934	0	0	-0.0401828601732055	-0.0462477088333988
3	0.0168933426442693	0.0233563848835972	0	0	0.816870361579678	0.498340443744224	0	0
0	0	-0.0110656674382093	0.0292264400521962	0	0	0.0914439497283288	-0.921589825617527
0.816870361579678	0.498340443744224	0	0	-0.00686755169431075	-0.0178051255859075	0	0
0	0	0.406884087202113	-0.76193116860936	0	0	0.0138060608048393	0.0860995146460227
3.1	-0.00848798260533955	-0.027590838130519	0	0	0.519055272102712	-0.807077043705918	0	0
0	0	-0.020261657010478	0.0122585333754238	0	0	0.44945549909846	0.807611897316333
0.519055272102712	-0.807077043705918	0	0	0.038715487144315	-0.0647565948630557	0	0
0	0	-0.870710720448592	-0.0496261361798408	0	0	-0.0755723880484339	0.00641178185677553
3.2	-0.00102010763925507	0.0292727108579479	0	0	0.805836919467708	0.542724687617758	0	0
0	0	-0.0178377878142518	-0.00586120035939756	0	0	0.799798001960314	0.437159083369256
0.805836919467708	0.542724687617758	0	0	0.000719259675652595	0.0253396967730467	0	0
0	0	-0.338746383153245	-0.815046921665512	0	0	-0.0593581046376682	0.00706218666125412
3.3	0.0102471833266604	-0.0270555396904979	0	0	0.553857403326777	-0.801910874982752	0	0
0	0	-0.00132487204117461	-0.0236125937662175	0	0	-0.90627655838481	0.0514800267547298
0.553857403326777	-0.801910874982752	0	0	0.0622631420697475	0.0242606766214522	0	0
0	0	-0.574809644161534	0.677283597600764	0	0	-0.0276934727288694	-0.10712424606244
3.4	-0.0179022351601497	0.0211647270536131	0	0	0.785372633416995	0.558362576918744	0	0
0	0	-0.00450046937179296	-0.0402673880060807	0	0	-0.732933810031842	0.544981108540303
0.785372633416995	0.558362576918744	0	0	-0.11530241990512	0.0091798917160965	0	0
0	0	-0.858272802024418	-0.22118503801007	0	0	-0.019717844747422	-0.0397768110559902
3.5	0.0231909966810566	-0.0134008646578264	0	0	0.572574515699957	-0.776178498146749	0	0
0	0	0.00775504092925715	-0.0301634240754492	0	0	0.295675228586955	-0.870499561929654
0.572574515699957	-0.776178498146749	0	0	-0.012394661895812	-0.0536819916992526	0	0
0	0	0.169618298304787	0.843695870653101	0	0	0.0848441421454285	-0.0730332689465412
3.6	-0.0251124852502312	0.00462819624547933	0	0	0.769004615821008	0.581996681823069	0	0
0	0	0.0193528593149249	0.00244548514484846	0	0	-0.212205502348016	-0.894290662829842
0.769004615821008	0.581996681823069	0	0	-0.0340453091939696	0.0607248655818635	0	0
0	0	-0.69177010036713	0.522560235387993	0	0	0.0446404838563874	-0.0318391985982134
3.7	0.0231249222862895	0.00475631590314175	0	0	0.60061454129689	-0.748565348980604	0	0
0	0	0.013700517300401	0.0361388159935083	0	0	0.641294419068278	0.646884659643888
0.60061454129689	-0.748565348980604	0	0	0.118442339258825	0.00672264199426029	0	0
0	0	0.771816223905611	0.407123241342626	0	0	0.0553551546812998	-0.0193882907897089
3.8	-0.0181190455739962	-0.0124987906219869	0	0	0.741986351098356	0.618987818320268	0	0
0	0	0.0150236920062094	0.050335030910325	0	0	0.870988227233003	0.183625690003475
0.741986351098356	0.618987818320268	0	0	-0.0251903169544579	0.0209862075349097	0	0
0	0	-0.0131485465286196	0.870701212617324	0	0	-0.0583862290459278	-0.024874327011042
3.9	0.0109318935644312	0.0172403300386355	0	0	0.62346066900593	-0.740750782211201	0	0
0	0	0.0109307229508559	0.0154652998199914	0	0	-0.821907130134714	0.329617579195089
0.62346066900593	-0.740750782211201	0	0	-0.012916934401169	0.0832252198923001	0	0
0	0	0.78057653429857	-0.387289210674023	0	0	0.0247259732361161	-0.00582288073254937
4	-0.0021495414392516	-0.0187020692704425	0	0	0.722499880050109	0.631700740473319	0	0
0	0	-0.0168711309608605	-0.0123734019101931	0	0	-0.512934365286591	0.724698638402387
0.722499880050109	0.631700740473319	0	0	0.0504546712815455	-0.0743076445414104	0	0
0	0	0.684215169029328	0.512996228081566	0	0	-0.00468861979014284	0.00955309213905372
4.1	-0.00593084514927897	0.0167332202643079	0	0	0.637335624939049	-0.7090663389078	0	0
0	0	-0.0416310198061102	-0.0353882828806889	0	0	0.0526116292504105	-0.889790844598234
0.637335624939049	-0.7090663389078	0	0	0.0244278345971169	-0.111569739369458	0	0
0	0	0.181321706643713	-0.826698729947859	0	0	0.0265643799759194	0.081396278988883
4.2	0.0123797940986324	-0.0120323164505684	0	0	0.703684374332319	0.648868234245537	0	0
0	0	-0.0489413690973053	-0.0153110992953345	0	0	-0.433806916987143	-0.777665972025891
0.703684374332319	0.648868234245537	0	0	-0.0398933943317064	0.0164737161242054	0	0
0	0	0.828819412399943	-0.185856471540678	0	0	-0.011914374540246	-0.0411192416147335
4.3	-0.016096264273508	0.00504571445272364	0	0	0.657955271734638	-0.696650556139585	0	0
0	0	-0.00742356203143108	0.00687444661787411	0	0	0.776704558701477	0.421493856111039
0.657955271734638	-0.696650556139585	0	0	-0.0108126623611833	0.067036310371347	0	0
0	0	-0.533967802876722	-0.670753730650467	0	0	-0.0143626389201495	0.00240537987897601
4.4	0.0162455235805699	0.00319588332678389	0	0	0.67952072424868	0.667960987919508	0	0
0	0	0.0380062096970002	0.00444904195703542	0	0	0.885620478658211	-0.0544392797277277
0.67952072424868	0.667960987919508	0	0	0.00123678213771572	-0.0499402511012976	0	0
0	0	0.344169710501891	-0.770396905723217	0	0	-0.0334443063604242	0.00335169931200571
4.5	-0.0127771675780514	-0.0106297424508707	0	0	0.675037727257418	-0.661281237481612	0	0
0	0	0.0645667671071894	-0.00448099623955025	0	0	-0.720219078281831	0.5221536815423
0.675037727257418	-0.661281237481612	0	0	-0.0496145281934899	0.0264556823074038	0	0
0	0	-0.833089988254807	0.0116571746822788	0	0	-0.0856213292909193	0.061835421811015
4.6	0.00635316773637131	0.0162238753778452	0	0	0.643407371883842	0.690252046323684	0	0
0	0	0.0465255343520333	-0.0249824608917258	0	0	-0.31246551575363	0.842559555456817
0.643407371883842	0.690252046323684	0	0	-0.003853439093835	0.0138229083843977	0	0
0	0	-0.370914462237092	-0.743164238367095	0	0	-0.0798673808578339	-0.00953670203916171
4.7	0.00171988979479979	-0.0188029379128447	0	0	0.70803748166723	-0.636746199130892	0	0
0	0	-0.0246675263391758	-0.00545197903398526	0	0	-0.190488721473188	-0.872639485751019
0.70803748166723	-0.636746199130892	0	0	0.0655142955951045	-0.0176279749557355	0	0
0	0	-0.523724817428043	0.654512879780772	0	0	-0.0729865237734657	0.0720795125410189
4.8	-0.0103199234559284	0.0179100570183323	0	0	0.637162477662809	0.724415211509774	0	0
0	0	-0.0587452475000388	0.0341573435664793	0	0	-0.6063332550317	-0.634443499286855
0.637162477662809	0.724415211509774	0	0	0.0530030741120666	-0.0184002915097918	0	0
0	0	-0.826818785786038	-0.197214046739394	0	0	-0.00913825345697266	0.0717349353583992
4.9	0.0178526425637996	-0.0127526656655615	0	0	0.730625968252657	-0.629467212416756	0	0
0	0	-0.0398787817346555	0.0584352028341617	0	0	0.85397847128132	0.206976609122796
0.730625968252657	-0.629467212416756	0	0	-0.0806788347253103	-0.0290300670786527	0	0
0	0	0.198950534822199	0.820930935758034	0	0	-0.0834484804184895	0.00383315677925712
5	-0.0225173996015211	0.00462095373948569	0	0	0.618774020882077	0.726169661431672	0	0
0	0	-0.000477881117793289	0.0201127120909721	0	0	0.830836901388298	-0.298446639252627
0.618774020882077	0.726169661431672	0	0	-0.0475579758744603	0.0406605145233204	0	0
0	0	-0.644961348268371	0.533930618359107	0	0	0.0414593789354906	-0.00912815423065918
5.1	0.0240115373400986	0.00530733522538885	0	0	0.727459771607323	-0.606488780310788	0	0
0	0	0.0382918635831176	-0.0337659658663951	0	0	-0.532968300242481	0.695777311277978
0.727459771607323	-0.606488780310788	0	0	-0.0217274557295409	-0.041457648494622	0	0
0	0	0.750092210330202	0.344499928282239	0	0	0.0724806027680328	-0.0197648297389287
5.2	-0.0216246371118274	-0.016397011628896	0	0	0.584420887999876	0.745077135858995	0	0
0	0	0.0159211367442202	-0.0746238284327061	0	0	-0.0781155275264968	0.871811546945802
0.584420887999876	0.745077135858995	0	0	0.0382326961982989	0.022334651067321	0	0
0	0	0.0157823282871021	0.832361338477454	0	0	0.0267562259287421	0.0664026337350228
5.3	0.0153523421414727	0.0259966686424322	0	0	0.763491772567337	-0.572589774622756	0	0
0	0	-0.0143099983819607	-0.0416102387387043	0	0	-0.412802176402398	-0.770608385714057
0.763491772567337	-0.572589774622756	0	0	-0.0320995664703479	0.0247575138999657	0	0
0	0	0.7426371855194	-0.374827211870624	0	0	-0.0434422357247484	0.0120222297702088
5.4	-0.00622434487911191	-0.0320133496946187	0	0	0.564476718146407	0.768404485442014	0	0
0	0	-0.0313676142946488	0.0144287279711404	0	0	-0.767435257646772	-0.427530374571035
0.564476718146407	0.768404485442014	0	0	0.0705443725577874	0.0874722224380266	0	0
0	0	0.657661962410703	0.509213923069075	0	0	-0.0094605972996055	0.0218775192123127
5.5	-0.00464763437855378	0.0344431294514236	0	0	0.779098263266762	-0.561810856364488	0	0
0	0	0.023252705171823	0.0600034569250298	0	0	0.876893433815397	-0.0451742671453946
0.779098263266762	-0.561810856364488	0	0	-0.00659939194743969	-0.0276384763653376	0	0
0	0	0.156938968931043	-0.81650241373372	0	0	0.0216057316565146	0.0384585244020348
5.6	0.016226567049325	-0.0318963666429788	0	0	0.547677139617472	0.784581685405013	0	0
0	0	0.0424386523779569	0.0567498527247472	0	0	0.697252765464155	-0.508599013489363
0.547677139617472	0.784581685405013	0	0	0.00178714651994146	-0.109364343862568	0	0
0	0	0.799068894155166	-0.202599416894646	0	0	0.011191122021075	0.117395854069906
5.7	-0.026976497418494	0.0252988916113558	0	0	0.797538487027383	-0.539241783051339	0	0
0	0	0.0207600995833802	-0.00679949090235707	0	0	-0.317100808472318	0.806892531481452
0.797538487027383	-0.539241783051339	0	0	-0.0118146054626382	0.0514653127512186	0	0
0	0	-0.535994580892508	-0.647973129396558	0	0	0.0585879938051636	0.0344827517460964
5.8	0.0338283376601568	-0.0147614920179507	0	0	0.521633501496236	0.797402366404193	0	0
0	0	-0.0219154511571584	-0.0311600210921828	0	0	0.15574360110124	0.852640943262913
0.521633501496236	0.797402366404193	0	0	0.058911871019088	-0.0274115004704078	0	0
0	0	0.323296166568805	-0.770300291409937	0	0	0.0339775505088543	0.0554682350904772
5.9	-0.0369384312644536	0.00167757168982151	0	0	0.811174259378845	-0.498199944027509	0	0
0	0	-0.0560413769060352	-0.0266136234220798	0	0	-0.584900074735547	-0.636715766324924
0.811174259378845	-0.498199944027509	0	0	-0.0732242653131111	0.043329717216844	0	0
0	0	-0.826005931117771	0.0600247548156698	0	0	0.0373764411472873	0.0723190264787308
6	0.0355804686464368	0.0112604515190242	0	0	0.481967483965666	0.824572537946917	0	0
0	0	-0.033912273725974	0.00596954031769983	0	0	-0.846841702850057	-0.194319990398559
0.481967483965666	0.824572537946917	0	0	-0.00311977914741666	0.0237322089851938	0	0
