# GHZ S RI R 50
0.2	-0.0142877453378435	0.00496996655305106	0.00304734294824533	-0.000884304563781603	0.00305781060335835	-0.000884146538874465	0.00559932135663345	0.000551707296392452
0.3	-0.0134211761278058	0.00561988846366806	0.00290208194027873	-0.00130061604654714	0.00289579841287342	-0.00131227371899666	0.00596545337649071	-0.00156110246766347
0.4	-0.0126221363978994	0.00656539898806328	0.00268886400794752	-0.00169571022380864	0.00268675739071614	-0.0016976262373556	0.00557293611656488	-0.00316851413110994
0.5	-0.0114430064426162	0.00717747857869416	0.0024190496631827	-0.00205444503968686	0.00242186952304971	-0.00205817521670009	0.00510662268720618	-0.00480019846960613
0.6	-0.0110518314252254	0.00749994066926307	0.00210586667488512	-0.00237489961473295	0.00210512349386492	-0.00237774605044117	0.00353445754753706	-0.00640035574436118
0.7	-0.0106638114058146	0.00834362470955474	0.00175535547437949	-0.00264576560371302	0.00176157283890476	-0.00264986210806506	0.00174744415603796	-0.00706681393870163
0.8	-0.010051672530723	0.00918627476086169	0.00136139726709107	-0.00286690213701486	0.00136968336783431	-0.00286529997501535	-7.32160445109133E-05	-0.00727461027705559
0.9	-0.00956013299447802	0.0101587336449793	0.000955690318217423	-0.00301995136608811	0.000955672275628153	-0.00302938419870647	-0.00194577935414396	-0.00692722998389423
1	-0.00832044620319942	0.01140561358024	0.000521406126421588	-0.00312763327875952	0.000521257297376031	-0.00313299831713775	-0.00312276771021859	-0.00590958497055143
1.1	-0.00723990239101861	0.0113842538482058	7.40981968642917E-05	-0.00316803223145046	7.49884782809042E-05	-0.00317276665115639	-0.00437777090270473	-0.00547508315990764
1.2	-0.0067434835942345	0.0114475878868164	-0.000366072945209655	-0.00314165834781997	-0.000364843903027422	-0.0031584859466715	-0.00551046700007263	-0.00423051615840446
1.3	-0.00641980843193321	0.0111613933627257	-0.000798793192351248	-0.00306729478170803	-0.000803742795189498	-0.00307496492034226	-0.00569474586793312	-0.00289536492478493
1.4	-0.00628281943443704	0.0108534424310927	-0.00122591258570955	-0.00292123470237524	-0.00122833533413759	-0.00292837759612281	-0.00546844581004164	-0.00193948414493604
1.5	-0.00544811171553643	0.0106618881597178	-0.00161750755488186	-0.00272297149974118	-0.00161553217153987	-0.0027285240962695	-0.00488166368258658	-0.00144205536155436
1.6	-0.00514710478154398	0.0106784595537511	-0.00198279279872124	-0.00246689921914327	-0.00198627204162478	-0.00246777972992283	-0.00541181667364351	-0.000598879233360595
1.7	-0.00436183548060618	0.0112787609311648	-0.00230930195347231	-0.00217079352984017	-0.00231136212684817	-0.00217940154311021	-0.00523091153400267	0.0009243336330207
1.8	-0.00340335448263812	0.0118556527855555	-0.00258675079920071	-0.0018198140275472	-0.00259194506336672	-0.00182528312261181	-0.00465832539123706	0.00225280000779441
1.9	-0.00231075793678678	0.0123866300849982	-0.00281246898609458	-0.00144954296022986	-0.00280894388477211	-0.00144334203610033	-0.00372202787833364	0.00355016642429845
2	-0.000651845359004603	0.0124618067650631	-0.00298962794393893	-0.00103685207691305	-0.0029923688807259	-0.00102998528419966	-0.00211649010740611	0.00434105616216789
2.1	9.70181236944812E-05	0.011784120171066	-0.00310482044952813	-0.00060090276895375	-0.00310693966282499	-0.00060761347313494	-0.0010415120749732	0.00440319237136662
2.2	0.000611215308955986	0.0116948369257053	-0.00315698026378515	-0.000167996555175239	-0.00315877916256834	-0.000158242650968674	0.000344910520675789	0.0046180463731648
2.3	0.00108250708577951	0.0115910036908391	-0.00314767334426172	0.000275665176146356	-0.00315445205523665	0.000272762148553466	0.00182490697107906	0.0042935334593131
2.4	0.00147185018447357	0.0117773524873652	-0.00308685175982383	0.000712070697732477	-0.00308564107298951	0.000727227490942995	0.00322914660914223	0.00372510648904828
2.5	0.00254788418448649	0.0120908063546577	-0.00294906098153559	0.00114742529737562	-0.00296209520561862	0.00114876908901226	0.00497836354149735	0.00270198580661377
2.6	0.00340529661672962	0.011543093547958	-0.00275506315333499	0.00154227823487132	-0.00277601505243967	0.00154626947929016	0.00603170656639151	0.000656601596921613
2.7	0.00401593072419853	0.011320109183029	-0.00252108342655003	0.00191114368362701	-0.0025213457371417	0.00191624094805881	0.00641479651694401	-0.00123973295247324
2.8	0.00476002421787753	0.0111690728594626	-0.00222378097779103	0.00223626405011602	-0.00223359423858354	0.00224751779043198	0.00641505849529624	-0.00303973991086613
2.9	0.00576672776509897	0.0110946567699761	-0.00188409111137207	0.00252918051882027	-0.00188212241599671	0.00253809891996036	0.00628738343095466	-0.00457684730487185
3	0.00733833841265045	0.0105314757578714	-0.00150949877511929	0.00276915735718668	-0.00152465506999369	0.00275617198410879	0.00630295854493321	-0.00634452183935198
3.1	0.00811752519115121	0.00942685072166885	-0.00111079729179873	0.00295028596480399	-0.00112773737789128	0.00295576484602462	0.00534042433572453	-0.00834877703877517
3.2	0.00873095912247679	0.00867101103486912	-0.000689914511127093	0.00307403801832449	-0.000685595332908133	0.00308483879079872	0.00399079987085801	-0.00978893052955983
3.3	0.00924067511257114	0.00784161671952276	-0.000258891105925406	0.00314310777572937	-0.000255609417500136	0.00313870927925038	0.00241188025064267	-0.0111413012082441
3.4	0.00963528596340909	0.00719964499116042	0.000187408156873891	0.00314754858680905	0.00017798233142725	0.00314867242903327	0.00056371886835609	-0.0122520993696298
3.5	0.010471166437078	0.00638631252192255	0.000618691597818494	0.00308844398242764	0.000623693880415963	0.00308709364617894	-0.00131548402250467	-0.0133776988263775
3.6	0.010507720735924	0.0050785116815979	0.00103925009259164	0.00296779887111142	0.00104586552583162	0.00297126374910095	-0.00418114858720558	-0.0142287712726037
3.7	0.0103353878015207	0.00445561611445196	0.0014555004977737	0.00278836103505244	0.00145383019444752	0.00280473795029108	-0.00703940331002037	-0.0139988530000137
3.8	0.0103727699625297	0.00407817067419271	0.00182199198058162	0.00255917707020071	0.00183261615014804	0.00256547737729618	-0.0097371580984938	-0.0132750097385061
3.9	0.0107285654145529	0.00393632309081096	0.00216668620682585	0.00227977876744643	0.00216209143457608	0.00227970224921392	-0.0122375884843845	-0.0119355631385165
4	0.0119157723621294	0.00337841666647091	0.00245750479529806	0.00196076199216609	0.0024689675724816	0.00196685335632965	-0.0140220320857575	-0.010379351419471
4.1	0.0123063776317221	0.00192334242487926	0.00270763813330727	0.0015910326156755	0.00272423716701942	0.00160072336178736	-0.0161327238130753	-0.00869005296739702
4.2	0.0123763423450907	0.000908651480820175	0.00290582521688386	0.00119333945490475	0.00290706750746314	0.00119561656590442	-0.0177785833309599	-0.00619404263297486
4.3	0.0123820874008441	-2.3476603143518E-06	0.00304577924660443	0.000785606758210538	0.003047001883874	0.00079417169488786	-0.0188380620562924	-0.00358379460062739
4.4	0.0123012116215293	-0.000716871115531623	0.00312298976632802	0.000350922881353194	0.00313087772605292	0.000346258890715635	-0.0194786128006953	-0.000684502943556675
4.5	0.0128196838411496	-0.00151678455923482	0.00314369839734543	-9.54599946745823E-05	0.00314052568334203	-9.31857422886002E-05	-0.0191364421044765	0.00208047730446007
4.6	0.0124959508978686	-0.00311008469747869	0.00308507840664977	-0.000538906693401258	0.00309813015006656	-0.000527025015554396	-0.0190669488654672	0.00434006304142656
4.7	0.0118806677929381	-0.00398932276020647	0.00298112897464817	-0.000948745993423915	0.00298099283498938	-0.000958149512947321	-0.0186163189664755	0.00701295884882385
4.8	0.0112745839899283	-0.00469330064837329	0.00283077727761336	-0.00134880432111485	0.00282306965380744	-0.00136888264520066	-0.017528657046263	0.00968174938245247
4.9	0.0108904410558828	-0.0050451691729499	0.00261334301145163	-0.00174400545746715	0.00260732987391509	-0.00173556864561931	-0.0158153028275992	0.0122454071965855
5	0.0112776883027266	-0.00571296603142557	0.00233493742375415	-0.00207097347890692	0.00233762119996289	-0.00208334688092818	-0.0130125655101117	0.0141627133211127
5.1	0.0108934229880925	-0.00699786681056261	0.00201602830245959	-0.00238956252031395	0.00202919661147423	-0.00238713308750533	-0.0105296107292517	0.0153369328625277
5.2	0.0104348107774324	-0.00769794602798836	0.00167501827975374	-0.00264420807891546	0.00167550607353214	-0.00264835039456159	-0.00757592027850305	0.0163464157902006
5.3	0.0101357462137679	-0.0083485278990608	0.00128656884938535	-0.00285267738899895	0.00128283708629696	-0.00285522716195955	-0.0044042687765958	0.0166403603885208
5.4	0.00991547709385086	-0.00883437840481692	0.000877607048987932	-0.00300794125205544	0.00087671861610468	-0.0030103840472404	-0.00125876329992276	0.0162585123227281
5.5	0.0102775370515634	-0.00981351013393621	0.000444805110809018	-0.00309969044368113	0.000457307960596582	-0.00309968233168618	0.00188033662632196	0.0147599689744192
5.6	0.00917732946029116	-0.0113870235735618	1.42394609613892E-05	-0.00313125589172635	1.09620352726238E-05	-0.00312781370845989	0.00340051165406411	0.0128122028581784
5.7	0.00775743575132085	-0.0118704458895644	-0.000416281338368049	-0.00310452661402425	-0.000419980605165896	-0.0031081931670726	0.00474141841240697	0.01136238312097
5.8	0.00654260672088277	-0.0119651374682618	-0.000847458672371033	-0.00301407372204415	-0.000846735671803964	-0.00302171428084441	0.00595577424949556	0.0095521326931834
5.9	0.00544801932329028	-0.0114178438413251	-0.00125976938371005	-0.00286277138418667	-0.00125817653806496	-0.00286689869527993	0.00669912399710162	0.00774992204418318
6	0.00574304923712933	-0.0107971117142077	-0.00164680745538057	-0.00266166140004265	-0.00164084349293485	-0.00266499036207464	0.00768165586121128	0.00573244627930584
6.1	0.00562698522833463	-0.0117310532166645	-0.00200387392551244	-0.00241039873129811	-0.00199975170845	-0.00241514015280495	0.00756023245272761	0.00293395829999721
6.2	0.00495136878005764	-0.0124452091709516	-0.00232058622549973	-0.0020965321566589	-0.00231702462545946	-0.00210514797843058	0.00693207953743271	0.000680977421431025
6.3	0.00413096899816179	-0.0131884456795667	-0.00258581486987358	-0.00176077270639138	-0.0025955683442998	-0.00176849958568764	0.00603715961353948	-0.00155829364325214
6.4	0.00315216885871093	-0.0135771503153561	-0.00281285213959914	-0.00137979658707291	-0.00281086371411969	-0.00138556037997801	0.00486449028130437	-0.00344517719598254
6.5	0.0028888420150844	-0.0144711626573735	-0.00297838360023924	-0.000978174906239558	-0.00297878648582929	-0.00097705833533755	0.00376875897706871	-0.00562916840466517
6.6	0.00121828555310106	-0.0154015879318525	-0.00307992866353701	-0.000556483679856006	-0.00309053201570987	-0.000559486426908868	0.00131445621880292	-0.00723641064309219
6.7	-0.000136878226353755	-0.0153505369155967	-0.00312584947769103	-0.000127009190434167	-0.00312482585345289	-0.00012080252126509	-0.00101341214762916	-0.00783368331978137
6.8	-0.00130950830290089	-0.0150931874654423	-0.00311361268720616	0.000317925708080762	-0.00311272308411266	0.000322663891531349	-0.00349669353896381	-0.00789429613533005
6.9	-0.00224748547779541	-0.0143515918358066	-0.00303350162380296	0.000746616125929679	-0.00303393436874131	0.000751574639589	-0.00579306800220672	-0.00703723894072684
7	-0.00190343039793493	-0.0141544279946517	-0.00290287968275653	0.00116080282203167	-0.00290429466208161	0.00116399657445869	-0.00719077433714144	-0.00624726144394028
7.1	-0.00316865072723475	-0.0149910760075984	-0.00271095361844295	0.00155466303945569	-0.00271340698679621	0.00156561141001775	-0.00964913253137753	-0.0051567286590928
7.2	-0.00471672557381708	-0.0147088649520128	-0.00247540292349017	0.00191569521658606	-0.00247560998796599	0.00192156104380976	-0.0112797609277399	-0.00274035288826009
7.3	-0.00624224066440883	-0.0141062504505703	-0.00218862894420276	0.00224065597125575	-0.00218588622968811	0.00224213528927017	-0.0120015937431886	-0.000201406674700978
7.4	-0.00785760780258266	-0.0128316547589449	-0.0018498086949807	0.00252388336974896	-0.00184265880634048	0.00253040834851814	-0.0121508472864973	0.0024301539262075
7.5	-0.00796879697562393	-0.0112185250923499	-0.00147995765813831	0.00275900952820184	-0.00148097958337583	0.00275699753103841	-0.0108635737111071	0.00467148897307377
7.6	-0.00855358427693746	-0.0111346088801537	-0.00109035786499386	0.00294158597492699	-0.0010798007723818	0.00295196879365415	-0.0100794820611823	0.00574379652374929
7.7	-0.00945276111474073	-0.0103700277429328	-0.000662844601596788	0.00306878030728423	-0.000657294748596083	0.00306846690605168	-0.00921952851858674	0.00706075818130054
7.8	-0.00981303436082183	-0.00967768045939879	-0.000218930504843928	0.00313307237499363	-0.000232492325495189	0.00312592704022277	-0.00800190560592274	0.00837125341571842
7.9	-0.00964704508333397	-0.00901088652163748	0.00020222000616396	0.00312372937477114	0.000213285347798377	0.00312350062006121	-0.00623197549696184	0.00971406308082797
8	-0.00870734996801061	-0.00947286537356671	0.000638250433800036	0.00307584065419642	0.000646548923871946	0.00307382409555337	-0.00398441310754614	0.0102225122032563
8.1	-0.0096244113904851	-0.0102646148368377	0.00107286753884393	0.00295437719479676	0.00107060832007885	0.00295111287439915	-0.0025485805583008	0.0106700466058481
8.2	-0.0104900459986691	-0.0099844142532106	0.00146501794283318	0.00277511633770169	0.00146412452640297	0.00278668717069777	-0.000225661557376589	0.0112557581553577
8.3	-0.0112423400327153	-0.00949338425941495	0.00183909721412275	0.00254671939854345	0.00184418775104815	0.00254416859721946	0.00232888274152958	0.0110642890626004
8.4	-0.0118474665175313	-0.00841552140490417	0.002189546643705	0.00227038799514433	0.00217837593502457	0.00227071359629997	0.00479411612948047	0.0103575141475443
8.5	-0.0111455567511375	-0.00779513660613967	0.0024909908943287	0.00193412550443392	0.00249099262800408	0.00193547726462104	0.00751026458612358	0.00854408979778661
8.6	-0.0119170100092274	-0.00823916970575943	0.00272252376617597	0.00157528533108271	0.00271832579860862	0.0015729514761069	0.00849121860053965	0.00603141767072689
8.7	-0.0129664715025313	-0.00757417549759132	0.00291618641314818	0.0011788498890862	0.00291502541707848	0.00117843126745779	0.00927836293750756	0.00402241709526251
8.8	-0.0137697476548859	-0.00652722585756791	0.00305014254239284	0.000760844854462529	0.00306115002260164	0.000758804051529351	0.00977183347212251	0.00169832819430252
8.9	-0.014201174929191	-0.00496474994333041	0.0031281586677545	0.000328156687218895	0.00313756790027201	0.000321057749229688	0.00996132032869783	-0.000555760376552532
9	-0.0130783583459875	-0.00377991848471008	0.00314091990279193	-0.000120606683024916	0.00314766905313045	-0.000114960615478005	0.0103046855114755	-0.00328110545745159
9.1	-0.0127735439299662	-0.00395290337196615	0.00309912014069056	-0.000551608675147727	0.00309933954766588	-0.000551799967332498	0.00913867190459416	-0.00637979104606568
9.2	-0.0126506477775203	-0.00370901089141754	0.00298871558874989	-0.000976011007190421	0.00299254375186411	-0.000975762170356192	0.00754974588907823	-0.0088284823640215
9.3	-0.0125517626165158	-0.00357269986743082	0.00281905092100685	-0.00138879991987494	0.00283715069781341	-0.00138912709052224	0.00540515106172211	-0.0110319615678542
9.4	-0.0124912031895132	-0.00316779932578535	0.00260214960428055	-0.00176360377935835	0.00260554569155072	-0.00177463850378347	0.00271741116183508	-0.0126029821484625
9.5	-0.0118146361183998	-0.00337470692867545	0.00233580086680452	-0.00212092653724316	0.00235064914929931	-0.002121484122049	-0.000138556864052783	-0.0140616998346172
9.6	-0.0128619431652369	-0.00390749741827649	0.00201912473564411	-0.00243057669495416	0.00201940135300565	-0.00242352719037143	-0.00453749633738938	-0.0145358592493534
9.7	-0.0138813700409486	-0.00324491122763964	0.00165591066206867	-0.0026898486719434	0.00166425711770919	-0.0026913936603647	-0.00847156747160588	-0.0134897090533202
9.8	-0.0146958800954577	-0.00220538671227811	0.00127066021493109	-0.00288969919651065	0.00126887670946207	-0.00289840155402128	-0.0120604064900825	-0.011729426014938
9.9	-0.0151924972912892	-0.000446542423953025	0.000860676597099438	-0.00303966752814976	0.000848749170874865	-0.00304237507629833	-0.0153260673204513	-0.00901203084612833
10	-0.0141395762483798	0.000904903283014286	0.000423708517551688	-0.00312679356083446	0.000422930871121738	-0.00313416878721214	-0.01744384643798	-0.00609217937170017
10.1	-0.0140679472354058	0.00117720462679161	-1.75488172440065E-05	-0.00316523441222452	-2.22127458728644E-05	-0.00316804315224903	-0.0199519223223194	-0.00280472336152692
10.2	-0.0140204761752881	0.00213776820030065	-0.000461402612041946	-0.00312658410078516	-0.000474075418317452	-0.00313042292497752	-0.0212524356901684	0.00145767217361833
10.3	-0.0137411127019903	0.00316983402620023	-0.000897722647543912	-0.00302608969798458	-0.000897451176172165	-0.00303957462762732	-0.0214860796305665	0.00579104140153224
10.4	-0.0130943004424654	0.0045263241696034	-0.00131306883009528	-0.00288072804647921	-0.00131627158899399	-0.00287859162895459	-0.0206542948273629	0.0100528160366685
10.5	-0.0111421314738112	0.0051439720816126	-0.00170528322538655	-0.00265782463677444	-0.00171149466294348	-0.00266514688460123	-0.0186385031805871	0.0135363092798795
10.6	-0.0103433385255989	0.00468830395297313	-0.00206573851632225	-0.0023973038569633	-0.00206724392973028	-0.00240245391457392	-0.0170540465370174	0.016703419547649
10.7	-0.00973233737337658	0.00468107659949304	-0.00237591455087773	-0.00208291978223491	-0.00237913398457597	-0.00209907092317092	-0.0145086001041776	0.0201543404617112
10.8	-0.00928316200020346	0.00467341201973257	-0.00264668985258985	-0.00173186257924	-0.00264372908718331	-0.00173404472173801	-0.0113082706245032	0.0231907390232997
10.9	-0.00883511931193726	0.00517189289961033	-0.00286674736541608	-0.00134792152354417	-0.00286602690496409	-0.0013530865069074	-0.00732209837592773	0.0258839306091354
11	-0.00712304366600756	0.00505855619604485	-0.00302686589401296	-0.000927294841042295	-0.00301980492253715	-0.000931620823554386	-0.00224156265536151	0.0272966285344272
11.1	-0.00695483473532486	0.00402965102283982	-0.00312382192129244	-0.000509231377490192	-0.00311602041583185	-0.000500882555032292	0.0021214498017451	0.0278936541821938
11.2	-0.00696380545812187	0.00381712961387244	-0.00316492499514715	-6.23738580311822E-05	-0.00317156617298679	-5.91318997645543E-05	0.00733931891994026	0.0280982159920052
11.3	-0.00686800649309391	0.00382160089811902	-0.00314035477518045	0.000383875138868882	-0.00314354643342363	0.000381702194834208	0.0129396451124523	0.0271204706009568
11.4	-0.00670519065908328	0.00420652899844513	-0.0030494785154367	0.000817897999397576	-0.00305413699672017	0.0008180639153667	0.0183931219668827	0.0248918665696866
11.5	-0.0054284704213341	0.00391343158182491	-0.0029165924691985	0.00122634858783271	-0.00290902056854087	0.00123112120499446	0.0236235675320856	0.0208088359272148
11.6	-0.0056397192644191	0.0028092832729562	-0.0027124603128438	0.00162648207347328	-0.00272061015623897	0.0016362758826068	0.0269431579144236	0.015768170698324
11.7	-0.0060357762408974	0.00269124756890742	-0.00245333250949807	0.00199674589387777	-0.00245508201842804	0.0020004689247436	0.0297305844123005	0.0105280031953433
11.8	-0.00613932864285612	0.00302494792783966	-0.0021495631689536	0.00232161751847896	-0.00215879189563194	0.0023315145074316	0.0316233946209801	0.00472828708965848
11.9	-0.00551225980037498	0.00387168956508772	-0.0018070126813367	0.00259358168364984	-0.00180702178278967	0.00260018316533091	0.0323836751691558	-0.00105425160381904
12	-0.00356469573031042	0.00340172546836269	-0.00142362520575193	0.00282254901995324	-0.0014281395537967	0.00282537576198415	0.032378511536149	-0.00770212112213295
