# GHZ S RI R 50
0.2	-0.0139879413400022	0.0054463355848665	0.00304410823363767	-0.000885237281935266	0.00305456658750588	-0.000885085327782554	0.005789711423718	0.000936703372585429
0.3	-0.0132345796553291	0.00587884926360001	0.00289790274529773	-0.00130120289871961	0.00289161805048732	-0.00131284303588132	0.00604841000304181	-0.00139129080944041
0.4	-0.0125205149059373	0.00658169813453277	0.00268366780299944	-0.00169535951753929	0.00268156273054565	-0.00169727112897195	0.00560788137158423	-0.00322470689102424
0.5	-0.0119122291342863	0.00729429185656522	0.00241378299493551	-0.00205212932367064	0.00241659602373361	-0.00205585448155619	0.00472498372211103	-0.00478568912447461
0.6	-0.0112004291183916	0.0082054600271275	0.00210130170122341	-0.00237202787295988	0.00210055837805195	-0.00237486931213981	0.00353841394011642	-0.00602989089490776
0.7	-0.0104462568771913	0.0089653910172504	0.00175072488023001	-0.00264193722141179	0.00175692873752205	-0.0026460297182423	0.00201605831507431	-0.00694978100515344
0.8	-0.00961276145206992	0.00966929283024723	0.00135726692351254	-0.00286167741710931	0.00136553682847648	-0.00286008242184925	0.000263121023155572	-0.00737975707777381
0.9	-0.00884609017792761	0.0102914922828748	0.000952896278612242	-0.00301346818032982	0.000952876168343227	-0.00302288009164689	-0.00153824073851573	-0.00733033250013447
1	-0.00811715877823849	0.0108099753018858	0.000520188313829393	-0.00312145550718541	0.00052003946663775	-0.003126809887433	-0.00325089474406672	-0.00673667372809729
1.1	-0.00753735534972004	0.0113967691567093	7.29298485158132E-05	-0.00316115951711163	7.38166870388031E-05	-0.00316588391382907	-0.00471147029339965	-0.00560163805809208
1.2	-0.00682418648200458	0.011678283488934	-0.000365638876261404	-0.00313386419122787	-0.000364415367374811	-0.00315065051739737	-0.00541968427255513	-0.00420829259878598
1.3	-0.0063807091876975	0.0114892476734211	-0.00079645746020828	-0.00305948958602369	-0.000801393638988785	-0.00306714048005634	-0.00530920286995689	-0.00296357872113011
1.4	-0.00614287455594049	0.0111586494990042	-0.00122208453552994	-0.00291429216836878	-0.0012244993540553	-0.0029214179335291	-0.00498433222202795	-0.00229883326390671
1.5	-0.00569856470831528	0.0112463582668521	-0.00161338228829673	-0.0027159536307909	-0.00161141204781582	-0.00272149197905059	-0.00477565426418594	-0.00174779571914582
1.6	-0.00481115052722893	0.0116436346970433	-0.00197589727401726	-0.00245980647982239	-0.00197936543177466	-0.00246068527446117	-0.00496820263191678	-0.000895043584604346
1.7	-0.00377092550710633	0.011915022742463	-0.00230050148505745	-0.00216562822617373	-0.00230254904173511	-0.00217421068733316	-0.00488295720117268	0.000303832637016623
1.8	-0.00278034678581671	0.012180602135479	-0.00257706768334165	-0.00181665946043548	-0.0025822407870034	-0.00182211663502815	-0.00447127212543909	0.00148951251852852
1.9	-0.00185876771999161	0.012250380466169	-0.00280237219746884	-0.00144781352542359	-0.00279886403053757	-0.00144162830231855	-0.00374095961623091	0.00259792025715294
2	-0.00110519785922232	0.0123489547280862	-0.00297759366285711	-0.00103673520901596	-0.0029803330353731	-0.00102989649288015	-0.00269526141786077	0.00360442626041568
2.1	-0.000234609698844582	0.0124347927083293	-0.00309294018004505	-0.000604930625708072	-0.00309503890841028	-0.000611622365978916	-0.00126907959879914	0.0040920631949751
2.2	0.000605651418193914	0.0124247739840534	-0.00314653104821286	-0.000174293636222274	-0.00314834531393747	-0.000164574786676843	0.000285145077186481	0.00413487564874607
2.3	0.00133842493083141	0.0122546520101498	-0.0031383942147462	0.000267502875314134	-0.00314514484008699	0.00026459328730613	0.00175066089307192	0.00369800988592496
2.4	0.00196823571843055	0.0120480822805462	-0.00307852416671214	0.000701700975250167	-0.003077356860016	0.000716810939273937	0.00310300094876445	0.00298619131878372
2.5	0.00239402916468671	0.0118565703477926	-0.00294376189509557	0.00113366597588851	-0.00295675985669021	0.00113496064864197	0.00435287010554952	0.00201261191438496
2.6	0.00294188468998456	0.0119029194330687	-0.00275376114962425	0.00152886627806968	-0.00277467602577847	0.00153277436535446	0.00561851051492089	0.000593542482645045
2.7	0.0036955189664953	0.0118927841172351	-0.00252192674973281	0.00189784672077851	-0.00252220634402503	0.00190293120451623	0.00641782059043639	-0.0013074241029459
2.8	0.00458553051648487	0.0117905099239868	-0.00222717132746598	0.00222291183517592	-0.0022370047413355	0.00223410354488079	0.00666337042328994	-0.0033088981665393
2.9	0.00559927349623502	0.0115215247433751	-0.00189092811282115	0.00251619442237551	-0.00188900081105271	0.00252510318954854	0.00656224256274251	-0.00516647872647964
3	0.00659331936623665	0.0111256574898482	-0.00151970542559079	0.00275946138113544	-0.00153478827979933	0.00274642557834122	0.00628229553607111	-0.00689315649536169
3.1	0.00766201419347669	0.0106570618611806	-0.00112102885914089	0.00294253706633295	-0.00113797073604045	0.00294794348346833	0.00569816562939741	-0.00880183729898631
3.2	0.00860140854015911	0.00995706322618022	-0.000701892475154584	0.00306765807176747	-0.000697623091841566	0.00307846443324557	0.00440721578312592	-0.0105764977336716
3.3	0.00937928163977003	0.00907924678579231	-0.000272558170814352	0.00313932509533117	-0.000269259807771008	0.00313494478856785	0.00276892534940095	-0.0121460354984592
3.4	0.00993827735573152	0.00812188145612557	0.00017321960118742	0.00314753552012924	0.000163791287787923	0.00314861671970853	0.000779751018309121	-0.0135028811989092
3.5	0.0102379944322864	0.00725238929242259	0.000606644125509906	0.00309058269777487	0.000611651224652989	0.00308925190432253	-0.00154782170518807	-0.0145114416314671
3.6	0.0105750526240644	0.00652421281365586	0.00102629412133824	0.00297093440361512	0.00103289215645212	0.00297442572969376	-0.00408767360633218	-0.0151461989656784
3.7	0.0108849460697004	0.005770541848213	0.0014428226457881	0.00279484029064304	0.00144107828029789	0.00281120900638757	-0.00690198179328915	-0.0152146667833625
3.8	0.011194719574826	0.00501571679751991	0.00181111232689224	0.00256839399354363	0.00182171205434861	0.00257474475568492	-0.00978845472014581	-0.0146521916955012
3.9	0.0115039106000391	0.00422871168387046	0.0021583437730915	0.00229035911042386	0.00215374651721129	0.00229026306291979	-0.0125483146430304	-0.0133670237409828
4	0.0117530003348758	0.00347968137368207	0.00244930861037703	0.00197186201072897	0.00246074655339614	0.00197800464843893	-0.0147127164189498	-0.0114198826990148
4.1	0.0121088306899127	0.00266940134333149	0.00270166641481238	0.00160582326860326	0.00271822915570175	0.00161560464100705	-0.0163012186009238	-0.00941792395468946
4.2	0.0123602873183286	0.00169197985928333	0.00290368516951937	0.00120918273931464	0.00290491784439883	0.00121146889546524	-0.0177633988305589	-0.00721100098992721
4.3	0.0124310200584064	0.000683319168081324	0.00304670618773248	0.000801417485943917	0.00304788965179851	0.000810001480043746	-0.0188937201797653	-0.00477973924424779
4.4	0.0122706628141057	-0.00038100599521974	0.00312612113309095	0.00036662866573415	0.00313404394947664	0.000361995751059664	-0.0196880938816515	-0.00202604990326668
4.5	0.011845194995244	-0.00121457306411581	0.00315072393668965	-7.80464480100669E-05	0.00314753193189313	-7.57852731778553E-05	-0.0197933991217	0.000991155684151625
4.6	0.0114347551984764	-0.00188124782959546	0.00309751024127051	-0.000524565174155931	0.00311054102232886	-0.000512578605592508	-0.01927388517946	0.00366027632001052
4.7	0.0110982843820148	-0.00239868064360062	0.00299583870261535	-0.000937683513964184	0.00299574719328375	-0.000947119734668811	-0.0185631797342034	0.00613920659577847
4.8	0.0108028467139926	-0.00292401719915321	0.00284740468098351	-0.00134055579409406	0.00283976235938829	-0.00136074339807335	-0.0174198226155351	0.0086206775858832
4.9	0.0106898108641542	-0.00344331686804321	0.00263234898252478	-0.00173872114480429	0.00262627106894935	-0.00173027836177911	-0.0157828150107624	0.0109488390027481
5	0.0106248634506298	-0.00399859077303586	0.00235604301693751	-0.00207181626331206	0.00235879387375275	-0.002084242980561	-0.0133251467840037	0.0130639280710457
5.1	0.01080547172096	-0.00467569918103984	0.00203433787745819	-0.0023952341455217	0.00204756614212854	-0.00239274863021363	-0.0104078935108874	0.0143003149312748
5.2	0.0109170770191443	-0.00559584153153681	0.00169189647808073	-0.00265264828034362	0.0016923996823144	-0.00265681046649432	-0.00753032349619448	0.0150146130746996
5.3	0.010882526938758	-0.00665194122769592	0.00130188405657425	-0.00286452103292513	0.00129813931819196	-0.00286709557482885	-0.00452850135864073	0.0153086157230208
5.4	0.0105698766020516	-0.00776442976023831	0.000890212633075325	-0.00302385790993158	0.000889324825272515	-0.00302631753691574	-0.00147283445236326	0.0149496656116629
5.5	0.00991479604555513	-0.00856746545891252	0.000451304401709843	-0.00311743756076689	0.000463881067423852	-0.00311741377953862	0.00151707316159639	0.0139378869190574
5.6	0.00938531432933637	-0.00925885586306086	1.84284599033278E-05	-0.00314800509126037	1.51289623834967E-05	-0.00314454877993548	0.00393514787354367	0.0119821566774156
5.7	0.00873081015519976	-0.00992517374840056	-0.000414808069546325	-0.00312240587843978	-0.000418523542781295	-0.00312609747624489	0.00546422650359675	0.00988425730046581
5.8	0.00807592556469446	-0.0106048572884531	-0.000849942198357725	-0.00303229094286231	-0.000849208794526223	-0.00303997535228184	0.00651598807662072	0.00760407944587545
5.9	0.00722167272676777	-0.011344170097345	-0.00126667825527011	-0.00287938289828542	-0.00126507576507056	-0.00288353375832325	0.00689341121737548	0.00533119631580641
6	0.00595023628879121	-0.0119928953237355	-0.00165466299048999	-0.00267500047493829	-0.00164866917835626	-0.00267834525365988	0.00686707254385062	0.00343634865514717
6.1	0.00462586546432639	-0.0123375153350986	-0.00201367791458351	-0.00242458445967358	-0.00200953079610046	-0.00242934985032411	0.00687036235267548	0.00130667214975317
6.2	0.00325478359744219	-0.0124782626559085	-0.00233412811009793	-0.00210878489913035	-0.00233054567483755	-0.00211745101729385	0.00626277317321308	-0.000876068505744205
6.3	0.00218261096656931	-0.012392890154107	-0.00260180879322773	-0.00176978901271677	-0.00261162313305012	-0.00177755624816427	0.00535623285439138	-0.00291586523302644
6.4	0.00128755403950703	-0.0123893460879713	-0.00282948718601067	-0.00138531395977548	-0.00282749210458295	-0.00139111120408894	0.00420934222060288	-0.00473751929994693
6.5	0.00058950667288793	-0.0123160036151099	-0.00299628951803121	-0.000983007512394112	-0.00299669442896714	-0.000981884217272057	0.00317267128379674	-0.00636590106989323
6.6	0.000116185967948767	-0.0123404901748909	-0.00310087054684166	-0.00055624130378278	-0.00311154737211965	-0.000559250358437245	0.00158083534621305	-0.00827412497329741
6.7	-0.000387870233101133	-0.0124494450354719	-0.00314587570037425	-0.000121588465874247	-0.00314483324231378	-0.000115344573251858	-0.000792935728582994	-0.00937714175706839
6.8	-0.00100918335436765	-0.0125527796125753	-0.00313174891480954	0.000327144557744972	-0.00313084282209678	0.000331909389913951	-0.00339473553582619	-0.00964549340091398
6.9	-0.00184969123159169	-0.0126272312168128	-0.00305016225590137	0.000758369998852773	-0.00305058583547581	0.000763359678175109	-0.00594046429354624	-0.00902738068331408
7	-0.00279053352898124	-0.0122782771855346	-0.00291902287391668	0.00117794514339403	-0.00292043738104666	0.00118116520110031	-0.00778200750753875	-0.00762524873288343
7.1	-0.00342895585055498	-0.0118699776532047	-0.00272077803188644	0.00157584461565	-0.00272319911287488	0.00158687034765026	-0.00926450102825974	-0.00645007868857217
7.2	-0.00400899991687945	-0.0115205802910613	-0.00248046583369235	0.00193764490284107	-0.00248064732833551	0.00194354435172836	-0.0107992840520633	-0.00471469306981535
7.3	-0.00458782966144663	-0.0112685525745918	-0.0021896414770369	0.00226324075244397	-0.00218687688442283	0.002264714850583	-0.0118130040491663	-0.00257611512722286
7.4	-0.00533332254261654	-0.0112323922435766	-0.00184633454263039	0.00254762019416252	-0.00183911049897054	0.00255414234789506	-0.0124442095752876	-0.00030709149369825
7.5	-0.00648057582449771	-0.0111056720627646	-0.00146847008397595	0.00278165015109886	-0.00146951013195753	0.00277963561950398	-0.0121808861039771	0.0024444615776815
7.6	-0.00752597908846597	-0.0108076899124369	-0.00107534668695058	0.00295897569928842	-0.00106468569304069	0.00296932751105751	-0.0109424071327112	0.00438008852657937
7.7	-0.008756755974068	-0.0104042330467316	-0.000645415234352897	0.00308306718927957	-0.00063984920202659	0.00308271731351027	-0.00989730537517441	0.00568985425013595
7.8	-0.00966686306482012	-0.0098592703054009	-0.000198675981004866	0.00314383750246643	-0.000212325752090852	0.0031367614360498	-0.00854492107877071	0.00714994809047481
7.9	-0.0103659461891222	-0.0092736788730932	0.000225211835684061	0.00312965919280959	0.000236301696941588	0.00312935014604883	-0.00666739559239856	0.00865834446752757
8	-0.0107345349910534	-0.00850965869066077	0.000659850336406506	0.00307478466327863	0.000668143974035157	0.00307270951438893	-0.00393719177509197	0.00960292207517797
8.1	-0.0108613818823174	-0.00798610554780707	0.00109271741479377	0.00295150601600915	0.00109043487097271	0.0029482515768505	-0.00139802927612553	0.00939232723159555
8.2	-0.011111824514593	-0.00758814580206857	0.00148505438430119	0.00276892812520346	0.00148423584896058	0.00278051913761787	0.000779080013644821	0.00901166824593462
8.3	-0.0115030829217298	-0.00720123676318928	0.00185803168039918	0.00253607062694531	0.00186310866399941	0.00253348285665621	0.0028881895625679	0.00834887866793509
8.4	-0.0120931142329766	-0.00667606640809685	0.00220496183675316	0.0022553992492699	0.00219379365969894	0.00225580098780599	0.00477304454067998	0.00740786598789478
8.5	-0.0127259487743703	-0.00572872290093967	0.00250274619232028	0.00191926501469921	0.00250275604730071	0.00192061683789854	0.00687242579074066	0.00631401150755894
8.6	-0.0129426678347238	-0.00466874656930887	0.00273392364823935	0.00155731378181526	0.0027297087459249	0.00155500766409566	0.00872467373941392	0.00393460712555467
8.7	-0.0129346080576827	-0.00370155764063552	0.00292330718267013	0.00115760356106349	0.00292214371220541	0.00115719337611368	0.0094952942344744	0.00127069519307114
8.8	-0.0127048037247731	-0.0029402606685536	0.00305213063243287	0.000738556799048184	0.00306311162702371	0.000736440838583405	0.0095347295293953	-0.0014231114754205
8.9	-0.0124506611962341	-0.00255032394370981	0.00312590236187871	0.00030703464868955	0.00313525140856149	0.000299883611558405	0.00901905987604859	-0.0037997929335891
9	-0.0123739852855854	-0.00226427140744078	0.00313688062672021	-0.000142785418494303	0.00314366302543716	-0.00013719299244924	0.00853644371324376	-0.00571496438308443
9.1	-0.0122607953690656	-0.00213282392455791	0.003087924394538	-0.000574035064845871	0.00308814184618376	-0.000574227601705591	0.0078361216767298	-0.00818160561824881
9.2	-0.012354406075672	-0.00200334162564486	0.00297259078662038	-0.000994569308866603	0.00297640909338078	-0.000994348804125249	0.00636358871550647	-0.0103782550086735
9.3	-0.0124970163053554	-0.00180670417358397	0.00280004786182266	-0.00140331520312736	0.00281808417379032	-0.0014037646298967	0.00454933472008491	-0.0122410715232418
9.4	-0.0127986198004071	-0.00161874517717796	0.00258131887373644	-0.00177541368395137	0.00258462814783392	-0.00178643432403228	0.00223175441944579	-0.0138003631456545
9.5	-0.0131699875453982	-0.000930217369151248	0.00230943836984602	-0.00212906870691297	0.00232421636264796	-0.00212973558115308	-0.000200151503321861	-0.0147237215784614
9.6	-0.0133168917800305	-0.000259287895109777	0.00199208449794759	-0.00243027507387804	0.00199240555578535	-0.00242326643928001	-0.00339097387607699	-0.0158115185535417
9.7	-0.0133640757532521	0.000462377556120789	0.00163052344609721	-0.00268424631143192	0.00163881299032922	-0.00268583182182123	-0.00729052958248028	-0.0157081560788871
9.8	-0.0133130919578378	0.00108237822643251	0.00124671826418866	-0.00287971026087165	0.00124489603511602	-0.00288835073230656	-0.0111645182324601	-0.0145153120221649
9.9	-0.0133537683779368	0.00163718068773236	0.000837722214134517	-0.00302465222156386	0.000825857521685288	-0.00302727408662098	-0.0149628718406265	-0.012139678360869
10	-0.0135043130777404	0.00236362431128965	0.000405884715274467	-0.00310446554650728	0.000405078836679063	-0.00311177984884999	-0.0176060931361457	-0.00868931273144293
10.1	-0.0133919765412178	0.00309625866757282	-2.8963679350185E-05	-0.00314205599918198	-3.360379202949E-05	-0.00314482721992878	-0.0194776761084242	-0.00553379182217467
10.2	-0.0132122311290178	0.00378423381186561	-0.000469078152785479	-0.00310209523560544	-0.00048167187440247	-0.00310586121081608	-0.0210999949638726	-0.00184616882854903
10.3	-0.0129362633104719	0.00440453989282156	-0.00090080317596274	-0.00299963526290335	-0.000900578571196224	-0.00301301648564231	-0.0219413733829991	0.0024065581612292
10.4	-0.0126848798564667	0.00488332990743687	-0.00130934609434946	-0.00285272420866007	-0.00131251596073764	-0.00285059770560116	-0.0217497477986394	0.00695146032922547
10.5	-0.012483480617175	0.00560356188325552	-0.00169426931245025	-0.00263426598289805	-0.00170043805369916	-0.00264152167277964	-0.0199846331790239	0.0116543468291687
10.6	-0.0119987460914638	0.00628166855446815	-0.00205281422963346	-0.00237621200299957	-0.00205431450168995	-0.00238132043519377	-0.017293189836567	0.0151552850094001
10.7	-0.0114533470009241	0.00693398097059641	-0.00235868388802102	-0.00206380459395947	-0.00236189269155739	-0.00207982202079473	-0.0142023587189493	0.0182659772314102
10.8	-0.0107042004691533	0.00747493912407789	-0.00262508938864455	-0.00171680692119121	-0.00262215379110027	-0.00171897162804552	-0.0107168210912875	0.0208572847752717
10.9	-0.0101362244893824	0.00790409448511872	-0.00284265334749274	-0.00133920048314221	-0.00284193484200448	-0.00134432332896846	-0.00695261936787034	0.023067334294287
11	-0.00940058316560133	0.00858995671689058	-0.00300484395145629	-0.000922284676539495	-0.00299783094878214	-0.000926576177438208	-0.00205389569999784	0.0249498854567772
11.1	-0.00828648766867624	0.00903189494389011	-0.00309882544082303	-0.00050661506473634	-0.00309108958081111	-0.000498328881492307	0.00315823540313375	0.025002838313796
11.2	-0.00706016067599237	0.00914691595824972	-0.0031390518508252	-6.58922641471052E-05	-0.00314564302854379	-6.2685177103819E-05	0.008065904448192	0.0243215694028368
11.3	-0.00574388570116647	0.00881053339296231	-0.00311623461553827	0.000374592035482278	-0.00311939666546038	0.000372429965744296	0.012991565294432	0.0228987207200456
11.4	-0.00484896171154456	0.00810525399465862	-0.00302884750815081	0.000805133405499333	-0.00303347207588618	0.000805287795260894	0.0175833673533989	0.0206181694040078
11.5	-0.00426735210089194	0.00753414842756238	-0.0028954561564609	0.00121132528190077	-0.00288795335299555	0.00121607326146934	0.0222068713998794	0.0175009912692278
11.6	-0.00365420496968097	0.00672429295664597	-0.00269473038095091	0.00160429757500832	-0.00270284232546442	0.00161398343714946	0.0260236960592947	0.0125524893419229
11.7	-0.00330643143084158	0.00578490526189428	-0.00244166388676502	0.00197133870007118	-0.002443414043569	0.00197502537776083	0.0283846187892872	0.00719038983911869
11.8	-0.00319313196018703	0.00487025960310707	-0.0021432060020641	0.00229504026237656	-0.00215240713746946	0.0023048236772336	0.0297430731085157	0.00181864321759344
11.9	-0.00318363149827896	0.0039723379601275	-0.00180434799378958	0.0025662123268189	-0.00180438513531748	0.00257276369034243	0.0303624372576045	-0.0031049104831533
12	-0.00359733273050234	0.00359337463627268	-0.00142756795854956	0.00279136776452625	-0.00143206078930955	0.00279414612013	0.0308512396258246	-0.00809072900045388
