# GHZ S RI R 50
0.2	-0.0139336352518918	0.00523745598117214	0.00304482770111117	-0.00088522558615605	0.00305528831310873	-0.000885072899235371	0.00592038577216229	0.00079593105218713
0.3	-0.0130921682321719	0.00574018027109066	0.00289868267262688	-0.00130128269019098	0.00289239740943483	-0.00131292604228992	0.00625773558936917	-0.00146280032105489
0.4	-0.0123621714309655	0.00642817961060101	0.00268451684796713	-0.00169554089229156	0.00268241141598517	-0.00169745319336396	0.00579821592324273	-0.00332073723960451
0.5	-0.0116847242752569	0.00716288954825747	0.0024147498216845	-0.00205256084497591	0.00241756410242958	-0.00205628693347417	0.00485977515121977	-0.0048271288749234
0.6	-0.0109687735027208	0.00788281535229304	0.00210208013838921	-0.00237265765456246	0.00210133673156359	-0.00237550001800779	0.00362746796587614	-0.00607322211075846
0.7	-0.0103632239716743	0.00859281488884989	0.00175147991832604	-0.00264265570286674	0.00175768606457405	-0.00264674905650449	0.00203765443833883	-0.00690225856306113
0.8	-0.00963725305779013	0.00931814468290461	0.00135797394737728	-0.00286258750848582	0.00136624666519896	-0.00286099129689844	0.000302892763454605	-0.00723811835543621
0.9	-0.00897091250531275	0.00999214633348796	0.000953479768245167	-0.00301459472608565	0.000953460295269973	-0.00302401036136104	-0.00142938441087515	-0.00717444970330314
1	-0.00825387521463172	0.010678167574347	0.00052049129984063	-0.00312271939526961	0.000520342545777186	-0.00312807597350871	-0.00312721814285056	-0.0066610285345314
1.1	-0.00751427941757151	0.0111688681679535	7.31503512319079E-05	-0.00316249580907392	7.40378491553483E-05	-0.00316722215625293	-0.00466465547256143	-0.00569605922085372
1.2	-0.00688357555084105	0.0112730769197611	-0.00036568638143295	-0.00313542281223254	-0.00036446156015642	-0.00315221735246842	-0.00562078266985591	-0.00441989629444735
1.3	-0.00653090995280546	0.0109724069894634	-0.00079689213668992	-0.00306112672953904	-0.000801830980080148	-0.00306878170993562	-0.0057388431513664	-0.00313966089999705
1.4	-0.00632660483019865	0.0105550928637534	-0.00122290355977625	-0.00291586534169303	-0.00122532006027456	-0.00292299498007806	-0.00544667404728627	-0.00235302409646352
1.5	-0.00582445401926963	0.0105882799858019	-0.00161445521162046	-0.00271741881403487	-0.00161248414906134	-0.00272296044001931	-0.00519142922235131	-0.00166791583420013
1.6	-0.00508427067753397	0.010899089062926	-0.00197743919500586	-0.00246123952414087	-0.00198090972715791	-0.00246211856397501	-0.00532954280208627	-0.000606545488568122
1.7	-0.00418771038844038	0.0113523509269557	-0.00230249953930928	-0.00216666545073109	-0.00230455016832671	-0.00217525339695633	-0.00510145322340896	0.00077240034161596
1.8	-0.00321960027650601	0.0118428519781353	-0.00257931349076201	-0.00181719088808469	-0.00258449159616611	-0.00182265035923291	-0.00455194523979818	0.00204567595981089
1.9	-0.00221944504221776	0.0121584068637331	-0.00280471179599741	-0.00144784796154943	-0.00280119925393102	-0.00144165979187816	-0.00371552873289978	0.00317884826571995
2	-0.00115842710327254	0.0124144671458487	-0.00298001683346771	-0.00103631087094139	-0.0029827554755982	-0.00102946645337335	-0.00264071102441312	0.00418938959393127
2.1	-9.12960026422336E-05	0.0123159351836471	-0.00309525231182507	-0.000603812740400346	-0.00309735568025898	-0.000610507817032178	-0.00120039556778262	0.00476290747422705
2.2	0.000752630786275721	0.0121816396524295	-0.00314850845579984	-0.00017274160348642	-0.00315031869233704	-0.000163015974531012	0.000483411459095994	0.00488321064933595
2.3	0.00143296422737547	0.0119401446802648	-0.00314007643975174	0.000269419282007226	-0.0031468326381789	0.000266511781539496	0.00211703271652514	0.00441421704255444
2.4	0.00196844718434705	0.0117649359258058	-0.00307987007567079	0.000704015234105671	-0.00307869272728178	0.000719133215431006	0.00361265792788682	0.00353846271489538
2.5	0.00248234281066665	0.0117279082875308	-0.00294453579035537	0.00113641480218944	-0.00295753985955704	0.00113771960047607	0.00483386326555992	0.00227708048327842
2.6	0.00318852578805404	0.0116704668771614	-0.00275379182434426	0.00153160145687753	-0.0027747127459667	0.00153552700508633	0.00583979408671103	0.000725052007516785
2.7	0.00397043189164239	0.0115658622010779	-0.00252147479816147	0.00190049054761234	-0.00252175066051611	0.00190557722176624	0.00645040611372216	-0.00109306789237036
2.8	0.00487767864516862	0.0113779474241767	-0.00222621720627682	0.00222543462073484	-0.00223604533116262	0.0022366379534816	0.00664008887228052	-0.00297735590701126
2.9	0.00589609010597421	0.011058318455752	-0.00188945477105969	0.00251848819069527	-0.00188751965441608	0.00252739807769107	0.00653874120480447	-0.0047886235497485
3	0.00701287897633837	0.0105769867386204	-0.0015177933481447	0.00276129484878952	-0.00153289006608776	0.00274826847090463	0.00616028186888815	-0.00651127389260541
3.1	0.00802973271227812	0.00983308754119311	-0.00111901700281911	0.00294407159687014	-0.00113595857551047	0.00294949230097267	0.00545495880068345	-0.00825367361270341
3.2	0.00878531589433017	0.00901736453216645	-0.000699520099402617	0.00306895030019593	-0.000695240793892783	0.00307975564180794	0.004197918230326	-0.00984170039894886
3.3	0.00937593103381176	0.00811719757117978	-0.000269842929141544	0.00314015023766455	-0.000266547810919813	0.00313576620850071	0.00264155230387475	-0.0113071214775766
3.4	0.00977319769017487	0.00724462748468667	0.000176093598982746	0.00314774585024169	0.00016666516539367	0.0031488357243984	0.000736218192872548	-0.0126489802404211
3.5	0.0101059477145311	0.00647090037095369	0.000609404533352341	0.00309031165798518	0.000614410888355481	0.00308897636299782	-0.00164026462402946	-0.0137022804117719
3.6	0.0103566415826903	0.00561372073550833	0.00102920214581246	0.00297023609064243	0.00103580409488214	0.00297372148982624	-0.00427664501657299	-0.014179562901452
3.7	0.0104321456494669	0.00490578402687426	0.00144562338339219	0.00279339339213386	0.00144389542412751	0.00280976385141752	-0.00697350357737574	-0.0140811595588689
3.8	0.0105569481889209	0.00434441228570556	0.00181350724505864	0.00256635945167907	0.00182411234393833	0.00257269908697605	-0.00968080508436173	-0.0135107136906565
3.9	0.0107996802568271	0.00388875917437992	0.0021602404537531	0.00228796933919344	0.00215564374616567	0.00228787771565155	-0.0123453663407662	-0.0123756105605863
4	0.0113157888728678	0.00345662579875821	0.00245092114739125	0.00196924400548247	0.00246236364662497	0.00197537479348409	-0.0146883446787034	-0.0105860778356517
4.1	0.011916746412336	0.00262726257904259	0.00270276509220875	0.00160272563177297	0.00271933450374431	0.00161248802675452	-0.0164953679551116	-0.00835918824438884
4.2	0.0123159251083456	0.00166300962255967	0.00290415749784865	0.00120593213036002	0.0029053921669257	0.0012082164479937	-0.017836161289101	-0.00588035025597439
4.3	0.0125479378122427	0.000652291044775309	0.00304665831077419	0.000798055022602353	0.00304785026347613	0.000806635342812344	-0.0187112808896268	-0.00337879420676388
4.4	0.0125528333277108	-0.000392646800300996	0.00312549137080218	0.000363122216848947	0.00313340656660567	0.000358482242506903	-0.0192875868647851	-0.00076908283404057
4.5	0.0125015441260759	-0.00125665088425261	0.0031492005998796	-8.17133199851131E-05	0.00314601270250423	-7.94494217346851E-05	-0.019440719464477	0.00197223272297415
4.6	0.0123319617080747	-0.00233518588849025	0.00309496637798421	-0.000527710364838241	0.00310800238636181	-0.000515745986473651	-0.0191430476917562	0.00466274019748922
4.7	0.0119749180466188	-0.00321134411102118	0.00299267974747651	-0.000940202776229336	0.00299257824053908	-0.000949632099166455	-0.0184494826909984	0.00724893722201709
4.8	0.0115413394270149	-0.00401281771127679	0.0028437040016573	-0.00134236844080253	0.00283604730460307	-0.00136253171047125	-0.01724981251264	0.00976665680038936
4.9	0.0112259909925726	-0.0046597122865269	0.00262820991170283	-0.00173962645733538	0.00262214581734761	-0.00173118573142728	-0.0155484633475628	0.0120339852468297
5	0.0111430124386963	-0.00530040686890276	0.00235182764683923	-0.00207151311736922	0.0023545654287426	-0.00208392874469198	-0.0132099334071575	0.0140316605156392
5.1	0.011097365120181	-0.00625535797136009	0.00203065252913719	-0.00239405776303552	0.00204386859647869	-0.00239158346215441	-0.0103950258751959	0.0154552060627437
5.2	0.0108539401247734	-0.0071760355063559	0.00168856339775487	-0.0026508906844838	0.00168906361112631	-0.0026550488375096	-0.00734373782843265	0.0162426618258903
5.3	0.0105736752773555	-0.00806651548414317	0.00129901352883357	-0.00286212696570105	0.00129527147014371	-0.00286469682118044	-0.00423050774837469	0.0163908315327718
5.4	0.0101769783525557	-0.00891830870306035	0.000888026590166637	-0.00302092277217075	0.000887138759746412	-0.00302337936320863	-0.00125084220789672	0.0157885506292696
5.5	0.00975104230077893	-0.00964203488907336	0.000450015417691891	-0.00311441112401845	0.000462579393478066	-0.00311439072892463	0.00130054942972471	0.014619875621148
5.6	0.00906480903503391	-0.0106271985910115	1.74829421196182E-05	-0.00314506858987231	1.41875473023015E-05	-0.00314161453562342	0.00331161739768296	0.0130793797809276
5.7	0.00794476820854152	-0.0112374083924418	-0.000415231030572602	-0.00311930870021279	-0.000418943917390446	-0.00312299578933131	0.00484949370107497	0.0114168335046417
5.8	0.00684353661950722	-0.0115063142968635	-0.000849748601697921	-0.00302928663177601	-0.000849017407430493	-0.00303696400022835	0.00605330497988179	0.00945524958999821
5.9	0.00575226640322238	-0.0113836259060596	-0.00126604583908286	-0.00287670887958743	-0.00126444538243904	-0.00288085642755233	0.00670178999151154	0.00737832936465531
6	0.00509856662635269	-0.0109217504027366	-0.00165405605298932	-0.00267253500421886	-0.00164806767515897	-0.00267587870181643	0.00684604673180297	0.00545322986399862
6.1	0.00497441360103644	-0.0109484569787739	-0.00201273653138583	-0.00242177650313646	-0.00200859466431352	-0.00242653912622929	0.00697387185121943	0.00357702832504066
6.2	0.00473126372990948	-0.0114770433698571	-0.00233255356843372	-0.00210599144907164	-0.00232897739910695	-0.00211465034801089	0.00692225646530289	0.00140707978183592
6.3	0.00424395966391175	-0.012374731705288	-0.00259962484426661	-0.00176714445537555	-0.0026094312785478	-0.00177490057305689	0.00640655808312471	-0.00111484001699142
6.4	0.00323008152115287	-0.0132427370644148	-0.00282664503810459	-0.00138294111370666	-0.00282465385598909	-0.00138873229886339	0.00518713022372785	-0.00354991845436873
6.5	0.00230620732577795	-0.0138121263714217	-0.00299255293350882	-0.000981031228090786	-0.00299295705560671	-0.000979909325441733	0.00351872563491311	-0.0054878865657537
6.6	0.00117490332786488	-0.0143564619340637	-0.00309644106823624	-0.000555523785110673	-0.00310710261583476	-0.000558528811318423	0.00154434089628911	-0.00694425289363501
6.7	6.77877137810971E-05	-0.0144526747086742	-0.00314148399317746	-0.000122050679792763	-0.00314044423483025	-0.000115815246121041	-0.000709224273597385	-0.00776046442853052
6.8	-0.000913104627671812	-0.0143769291290958	-0.00312758969186591	0.000325679088422627	-0.00312668638509734	0.000330437725608302	-0.00313414287463442	-0.00797519233684208
6.9	-0.00189607179857783	-0.0141655013425656	-0.00304633520490509	0.000755966451913499	-0.00304676044288715	0.000760949124676291	-0.00555146482913376	-0.00753849428406311
7	-0.00251982420005805	-0.0137487252685846	-0.00291585661525024	0.00117434722765948	-0.00291727139898835	0.00117756193757334	-0.00775669947407495	-0.00642012319815003
7.1	-0.00327789341676574	-0.0138344058989344	-0.0027189871001808	0.0015717172743365	-0.00272141477168854	0.00158272825894399	-0.00962588984599667	-0.0047980937761267
7.2	-0.00437559121388761	-0.0136721215682056	-0.00247965560639254	0.00193346516711605	-0.00247984215467895	0.00193935843548673	-0.0109683153945049	-0.00264548562093485
7.3	-0.00558799413967263	-0.0133195034566289	-0.00218973435203927	0.00225903687338189	-0.00218697375467817	0.00226051221223362	-0.0116093880128243	-0.000364664988103611
7.4	-0.00700321770853055	-0.0127394648605976	-0.00184747564351329	0.00254350735715649	-0.00184026462708359	0.00255003165854841	-0.0118106023688155	0.00173627288740063
7.5	-0.00816814569383046	-0.0116166800443919	-0.00147081595734197	0.00277823215706587	-0.00147185301738925	0.00277621764636614	-0.0115459042029699	0.00387306061860646
7.6	-0.00882483559055126	-0.0108549434417197	-0.00107805297883509	0.00295651870726924	-0.00106740779704048	0.00296687742039277	-0.0106792603073971	0.00574646737181003
7.7	-0.00959717414344553	-0.0100881183684652	-0.000648406696050553	0.00308132636509244	-0.000642842226632031	0.00308098241471266	-0.00956216469990116	0.00712154501877585
7.8	-0.00994320238678976	-0.0095053962964078	-0.00020181083795805	0.00314295668138149	-0.000215450504107129	0.00313586834814149	-0.00819571930402149	0.00837487800715693
7.9	-0.0100952249759949	-0.00906394593753982	0.000222285692168434	0.00312957077585638	0.000233374786262673	0.00312927205135143	-0.00652604911038764	0.00955642666727833
8	-0.00988753279331822	-0.00871801374177505	0.000657722896856261	0.00307511735590529	0.00066601763374523	0.00307304795676537	-0.00469535197102827	0.010671034105547
8.1	-0.0100508142031749	-0.00891674925776734	0.00109082998183545	0.00295154561909582	0.00108854973083252	0.00294829052549655	-0.00240001123899084	0.0113255242446719
8.2	-0.0104982346973962	-0.00871633453582625	0.00148292633538035	0.00276896220917483	0.00148210107659641	0.00278054912921759	0.000194313099284218	0.0115963962637494
8.3	-0.0109407175438444	-0.00839754581668277	0.00185563081159293	0.00253634822626914	0.00186070759461429	0.00253376483208968	0.00289508769405997	0.0111331333600553
8.4	-0.0114765984996207	-0.00787385508701103	0.00220237879289772	0.00225607180018554	0.00219121501156232	0.00225646516534323	0.00528956091309744	0.00990882542705587
8.5	-0.011684987454372	-0.00715592234849157	0.0024997746004149	0.00192031547505567	0.00249978331767708	0.00192166656980026	0.00720894850899291	0.00827939811068911
8.6	-0.0120201460402324	-0.00690314050713691	0.00273077697423261	0.00155964017952491	0.00272656681532499	0.0015573304275	0.00869586938637691	0.00618637312946844
8.7	-0.012632140228435	-0.00636335901714283	0.00292089555363366	0.00116098761225725	0.00291973297814693	0.0011605760644488	0.00968832451409422	0.00384756262726967
8.8	-0.0131599086463464	-0.00560085109501909	0.00305062904185475	0.000742564821012259	0.0030616110921417	0.00074046406621528	0.0101402560340376	0.00121449094744306
8.9	-0.0135490389419281	-0.00468978471634596	0.00312529874309637	0.00031147961551005	0.00313465750081284	0.000304342299553216	0.0100721046785338	-0.0014771993993812
9	-0.0133899112663235	-0.00366344043167795	0.00313749123107276	-0.000137725120490123	0.00314426539799197	-0.000132121039449107	0.00949465235067683	-0.00401742634159259
9.1	-0.0130319287210494	-0.00326942202657771	0.00309040948931588	-0.000569304782013429	0.00309062736318448	-0.000569497062226531	0.00849250700771719	-0.00648786674624259
9.2	-0.0128223079649005	-0.00295145506813488	0.00297619829064707	-0.000990912244027941	0.00298001902678677	-0.000990685961348028	0.00703775281158329	-0.00877778488057137
9.3	-0.0126277628814505	-0.00276207018354988	0.00280431980628835	-0.00140070522989929	0.00282237198668097	-0.00140113057752617	0.00508838274049225	-0.0108635035148624
9.4	-0.0126194053065066	-0.00263614987172414	0.00258612799439316	-0.00177375404144986	0.00258945485716642	-0.00178478098842481	0.00247854505813912	-0.0126462779129776
9.5	-0.0125421812481342	-0.00232281565933559	0.00231486960878429	-0.00212893402198337	0.00232966676159319	-0.0021295839389326	-0.000699470496629516	-0.0136398975657879
9.6	-0.0129106057246246	-0.00238119940157609	0.00199691262093347	-0.00243176625383841	0.00199722788927323	-0.00242474793559499	-0.00435065021132349	-0.013960726101643
9.7	-0.0135642774914833	-0.00191253829832495	0.00163458203888849	-0.00268662844596738	0.00164288364477324	-0.00268821015640782	-0.00808548583279928	-0.0132867981690465
9.8	-0.0141713961887384	-0.00113205206442445	0.00125003843497452	-0.00288280767457398	0.00124821879014224	-0.00289146065934891	-0.0116752475714679	-0.0118037007584717
9.9	-0.0146890999068796	9.57392697296554E-05	0.000840149282403068	-0.00302839693268816	0.000828269617044805	-0.00303102741723061	-0.0151557814853884	-0.00944918154836653
10	-0.0145308666727787	0.00158838540990811	0.00040685766579173	-0.00310838794376214	0.000406051819430544	-0.00311571174418524	-0.0180165986325761	-0.00614361539873005
10.1	-0.0140508286818823	0.00251729130887018	-2.86150815059647E-05	-0.00314515754498824	-3.32594367673442E-05	-0.0031479320550993	-0.0199720224724678	-0.00231295219858861
10.2	-0.0135442478179233	0.00336701613110416	-0.000468661440766995	-0.00310499769953813	-0.000481265416739119	-0.00310877044065427	-0.0208780794548202	0.00176907970605499
10.3	-0.0129671418623124	0.00400286403994927	-0.000900486990596486	-0.00300284618666704	-0.000900256932401414	-0.0030162400717238	-0.0209160537620957	0.00575274423965799
10.4	-0.0124867217644759	0.0045961467301373	-0.00130962176987799	-0.0028563392883457	-0.0013127959222851	-0.00285421175129826	-0.0202917576881418	0.00945545714811558
10.5	-0.0116378190820054	0.00532317456061743	-0.00169513997582535	-0.00263776814117308	-0.00170131275368258	-0.00264503403457729	-0.0190950614220038	0.0132529376930915
10.6	-0.0107579689287451	0.00551064467363115	-0.00205432299907812	-0.00238011924895701	-0.00205582285699296	-0.00238523477070972	-0.0171461710911463	0.0168902209647719
10.7	-0.00997890225374088	0.00571187378530967	-0.00236140581020522	-0.00206753607146156	-0.00236461403503626	-0.00208357756529873	-0.0143271423544079	0.0203290892061266
10.8	-0.00925917616258909	0.00571971647572825	-0.00262874481010589	-0.00171975780136402	-0.00262580451434022	-0.00172192529548632	-0.0108694704127735	0.0231585665632029
10.9	-0.00881333672568609	0.00583354210589001	-0.00284671820565616	-0.00134125953624625	-0.00284599844645362	-0.00134638977785658	-0.00700546569158501	0.0253585192127689
11	-0.00790276040962935	0.00608357215599035	-0.00300919140064642	-0.000924053057478268	-0.00300216740101919	-0.00092835001556683	-0.00259376008204524	0.0270949779788361
11.1	-0.00717452847670509	0.005690599628833	-0.00310420984877752	-0.000507475482128833	-0.00309646050354145	-0.000499174957840984	0.0023006844082029	0.0279292499019833
11.2	-0.00673937162384959	0.005403477888438	-0.00314466110357287	-6.52624585578208E-05	-0.00315126326296747	-6.20480876893707E-05	0.00763572420856785	0.0278276394283739
11.3	-0.00632126100060638	0.00509203523435986	-0.00312159926871796	0.000376483371644999	-0.00312476776454466	0.000374318724208071	0.0131876042009769	0.0265271160865018
11.4	-0.0061398053879807	0.00486475983385683	-0.00303385646987401	0.000808011316450343	-0.00303848919808622	0.000808168186438661	0.0183282420740967	0.0239059094393354
11.5	-0.00564536755531171	0.00475338850611308	-0.00290033066923443	0.00121556345238332	-0.00289281013740318	0.00122031585984192	0.0227588367642177	0.0202638328199845
11.6	-0.00538845605985338	0.00405845558617077	-0.00269815493516225	0.00161003091983897	-0.00270627227266376	0.00161974313949937	0.0264563589226878	0.0156228729134718
11.7	-0.00550470517011638	0.00364208383932782	-0.00244351620441903	0.00197754426899414	-0.00244526503375983	0.00198123926336303	0.0292861959808735	0.0102628964984573
11.8	-0.00559995483241714	0.00354176990105584	-0.00214376178900997	0.00230141423682613	-0.00215296539783533	0.00231122490463822	0.0310459406055209	0.00438716452371627
11.9	-0.00548396526960866	0.0037572618897297	-0.00180352617224547	0.00257265114392993	-0.00180355423231603	0.00257921257196861	0.0313964789111642	-0.00148008516272189
12	-0.00474615126116948	0.00396595023664049	-0.00142487707961401	0.0027975502134883	-0.0014293714246811	0.00280033982829924	0.0307508393399339	-0.00707057388707785
