# GHZ S RI R 50
0.2	-0.0141042899392374	0.00546488178548308	0.0030445001209895	-0.000885093323268214	0.00305495957176453	-0.000884940535982929	0.00566124775364424	0.000942604666378524
0.3	-0.0133164485673579	0.00594517524336855	0.00289842702889776	-0.00130110743318745	0.00289214257126479	-0.00131274977679976	0.00595743902826695	-0.00133778858998995
0.4	-0.0125581201302844	0.00667810310736744	0.00268430032472996	-0.00169539613970891	0.0026821950694774	-0.00169730828844188	0.00556925790459459	-0.00314009523114152
0.5	-0.0119152650364271	0.00736547653177831	0.0024144026462043	-0.00205231921395213	0.00241721650520337	-0.00205604484361449	0.0047466428758484	-0.00473428328186873
0.6	-0.011223787743622	0.00830133824355383	0.00210196117894915	-0.00237229927675537	0.00210121798682266	-0.0023751413637605	0.00355008436231354	-0.00599339405941523
0.7	-0.0104345180015749	0.00909791539823993	0.00175139879440809	-0.00264238981192082	0.00175760452146937	-0.00264648266632313	0.00204634853855066	-0.00690682768384801
0.8	-0.00955648314485504	0.00982138544200691	0.00135786506762622	-0.00286231391546827	0.00136613700873228	-0.00286071780255111	0.000311715564851199	-0.00733365802450635
0.9	-0.00872247297006167	0.0104648584519201	0.000953361625482946	-0.00301421377596622	0.000953342161719648	-0.00302362822347873	-0.00145812208465446	-0.00725637910364358
1	-0.00789599341172489	0.0109113839405154	0.000520650914662219	-0.00312227845280534	0.00052050256897093	-0.00312763435028875	-0.00307953802748285	-0.00668439538855761
1.1	-0.00738872761208937	0.0114615748441966	7.32307494862392E-05	-0.00316225678385427	7.41183093372511E-05	-0.0031669827526777	-0.00456502487224467	-0.00557213447369617
1.2	-0.00670702226551886	0.011830055427544	-0.000365607079079317	-0.00313505771027569	-0.000364382207950301	-0.00315185025811233	-0.00527501475003131	-0.00410644238924557
1.3	-0.00627931220879506	0.0117970061143783	-0.000796661596335193	-0.00306070531514846	-0.000801599429226109	-0.00306835935064355	-0.0051529165626617	-0.00273406077510503
1.4	-0.00594912949348655	0.0116176095512421	-0.00122247148806003	-0.00291553151821658	-0.00122488701819645	-0.00292266029153566	-0.00473362036577807	-0.00195961583588199
1.5	-0.00542717643877608	0.011626583614823	-0.00161415051434001	-0.00271734028974152	-0.0016121792019142	-0.00272288138623395	-0.00444256736759571	-0.00152982523230946
1.6	-0.00451264845192434	0.0119746993729046	-0.00197708597432309	-0.00246089456655766	-0.00198055595111145	-0.00246177353519184	-0.0046526679901961	-0.000783441891517147
1.7	-0.00342995210743576	0.0121216538361379	-0.00230187173391255	-0.0021664829286765	-0.0023039211776235	-0.00217506948614435	-0.00458503002477375	0.000291066406977344
1.8	-0.00244517945168705	0.0122713733043431	-0.00257864381692523	-0.00181731293574173	-0.00258382029918389	-0.00182277237803475	-0.00421292573809404	0.00138940806570371
1.9	-0.00152769230025914	0.0122267261014733	-0.00280426173393284	-0.00144822068562021	-0.00280075050069291	-0.00144203236652733	-0.00349298449541861	0.00242926112667405
2	-0.000900260968350224	0.0121501644201536	-0.00297971130539705	-0.00103644821655191	-0.00298245023527113	-0.00102960452686285	-0.00251758008409443	0.00329287122855874
2.1	-0.000203634845639532	0.0123205801634053	-0.00309477653840037	-0.000604245240579713	-0.00309687855596407	-0.000610939845537884	-0.00122776929631422	0.00381103781381064
2.2	0.000626904672663182	0.0123946665807838	-0.0031483139219694	-0.000173293356955193	-0.00315012579641004	-0.000163568556275517	0.000291509213761065	0.0038965711818192
2.3	0.00139140999039051	0.0122788301296673	-0.00314005046978083	0.000268939575991482	-0.00314680608591016	0.0002660311173917	0.00174376598687979	0.00350514929021103
2.4	0.0021177412208879	0.0120770053163672	-0.00307984440715422	0.000703665454060598	-0.0030786687014191	0.000718783067611337	0.00314329736318443	0.00283857885638102
2.5	0.00256822027738675	0.0116845763716197	-0.00294434797532618	0.00113572568247374	-0.00295735053807414	0.00113702793555647	0.00444248956384997	0.00175572713271181
2.6	0.00288744985025004	0.0117056370609612	-0.00275424306640861	0.00153090505735429	-0.00277516539023977	0.00153482517824972	0.00556641301837307	0.000315120828883577
2.7	0.00350359319749482	0.0118202829301836	-0.00252201568737423	0.00190014437679712	-0.00252229253896978	0.00190523135852686	0.00627073214398909	-0.00150036853270862
2.8	0.0043751415483249	0.0119075238495031	-0.00222670145994104	0.00222524638327219	-0.00223653193080457	0.00223644897668535	0.00650906142381655	-0.0033544720474913
2.9	0.00551092529143765	0.0117490163030513	-0.00188989663621474	0.00251825032588091	-0.00188796287764743	0.00252716072978166	0.00652800162002249	-0.00511607107915191
3	0.00653661106227286	0.011304042138974	-0.00151873258581946	0.00276120215647374	-0.00153382749482318	0.0027481700865085	0.00632834838073014	-0.0069103768516941
3.1	0.00762400477842101	0.0109620606187492	-0.00111958944154103	0.00294452148517315	-0.00113653501610608	0.00294994124462448	0.00577211154325775	-0.00878745933109266
3.2	0.00869829845610988	0.0102937178976831	-0.000699914727897943	0.00306928715232095	-0.000695635920466574	0.0030800943437405	0.00456714646977382	-0.0105890301256255
3.3	0.00958875986286546	0.00939749771497202	-0.0002703157247666	0.00314048482335869	-0.00026701960030085	0.00313610073673511	0.00298395466979074	-0.0122000678806962
3.4	0.0102813161322116	0.00837240019236332	0.00017544860884078	0.00314834582836221	0.000166018257276169	0.0031494338710241	0.00107737254007247	-0.013608379444521
3.5	0.0105669124639478	0.00730422726799617	0.000609320555171198	0.0030914904777699	0.000614328854184022	0.00309015519283081	-0.0012528233252369	-0.0147907677095994
3.6	0.0108337983510907	0.00665007039570253	0.00102944374890255	0.00297088466244004	0.00103604716882692	0.00297437079533498	-0.00386520682104351	-0.0153986167554624
3.7	0.0112591011099144	0.00590668767683571	0.0014457926164871	0.00279410059275934	0.00144406335995654	0.00281047462986804	-0.0066346956804654	-0.0154747669055553
3.8	0.0116898185534244	0.00506019053716884	0.0018139257957243	0.00256719139409118	0.00182453372368691	0.00257353335408298	-0.00947311652861761	-0.0149608582559108
3.9	0.012088757389398	0.00405659118378441	0.0021611936151844	0.00228871062866432	0.00215659515894198	0.00228861923937786	-0.0121758874511112	-0.0137891657608492
4	0.0121175085902575	0.00296286200447838	0.00245203028173331	0.00196898701975739	0.00246347708718586	0.0019751159224743	-0.0144660664397733	-0.0120788926389731
4.1	0.0121413869581863	0.00227344037813355	0.00270318471168538	0.00160253521800776	0.00271975668811771	0.00161229644034839	-0.0162810041577428	-0.0100041233757905
4.2	0.0123253499607113	0.00144158702060111	0.00290462768899462	0.00120582987527805	0.00290586271275792	0.00120811437199401	-0.017801127105499	-0.00770364007849161
4.3	0.0123917184985458	0.00052303444749999	0.00304713259068146	0.000797844683608566	0.00304832557860726	0.000806425986066531	-0.0189501183500838	-0.00519252786201724
4.4	0.012297649496599	-0.000515423285408429	0.00312577756363139	0.00036267415529646	0.00313369263946031	0.000358032635311273	-0.0196803329982106	-0.00237551242781341
4.5	0.0117709349047099	-0.00151026993735705	0.00314889425654231	-8.15825889019316E-05	0.00314570658429743	-7.93190373902153E-05	-0.0197849103087381	0.000526218602679296
4.6	0.0111667188900799	-0.00196833673294859	0.00309558691026565	-0.000527283987598731	0.0031086231617774	-0.000515315373078098	-0.0193639522758244	0.00330896592896164
4.7	0.0108773692622893	-0.0023144254709692	0.00299354243505534	-0.00094026957464683	0.00299344148653509	-0.00094970143806374	-0.0186026310713817	0.00586207531676662
4.8	0.0106727912351745	-0.00272452020694839	0.00284447503488917	-0.00134278435800502	0.00283681590659993	-0.00136295312250858	-0.0174003315001495	0.00838986101300003
4.9	0.0107268372716838	-0.00320784781211424	0.00262875771641636	-0.00174005620778907	0.00262269243676614	-0.00173161351555508	-0.0156439642899366	0.0107319919732514
5	0.0106411591746501	-0.00390704030948618	0.0023530287269735	-0.00207209712182934	0.00235576904229265	-0.00208451753821849	-0.0131894838468072	0.0126969537072089
5.1	0.0108251513961626	-0.00439746047670053	0.00203119973757309	-0.00239566775391653	0.00204442295592488	-0.00239319483381363	-0.0102949979791233	0.0140244173511182
5.2	0.0111308266566673	-0.00534072681561518	0.00168842594200912	-0.00265236721365903	0.00168892513898415	-0.00265652706125382	-0.00732852948641995	0.0146932140008628
5.3	0.0111693605191283	-0.00654034879040687	0.00129858700859646	-0.00286338236521667	0.00129484305702836	-0.00286595193111485	-0.00432931905056793	0.0148976600173657
5.4	0.0108563451989938	-0.00780460749559141	0.000887602077700994	-0.00302215847097789	0.000886713357170362	-0.00302461568042015	-0.00128421594983819	0.0144838694115317
5.5	0.0099008374134301	-0.00878820086815709	0.000448731104108799	-0.00311617788242065	0.000461301338144235	-0.00311616356109023	0.00153663680768127	0.0133426585914255
5.6	0.00925804365544498	-0.00907544889929222	1.5528408514216E-05	-0.00314561947267382	1.22345979158076E-05	-0.00314216277426853	0.00389431062421284	0.0116423313580713
5.7	0.0088614612680013	-0.00960108605559705	-0.00041694954243126	-0.00311928618640315	-0.000420664669711055	-0.00312297150166035	0.00558031036064492	0.00960491505132194
5.8	0.0084560979211273	-0.0103259087731325	-0.000851314178528066	-0.00302892657123331	-0.000850586882019175	-0.00303660449844245	0.00675382251418207	0.00729667268458103
5.9	0.00789252326300599	-0.0112824617670676	-0.00126768248377228	-0.0028760814556932	-0.00126608429395896	-0.00288023000718068	0.00731383824313337	0.00494381952156557
6	0.00653313961520782	-0.0125874464604069	-0.00165545117718205	-0.00267058216716375	-0.00164946691932133	-0.00267392909743964	0.00729021627166462	0.00262329004300242
6.1	0.00465409812758386	-0.012937000105505	-0.00201254883112035	-0.00242013914281129	-0.00200841014216223	-0.0024249008664482	0.00695002818393971	0.000498566464409255
6.2	0.00305100276514534	-0.0128737698448021	-0.00233217394307983	-0.00210511544622037	-0.00232859985245489	-0.00211377240167848	0.00622076656561069	-0.00155870531245349
6.3	0.00192591468249427	-0.012505704773862	-0.00259943623347648	-0.00176663155549162	-0.00260924206619185	-0.00177438558447414	0.00530167106973793	-0.00341627805433729
6.4	0.00124200395367857	-0.0123810187614629	-0.00282663541015793	-0.00138223541440783	-0.0028246455883064	-0.00138802641153646	0.00435571985390395	-0.00516701352397401
6.5	0.000407087560059204	-0.0124436853102193	-0.00299185840881161	-0.000980815265769237	-0.00299226244135214	-0.000979693623821105	0.00326344075863601	-0.00699521598670285
6.6	-7.87391401731071E-06	-0.0121753916153087	-0.00309690192115488	-0.000555660973745809	-0.00310756503673837	-0.00055866663844659	0.00167337228969001	-0.00880437221735054
6.7	-0.000386269713010654	-0.0123252454459989	-0.0031421549463002	-0.000121365391211401	-0.00314111356502003	-0.000115128915849984	-0.000719633703246021	-0.010001805340639
6.8	-0.00098457835888357	-0.0124162859487662	-0.00312781366400715	0.000326885154368855	-0.0031269084769355	0.000331643979578822	-0.00340510672221729	-0.0102317302796298
6.9	-0.0016615671819196	-0.0125495420154166	-0.00304583904059464	0.000756999876301521	-0.00304626246493403	0.000761982331622021	-0.00584142870681952	-0.0095779245511444
7	-0.00290954073910909	-0.0125326115158624	-0.00291602663320645	0.00117494463736894	-0.00291744108646759	0.00117815995745911	-0.00785065403371236	-0.0084369687734976
7.1	-0.00375323259150816	-0.0116182154422051	-0.00271856019452284	0.00157337312222331	-0.00272098244561563	0.00158438698955744	-0.00948385450778535	-0.00694807545183001
7.2	-0.00407079757252903	-0.0110357518932083	-0.00247835233448026	0.00193471673958488	-0.00247853551558576	0.0019406096301052	-0.0108999300149222	-0.00510587466314325
7.3	-0.00436582009233985	-0.0106894829936217	-0.00218817567616374	0.00225963424339823	-0.00218541493454667	0.00226110792778572	-0.0118378908796291	-0.00288595763252437
7.4	-0.0046504522758381	-0.0107055370840115	-0.00184628907518238	0.00254368048843018	-0.00183907713337407	0.00255020119776399	-0.0122473782015162	-0.000521734994224518
7.5	-0.00567368665511724	-0.0112536996614768	-0.0014691077025559	0.00277916128179711	-0.00147014601591453	0.00277714739856934	-0.0118706934208741	0.00188172339470799
7.6	-0.00704634079998622	-0.0109454060749787	-0.00107553822862431	0.00295597659333105	-0.00106489051825633	0.00296632343050138	-0.0107848834288509	0.00393297172715272
7.7	-0.00823231153342525	-0.0105930033428111	-0.000646597535817217	0.00307983379834519	-0.000641036465620514	0.00307948746277954	-0.00963335444119884	0.00526301599274538
7.8	-0.00918789062178647	-0.0101827137228909	-0.000200782881920721	0.00314113014593466	-0.000214416414006458	0.00313404999929737	-0.00821536125302829	0.00664631255233699
7.9	-0.00998337049592774	-0.00982690198804788	0.00022290557624532	0.00312802246728657	0.00023398929765819	0.00312772131249225	-0.00628113853008169	0.00792678624073626
8	-0.0110604004736749	-0.0092184641098563	0.000658187733413268	0.00307260477043908	0.000666475600926466	0.0030705343390198	-0.00393094916192607	0.00863168953388799
8.1	-0.0113159042856829	-0.00803786175705913	0.00108932162478233	0.00294955716676896	0.00108704385479673	0.00294630401773582	-0.00150769680482086	0.00874399047870202
8.2	-0.0113699929071385	-0.00742365020731987	0.00148130732147174	0.00276838295663956	0.00148047814163355	0.00277996487029322	0.000739868897111399	0.00841261245594337
8.3	-0.0116028654052647	-0.00693756608008402	0.00185468866791721	0.00253651269650403	0.00185976547158791	0.00253393103571744	0.00287698795808679	0.00779797995963988
8.4	-0.0119293000775865	-0.0064720320695353	0.00220215066961467	0.00225588241747558	0.00219098792851766	0.00225627563626204	0.00493138195625016	0.00685564714521394
8.5	-0.0128477985600621	-0.00591310765217608	0.00249862899791661	0.0019202777724714	0.00249863742628295	0.00192162846982563	0.00686097578089991	0.00544720863919315
8.6	-0.0132815546043685	-0.0042992278959749	0.00273084979527672	0.00156024944229831	0.00272663950923757	0.00155793876196539	0.00855528424551716	0.00340939276244805
8.7	-0.0129578972286366	-0.00304848051187941	0.00292134626447749	0.00116071925886862	0.00292018351628925	0.00116030782301116	0.00948077596677656	0.000876760839157524
8.8	-0.012348330812955	-0.00219940968149001	0.00305066853436264	0.0007416621282998	0.00306164937900533	0.00073955839014557	0.00966497497947809	-0.00174654256129959
8.9	-0.0115745108711293	-0.00198083393143186	0.00312437657630784	0.000310659260848814	0.00313373071010562	0.000303522055147721	0.00944263896336325	-0.00412160909628497
9	-0.0114886325281403	-0.00238103288893494	0.00313722223340003	-0.000137634677282188	0.00314399567191311	-0.000132030913409611	0.0090172217051055	-0.00643837503668632
9.1	-0.0115677102371593	-0.00230802812995398	0.00308973707712061	-0.000570394315745829	0.00308995484582108	-0.000570586650305531	0.00824535061356382	-0.00891224293542747
9.2	-0.0117381710765999	-0.00243962659780185	0.00297452755783873	-0.000991403694118835	0.00297834662401972	-0.000991178725368028	0.00675747007271167	-0.0113172695635536
9.3	-0.0122011906029497	-0.00239575266334703	0.00280252958079569	-0.00140013692122977	0.0028205710361231	-0.00140056369593371	0.00471956814982264	-0.0132916704684677
9.4	-0.0127413759640226	-0.00219346916048666	0.00258529678388618	-0.00177232084109133	0.00258862456248918	-0.00178334177215486	0.00229498932967476	-0.0148050080383739
9.5	-0.0137001435912839	-0.00149971781800514	0.00231439373008062	-0.00212865244950797	0.00232918831475564	-0.00212930279527541	-0.000474224965561519	-0.0158047612702979
9.6	-0.013894898198392	-6.97149661093452E-05	0.00199578504465236	-0.00243033780437047	0.0019961000528259	-0.00242332354121751	-0.0036717899596499	-0.0164408137532585
9.7	-0.0135866905268258	0.000909614620173279	0.00163458117379498	-0.0026846493049039	0.00164287883258172	-0.00268622745148657	-0.00737288000607596	-0.0162521308582538
9.8	-0.0132028809378155	0.00159640735834297	0.00125110435979927	-0.00288121430151927	0.00124928975490455	-0.0028898653621642	-0.0111106367433194	-0.0150267856563023
9.9	-0.0128172248411514	0.00193919168201238	0.00084156616980967	-0.00302802901516167	0.000829687637877068	-0.00303066505285804	-0.0146518623556062	-0.0127235672431387
10	-0.0132189740063075	0.00205748969235552	0.000407417329136495	-0.00310772192803538	0.00040661313236991	-0.00311504452014355	-0.0174487884125279	-0.00968874802791901
10.1	-0.013402396888879	0.00311459374470912	-2.67673879801538E-05	-0.00314512697901805	-3.1410043575143E-05	-0.00314790417516355	-0.019520244064159	-0.0063055868562769
10.2	-0.0131104604713485	0.00394737482890079	-0.000467555374041503	-0.00310630171219575	-0.000480162314919195	-0.00311008097513609	-0.0211141986025523	-0.00252389656020964
10.3	-0.0126539126918063	0.00465103935804545	-0.000900776638205782	-0.00300425720669382	-0.000900545928389681	-0.00301765721230927	-0.0218855823914749	0.00187165442855449
10.4	-0.0120202145617858	0.00493510881366554	-0.00131089477957292	-0.00285637067899822	-0.00131406872211087	-0.00285424160770454	-0.0213585524628692	0.00642453047438404
10.5	-0.0121061335833237	0.00501758199012138	-0.00169451714053279	-0.00263688580072669	-0.00170068768533216	-0.00264414928606641	-0.0196309861999917	0.0106762491692446
10.6	-0.0119947179355968	0.0058233117965342	-0.00205393384744197	-0.00238044963256921	-0.00205543287260679	-0.00238556539086971	-0.0170936367509309	0.0141856274165957
10.7	-0.011677082791094	0.0065897957645447	-0.00236128654479998	-0.00206765489597486	-0.00236449389898235	-0.00208369650275414	-0.0141855207342984	0.0172832328775066
10.8	-0.0110884812715052	0.00745840575178986	-0.00262845126243977	-0.00171966967881987	-0.00262551118114537	-0.00172183688872791	-0.0107856085292124	0.0200445919416551
10.9	-0.0102508760198725	0.00803706368983682	-0.00284566159963801	-0.00134148783400376	-0.00284494096532889	-0.0013466165258612	-0.00679688751033992	0.0223235698988968
11	-0.00982812327200471	0.00844849274563505	-0.00300931320787079	-0.000925805140445464	-0.00300228556281296	-0.000930099302292114	-0.00206802837198867	0.0238894682627103
11.1	-0.00878960296471469	0.00952185594761362	-0.00310489324361923	-0.000507714089394638	-0.00309714247212561	-0.000499411375462095	0.00307401752870481	0.0242426208007717
11.2	-0.00721422660410273	0.009862409729614	-0.00314466529819331	-6.54852424330157E-05	-0.003151267703564	-6.22713301143993E-05	0.0080944573431707	0.0235835978839116
11.3	-0.00552260042307541	0.00958508189148782	-0.00312148072316845	0.000375672707296166	-0.00312464845829209	0.000373507410886222	0.0130831172090713	0.0222059015682915
11.4	-0.00418189910429431	0.00869801354839274	-0.00303470698757793	0.00080651382049864	-0.00303934044310725	0.000806668254057215	0.0178758521733525	0.0199181463863757
11.5	-0.00385996819590365	0.00766059526835924	-0.00290195233508453	0.00121593482744505	-0.00289442831295154	0.00122069039196611	0.0222895411766302	0.0164856227608943
11.6	-0.0032414370188642	0.0072690461333475	-0.00269852529633477	0.00160992639113798	-0.00270664418123754	0.00161963870610781	0.0260553818873027	0.0118939770076462
11.7	-0.00244527362402567	0.00629599903917616	-0.0024446052660386	0.0019770398081631	-0.00244635565609817	0.00198073482525611	0.0286653152503893	0.00660034147743882
11.8	-0.00193743061119417	0.00503993871246536	-0.00214562853438877	0.00230147429825484	-0.00215484012818439	0.00231128519472679	0.0302935997957506	0.00115433604051064
11.9	-0.00172166028213186	0.0033126744835843	-0.00180552993417288	0.00257445707753173	-0.00180555927929954	0.00258102399054874	0.0312069379141499	-0.00420628803880777
12	-0.00311898615205639	0.00207659156597175	-0.00142475052386097	0.00279921955630103	-0.00142924614273213	0.00280201168782316	0.0311434025315892	-0.00984794988049697
