# GHZ S RI R 50
0.2	-0.0137495318197351	0.00546704983703121	0.0030426932275188	-0.000885786965972259	0.00305314764964082	-0.000885638114317796	0.00612520284910986	0.0010532074667764
0.3	-0.012962960162752	0.00583578008211302	0.0028959291226872	-0.00130159900553758	0.00288964338248009	-0.0013132308255243	0.00639867907719159	-0.00133835677786048
0.4	-0.0122536919475002	0.00632437038615651	0.00268104771731004	-0.00169520034342213	0.00267894340852713	-0.0016971097309612	0.00589687948577644	-0.00339622910735614
0.5	-0.0119829336079848	0.00709656922467153	0.00241130682429975	-0.00205069835286475	0.00241411675114566	-0.00205442065885288	0.00449149379176771	-0.00483950410428107
0.6	-0.0109800220418658	0.00819205268900488	0.00209933737357753	-0.00237050784221905	0.00209859420818078	-0.00237334698478593	0.00352758590406689	-0.00561749776727454
0.7	-0.0101262857037222	0.00875139106194322	0.00174873247091826	-0.00263994148484342	0.00175493019635347	-0.00264403150543814	0.00222446447967636	-0.00652691101228499
0.8	-0.00928823426022086	0.00933629177621732	0.00135561344806192	-0.00285895536712105	0.00136387524598563	-0.00285736282231051	0.000663759262826832	-0.0069629754631064
0.9	-0.00844330848195097	0.00976653110426745	0.000952169467678106	-0.00301008556262974	0.000952150352687998	-0.0030194872189692	-0.000803499344063881	-0.0071553216014803
1	-0.00809092020837171	0.00989726846344206	0.000520578808921244	-0.00311875098178917	0.000520431488141177	-0.0031241009958554	-0.0028432971995582	-0.00731781438532676
1.1	-0.00768716290463505	0.0108616670504942	7.30022337552186E-05	-0.00315838190679048	7.38884977457023E-05	-0.00316310211878419	-0.00482647997361175	-0.00591673082379159
1.2	-0.00685540840341795	0.0110339329136018	-0.000364817415440506	-0.00313074142072432	-0.000363592730663898	-0.00314751056209174	-0.00565564473485372	-0.00453878513592292
1.3	-0.00650827003241193	0.0107396777508263	-0.000794743731177673	-0.00305660652485559	-0.000799672623762454	-0.00306425107735487	-0.00583858893763427	-0.00318729935174233
1.4	-0.00626484822339268	0.0103439959492703	-0.00121980892396949	-0.00291227930726772	-0.00122221867481851	-0.00291939991126807	-0.00550677518432981	-0.00229217004665576
1.5	-0.00602256310497031	0.0105273042417402	-0.00161181665260376	-0.00271405900469579	-0.00160984726335256	-0.0027195928593281	-0.00552326739508146	-0.0013622006420774
1.6	-0.00480374644190461	0.011036092286664	-0.00197307686980642	-0.0024574446657546	-0.00197654086162654	-0.00245832324673986	-0.00508909943605478	2.65443086870965E-05
1.7	-0.0037640335821358	0.01116607179829	-0.00229691281490652	-0.00216429921212848	-0.00229895403462071	-0.00217287306765996	-0.00457852570482791	0.00108942623925437
1.8	-0.00279712219254955	0.011429687909516	-0.00257346966895701	-0.00181630637256757	-0.00257863452551466	-0.00182176103292242	-0.00394800288493984	0.0020720141837295
1.9	-0.0018674124882729	0.0114059104976433	-0.00279919746657122	-0.00144779452009993	-0.00279569527068786	-0.00144161324294428	-0.00316997098973604	0.00275867839357684
2	-0.00146724637894352	0.0115708804978256	-0.00297329465177015	-0.0010365168357138	-0.00297603305321075	-0.00102968813042034	-0.00288989444574469	0.00360738768126689
2.1	-0.000305740207198929	0.0120137065997773	-0.00308844974677341	-0.000606953900170552	-0.00309053975271484	-0.000613639004038274	-0.00143789651267574	0.00484950772990249
2.2	0.000734594204745072	0.0118554475068052	-0.00314302040541833	-0.000177186191524501	-0.0031448422511117	-0.000167479433436672	0.000500489517653597	0.0050402775779826
2.3	0.00151832041719154	0.011574432759557	-0.00313549483949588	0.000264219239520498	-0.00314223588084125	0.000261306093370743	0.00234047412638427	0.00455237941163298
2.4	0.00222519390077242	0.0112018431480968	-0.00307562592145335	0.000697894439940716	-0.00307447465040044	0.000712987967153505	0.00412204592640043	0.0033946308189885
2.5	0.00232596484511411	0.0107685923636041	-0.00294185825925688	0.00112763483901602	-0.00295484199924256	0.00112890752138895	0.00488315806949148	0.00153359941518406
2.6	0.00282868886357138	0.0111620658482584	-0.00275441177437382	0.00152337852166367	-0.00277531908467969	0.00152725005307624	0.00549201957355534	0.000410231150680596
2.7	0.00372856999201172	0.0111759547564038	-0.00252324571581008	0.00189295598755011	-0.00252353271583481	0.00189803701514264	0.006119092947999	-0.00120527159850601
2.8	0.00476671101784012	0.0110360594736386	-0.00222921044538349	0.0022180691688609	-0.00223905499290891	0.0022292386316441	0.00641134582882582	-0.00294382858168789
2.9	0.00589756661842869	0.0105553004345632	-0.00189443201787637	0.00251112789496427	-0.00189252245084838	0.00252003473523945	0.00643640039341761	-0.00487369317139236
3	0.00664389727145889	0.0100486583601045	-0.00152560375955945	0.00275645006574147	-0.00154066021719189	0.00274338171172061	0.00559271107959254	-0.00659705364723821
3.1	0.00791083774732125	0.00967548148194217	-0.00112587471148735	0.00294128199981717	-0.00114282810237653	0.0029466625971485	0.0050993023779625	-0.00775632844944411
3.2	0.00887291792332054	0.00876471431900686	-0.000706948857996327	0.00306676352761056	-0.000702696738733218	0.00307757772515789	0.0041510781660108	-0.00930789415682297
3.3	0.0095852880093457	0.00778013513159874	-0.00027820464487428	0.00313948360600858	-0.000274897804790493	0.00313510827461733	0.00285071197209364	-0.0108078793080247
3.4	0.0101140904216532	0.00668759745500482	0.000167395251450404	0.00314980937389778	0.00015795906711038	0.00315087347479563	0.00119267230838516	-0.0124211319111362
3.5	0.0100590280507855	0.00575839071536704	0.000603443779531113	0.00309433407316793	0.000608457383111921	0.00309300812605826	-0.00163132996100273	-0.013704131051919
3.6	0.0105352674910164	0.0053069858080444	0.00102325586352884	0.00297355962659982	0.00102985288302881	0.00297706043445052	-0.00403810586763634	-0.0136383347132657
3.7	0.0109268469862343	0.00439307442688808	0.00143979429255693	0.00279850989918032	0.00143802612456718	0.00281488592891663	-0.00625520341014366	-0.0137044195995076
3.8	0.011163189689746	0.00353152199991565	0.00180915824005884	0.00257302049702161	0.00181975830696042	0.00257939100277889	-0.00869189681917912	-0.0135342344400059
3.9	0.0113669048437948	0.0026214076889066	0.00215830746808157	0.00229493689574963	0.00215370547845142	0.00229483612250313	-0.0113376432350187	-0.0130824816272052
4	0.0111272818911875	0.00195414777815566	0.0024489229733365	0.00197448659016339	0.00246036134446681	0.00198064017250823	-0.0146415045708897	-0.01174185960766
4.1	0.0116741149581233	0.0016936504806546	0.0027008612409642	0.00161039462991774	0.00271741913301953	0.00162020399428166	-0.0167272718446696	-0.00885719333207131
4.2	0.0122165405322379	0.00074694799340266	0.00290468131764769	0.00121413960665796	0.00290591205211913	0.0012164294594452	-0.0179637771350124	-0.00624487557974872
4.3	0.0124826747682013	-0.000289998528173557	0.00304890985969642	0.000805643013939645	0.00305008492082399	0.00081423706852327	-0.0187832421121244	-0.00372209775523906
4.4	0.0125325132009481	-0.00150642064478737	0.00312823448494116	0.000369847517509595	0.00313616787177061	0.000365218388989294	-0.0192900105699762	-0.00135098634223566
4.5	0.0118912114744766	-0.00249397197181574	0.00315286806239658	-7.28592547850221E-05	0.00314967025831861	-7.06019399892614E-05	-0.0202438815331115	0.00112565479189585
4.6	0.0117667174293542	-0.00289895296984071	0.0031030359854129	-0.000520440402321792	0.00311606747059519	-0.000508414978979639	-0.0201660523352246	0.00470396720702925
4.7	0.0116770879048128	-0.0036696179249875	0.0030018749050421	-0.000935651661331195	0.00300179449423222	-0.000945103482994738	-0.0192161676289199	0.00764633510152282
4.8	0.0114317291332476	-0.00442209983752965	0.00285329661688859	-0.00133970345159487	0.00284566327726918	-0.00135993088731191	-0.0177400105731605	0.0103860403486542
4.9	0.01134983784232	-0.00520688964094592	0.00263856155844776	-0.0017380437312154	0.00263246370085901	-0.00172959575998951	-0.0156872253336137	0.0125563151406442
5	0.0109410089531557	-0.00592729216228305	0.00236466883546148	-0.00207352629866276	0.00236744383690751	-0.00208597927666383	-0.0137490527884464	0.0145004745179637
5.1	0.0113191950362382	-0.00651377461707812	0.00204055162944879	-0.00240020220992597	0.00205381156347932	-0.00239770411999525	-0.0104180013124113	0.0165527437701815
5.2	0.0113895839377758	-0.0077808136306396	0.00169660776099928	-0.00265796858105998	0.00169711355776268	-0.00266213987495433	-0.00678454885632578	0.017038318409231
5.3	0.0111012817981279	-0.00899343764147023	0.00130597472906802	-0.00287049530226053	0.00130222252789431	-0.00287307716958398	-0.00349753149929502	0.0167293488096605
5.4	0.0105875536109205	-0.0101709000519903	0.000893790957547442	-0.00303168352456904	0.000892901704750173	-0.00303415014216634	-0.000618823017099367	0.0155788403354625
5.5	0.00939598421680042	-0.0107794335029251	0.00045055782063571	-0.0031272071154396	0.000463172679622919	-0.003127191800766	0.000893203682589248	0.0144347283937024
5.6	0.00929480508966017	-0.0110064702242596	1.57158923206194E-05	-0.00315489704922045	1.24122104560307E-05	-0.0031514303033973	0.00339275172878935	0.0139606609138811
5.7	0.00880186075915559	-0.0119368961123757	-0.000417913427175784	-0.00312878698940734	-0.00042163946724574	-0.00313248384020304	0.00578532840021088	0.012154751042424
5.8	0.00802506382298104	-0.0127029684757606	-0.000854378114302721	-0.00303853922918534	-0.000853649338257583	-0.00304624184301143	0.00760951750758622	0.00964937750807012
5.9	0.00714565871306872	-0.0134573872949787	-0.00127362937369663	-0.00288460291636811	-0.00127202864595828	-0.00288876594524777	0.00873056170821768	0.00637432404392412
6	0.00536108982463526	-0.0141488395085755	-0.00166172075967044	-0.00267585269396181	-0.00165572439750875	-0.00267921277499133	0.00753472443475235	0.00272373754089196
6.1	0.00423711488889955	-0.0136817030326761	-0.00201890283603791	-0.00242604556314251	-0.00201475451211946	-0.00243082176124024	0.00613913009910872	0.00131956432160807
6.2	0.00338119529439797	-0.0137884846757849	-0.00234056678461439	-0.00210984148905582	-0.00233698783339236	-0.00211852674355097	0.00522113436720106	-0.000236964631685952
6.3	0.00265277014168937	-0.0138802756128395	-0.00260892685506266	-0.00176903874877674	-0.00261876964898087	-0.00177680504907787	0.00437081595975442	-0.00173032614069933
6.4	0.0019770479607595	-0.0143316057214918	-0.00283547878285215	-0.00138198244194234	-0.00283349157572677	-0.00138779045608654	0.00351508675431917	-0.00364024125944752
6.5	0.000885416498977856	-0.014461126405098	-0.00299977702148248	-0.000981134280573105	-0.00300018126177032	-0.000980009644715035	0.0014692655647075	-0.00498414657269651
6.6	0.000751586684770594	-0.0146153478255561	-0.00310688065683228	-0.000553834604988913	-0.00311757936694585	-0.000556837279216145	0.00062231831589472	-0.00558627282196795
6.7	-1.53745579989545E-05	-0.0151480497765939	-0.00315121980684811	-0.000116681873621822	-0.00315016550996062	-0.000110429457392208	-0.00094951076078049	-0.00671220306135316
6.8	-0.000890496496031875	-0.0152241728210736	-0.0031351485138329	0.000333180686364909	-0.00313423271755867	0.000337949958273298	-0.00301787211952309	-0.00713688182639147
6.9	-0.00169115301849829	-0.0153863589217461	-0.00305192656294219	0.000763448702725005	-0.00305234338977457	0.000768443652571973	-0.00513334414089307	-0.00729670195301232
7	-0.00320121370530328	-0.0150355493839584	-0.00292314202084679	0.00118354220366488	-0.00292455545295645	0.0011867699513505	-0.00855352838326451	-0.00638555408101926
7.1	-0.00337428230065049	-0.0141883962219054	-0.00272204517483931	0.00158469047618019	-0.00272444589856038	0.00159574100538162	-0.00993867569096322	-0.00337772922585606
7.2	-0.00383850438088245	-0.0142695223883963	-0.00247908110084458	0.00194583119603333	-0.00247924913390448	0.00195173846621671	-0.0103018665474683	-0.0011820925484317
7.3	-0.00470371908066402	-0.0142045508818011	-0.00218714087318265	0.00227049772053453	-0.0021843700250001	0.00227196743860313	-0.0101080706941072	0.000837509068327575
7.4	-0.0056384943255597	-0.0142124216523476	-0.00184375623971595	0.00255522530619817	-0.00183650795215912	0.00256174204842561	-0.00930359764886445	0.00198220888915098
7.5	-0.00756277808039661	-0.0141163709970785	-0.00146161770821792	0.00279123360226826	-0.00146266624715076	0.00278921917474188	-0.00975707047401113	0.00232021809337762
7.6	-0.00852044647010062	-0.0128057370165273	-0.00106566818948414	0.00296389899282613	-0.0010549672823348	0.0029742186522612	-0.00951130978428727	0.00447538260216046
7.7	-0.00934585140114755	-0.0122612829787437	-0.000636090403650949	0.0030856914644555	-0.000630524282240478	0.00308532443758218	-0.00865515736306868	0.00548836028587297
7.8	-0.00991700196861675	-0.0117343186136677	-0.000189116358321211	0.00314519357019155	-0.000202791004279389	0.00313815752909027	-0.0077521873154226	0.0065607410794178
7.9	-0.0102922901460035	-0.011434385619203	0.000236400253019677	0.00312954464161559	0.000247491448722195	0.00312919605636578	-0.00677255194997859	0.0074958479536021
8	-0.0110353816625437	-0.0106687081874789	0.000670920696692766	0.00306854149584951	0.000679196355060277	0.00306643684193883	-0.00645968585280407	0.00924157187080019
8.1	-0.0104236635094311	-0.0101356087327474	0.00109920375105927	0.00294460418934596	0.00109691550030964	0.00294136026377553	-0.00355459732628907	0.0114146586940643
8.2	-0.0106173372129374	-0.0102455479797804	0.00149073440131524	0.00276210838316159	0.0014899470886095	0.00277368927213039	-0.000413612465050567	0.0117707931349112
8.3	-0.0111020496852539	-0.010040900850047	0.001863055455435	0.00252791784299138	0.00186811931153392	0.00252531871678639	0.00254597284176509	0.0113043661255651
8.4	-0.0116134493480783	-0.00975282437926829	0.00220765375516453	0.00224464706725534	0.00219650734053523	0.00224508149604749	0.00516438991936307	0.00968665394267642
8.5	-0.0128124408162302	-0.00898389926337749	0.00250004799436397	0.00191058152389066	0.00250006007580508	0.00191193014811202	0.00576791423850912	0.00798075423591324
8.6	-0.0126501280591842	-0.00759174803604795	0.00273272575775243	0.00155069977203625	0.00272851285752551	0.00154840372116974	0.00765781657287139	0.00754539435620761
8.7	-0.0125933985483696	-0.00712707579482294	0.0029212005450951	0.00115003501868936	0.00292003801371492	0.00114962776973161	0.00969548962201548	0.00546042231556153
8.8	-0.0127461154901502	-0.00659664436646385	0.00304774273165556	0.000731203159258966	0.00305869864403534	0.000729069853197086	0.0110478244184575	0.00261867571063177
8.9	-0.012785724251268	-0.00622903636746268	0.00311921335791688	0.000302340357661145	0.00312853207650333	0.000295193561774142	0.0118097137873546	-0.000994645838009778
9	-0.0133967189328909	-0.00580326794036794	0.0031333894132201	-0.000145203848145388	0.00314016910184959	-0.000139622998498981	0.0103980475046647	-0.00474844100045765
9.1	-0.013042384093761	-0.00499600185878765	0.00308285222605089	-0.000579103190870331	0.00308306903428983	-0.000579295887881616	0.00911693454143814	-0.00695702902227498
9.2	-0.0129502428300181	-0.00489058497365881	0.00296522972633423	-0.000997812236719497	0.00296904116380266	-0.000997598741809672	0.0073824078192947	-0.00956546538985262
9.3	-0.0130383986816857	-0.00458174478704777	0.00279251486221869	-0.001403962387368	0.00281051349475823	-0.00140443365786603	0.00492961625621712	-0.0116094071975807
9.4	-0.0130731386182923	-0.00438291988840026	0.00257594325933555	-0.00177488569974118	0.002579238353535	-0.00178589246545287	0.00199592061986818	-0.0133648845898315
9.5	-0.0135712139989803	-0.00355053598741239	0.00230224054006742	-0.00213126799400487	0.00231699926940476	-0.00213196462232497	-0.00233498378234113	-0.0136997985436009
9.6	-0.0129031439411413	-0.00284512914343899	0.00198268906384487	-0.00242790219911784	0.0019830221769279	-0.00242091153083831	-0.00505370962812017	-0.0125085188464568
9.7	-0.012857536452937	-0.00277603848774869	0.00162317314424979	-0.00267947770639325	0.00163143993733242	-0.00268106927996262	-0.00769489006151878	-0.0118250362238145
9.8	-0.0130825418155691	-0.00242635369094116	0.00124096580247656	-0.00287448825819301	0.00123913885991821	-0.00288310738103985	-0.0104281769039221	-0.0107086281923461
9.9	-0.0132881892508768	-0.00194964604601072	0.000831441798309961	-0.00301966999565849	0.000819597648296309	-0.00302226859570742	-0.0132229978664298	-0.00946352162144578
10	-0.014078233674943	-0.0011263865775917	0.000399093008907158	-0.00309417093545664	0.000398277369532565	-0.00310145794376675	-0.0172628132829288	-0.00725353129034192
10.1	-0.0135593889242096	0.000191963005715715	-2.98586371799294E-05	-0.00313110299597584	-3.44834667266533E-05	-0.00313386309397727	-0.0193845865312079	-0.00282617299413241
10.2	-0.0131669091547196	0.000699197327999369	-0.000468197522377541	-0.00309259471241179	-0.00048075366800063	-0.0030963470470337	-0.0202239100219707	0.00102115282767295
10.3	-0.0128699828475747	0.00129879413200199	-0.000899003137535394	-0.00299020731307496	-0.000898783437296265	-0.00300354781616979	-0.0202913687572004	0.00483766794129431
10.4	-0.0124263246455326	0.00167134326656824	-0.00130539880584888	-0.00284145311171555	-0.00130855590995995	-0.00283933353862746	-0.0195838637271897	0.00785309983942982
10.5	-0.0125448385711566	0.00232729144134079	-0.00168330567398128	-0.00262569805915061	-0.00168943791712295	-0.00263293234902757	-0.0199421794720658	0.0111266200897289
10.6	-0.0116120489692694	0.00314271861969587	-0.00204307382435478	-0.00237301873897176	-0.00204456130430336	-0.00237811540493992	-0.0184678903798789	0.015679562308484
10.7	-0.0110148261777837	0.00352337930064123	-0.00234955535316873	-0.00206175493184976	-0.00235273290324364	-0.00207773492568355	-0.0160511366627986	0.0196231989079574
10.8	-0.0102380005522252	0.00405767137686136	-0.00261520195748768	-0.00171606246010515	-0.00261227118066389	-0.00171821669341384	-0.012584036775696	0.0233181544928492
10.9	-0.00933094350595274	0.00422445302732933	-0.00283134477416129	-0.0013420003221117	-0.00283061634852657	-0.00134710675435597	-0.00823714040934507	0.025689738953095
11	-0.00899932769710175	0.00459608187292363	-0.00299873108663809	-0.000929637127314874	-0.00299171426361267	-0.000933903910933086	-0.00475489092954308	0.0277440576486531
11.1	-0.0074484181707201	0.00498517101781037	-0.00309433801386023	-0.000510938917160623	-0.00308662451756235	-0.000502650283063164	0.00100627190618425	0.0301267913506967
11.2	-0.0064080863974486	0.00437519141578958	-0.00313395504614141	-7.11935329270934E-05	-0.00314054128331153	-6.80028880694531E-05	0.00749374289263819	0.0301768704734393
11.3	-0.00573801152702349	0.00377314334352851	-0.00311241366627486	0.000367241468926613	-0.00311556629739257	0.000365075723802843	0.0140111782911455	0.0286398455661878
11.4	-0.00532408337867376	0.00305444905498587	-0.00302903160954549	0.000796937502708834	-0.00303365372543535	0.000797080039795838	0.0199748829679946	0.0251966186435236
11.5	-0.00564632049922548	0.00280140627409589	-0.00289629471751399	0.00120825477832431	-0.00288879767219411	0.00121300968042592	0.0235649934966479	0.0209700951512944
11.6	-0.00478816654503626	0.00274403776598087	-0.00269302163068894	0.00159876457195839	-0.00270113443989492	0.0016084271214384	0.0279404951440864	0.0170731270584927
11.7	-0.00439088644421812	0.00192314236495734	-0.00244243789846427	0.00196438878029542	-0.00244419288014518	0.00196806774957819	0.0317334673688335	0.0111110406236662
11.8	-0.00423866868704457	0.00131132064936806	-0.00214644871736515	0.00228917893041506	-0.00215566363308596	0.00229893722756436	0.034052886352895	0.00411685814047546
11.9	-0.00398001820367245	0.000541742879231911	-0.00180741040360238	0.00256337118514345	-0.00180745618277616	0.00256992132455723	0.0344250524780396	-0.00371931983336137
12	-0.00484114501391168	0.000425583484656539	-0.00142794539157316	0.00278527164094575	-0.00143243344833866	0.00278804087991946	0.0310585552593403	-0.0101282136804899
