# GHZ S RI R 50
0.2	-0.0138323357560128	0.00563608598282757	0.00304271133691912	-0.000885680155165089	0.00305316571285693	-0.000885530949077503	0.00594497094618297	0.00113085820451064
0.3	-0.0130983970780868	0.00596510534945105	0.00289607007833361	-0.00130149538309617	0.00288978472566083	-0.00131312781998427	0.00618009056775216	-0.0012998862546363
0.4	-0.0124061581288061	0.00652799579610232	0.00268136022018551	-0.00169522617932618	0.00267925581440724	-0.00169713583047651	0.00571035793108069	-0.00327185499939591
0.5	-0.0120515813561278	0.00725534228626743	0.00241145951020568	-0.00205107222975289	0.00241426953672605	-0.00205479512236051	0.00455855876887773	-0.00480833471514318
0.6	-0.0111967670527763	0.00838009881872407	0.00209933992793201	-0.00237074122983096	0.00209859658411421	-0.00237358049470836	0.00351155627848027	-0.00581507529801134
0.7	-0.0103172510043866	0.00906181109206774	0.00174875092371576	-0.00264025158686958	0.00175494897377707	-0.00264434225960933	0.00212394531616763	-0.00679432820673314
0.8	-0.00942993381426848	0.0096880863353462	0.00135552510148166	-0.00285939290503903	0.00136378796741449	-0.00285780087821164	0.000440844313949341	-0.00728986540983612
0.9	-0.00857906741431555	0.0101582956737373	0.000951779764025662	-0.00301063505499609	0.000951759046590068	-0.0030200379182364	-0.00125298996119679	-0.00739353635313358
1	-0.00809820884543414	0.0103630420776726	0.000519841083890212	-0.00311887025559203	0.000519692498858641	-0.00312422022838854	-0.00320501911380174	-0.00714455148397751
1.1	-0.00772830442314721	0.01121256170128	7.24977329793814E-05	-0.00315838834186541	7.33832417154214E-05	-0.00316310868758918	-0.00490256449604947	-0.00575626344296266
1.2	-0.00691044589615548	0.011522333373797	-0.00036545131145409	-0.0031307058211553	-0.000364229983665387	-0.00314747541099268	-0.00552482188104288	-0.0043260124551543
1.3	-0.00643585716673504	0.0112796744046517	-0.000795501035446452	-0.0030563468294129	-0.000800431765443085	-0.00306398998897784	-0.0053968949420771	-0.00312010604820767
1.4	-0.00618292593338585	0.010855607303135	-0.00122054923879324	-0.00291157866197736	-0.00122296086505922	-0.00291869772583165	-0.00505675242190448	-0.00252978395481048
1.5	-0.00596399847403163	0.0110243719609416	-0.0016119542166827	-0.00271321035633633	-0.00160998620585592	-0.00271874339906086	-0.005075732188274	-0.00187147412346034
1.6	-0.00489355945328635	0.0116014600101415	-0.00197333428268313	-0.00245680474996707	-0.00197679807077821	-0.00245768257579574	-0.00506180227900607	-0.000806705479646145
1.7	-0.0038278640987616	0.0118166427864837	-0.00229709219376188	-0.00216335442386835	-0.00229913528107032	-0.00217192634955385	-0.0049145388131901	0.000337288009966528
1.8	-0.00286101711982821	0.0120881761418656	-0.00257327011104594	-0.00181515958134321	-0.00257843503914161	-0.00182061146664513	-0.00450490662197648	0.00151265958427343
1.9	-0.00196525685939026	0.0121124377468685	-0.00279839891116029	-0.00144679819726361	-0.00279489699591631	-0.00144061978492057	-0.00379774756281954	0.00254863508347509
2	-0.0014827805160298	0.0123181681419946	-0.00297257930259145	-0.00103618693156166	-0.00297531685723861	-0.00102935986061041	-0.00305631835994908	0.00364629842122681
2.1	-0.000396330567726008	0.0127467310806479	-0.00308774387724886	-0.000606352142365737	-0.00308983431122415	-0.000613035227033658	-0.00143301054975571	0.00450796493835856
2.2	0.000687697254060672	0.0126847489328764	-0.00314199357389906	-0.000176830309467977	-0.00314381389728798	-0.000167126602151904	0.00037957773297253	0.00452196405463808
2.3	0.00155417002539346	0.0123972553035968	-0.0031344284332956	0.000264166990419355	-0.00314116722342839	0.000261254912414581	0.00200396697721076	0.00397341084103647
2.4	0.00227334845868968	0.0119741767367194	-0.00307491262478784	0.000697498784578832	-0.0030737627307993	0.000712588646929371	0.00347283551534336	0.00302620434467555
2.5	0.00241442969310349	0.0115438378983016	-0.00294135466172567	0.00112781095850273	-0.00295433658440209	0.00112908489687719	0.00442872477785968	0.00176594005571603
2.6	0.0028510557588086	0.0118411600068855	-0.00275330900977983	0.00152318458849632	-0.00277420883908458	0.00152705723540752	0.00553662681492566	0.000591907382341334
2.7	0.00369280786036715	0.0118902279307308	-0.00252236835426531	0.00189236343734513	-0.00252265517344835	0.00189744276648861	0.00640113140703116	-0.00122806422401508
2.8	0.00467329626143339	0.0117699707004754	-0.00222860597964308	0.00221742221605552	-0.0022384478717901	0.00222858843518465	0.00673398569179177	-0.00322261794357789
2.9	0.00572076597936441	0.011358506218832	-0.00189383619384473	0.00251074845664645	-0.00189192632872746	0.00251965327313418	0.00667743502408185	-0.00521570051775617
3	0.0064711663745519	0.010939721883628	-0.00152433397878439	0.00275555183989066	-0.00153938654607318	0.00274249252707834	0.00613433942773856	-0.00696618655940709
3.1	0.00764044770833628	0.0106358713202726	-0.00112541809006783	0.00293979338861404	-0.00114236329910713	0.00294517076283529	0.00564171398215437	-0.0086524501725788
3.2	0.00862802605363425	0.00987114219803088	-0.000706788021517047	0.00306545041532751	-0.000702538154847784	0.00307626027876624	0.00442656464756041	-0.0104678723750622
3.3	0.00939992089233876	0.00893476500065066	-0.000278076503055494	0.0031381490638616	-0.000274771083233045	0.00313377558323416	0.00281720605936881	-0.0120889329136659
3.4	0.00991962128357002	0.00785923939883606	0.000167508806158549	0.00314801024738743	0.000158078048889646	0.00314907436909207	0.000817204351053743	-0.0135841143577865
3.5	0.00989625979103863	0.00699246930688316	0.00060226896244597	0.0030920701583139	0.000607278977411463	0.00309074638497498	-0.00185636423633756	-0.0146081310436272
3.6	0.0102855167096815	0.00657240212837173	0.001021694410574	0.00297231015588451	0.00102828669460976	0.00297581132733529	-0.00433799412214932	-0.0149026611417044
3.7	0.0107185355760128	0.00582911750756271	0.0014381597028133	0.00279740864873292	0.00143638756348542	0.00281377515831369	-0.00698716036931119	-0.0149567706477802
3.8	0.0110778690523849	0.00503313116783657	0.00180709262336777	0.00257207536540655	0.0018176837595469	0.00257844576141674	-0.00978709011423375	-0.0144668482267408
3.9	0.0113608533665209	0.00412848517323596	0.00215545570172778	0.0022945816963658	0.00215085700265028	0.00229447831477711	-0.0125639925355017	-0.0133602776492127
4	0.011259942281724	0.00345344720683639	0.00244633960280198	0.0019759165136126	0.002457768575347	0.00198207786116312	-0.0151286669384892	-0.0113947003639299
4.1	0.011759213830889	0.00307991171066829	0.00269929327019119	0.00161172074777452	0.00271584158875411	0.00162153825547484	-0.0166369849030891	-0.00894524707396973
4.2	0.0123124130222913	0.00217096005964597	0.00290316392354623	0.00121566335832198	0.00290439289223757	0.00121795339860836	-0.017819929318939	-0.00664213326322214
4.3	0.0126356856415951	0.00107724956497045	0.00304767478502858	0.000807657940966808	0.00304884342429332	0.000816250987678412	-0.0186990609154729	-0.0042827284362685
4.4	0.0126342593783396	-0.00025773625560213	0.00312785491998247	0.000372420944739637	0.00313579193956615	0.000367798474761737	-0.0193341685851803	-0.00181347463342542
4.5	0.0119324539509704	-0.00129158795695712	0.00315363671404744	-7.13543333710604E-05	0.00315043707642615	-6.9098036993343E-05	-0.0197750804520348	0.000965106025383329
4.6	0.0115720440031262	-0.00176735605082473	0.00310293504292753	-0.000519116788687229	0.00311596028365405	-0.000507087245211482	-0.0192842460624771	0.00388773600863101
4.7	0.0113410450867731	-0.00237781989283088	0.0030020738759446	-0.000933848798974847	0.00300199882587897	-0.000943299624526096	-0.0184739011327978	0.00634370475489579
4.8	0.0110656212342622	-0.0030178509750822	0.00285413945482314	-0.00133789992787981	0.00284651889851463	-0.00135813216137526	-0.0172925227992711	0.00875798948413125
4.9	0.010925830270949	-0.00371968755967752	0.00263989214767811	-0.00173698138790578	0.00263378894423264	-0.00172853513297954	-0.0156571408322321	0.0109181244698298
5	0.0105281111931237	-0.00429339872540598	0.00236493052336126	-0.00207255507211527	0.00236770870801763	-0.00208500549718046	-0.013556383757475	0.0130310674962983
5.1	0.0108347166878319	-0.00474104872014582	0.00204180979806052	-0.00239842379010299	0.00205506578569659	-0.00239591724529763	-0.010486976875823	0.0145737519018495
5.2	0.0110502826328472	-0.00577587250553294	0.00169849551000319	-0.00265685905894458	0.00169900421428543	-0.00266103010827458	-0.00743540833472114	0.0151911922472712
5.3	0.0109887757154675	-0.0069701119793605	0.00130782902446496	-0.0028699940353529	0.00130407800427465	-0.00287257841298073	-0.00441322176605128	0.0153210037160335
5.4	0.0105379877465638	-0.00827826557221406	0.000895191436453762	-0.0030311533360195	0.000894303380653543	-0.00303362028592522	-0.00148555820164509	0.0147211972288346
5.5	0.00935398562225735	-0.00896419777469698	0.000453220066737583	-0.00312594865919685	0.000465831454656658	-0.00312592211132372	0.000921438678315229	0.0138078695076773
5.6	0.00896436633916323	-0.00922042309098685	1.89607760233602E-05	-0.00315550851715779	1.56528748075462E-05	-0.00315204447628867	0.00346263252900774	0.0123606637685486
5.7	0.00841496779380115	-0.00987435082394221	-0.000415255221152031	-0.00313016561680251	-0.000418979159142601	-0.00313386698134944	0.0051568201501875	0.0103160318313917
5.8	0.00775286296526769	-0.0104863772500565	-0.000852085325890248	-0.0030402547846914	-0.000851349792046512	-0.0030479592973555	0.0062772583515889	0.00809274575909932
5.9	0.00694280590279596	-0.0111818614427813	-0.00127113637994307	-0.00288668554020406	-0.00126953107436401	-0.00289084817027741	0.00676945302557618	0.00578294134089833
6	0.00536324649729167	-0.0117003062845662	-0.00165985257496814	-0.00268005193067461	-0.00165384724142121	-0.00268340752744247	0.00638714075825725	0.00387232727450052
6.1	0.00440746273082107	-0.0113652109214165	-0.0020192785875245	-0.0024297336193019	-0.00201512308870177	-0.00243451175018436	0.00662939313534984	0.00241261562712162
6.2	0.00374336781190753	-0.0115717642275831	-0.00234136796350814	-0.00211280075383352	-0.00233778150615418	-0.00212149122259252	0.00666526688670534	0.000209420380342163
6.3	0.00306305011346661	-0.0119900011049736	-0.00260992485976627	-0.0017718166647483	-0.00261977081627627	-0.00177959427186115	0.00613298495599982	-0.00228060342542411
6.4	0.00207340741482843	-0.0126245785024619	-0.00283716567056585	-0.00138518171495877	-0.00283517269055683	-0.00139099375591047	0.00489646445731568	-0.00471849393016528
6.5	0.000742566501216869	-0.0126019514392121	-0.00300325391746324	-0.000982922982530119	-0.00300365887282749	-0.000981797050429829	0.00317325459406942	-0.00636469980440303
6.6	0.000375012127895631	-0.0124163822251019	-0.00310912973200999	-0.000554590310437817	-0.00311983606568088	-0.000557596401745122	0.00171366622907886	-0.00795088759712941
6.7	-0.000132919876363801	-0.0126273993836198	-0.00315354336576582	-0.00011778849081149	-0.00315249030107271	-0.000111531048602063	-0.000583587040287268	-0.00912240854112127
6.8	-0.000763868749782848	-0.0127982186112497	-0.0031382140371728	0.000332314379159302	-0.00313729917526553	0.00033708846809551	-0.00313528416212041	-0.0094692094271274
6.9	-0.00165493223798631	-0.0131321010399819	-0.00305570584330034	0.000763955223087738	-0.00305612384823671	0.000768956132735411	-0.0056991649639014	-0.00916107460784925
7	-0.00320575052789327	-0.0127308305522961	-0.00292508181917646	0.00118525192343615	-0.00292649546787727	0.00118848255209405	-0.00822992500728708	-0.00774439440563202
7.1	-0.00364487462927257	-0.0118548557062493	-0.00272422534971871	0.00158536074568631	-0.00272662958263689	0.00159641867382128	-0.00954395349537506	-0.00598537852358887
7.2	-0.00403894768053685	-0.0115907706566855	-0.00248166282832798	0.00194734868193479	-0.00248183177000093	0.00195326149366044	-0.0108063509837061	-0.00425898165300033
7.3	-0.00457863445944294	-0.0114588368700866	-0.00218919647801369	0.00227296416296389	-0.00218642270761323	0.00227443517125811	-0.0116579859077957	-0.00222964876721985
7.4	-0.00532694179905351	-0.0116919688082645	-0.00184439044545316	0.00255787214671222	-0.00183713422730718	0.00256439171595602	-0.0121503905731803	-0.000315018542243891
7.5	-0.00714780586489552	-0.011768429883253	-0.00146275211276869	0.00279222315270647	-0.00146380076950925	0.002790207646539	-0.0125428288745504	0.0020459598765995
7.6	-0.00831171109321869	-0.0108291941996633	-0.0010675088672358	0.00296675572702986	-0.00105679921922362	0.00297708883583529	-0.011509569071443	0.0045548503861816
7.7	-0.00934826113916474	-0.0102492834699985	-0.000636658464375538	0.00308926611285231	-0.000631085974314777	0.00308889837264204	-0.0103001668460439	0.00599901725990559
7.8	-0.0100846123071659	-0.00968938242517045	-0.000188603814488819	0.00314859512989773	-0.00020229466129185	0.00314155468180366	-0.00883730525891862	0.00743730148423026
7.9	-0.0107909787963736	-0.00927623905459065	0.000237071568251444	0.00313227487901513	0.000248172512298279	0.00313192434684697	-0.00700119292285618	0.00876992256214909
8	-0.0115575443960997	-0.00811482957796378	0.000671734679404013	0.00307299682051877	0.000680022368208603	0.00307088954588819	-0.00491567775070164	0.0101143761997157
8.1	-0.0111572671766843	-0.00722321820560121	0.00110298174830179	0.00294814172520189	0.00110068774669964	0.00294489469160337	-0.0018328739409204	0.0104616513401678
8.2	-0.0110345300471952	-0.00687822652506241	0.00149484379335997	0.00276373595137818	0.00149406612270647	0.00277533003960611	0.00078373738307336	0.010114831908093
8.3	-0.0110886039283592	-0.00664097650350426	0.00186663694125052	0.00252852735811992	0.00187170292796707	0.00252592200114346	0.00329691780937637	0.00931849001890879
8.4	-0.0114560193341419	-0.00657138185982038	0.00221099138978915	0.00224560291843621	0.00219983451248886	0.00224604381592776	0.00544236215516845	0.00787561704361985
8.5	-0.0125701738943877	-0.00586565672967923	0.00250542849555043	0.00191025581776758	0.00250544210386034	0.00191160617600767	0.00697342450841067	0.00650306215770871
8.6	-0.0126190677653897	-0.00456529480381224	0.00273640713691216	0.00154841849169575	0.00273218867571331	0.00154612602024763	0.00895436589780855	0.00448571221338428
8.7	-0.0124727550008756	-0.00382470540239738	0.00292409731465726	0.00114790269568277	0.00292293367937919	0.0011474963260544	0.0099446794799624	0.00168521292070812
8.8	-0.0122719397884923	-0.0032818245928871	0.00305070198432625	0.000728955543260579	0.00306166416505848	0.000726810582302529	0.0100750254176518	-0.00121626990250486
8.9	-0.0121215802365672	-0.00319907460138814	0.0031226442944265	0.000298837353276852	0.0031319634563584	0.000291672188160614	0.00957504096214739	-0.00398615595010961
9	-0.0126609452494603	-0.00297559624580074	0.00313416774622334	-0.000150455811870288	0.00314095891094807	-0.000144884407843486	0.00846065061875525	-0.00612867705001534
9.1	-0.0125456203542565	-0.00241272544589408	0.00308293090113033	-0.000582542657463266	0.0030831475518462	-0.000582735630962945	0.00767981979497303	-0.00819273477017241
9.2	-0.0125494716856383	-0.0022444570043378	0.00296554851803296	-0.00100163880412147	0.00296936205083227	-0.00100142949983927	0.00625000306025584	-0.010370522608525
9.3	-0.0126629562643587	-0.00204438690956241	0.00279200879113162	-0.00140863569215702	0.00281001624411572	-0.00140913256357251	0.00440336453359052	-0.0122414936791264
9.4	-0.0130064010485979	-0.00200395129385098	0.00257315480962382	-0.00177976048833962	0.00257643070752657	-0.00179077480147013	0.00198013715213633	-0.0139629520401191
9.5	-0.0137990858536116	-0.00110006190748099	0.00229884799663339	-0.00213320681740446	0.00231360038263432	-0.00213392072010109	-0.00102308177137043	-0.0146329723533037
9.6	-0.0136266831366933	-0.00010864383029813	0.00198020162053105	-0.00243064168619962	0.00198054295286116	-0.00242365018323698	-0.00392675124828845	-0.0151982178871495
9.7	-0.01356671907978	0.000500258262824632	0.00161924958288124	-0.0026820912132946	0.00162751451735026	-0.00268369531798118	-0.00762000493182328	-0.0150943286777927
9.8	-0.0135613786065807	0.00107818733875031	0.00123594443478076	-0.00287571452308552	0.00123410396771513	-0.00288432829207045	-0.0114192457268826	-0.0139159394323031
9.9	-0.0136912382609794	0.00156363521568598	0.000826802953439904	-0.00301860294249019	0.000814963875644367	-0.00302118382529543	-0.0151984014836628	-0.0116699094147996
10	-0.0143505128067512	0.00260399991791637	0.000396322723052903	-0.00309390672375888	0.000395500906454156	-0.003101191582972	-0.0183838361847042	-0.00800664947885275
10.1	-0.0138031627458745	0.0040564659086183	-3.44899478595186E-05	-0.00313009804295295	-3.91174488831986E-05	-0.00313285043983052	-0.0198551720790902	-0.00408826832730851
10.2	-0.0129785117818464	0.00478157093492184	-0.000472002849600057	-0.00308965322274421	-0.000484554648515783	-0.00309338588044151	-0.0207777612165888	-0.000344270996562393
10.3	-0.0122043066827069	0.00506987137442793	-0.000901063894141034	-0.00298672163517114	-0.000900857106407425	-0.00300005062088365	-0.0210514340555292	0.00353414790481381
10.4	-0.0118149843559364	0.00490125029401512	-0.00130622845683735	-0.00283938802165523	-0.00130938292041717	-0.00283726785434848	-0.0206854851744924	0.00730584712073719
10.5	-0.0121942038074102	0.00537964016341874	-0.00168676578789839	-0.00262371428564579	-0.0016929076588901	-0.00263094120167907	-0.0196458330569055	0.0116318505576986
10.6	-0.0116820728100548	0.00625572815489299	-0.00204512422066045	-0.00236851545607945	-0.0020466180267523	-0.0023736066113826	-0.0170752977698385	0.0153952588045828
10.7	-0.0110687090363995	0.00686909928000515	-0.0023501730237698	-0.00205736125512555	-0.0023533670658357	-0.00207332503654214	-0.0140239509819835	0.0185607361186103
10.8	-0.0102883598914188	0.0073165954368996	-0.00261528468455147	-0.00171203368547169	-0.00261235826525279	-0.00171418964253404	-0.0104727890799853	0.0211273081280267
10.9	-0.00971435624119289	0.00744426451327258	-0.00283187266747137	-0.00133740026469137	-0.00283115173207895	-0.00134250528212024	-0.00670615259768836	0.023046229697011
11	-0.00953675721466687	0.00813219768109517	-0.00299628771711834	-0.000922916021578967	-0.00298928829946257	-0.000927189659435696	-0.00245526406171832	0.0249665727174575
11.1	-0.00822965544922468	0.00887645126797876	-0.00309011425072122	-0.000507030348207675	-0.00308240419670686	-0.000498762202874957	0.00293565897363956	0.0255064270078435
11.2	-0.00690285050790464	0.00884134898830799	-0.00312995852770558	-6.81800353042841E-05	-0.00313653325237466	-6.49873877195159E-05	0.00806062222472743	0.0248013845629274
11.3	-0.00564987356290889	0.00830977941042456	-0.00310797163038897	0.000370163048623449	-0.00311112253297845	0.00036800355772519	0.0131337074123597	0.0232335741715562
11.4	-0.00491063391280015	0.0073496714879976	-0.00302264737197869	0.000799584714731761	-0.003027261180161	0.000799733176630639	0.0177241035039565	0.0206111866391777
11.5	-0.00494228184306095	0.00692684239386989	-0.00288913241643458	0.0012066616548628	-0.00288165067739322	0.00121140253689175	0.0216720297724044	0.017514080068127
11.6	-0.00417837253828339	0.00657298085324354	-0.00268832361281997	0.00159688339923512	-0.00269642106107926	0.00160653254448147	0.0256408711251747	0.0130742854627407
11.7	-0.00368350957213539	0.00563153573811323	-0.00243741411749895	0.00196230998234118	-0.00243916438357643	0.00196598368339546	0.0282546979842806	0.00768765368729305
11.8	-0.00353388614391971	0.00462422558104103	-0.00214106577966916	0.00228562196475563	-0.00215025761895564	0.00229536513021302	0.0297365835643628	0.00210099737253433
11.9	-0.00377258993575102	0.00350113069743009	-0.00180304416450178	0.00255685144521842	-0.00180309022308682	0.00256338519972315	0.030093379693242	-0.00329098782214017
12	-0.00490280186555217	0.00345018844101951	-0.00142771630165076	0.00277939911384326	-0.00143219890542871	0.00278216008748841	0.0295895409278243	-0.00802569409360147
