# GHZ S RI R 50
0.2	-0.0141171338465622	0.00524500247362063	0.00304574106292423	-0.000884789865707254	0.00305620413453972	-0.000884634920964696	0.00567371255786688	0.00074182410974931
0.3	-0.013294571907268	0.00578442895703515	0.00289999958159153	-0.00130093672258336	0.00289371535510839	-0.00131258564917231	0.0060044597195299	-0.00148025236722859
0.4	-0.0125391705916768	0.00659370509182943	0.00268625710119861	-0.00169556901313845	0.00268415122898198	-0.0016974828098651	0.00560723161245054	-0.00321040225615027
0.5	-0.0116935643591656	0.00724975403157804	0.00241638929126146	-0.00205329973991059	0.0024192056926816	-0.00205702741674418	0.00495716482285448	-0.00483259520521861
0.6	-0.0111666561866792	0.00793195443582102	0.00210357904076684	-0.00237347200024441	0.00210283577965585	-0.00237631593797667	0.00358170830243138	-0.00629995497607601
0.7	-0.0105698973782767	0.00877886422470493	0.0017530309925925	-0.00264387368840189	0.00175924160413971	-0.00264796824548634	0.0019054457066213	-0.00713011247156277
0.8	-0.0098080816420545	0.00957596493000077	0.00135930844909103	-0.00286431144484204	0.00136758649203707	-0.00286271294147996	8.44015778366141E-05	-0.00746794380175666
0.9	-0.00911800871266518	0.0103617614555446	0.000954268188703074	-0.00301670946834262	0.000954249041298734	-0.00302613181674074	-0.00179046902787809	-0.00725989165353649
1	-0.00812356267170125	0.0111360393087288	0.000520821047910121	-0.00312456367828814	0.000520672243113971	-0.00312992342735723	-0.00324172627421848	-0.00641896869904786
1.1	-0.00740435394241258	0.0113958080862955	7.34894103093506E-05	-0.00316466807966043	7.43779511240242E-05	-0.00316939760223662	-0.00457333572735703	-0.0056144412871961
1.2	-0.00686046073592066	0.0115964818878891	-0.000365922491218407	-0.00313781626494219	-0.000364696509436666	-0.00315462358229871	-0.00546326464928364	-0.00430435598717837
1.3	-0.00652209361147072	0.0114150786957921	-0.00079770841327037	-0.00306342421794468	-0.000802651560218836	-0.00307108474701598	-0.00546746490785106	-0.00304155145982861
1.4	-0.00631204129340191	0.0111590305908396	-0.00122408358421973	-0.00291779659126596	-0.00122650256407235	-0.00292493101368941	-0.00516880997922341	-0.00228640106748187
1.5	-0.00568532106258975	0.0111399199678578	-0.00161562142986873	-0.00271949945945438	-0.00161364877495464	-0.00272504522839504	-0.00477276963677287	-0.00184118863835392
1.6	-0.00504296572743399	0.0114533163373755	-0.00197953587061449	-0.00246325738757675	-0.00198300967857979	-0.0024641368235937	-0.00520538207465858	-0.00105408309056999
1.7	-0.00404792946189936	0.0118988805350707	-0.0023050395268582	-0.00216806202607337	-0.00230709394178227	-0.00217665712725431	-0.00515685938983614	0.000316880660234077
1.8	-0.0030301712723658	0.0123016019927717	-0.00258201080690493	-0.00181805708026387	-0.00258719481260445	-0.00182351984267863	-0.00471407890470729	0.00163350559913971
1.9	-0.00199899882976037	0.012556425922376	-0.00280750718689802	-0.00144845611526572	-0.0028039901156726	-0.00144226335442021	-0.00387270497559881	0.0029195186431027
2	-0.000879214502879046	0.0125970019629787	-0.00298358735636769	-0.00103644786957566	-0.00298632670142477	-0.0010295951327833	-0.00247197621290924	0.00386079191623046
2.1	-0.000103314933695683	0.0124282618378033	-0.00309867564273543	-0.000602679895174134	-0.00310078485957045	-0.000609380465805412	-0.00114992603759136	0.00410618579044487
2.2	0.000664046569260864	0.0124348730241392	-0.00315154774486902	-0.000171015964395886	-0.00315335384133411	-0.000161280182174614	0.000337298841659882	0.00417458789161863
2.3	0.00136334472921206	0.0122816420579042	-0.00314284236215466	0.000271679294525656	-0.0031496067416024	0.00026877339370928	0.00177914838302501	0.00375532573688365
2.4	0.00196498566818784	0.0121737878409039	-0.00308245038113674	0.000706992354381681	-0.00308126071161335	0.000722124679858765	0.0031133288895137	0.00313103899757638
2.5	0.00265853341677792	0.0120245887685565	-0.00294607613133321	0.001140491378456	-0.00295909082585684	0.00114181076212251	0.00462370299789166	0.00217993871087986
2.6	0.0031587513524241	0.0117709181198135	-0.00275422759911343	0.00153543883276556	-0.00277515951885521	0.00153938803832233	0.00582502679310067	0.000460310061803892
2.7	0.00374438383553803	0.0117493626389372	-0.0025213360762175	0.00190438095258139	-0.00252160699394901	0.00190947149937549	0.0064451090575765	-0.00144897977436564
2.8	0.00455016735577319	0.011733836505365	-0.00222529731409978	0.00222941978969555	-0.00223511985861054	0.00224064166489681	0.00659709977655698	-0.00335841416194395
2.9	0.00561024966227843	0.0116014271978441	-0.00188738809217009	0.00252239707830807	-0.00188544049927411	0.0025313098461001	0.00652658799783298	-0.00506882577405401
3	0.00683114806926466	0.0111128318915762	-0.00151475188238364	0.00276403726140147	-0.00152986957559035	0.00275102610412902	0.00646153070108172	-0.0068734514095018
3.1	0.0077374805789605	0.010475423867233	-0.00111602487826843	0.00294635575878049	-0.00113296600704559	0.00295179771791287	0.00571253656028248	-0.00894821141533942
3.2	0.00860205128824864	0.00981197811058779	-0.000695942351435802	0.00307078572872411	-0.000691648319128668	0.003081589187109	0.00434882843147394	-0.0106565794601904
3.3	0.00932219505206508	0.00896832591951636	-0.000265778732253237	0.00314113335361055	-0.000262488703357367	0.00313674412447337	0.00265965033452195	-0.0121780879188759
3.4	0.00986405422002435	0.00811732959865349	0.000180192983418504	0.00314751899478452	0.000170765961759052	0.00314862114825601	0.000663554504629406	-0.0134202792546177
3.5	0.0103434648941106	0.00719184169047251	0.000612725217975265	0.00308963159073017	0.000617730096723402	0.00308829091891493	-0.0014794383833853	-0.014489244197779
3.6	0.0104708290923398	0.00631781721167841	0.00103290010942537	0.00296923747440905	0.00103950685629215	0.00297271514476483	-0.00423869109092195	-0.0152518626663715
3.7	0.0106494919575546	0.00570362294644201	0.00144914452195821	0.00279140780087071	0.00144743766850391	0.00280777972446537	-0.00716844697893477	-0.015161980106789
3.8	0.0109443008129695	0.00509964337632563	0.00181644160100782	0.00256364436289964	0.0018270529273462	0.00256996956597682	-0.01004724294873	-0.0144449355972037
3.9	0.0113367332495072	0.00448214276663389	0.00216242889727341	0.00228500025301916	0.00215783304295553	0.00228491395076335	-0.0127071477795978	-0.0130051087867524
4	0.0118576319056566	0.0036642316336619	0.00245327998207993	0.00196608824962128	0.00246472965796477	0.001972204438706	-0.014617734264012	-0.0111421183108687
4.1	0.0120512748539249	0.00272058464306971	0.00270430530007799	0.00159841043200748	0.00272088406349688	0.00160814639009914	-0.0163746774495451	-0.00924977846563702
4.2	0.0122748951543381	0.0018876074727187	0.00290453729382259	0.0012014307137097	0.00290577454858125	0.00120371234266625	-0.017850300704501	-0.00688551546600894
4.3	0.0124391400576887	0.000970965763338055	0.00304618591594223	0.000793669913291842	0.00304738850587765	0.000802244401130338	-0.0188721820692027	-0.00435921872249986
4.4	0.0124309231508953	-2.81483780292187E-06	0.00312450862880476	0.000358778549803128	0.00313241391270306	0.000354130185787738	-0.019502328294909	-0.00151998676134886
4.5	0.0123691287366511	-0.000987923906310006	0.00314693704126883	-8.66202897305542E-05	0.0031437548722711	-8.43529028092955E-05	-0.0192403328493312	0.00134198363524014
4.6	0.011863937656306	-0.00198484814122198	0.00309125152885224	-0.000531477606726819	0.00310429149262982	-0.000519542782276312	-0.0188157534547178	0.00368103638265915
4.7	0.0114336661753168	-0.00258706342117784	0.00298847120277272	-0.000943053144203121	0.00298835783229271	-0.00095247283734339	-0.0181910125656158	0.00608022332937147
4.8	0.011051278908965	-0.00317429475924795	0.00283901769403625	-0.00134449930681383	0.00283134391803692	-0.00136463167297944	-0.0171156520649011	0.00850213110319806
4.9	0.0108766469983339	-0.00366218834213323	0.00262276770327415	-0.00174099416958193	0.0026167219867179	-0.00173255560170731	-0.0155197773449485	0.0108519276337994
5	0.0109182809732695	-0.00436610182893282	0.0023458278039655	-0.00207094515310674	0.00234854730296364	-0.00208334454900686	-0.0129523191280207	0.0127910368159962
5.1	0.0107937082363744	-0.00515746409221311	0.00202554737326842	-0.00239229780788443	0.00203874605917379	-0.00238983876522868	-0.0103469007088146	0.0139131086999817
5.2	0.0107817326040325	-0.00595079886049073	0.00168375823370531	-0.00264835189020799	0.00168425413812479	-0.00265250422290645	-0.00757733242323291	0.0147460943005787
5.3	0.0106943216642437	-0.00693205185677021	0.00129460085424282	-0.00285853679984098	0.00129086278678741	-0.00286109947391866	-0.00462082554907488	0.015088573543977
5.4	0.0103761161107717	-0.00792299416189388	0.000884450799149897	-0.00301600169145492	0.000883562990620808	-0.00301845323620739	-0.00158362057321413	0.0148165735392843
5.5	0.00986110205508173	-0.00891432189342164	0.000448384488894634	-0.00310908428594121	0.000460926489283732	-0.00310906732976147	0.00149622082808797	0.0136022034110396
5.6	0.00886284644073632	-0.00967103670613216	1.64063781098102E-05	-0.00313997263029187	1.31174802196683E-05	-0.00313652308068758	0.00342641152351129	0.0116156780851185
5.7	0.00794073987179526	-0.0100178488155624	-0.00041541450615821	-0.00311381305786906	-0.000419122056597649	-0.00311749272224569	0.00469577993144689	0.00984868337947756
5.8	0.00715758250245128	-0.0102870539478628	-0.000848639349042037	-0.0030236859343629	-0.000847910562442601	-0.00303134951618852	0.0056319350624987	0.0079802441739273
5.9	0.00638502035976471	-0.0103839145961019	-0.00126349673175049	-0.00287170613140424	-0.00126189870984374	-0.00287584612000613	0.00610275422207814	0.00633010414758555
6	0.00587193347316086	-0.0105874890815574	-0.00165132968250119	-0.00266850277752376	-0.00164535036215584	-0.00267184092708861	0.00681575405605982	0.00484352466111402
6.1	0.00508690444450314	-0.0110060029422323	-0.00200911018677135	-0.00241753522596427	-0.0020049755404168	-0.00242228930756168	0.00731178781677526	0.00263737389974447
6.2	0.00434018342465661	-0.0113696925467963	-0.00232774980483707	-0.00210268189970039	-0.00232417811495846	-0.00211132399562367	0.00729887607414051	0.000253626492134747
6.3	0.00360419866251915	-0.0118886585896164	-0.00259423696296966	-0.00176511809760769	-0.00260402260342428	-0.00177286463124701	0.00672287137075886	-0.00235832368861129
6.4	0.0026730084790912	-0.0123957229438368	-0.00282142647714176	-0.00138210518607017	-0.00281943565469005	-0.00138788609241819	0.00554672155785981	-0.00467425599457838
6.5	0.00178597593124825	-0.012957137621683	-0.00298704774014585	-0.000980318513198685	-0.00298745153205302	-0.000979198686468018	0.00431054057486426	-0.00692328432529091
6.6	0.000608794832221707	-0.0131064562072229	-0.00309033946133155	-0.000556461021077954	-0.00310097930561224	-0.000559467246628838	0.00202770263718858	-0.00891648346488376
6.7	-0.000204813403744469	-0.013052774842144	-0.00313592050380665	-0.000124324114137229	-0.00313488748883285	-0.000118098708860233	-0.000622917892603837	-0.00984491478716728
6.8	-0.00101665499444477	-0.0129911299311428	-0.00312267974533436	0.000322536123353052	-0.00312178189601952	0.000327287629449171	-0.00338892274839509	-0.0099557094922586
6.9	-0.00183943937386964	-0.0128177031023177	-0.00304174461299037	0.000752287113408305	-0.00304217304093304	0.000757260972403223	-0.00590436078754978	-0.00911309888885963
7	-0.00251372624510977	-0.0127424013712184	-0.0029113905690416	0.00116894724497723	-0.00291280599650667	0.00117215415171796	-0.00750693076738802	-0.00800361430103004
7.1	-0.00366828844273162	-0.012513420253526	-0.00271642234031506	0.0015653589820808	-0.00271886063536195	0.00157634776217435	-0.00951816169453765	-0.00697710127722892
7.2	-0.004530080153246	-0.0119425977307252	-0.00247832354800809	0.00192689305243374	-0.00247851797281494	0.00193277651890184	-0.01130991234204	-0.00500356453114106
7.3	-0.00531505388437297	-0.0114404671039594	-0.00218950231455331	0.00225216787104322	-0.00218674835045529	0.00225364487006953	-0.0124964405936767	-0.00262295659482402
7.4	-0.00617051711416529	-0.0109392808301288	-0.00184863151720147	0.00253607721599605	-0.0018414437355501	0.00254260261201547	-0.0132118507361968	9.83667021590199E-05
7.5	-0.00688475744387799	-0.0105334684446088	-0.0014745841714845	0.00277123330565611	-0.00147561553984091	0.00276921945003937	-0.012524524521492	0.00305975424018623
7.6	-0.00792771944904242	-0.0102392899625149	-0.00108276794761278	0.00295102382450202	-0.00107215554222943	0.00296139221336194	-0.0113320264114477	0.00497526662334021
7.7	-0.00888374130736316	-0.00962444451318691	-0.000654047758161392	0.00307662895239339	-0.000648488650537384	0.00307629684166015	-0.010036512543364	0.00648916280585449
7.8	-0.00948241225797942	-0.00917127740508634	-0.000208564206117211	0.00313934151374426	-0.000222174432121265	0.00313223013547499	-0.00840576017419409	0.00786177351700504
7.9	-0.00991261497031016	-0.00880355203689121	0.000214457745804817	0.00312770122535129	0.000225539019367092	0.00312742986079507	-0.00626205277608876	0.0091520271960287
8	-0.010272209641617	-0.0085812149009269	0.000650437654408863	0.00307560425936972	0.000658734383167073	0.00307355460960178	-0.00362094453037911	0.00961355595517586
8.1	-0.0108930180061515	-0.00805426894570867	0.00108387898175274	0.00295274507496114	0.00108160683638582	0.0029494862841367	-0.00155810838802468	0.0094517803141946
8.2	-0.0111536391225849	-0.00738441350892225	0.00147602341523896	0.00277160494857012	0.0014751713506859	0.00278318651408636	0.000628250192401531	0.00938617645330949
8.3	-0.0113819060856184	-0.00686731519118499	0.00184942143088883	0.00254066388638747	0.00185450413194327	0.00253809285498622	0.00292650245631869	0.0088795568944671
8.4	-0.0116803570107527	-0.00628626528894734	0.00219777811192799	0.00226173888387881	0.00218661044651767	0.00226210667983044	0.0051297908576167	0.0079980179810824
8.5	-0.0119211643802464	-0.0058576941571435	0.00249645260160804	0.00192567477732609	0.00249645863156504	0.00192702615964203	0.00760499125997408	0.00638122219157943
8.6	-0.012622939702829	-0.00517755703586617	0.00272789346772488	0.00156591859709937	0.00272368754695986	0.0015635991837499	0.0089742755371564	0.00368030163639821
8.7	-0.0129072746821566	-0.00412975572742347	0.00291952282228238	0.00116788474616961	0.00291836068194071	0.00116747047361793	0.00950320289945218	0.0011284509171367
8.8	-0.0128676638503294	-0.00319291798434177	0.0030508065310969	0.000749393478202052	0.00306179924494234	0.000747314588211582	0.00941272754078922	-0.00138995199213947
8.9	-0.0125982617673547	-0.00246311006288811	0.00312649627498267	0.000317612157244316	0.00313587399308663	0.000310488580790099	0.00895951693031594	-0.00346349613159502
9	-0.0121324008849806	-0.00220789434423326	0.00313900290469852	-0.000131146880808266	0.0031457678614078	-0.000125526300865682	0.00886614958974557	-0.00544755160987233
9.1	-0.0120891455966861	-0.00215754732592507	0.00309399046289178	-0.00056286589533996	0.00309420892722669	-0.000563057835642677	0.00811147980890932	-0.00801425947080229
9.2	-0.0120357012216088	-0.00209108294675711	0.00298097345280931	-0.000985575801613327	0.00298479718003601	-0.000985341309281957	0.00679118170823001	-0.0103016413529514
9.3	-0.0121818643623966	-0.00210387279076629	0.00280980242961331	-0.00139638430356154	0.00282787259412953	-0.00139677368504553	0.00496207478215292	-0.0124009952438676
9.4	-0.012523263464213	-0.00198269756658463	0.00259218976599916	-0.00176990399655932	0.00259554284214767	-0.0017809338583602	0.00257678016408542	-0.0140450773663744
9.5	-0.012971166498634	-0.0017149607034193	0.00232289360893239	-0.00212625248196868	0.00233771153950197	-0.00212686840176394	3.11247270369018E-05	-0.0153971444842558
9.6	-0.0137332681556819	-0.00102410920207219	0.00200502987224625	-0.0024315028144254	0.00200533127170269	-0.00242447281497328	-0.00379631648637795	-0.0164307228959914
9.7	-0.0140583791211826	-2.3097324652311E-05	0.00164244212107837	-0.00268781067498306	0.00165076024634046	-0.00268937884438029	-0.00795700217317075	-0.0160265527511266
9.8	-0.0142072094033472	0.000925677302145832	0.00125777629775101	-0.00288533722276952	0.00125597030528366	-0.00289400860420555	-0.0120065012690913	-0.0145076275120968
9.9	-0.0142423683958671	0.00197208357444801	0.000847911111057995	-0.00303275656331907	0.000836013007617618	-0.00303541616735851	-0.0157767523173079	-0.0116851361876706
10	-0.0140629422152886	0.00280946482201642	0.000412905736833047	-0.00311529696999851	0.000412109842971263	-0.00312263991962419	-0.0181359775756566	-0.00815999614958591
10.1	-0.0140447826325785	0.00380093375747309	-2.44134036275278E-05	-0.00315255169977187	-2.90648545365125E-05	-0.00315533900161536	-0.0201319343895875	-0.0047187422133979
10.2	-0.0135127317638626	0.00484086439655514	-0.000465872185898432	-0.00311316493690876	-0.000478502127155434	-0.00311696284315378	-0.0214003203779977	-0.000663764869670721
10.3	-0.0127872279216989	0.00552744635726461	-0.000899551897843681	-0.00301170604172415	-0.000899306536791873	-0.00302513478473758	-0.0217866829965663	0.00365605994669819
10.4	-0.0120609365675448	0.00594713631309437	-0.00131124969075814	-0.00286542808995763	-0.00131443443702918	-0.00286329683144126	-0.0211208951667564	0.00812412668931789
10.5	-0.0114164194840317	0.00607678610704779	-0.00169887459942489	-0.00264492690601607	-0.00170506152030789	-0.00265221286796448	-0.0189512827039116	0.0122193623925204
10.6	-0.0111470651097461	0.00637037255147239	-0.00205854162215665	-0.00238654697187169	-0.00206004347901497	-0.00239167537541133	-0.0165203385111694	0.0153677476293766
10.7	-0.0107081129454869	0.00679165057670932	-0.00236691463268416	-0.00207320363055134	-0.00237012766368171	-0.00208928603873472	-0.0135361575391852	0.018320792536118
10.8	-0.0100912120368484	0.00724723808502394	-0.00263549593971849	-0.00172404109338446	-0.00263254823797796	-0.00172621420808538	-0.0101864675966598	0.0208553867664617
10.9	-0.00950104307493251	0.00764995453357183	-0.00285396884633683	-0.00134346292297595	-0.00285324916066919	-0.00134860563954798	-0.00635185629688255	0.0230691767453828
11	-0.00869490549905938	0.00780624741474038	-0.00301563400664529	-0.000925395250273713	-0.00300859621553732	-0.000929702510044655	-0.00139327075653725	0.0244392241147243
11.1	-0.00819507448260343	0.00808821618315124	-0.00311151016607664	-0.000507938003057507	-0.00310374098311187	-0.000499620046448804	0.0032392600741642	0.0244006732613481
11.2	-0.00728793959711911	0.00834764768016059	-0.00315193969825437	-6.39831061183296E-05	-0.00315855561507363	-6.07583238820815E-05	0.00791003537194246	0.0238891393928985
11.3	-0.00617593365092912	0.00822171099807398	-0.00312814061831372	0.000379231354211889	-0.00313131732916634	0.000377063969175125	0.0126583903755103	0.0226632926947585
11.4	-0.00531226006308251	0.00780017326710232	-0.00303935594228134	0.000811336842551569	-0.00304399768508296	0.000811496674138738	0.0172775652184894	0.0206260037962838
11.5	-0.00466813041160199	0.00705454524091367	-0.00290639068048623	0.00121952959942695	-0.00289885112869483	0.00122428962397871	0.0220182481988087	0.0172605053672026
11.6	-0.00449415278393302	0.00643596789324737	-0.00270313694476741	0.0016160077268321	-0.00271126527349686	0.00162574930207435	0.0254211394267835	0.0124673534519459
11.7	-0.00415899263309514	0.00590290382721292	-0.00244695656292772	0.00198429560992491	-0.00244870561825809	0.00198800045574431	0.027799997708885	0.00745918938206065
11.8	-0.00386734697991148	0.00527797420295336	-0.00214594341750593	0.00230850505841059	-0.00215515646435777	0.00231834602048075	0.0293623356306795	0.00230705279608709
11.9	-0.00368157941291896	0.0046223525931911	-0.00180501120430455	0.00258028736761281	-0.00180503271297631	0.00258686366251248	0.0301138938174002	-0.00251233219205441
12	-0.00376373899601417	0.00371188856279949	-0.00142408266538116	0.00280663344635697	-0.00142858378900297	0.00280943684742277	0.0308905853276551	-0.00807158083432534
