# GHZ S RI R 50
0.2	-0.0143871576301324	0.00417074464833007	0.00305176073039307	-0.000883173557220145	0.00306224122675858	-0.000883007691816675	0.00543610665786966	-0.00032409493402898
0.3	-0.0134467910695492	0.00511168144319948	0.0029077019182562	-0.00129996239485441	0.00290141939788945	-0.00131164360672164	0.00589715295341362	-0.00214793394349304
0.4	-0.012682046646736	0.00638354601306736	0.00269583508606663	-0.00169626862347059	0.00269372632053205	-0.0016981905217396	0.00552475973206171	-0.00342467133051124
0.5	-0.0109108441527966	0.00701642631484243	0.00242623520942951	-0.00205780182118524	0.00242906432598626	-0.00206153912978488	0.00581297982980336	-0.00509615499639373
0.6	-0.0110034432002676	0.00670518759083405	0.00211176921426795	-0.00237911387953654	0.00211102583121325	-0.00238196703416813	0.00381133020579285	-0.00757889588666512
0.7	-0.0111164033525718	0.00784786012979302	0.00176121885781306	-0.00265108711754736	0.00176745376090817	-0.00265518971888952	0.00141935344892868	-0.00813290905032337
0.8	-0.0107074233240604	0.00901229116115234	0.00136657011996102	-0.00287400044358035	0.0013748779331996	-0.00287238967436325	-0.00076918031991086	-0.00812294656171549
0.9	-0.0104562946713545	0.0104296359819891	0.000958998713599507	-0.00302875260082479	0.000958982102943623	-0.00303821339708007	-0.00310944454895179	-0.0072941709968438
1	-0.00855204544834144	0.0125375458608988	0.00052221608936129	-0.00313573202714879	0.000522065977693706	-0.00314111078253656	-0.00367565072487611	-0.00509406128882873
1.1	-0.0068844288930451	0.0114903012978996	7.52350413008763E-05	-0.00317658789377344	7.61291324713251E-05	-0.00318133486920178	-0.0040441219694464	-0.00558784966034281
1.2	-0.00698684928230388	0.0111049859311636	-0.000366858046278805	-0.00315150297909186	-0.000365623256004059	-0.00316838294609482	-0.00556985823982839	-0.0048780270095115
1.3	-0.00717136614618679	0.0106482893248778	-0.000802072125588363	-0.00307716731489023	-0.000807039595913161	-0.00308486150303591	-0.00609645696968983	-0.00389420155500909
1.4	-0.00742255100863671	0.0105837782676063	-0.00123118453935524	-0.00292974367255074	-0.00123361838495713	-0.00293690765669484	-0.00626224290296233	-0.00294521100090277
1.5	-0.00606330818912901	0.0105405168085643	-0.00162246930336767	-0.00273132048200952	-0.00162048786607073	-0.00273689010672247	-0.00513438462761127	-0.00254504098026542
1.6	-0.00620386410770595	0.0105395373054212	-0.00199127191754343	-0.00247608089949616	-0.0019947651055695	-0.0024769639371	-0.00636266860520949	-0.00209175879630749
1.7	-0.00528211077608461	0.0117958576959067	-0.00232052357574813	-0.00217749417849456	-0.00232259966179791	-0.00218613504034932	-0.00642219948293969	8.86129933182472E-05
1.8	-0.00400398713036461	0.0126869715222774	-0.00259910097886777	-0.00182381029638828	-0.00260432224478409	-0.00182929453161005	-0.00573953584640802	0.00190870047234234
1.9	-0.00259950956656357	0.0135750311032069	-0.00282506140000391	-0.00145177246150553	-0.00282151526811337	-0.00144555181836913	-0.00452438408540011	0.003849464909234
2	9.98538851760146E-05	0.0135338334615566	-0.00300503401102015	-0.00103781852804427	-0.00300777885700392	-0.00103091587991665	-0.0015200556564724	0.00471247360883435
2.1	0.000508008750228222	0.0119091379328118	-0.00312081645866753	-0.000595818801142983	-0.00312296259012649	-0.000602555398907685	-0.000563623470419905	0.00348328043619705
2.2	0.000574808018702706	0.011941925198633	-0.00317076288494834	-0.000159513661517164	-0.00317254096398194	-0.00014971344819722	0.000214128183864035	0.00356557361899159
2.3	0.000884838157814008	0.0120345009452694	-0.00315961785085635	0.000286498981201557	-0.00316643307526616	0.000283605071012582	0.00125280261241889	0.00338589828261691
2.4	0.00114424831254749	0.0125892358436308	-0.00309770241689797	0.000725459953200075	-0.00309643578717626	0.000740677677756152	0.00222769051671742	0.00342048125172084
2.5	0.00302322169441867	0.0133598560425437	-0.0029564214637067	0.0011660683996569	-0.00296950554207518	0.00116747854643354	0.00491306940941592	0.00340587404920588
2.6	0.00414176204218423	0.0118733243941392	-0.00275595164716269	0.00156052024634166	-0.00277694824800177	0.00156462648214399	0.00675286589518606	0.000467763336603353
2.7	0.00441472413810269	0.0113455160410763	-0.00251908912866909	0.00192855997235885	-0.0025193278763554	0.0019336728789718	0.00706706109189922	-0.00196351831687255
2.8	0.00480411794096297	0.0110842510199447	-0.00221868892077366	0.00225358133375686	-0.00222847276080701	0.00226491530994708	0.00678872857374992	-0.00413838705305586
2.9	0.00550193021753556	0.0112813608618478	-0.00187444933945714	0.00254635886343938	-0.00187242475515302	0.00255528869982796	0.00631687815083891	-0.00551510678848115
3	0.00750018110196533	0.0107864749897149	-0.00149407370858235	0.0027814761070008	-0.00150932654154342	0.00276857001701013	0.00701674980923171	-0.00728540612360518
3.1	0.00769465936644491	0.00931657876191927	-0.00109631529721425	0.00295852348612353	-0.00111324078933402	0.0029640953236351	0.00556920003742857	-0.0102452903299329
3.2	0.00795586458131844	0.00901230439352638	-0.000674017115326039	0.00308056855890878	-0.000669635893664664	0.00309135601550973	0.00356841698407386	-0.0115744758240374
3.3	0.00841044272570157	0.00859784024945288	-0.000241071268650834	0.0031463842659136	-0.000237812848834992	0.00314196449534512	0.00157815799135369	-0.012643738570948
3.4	0.00887564947168456	0.00849059578940243	0.000205910440974386	0.00314555692983824	0.000196493896547828	0.00314673602151319	-0.000513495132350429	-0.013086278512506
3.5	0.0105996845624544	0.00786895512506953	0.000632789898697794	0.00308290119050446	0.000637781555016404	0.00308152831425904	-0.00134942355224369	-0.0138268813439536
3.6	0.0104625733363362	0.00588761596781371	0.00105374430260584	0.00296275050517482	0.00106037670167562	0.00296618312168298	-0.00440125469609648	-0.0157170528772039
3.7	0.0100127292150204	0.00548408639712367	0.00147007338285264	0.00277954309967944	0.00146849215846826	0.00279592345243781	-0.0079893045619726	-0.0153815881372539
3.8	0.0100544010482351	0.00537135164920846	0.00183428307406175	0.00254689660226816	0.00184493188339406	0.00255313319359497	-0.0111224142098018	-0.0141186050149942
3.9	0.0105866496131113	0.00563748979360588	0.00217509147843804	0.00226597876688193	0.00217050248096167	0.00226592514051266	-0.0136112526226382	-0.0117428208526347
4	0.0128434566043596	0.0050071792430762	0.00246593027482961	0.00194818489994607	0.00247741769502105	0.00195421882177516	-0.0137625100968512	-0.00966415825563764
4.1	0.0129746715394382	0.00248356192551365	0.00271479750660011	0.00157307802925673	0.0027314400472055	0.00158265876435139	-0.0155204033941126	-0.00929771762808218
4.2	0.0125239640013789	0.00142205141660417	0.00290759591820146	0.00117352805331716	0.00290884965231671	0.00117579338265646	-0.0175942076112814	-0.00716443347454484
4.3	0.0122366089910855	0.000650795240696598	0.00304317919618842	0.000766332115617509	0.00304444803594713	0.000774870086427825	-0.0190226888706002	-0.00450879473317888
4.4	0.011975058467513	0.000332219068086119	0.00311805820069024	0.000332865123038351	0.00312590298397034	0.000328167739270529	-0.0198814826756977	-0.00101991640289713
4.5	0.0132570909083498	-0.000291067495053033	0.00313548539696839	-0.000116650851464047	0.00313233581159906	-0.000114360451835092	-0.0182049166234267	0.00226211921756132
4.6	0.0125564340888165	-0.00273775624575755	0.0030684560325032	-0.00055666420617194	0.00308152948678578	-0.000544917879155639	-0.0178386509500012	0.00307229432618462
4.7	0.0113814269185678	-0.00341715524141319	0.00296174241961762	-0.000961325549203001	0.00296155321515837	-0.000970684230219812	-0.0179315549976993	0.00529652062873127
4.8	0.0105351648733904	-0.00379562867073782	0.00280978941306372	-0.00135759908495458	0.00280201041793546	-0.00137753860553085	-0.0173109593221208	0.00786036467794765
4.9	0.0100710396297381	-0.00361266816187858	0.00258999507278409	-0.00174997385644853	0.00258406089684019	-0.00174154599248609	-0.0159989672299081	0.0108486368842276
5	0.0112893244806034	-0.00413288904802803	0.00230697935437571	-0.00206954505110028	0.00230957501793119	-0.00208184680621922	-0.012191810860735	0.012896452183566
5.1	0.0104301324233778	-0.00594493277580034	0.00199254041503314	-0.00237999700303738	0.00200562329266911	-0.00237763465470196	-0.010373334823185	0.0128654666231986
5.2	0.0097512089925526	-0.00616421634854543	0.00165443574292359	-0.00263160998590834	0.00165490607320617	-0.00263572530032832	-0.00834359138477994	0.0142285818364441
5.3	0.00963539476163078	-0.0064528298694379	0.00126798317027111	-0.00283634481333267	0.00126426994011099	-0.00283886403333855	-0.00546264180072362	0.0152434325912653
5.4	0.00973842386530984	-0.00652390199306009	0.000861751129949812	-0.00298606658222239	0.000860862820144746	-0.0029884869653748	-0.00203916402686876	0.0158701445970105
5.5	0.0113829734703799	-0.00785087515184374	0.000438545953258265	-0.00307364417126173	0.00045094231963365	-0.0030736460939806	0.00315197945071434	0.0142968347345876
5.6	0.00951278101551044	-0.0105158649109723	1.2490233674809E-05	-0.00310881606527428	9.2381136294088E-06	-0.00310539683443187	0.00417355519547336	0.0103855275890624
5.7	0.00759560997039659	-0.0106266405309165	-0.000415245411903954	-0.0030816008043963	-0.000418920045908782	-0.00308523821275354	0.0043861678845907	0.00884262946542162
5.8	0.00638161758081059	-0.0104561654714249	-0.000841522230510665	-0.0029907205868419	-0.000840806272276323	-0.00299830250233291	0.00482073207062713	0.00742452358682319
5.9	0.00529797116112818	-0.00957114142828792	-0.00124708379389141	-0.002841510801704	-0.00124549943938723	-0.00284560413907907	0.0049018403825237	0.0068161296395429
6	0.00683213071049095	-0.00881699952340608	-0.00163229973374353	-0.00264778627263521	-0.00162636744284674	-0.00265108496904639	0.00767116468651556	0.00642002654958631
6.1	0.00639418556940098	-0.0114829316535614	-0.00198960031966544	-0.00239580166428352	-0.00198550237776324	-0.00240051014189317	0.00860533524507208	0.00198440345004099
6.2	0.00452578603880811	-0.0123517359629389	-0.00230184002897603	-0.0020840644210821	-0.00229829465484649	-0.00209261511849141	0.00749744329327194	-0.000927675107212975
6.3	0.00293783762528496	-0.0125913345622592	-0.00256418170988014	-0.00175312952300565	-0.00257385155353628	-0.00176081987584183	0.00608213275315818	-0.00326825466540181
6.4	0.00179862722708664	-0.0119639954459975	-0.00279175616730349	-0.00137798464374675	-0.00278976616943869	-0.0013837072609612	0.00469931401736413	-0.00444185164337781
6.5	0.00264454087938638	-0.0128157837184754	-0.00295923013209005	-0.000975750774166081	-0.00295963189023545	-0.000974641426102415	0.00524808989142373	-0.00698899438866138
6.6	0.000247529099775109	-0.0139761045110997	-0.00305552531349894	-0.000558152097992156	-0.00306604257465394	-0.000561152352052097	0.00174696134464131	-0.0100596165520719
6.7	-0.00101064130959555	-0.0132176870309949	-0.00310233291097356	-0.000135665995610235	-0.00310133591480766	-0.000129502103957924	-0.00138522083827072	-0.0103071003111246
6.8	-0.00189963669946129	-0.0126919843128151	-0.00309336335936856	0.000304611137066434	-0.00309249680518198	0.000309319956529661	-0.00425257866397667	-0.00995833786643378
6.9	-0.00260804865485037	-0.0113774146667428	-0.00301610444663512	0.000731828163799596	-0.00301655055428685	0.000736752841871053	-0.00668651380469465	-0.00794842616152276
7	-0.000581529748123978	-0.0113396682419975	-0.00288307065980164	0.00114112736114758	-0.00288448515753249	0.0011442899216762	-0.00553552164718679	-0.00685605790212601
7.1	-0.00258998690533563	-0.0135550179713547	-0.00269892000403142	0.00152717060957362	-0.00270141701964033	0.00153802047094806	-0.00837658788834581	-0.00837338260333311
7.2	-0.00466511327386554	-0.0128558213917083	-0.00247048508060248	0.00188750335273895	-0.00247072688729136	0.00189332828142856	-0.0114464871453462	-0.00634139053804781
7.3	-0.00612192134733987	-0.0119232633555457	-0.00218868314568863	0.00221249147255643	-0.00218596735359252	0.00221397855948901	-0.0134002491811358	-0.00355887381438409
7.4	-0.00756947129315277	-0.0101226735499626	-0.00185397305134925	0.00249413254186008	-0.00184691604291909	0.0025006604770772	-0.0148674906468523	0.000532221864419601
7.5	-0.00587884472350902	-0.00833408862779082	-0.00149550295946414	0.00272774204474188	-0.00149649998817646	0.00272573373666852	-0.0118564203970947	0.00496658670126255
7.6	-0.00656101273456783	-0.0103176086881213	-0.00111276273791789	0.00291904865618959	-0.00110234600752968	0.00292948436286471	-0.0101943206263711	0.0046473936605748
7.7	-0.00832490986889849	-0.00999540083028468	-0.000687463916109271	0.00305120133941717	-0.000681932476417822	0.00305093823438984	-0.00979490634500455	0.00595228267616315
7.8	-0.00936897343231503	-0.00923622775514417	-0.000246869336673912	0.00311966037091209	-0.000260316258692695	0.00311241665890798	-0.00858828360500783	0.00768271363866478
7.9	-0.00955222065127606	-0.00792597885170877	0.000169354382263244	0.00311609411757002	0.00018038764543469	0.00311598026686859	-0.00609924490336027	0.00988712948440156
8	-0.00772059637703227	-0.00896384147474211	0.000605392940934746	0.0030814096865844	0.000613709579118986	0.00307948189076733	-0.00125858002610396	0.00934991500225738
8.1	-0.0101096106370286	-0.0102011779373246	0.00104609286474212	0.00296350242722353	0.00104386342155913	0.00296021836246078	-0.000871482665925934	0.0071884180695051
8.2	-0.0115779531952427	-0.00909415090904285	0.00143925571732022	0.00278783843785553	0.00143825661804464	0.00279939823045647	5.8637008996484E-05	0.00752990276942062
8.3	-0.0125442832710974	-0.00798159157017063	0.00181540528138486	0.00256530697536789	0.00182052219363146	0.00256280396031565	0.00158273868043685	0.0076548388358337
8.4	-0.0132384741859711	-0.00593110769757435	0.0021717594048973	0.00229589340498728	0.00216056425680415	0.00229611157837999	0.00339987126964424	0.00832269618473296
8.5	-0.0109741184245352	-0.00495774935417959	0.00248318431701814	0.00195789649463286	0.00248317595554661	0.00195925187322949	0.00849058422191963	0.00728649833799901
8.6	-0.0123160589529074	-0.00647281723877518	0.00271392437440743	0.00159844478949935	0.00270973892990414	0.00159607534988914	0.00927690537466156	0.00233884761255175
8.7	-0.0138066450357038	-0.00519047856030309	0.00291195822709131	0.00120559836386613	0.00291079848907621	0.00120516919153583	0.00860559392181903	-3.00334819642963E-05
8.8	-0.014441624490731	-0.00365363616113222	0.0030526532971595	0.000788253383125963	0.00306370940549404	0.000786297683240721	0.00781721832616276	-0.00197394104444015
8.9	-0.0145765190259303	-0.00153014385207095	0.0031368655557757	0.000351686728779204	0.00314635880347682	0.000344629994469385	0.00690249878724605	-0.00264593179762785
9	-0.0118312809947282	-0.000392435116254322	0.00314713281015307	-9.92751564774884E-05	0.00315385481653446	-9.35731263642409E-05	0.0090681790774985	-0.00361083881641184
9.1	-0.0119586243159177	-0.00193028045411185	0.00311231883012609	-0.000526184503258693	0.00311254049407962	-0.000526374408464874	0.00828568578783874	-0.00773105146757919
9.2	-0.0122847267700132	-0.00161644646238614	0.00300894189545233	-0.000954846194562449	0.00301278338017934	-0.000954564214072303	0.00666205327153336	-0.00980439437175661
9.3	-0.0123046868442274	-0.00141406327524933	0.00284261567911004	-0.00137334299642786	0.00286080039012921	-0.00137353181794138	0.00502170050979763	-0.0117299992837957
9.4	-0.0122751453176432	-0.000585564800178626	0.00262560447337878	-0.00175156673718379	0.00262909541080106	-0.00176262093056018	0.00301823391078431	-0.0126887714790649
9.5	-0.0106138108572551	-0.00139603225750181	0.00236651052003018	-0.00210839763269833	0.00238143144940483	-0.00210881693821075	0.00271533228956112	-0.015156908923289
9.6	-0.0129727068935988	-0.00260059306162786	0.00205437087017746	-0.00243029628846763	0.00205458855609499	-0.00242319462815494	-0.00268254099843952	-0.0183171867872874
9.7	-0.0143932101632839	-0.00119002882275758	0.00168852263883261	-0.0026975687768352	0.00169694324668685	-0.00269906265464472	-0.00804394837437565	-0.0176281773198984
9.8	-0.0150634617255297	0.000287751962579999	0.00130091803747175	-0.00290261472913376	0.00129918299737915	-0.00291139596840082	-0.0127291334737581	-0.015628937205284
9.9	-0.0153261175545446	0.00252598885140435	0.000891049620666972	-0.00305761061248317	0.000879046628381492	-0.0030604319286922	-0.0168111705224442	-0.011634580775039
10	-0.0127390219483961	0.00353594082038095	0.000450637162346657	-0.00315822761794446	0.0004499034539057	-0.00316568963991339	-0.0168327871279918	-0.00789525150115647
10.1	-0.0134533139538126	0.00229642495042623	-3.43686476158621E-06	-0.00320001058760157	-8.13922583621501E-06	-0.00320287119385698	-0.0195957965821327	-0.00666999290850802
10.2	-0.0142537933187523	0.00334410138143911	-0.000454053088237081	-0.00316160503153481	-0.00046684547311648	-0.00316553429060299	-0.022264410371883	-0.00259151692160022
10.3	-0.0144656560363892	0.00466868733798791	-0.000896756758005449	-0.0030625868435729	-0.00089643399886755	-0.00307621911115931	-0.0236686408511668	0.00242546801024877
10.4	-0.0140602453027554	0.0067459841191391	-0.00132110824620025	-0.00291994626267875	-0.00132435652057348	-0.00291779256825224	-0.0233865803257528	0.00868139655142284
10.5	-0.010990569486008	0.00732773736199088	-0.00172797796379054	-0.00269008417851117	-0.00173427081097713	-0.00269749449522044	-0.0186882138297298	0.0134105386139377
10.6	-0.0110767677235525	0.00613006859643231	-0.00208899951414933	-0.00242028356471288	-0.00209052469754015	-0.00242548541740282	-0.0164560160718715	0.0150474829167225
10.7	-0.0109537969838672	0.00658763131870905	-0.00240178958874904	-0.00210273128965624	-0.00240505319620084	-0.00211904644453622	-0.0137837488583699	0.0180921751473443
10.8	-0.0109190707024954	0.00707153408201486	-0.00267720627706739	-0.00174685449281216	-0.00267421679780971	-0.00174906381346485	-0.0109450487141206	0.0205488147706097
10.9	-0.0105503640167306	0.00860361435542929	-0.00290137375993506	-0.00135342176142858	-0.00290066154768859	-0.00135864387014227	-0.00724373443882732	0.0239953975285447
11	-0.00734226827410299	0.00871585954873349	-0.00305396892710904	-0.000923639013471792	-0.00304686816914355	-0.000928024448900548	0.000211245476261428	0.0252986094970015
11.1	-0.00791568915689526	0.00708641683181444	-0.00315118913100372	-0.000507106020756719	-0.00314330474307325	-0.000498702874367046	0.00385751164553434	0.023261662321235
11.2	-0.00802967837897799	0.00770390318298994	-0.00319388828106848	-5.40120760166794E-05	-0.00320058071864177	-5.07218926109712E-05	0.00754178229881105	0.0229963498746333
11.3	-0.00747996265371152	0.00837540504817911	-0.00316663162478583	0.000399533330785431	-0.00316985999758124	0.000397353630593338	0.0114935754403182	0.0223736455672732
11.4	-0.00667618623963228	0.00936754725010035	-0.00306839073372321	0.000837826967414437	-0.00307308303076587	0.000838015286817185	0.0159336587284412	0.0217520876674196
11.5	-0.0034665462230202	0.00851939793412066	-0.00293511251752433	0.00124220848131898	-0.00292747382247115	0.00124699831471678	0.0234631074974325	0.0183986650345341
11.6	-0.00425812697750744	0.00602401595590469	-0.00273159437711533	0.00165145077794089	-0.00273978375392114	0.00166136498921024	0.0259753303185326	0.0116164038298294
11.7	-0.00488258270038993	0.00594234366535998	-0.00246480826541426	0.00202674050970771	-0.0024665543144205	0.0020305051610505	0.0273360587650001	0.0069358963137748
11.8	-0.00495559265864388	0.00617704029260749	-0.00215375048106771	0.00235208484041509	-0.00216299757760977	0.00236211207384981	0.0284312587509499	0.00264214661920353
11.9	-0.00377939493400224	0.00717842682675283	-0.00180812622956044	0.0026224842615806	-0.00180810280383594	0.00262913664311377	0.0300861417419657	-0.000402280602990698
12	-0.000630434945822825	0.00563088735465524	-0.00142178143201431	0.00285894884649159	-0.00142632487543496	0.00286182966635582	0.0343217714906912	-0.00665905799561573
