# GHZ S RI R 50
0.2	-0.0138116288133182	0.00548543202089755	0.00304304794680208	-0.000885822382990676	0.00305350352208325	-0.000885673299964783	0.00603101513855211	0.00103911222613689
0.3	-0.0130109409763591	0.00588068936460696	0.00289634099580342	-0.00130170493656732	0.00289005469049171	-0.00131333843494907	0.00632378434291166	-0.00132621823338602
0.4	-0.0123108839049986	0.0064464379607967	0.00268159375035503	-0.00169544285941263	0.00267948910169044	-0.00169735266037891	0.00583054020222502	-0.00330337481568904
0.5	-0.0118622488718249	0.00724410469761324	0.00241177686670065	-0.00205145210735607	0.00241458722776248	-0.00205517564801838	0.00466294021335778	-0.00474063285397868
0.6	-0.0109365044589765	0.00816191717417045	0.00209934419922075	-0.00237123591923285	0.00209860047660844	-0.00237407544247708	0.00364215922359544	-0.00578750943783058
0.7	-0.0101873400506407	0.00875742671608354	0.00174865523354494	-0.00264063002550667	0.00175485342469308	-0.00264472160266711	0.00219504867877019	-0.00672803488717145
0.8	-0.00940904629515141	0.00937457224151602	0.00135539706022679	-0.00285974574278451	0.00136366074968854	-0.00285815427991799	0.000513578554590408	-0.00716768101247384
0.9	-0.0086995677481274	0.00987460893282999	0.000951581489054867	-0.00301104624630553	0.000951559837327587	-0.00302045009705709	-0.00117232005812489	-0.00727384513758336
1	-0.00829887368739288	0.0103501206059767	0.000519289169843376	-0.0031191906890985	0.000519139563926734	-0.00312454101509889	-0.00318146351429555	-0.00697065422682707
1.1	-0.007674666097976	0.0112216952001976	7.20836822833419E-05	-0.00315835324565616	7.29685612254123E-05	-0.00316307364054853	-0.00483138802205685	-0.00562326202515849
1.2	-0.0068457428457611	0.0114594259662696	-0.000365789295428405	-0.00313070132782799	-0.000364569743032699	-0.00314747123268639	-0.00558327527956504	-0.00420940094238022
1.3	-0.00628919427204656	0.0111908978365555	-0.00079590193439051	-0.00305629613683885	-0.000800833715300306	-0.00306393879639767	-0.00549288090238774	-0.00290162042375338
1.4	-0.00596481180125488	0.0106237265060006	-0.00122101031650267	-0.00291133273662667	-0.00122342307896212	-0.00291845129355253	-0.00508154407702616	-0.0022716276573575
1.5	-0.00564175429981187	0.010667173441319	-0.00161203746726041	-0.00271270490862718	-0.00161007027901581	-0.00271823746966134	-0.00500769432597706	-0.00157217735813427
1.6	-0.00474004388199469	0.0109611028125359	-0.00197332599000078	-0.00245671381470564	-0.00197678970853308	-0.00245759156383277	-0.00498344675134199	-0.000532287749209829
1.7	-0.00390420329187469	0.0112425246676202	-0.0022972957860989	-0.00216321886950532	-0.00229933955646952	-0.00217179079106884	-0.00481444523623227	0.000675943704695383
1.8	-0.00303266414965869	0.0116423550828215	-0.002573472260891	-0.00181484143310192	-0.00257863781098233	-0.00182029266937691	-0.00435929190450919	0.00185840263775532
1.9	-0.00217910195081082	0.0118511527350321	-0.00279837168508747	-0.00144637907499119	-0.00279486930506428	-0.00144020148755713	-0.00366958692306153	0.00288458481055546
2	-0.00143075267065773	0.0122692703061992	-0.00297255368781863	-0.0010361508157832	-0.00297529115545664	-0.00102932380073158	-0.00290564358528342	0.00405840206352916
2.1	-0.000174375005090381	0.0124006675774211	-0.00308801803483193	-0.000605915378895183	-0.00309010961405046	-0.00061259853634426	-0.00127388870324405	0.00485897910012349
2.2	0.000767130463285715	0.0121983666141237	-0.0031419200262056	-0.00017618242280207	-0.00314373830420277	-0.000166478682381766	0.000505675133702528	0.0049104829421404
2.3	0.00146511249967872	0.0118895748266434	-0.00313407883871106	0.000264715228109821	-0.00314081751412079	0.000261804663243489	0.00215510336430769	0.00437629211455417
2.4	0.00196159477787478	0.0115951664488171	-0.00307453670872236	0.000697825378492646	-0.00307338499980645	0.000712913685621238	0.00361239443804417	0.00338641544574377
2.5	0.00216094513825353	0.0115994711016403	-0.00294111269008433	0.00112850942590561	-0.00295409441347099	0.00112978641862442	0.00452307638743484	0.00217096649331786
2.6	0.00296417181339667	0.0118854015649402	-0.00275226176152733	0.00152377112767697	-0.00277315613456753	0.00152764977246348	0.00562963752526293	0.00096220616792639
2.7	0.00395251844541054	0.0118092439783438	-0.00252122225548754	0.00189238688557371	-0.0025215078544961	0.00189746482495316	0.00645244803638009	-0.000824869810807781
2.8	0.00498164228622596	0.0115292722478306	-0.0022276011418588	0.0022171411585838	-0.00223743837387869	0.00222830573868685	0.00677219312090425	-0.00280112964712336
2.9	0.00597712095090683	0.0110652455547448	-0.00189292271070341	0.00251044832129874	-0.00189101177198244	0.00251935056864641	0.00665846169659817	-0.00476317420886941
3	0.00693306307168027	0.0106828853500982	-0.00152289781479279	0.00275489100156053	-0.00153794818001936	0.00274184144773656	0.0061237910372737	-0.00639694340119321
3.1	0.00815874352592803	0.0100058980734616	-0.00112461716828094	0.00293832346253043	-0.00114155306609853	0.00294369920005363	0.00563107150109733	-0.00806521988123217
3.2	0.00896904213560694	0.00906626563075068	-0.000706464796555245	0.00306406562632829	-0.00070221683772933	0.00307487059828488	0.00443464574638339	-0.00979168808332371
3.3	0.00955986610153478	0.00806150394897423	-0.000277907820806923	0.00313678668295095	-0.000274603906743204	0.0031324150567599	0.00288269750559701	-0.011371472975636
3.4	0.00987890891281332	0.00704863806940892	0.000167615215736883	0.00314636727258523	0.000158189414990169	0.00314743142143682	0.000899153261744358	-0.0128643326717453
3.5	0.0099739098865536	0.0063714365965836	0.000601374636055179	0.00308992356613849	0.000606381224570278	0.00308860149345393	-0.00171802125073251	-0.0138218433373088
3.6	0.0103856727572225	0.00562821223816548	0.00102022432854176	0.00297113375042917	0.00102681215413608	0.00297463526411776	-0.00418284770034047	-0.0141986115456562
3.7	0.0104840292462354	0.0048068932489922	0.00143676298270455	0.00279651960376553	0.00143498730034064	0.00281287820560033	-0.00685948771104161	-0.0142298819972271
3.8	0.0105324642416952	0.00418014963411464	0.00180548837894785	0.00257129201240503	0.00181607250063742	0.00257766214585294	-0.00965006155315267	-0.0137376674793836
3.9	0.0106323475143062	0.00370082335064466	0.00215331418365117	0.00229411717909635	0.00214871816172273	0.00229401204132748	-0.0124648825496781	-0.0126346921697401
4	0.010957415401404	0.00354147982979913	0.00244420355615047	0.00197678178901454	0.00245562451674595	0.00198294827044868	-0.014998897013984	-0.0105858737839622
4.1	0.0118771637473227	0.0028794913542485	0.00269807395172961	0.00161251533149265	0.00271461482145438	0.00162233772335879	-0.0165070192717752	-0.00821222240516857
4.2	0.0124031680323931	0.00177152637395228	0.00290183687226494	0.00121643870067756	0.00290306458663232	0.00121872854762538	-0.0177438628715657	-0.00588163303890801
4.3	0.0126276459208268	0.000643827340450499	0.00304635118297152	0.000808847271931285	0.00304751540351322	0.000817438213741125	-0.018642732702887	-0.00349488142307867
4.4	0.0125270610054261	-0.000512617795010106	0.00312703937397376	0.000374194844026161	0.00313497760786893	0.000369577936032775	-0.0193390462909864	-0.000998471024902599
4.5	0.0122250818119992	-0.00118351876814646	0.00315387540526128	-7.02198032038129E-05	0.00315067473646445	-6.79645104597969E-05	-0.0197695799077895	0.00193188151346841
4.6	0.0123121313683275	-0.00205766957901741	0.00310236534213511	-0.000518363459474237	0.00311538526031954	-0.000506333852815406	-0.0192365256381447	0.00484189565622491
4.7	0.0121054064955082	-0.00301709188060767	0.0030014798780552	-0.000932560176951422	0.00300140801909967	-0.000942008172093849	-0.0184050995696554	0.0073584298724933
4.8	0.0117384125108155	-0.003937863522786	0.0028539322318898	-0.00133635231943364	0.00284632214692503	-0.00135658230756857	-0.0171552134354004	0.00977318640260498
4.9	0.0113734627532008	-0.00475192114737696	0.00264008647665864	-0.00173570564929998	0.0026339811800105	-0.0017272630993023	-0.0155181197898735	0.0118915232950153
5	0.0111013144083626	-0.00527657112828387	0.00236432218313953	-0.00207123392431972	0.00236710154074404	-0.00208367856676474	-0.0133723917806702	0.0140396869707274
5.1	0.0112477627467373	-0.00621939546731131	0.00204204818222699	-0.00239595477290612	0.00205529549008681	-0.00239344210167152	-0.0103539931220478	0.0154913563617015
5.2	0.0109559180788747	-0.00725215541842324	0.00169966987554288	-0.00265467956324509	0.0017001812472032	-0.00265884867131447	-0.00734882968934853	0.0161823194821593
5.3	0.0106159088622152	-0.00813786298073681	0.00130937750383231	-0.00286826067764657	0.00130562933948067	-0.00287084681963055	-0.00428899431583776	0.0163541635710446
5.4	0.0101517786175415	-0.00902123071446607	0.000896732890505907	-0.00302951155232522	0.00089584667129443	-0.00303197816005943	-0.00136310059728048	0.0157398690667872
5.5	0.00961946563502403	-0.00945816516044298	0.000455942724688697	-0.00312377365963094	0.00046854705290292	-0.00312373512234684	0.00110837689861845	0.0148636402962175
5.6	0.00933848380816724	-0.0104783179303781	2.25801905110846E-05	-0.00315505519314838	1.92687654956117E-05	-0.00315159542296302	0.00353093082450615	0.0132852038537091
5.7	0.00825209856725819	-0.0113618416834322	-0.000412028511556923	-0.00313065438625041	-0.000415748695680914	-0.00313435966953853	0.005112856513457	0.0113562219542074
5.8	0.00705149490987345	-0.0118180193570596	-0.000849127022647547	-0.00304123095948914	-0.000848383862178577	-0.00304893509273138	0.0062313814039627	0.00920941651156992
5.9	0.00571657127700064	-0.0118935946600829	-0.00126800164612854	-0.00288809113286795	-0.00126639179512196	-0.00289225204505737	0.00665029562335396	0.00692952725216788
6	0.00453780889234347	-0.0111555360705438	-0.00165695442324628	-0.0026833440436055	-0.00165094219736982	-0.00268669299948632	0.00627441807200208	0.00527469496742288
6.1	0.00464728640759892	-0.0107617127461939	-0.00201829364986527	-0.00243304178248031	-0.00201413128918272	-0.00243781903156933	0.00664615891373785	0.00381880382359027
6.2	0.00459840057643183	-0.0112593414401674	-0.00234079383633223	-0.00211571996913017	-0.00233719860764713	-0.0021244117503678	0.00679908799557417	0.00167155940054682
6.3	0.00423911522244015	-0.0122119773761398	-0.00260961992792463	-0.001774870557246	-0.00261946379896814	-0.00178266019222523	0.00640958971214405	-0.000913377106490675
6.4	0.00315524444441121	-0.0132118207153154	-0.00283761148821103	-0.00138879015192878	-0.00283561164689007	-0.00139460392121869	0.00512016546730284	-0.00348650073517452
6.5	0.0021781782784173	-0.0134678510415621	-0.00300550763599943	-0.000985613496259836	-0.00300591363443107	-0.000984486740602759	0.00339777565744535	-0.00511395417432704
6.6	0.0014017044445482	-0.0141363842608334	-0.00311061622229506	-0.000556211904331038	-0.00312132721116717	-0.000559224186427205	0.00178024321094169	-0.00670281268738645
6.7	0.000311282124006599	-0.0144049054355696	-0.00315509566349863	-0.000119724134127282	-0.0031540457776561	-0.000113462846621182	-0.000462281428300753	-0.0076957262424202
6.8	-0.000665991180065985	-0.0144896656806087	-0.00314047112156101	0.000330483150201114	-0.00313955877937936	0.000335260939845316	-0.00289121079611146	-0.0080705624002775
6.9	-0.00186355045274804	-0.0144941870717056	-0.00305869181538724	0.000763130641919758	-0.00305911259824642	0.000768135631094348	-0.00553029199846171	-0.00784484553877764
7	-0.0027672562008625	-0.0136790590384681	-0.00292678440581888	0.00118548149429048	-0.00292819923667792	0.00118871363539447	-0.00801089719283433	-0.00631454179399394
7.1	-0.00308516073117898	-0.0137565011671796	-0.0027261607094282	0.00158454933020967	-0.00272857178247343	0.00159561041753241	-0.00943384370306488	-0.004683008319547
7.2	-0.00416583325983276	-0.0138554932347538	-0.00248429238817498	0.00194714199022666	-0.00248446478131313	0.00195305834475896	-0.0107569640079104	-0.0027872416030017
7.3	-0.00547804933327933	-0.013687935415832	-0.00219171875089031	0.00227360619047735	-0.00218894367531172	0.00227507943524283	-0.0114916685951257	-0.00068680946128656
7.4	-0.00717248909274237	-0.0133677319681452	-0.00184605671258205	0.0025588240094621	-0.00183879811862071	0.00256534901863834	-0.0119488396358749	0.00115873161758757
7.5	-0.00895572665072881	-0.011895685527798	-0.00146500499425741	0.00279194249373824	-0.00146605255683134	0.00278992577081417	-0.0122765526793848	0.0036521412106601
7.6	-0.00928633432420039	-0.0106715830339057	-0.00107083375324101	0.00296817848067807	-0.00106012440860603	0.00297852865651272	-0.0111316095450595	0.00599138041185029
7.7	-0.00997431403359271	-0.00988055778579533	-0.000639138378897228	0.00309180424314356	-0.000633560389248393	0.0030914395407469	-0.00986630957703357	0.00737246101527193
7.8	-0.0102344971436736	-0.0092628334883379	-0.000190268879412546	0.00315145121210996	-0.000203969204195827	0.00314439770530413	-0.00840502810196771	0.0086511998994648
7.9	-0.0104565594967035	-0.00874857636591196	0.000235543697480157	0.00313502299428256	0.00024665411116511	0.0031346782861764	-0.00677867565623837	0.00992177449035357
8	-0.00998313092555803	-0.0079803752792364	0.000670241274556877	0.00307761300057211	0.000678541642698119	0.00307550935970608	-0.00470884231371543	0.0114104154425845
8.1	-0.00961721393817007	-0.00849309987851256	0.00110415105242547	0.00295281280628021	0.00110185412255163	0.00294956044235661	-0.001843437177349	0.0117365499800324
8.2	-0.0100754693862702	-0.00866539442834671	0.00149688897952155	0.00276731511417722	0.00149611064361398	0.00277892443293908	0.000734786901193734	0.0116124691029735
8.3	-0.0106321911772687	-0.00858158818753136	0.00186897775165962	0.00253151094958076	0.00187404975624572	0.00252890227104271	0.00331293056621706	0.0108923522386084
8.4	-0.0114695335046717	-0.00824530212617036	0.00221386354690154	0.00224875425909449	0.0022026915625455	0.00224919517090263	0.00538950623786371	0.00946512245673841
8.5	-0.0119674018393835	-0.0070769334852147	0.00251053874554362	0.00191210912292755	0.00251055307258381	0.00191346169752688	0.00701740017081756	0.00828278152887715
8.6	-0.0118706904151753	-0.00681838477057561	0.00274045040599433	0.0015480672523616	0.0027362257807611	0.00154577542303624	0.00893217430661504	0.00616396739762108
8.7	-0.0124795787376233	-0.00653099498932081	0.00292747542381652	0.00114732854425248	0.00292631047262561	0.00114692245022539	0.00989641331636888	0.00355234349942781
8.8	-0.0131463559877759	-0.00594421304724084	0.0030541232271468	0.000728093433645783	0.00306509522014298	0.000725940624752478	0.0101791992337198	0.000737615317589703
8.9	-0.0138854378294277	-0.00516569118872722	0.00312646297009938	0.000296881566140292	0.00313578759356537	0.000289701279273454	0.00973665507603321	-0.00208084211569565
9	-0.0141357766588231	-0.00363208469834404	0.00313600543835742	-0.0001540564167624	0.00314280717890896	-0.000148489040157514	0.00873660901932631	-0.00411531854575056
9.1	-0.0134830873607716	-0.00293721250034899	0.00308412296781585	-0.000584737260526971	0.00308433960852827	-0.000584930464761137	0.00800043244557723	-0.00627500705077723
9.2	-0.0131269532693191	-0.00247416946067556	0.0029670985536287	-0.0010042620664413	0.00297091503131305	-0.00100405503148734	0.00667531147437766	-0.00840354501331857
9.3	-0.0126588994485678	-0.00221559191356931	0.0027929525501258	-0.00141216008459058	0.00281097356404569	-0.00141267301326876	0.00498341468758721	-0.0104047217496003
9.4	-0.0125219282808583	-0.0022698895924914	0.00257228103074469	-0.001783655304549	0.00257554546925466	-0.00179467876215503	0.00248768820913331	-0.012346406350662
9.5	-0.0123086536044569	-0.00169568579372436	0.00229739985534003	-0.00213484667520874	0.00231215199682189	-0.00213557087845157	-0.000551648564898807	-0.0130516635409984
9.6	-0.0122540668284599	-0.00213584921932842	0.0019797608696211	-0.00243305166349879	0.00198010653106799	-0.00242605681761537	-0.00376907947314623	-0.0137301497345929
9.7	-0.012991828291247	-0.00202997420481986	0.00161771450102699	-0.00268483491752527	0.00162598213947371	-0.00268644702608373	-0.00757892103251842	-0.0134023551821145
9.8	-0.0137535365985172	-0.00149020244432791	0.00123345629806219	-0.00287774885423894	0.00123160680803517	-0.0028863632461731	-0.0113103683663858	-0.0121413761560662
9.9	-0.0146266587313655	-0.000426447100051814	0.000824421699026733	-0.00301923300269479	0.000812580671047544	-0.00302180455051628	-0.0151356890670419	-0.00994286118690038
10	-0.0147534952830973	0.00150413699716015	0.000395173323089544	-0.00309557308021807	0.000394347952142359	-0.00310286110237248	-0.0182523020097119	-0.00618943619362997
10.1	-0.0139462826701926	0.00239139794278571	-3.77695402598115E-05	-0.00313170912155051	-4.24023441871233E-05	-0.00313445814491491	-0.0198590987268559	-0.00240513108792851
10.2	-0.0135412943516154	0.00304633434770946	-0.000475478972642288	-0.00308974327227073	-0.000488037324773431	-0.00309346291795547	-0.0208475770654601	0.00147419748393662
10.3	-0.0131815401046241	0.00360205947656383	-0.000903900146149869	-0.00298609047561027	-0.000903705724554097	-0.0029994205716778	-0.0210865760404212	0.0053646384826892
10.4	-0.0131208915745175	0.00426275401338194	-0.00130865436048211	-0.00283936272563732	-0.00131180832186961	-0.00283723965117363	-0.0208711466689057	0.00911979150474099
10.5	-0.0124560134419937	0.00577596338336784	-0.00169167662736684	-0.0026232240761413	-0.00169783310091958	-0.00263044753402626	-0.0198452917658952	0.0136901758915835
10.6	-0.010993639489417	0.00625973026042875	-0.00204917200459999	-0.00236506446714274	-0.00205067448059534	-0.00237015313765375	-0.0173014505657564	0.0175866296524783
10.7	-0.00974884436609735	0.00641272151002037	-0.0023527622052459	-0.00205320606664648	-0.00235598013627795	-0.00206916087566378	-0.0140266541427603	0.0209395383237366
10.8	-0.00872349748018986	0.00605709696888908	-0.00261696173966361	-0.00170763120076432	-0.00261403943838435	-0.0017097907709292	-0.0102900141044652	0.0233778983463113
10.9	-0.00845563506347543	0.00578485923340172	-0.00283331459433081	-0.00133222750367224	-0.00283260249559695	-0.00133733226417158	-0.00664048563258503	0.025174390374588
11	-0.00767722151217742	0.00636374964724813	-0.00299482775240115	-0.000915924798487444	-0.00298784456613769	-0.000920207686077271	-0.0023746292896388	0.02723003340448
11.1	-0.00656715301153009	0.00571437938698139	-0.00308660220488941	-0.000502490378185678	-0.00307889216635106	-0.000494242954939049	0.00286184486185046	0.0277864727398
11.2	-0.00621677232802268	0.0051092441942032	-0.00312636323875047	-6.46549696115183E-05	-0.00313292673949735	-6.14588291125868E-05	0.00806624485070298	0.0273724903176981
11.3	-0.00597540609673056	0.00457638528989286	-0.00310386733941383	0.000373403050273213	-0.00310701707960487	0.000371249834342558	0.0134250235927153	0.0258575294102809
11.4	-0.00616189676035513	0.00419655740096794	-0.00301689116415836	0.000802387891628809	-0.00302149761989188	0.000802542294566649	0.0181604141313714	0.023103041317146
11.5	-0.00586640393000464	0.00455316986286485	-0.00288258025286563	0.00120580968114477	-0.00287511111271325	0.001210536755795	0.0223365160270655	0.0199708618139588
11.6	-0.00535321820393577	0.00369477584472426	-0.00268397373028761	0.00159550737935644	-0.00269205646919543	0.00160514550443728	0.0262623779485093	0.015220718294122
11.7	-0.00573441701596632	0.00310209505091399	-0.00243294670690449	0.001960844635656	-0.00243469256354537	0.00196451410105745	0.0288212924172744	0.00973634089441757
11.8	-0.00620784009011591	0.00307596250986179	-0.00213631469455858	0.00228306786593992	-0.00214548617494955	0.00229280017938348	0.0302042971008748	0.00397680293818672
11.9	-0.00649530347341109	0.00369181372429398	-0.00179908460406636	0.00255218478599781	-0.00179912943169919	0.00255870581850883	0.0301697166451873	-0.00139616980380762
12	-0.00548774842045475	0.00497624456128864	-0.00142680233245721	0.00277531202843466	-0.00143128005353221	0.00277806790800969	0.0298394383577298	-0.00586058623899788
