# GHZ S RI R 50
0.2	-0.0145099108619811	0.0046816888698802	0.00304947258734964	-0.000883684049192654	0.00305994635989506	-0.000883522007165604	0.0054076016559683	0.000284284211323834
0.3	-0.0135864135083596	0.00547746601798726	0.00290485138965272	-0.00130025119269934	0.00289856853602576	-0.00131192047804684	0.00583270578114067	-0.00168406356850045
0.4	-0.0127276421474912	0.0065892002100714	0.00269227779163455	-0.00169601373901621	0.0026901700964136	-0.00169793262717587	0.00549583955028704	-0.00313129342051775
0.5	-0.0112285772394222	0.00711975905477374	0.00242242767502357	-0.00205599899029318	0.00242525189429042	-0.00205973248530025	0.005319962203245	-0.00484424956997808
0.6	-0.0110682058653958	0.00717435676735455	0.00210884776869974	-0.00237680441897516	0.00210810465782899	-0.00237965413279812	0.00350268499168305	-0.00666907444472189
0.7	-0.010846829133439	0.0081312389784518	0.00175834354913468	-0.00264834293276217	0.0017645697279288	-0.00265244225382115	0.00156859468654117	-0.00719248111353865
0.8	-0.0103041178276821	0.00908719238417521	0.00136399304695647	-0.0028703755095308	0.0013722898149585	-0.00286876896951301	-0.00029361652940557	-0.00727444860110769
0.9	-0.00988148676060639	0.0102793166466476	0.000957383519942431	-0.00302415007189457	0.00095736648644128	-0.00303359634865538	-0.00219943261791409	-0.00672009870918976
1	-0.0082399790789188	0.0118254576410267	0.000522238272401524	-0.00313162245261659	0.000522089531103821	-0.0031369943881516	-0.00297378784824926	-0.00546078766278483
1.1	-0.00698413754186389	0.0113751440205331	7.47836079985794E-05	-0.00317260690704613	7.56760426290701E-05	-0.003177348021037	-0.0041124593939082	-0.00547355357708543
1.2	-0.0066777777762468	0.0113435884321886	-0.000366489900767962	-0.00314674257057818	-0.000365257950261985	-0.00316359722610984	-0.00548047589174725	-0.00431344157282749
1.3	-0.00653191692822106	0.0110879510308791	-0.000800412362545071	-0.00307232769804804	-0.000805370930660119	-0.00308001014398781	-0.00587925100526692	-0.00290697060751152
1.4	-0.00646704801537009	0.0109770138963526	-0.0012284232449532	-0.00292574944147142	-0.0012308512007038	-0.00293290347752682	-0.00572283016381307	-0.0016969782106392
1.5	-0.00536671573195779	0.0106808855389156	-0.00162042802292595	-0.00272767044792769	-0.00161844938427409	-0.00273323281132406	-0.0048699289824712	-0.00126612661185147
1.6	-0.00528189543187612	0.0105779007717668	-0.00198754648427422	-0.00247133003866962	-0.00199103305596695	-0.00247221131708421	-0.00556892447065404	-0.000466649552541429
1.7	-0.00447587562654719	0.0112867113721795	-0.00231513320744446	-0.00217395255970624	-0.00231720214493357	-0.00218257688895659	-0.00530112851858312	0.00116234348093488
1.8	-0.00344982036544969	0.0119069565302911	-0.00259313292409422	-0.00182174632730983	-0.00259834120406016	-0.0018272229357256	-0.0046265996494786	0.00250186740054809
1.9	-0.00222028442694195	0.0125255143136603	-0.00281928529879243	-0.00145056277551601	-0.00281574858318293	-0.00144435153056964	-0.0035464677843311	0.00383488714115163
2	-0.000210266242780116	0.012351024519182	-0.00299769847236894	-0.0010364046167645	-0.00300043923085444	-0.00102951893865959	-0.00165740076406012	0.0043388823711015
2.1	0.000244942749494465	0.0113479482135405	-0.00311244678880655	-0.000597855050604835	-0.00311458005592822	-0.000604577437966172	-0.0009208813669603	0.00414269221835949
2.2	0.000559528481472818	0.0113338917900178	-0.00316367928609864	-0.000163510342134531	-0.00316546693573778	-0.000153733782696432	0.000297876687287609	0.00448080318206705
2.3	0.000937910014013273	0.0113474608822652	-0.00315353328933004	0.000281441436191945	-0.00316033042216893	0.000278543830297597	0.00173896637281941	0.00428002884920565
2.4	0.00133112220592255	0.0117518952766855	-0.00309183573530061	0.000719378894850687	-0.0030905938535413	0.000734564489602954	0.00320103784551474	0.0038792234364401
2.5	0.00281061755153426	0.0120921064667346	-0.00295166867366543	0.00115649546284558	-0.00296472326660045	0.00115787260579911	0.0053216835362668	0.00277376192024951
2.6	0.00358601583637871	0.0111557108145324	-0.00275544924981835	0.00155088894497826	-0.00277642203596277	0.00155493453958174	0.00618997385307399	0.000334268084539143
2.7	0.00395949087978413	0.0109137817534755	-0.00252005530899226	0.00191975131947291	-0.00252030592993169	0.0019248562623366	0.00627850980170705	-0.00154015415108967
2.8	0.00456867240193389	0.0109059154400496	-0.00222098797198419	0.00224479012688006	-0.00223078539661817	0.00225608328235901	0.00611887038701849	-0.00314695219192664
2.9	0.00564985979295477	0.0110466029477317	-0.00187903746277608	0.00253711244886109	-0.0018770418211879	0.00254603481253998	0.00605685147921078	-0.0044392931657747
3	0.00750303539390326	0.0103549773435658	-0.00150288059284963	0.00277480562991911	-0.0015180805539151	0.00276185379638642	0.00629877794316477	-0.00630363673283831
3.1	0.00808749536854835	0.00911155591746577	-0.00110402200358667	0.00295505241111112	-0.001120959292502	0.00296057799346158	0.00511993971279299	-0.00834342870002457
3.2	0.00865905727817697	0.00844719668181913	-0.000681979718151505	0.0030777085428168	-0.000677628714210388	0.00308850392033422	0.00378041699176854	-0.00961045481885041
3.3	0.00917314489667582	0.00769671643624643	-0.000250101696687331	0.00314497939222906	-0.000246831249467246	0.00314057002556938	0.002267409565019	-0.0108446410073331
3.4	0.00967150627691532	0.00720098146634151	0.000196150790900284	0.00314717589761976	0.00018672764269319	0.00314832594736152	0.000584103854859494	-0.0118160417869372
3.5	0.0108318006387595	0.00622224227793084	0.000626414732873798	0.00308727062265159	0.000631414252258355	0.00308590773689785	-0.000986833084079429	-0.0131420264545306
3.6	0.0106797949403388	0.00469870521868022	0.00104777519119501	0.00296546469429738	0.00105440163312833	0.00296891169907123	-0.00405126743949502	-0.0141284297922838
3.7	0.0104394662955935	0.00414825396907982	0.00146358874354297	0.00278386482102041	0.00146196673478233	0.00280024538301107	-0.00688989304898636	-0.0137841532028661
3.8	0.0105155138956541	0.00382754358399205	0.00182892050683849	0.00255306753138365	0.00183955986007565	0.0025593348445646	-0.00945592321834792	-0.0130380131439232
3.9	0.0110170996460257	0.00372515377804148	0.00217229745005329	0.0022728143195223	0.00216770418986783	0.00227275078126274	-0.0117663948768042	-0.0117666661128271
4	0.0124470647238714	0.00281684603633018	0.00246300993778722	0.00195258735631775	0.0024744888492781	0.00195864136318486	-0.0134140294753765	-0.0106576965209791
4.1	0.0124313428814616	0.00110208481703346	0.00271081133808471	0.00158067923210975	0.0027274296136596	0.00159030655768313	-0.016015983063536	-0.00915115493350711
4.2	0.0122653007640043	0.00021893300991881	0.00290641133865763	0.00118265821227236	0.00290765956267633	0.00118492877946719	-0.0178786704867127	-0.00646357928350945
4.3	0.0121803603043903	-0.000525125345677722	0.00304432650526888	0.000775089119791072	0.00304557431807841	0.000783639255665394	-0.0189949318871571	-0.00368044548040249
4.4	0.0121667291031363	-0.00100239224936207	0.00311986307922517	0.000340455583503998	0.00312772538721857	0.000335772706790249	-0.0195461639934599	-0.000581847519858241
4.5	0.0130282872086965	-0.00193058375564894	0.00313737218696438	-0.000106170130005148	0.00313421340353378	-0.000103889222211111	-0.0189322100140637	0.00200170847043447
4.6	0.0124728170392846	-0.00373123485434139	0.00307621573034481	-0.000546884397516744	0.00308927241150723	-0.000535069740813807	-0.0191817151253592	0.00413744013640307
4.7	0.0117352130625353	-0.00452001629805955	0.00297124122410294	-0.000954737191740169	0.00297107924196999	-0.000964117472656979	-0.0188431104315816	0.00699526721834052
4.8	0.0110851498610332	-0.00510067626036036	0.00281980360412526	-0.001353010409385	0.00281206134588674	-0.00137301594893815	-0.0177429753549794	0.00984039981297596
4.9	0.0107921746571525	-0.00525318952108037	0.00260095065420481	-0.00174598507843701	0.00259497803534528	-0.00173755667859544	-0.0158625505381748	0.0126002701037986
5	0.0114698147753826	-0.00610039508774387	0.00232235602731126	-0.00206889251834604	0.00232500359691512	-0.00208122897008824	-0.0127958343502403	0.0142902284055476
5.1	0.0108502838854373	-0.00748051263444167	0.00200524972558127	-0.00238542953442081	0.00201837978491796	-0.0023830314312	-0.0105390870666545	0.015467448822519
5.2	0.0103865134237482	-0.00808868614651587	0.00166494426945864	-0.00263834225803135	0.00166542334272523	-0.00264247171875029	-0.00747271993741851	0.0165746753327364
5.3	0.0100981225293973	-0.00871683138774639	0.00127765812517729	-0.00284463792521268	0.00127393554469856	-0.00284717299704253	-0.00421534738365732	0.0168044967873611
5.4	0.00996845711338265	-0.00908097623370498	0.000870880400736847	-0.0029976389997846	0.000869992521600122	-0.00300007160305049	-0.000990024355531759	0.0164097950531975
5.5	0.0105719515702371	-0.0103894234336884	0.000441405567706509	-0.00308934417042851	0.00045386560393466	-0.00308934365404971	0.00220549187877601	0.0145240443080506
5.6	0.00907653091610617	-0.011999861541746	1.16153602899555E-05	-0.00312083352024776	8.35168835608976E-06	-0.00311740011014337	0.00326739449249244	0.0127111775275581
5.7	0.00763816258599507	-0.0122612703614731	-0.000416943560750337	-0.00309318721592182	-0.000420632190628774	-0.00309683816135868	0.00469027366072605	0.0115663042677899
5.8	0.00651762627185941	-0.0122316517968226	-0.000845497229957254	-0.00300265257191075	-0.000844779826956768	-0.00301026528190214	0.00612396282175061	0.00985952661404082
5.9	0.00565951552756252	-0.0115135982370358	-0.0012553145871283	-0.00285259336437024	-0.00125372742868232	-0.00285670602556925	0.00720887377036377	0.00808336105924767
6	0.00653700616576041	-0.0112872512332128	-0.0016419671555411	-0.00265250197410959	-0.00163602363550085	-0.00265582128247531	0.00867172179126539	0.00541278415678419
6.1	0.00601868196703263	-0.0127922435545391	-0.00199648488359269	-0.00240102446762039	-0.00199237882837075	-0.00240574824859525	0.00788701089775647	0.00202861878456263
6.2	0.00492474662307554	-0.0134802620014676	-0.00231084338767338	-0.00208924292321254	-0.00230729249266193	-0.00209782408748632	0.00670171566702917	-9.39361028957583E-05
6.3	0.00387735291773521	-0.0139446288179107	-0.00257494961871385	-0.00175594699982896	-0.00258466137222028	-0.00176365161870626	0.00553561790658864	-0.00193638750094846
6.4	0.00310412281652552	-0.0139899260287108	-0.00280191805708922	-0.00137696895482527	-0.00279993246365623	-0.00138271095253339	0.00458114027947828	-0.00341641013070091
6.5	0.00312870032521204	-0.015274178912546	-0.00296596756856606	-0.0009763093327341	-0.00296636961192049	-0.000975197440741254	0.00367953563989693	-0.00591690233740221
6.6	0.00111012674001342	-0.0162307421952597	-0.00306688469319529	-0.000558521674683016	-0.00307744163658422	-0.000561527106002715	0.000930927639987781	-0.00731454715209333
6.7	-0.000342795941884155	-0.0160958469593813	-0.00311402142855299	-0.000131672983226325	-0.00311301180707378	-0.000125487703466641	-0.00132331822801956	-0.00775651090089531
6.8	-0.00162427211258757	-0.0156551397317255	-0.00310294839237546	0.000311369102797781	-0.00310207022865914	0.000316091763027387	-0.00378360545135816	-0.00765975653066853
6.9	-0.00234247567398885	-0.014571271876741	-0.00302342488808144	0.000738311199776466	-0.00302386497991491	0.000743250249198645	-0.00578108931030076	-0.00657197028222714
7	-0.00155832419323805	-0.0148304710248503	-0.00289432273944866	0.00114861620915764	-0.00289574038850261	0.00115179353947419	-0.00690569270061973	-0.00634519352104604
7.1	-0.00331721153667442	-0.0157718315492447	-0.00270650250050401	0.00154140963378394	-0.00270898018209644	0.00155231409097653	-0.00993653954163105	-0.00513411946672264
7.2	-0.00495742173540149	-0.0152565721346381	-0.00247342483158921	0.00190216296608284	-0.00247364903120234	0.00190800971312611	-0.0114982277548648	-0.0023403923789738
7.3	-0.00649043278020772	-0.0144224871080332	-0.00218914747248148	0.00222665055357871	-0.00218641801104661	0.00222813420501661	-0.0119988275837894	0.000443766653584304
7.4	-0.00786463915562764	-0.0127076374562284	-0.00185368432953313	0.00250936637603525	-0.00184658037249003	0.00251589846763045	-0.0116530105362297	0.00334837935319494
7.5	-0.00718880940785959	-0.0113628874401109	-0.00148829635411412	0.00274679914091126	-0.00148930762244836	0.00274478724304984	-0.00959985720237897	0.00495047666818156
7.6	-0.00797590225377018	-0.0117009080590159	-0.00109960954276803	0.00293196442982075	-0.00108911176717434	0.00294236847819533	-0.00915547159992945	0.0054659336321277
7.7	-0.00890192175342684	-0.0110069603800023	-0.000673772834999952	0.0030606227546572	-0.000668231760429941	0.00306033184620719	-0.00845580192934602	0.00666068803366554
7.8	-0.0092880681608721	-0.010392830169511	-0.00023180600067825	0.00312719096013606	-0.000245316208167612	0.00311999969914307	-0.00739580992492172	0.00783810273494102
7.9	-0.00901811001203225	-0.00982465322051102	0.00018801817364925	0.00312140331064036	0.000199073091462302	0.00312122435932608	-0.00575370014302672	0.00900561231771339
8	-0.00818837088740063	-0.0110046526185794	0.000625720308953886	0.00307676383401629	0.000634022457836369	0.00307478123510098	-0.0038950778171054	0.0089809186379516
8.1	-0.00977923775768875	-0.0116310261357337	0.00106002755481715	0.00295638156376921	0.00105778337672213	0.00295311067190868	-0.00325902188605342	0.0100026623295273
8.2	-0.0108007193780559	-0.0110853006817969	0.00145218174231375	0.00278016361733573	0.0014512382172197	0.00279172490949678	-0.000934777839830363	0.01108139494097
8.3	-0.0116428694954746	-0.0103439647565693	0.00182780598253488	0.00255490257226018	0.00183290788117758	0.0025523743490377	0.00169831581379738	0.0112284612294382
8.4	-0.0120439254854173	-0.00890045842582574	0.00218127113485228	0.00228050577512738	0.00217009363866495	0.0022807855645105	0.00450646202969452	0.0108343068047192
8.5	-0.0109393234070861	-0.00869186154177116	0.00248386976789555	0.00194386456515268	0.00248386633264429	0.00194521648122542	0.0074908908360392	0.00851724079067853
8.6	-0.0121895982992982	-0.00916169011186123	0.00271665741876586	0.00158778239418401	0.00271246808072146	0.00158542930517332	0.00792543240542814	0.00626322201882634
8.7	-0.0132912586163585	-0.00820841511359264	0.0029136223631153	0.00119249288345368	0.00291246216845587	0.00119206887435054	0.00888954400617686	0.00474083496787672
8.8	-0.0140254110768936	-0.00690118499793678	0.00305055331392264	0.000774278295852201	0.00306158197129345	0.000772280414685616	0.00976123164431217	0.00269834766588005
8.9	-0.0140895390914823	-0.00500331331068339	0.00313028926617802	0.000340719195534427	0.00313973645535973	0.000333649227572335	0.0106079376587897	0.000569124701063062
9	-0.0123273699968748	-0.00428184278073677	0.00314501335457011	-0.000106408401031175	0.0031517443509636	-0.000100725163239347	0.0115536902124221	-0.00295452809804052
9.1	-0.0122363247551578	-0.00483073763362474	0.00310778512702554	-0.000538987195186242	0.00310800582181317	-0.000539177899449902	0.0100605601480543	-0.00650197688216437
9.2	-0.0122273607476559	-0.00482649638717934	0.00299940244039224	-0.000965933164254167	0.00300323814280477	-0.000965668067039538	0.00829798504790593	-0.00926902334678512
9.3	-0.0124458054996746	-0.00479648190844544	0.00283114110348916	-0.00138070874469518	0.00284928406262462	-0.00138096409506831	0.00574033609434302	-0.0116366477851696
9.4	-0.0124524289599714	-0.00415420235914593	0.00261610997635274	-0.0017567399896005	0.00261956182749159	-0.00176778716269258	0.00285901748686858	-0.013038412852575
9.5	-0.0118044794182839	-0.0047456481991119	0.00235334601712144	-0.00211827184256506	0.00236824946386596	-0.00211876665082994	-0.000314063391948112	-0.0148341691836503
9.6	-0.0132908113672568	-0.00498873184281656	0.00203543960530646	-0.00243261228854316	0.00203569217700473	-0.00242553504809167	-0.00522776358669153	-0.0146839701200675
9.7	-0.0142539640972036	-0.00404086455015546	0.00167139096448325	-0.00269462942344323	0.00167977484374056	-0.0026961521620729	-0.00893620730262664	-0.0131667037137344
9.8	-0.0149580488451122	-0.00278976110638096	0.00128552765180914	-0.00289745138695474	0.00128376567240327	-0.00290619573215054	-0.0122066031062736	-0.0111736849398709
9.9	-0.0150814079017742	-0.000825252120349309	0.000874460578412597	-0.0030515577687699	0.000862484370890096	-0.00305431618318818	-0.0149103985340238	-0.00840939477194988
10	-0.0136318024166907	-9.27587598378716E-05	0.000432379725563867	-0.00314225752272334	0.000431613245810758	-0.00314967289416292	-0.0167750576705652	-0.00633980332460022
10.1	-0.0140551338911152	2.04001424583034E-05	-1.1895059424762E-05	-0.00318059053398595	-1.65764759171283E-05	-0.00318342132814893	-0.0199143132345426	-0.00310105262002074
10.2	-0.0141935193559595	0.00114402172951374	-0.000458601474426105	-0.00314323358703616	-0.000471332368638583	-0.00314711277939006	-0.0213334359114372	0.00139624669350495
10.3	-0.0139502525849284	0.00247376674429651	-0.00089893684310891	-0.00304347353190831	-0.000898647759519653	-0.00305703081176533	-0.0214942857899793	0.00598360294843924
10.4	-0.012849214347925	0.00412938231679069	-0.00131932184172396	-0.00289711980875439	-0.00132254306179193	-0.00289497269733541	-0.0201553510767979	0.0103365438969392
10.5	-0.0104302576206875	0.00402325812110867	-0.00171359593491398	-0.00266982817047838	-0.00171983726701354	-0.00267718324106175	-0.017967030724785	0.0128825479710402
10.6	-0.010086811180225	0.00314874918662148	-0.0020748760202703	-0.00240904843753808	-0.00207638729195208	-0.00241422303547131	-0.017017179108901	0.0158600330410309
10.7	-0.00992147092267554	0.00319007416713773	-0.0023878682100846	-0.00209308528488251	-0.00239110483703972	-0.00210931638603439	-0.0151005001637104	0.0195371165680908
10.8	-0.00977889790674545	0.00354787485669136	-0.00266084940316517	-0.00173895943005937	-0.00265787516072099	-0.00174115412628371	-0.012182095888849	0.0231411102560683
10.9	-0.00904814010643766	0.00447955152944323	-0.00288105434496228	-0.00135121142749202	-0.00288033569277469	-0.00135640051052815	-0.00781718778540315	0.0263332587102151
11	-0.00703098274144012	0.00385713854578098	-0.00304057286524071	-0.000930275083890122	-0.00303348230743291	-0.000934622767830975	-0.0025828702581377	0.0272865115320914
11.1	-0.00729899882885647	0.00292591830359913	-0.00314008440322345	-0.000509111227506615	-0.00313223616751514	-0.000500726859352132	0.00138153355741563	0.0283793094575252
11.2	-0.00733411056419461	0.00291889638483348	-0.00318064369946595	-5.8173899450779E-05	-0.00318731305674383	-5.49064716621238E-05	0.00688779532637246	0.0290112575255293
11.3	-0.00721420637361573	0.00319691523450753	-0.00315435812941227	0.000391016281875627	-0.003157568385968	0.000388838632649776	0.0129043309331919	0.0283419480083035
11.4	-0.00670565527967821	0.00388933420092746	-0.00306194864940647	0.000826232273468243	-0.00306662783438661	0.000826406046761195	0.0190373794522457	0.0262039356982543
11.5	-0.0051635289191382	0.00306067999944721	-0.00293007386412526	0.00123815046862387	-0.00292245274592878	0.00124293520153783	0.0245278433718035	0.0213125589107967
11.6	-0.00570365829821346	0.00212459353302622	-0.00272163161580437	0.00164226677276695	-0.00272979532975056	0.00165213280585744	0.0275972084905099	0.0164372460177946
11.7	-0.00588307232225745	0.00223999714253379	-0.00245878402735629	0.0020134844079199	-0.00246053048918071	0.00201723012819858	0.0308191883389023	0.0112612395343955
11.8	-0.00560838055422507	0.00263036491978746	-0.0021521985541487	0.00233894225307224	-0.00216143881425125	0.00234891329960628	0.0332254350505438	0.00516853151609479
11.9	-0.00430324145673147	0.00319208903942858	-0.00180724386508697	0.0026125601882681	-0.00180723075027213	0.00261919449682554	0.0345813974603837	-0.00146795633001288
12	-0.00246988675857448	0.00145249817322345	-0.00141713150907628	0.0028428972978793	-0.0014216542473117	0.0028457590361759	0.0338288114910306	-0.00971765287074473
