# GHZ S RI R 50
0.2	-0.0138744641351099	0.00557406934474847	0.00304272766058288	-0.000885836571643574	0.00305318223929978	-0.000885687843157225	0.00599129358675933	0.00115118897077679
0.3	-0.0130638430893872	0.00596551917812255	0.00289595806303988	-0.0013017055230493	0.00288967187165785	-0.00131333743086196	0.00629003589494643	-0.0012179695294042
0.4	-0.0123096817813524	0.00647540729782665	0.00268102104249163	-0.00169538466510715	0.00267891658096951	-0.00169729398555719	0.00583734440963169	-0.00325385747400517
0.5	-0.0120262264508133	0.00721506124463462	0.00241112647873928	-0.00205086274292951	0.0024139360935383	-0.00205458522748055	0.00445975802115215	-0.00473397002488673
0.6	-0.0110349316167916	0.0083782585179872	0.00209917596900614	-0.00237060432173482	0.00209843264610221	-0.002373443389739	0.00349056820203264	-0.00546823757777664
0.7	-0.0101098466844696	0.00897408503104122	0.00174851724076	-0.00264006545871813	0.00175471461569511	-0.00264415594447067	0.00224804318867749	-0.00635945279628232
0.8	-0.00920644531614821	0.00956294155319457	0.0013552980872044	-0.00285903745025159	0.00136355988715606	-0.00285744577198217	0.000735931641729262	-0.00680080936683745
0.9	-0.00828146273480213	0.0099899958942959	0.000951785387127291	-0.00301003200979436	0.000951765230785537	-0.00301943316700013	-0.000673614647565633	-0.00699086298878956
1	-0.00785841981545345	0.0100127365828844	0.00052033624050828	-0.00311860102762871	0.00052018856549291	-0.00312395071387962	-0.00264580582029959	-0.00722892556416435
1.1	-0.00756749629631906	0.0109920739750905	7.26682953858957E-05	-0.00315832770253985	7.35540451058478E-05	-0.00316304791537441	-0.00471141023553359	-0.00580393046989851
1.2	-0.00673168185761308	0.0113173135928422	-0.000365244683017605	-0.00313053561840393	-0.000364022443071751	-0.0031473041094881	-0.00551859067671417	-0.00428077191600847
1.3	-0.00632609520624551	0.0112086570198091	-0.000795129687766183	-0.00305623402383422	-0.000800059300318118	-0.00306387720955982	-0.00562687319952118	-0.00276047536437489
1.4	-0.00594350012419637	0.0109329074727448	-0.00122006732081318	-0.00291183772479178	-0.0012224777592041	-0.00291895732330093	-0.00515437889328659	-0.00176990970033559
1.5	-0.00565515673955482	0.0110032244034902	-0.00161219064204021	-0.00271366789671985	-0.00161022225725556	-0.00271920182184687	-0.00511876152520991	-0.000981586272062321
1.6	-0.00442385065177175	0.0114628459486617	-0.00197342894789542	-0.00245665701624305	-0.00197689272089412	-0.00245753464371018	-0.00469897083925996	0.00032488414680069
1.7	-0.00335777081579018	0.0114412814710586	-0.00229696444329836	-0.00216337723100189	-0.00229900719750267	-0.00217194901400612	-0.00419854946470387	0.0012351710963838
1.8	-0.00242190400010873	0.0115688028600206	-0.00257330430239085	-0.00181539830649411	-0.00257846919842374	-0.00182085076603293	-0.00362047336921949	0.00209758759363812
1.9	-0.00153196768047402	0.0114149686321267	-0.00279895840668869	-0.0014468843875174	-0.00279545554119963	-0.00144070512330567	-0.00288576669036283	0.00268234172758055
2	-0.00131647303994136	0.0114243600922187	-0.00297279633321823	-0.00103526530685868	-0.00297553175996091	-0.00102843763041809	-0.00275545615798598	0.00339575078416198
2.1	-0.000327065038980906	0.0120075548868216	-0.00308732186329798	-0.000605958516267567	-0.00308941261939364	-0.00061264035778697	-0.00145125691110516	0.00474453503691428
2.2	0.000729156968763937	0.0119470747822756	-0.00314172188104368	-0.000176528094865836	-0.00314354115435735	-0.000166825110648854	0.000487310111638846	0.00500665500341031
2.3	0.00156147552313932	0.0117130577065876	-0.00313405457043888	0.000264659332073354	-0.00314079313429642	0.000261748678982149	0.00234724045181561	0.00456010996519197
2.4	0.00236209409888495	0.0113210864566207	-0.00307390736199943	0.000698143488917912	-0.00307275370026488	0.000713229031612683	0.00419272565345052	0.00340985651953229
2.5	0.00243103319645088	0.0106792383062815	-0.00293975863414338	0.0011271347530578	-0.00295273344204642	0.00112840774379767	0.0049373117296665	0.00139890785888542
2.6	0.00267965161157897	0.0111120492246399	-0.00275281981202147	0.00152228945021607	-0.00277371459238793	0.00152615740729054	0.00534657717065132	0.000318079037248659
2.7	0.00346188850790724	0.0113005721309793	-0.00252186617863375	0.00189167224920854	-0.00252215332867131	0.00189675024019356	0.00588268850441442	-0.00114565228614398
2.8	0.00451527522606273	0.0113779779519014	-0.00222799436765424	0.00221644275683715	-0.00223783367372747	0.00222760415913707	0.00619915675884136	-0.00269085110081795
2.9	0.0057996006087203	0.0110066572455585	-0.00189357415336521	0.00250897740313234	-0.00189166767023007	0.00251787828990018	0.00637828686100048	-0.00452002561883873
3	0.00658300932386164	0.0104630471098545	-0.00152577529018063	0.00275414196309204	-0.00154081723489127	0.00274107558244534	0.00560449410695009	-0.00629227636268861
3.1	0.00791332057483048	0.0102300393192059	-0.00112629121603863	0.00293949860754287	-0.00114323819649663	0.00294487108792889	0.00518257686425378	-0.0073694548653501
3.2	0.00904666957316279	0.00931536512066455	-0.000707540546358759	0.00306494228892879	-0.000703294032180676	0.00307575217678826	0.00438159322011839	-0.00896472642262516
3.3	0.00988383062183777	0.00826718548116152	-0.00027924283096308	0.00313767903816313	-0.000275936123969167	0.00313330732702581	0.0031733941664348	-0.010544810887976
3.4	0.0105271259817743	0.00705408484488848	0.000165772817190962	0.00314837387243871	0.000156340657923714	0.00314943284181122	0.00160084233945698	-0.0122723188561234
3.5	0.0103967970046253	0.00591321617976943	0.000601997786612529	0.00309367807919771	0.000607010470207477	0.00309235457665596	-0.00129181532472275	-0.013751901641474
3.6	0.0107834546617194	0.0055687093246197	0.00102192804002429	0.00297256663650619	0.00102852114533462	0.00297606787420835	-0.0037853380569532	-0.0136126402434362
3.7	0.0112950623064434	0.00467318076392529	0.00143799517561286	0.00279768130503916	0.0014362215320375	0.00281404853225504	-0.00592406287277392	-0.0136770375930031
3.8	0.0116525752726547	0.00371024236313477	0.00180714640989511	0.00257264221959733	0.00181773864179143	0.00257901456791723	-0.00828543240233193	-0.0135873592343051
3.9	0.0119217537833982	0.0025606395371331	0.00215647450948656	0.00229497258979943	0.00215187435970779	0.00229486986970682	-0.0108887953286403	-0.0133147285972728
4	0.0113965883460983	0.00157024591758779	0.00244705189060351	0.00197409268620494	0.0024584823688609	0.00198024609087121	-0.0144183638623591	-0.0122298244723023
4.1	0.0116032205220639	0.00148737282472103	0.00269811859431426	0.00161066542263766	0.00271465970527165	0.00162047649176702	-0.0167747725802415	-0.00920427507118809
4.2	0.0120853286159466	0.000718499417486036	0.00290205632222781	0.00121530127909002	0.00290328476912357	0.00121759051091089	-0.0180669645120402	-0.0064557400019786
4.3	0.0123573909289044	-0.000202944767345653	0.00304661423990263	0.000807323042451317	0.00304778260924257	0.000815913042023071	-0.0188955582491295	-0.00383430589543083
4.4	0.0124759981464173	-0.00138361106869373	0.00312608938693814	0.000371758650410801	0.0031340211329934	0.000367137736910056	-0.0193405890749586	-0.00140860062921146
4.5	0.0117055033284546	-0.00248588680128205	0.0031504485441539	-6.98781867343495E-05	0.00314725116943033	-6.76256178497667E-05	-0.0203662388354569	0.000974035843758444
4.6	0.0114405145808346	-0.00261010726144167	0.0031020202514908	-0.000516548233079322	0.00311503089247238	-0.000504513896555345	-0.020380526582178	0.00477088112180385
4.7	0.0114789454007835	-0.00319983673591476	0.00300180377011937	-0.000931833292457215	0.00300173428455886	-0.00094128158715121	-0.019310728845074	0.00783361440015019
4.8	0.0113858274792378	-0.00387394647931519	0.00285387013438091	-0.0013358973869066	0.00284626312692678	-0.00135612670693195	-0.0177130410947057	0.0106097624956228
4.9	0.0114871010669177	-0.00469014838408065	0.00263985582926088	-0.00173396176238606	0.00263374920108761	-0.00172552485815536	-0.0155170161470455	0.012735538947914
5	0.0110119328459973	-0.00557162963405061	0.00236778069975002	-0.00206959952359043	0.00237057529553963	-0.00208204709947045	-0.0136508187089124	0.0145213520071221
5.1	0.0113976165690991	-0.00595272726659745	0.00204428211910372	-0.00239785311638292	0.00205754123019415	-0.00239533616259682	-0.010334286335485	0.0167336057306633
5.2	0.0116803225434671	-0.00724578064570638	0.00170047952439418	-0.00265628524029966	0.00170099094300087	-0.00266045674412874	-0.0065584301610858	0.0171889827811607
5.3	0.0114834183205853	-0.00862757428237937	0.00131027136582909	-0.00286948326865547	0.00130652168862612	-0.00287207099039739	-0.00323044882721562	0.0167562026974042
5.4	0.0109506945970111	-0.0100160301423976	0.000898669226858907	-0.003031799998834	0.000897783180501103	-0.00303426908737319	-0.000377202821858029	0.015467998154575
5.5	0.0093782879075673	-0.0107978102581483	0.000454749526093421	-0.00312927094799254	0.000467374909181042	-0.00312924023050841	0.000842712890729669	0.0141981279818742
5.6	0.0091514200460384	-0.0105853920162023	1.88002860617657E-05	-0.00315696114319836	1.54910489985396E-05	-0.00315349533149619	0.00326080527071168	0.0140735471425724
5.7	0.00891600577517932	-0.0113679066729662	-0.000414981795645573	-0.00313119660907121	-0.00041870641987531	-0.00313489960919457	0.0058513402459216	0.0123686645290868
5.8	0.00837534327263158	-0.0121754632046326	-0.000851894729736327	-0.00304163967901357	-0.000851157537472117	-0.00304934719039785	0.00783801164338896	0.00983673865846733
5.9	0.00775068858674555	-0.0131477412041733	-0.00127224412522321	-0.00288828276271754	-0.00127063833708025	-0.00289244809942863	0.00915475915913041	0.00643241333654665
6	0.00579733444794729	-0.0144100714362581	-0.0016613195974027	-0.00267851974068766	-0.00165531746005115	-0.0026818786856618	0.00785433758239729	0.00235193272011681
6.1	0.00420519358400622	-0.0137976893078997	-0.00201778346965854	-0.00242892352512267	-0.00201362909122723	-0.00243369843701762	0.00612504313809656	0.00110047765569292
6.2	0.00329461659062605	-0.0136884589067499	-0.00234003401903032	-0.00211343672506881	-0.00233644443963193	-0.00212212408564079	0.00522876497934287	-0.000288604476572626
6.3	0.00263481210859184	-0.0136070745453392	-0.00260929583067417	-0.00177276265100868	-0.00261913902039609	-0.00178054383066883	0.00447067144790962	-0.00167353691360966
6.4	0.0021452291088011	-0.0141004595325922	-0.00283649508554202	-0.0013851844451075	-0.00283450193908393	-0.00139099519170742	0.00379915675889741	-0.00366142123409567
6.5	0.000787886200189831	-0.0143870841405206	-0.00300033586397578	-0.000984760986723756	-0.00300074148301556	-0.000983636179143355	0.00153670061177978	-0.00520699300680037
6.6	0.000680474532155251	-0.0142124452589682	-0.00310920533113545	-0.000558102853665453	-0.00311991072928354	-0.00056112128036575	0.000679725654702192	-0.00560150886091304
6.7	3.12850182019012E-05	-0.0147728824413718	-0.00315474975478379	-0.000119989968979426	-0.0031537005332182	-0.000113729254205621	-0.000865393430329819	-0.00679167558442286
6.8	-0.000825720218821053	-0.0148550821021033	-0.00313910830875798	0.000330850122094944	-0.00313819557888818	0.000335625772602505	-0.00298437110746931	-0.00720793911771266
6.9	-0.00152567341767311	-0.0151273097594623	-0.00305596492591545	0.000761468653620095	-0.00305638681382543	0.000766468676316908	-0.00503401290059676	-0.00742326918363048
7	-0.00345997165530804	-0.0150399693265848	-0.00292885550074053	0.00118186192863307	-0.0029302748123226	0.00118509279200321	-0.00879943715041333	-0.00672701872633834
7.1	-0.00382775253420492	-0.0135998296206269	-0.00272804921118864	0.00158552066352347	-0.0027304622890427	0.00159658910689092	-0.0103407986333868	-0.00323982429093583
7.2	-0.00399993518796201	-0.013401696797656	-0.00248433592560124	0.00194789628636947	-0.00248450728359317	0.00195381360820231	-0.010500622224428	-0.000843127857190138
7.3	-0.00454643447690957	-0.0132335813521379	-0.00219191572779496	0.00227337101261599	-0.00218914082319217	0.00227484451019154	-0.0101183978716995	0.00127374208155932
7.4	-0.00503128875531658	-0.0133413162346914	-0.00184846571987142	0.00255915405484572	-0.00184120690857096	0.00256568658240483	-0.00900626130255446	0.00241541738534472
7.5	-0.00693103709252764	-0.0138652388230225	-0.00146498292018729	0.00279754103697336	-0.00146603380289579	0.00279552202056718	-0.00942939686467694	0.00234666995688463
7.6	-0.00815408882815173	-0.0123410088997467	-0.00106661603434972	0.00296988782368544	-0.00105589117408008	0.00298022314473432	-0.00935546463412153	0.00478582319639785
7.7	-0.00878880565898009	-0.0118144342846746	-0.000636127143240561	0.00309137793545025	-0.000630551298853249	0.0030910082941562	-0.00823972364872129	0.00581350193478572
7.8	-0.00928177776971671	-0.0115054875061497	-0.000188118446983095	0.00315099977817538	-0.000201820988788155	0.00314395676417816	-0.00718350069216685	0.0066991331769557
7.9	-0.00972751676781165	-0.0115294016439361	0.000239074825253371	0.00313541913853347	0.000250187187101578	0.00313506201903153	-0.00624707671088407	0.00733827869795565
8	-0.0113240795872344	-0.0109631131573914	0.000675585338168676	0.00307232127943823	0.000683870837943363	0.00307020360456863	-0.00649846267025335	0.00878830805798991
8.1	-0.0107639073049398	-0.00975761200887172	0.00110304493208908	0.00294712105075001	0.00110075118106033	0.00294387528423389	-0.00364992541790664	0.0114651750620907
8.2	-0.0107574477842535	-0.00968285132163786	0.00149491600551884	0.00276443086207905	0.00149413718956592	0.0027760272663704	-0.00037325203681242	0.0118884791537028
8.3	-0.0110822656554266	-0.00943078874066489	0.00186799093403639	0.00252940939530397	0.00187305889206234	0.00252680187200273	0.00267263712064759	0.0114239311647263
8.4	-0.011385992159961	-0.00928898914372057	0.00221287396850155	0.00224433567782509	0.00220171592414097	0.00224478453068135	0.00544234853305416	0.00967943639740749
8.5	-0.013005626453115	-0.00887506434799315	0.00250341574868195	0.0019095422919881	0.00250342906834308	0.00191089178162026	0.00568599092157951	0.00765556270279016
8.6	-0.0130696233302223	-0.00686511367576532	0.00273672055175955	0.00155022756314307	0.00273250156467723	0.00154793233782675	0.00739048148719021	0.00770746991358291
8.7	-0.0126909190740893	-0.00608727217323685	0.00292549118164036	0.0011483666913182	0.00292432699291929	0.00114796016060186	0.00965068884538399	0.00582021098782797
8.8	-0.0124414999943953	-0.00546835810911939	0.00305137580838001	0.000728421680926441	0.00306233938381103	0.000726273994606422	0.0112518448995297	0.00304567207043982
8.9	-0.0119874715447158	-0.00531661794418023	0.00312161795764767	0.000299411986157711	0.00313093577695583	0.000292251019424358	0.0123533622250418	-0.000683157123789235
9	-0.0126851429812244	-0.00550880688709167	0.00313663767506186	-0.000147508489255128	0.00314342843592317	-0.00014192632754691	0.0108757468169226	-0.00487052422728617
9.1	-0.0124905753259214	-0.00463193005809368	0.00308598514264245	-0.000583616399923333	0.00308620198439067	-0.00058380960389222	0.00950875341238265	-0.00698583429905849
9.2	-0.0123888971696064	-0.00473679522640921	0.00296675290427202	-0.0010030738041715	0.00297056845197291	-0.00100286557964643	0.00780959194142883	-0.0097702913347382
9.3	-0.0127102309349249	-0.00461140650598933	0.0027928408274477	-0.0014091128927607	0.00281085378774973	-0.00140961021158328	0.00518142026807536	-0.0119670972713754
9.4	-0.0129885994060736	-0.00450379631832761	0.00257605000048487	-0.00177988942475941	0.00257933389321124	-0.00179091076544568	0.0020569410821584	-0.0137896340167679
9.5	-0.014132200735612	-0.00359960101435418	0.00230113189790433	-0.00213820826667583	0.00231590768145216	-0.00213893326315176	-0.00276397439842407	-0.0141027461387722
9.6	-0.0134896472689527	-0.00210747292926824	0.00197860956442026	-0.00243377357539731	0.00197895821556526	-0.00242677925019674	-0.00548743940406461	-0.0123015893544537
9.7	-0.0130549753232955	-0.00176949059281925	0.00161820554832718	-0.00268383719700106	0.00162647208276136	-0.00268544652955585	-0.0078384217589867	-0.0114434498132199
9.8	-0.0129126993148794	-0.00138167287346927	0.00123545851649867	-0.00287796536992261	0.00123361327164769	-0.00288658351723458	-0.0103254086964586	-0.0102986790906529
9.9	-0.012744604070716	-0.0011618718612532	0.000824762817391924	-0.00302268475665219	0.000812908373839602	-0.0030252569197963	-0.0128457665897223	-0.00923343603758194
10	-0.0138736554557148	-0.000878204106069213	0.000390406549140131	-0.00309431448559152	0.000389570997914744	-0.00310159697356861	-0.0171634799724239	-0.00743245741349762
10.1	-0.0136038963673741	0.00085630679474338	-3.69021762965382E-05	-0.00312873912683554	-4.15298419962793E-05	-0.00313148676437474	-0.0194676395349885	-0.00264160991362275
10.2	-0.0130047567041439	0.00154471542144444	-0.000474468720647953	-0.00308938505199696	-0.000487023910033449	-0.003093107885966	-0.0201447300892894	0.00135921069754827
10.3	-0.0124327829680015	0.00218167732191187	-0.00090493558463472	-0.00298573028681398	-0.000904745846144421	-0.00299906025995059	-0.0199958068370916	0.00524987949495285
10.4	-0.0116088935826394	0.00225521441019896	-0.00131056696710816	-0.00283471128390842	-0.00131371497321681	-0.00283258681784748	-0.0189298947054993	0.00808559254621834
10.5	-0.0120877657955808	0.00231899259069683	-0.00168464866755926	-0.00261777337164534	-0.00169078176180513	-0.00262498323613308	-0.0195006263656704	0.0108854431418271
10.6	-0.0114438369811311	0.00330257882204458	-0.0020432559928782	-0.00236668241444642	-0.00204474820136087	-0.00237176942835812	-0.0181582458374225	0.0155447560972335
10.7	-0.0110165715998263	0.00371483597207725	-0.00234904340026347	-0.00205529746074198	-0.00235223931520841	-0.00207124912346216	-0.0158324327174093	0.0194176529041426
10.8	-0.0103426588826757	0.00445043684575518	-0.0026131753623283	-0.00170945526598674	-0.00261025260758894	-0.00171160997064771	-0.0124448235475071	0.0231945786215945
10.9	-0.00929824955999461	0.00464894429398961	-0.00282712073321597	-0.00133634566355675	-0.00282639913679332	-0.00134144269597995	-0.00800062295871503	0.0255100150497582
11	-0.00944235474678708	0.00479997885210769	-0.0029948224087315	-0.000926705638080805	-0.00298781810280318	-0.000930969840129553	-0.0049325216471049	0.0273147401344035
11.1	-0.00799517446333857	0.00588576276257289	-0.00309082050978694	-0.000507171131366718	-0.00308310874879472	-0.000498901025089674	0.000722917155624911	0.0301890897924866
11.2	-0.00659899459538103	0.00555502664565603	-0.00312906699526522	-6.78419477333297E-05	-0.0031356395077673	-6.4649547497476E-05	0.0074054411791284	0.0303837489610451
11.3	-0.00553513043773733	0.00496266553538053	-0.00310671814358816	0.000369117799105675	-0.0031098670548815	0.000366958356648063	0.0141294051916033	0.0288468595368865
11.4	-0.00472176337099855	0.00400895749470302	-0.00302403413561475	0.000797216786246834	-0.00302864915407194	0.000797361381670421	0.0203163469753214	0.0252737921827381
11.5	-0.00537465084328325	0.00336760656211234	-0.00289174590833755	0.00120985655972032	-0.00288425252545999	0.00121459831987867	0.0235824266028926	0.0207770979804518
11.6	-0.00453057627104467	0.00376481999331263	-0.00268623910681689	0.00159910629256146	-0.00269432567105503	0.00160876111666504	0.0278959904432379	0.0172932575302322
11.7	-0.00370424174965338	0.00295753585785316	-0.00243578425360917	0.00196260112267961	-0.0024375324454702	0.0019662742461624	0.0319783820578391	0.0114143886452223
11.8	-0.00317489745068878	0.00203202948784014	-0.00214066447692351	0.0022862373083492	-0.0021498546091381	0.00229598311172934	0.0345863411532616	0.00427859859682469
11.9	-0.00303997956873611	0.000489554503140164	-0.00180175768254015	0.00255998459664408	-0.00180179780146537	0.00256652219229783	0.0348702205998446	-0.00408157725287171
12	-0.00462648247303927	-0.000283134057904061	-0.00142058603509681	0.00278016440710393	-0.00142505902830248	0.00278293270414972	0.0310130970500033	-0.0109582871708913
