# GHZ S RI R 50
0.2	-0.0138977206963587	0.00571814415773263	0.00304251985402304	-0.000885815206170434	0.00305297375658386	-0.000885666611282652	0.00587474059390119	0.00120850945034815
0.3	-0.0131151839637806	0.00608093803736573	0.00289576105810129	-0.0013016185686096	0.00288947528772085	-0.0013132496846465	0.00615825343818119	-0.00118842049251539
0.4	-0.0123893766852284	0.00663161477093295	0.00268092830975179	-0.00169525653020121	0.00267882398101764	-0.00169716580122046	0.00572319774306732	-0.00317160480375657
0.5	-0.0120466246636956	0.00739716477613888	0.00241104957893495	-0.00205093211246803	0.00241385906090653	-0.00205465467211256	0.00456626634811449	-0.00467062111033232
0.6	-0.0111014065149288	0.00854090568022981	0.00209892152641374	-0.00237059036573772	0.00209817808306612	-0.00237342923058261	0.00361226582120826	-0.00566838391369713
0.7	-0.010181645481156	0.00918891797248098	0.00174829070958205	-0.00263997220683565	0.00175448751010909	-0.00264406269943003	0.00226037264940947	-0.00668810094117996
0.8	-0.00926696413252305	0.00979248780666303	0.00135510127914133	-0.00285895832975912	0.00136336274470969	-0.00285736710573559	0.000598232498106103	-0.00720944186567349
0.9	-0.00839036474380455	0.0102244337168902	0.000951477313483706	-0.00301006879125342	0.000951456249771844	-0.00301946977435787	-0.00107814601933257	-0.0073487492949258
1	-0.00797557597598329	0.0104015017916173	0.00051963939115742	-0.00311831946031965	0.000519490649881016	-0.003123668452672	-0.00309687618347131	-0.00711460488087665
1.1	-0.00761384925373336	0.0113768213279738	7.23224242001767E-05	-0.00315768803973904	7.32074977465616E-05	-0.003162407378025	-0.00478988822151255	-0.00559589431635332
1.2	-0.00674928268371558	0.0118274265104529	-0.000365444100435667	-0.00312990993819686	-0.00036422353210343	-0.00314667535076107	-0.00535592630364728	-0.00402569740359404
1.3	-0.00613977027847439	0.01177146588282	-0.000795300456939751	-0.00305552447742182	-0.000800229897061652	-0.00306316556837271	-0.00508471885039505	-0.00264087119863834
1.4	-0.00568786045196671	0.0113681359248611	-0.00122017929572993	-0.00291080395477473	-0.0012225901729874	-0.00291792111685747	-0.00454398665669079	-0.00204145361150572
1.5	-0.00541369830996131	0.0113924563828493	-0.00161147816213204	-0.00271239543644593	-0.00160951075199508	-0.00271792682892893	-0.00450595587989465	-0.00154165653966341
1.6	-0.00434983241489909	0.01178098796479	-0.00197253593532706	-0.00245606629527848	-0.00197599849642722	-0.00245694399735905	-0.00450926034145235	-0.000676191727144342
1.7	-0.00337527633283931	0.0118363441047093	-0.00229613651814589	-0.00216283037693095	-0.0022981781787628	-0.00217139961391892	-0.00446879716693003	0.000306087616558564
1.8	-0.00250240250800809	0.0120088986337596	-0.00257223556661428	-0.00181482458256284	-0.00257739823292975	-0.00182027519909507	-0.00416329682638355	0.00138705758757998
1.9	-0.00170730647184113	0.0119610012871002	-0.00279730572014049	-0.00144659191206468	-0.00279380561493293	-0.0014404152356919	-0.0035587736083936	0.00236271963852164
2	-0.00136037167502837	0.0121742301253405	-0.0029712791299555	-0.00103617307003248	-0.00297401651272495	-0.0010293490323665	-0.00293841502218385	0.00347672990190193
2.1	-0.00029803397105796	0.0126508954763248	-0.00308647982439091	-0.000606701773755588	-0.00308856823317843	-0.00061338275694086	-0.00132926642944082	0.00437247829976903
2.2	0.000758819535766436	0.0125981873877687	-0.00314079206030565	-0.000177382591551184	-0.00314261361620435	-0.000167682845593174	0.000449602989819367	0.0043854711285785
2.3	0.00160324798723243	0.0123266148680739	-0.00313327219668069	0.000263392306604786	-0.00314000775438927	0.000260479909723151	0.00204055360162903	0.0038512263146219
2.4	0.00229944026163137	0.0119028504111996	-0.00307380571960036	0.0006964459513203	-0.00307266004620213	0.000711529817971933	0.0034772997396517	0.00291532112680106
2.5	0.00235048418099353	0.0114914021166869	-0.00294051950642903	0.00112639130773786	-0.00295349653611857	0.00112766049478364	0.00435066010787767	0.00169707434091435
2.6	0.00275463760408897	0.0118980926790625	-0.00275275548262469	0.001521699376105	-0.00277364858906825	0.00152556368972306	0.0054486950259945	0.00063350371759651
2.7	0.00360431874166817	0.012042616789184	-0.0025220224305434	0.00189070561406665	-0.00252231093573926	0.00189578279320518	0.00633377176747825	-0.00110008972531945
2.8	0.00463600868234301	0.0120095029477649	-0.00222858375785331	0.0022156002433489	-0.00223842610935074	0.00222675784795309	0.00672324503558078	-0.00301833896333685
2.9	0.00576339275153567	0.0116367973807619	-0.00189427229528951	0.00250884545886605	-0.00189236742391917	0.00251774762454187	0.00674367664008979	-0.00497645755290105
3	0.00657706640908614	0.0112518914490832	-0.00152521923942652	0.00275386934940002	-0.00154026022782243	0.00274080676925698	0.00627659744477861	-0.0066988467298991
3.1	0.00787124533630117	0.0109439134508004	-0.00112653004974765	0.00293822007560132	-0.00114347222413772	0.00294358700082479	0.00591434454534694	-0.00841279321334606
3.2	0.00894856443602684	0.010099599868859	-0.000708250082092268	0.00306405719187783	-0.000704007576777384	0.00307486586656594	0.00478135611401068	-0.0103254441835553
3.3	0.0097655711180403	0.00907148486206739	-0.000279847441184844	0.00313704819620251	-0.000276540424141195	0.00313267797360327	0.00320469529503142	-0.0120471345780488
3.4	0.0102922604398894	0.00789083239413129	0.000165530014413492	0.00314730978421287	0.000156101009760616	0.00314836783436942	0.00119973321861076	-0.0136468614855522
3.5	0.0102090230999272	0.0069606162942524	0.000600275582510328	0.00309164747926952	0.000605285119795597	0.00309032702368267	-0.00153109462573316	-0.0147272185319584
3.6	0.0105910642855352	0.00651857158152192	0.00101944849003178	0.00297219997466233	0.00102603669813473	0.00297570459650233	-0.00401678455710582	-0.0150619392893923
3.7	0.0109993776031344	0.00572857508061549	0.00143585883758566	0.00279780979207373	0.00143407548831156	0.00281417142791884	-0.00670906577772738	-0.0151725183677993
3.8	0.0113230614627484	0.00489977525578554	0.00180488418330134	0.00257293095758033	0.00181546874176706	0.00257930794508114	-0.00956436951704319	-0.0147089272879404
3.9	0.0115580144321764	0.003960961325811	0.00215342837039406	0.00229581251825146	0.00214883046466547	0.00229570576336613	-0.0123991939125363	-0.0136140645062251
4	0.0113656049071969	0.00330020707930899	0.00244436043183531	0.00197750445318547	0.00245578257792729	0.00198367374839717	-0.0150321197418286	-0.0116123091489628
4.1	0.0118544875050648	0.00296886552220434	0.00269767308927008	0.00161387008544364	0.0027142115290419	0.00162370077572149	-0.0165298563798632	-0.00913797800921282
4.2	0.0123787196711516	0.00206339253033561	0.00290201994416117	0.00121811403785142	0.00290324690421252	0.00122040505427282	-0.0177441640122654	-0.00684752304042778
4.3	0.0126620066212456	0.00099446256579253	0.00304700223111458	0.0008103209010006	0.00304816339707549	0.000818915053022685	-0.0186738005651242	-0.0044695940003308
4.4	0.0126267955968319	-0.000299251601045642	0.00312766838843867	0.000375224405057896	0.00313560989400328	0.000370608790475074	-0.0193502460689738	-0.0019504327242938
4.5	0.0118841070131897	-0.00124173051133708	0.00315411696052131	-6.84033055430216E-05	0.00315091478557837	-6.61497170536834E-05	-0.0198150883627402	0.000933040640828248
4.6	0.0116128081559476	-0.00161013034402657	0.00310404891105666	-0.0005164999284319	0.00311706634080119	-0.000504456388614909	-0.0192149745386502	0.00394467250176686
4.7	0.0114899107690739	-0.00221412979286296	0.00300354078560204	-0.000931495885666454	0.00300347378224573	-0.000940948884947067	-0.0182976920173957	0.00638499867400909
4.8	0.0112964831269171	-0.00289852920146695	0.00285597546243913	-0.00133576806911031	0.00284837046616677	-0.0013560117157548	-0.0170463999627533	0.00873985497879767
4.9	0.0111936506173887	-0.00368234370267717	0.00264217200070361	-0.00173512925233128	0.00263605960021508	-0.00172668603647643	-0.0153905110879753	0.0108157674435799
5	0.0107531993020133	-0.00430434323645072	0.00236759040710525	-0.00207128463930751	0.00237038034336064	-0.00208373727642861	-0.013330256002184	0.0128859756830478
5.1	0.0110580499492326	-0.00477124367770738	0.00204454285231598	-0.00239760959461803	0.00205780161071835	-0.00239509115401896	-0.0102689034540599	0.0143887117949128
5.2	0.0112351263256757	-0.00583609367604322	0.00170142152203569	-0.00265647624214779	0.00170193396218644	-0.00266064851853193	-0.00728419591468362	0.0149749851408432
5.3	0.0111315683176271	-0.00702763987330806	0.00131086576864024	-0.00287018214774991	0.00130711524767486	-0.00287277089120651	-0.00432324231421502	0.0151272693146067
5.4	0.010651082794803	-0.0083315587803919	0.000898181008168157	-0.00303200200451574	0.000897294536088626	-0.00303447098869273	-0.00142497963413983	0.0145618013851415
5.5	0.00941719626634918	-0.00896670413602363	0.000455853377037437	-0.0031273014436332	0.000468471598720113	-0.00312726525115704	0.000969698162171827	0.0137137622542019
5.6	0.00908841802262452	-0.0091899786431254	2.14709805632401E-05	-0.00315725932705746	1.81584843900089E-05	-0.00315379596800541	0.00358562417363976	0.0122632933784116
5.7	0.00855148877810961	-0.0098820094968729	-0.000413080552421068	-0.00313247255231493	-0.000416803967321989	-0.00313617916258866	0.00526939588557549	0.0101626354693819
5.8	0.0078682968873442	-0.0105190588896927	-0.000850454247177007	-0.0030429884165152	-0.000849712569854185	-0.00305069774034514	0.00633922449938266	0.00792039430733094
5.9	0.00700906645652575	-0.0112242493982986	-0.00127015928313824	-0.00288961084791869	-0.0012685500790582	-0.00289377543652342	0.00675728358353523	0.00563567120502346
6	0.00532125248446845	-0.0116550538173342	-0.00165928712073702	-0.00268298081166393	-0.00165327545740442	-0.00268633488868901	0.0062913483304739	0.00387273165857298
6.1	0.00444543921995526	-0.0111230820831052	-0.00201928155382792	-0.00243287211569705	-0.00201511984706851	-0.00243765126465711	0.00667127070435242	0.00261408233447176
6.2	0.0039688497261219	-0.0112582518983343	-0.00234201321059254	-0.00211584828524913	-0.00233841884304315	-0.00212454361885054	0.00692715388353784	0.000462207512396302
6.3	0.00347736616763554	-0.011723827852916	-0.00261111106504367	-0.00177466145378799	-0.00262096091156934	-0.00178245068697655	0.00659357990361361	-0.00210105043008788
6.4	0.00257395594046587	-0.0125180845852779	-0.00283881791275176	-0.00138776213863814	-0.00283682034663025	-0.00139357799071619	0.00544356167450025	-0.00471278499813848
6.5	0.00119206359192128	-0.012603924565682	-0.00300545729252452	-0.000985327889532362	-0.00300586318220477	-0.000984201149906764	0.00369220226106109	-0.00648622094468406
6.6	0.00079995100085118	-0.0125183271302895	-0.00311187904021899	-0.000556342275090566	-0.00312259440998374	-0.000559355445761309	0.00219384622635492	-0.00822539457186282
6.7	0.000195810764299046	-0.012810601143786	-0.00315648664844775	-0.000118913639181516	-0.00315543459984916	-0.00011264994313127	-0.000239086379310555	-0.00949364543549712
6.8	-0.000527000165515404	-0.0130165920445243	-0.00314126691199648	0.000331773851367972	-0.00314035248594855	0.000336552695930972	-0.0029129297120733	-0.00986851305665586
6.9	-0.00151938947275315	-0.0133882043652594	-0.00305882666010544	0.000763965848510096	-0.00305924625256956	0.000768971470127264	-0.00559148928187845	-0.00957653679779396
7	-0.00321886631042701	-0.0129335163819141	-0.00292821331065749	0.00118606245742121	-0.00292962883047492	0.00118929617816827	-0.00823614661548839	-0.00808628441063522
7.1	-0.00366536376912501	-0.0119788371184732	-0.00272687745480847	0.00158677220439347	-0.00272928437771954	0.00159784057791547	-0.00954369478308922	-0.00629592457742033
7.2	-0.00409396218908061	-0.0116910480021177	-0.00248394109131539	0.00194915564876437	-0.00248411016035349	0.00195507391173343	-0.0108779828567239	-0.0045766617885682
7.3	-0.00468453335358814	-0.0115121939906763	-0.00219104670151146	0.00227513662663346	-0.00218827034633087	0.00227660880927155	-0.0118340542387475	-0.00250225400631256
7.4	-0.0055054117774848	-0.0116986283959942	-0.00184573347091897	0.00256035393926114	-0.00183847006451626	0.00256687846089693	-0.0124355436799247	-0.00049924546064226
7.5	-0.00743675445287156	-0.0116065183810268	-0.00146338956503226	0.00279475835772845	-0.00146443945845028	0.00279274143002195	-0.0129323818274878	0.00211755837377821
7.6	-0.00842958541156956	-0.0103673593073126	-0.00106789230489188	0.00296916392319857	-0.00105717302943313	0.0029795033396498	-0.011733724948963	0.00497237381416193
7.7	-0.00923485613506447	-0.00972046639743965	-0.000636666107784405	0.00309179521564122	-0.000631089297455171	0.00309142629781141	-0.0102330572626896	0.00647724294854695
7.8	-0.00977505929945768	-0.00926227438809151	-0.000188073607475019	0.00315115099906434	-0.000201776912917785	0.00314410788765301	-0.00854211943433259	0.00782703351360784
7.9	-0.01041784897657	-0.00901717549077368	0.000238189558378639	0.00313463812696866	0.000249299023879879	0.00313428401308437	-0.00662116277232901	0.00900820641827195
8	-0.0112392336926186	-0.00793030449894312	0.000673164378581102	0.00307495523179673	0.000681457257147055	0.00307284389284241	-0.00448360595004363	0.0102287377752973
8.1	-0.0107935281008441	-0.00711439295356624	0.0011048093635878	0.00294994447696375	0.00110251255063735	0.00294669582814258	-0.00135592333547511	0.0104262484396135
8.2	-0.0107005704412959	-0.00686758255685451	0.00149711494164746	0.0027650745473047	0.00149634173351686	0.00277667730379108	0.0012014670725443	0.00993232975728582
8.3	-0.010801851735118	-0.00669838231733286	0.00186916052183722	0.00252925566283028	0.00187422854447811	0.0025266460023247	0.00363461721292126	0.00904957789869451
8.4	-0.0112356830087206	-0.00669410723154638	0.00221352371618165	0.00224568864655743	0.00220236057670726	0.0022461359766374	0.00568926556645327	0.00755176433047475
8.5	-0.0124772343785138	-0.00596439554727829	0.00250791556338713	0.00190994063338256	0.00250792993315622	0.00191129174980329	0.00712425204564928	0.00621529823972524
8.6	-0.0125234203086087	-0.0046025246883238	0.00273885318196316	0.00154738964941997	0.00273463101309883	0.00154509881283776	0.00911924614891788	0.0041975161590869
8.7	-0.0123914787647778	-0.00384407982718944	0.00292609662431248	0.00114629049069872	0.00292493222923646	0.00114588478306544	0.0100421873874253	0.00136564399545068
8.8	-0.0122030759313514	-0.00326682691189473	0.00305216406237714	0.000727006426979364	0.00306312810114559	0.000724852990244807	0.0100932036731391	-0.00150558173494006
8.9	-0.0120616602053242	-0.00314851791539778	0.00312363080542674	0.000296773759682249	0.00313294739397891	0.000289600418664346	0.00952198227789696	-0.00419536603012599
9	-0.0126268698922862	-0.00281727037651821	0.00313483302182287	-0.000152775514443058	0.00314162992295911	-0.000147207678807169	0.00838569302782763	-0.00615838892108138
9.1	-0.0123687837483219	-0.00214882418612677	0.00308292810508522	-0.000584975904677627	0.00308314463971871	-0.000585169070938706	0.00777514659835176	-0.00810154868982223
9.2	-0.0122227559088022	-0.0020310710494553	0.00296503249962439	-0.00100398946786665	0.0029688465131989	-0.00100378306045795	0.00650851462500454	-0.0103107554868289
9.3	-0.0122673348581506	-0.00196078586625576	0.0027909729245352	-0.00141086681480529	0.0028089804484945	-0.00141137785604398	0.00475415827906794	-0.0122966599481473
9.4	-0.0126360325299725	-0.00207106421761181	0.00257158557798979	-0.00178180945152584	0.00257485226992965	-0.00179282602363386	0.00233351964881218	-0.0141587433657619
9.5	-0.0135472849720671	-0.00118322972401798	0.00229655923187532	-0.00213483704749425	0.00231130831562401	-0.00213556376539325	-0.000727737899451087	-0.0148490034490158
9.6	-0.0133916754483148	-0.000206497318838992	0.00197767556994418	-0.00243150633772521	0.00197802238662043	-0.00242451717055686	-0.00363136317494351	-0.0155005286159704
9.7	-0.0133796005259849	0.00037355559880934	0.00161661863254675	-0.00268239449658459	0.00162487943118238	-0.00268400439315729	-0.00740855960259447	-0.0154667410819404
9.8	-0.0134170700706567	0.000937078992841916	0.00123325112667985	-0.00287543634646147	0.00123140492778613	-0.00288404509495149	-0.0112973917888581	-0.0143083618258744
9.9	-0.0136212537873358	0.00139863783564266	0.000824126111801024	-0.00301765685015562	0.00081229123769317	-0.00302022757652748	-0.015192618142208	-0.0120534557850321
10	-0.0144021860567439	0.00248152208166341	0.000394061088155313	-0.0030921957700502	0.000393235063031689	-0.00309947546070594	-0.0184692593718068	-0.00829963267420136
10.1	-0.0138813512693829	0.00401740517716622	-3.63101801107731E-05	-0.00312810291322438	-4.09363812082571E-05	-0.00313085085033767	-0.0199403102804879	-0.00432284513983441
10.2	-0.0130971496093406	0.00481807535389849	-0.000473460075255203	-0.00308727469124306	-0.000486005464707912	-0.00309099757620313	-0.0209191373042442	-0.000516940927110165
10.3	-0.0123335392882523	0.00522173937410524	-0.000902003699663961	-0.00298400166458966	-0.0009018042672662	-0.00299732079588369	-0.0212250668173658	0.00348753142528055
10.4	-0.0119083617543899	0.00516668295427916	-0.00130652738801431	-0.0028364603170184	-0.00130967827888341	-0.00283434036021734	-0.0208317225846986	0.00741701809776558
10.5	-0.0122163201591828	0.00580581170731345	-0.00168652415333281	-0.00262097138332742	-0.00169266418962449	-0.00262819013046613	-0.0196583889613988	0.0119469072731454
10.6	-0.0114576559346016	0.00676401135956716	-0.00204460679774783	-0.00236558345035233	-0.00204610186345048	-0.00237066971733609	-0.0167819178340851	0.0157552035996202
10.7	-0.0106097313342172	0.00728495308815633	-0.00234896436262211	-0.00205426403349493	-0.00235216323027951	-0.00207021117138413	-0.0134745571053344	0.0187833698849002
10.8	-0.00968933837398738	0.00753075936874632	-0.00261323747331232	-0.00170907182813589	-0.00261031511217761	-0.0017112267552703	-0.00978455802150618	0.0211015570520357
10.9	-0.00912501640839078	0.00741755718787888	-0.00282907213168246	-0.00133491443380369	-0.00282835373815185	-0.00134001383518884	-0.0060432876353715	0.022763931124475
11	-0.0090812658352304	0.00798546881574409	-0.00299301594131131	-0.000920903680218024	-0.00298602613550541	-0.000925174391806146	-0.00189611382670991	0.024546682459497
11.1	-0.00783220573300094	0.00866914551269003	-0.00308612972948789	-0.000505670845212967	-0.003078428059714	-0.000497415377549333	0.0034248795861363	0.0249387179628618
11.2	-0.00659662379620415	0.00857950561179331	-0.00312562224734722	-6.78181773890228E-05	-0.00313218757846247	-6.4629397461118E-05	0.00838547055917608	0.0241278045702979
11.3	-0.00542801216300842	0.00802032834306389	-0.00310357853296154	0.000369538779317712	-0.00310672490051472	0.000367382248072792	0.0132914556160338	0.0225258829809182
11.4	-0.00477339569071929	0.00703946409489135	-0.00301843642773832	0.00079808865493022	-0.00302304368161472	0.000798236360209296	0.0177237700452728	0.0199298451445491
11.5	-0.0049295458004188	0.00667508831030402	-0.00288499632269005	0.00120431512750079	-0.00287752672963223	0.00120905022622436	0.0215439903014181	0.0169560778897289
11.6	-0.00419129076025183	0.00638344660626056	-0.00268478710384973	0.00159346016859242	-0.00269287565960532	0.00160309159149295	0.0254694404614074	0.0125752708639682
11.7	-0.00375491381514348	0.00548216760100689	-0.00243469321382388	0.00195822972919698	-0.00243644259135593	0.00196189711467202	0.0279730249646873	0.0072634621280152
11.8	-0.00366339236599058	0.00455061918243281	-0.00213914293353773	0.00228109648635896	-0.00214832648045613	0.00229082032554336	0.0293643695724104	0.00182765767676804
11.9	-0.00399983342080908	0.00357268927817424	-0.00180185537825591	0.00255204159332537	-0.00180190512879377	0.00255856568166977	0.0296455583919557	-0.00329511680239892
12	-0.00505153321952686	0.00370858424549363	-0.00142749612491547	0.00277404670751286	-0.00143197374219988	0.00277680015786848	0.0293460635066172	-0.00776942128915871
